#  HZ   S   RI   R     50.00 
! Rohde & Schwarz Vector Network Analyzer 
! Rohde-Schwarz,ZNB20-2Port,1311601062101988,3.16
! Created: UTC 3/21/2024, 1:12:47 AM
! freq[Hz]                re:S11                  im:S11                  re:S21                  im:S21                  re:S12                  im:S12                  re:S22                  im:S22
 6.529110053000000E9     5.567242378252738E-1   -6.736513130421171E-2   -7.529055902745790E-3   -3.048735789272891E-2   -8.113813141397079E-3   -3.017208990320895E-2    4.884621491364533E-1   -1.712894907255399E-1
 6.529120337400000E9     5.567499965812114E-1   -6.812602198669063E-2   -7.505412147299037E-3   -3.062509043483304E-2   -8.263212316488806E-3   -3.032406050873276E-2    4.881275920813345E-1   -1.722408230421998E-1
 6.529130621800000E9     5.565062566365987E-1   -6.909650129666028E-2   -7.788367460805809E-3   -3.057013192383345E-2   -8.303829702373330E-3   -3.040497863131851E-2    4.876772368453261E-1   -1.729824571918940E-1
 6.529140906200000E9     5.564229019456650E-1   -6.984368446174677E-2   -7.841936263563406E-3   -3.073176362295943E-2   -8.386991755521026E-3   -3.065529731269309E-2    4.873200829065530E-1   -1.737749470532581E-1
 6.529151190600000E9     5.563781184244624E-1   -7.062395708509092E-2   -7.993260766953539E-3   -3.081124014871435E-2   -8.473944746119953E-3   -3.066715283770923E-2    4.871086002018297E-1   -1.748446864437043E-1
 6.529161475000000E9     5.562637134425149E-1   -7.139815019101735E-2   -7.978260237712594E-3   -3.100660857811743E-2   -8.595324401962517E-3   -3.099260323438258E-2    4.868322832021161E-1   -1.756336931083136E-1
 6.529171759400000E9     5.562991101451827E-1   -7.230272680089947E-2   -8.027082837887202E-3   -3.123964884240430E-2   -8.837339597385824E-3   -3.090893803702524E-2    4.863567396144725E-1   -1.765708199597164E-1
 6.529182043800000E9     5.561742026803463E-1   -7.318931057069028E-2   -8.030343019796672E-3   -3.127539578757413E-2   -8.822423695434678E-3   -3.123985333005893E-2    4.860613547699499E-1   -1.774360087262530E-1
 6.529192328200000E9     5.559552795741480E-1   -7.397894253211137E-2   -8.323307925544565E-3   -3.147097270584512E-2   -8.806919767683226E-3   -3.142823015426487E-2    4.856625967410154E-1   -1.783714005435118E-1
 6.529202612600000E9     5.557895619568628E-1   -7.478766433285543E-2   -8.437124963849994E-3   -3.152904424196291E-2   -9.007300860939670E-3   -3.137976779437842E-2    4.852540820155830E-1   -1.791619326589121E-1
 6.529212897000000E9     5.558623260893453E-1   -7.572762956969598E-2   -8.502703970395722E-3   -3.180651870971466E-2   -9.148433360042790E-3   -3.163017691284543E-2    4.847855672503278E-1   -1.801207928469923E-1
 6.529223181400000E9     5.555277382995342E-1   -7.648078502991332E-2   -8.613778701975633E-3   -3.184643202982434E-2   -9.256737926459846E-3   -3.176210577985945E-2    4.845085907708168E-1   -1.809168594178745E-1
 6.529233465800000E9     5.554877987087693E-1   -7.740749801655152E-2   -8.739956931580502E-3   -3.196327906254623E-2   -9.389571442809995E-3   -3.194926953168829E-2    4.841989914238104E-1   -1.817555667216691E-1
 6.529243750200000E9     5.554652179084646E-1   -7.811158878966548E-2   -8.705025999000084E-3   -3.206656674115887E-2   -9.464045645718582E-3   -3.201197562881354E-2    4.836593760844438E-1   -1.827241862621985E-1
 6.529254034600000E9     5.552776131819673E-1   -7.893800897846179E-2   -8.955830276365855E-3   -3.228746965317106E-2   -9.507867296365649E-3   -3.216700235126020E-2    4.834231717709564E-1   -1.836115267169013E-1
 6.529264319000000E9     5.551225913589730E-1   -7.971580364836742E-2   -9.074855245038781E-3   -3.240870820266831E-2   -9.695763094950835E-3   -3.234737516133848E-2    4.830069288339821E-1   -1.845284695704084E-1
 6.529274603400000E9     5.548696157829777E-1   -8.062635544192187E-2   -8.990577471235399E-3   -3.272628185676432E-2   -9.737241983097921E-3   -3.247553424300251E-2    4.826682112757508E-1   -1.853950451986055E-1
 6.529284887800000E9     5.548448293972307E-1   -8.146302567133028E-2   -9.193446713396638E-3   -3.273631996049783E-2   -9.927882864482448E-3   -3.258238907049422E-2    4.824053457333781E-1   -1.863588615248925E-1
 6.529295172200000E9     5.546369974531045E-1   -8.209100468810725E-2   -9.273971793812511E-3   -3.286279952356379E-2   -1.005188225672559E-2   -3.286007714715098E-2    4.819377113991445E-1   -1.874097111093576E-1
 6.529305456600000E9     5.545950327626942E-1   -8.313334956097497E-2   -9.494316683420299E-3   -3.311557833571856E-2   -1.013626029125130E-2   -3.306955003655910E-2    4.815779578844470E-1   -1.881027732347907E-1
 6.529315741000000E9     5.543601839312694E-1   -8.398904468682518E-2   -9.522241169236173E-3   -3.321510926078454E-2   -1.029700076770354E-2   -3.314297003856440E-2    4.811037601012551E-1   -1.891119216918256E-1
 6.529326025400000E9     5.542455601498758E-1   -8.481895769347235E-2   -9.616456965973305E-3   -3.335634302454243E-2   -1.034401620419535E-2   -3.324344071198970E-2    4.808872681080751E-1   -1.899760556590170E-1
 6.529336309800000E9     5.540787144143914E-1   -8.565960914223557E-2   -9.941223811593146E-3   -3.356265278028739E-2   -1.046551134880381E-2   -3.342274780145580E-2    4.803221238119799E-1   -1.909960890908564E-1
 6.529346594200000E9     5.540273694992501E-1   -8.647546781302154E-2   -9.837060274333518E-3   -3.377046246889000E-2   -1.067103125226052E-2   -3.356674191921916E-2    4.797191906145946E-1   -1.917794293571829E-1
 6.529356878600000E9     5.538571350286672E-1   -8.727717586486224E-2   -1.004030306030350E-2   -3.409711551465289E-2   -1.081500988479409E-2   -3.363247193293424E-2    4.796149631793314E-1   -1.928063117920122E-1
 6.529367163000000E9     5.537806346742077E-1   -8.815965348224269E-2   -1.018239837743660E-2   -3.401140169347087E-2   -1.081569087445187E-2   -3.394921972791486E-2    4.790631201632764E-1   -1.937113552719123E-1
 6.529377447400000E9     5.536047090741708E-1   -8.902042723065354E-2   -1.034916717671047E-2   -3.420252951894490E-2   -1.109208469677635E-2   -3.404437028869009E-2    4.786702899691384E-1   -1.944514230143641E-1
 6.529387731800000E9     5.533959893951589E-1   -8.981395623073953E-2   -1.038843515211591E-2   -3.446861744865977E-2   -1.107957657932480E-2   -3.422397652110364E-2    4.782764013707164E-1   -1.955341625653292E-1
 6.529398016200000E9     5.532684928807386E-1   -9.060389141223370E-2   -1.053279982784839E-2   -3.453128434773525E-2   -1.128229530752740E-2   -3.437699830408495E-2    4.777810080112579E-1   -1.965105857026902E-1
 6.529408300600000E9     5.531396455383639E-1   -9.151752736846995E-2   -1.060013111052653E-2   -3.485762846052062E-2   -1.134337607046549E-2   -3.460671714076983E-2    4.775332549572707E-1   -1.973651572011062E-1
 6.529418585000000E9     5.530008616596916E-1   -9.245385649686748E-2   -1.084669793253033E-2   -3.501538404552786E-2   -1.154943850271732E-2   -3.469699997648157E-2    4.770313887546809E-1   -1.984107519437976E-1
 6.529428869400000E9     5.527944484411863E-1   -9.326196169089525E-2   -1.089919632333653E-2   -3.523588277391304E-2   -1.160348756320742E-2   -3.492212130500286E-2    4.765153081044564E-1   -1.991797648039752E-1
 6.529439153800000E9     5.526703502150758E-1   -9.403249916178959E-2   -1.097533212310809E-2   -3.535042148479779E-2   -1.170318994350022E-2   -3.503031074094747E-2    4.762999659522367E-1   -2.001233981139080E-1
 6.529449438200000E9     5.524302486267547E-1   -9.503282877083025E-2   -1.107719817175841E-2   -3.536585365596825E-2   -1.186060405749861E-2   -3.532602633869906E-2    4.757603802101815E-1   -2.010285073639964E-1
 6.529459722600000E9     5.524308693287092E-1   -9.583397421818686E-2   -1.127193250576064E-2   -3.561954694558019E-2   -1.206839327593862E-2   -3.548436574285871E-2    4.751515883619577E-1   -2.020197815126962E-1
 6.529470007000000E9     5.521644800501530E-1   -9.659501011197225E-2   -1.142239506578905E-2   -3.584626494973461E-2   -1.221218775185378E-2   -3.566947156792329E-2    4.747441885793381E-1   -2.027619819606506E-1
 6.529480291400000E9     5.520339007006417E-1   -9.742099849635007E-2   -1.148526147861620E-2   -3.608154155668009E-2   -1.233990044354891E-2   -3.584323546659575E-2    4.741538890597103E-1   -2.040233570460172E-1
 6.529490575800000E9     5.517802998221861E-1   -9.829750629903618E-2   -1.176190616986379E-2   -3.626449747343428E-2   -1.248208924388005E-2   -3.597703666135173E-2    4.737651255834650E-1   -2.049942979145571E-1
 6.529500860200000E9     5.516715928207435E-1   -9.932141485693891E-2   -1.170340354401080E-2   -3.647939982892860E-2   -1.263182970638617E-2   -3.629775653590071E-2    4.734074118767009E-1   -2.058249096749203E-1
 6.529511144600000E9     5.515282156508886E-1   -1.000470315744460E-1   -1.197172249535823E-2   -3.665044010705654E-2   -1.282015104381052E-2   -3.636476203689905E-2    4.729898242215909E-1   -2.068479952351400E-1
 6.529521429000000E9     5.513723472415336E-1   -1.008031866794172E-1   -1.211073590263134E-2   -3.692857726387180E-2   -1.291491859903443E-2   -3.658220281073005E-2    4.723729044048942E-1   -2.076665353278804E-1
 6.529531713400000E9     5.512381752973516E-1   -1.017470732910758E-1   -1.238589456614657E-2   -3.698640726875007E-2   -1.301927637962104E-2   -3.685746958583202E-2    4.719149034704890E-1   -2.087923346321482E-1
 6.529541997800000E9     5.510179050555173E-1   -1.025972131072382E-1   -1.235485287911901E-2   -3.717559342086332E-2   -1.331296632109731E-2   -3.696170837883907E-2    4.714230228759032E-1   -2.096462964386123E-1
 6.529552282200000E9     5.507551076869316E-1   -1.035206928644239E-1   -1.265381267238981E-2   -3.740554903364192E-2   -1.342440333475140E-2   -3.724707655091146E-2    4.708547301084059E-1   -2.107102069302823E-1
 6.529562566600000E9     5.505802397419893E-1   -1.042998764088007E-1   -1.278766597862735E-2   -3.775385604795043E-2   -1.353365779820526E-2   -3.739068868067510E-2    4.702801721013311E-1   -2.116370597244746E-1
 6.529572851000000E9     5.504493157266926E-1   -1.052291371965574E-1   -1.293410851585720E-2   -3.775214013187742E-2   -1.372448423676277E-2   -3.760777740080754E-2    4.699419635127573E-1   -2.126702465327442E-1
 6.529583135400000E9     5.502821351033953E-1   -1.060778289479855E-1   -1.311001666493237E-2   -3.805556124869125E-2   -1.393059403487257E-2   -3.781826019598232E-2    4.694528483114647E-1   -2.136464695481668E-1
 6.529593419800000E9     5.501325229977263E-1   -1.069249351169188E-1   -1.313745538430299E-2   -3.826895923475402E-2   -1.404742230998032E-2   -3.800335391864796E-2    4.689886941485260E-1   -2.147866685352673E-1
 6.529603704200000E9     5.499122884343102E-1   -1.077726016949970E-1   -1.342801031363954E-2   -3.843930767826803E-2   -1.434697396794744E-2   -3.832583014222697E-2    4.683137021470646E-1   -2.154797482138574E-1
 6.529613988600000E9     5.497979120191225E-1   -1.086740278246940E-1   -1.374015878191667E-2   -3.872343075403098E-2   -1.439002825541585E-2   -3.843105157956153E-2    4.680183949075784E-1   -2.167212701806492E-1
 6.529624273000000E9     5.494453733300736E-1   -1.095233161048121E-1   -1.377519527273463E-2   -3.884575488384438E-2   -1.468608959895311E-2   -3.875583315182629E-2    4.672938509570835E-1   -2.174962169702351E-1
 6.529634557400000E9     5.493083333040549E-1   -1.104213310038017E-1   -1.397997073880011E-2   -3.917303844105437E-2   -1.471812694062591E-2   -3.883965301322059E-2    4.666869138989362E-1   -2.187059124497552E-1
 6.529644841800000E9     5.490684886253346E-1   -1.111978905472423E-1   -1.414749982470323E-2   -3.936543078876954E-2   -1.497562537158569E-2   -3.908659492036985E-2    4.662389947472891E-1   -2.195936113859021E-1
 6.529655126200000E9     5.488707708899618E-1   -1.121088957146444E-1   -1.413988263716581E-2   -3.957637192490040E-2   -1.518735249020018E-2   -3.936218649742828E-2    4.655576983557725E-1   -2.205946756863362E-1
 6.529665410600000E9     5.488092089080591E-1   -1.129504404784478E-1   -1.455413740818311E-2   -3.979363778996214E-2   -1.535741037524868E-2   -3.959705425662768E-2    4.651914040222140E-1   -2.217934046811131E-1
 6.529675695000000E9     5.484529758171174E-1   -1.138941826002301E-1   -1.458603590087925E-2   -4.006841450999737E-2   -1.541455786521651E-2   -3.972829569319857E-2    4.645713968535228E-1   -2.225591945085957E-1
 6.529685979400000E9     5.482731127154850E-1   -1.147294617750799E-1   -1.494810471271539E-2   -4.026369226914502E-2   -1.575526086000940E-2   -4.007844569430160E-2    4.640914303177233E-1   -2.237642199178496E-1
 6.529696263800000E9     5.480665294104251E-1   -1.156622635645171E-1   -1.501801692965686E-2   -4.053147887714235E-2   -1.585745269254130E-2   -4.028463135637626E-2    4.634074593574820E-1   -2.246814196868698E-1
 6.529706548200000E9     5.477909016854531E-1   -1.164794696205646E-1   -1.525693501476804E-2   -4.086926368714786E-2   -1.611524325545435E-2   -4.046000088679306E-2    4.627825972168159E-1   -2.259093980809892E-1
 6.529716832600000E9     5.476309165914002E-1   -1.175096636655437E-1   -1.545104176110167E-2   -4.097940186128867E-2   -1.631407134773270E-2   -4.076314754132637E-2    4.622449102740345E-1   -2.267934450418045E-1
 6.529727117000000E9     5.474750483321750E-1   -1.183335105280855E-1   -1.559619465346179E-2   -4.125169244596534E-2   -1.652799332024585E-2   -4.089452385986690E-2    4.616019011389500E-1   -2.279724061252030E-1
 6.529737401400000E9     5.471608501289903E-1   -1.192711769984529E-1   -1.585447618571982E-2   -4.144317118038858E-2   -1.666686483204672E-2   -4.127169261626680E-2    4.610985008020210E-1   -2.289760406948149E-1
 6.529747685800000E9     5.470036426460996E-1   -1.201481071270879E-1   -1.591921794240505E-2   -4.177409047132299E-2   -1.700910851355108E-2   -4.149870234356142E-2    4.604487036078239E-1   -2.300764644086294E-1
 6.529757970200000E9     5.467500430812068E-1   -1.210869873441795E-1   -1.609081787007175E-2   -4.200299444843514E-2   -1.712944848535039E-2   -4.172795498417816E-2    4.597711695838982E-1   -2.310647056243035E-1
 6.529768254600000E9     5.465044406302555E-1   -1.219476990567501E-1   -1.653946086843939E-2   -4.227883085684198E-2   -1.741437558930477E-2   -4.197754620654090E-2    4.591977074405839E-1   -2.319168129733469E-1
 6.529778539000000E9     5.464170817727556E-1   -1.227758137860710E-1   -1.657182883742997E-2   -4.269225758745941E-2   -1.758620139285844E-2   -4.216730665690496E-2    4.587351593413266E-1   -2.330965595062853E-1
 6.529788823400000E9     5.460911745335729E-1   -1.237262723640120E-1   -1.688212725948905E-2   -4.280012730727064E-2   -1.777286799122095E-2   -4.251209608143890E-2    4.578881137919112E-1   -2.341553322745612E-1
 6.529799107800000E9     5.458389433687313E-1   -1.246212491799075E-1   -1.711794435142978E-2   -4.318068071684542E-2   -1.793799568797471E-2   -4.279208522168247E-2    4.574028644420229E-1   -2.351818256647618E-1
 6.529809392200000E9     5.455330592716416E-1   -1.255515917514061E-1   -1.742662816891950E-2   -4.345164095405378E-2   -1.822980847154031E-2   -4.306845690172331E-2    4.567216143571039E-1   -2.362754844266031E-1
 6.529819676600000E9     5.452788315720144E-1   -1.264803624064008E-1   -1.754436997143570E-2   -4.360427381746453E-2   -1.854265606278519E-2   -4.327957533447099E-2    4.560215737091797E-1   -2.374630372255859E-1
 6.529829961000000E9     5.450628253809549E-1   -1.272187571642300E-1   -1.773631501458665E-2   -4.386185697758536E-2   -1.883169043305271E-2   -4.355666480441450E-2    4.552867766712222E-1   -2.385139547862193E-1
 6.529840245400000E9     5.447652047699569E-1   -1.283055223344274E-1   -1.813323514044951E-2   -4.414932857754682E-2   -1.899978860618499E-2   -4.390950880020332E-2    4.545604588053684E-1   -2.397498456866462E-1
 6.529850529800000E9     5.445785028904411E-1   -1.289613501141660E-1   -1.820192234896119E-2   -4.450127467180476E-2   -1.929711384238905E-2   -4.410649294719915E-2    4.538964901565177E-1   -2.406626114403900E-1
 6.529860814200000E9     5.442562196458673E-1   -1.300424671496573E-1   -1.849087774209626E-2   -4.483879019829710E-2   -1.945180669242766E-2   -4.442050587207095E-2    4.531398368097534E-1   -2.419284501724610E-1
 6.529871098600000E9     5.438916174035994E-1   -1.308874847029223E-1   -1.875133672979995E-2   -4.515709556018285E-2   -1.985939703184111E-2   -4.465399832802974E-2    4.524766255182862E-1   -2.430698059939079E-1
 6.529881383000000E9     5.437095027047744E-1   -1.317498107970676E-1   -1.895450319210754E-2   -4.549804434324047E-2   -2.008437487353420E-2   -4.502970514663028E-2    4.518447060794454E-1   -2.441311980783793E-1
 6.529891667400000E9     5.434657895150260E-1   -1.327392003673516E-1   -1.923867361421851E-2   -4.577614293627216E-2   -2.026861707235305E-2   -4.536472917632831E-2    4.511406987222265E-1   -2.451930578915405E-1
 6.529901951800000E9     5.431044483432048E-1   -1.336149477442976E-1   -1.970099977187721E-2   -4.595040539086351E-2   -2.062727305890452E-2   -4.567090233814340E-2    4.503277629685336E-1   -2.463792251926232E-1
 6.529912236200000E9     5.429183970944230E-1   -1.346380271738915E-1   -1.975022697769083E-2   -4.630582800726776E-2   -2.081643294949118E-2   -4.596151400622948E-2    4.494960461257811E-1   -2.472914219371191E-1
 6.529922520600000E9     5.427860193937598E-1   -1.355656234945105E-1   -2.019339895126247E-2   -4.657024083955835E-2   -2.116666448090582E-2   -4.629944849306063E-2    4.487524342570889E-1   -2.487635071836783E-1
 6.529932805000000E9     5.422685997442067E-1   -1.364774457343875E-1   -2.048231064140173E-2   -4.698490892980481E-2   -2.143150789731192E-2   -4.649762015863507E-2    4.479875476351894E-1   -2.498020030073820E-1
 6.529943089400000E9     5.420176181201317E-1   -1.374153748995095E-1   -2.064962111867916E-2   -4.725693633025124E-2   -2.178623361793701E-2   -4.689463045490517E-2    4.472314914521218E-1   -2.508742659719513E-1
 6.529953373800000E9     5.418850696350548E-1   -1.383446015333511E-1   -2.101244221796087E-2   -4.759763402998344E-2   -2.208696460761336E-2   -4.722446208635173E-2    4.462844263837536E-1   -2.520377217561781E-1
 6.529963658200000E9     5.414298307553761E-1   -1.392788641028450E-1   -2.129864514196414E-2   -4.799986699935590E-2   -2.240924969707103E-2   -4.749084863533045E-2    4.454583781327151E-1   -2.532901908034852E-1
 6.529973942600000E9     5.411411666974895E-1   -1.402214574452147E-1   -2.155761709315113E-2   -4.832946321163530E-2   -2.270544661003888E-2   -4.790771533708034E-2    4.447363952667705E-1   -2.545354089886536E-1
 6.529984227000000E9     5.408292776508016E-1   -1.412712789552735E-1   -2.189762311816677E-2   -4.860421385650351E-2   -2.304197787102897E-2   -4.820976402704413E-2    4.438690549325842E-1   -2.556639700339920E-1
 6.529994511400000E9     5.405163726806047E-1   -1.421040742004095E-1   -2.210724138508583E-2   -4.895316775217504E-2   -2.339037086242264E-2   -4.846251683615471E-2    4.431599730514995E-1   -2.567743266105034E-1
 6.530004795800000E9     5.402438690556524E-1   -1.430966334545629E-1   -2.257184297906862E-2   -4.923434063205535E-2   -2.369336936214369E-2   -4.885863136074129E-2    4.421601625891492E-1   -2.581020093413195E-1
 6.530015080200000E9     5.398248324964364E-1   -1.441024156216895E-1   -2.284450836332163E-2   -4.969848315818022E-2   -2.403948757174690E-2   -4.925101545401162E-2    4.412923430862696E-1   -2.592480282730330E-1
 6.530025364600000E9     5.395884273289797E-1   -1.449760887330761E-1   -2.312237719444529E-2   -4.995289420676181E-2   -2.441512096384829E-2   -4.960191677946833E-2    4.404074726804812E-1   -2.603614339919800E-1
 6.530035649000000E9     5.393345796564987E-1   -1.459517463917238E-1   -2.354102573844198E-2   -5.043202545517061E-2   -2.476041182755394E-2   -4.996012077360799E-2    4.394725677697222E-1   -2.616341453964109E-1
