#  HZ   S   RI   R     50.00 
! Rohde & Schwarz Vector Network Analyzer 
! Rohde-Schwarz,ZNB20-2Port,1311601062101988,3.16
! Created: UTC 3/21/2024, 12:52:27 AM
! freq[Hz]                re:S11                  im:S11                  re:S21                  im:S21                  re:S12                  im:S12                  re:S22                  im:S22
 6.528830948000000E9     5.606859270250115E-1   -5.907516813102410E-2   -8.509342722126494E-3   -3.370730995320535E-2   -9.142883450546020E-3   -3.353428320921112E-2    4.817982465041967E-1   -1.907489535405356E-1
 6.528840170350000E9     5.605757225015975E-1   -5.991137121649891E-2   -8.409854963720655E-3   -3.385957379370761E-2   -9.162328673970602E-3   -3.380815072446140E-2    4.813497821635628E-1   -1.915364451544101E-1
 6.528849392700000E9     5.605490386236091E-1   -6.051577594926919E-2   -8.657603527680620E-3   -3.409589784523689E-2   -9.408055612076071E-3   -3.388595361977140E-2    4.810497475536835E-1   -1.923058917223227E-1
 6.528858615050000E9     5.603795704574797E-1   -6.140318208832724E-2   -8.761817814922872E-3   -3.415745334974345E-2   -9.497864418912309E-3   -3.401276265418144E-2    4.805544027039697E-1   -1.932712407295926E-1
 6.528867837400000E9     5.604427767995553E-1   -6.212321428534445E-2   -8.901089653137233E-3   -3.431807946998880E-2   -9.544433826863133E-3   -3.424276456481421E-2    4.802639267648225E-1   -1.939858815991405E-1
 6.528877059750000E9     5.603044703926758E-1   -6.279218811398238E-2   -8.909264872841650E-3   -3.442417224759410E-2   -9.700067710255188E-3   -3.431784155239986E-2    4.797974732102503E-1   -1.948864879236217E-1
 6.528886282100000E9     5.600783970191958E-1   -6.361064513069006E-2   -8.962762934907423E-3   -3.458583382668306E-2   -9.818032488512421E-3   -3.454733293623441E-2    4.795632679825388E-1   -1.957280471643047E-1
 6.528895504450000E9     5.601339087180206E-1   -6.444752592010326E-2   -9.173618164357689E-3   -3.476676436678778E-2   -9.906397547896755E-3   -3.465650753346201E-2    4.791695183245556E-1   -1.964450943787032E-1
 6.528904726800000E9     5.600001634990502E-1   -6.518479604666792E-2   -9.214699502938059E-3   -3.496994382221211E-2   -1.011614145815615E-2   -3.478919790062029E-2    4.789790328229938E-1   -1.973954247582401E-1
 6.528913949150000E9     5.598915269427849E-1   -6.592277225340901E-2   -9.384474217259527E-3   -3.514733477927964E-2   -1.015656025276452E-2   -3.495555296484760E-2    4.784659456711623E-1   -1.983395665363461E-1
 6.528923171500000E9     5.597579624763961E-1   -6.668458734681328E-2   -9.450086714219529E-3   -3.533682110685119E-2   -1.017432176193203E-2   -3.510542867578328E-2    4.780491486965266E-1   -1.990628660416558E-1
 6.528932393850000E9     5.598222834292725E-1   -6.747518683671255E-2   -9.447699208967115E-3   -3.542371786146477E-2   -1.037685987962594E-2   -3.530689956457091E-2    4.776928411651338E-1   -1.999178510624783E-1
 6.528941616200000E9     5.596624391394559E-1   -6.819636941662369E-2   -9.645998443081826E-3   -3.575851428237611E-2   -1.045192165881024E-2   -3.551217253546694E-2    4.772496652778117E-1   -2.006584709932071E-1
 6.528950838550000E9     5.595281641481216E-1   -6.908896780908337E-2   -9.758443915319291E-3   -3.561650327721632E-2   -1.053319618974115E-2   -3.563221009769033E-2    4.768209853777092E-1   -2.016271326713389E-1
 6.528960060900000E9     5.594645456071843E-1   -6.975159294447685E-2   -9.995755173707559E-3   -3.595388264445235E-2   -1.067757127966563E-2   -3.576954051690809E-2    4.765005215269652E-1   -2.024552469653241E-1
 6.528969283250000E9     5.591734519234449E-1   -7.056109226178976E-2   -9.983556021380721E-3   -3.618144578697746E-2   -1.085452630988703E-2   -3.597251149279534E-2    4.761245094734299E-1   -2.035356247975092E-1
 6.528978505600000E9     5.590546005710868E-1   -7.128683209713708E-2   -1.017618429438486E-2   -3.620018015355188E-2   -1.088181743303328E-2   -3.622985497260024E-2    4.757699835714230E-1   -2.042373064800650E-1
 6.528987727950000E9     5.590422652140867E-1   -7.209338569111537E-2   -1.018394794278676E-2   -3.633456122791940E-2   -1.115871345785715E-2   -3.632228995014718E-2    4.753280608751949E-1   -2.050525630154853E-1
 6.528996950300000E9     5.588716445257276E-1   -7.274500053973956E-2   -1.038656727403242E-2   -3.669587672884591E-2   -1.119424533554931E-2   -3.648216093313798E-2    4.747986386686441E-1   -2.060435199757922E-1
 6.529006172650000E9     5.587877726110543E-1   -7.375578312909713E-2   -1.044251223741703E-2   -3.690431187491303E-2   -1.131880158682797E-2   -3.663457369162876E-2    4.745840270592507E-1   -2.067303984091122E-1
 6.529015395000000E9     5.587286015551437E-1   -7.438730829619203E-2   -1.043683153824574E-2   -3.696922900127298E-2   -1.153493755817438E-2   -3.689451677798968E-2    4.741525862751423E-1   -2.077091762222716E-1
 6.529024617350000E9     5.585940479418107E-1   -7.523356390762123E-2   -1.066633374858262E-2   -3.712600156533379E-2   -1.152683498153414E-2   -3.697802040865671E-2    4.735586012240415E-1   -2.086229677652072E-1
 6.529033839700000E9     5.584694663890480E-1   -7.600616675779917E-2   -1.080025506610541E-2   -3.751907595787372E-2   -1.160976968037346E-2   -3.718141186237334E-2    4.732213986984804E-1   -2.093128476531465E-1
 6.529043062050000E9     5.582717606168766E-1   -7.676082850322458E-2   -1.103195873263112E-2   -3.748537283220685E-2   -1.176554135952505E-2   -3.731013276223628E-2    4.729997674055247E-1   -2.102940804239219E-1
 6.529052284400000E9     5.582327955521017E-1   -7.757470999408593E-2   -1.114531008081131E-2   -3.784734627138654E-2   -1.185241165321211E-2   -3.764698404324711E-2    4.723094412620126E-1   -2.111860848342791E-1
 6.529061506750000E9     5.581333694302932E-1   -7.837393965922800E-2   -1.115030469580167E-2   -3.792097286792029E-2   -1.204873858302777E-2   -3.767982795583491E-2    4.718909442369151E-1   -2.121313835587028E-1
 6.529070729100000E9     5.580015855920529E-1   -7.915918455312568E-2   -1.127124931026996E-2   -3.810757626963609E-2   -1.220802878477759E-2   -3.803153298853033E-2    4.714763868450004E-1   -2.128756434050302E-1
 6.529079951450000E9     5.579618153283754E-1   -7.989460638523140E-2   -1.148876942969347E-2   -3.830754631719155E-2   -1.232491684658179E-2   -3.815647246685586E-2    4.710160989366426E-1   -2.138790039249912E-1
 6.529089173800000E9     5.577849039455668E-1   -8.065290601175559E-2   -1.162724811583384E-2   -3.850045055883611E-2   -1.255213210736117E-2   -3.835566325508293E-2    4.705517860502246E-1   -2.147623982287057E-1
 6.529098396150000E9     5.575474505505174E-1   -8.150524765450601E-2   -1.172151068857644E-2   -3.881037501868630E-2   -1.265955570173123E-2   -3.856303973190561E-2    4.701484226584319E-1   -2.156076221825996E-1
 6.529107618500000E9     5.574294764135085E-1   -8.230656250015575E-2   -1.193012570055458E-2   -3.893684334596997E-2   -1.274064672505832E-2   -3.871155294676334E-2    4.697566573544917E-1   -2.165485909147384E-1
 6.529116840850000E9     5.573211741833036E-1   -8.314725095868956E-2   -1.197266509000753E-2   -3.922295059376307E-2   -1.281982173626103E-2   -3.896354368551881E-2    4.691973016644924E-1   -2.173981206215288E-1
 6.529126063200000E9     5.571719001899968E-1   -8.382379161036886E-2   -1.226632414785893E-2   -3.934343819814763E-2   -1.309819306349068E-2   -3.907951035009744E-2    4.686232422260002E-1   -2.182838824494853E-1
 6.529135285550000E9     5.570276709535357E-1   -8.469721671881962E-2   -1.239521160430251E-2   -3.945669176117332E-2   -1.324383342279181E-2   -3.925605744612446E-2    4.682048358147799E-1   -2.191757237176173E-1
 6.529144507900000E9     5.569992074859693E-1   -8.549436032372730E-2   -1.242387799863132E-2   -3.966378681463341E-2   -1.331978246025920E-2   -3.955080810141944E-2    4.679857215704202E-1   -2.201773626154472E-1
 6.529153730250000E9     5.569124443533872E-1   -8.622505336108463E-2   -1.262074504569573E-2   -4.003366840709924E-2   -1.358561467841512E-2   -3.976316382410807E-2    4.672660175956164E-1   -2.211282022704749E-1
 6.529162952600000E9     5.565768308020917E-1   -8.706535924246631E-2   -1.269417490707219E-2   -4.005837129555688E-2   -1.358846968799917E-2   -4.001555124959406E-2    4.668821878007768E-1   -2.219160820224727E-1
 6.529172174950000E9     5.566285559098068E-1   -8.789943168771697E-2   -1.272560744457818E-2   -4.035435027534424E-2   -1.385210858066833E-2   -4.020557468985160E-2    4.665385330791829E-1   -2.230738825011560E-1
 6.529181397300000E9     5.563111922063562E-1   -8.866058818958208E-2   -1.309090382643449E-2   -4.064216761731207E-2   -1.401425400024377E-2   -4.034967670333750E-2    4.658877804276122E-1   -2.237706428644609E-1
 6.529190619650000E9     5.563282531681313E-1   -8.946522610639816E-2   -1.314605532363573E-2   -4.087973491114607E-2   -1.415549622450161E-2   -4.059360385446387E-2    4.654289838802838E-1   -2.249522816787446E-1
 6.529199842000000E9     5.560480237274685E-1   -9.028118817631822E-2   -1.336155499273340E-2   -4.108056992333088E-2   -1.422893675741303E-2   -4.073234437477321E-2    4.648876985863430E-1   -2.257765470150779E-1
 6.529209064350000E9     5.559977624726938E-1   -9.108612747394564E-2   -1.354584159526216E-2   -4.138351156875234E-2   -1.443593531202481E-2   -4.099602107748755E-2    4.645217625036258E-1   -2.267052097160570E-1
 6.529218286700000E9     5.557587654353081E-1   -9.181380793814210E-2   -1.365012235030099E-2   -4.152664350574851E-2   -1.464576812828444E-2   -4.129320303654604E-2    4.637924864619660E-1   -2.277790972748912E-1
 6.529227509050000E9     5.556515482452732E-1   -9.272927153824566E-2   -1.381287212383357E-2   -4.165302420754347E-2   -1.490196795844328E-2   -4.146718901035111E-2    4.631886950736483E-1   -2.285309331850568E-1
 6.529236731400000E9     5.554036863573402E-1   -9.350408139525630E-2   -1.407735147540130E-2   -4.189838749007552E-2   -1.502735844128293E-2   -4.155326428785982E-2    4.626546458419890E-1   -2.294823571866302E-1
 6.529245953750000E9     5.552517695360702E-1   -9.434453398110382E-2   -1.421660296982351E-2   -4.222060662289232E-2   -1.516016251499784E-2   -4.195807147367934E-2    4.623028192489365E-1   -2.304098167820732E-1
 6.529255176100000E9     5.551658829123902E-1   -9.509570459946505E-2   -1.432656801206220E-2   -4.241063951927646E-2   -1.532742908616361E-2   -4.216709184588996E-2    4.617663800797135E-1   -2.314284757024162E-1
 6.529264398450000E9     5.550825756569636E-1   -9.589033606954842E-2   -1.446541184630119E-2   -4.263332782599682E-2   -1.559059619695695E-2   -4.238808653337415E-2    4.612181988210982E-1   -2.322801018226052E-1
 6.529273620800000E9     5.548675436389670E-1   -9.682918134760329E-2   -1.473935617243481E-2   -4.296526369713638E-2   -1.576002618977794E-2   -4.254464745564418E-2    4.606773152069709E-1   -2.334070390965854E-1
 6.529282843150000E9     5.546284393402016E-1   -9.754755491008431E-2   -1.493349331814670E-2   -4.318198608690271E-2   -1.590611816963317E-2   -4.287556888375650E-2    4.600913822490815E-1   -2.342613803420686E-1
 6.529292065500000E9     5.543800325775087E-1   -9.832252758171293E-2   -1.510432835334671E-2   -4.339446936287419E-2   -1.617112650259832E-2   -4.310663015512202E-2    4.595555935389596E-1   -2.354262860571305E-1
 6.529301287850000E9     5.542243062570058E-1   -9.915898185270589E-2   -1.524906778541956E-2   -4.369059467469949E-2   -1.635297575719522E-2   -4.341038313687214E-2    4.590549984727020E-1   -2.362535989390550E-1
 6.529310510200000E9     5.540669628129392E-1   -1.000283977503296E-1   -1.551302027560562E-2   -4.401173536673781E-2   -1.652456643518164E-2   -4.360750706103234E-2    4.584008414111774E-1   -2.371762960828987E-1
 6.529319732550000E9     5.539370729901758E-1   -1.009069417264335E-1   -1.568189486696825E-2   -4.406805705715700E-2   -1.667497120550949E-2   -4.378780900746234E-2    4.578009472762587E-1   -2.381668404601670E-1
 6.529328954900000E9     5.537346951991191E-1   -1.016794257919645E-1   -1.586914794247061E-2   -4.433694650520480E-2   -1.691495318669530E-2   -4.417164461722375E-2    4.573637507035949E-1   -2.392333048272102E-1
 6.529338177250000E9     5.535619678695153E-1   -1.024519106729745E-1   -1.602196371649962E-2   -4.467212475519168E-2   -1.702482406167797E-2   -4.439811310872283E-2    4.566525949480187E-1   -2.401430317218547E-1
 6.529347399600000E9     5.533648017260676E-1   -1.033654028621847E-1   -1.629833238779845E-2   -4.502755482187928E-2   -1.723154931825167E-2   -4.457967630981451E-2    4.558773014036157E-1   -2.411899524815841E-1
 6.529356621950000E9     5.531064058320815E-1   -1.042095392452373E-1   -1.638533040156057E-2   -4.521882411310921E-2   -1.762359224715539E-2   -4.488472658326027E-2    4.554384395778870E-1   -2.423498962348032E-1
 6.529365844300000E9     5.529869378865431E-1   -1.050227705537363E-1   -1.667934709072905E-2   -4.543708536431390E-2   -1.768241520763048E-2   -4.525245416819654E-2    4.548682623775586E-1   -2.432380173238777E-1
 6.529375066650000E9     5.527879500096123E-1   -1.058460616951690E-1   -1.690911183703303E-2   -4.573697825561822E-2   -1.803843299686279E-2   -4.539180037861659E-2    4.542523742858251E-1   -2.442825315944692E-1
 6.529384289000000E9     5.526101409517176E-1   -1.065778869822604E-1   -1.708487141824535E-2   -4.608663409095138E-2   -1.821917401272323E-2   -4.577171951466641E-2    4.535420230371395E-1   -2.453082359720168E-1
 6.529393511350000E9     5.523925377174376E-1   -1.075722044843261E-1   -1.730847187902585E-2   -4.630160071836220E-2   -1.841443344219237E-2   -4.598051023832598E-2    4.528257433284978E-1   -2.462496444918896E-1
 6.529402733700000E9     5.522085671427142E-1   -1.083715423130327E-1   -1.739759405767111E-2   -4.670369893868209E-2   -1.861834918519652E-2   -4.630242945349661E-2    4.522358348521462E-1   -2.473532346346710E-1
 6.529411956050000E9     5.519895449865321E-1   -1.091184876027175E-1   -1.778308750367506E-2   -4.681646981380496E-2   -1.881801130826517E-2   -4.649712905249478E-2    4.515649127358667E-1   -2.484033940384373E-1
 6.529421178400000E9     5.518233401071251E-1   -1.101247796572038E-1   -1.789378910557844E-2   -4.717713496857590E-2   -1.913354158452188E-2   -4.691587417449216E-2    4.509276354630776E-1   -2.493023259458817E-1
 6.529430400750000E9     5.516186597969689E-1   -1.108420867339055E-1   -1.817737110270234E-2   -4.746908588021109E-2   -1.934283305224826E-2   -4.718152423627994E-2    4.504094451121107E-1   -2.503707354286457E-1
 6.529439623100000E9     5.513726135213322E-1   -1.117147877788621E-1   -1.840326543478351E-2   -4.774686340100289E-2   -1.961966950029986E-2   -4.750612154891606E-2    4.494479658134563E-1   -2.514036877074657E-1
 6.529448845450000E9     5.511516494332060E-1   -1.127113041114395E-1   -1.859957342210682E-2   -4.807571350920595E-2   -1.976354390546801E-2   -4.773868231703916E-2    4.488378475499658E-1   -2.524580706561331E-1
 6.529458067800000E9     5.510114252368884E-1   -1.134300305525127E-1   -1.892126516156958E-2   -4.831457332193467E-2   -2.007895911036520E-2   -4.798226337338728E-2    4.482395225075775E-1   -2.536896558302372E-1
 6.529467290150000E9     5.507502336686166E-1   -1.143489721195758E-1   -1.904869852159586E-2   -4.879651794224193E-2   -2.030736904039266E-2   -4.829040672255817E-2    4.474157857431719E-1   -2.548279748872134E-1
 6.529476512500000E9     5.504820691762753E-1   -1.151493989145164E-1   -1.941286974727268E-2   -4.912949872721632E-2   -2.049587357477691E-2   -4.866675872125867E-2    4.468096015357409E-1   -2.556981745019962E-1
 6.529485734850000E9     5.503715176218513E-1   -1.160543347272352E-1   -1.947209607305477E-2   -4.951963028706362E-2   -2.090517499644001E-2   -4.899095972570821E-2    4.462464026075585E-1   -2.569422613302252E-1
 6.529494957200000E9     5.500838043513383E-1   -1.168730471542656E-1   -1.989008311013591E-2   -4.965978719981076E-2   -2.128397085908175E-2   -4.930511961883677E-2    4.452255567199192E-1   -2.579088187762892E-1
 6.529504179550000E9     5.498808740696023E-1   -1.177485278762724E-1   -2.025627153286506E-2   -5.004525038315422E-2   -2.143012596388023E-2   -4.965801114487995E-2    4.447044897763986E-1   -2.591095708543684E-1
 6.529513401900000E9     5.495189098424600E-1   -1.187699734179320E-1   -2.048659612864397E-2   -5.050910148185517E-2   -2.179772082579326E-2   -5.000164028684663E-2    4.438776713290631E-1   -2.600422347134218E-1
 6.529522624250000E9     5.493020363687243E-1   -1.195375000873939E-1   -2.076239520795961E-2   -5.055724887077417E-2   -2.202192140094624E-2   -5.031961378180490E-2    4.431884082930480E-1   -2.612622266681939E-1
 6.529531846600000E9     5.490717307361481E-1   -1.203399638858875E-1   -2.102588717169983E-2   -5.100516281595358E-2   -2.225982107575583E-2   -5.060165614521831E-2    4.421456700013185E-1   -2.623443355465105E-1
 6.529541068950000E9     5.487830094849288E-1   -1.213169310488230E-1   -2.126971274085296E-2   -5.151164424264782E-2   -2.258927332812916E-2   -5.091834502388011E-2    4.414976149015746E-1   -2.634894975422330E-1
 6.529550291300000E9     5.485669308245396E-1   -1.221729264145174E-1   -2.160221930539057E-2   -5.173887363370267E-2   -2.295194833906616E-2   -5.132241886732108E-2    4.406558206317799E-1   -2.646266600516810E-1
 6.529559513650000E9     5.484131199833563E-1   -1.230399328670464E-1   -2.185258987378041E-2   -5.211919712036022E-2   -2.330232414212651E-2   -5.162427555454858E-2    4.397384270163344E-1   -2.658436020563447E-1
 6.529568736000000E9     5.480237994189654E-1   -1.240354277088064E-1   -2.226579315226312E-2   -5.244069880422582E-2   -2.354000323405548E-2   -5.200811652943603E-2    4.390276341592036E-1   -2.667793100401381E-1
 6.529577958350000E9     5.478530139587506E-1   -1.248973451704477E-1   -2.257103031349326E-2   -5.276924612829409E-2   -2.389763871123801E-2   -5.234790244115910E-2    4.381771995445011E-1   -2.680273388296185E-1
 6.529587180700000E9     5.475908025853350E-1   -1.256904031861412E-1   -2.288393587931745E-2   -5.317884566933058E-2   -2.419215941505833E-2   -5.273445382083668E-2    4.374054069277697E-1   -2.691826504522068E-1
 6.529596403050000E9     5.473457651735075E-1   -1.267277046076985E-1   -2.310772501809447E-2   -5.357921646478155E-2   -2.460185406948996E-2   -5.310573623311769E-2    4.364821789867927E-1   -2.703865054064287E-1
 6.529605625400000E9     5.470555905652398E-1   -1.275313177943714E-1   -2.349723963037975E-2   -5.396144779513650E-2   -2.489583198118753E-2   -5.354210669121385E-2    4.356242313327996E-1   -2.715721226519812E-1
 6.529614847750000E9     5.466804004530526E-1   -1.283640618908445E-1   -2.375745814168920E-2   -5.428090641473535E-2   -2.528540606281304E-2   -5.383477350327237E-2    4.348200372493135E-1   -2.726449596119501E-1
 6.529624070100000E9     5.463894387134871E-1   -1.293097710701130E-1   -2.416122915180500E-2   -5.471713641994057E-2   -2.551657238603521E-2   -5.424156706950530E-2    4.338359044019545E-1   -2.738449392944598E-1
 6.529633292450000E9     5.460966857349958E-1   -1.303161568272561E-1   -2.441353025961463E-2   -5.519087654015559E-2   -2.594415444524197E-2   -5.465912402659499E-2    4.329324488622617E-1   -2.750878740962505E-1
 6.529642514800000E9     5.458955418582958E-1   -1.312071791505720E-1   -2.486749384055880E-2   -5.554565176492894E-2   -2.629705753743950E-2   -5.501893112449174E-2    4.321582812830210E-1   -2.763728467789952E-1
 6.529651737150000E9     5.454670940299808E-1   -1.320814843622738E-1   -2.520529933426202E-2   -5.595912840103205E-2   -2.669807536318276E-2   -5.533586430128638E-2    4.310406300950515E-1   -2.776401675254412E-1
 6.529660959500000E9     5.451660723929881E-1   -1.329905265603831E-1   -2.563518823962803E-2   -5.620104598216352E-2   -2.708818740334595E-2   -5.579490532040236E-2    4.300136174480916E-1   -2.786569750699352E-1
