#  HZ   S   RI   R     50.00 
! Rohde & Schwarz Vector Network Analyzer 
! Rohde-Schwarz,ZNB20-2Port,1311601062101988,3.16
! Created: UTC 3/21/2024, 1:13:16 AM
! freq[Hz]                re:S11                  im:S11                  re:S21                  im:S21                  re:S12                  im:S12                  re:S22                  im:S22
 6.529142804000000E9     5.566049262851328E-1   -6.949016074570993E-2   -7.718864966906232E-3   -3.044049431078575E-2   -8.277216044507129E-3   -3.034741346597278E-2    4.859131614755691E-1   -1.736240895569024E-1
 6.529153016800000E9     5.564562232273120E-1   -7.037096945112624E-2   -7.917170697390090E-3   -3.052493150419881E-2   -8.466572347376891E-3   -3.045537638963340E-2    4.856645897099500E-1   -1.745743770019228E-1
 6.529163229600000E9     5.564144528246368E-1   -7.113497124756973E-2   -7.892106869898120E-3   -3.079866185458809E-2   -8.450801237396978E-3   -3.068670254118810E-2    4.855161869786576E-1   -1.753793418842921E-1
 6.529173442400000E9     5.562329778933180E-1   -7.209500200145529E-2   -8.065801630106331E-3   -3.090640384499758E-2   -8.590196585845082E-3   -3.075091379181523E-2    4.850157056609182E-1   -1.761758813107575E-1
 6.529183655200000E9     5.560501370514961E-1   -7.279122201545858E-2   -8.042232737800765E-3   -3.103988131827121E-2   -8.688738970905809E-3   -3.091384717785703E-2    4.846689528047220E-1   -1.771571795449174E-1
 6.529193868000000E9     5.560471338636971E-1   -7.366413612827179E-2   -8.179885356163385E-3   -3.116946052761371E-2   -8.677904851322743E-3   -3.101805396318592E-2    4.844339927282998E-1   -1.780142683491640E-1
 6.529204080800000E9     5.557526258144069E-1   -7.446300349927096E-2   -8.311738705193908E-3   -3.121841557723710E-2   -8.854970566204795E-3   -3.118038605962431E-2    4.840286026048932E-1   -1.789062973614938E-1
 6.529214293600000E9     5.556834632305735E-1   -7.533196381768643E-2   -8.500731400250998E-3   -3.139085432649222E-2   -9.015649308742660E-3   -3.135434937357526E-2    4.835705484456723E-1   -1.797032747676207E-1
 6.529224506400000E9     5.556010041980066E-1   -7.610400668708098E-2   -8.496202124043960E-3   -3.156704203474338E-2   -9.071554470963233E-3   -3.148498504810443E-2    4.832405887911912E-1   -1.804854344094340E-1
 6.529234719200000E9     5.554920938642063E-1   -7.699257952805831E-2   -8.481245176136760E-3   -3.169371172149979E-2   -9.279624405547684E-3   -3.156892662098358E-2    4.828561532126747E-1   -1.813769362056922E-1
 6.529244932000000E9     5.552698484007857E-1   -7.769649997343628E-2   -8.837896348499515E-3   -3.202644700292637E-2   -9.358392313264805E-3   -3.171331555108512E-2    4.825562916778932E-1   -1.823007140679802E-1
 6.529255144800000E9     5.552062429864121E-1   -7.857944313426064E-2   -8.866998767820091E-3   -3.211589098721170E-2   -9.365775347550006E-3   -3.198083680308839E-2    4.820557857910108E-1   -1.833585625748931E-1
 6.529265357600000E9     5.551719172139312E-1   -7.941727924497978E-2   -8.894863503757254E-3   -3.214263865012999E-2   -9.557056908234147E-3   -3.197778609120414E-2    4.817511078347441E-1   -1.840666140914941E-1
 6.529275570400000E9     5.549334070544227E-1   -8.025400612563545E-2   -8.872702324243193E-3   -3.223727494175442E-2   -9.611488462156485E-3   -3.213821118603263E-2    4.813298590487378E-1   -1.850399491417110E-1
 6.529285783200000E9     5.548984395552773E-1   -8.102788988866634E-2   -8.993514173580965E-3   -3.244797334648170E-2   -9.699572723384297E-3   -3.233832880941918E-2    4.812068862249676E-1   -1.859538831497785E-1
 6.529295996000000E9     5.547729276220464E-1   -8.187427262178910E-2   -9.292556641932657E-3   -3.256469390982044E-2   -9.795159673088083E-3   -3.246566562594406E-2    4.805851187786045E-1   -1.869358446770421E-1
 6.529306208800000E9     5.546071284709022E-1   -8.275708722219990E-2   -9.278390081919502E-3   -3.291140895870274E-2   -9.832578448835620E-3   -3.257257248551999E-2    4.803457170640539E-1   -1.875684261610776E-1
 6.529316421600000E9     5.544690308435251E-1   -8.363974194863112E-2   -9.424348391768818E-3   -3.276750405967158E-2   -1.001986747130614E-2   -3.281715704081264E-2    4.799124956823086E-1   -1.885471046744923E-1
 6.529326634400000E9     5.543892951732550E-1   -8.437212259110177E-2   -9.459609658383652E-3   -3.309927342724081E-2   -1.032287455653145E-2   -3.293520978263882E-2    4.794860152955061E-1   -1.894821209377232E-1
 6.529336847200000E9     5.541776247404845E-1   -8.521142901927137E-2   -9.690081035794664E-3   -3.330660273674924E-2   -1.039852886523032E-2   -3.313094491320807E-2    4.791481270713451E-1   -1.903481136872262E-1
 6.529347060000000E9     5.541276693077509E-1   -8.605462404136068E-2   -9.718776169654357E-3   -3.335530590347380E-2   -1.035264155174876E-2   -3.336427883196961E-2    4.786908705444231E-1   -1.911687951341437E-1
 6.529357272800000E9     5.539259543580869E-1   -8.687404346690492E-2   -9.776243229990197E-3   -3.355708490833801E-2   -1.057406160714893E-2   -3.342190523631802E-2    4.783179919760629E-1   -1.921184844445029E-1
 6.529367485600000E9     5.537522991469388E-1   -8.781648771058592E-2   -9.976252776847865E-3   -3.371172906770774E-2   -1.063877157859065E-2   -3.357427751177752E-2    4.779021740741150E-1   -1.932015640486144E-1
 6.529377698400000E9     5.536663795335708E-1   -8.858865664723196E-2   -1.008275355730455E-2   -3.384137441768110E-2   -1.074888396798702E-2   -3.376735352033770E-2    4.774424161704856E-1   -1.940169077314595E-1
 6.529387911200000E9     5.535315867784960E-1   -8.945335010114965E-2   -1.010917332039822E-2   -3.416200618322611E-2   -1.090289470650019E-2   -3.389011720236392E-2    4.770406228958707E-1   -1.949070113906455E-1
 6.529398124000000E9     5.534026967179949E-1   -9.023293399509391E-2   -1.038307157867876E-2   -3.424606382606613E-2   -1.110532583557164E-2   -3.409691620934768E-2    4.766545198666073E-1   -1.958355313337618E-1
 6.529408336800000E9     5.532511875041778E-1   -9.108218635579113E-2   -1.051631525272481E-2   -3.429847159923432E-2   -1.113124162189289E-2   -3.430129936709764E-2    4.761606307775270E-1   -1.966697353057427E-1
 6.529418549600000E9     5.530240492784344E-1   -9.186500390641347E-2   -1.055836684854931E-2   -3.446484580165429E-2   -1.134050282944751E-2   -3.437249288035569E-2    4.758956572206934E-1   -1.976566709381591E-1
 6.529428762400000E9     5.528751257244787E-1   -9.267535978517774E-2   -1.075737483167732E-2   -3.465646564075948E-2   -1.144089872798207E-2   -3.456746388260322E-2    4.755193180923619E-1   -1.985770861702735E-1
 6.529438975200000E9     5.527205688520697E-1   -9.352180560729982E-2   -1.078266134432991E-2   -3.491416507601024E-2   -1.163773129066911E-2   -3.468554359486908E-2    4.750483268607684E-1   -1.996417056643385E-1
 6.529449188000000E9     5.526780041453213E-1   -9.436684905673709E-2   -1.099391902833913E-2   -3.504278634093847E-2   -1.167409361394730E-2   -3.490855931256348E-2    4.744586723231095E-1   -2.004966879783978E-1
 6.529459400800000E9     5.524852899052283E-1   -9.524899885118836E-2   -1.118561136615372E-2   -3.538029184048962E-2   -1.194855964877524E-2   -3.510817614843904E-2    4.739787317554541E-1   -2.014120622335406E-1
 6.529469613600000E9     5.523807623850895E-1   -9.605084146476901E-2   -1.125978610424120E-2   -3.538267985568887E-2   -1.195910025590826E-2   -3.529811209332520E-2    4.737297588074149E-1   -2.022847632358510E-1
 6.529479826400000E9     5.522135752375958E-1   -9.695250798030294E-2   -1.128489909560038E-2   -3.554960092218643E-2   -1.215879259056474E-2   -3.547955613662911E-2    4.730874277335640E-1   -2.032935446522954E-1
 6.529490039200000E9     5.519858921929690E-1   -9.776649291371685E-2   -1.144257078723300E-2   -3.573927022693234E-2   -1.230629642625713E-2   -3.561999573863971E-2    4.727451950281679E-1   -2.040561268299131E-1
 6.529500252000000E9     5.517685525358790E-1   -9.856359134737472E-2   -1.165080468375491E-2   -3.599760740111774E-2   -1.236823887248389E-2   -3.582998040234795E-2    4.722281473117020E-1   -2.051732253348569E-1
 6.529510464800000E9     5.515818716019300E-1   -9.946877247259703E-2   -1.176004627292250E-2   -3.616815698957807E-2   -1.250276823671817E-2   -3.596196672511324E-2    4.718279866024309E-1   -2.058801631194584E-1
 6.529520677600000E9     5.514721613117974E-1   -1.003376363434613E-1   -1.199934855327930E-2   -3.628685301107516E-2   -1.261746476081318E-2   -3.626275514885100E-2    4.713007109806937E-1   -2.070736907110732E-1
 6.529530890400000E9     5.513534687771454E-1   -1.011590213799990E-1   -1.198274901463189E-2   -3.659446707989777E-2   -1.275891419738612E-2   -3.638678231061802E-2    4.708391520229855E-1   -2.078648163715256E-1
 6.529541103200000E9     5.511554637584636E-1   -1.020959417032208E-1   -1.221843242036598E-2   -3.673603114111852E-2   -1.303928024804487E-2   -3.659889932112901E-2    4.703492497380365E-1   -2.089091145921628E-1
 6.529551316000000E9     5.510086612657017E-1   -1.028214021739474E-1   -1.242540236470981E-2   -3.699617951272497E-2   -1.321517874459519E-2   -3.684334544995268E-2    4.698423761388224E-1   -2.098499107095043E-1
 6.529561528800000E9     5.509216408449813E-1   -1.036724401595989E-1   -1.246515191318661E-2   -3.728735424610453E-2   -1.345074421684731E-2   -3.695715628649722E-2    4.694798164896393E-1   -2.108862172748480E-1
 6.529571741600000E9     5.506311091119133E-1   -1.045537433008824E-1   -1.259173006178115E-2   -3.746871510845427E-2   -1.352090702622765E-2   -3.723577001622966E-2    4.689616315003574E-1   -2.117074076669357E-1
 6.529581954400000E9     5.504439581918928E-1   -1.054174715349456E-1   -1.283087129749420E-2   -3.761253855524131E-2   -1.363929477605757E-2   -3.738879389247308E-2    4.683221678238616E-1   -2.126625840530817E-1
 6.529592167200000E9     5.502745738249549E-1   -1.062306134064827E-1   -1.287612732917214E-2   -3.776321597479997E-2   -1.381278892191051E-2   -3.759048594994832E-2    4.678524116892678E-1   -2.136881031863347E-1
 6.529602380000000E9     5.500786725310891E-1   -1.070616616732301E-1   -1.305368710298904E-2   -3.793868281195809E-2   -1.401188734171165E-2   -3.776510406759586E-2    4.673812588689261E-1   -2.148500010711542E-1
 6.529612592800000E9     5.498948775307201E-1   -1.080681814681079E-1   -1.326059692442868E-2   -3.812590548208252E-2   -1.411878393142646E-2   -3.802183058573329E-2    4.668896023477609E-1   -2.156495095403511E-1
 6.529622805600000E9     5.495603470292606E-1   -1.089025752951681E-1   -1.341479435049381E-2   -3.840561227494186E-2   -1.439390466080449E-2   -3.818894126182418E-2    4.664481473760144E-1   -2.167663624353933E-1
 6.529633018400000E9     5.494719337302806E-1   -1.097924062923143E-1   -1.363860760493687E-2   -3.857842115525117E-2   -1.451835961275046E-2   -3.841583815977540E-2    4.658879028086588E-1   -2.176465311416498E-1
 6.529643231200000E9     5.492415947937446E-1   -1.106011243409706E-1   -1.390281199631084E-2   -3.883507167761234E-2   -1.467518769400175E-2   -3.870309386120369E-2    4.654092534696592E-1   -2.186150659515933E-1
 6.529653444000000E9     5.490493324486563E-1   -1.114206113474737E-1   -1.395099798064615E-2   -3.915150044269425E-2   -1.485337293240312E-2   -3.886069830564723E-2    4.646714533414463E-1   -2.197445961256992E-1
 6.529663656800000E9     5.488254718592911E-1   -1.123867734313123E-1   -1.414767358397735E-2   -3.934387911812243E-2   -1.491101920345432E-2   -3.902731705587950E-2    4.643118588192011E-1   -2.205192350421145E-1
 6.529673869600000E9     5.487554290440189E-1   -1.132416686271789E-1   -1.431655173934701E-2   -3.950437644567473E-2   -1.517720542591611E-2   -3.935687784568512E-2    4.637418340577226E-1   -2.216558731920443E-1
 6.529684082400000E9     5.485527251341326E-1   -1.141148734242240E-1   -1.447747879130997E-2   -3.979174339055225E-2   -1.540634634995453E-2   -3.956645603651912E-2    4.631256485958933E-1   -2.226692326267705E-1
 6.529694295200000E9     5.482998738701895E-1   -1.149529441402216E-1   -1.467326653657043E-2   -3.995210511960885E-2   -1.556304135322851E-2   -3.982471405273803E-2    4.624895920851142E-1   -2.238022444870965E-1
 6.529704508000000E9     5.480988705806736E-1   -1.156632435064468E-1   -1.489705920830100E-2   -4.014117506997965E-2   -1.578324449632791E-2   -3.996595364613842E-2    4.620581469582242E-1   -2.247335810692281E-1
 6.529714720800000E9     5.478405733790265E-1   -1.167193632592582E-1   -1.499221747872872E-2   -4.039856504761136E-2   -1.595409374544910E-2   -4.022173208743304E-2    4.614037150729994E-1   -2.255585937206635E-1
 6.529724933600000E9     5.475952455007304E-1   -1.176470043128117E-1   -1.524733334501417E-2   -4.071763252268876E-2   -1.615289389890925E-2   -4.042357000837998E-2    4.608448517545179E-1   -2.268898648348883E-1
 6.529735146400000E9     5.474180498354194E-1   -1.185345737333930E-1   -1.540358350384224E-2   -4.098079961827816E-2   -1.636425881013874E-2   -4.078827607068085E-2    4.602093612064289E-1   -2.275741886644831E-1
 6.529745359200000E9     5.471216932112029E-1   -1.193800278813170E-1   -1.569574370280341E-2   -4.124121053132280E-2   -1.661442231567324E-2   -4.092977681018695E-2    4.596152293995459E-1   -2.287176942112639E-1
 6.529755572000000E9     5.470637428859854E-1   -1.202423959432507E-1   -1.592260655100995E-2   -4.144134024241090E-2   -1.674307234861874E-2   -4.116298811654295E-2    4.591003154987384E-1   -2.298017635032771E-1
 6.529765784800000E9     5.467172415703979E-1   -1.210196340648666E-1   -1.612004114115346E-2   -4.170037107272811E-2   -1.696066910746692E-2   -4.133380453936637E-2    4.582613574278149E-1   -2.308120123288768E-1
 6.529775997600000E9     5.464831620894657E-1   -1.219789725140057E-1   -1.619181973975162E-2   -4.196737790414804E-2   -1.721993692840304E-2   -4.161263143782898E-2    4.577153462122221E-1   -2.318634914649507E-1
 6.529786210400000E9     5.462934665258891E-1   -1.228302694156724E-1   -1.642932720326177E-2   -4.215855453228164E-2   -1.737434204232432E-2   -4.190529668554011E-2    4.573291344692718E-1   -2.331216937626569E-1
 6.529796423200000E9     5.460379237681637E-1   -1.237164149334940E-1   -1.668781392423630E-2   -4.255579701458181E-2   -1.762303825881141E-2   -4.232154460994254E-2    4.564876047264378E-1   -2.340764467288093E-1
 6.529806636000000E9     5.458788339700060E-1   -1.246229231885221E-1   -1.692997994745529E-2   -4.269619897822700E-2   -1.791455954864928E-2   -4.237504332442864E-2    4.558184818508680E-1   -2.350350187039495E-1
 6.529816848800000E9     5.455343142255636E-1   -1.254368621426968E-1   -1.716779776993168E-2   -4.297173633534977E-2   -1.804726574210879E-2   -4.274953513468017E-2    4.552099658276269E-1   -2.361077784103867E-1
 6.529827061600000E9     5.452892558656590E-1   -1.263887434867553E-1   -1.729127839219780E-2   -4.323123132170956E-2   -1.829590868450516E-2   -4.297511402192629E-2    4.547277034306920E-1   -2.371533415981399E-1
 6.529837274400000E9     5.451932160061768E-1   -1.274485668082948E-1   -1.760633898363465E-2   -4.359510675416486E-2   -1.862761705779542E-2   -4.328615035899035E-2    4.539562090199794E-1   -2.383219074851105E-1
 6.529847487200000E9     5.449001649179774E-1   -1.282285211974001E-1   -1.783241166095871E-2   -4.381269042762632E-2   -1.876362618122185E-2   -4.358838300348221E-2    4.530455381090214E-1   -2.392714859939323E-1
 6.529857700000000E9     5.445491552122917E-1   -1.290822038095046E-1   -1.800390474244404E-2   -4.421603612093100E-2   -1.919383049728361E-2   -4.371509189149442E-2    4.525929356540830E-1   -2.404522298397034E-1
 6.529867912800000E9     5.442938875163564E-1   -1.300138943414997E-1   -1.827979172615993E-2   -4.453809185709275E-2   -1.929274604354043E-2   -4.414509020756808E-2    4.519065091834018E-1   -2.417222792177070E-1
 6.529878125600000E9     5.441258528575551E-1   -1.309474025689260E-1   -1.848653870300883E-2   -4.474107355283023E-2   -1.956035477399939E-2   -4.436738262146186E-2    4.512020369381039E-1   -2.424904289098395E-1
 6.529888338400000E9     5.437538272721195E-1   -1.318028257799292E-1   -1.870515284968707E-2   -4.496384505635510E-2   -1.978909309197172E-2   -4.456031021733812E-2    4.504629552649205E-1   -2.439197968529046E-1
 6.529898551200000E9     5.435035985860186E-1   -1.327560963689665E-1   -1.897087169510862E-2   -4.523827073544813E-2   -1.993893102498616E-2   -4.492366111856871E-2    4.498746955726817E-1   -2.448227884777325E-1
 6.529908764000000E9     5.431997525515514E-1   -1.336508044090420E-1   -1.912467780776841E-2   -4.558659520122614E-2   -2.045161229252379E-2   -4.523446652327881E-2    4.489530961170471E-1   -2.459575951536279E-1
 6.529918976800000E9     5.429933670965851E-1   -1.345443063930657E-1   -1.956764232518541E-2   -4.589321974591210E-2   -2.054381408127787E-2   -4.561487373551253E-2    4.482082496479404E-1   -2.470391309617291E-1
 6.529929189600000E9     5.426552423190043E-1   -1.354292347884396E-1   -1.979697528053598E-2   -4.612079521387650E-2   -2.089078460690016E-2   -4.578216811794859E-2    4.476099621621792E-1   -2.482073400729758E-1
 6.529939402400000E9     5.423678393449659E-1   -1.364515504884404E-1   -1.998881714734436E-2   -4.647781235171176E-2   -2.120351276299535E-2   -4.611055338540006E-2    4.468566004081020E-1   -2.493537408700185E-1
 6.529949615200000E9     5.422019091114931E-1   -1.373544919630343E-1   -2.020973894863499E-2   -4.693338498806367E-2   -2.149560133736300E-2   -4.644848500952251E-2    4.458479584935860E-1   -2.504152886330214E-1
 6.529959828000000E9     5.419218508390076E-1   -1.382012393022682E-1   -2.072914277581712E-2   -4.717285790426247E-2   -2.178462180468727E-2   -4.672866166619866E-2    4.451222869864825E-1   -2.515317926029200E-1
 6.529970040800000E9     5.415119160633367E-1   -1.393439788089718E-1   -2.100277144401954E-2   -4.753679287928444E-2   -2.211119210278824E-2   -4.699612343518852E-2    4.445429063408034E-1   -2.527676077430869E-1
 6.529980253600000E9     5.411814532302980E-1   -1.400487296812820E-1   -2.135515117747844E-2   -4.775560651015021E-2   -2.240970223175296E-2   -4.738266908182339E-2    4.437849521965521E-1   -2.538801471443193E-1
 6.529990466400000E9     5.409135026674110E-1   -1.410191044159606E-1   -2.154613416920671E-2   -4.812203819955070E-2   -2.269726707516570E-2   -4.769705351166708E-2    4.428397812983516E-1   -2.550594895750952E-1
 6.530000679200000E9     5.405842379911953E-1   -1.420732635061802E-1   -2.187953042823708E-2   -4.849478423137441E-2   -2.306816718402342E-2   -4.800442137912104E-2    4.421616108337634E-1   -2.560784652345580E-1
 6.530010892000000E9     5.404235728318870E-1   -1.430770868829479E-1   -2.224523431434479E-2   -4.870405887134822E-2   -2.334126268078053E-2   -4.837828552401159E-2    4.411405913282658E-1   -2.573815794426040E-1
 6.530021104800000E9     5.400538959196562E-1   -1.439819793641904E-1   -2.249422915194561E-2   -4.916230191214792E-2   -2.364953476122647E-2   -4.875188383014853E-2    4.403806190934254E-1   -2.586811286715654E-1
 6.530031317600000E9     5.397638317316746E-1   -1.448223832244321E-1   -2.280135610821567E-2   -4.947070746299914E-2   -2.399360092185358E-2   -4.904994010002597E-2    4.394157561599116E-1   -2.597745942171356E-1
 6.530041530400000E9     5.393334510757439E-1   -1.457728860882347E-1   -2.317188069218178E-2   -4.999752035917975E-2   -2.435918815713610E-2   -4.942065624364591E-2    4.386992890797613E-1   -2.609248221010174E-1
 6.530051743200000E9     5.391206810847938E-1   -1.467273928681263E-1   -2.355249754059584E-2   -5.025027478076804E-2   -2.468304081852189E-2   -4.983424246269004E-2    4.377423537169302E-1   -2.622626267085498E-1
 6.530061956000000E9     5.387876937201918E-1   -1.477062196919947E-1   -2.373337006816717E-2   -5.071694771540545E-2   -2.505612751724834E-2   -5.009239735079788E-2    4.367118327080378E-1   -2.633770864633085E-1
