#  HZ   S   RI   R     50.00 
! Rohde & Schwarz Vector Network Analyzer 
! Rohde-Schwarz,ZNB20-2Port,1311601062101988,3.16
! Created: UTC 3/21/2024, 1:13:18 AM
! freq[Hz]                re:S11                  im:S11                  re:S21                  im:S21                  re:S12                  im:S12                  re:S22                  im:S22
 6.529146476000000E9     5.565398685274086E-1   -6.972022320175990E-2   -7.761275182691082E-3   -3.039767988988965E-2   -8.380917776440478E-3   -3.042808252897022E-2    4.858085277789660E-1   -1.739166549983271E-1
 6.529156678600000E9     5.564406791626544E-1   -7.061165044524488E-2   -7.978434099376253E-3   -3.062281079621101E-2   -8.428534623475981E-3   -3.050759673075339E-2    4.853248495426278E-1   -1.746859289376998E-1
 6.529166881200000E9     5.563740154731879E-1   -7.147884274887056E-2   -7.890905019310297E-3   -3.077950885885929E-2   -8.576332668199949E-3   -3.056938768887823E-2    4.850161878816119E-1   -1.755743899432871E-1
 6.529177083800000E9     5.562157593971691E-1   -7.230049260046494E-2   -8.057301313255048E-3   -3.089667209477870E-2   -8.585837995593572E-3   -3.077664815209916E-2    4.847316588181095E-1   -1.764350426387313E-1
 6.529187286400000E9     5.561124616974258E-1   -7.303894791450147E-2   -8.160679831206262E-3   -3.094558734280827E-2   -8.775091663082487E-3   -3.097204527432250E-2    4.846020357323284E-1   -1.772958414596765E-1
 6.529197489000000E9     5.559369472586223E-1   -7.391943533476118E-2   -8.143839479226889E-3   -3.113578104681193E-2   -8.810149849710439E-3   -3.109287466150724E-2    4.840110498005703E-1   -1.782013972470129E-1
 6.529207691600000E9     5.558093396032490E-1   -7.473849352824184E-2   -8.330806374243003E-3   -3.135374115825360E-2   -8.941775850192226E-3   -3.123532167264471E-2    4.838095642766239E-1   -1.790247618067076E-1
 6.529217894200000E9     5.556133553296848E-1   -7.559030148287822E-2   -8.375305403638461E-3   -3.144112547515390E-2   -9.038542496720576E-3   -3.135314099865481E-2    4.832911099140703E-1   -1.799295604765614E-1
 6.529228096800000E9     5.555744759762683E-1   -7.640848418284640E-2   -8.522017981520904E-3   -3.160136704505064E-2   -9.051610400565875E-3   -3.151886200199795E-2    4.831117474922040E-1   -1.807986310440401E-1
 6.529238299400000E9     5.554921935931898E-1   -7.722015842579386E-2   -8.573856607250170E-3   -3.168340125208753E-2   -9.213215545121065E-3   -3.167165498089557E-2    4.825561932036530E-1   -1.814999133471462E-1
 6.529248502000000E9     5.554216725010719E-1   -7.805329033487730E-2   -8.727788069176441E-3   -3.197547278820572E-2   -9.321546350109122E-3   -3.177930010632584E-2    4.822903438201179E-1   -1.826472775352938E-1
 6.529258704600000E9     5.552342262756342E-1   -7.888135052125324E-2   -8.755841719558304E-3   -3.193394397880058E-2   -9.435227690126776E-3   -3.185457950415590E-2    4.817994114039758E-1   -1.833897360783891E-1
 6.529268907200000E9     5.550886268101982E-1   -7.967187957012638E-2   -8.801561319642010E-3   -3.221467819112478E-2   -9.490667204493210E-3   -3.200176435302932E-2    4.813516198091400E-1   -1.843577961838396E-1
 6.529279109800000E9     5.549838190460846E-1   -8.049240529098853E-2   -9.017808443821071E-3   -3.228364365735056E-2   -9.601826971329032E-3   -3.222933867243206E-2    4.810653523153141E-1   -1.852459617546125E-1
 6.529289312400000E9     5.547583069966081E-1   -8.146232501087115E-2   -9.000025779657641E-3   -3.241918318026254E-2   -9.739942323277921E-3   -3.235274156559347E-2    4.806695891510449E-1   -1.860875331018418E-1
 6.529299515000000E9     5.547342786995885E-1   -8.210768445529837E-2   -9.169361021222948E-3   -3.261249703375518E-2   -9.873861147660262E-3   -3.251294136213277E-2    4.802568695436267E-1   -1.870617338005635E-1
 6.529309717600000E9     5.545453037378553E-1   -8.289787534218267E-2   -9.235581484458954E-3   -3.277448393013210E-2   -9.922859237207735E-3   -3.260398512351562E-2    4.799066379336878E-1   -1.878059350637091E-1
 6.529319920200000E9     5.544690421084092E-1   -8.380900168590423E-2   -9.400782547822036E-3   -3.281737872598995E-2   -1.015942421327462E-2   -3.282764211566076E-2    4.796051275129850E-1   -1.887884663291189E-1
 6.529330122800000E9     5.543589150768682E-1   -8.462556676941196E-2   -9.526954616310380E-3   -3.312494003062393E-2   -1.035667435435383E-2   -3.291784567020500E-2    4.792018743908709E-1   -1.897806431484365E-1
 6.529340325400000E9     5.541973503567131E-1   -8.542263522210471E-2   -9.712698016985476E-3   -3.334554154848925E-2   -1.034351078501266E-2   -3.310109800542510E-2    4.787953128143460E-1   -1.905994324909026E-1
 6.529350528000000E9     5.541259528878059E-1   -8.643669080062177E-2   -9.863526875864309E-3   -3.341534230374341E-2   -1.043134127849330E-2   -3.333625824649343E-2    4.783159095445375E-1   -1.915229342350012E-1
 6.529360730600000E9     5.539093648280174E-1   -8.728048639908237E-2   -9.868237476492353E-3   -3.355475980532684E-2   -1.057134063714624E-2   -3.345213769125075E-2    4.779052974122829E-1   -1.922304455986689E-1
 6.529370933200000E9     5.537121677376053E-1   -8.787406675488499E-2   -9.880662666333714E-3   -3.388648552702663E-2   -1.067379876952775E-2   -3.357915511612107E-2    4.777514921472271E-1   -1.934163403065112E-1
 6.529381135800000E9     5.536929275520338E-1   -8.885796541283313E-2   -1.022329774484803E-2   -3.393047372523044E-2   -1.090990002913553E-2   -3.378804175761840E-2    4.772211872300317E-1   -1.941491721245531E-1
 6.529391338400000E9     5.534531982017500E-1   -8.960758495841502E-2   -1.036992945182447E-2   -3.411718774799236E-2   -1.095346830917421E-2   -3.389213169863203E-2    4.767181381600588E-1   -1.951303500602134E-1
 6.529401541000000E9     5.533372099752510E-1   -9.046593933510402E-2   -1.036627182774766E-2   -3.416725216075098E-2   -1.107800454092520E-2   -3.406421244081900E-2    4.764314224949784E-1   -1.960689564458158E-1
 6.529411743600000E9     5.531475736323599E-1   -9.129977670214104E-2   -1.046032739851268E-2   -3.445222098636347E-2   -1.119107820481120E-2   -3.425215155309930E-2    4.759836709033456E-1   -1.970608487776333E-1
 6.529421946200000E9     5.529244708271058E-1   -9.203433032550817E-2   -1.064630264570985E-2   -3.462904647254177E-2   -1.139606729140730E-2   -3.447113327014313E-2    4.754442285954017E-1   -1.979042270702493E-1
 6.529432148800000E9     5.528994492931519E-1   -9.307294491336252E-2   -1.078584126995429E-2   -3.477328211622300E-2   -1.146969311048892E-2   -3.464115907229501E-2    4.749447188912514E-1   -1.988078768101612E-1
 6.529442351400000E9     5.526820404332625E-1   -9.375772022677878E-2   -1.077845899096810E-2   -3.490556739300954E-2   -1.163621593546108E-2   -3.471162593429780E-2    4.745754767118722E-1   -1.997255653186688E-1
 6.529452554000000E9     5.526366737850610E-1   -9.460406228236506E-2   -1.091088027942432E-2   -3.508056101203914E-2   -1.165198763719181E-2   -3.504360876549835E-2    4.742186450896711E-1   -2.006448902817725E-1
 6.529462756600000E9     5.524940598108828E-1   -9.554558785711857E-2   -1.124168659622856E-2   -3.538012465408466E-2   -1.190542190585197E-2   -3.514650912450652E-2    4.738274242230835E-1   -2.017183849635367E-1
 6.529472959200000E9     5.522604663335440E-1   -9.634126638136528E-2   -1.122159875779002E-2   -3.541896084685325E-2   -1.196981598679618E-2   -3.530418094564496E-2    4.733941100945948E-1   -2.024731378528370E-1
 6.529483161800000E9     5.520731430509110E-1   -9.703491975631993E-2   -1.144075004969253E-2   -3.573363168164456E-2   -1.216803229619097E-2   -3.546020975505230E-2    4.728373074716681E-1   -2.034276509230871E-1
 6.529493364400000E9     5.519887713304045E-1   -9.801749243631067E-2   -1.166685317918489E-2   -3.588513445299206E-2   -1.230520121449715E-2   -3.566137331991091E-2    4.722814861053868E-1   -2.044478688392559E-1
 6.529503567000000E9     5.517138185786727E-1   -9.888988238810355E-2   -1.147766763201805E-2   -3.613812445689320E-2   -1.242081704018640E-2   -3.595978875855075E-2    4.720187471350121E-1   -2.054924252389670E-1
 6.529513769600000E9     5.516020849040147E-1   -9.966948744983035E-2   -1.176187229209420E-2   -3.626500704254002E-2   -1.253578725782024E-2   -3.604962114460873E-2    4.714936668578794E-1   -2.062727257636680E-1
 6.529523972200000E9     5.513852114831779E-1   -1.005105717784378E-1   -1.182539705045801E-2   -3.648980276849583E-2   -1.270846865220340E-2   -3.630235075622830E-2    4.710708478629104E-1   -2.072170237252584E-1
 6.529534174800000E9     5.511519954769731E-1   -1.014281234835019E-1   -1.210986572782157E-2   -3.667445734471625E-2   -1.288055116366353E-2   -3.632977396822180E-2    4.705376237529614E-1   -2.080406341102372E-1
 6.529544377400000E9     5.510875126432245E-1   -1.024213600506613E-1   -1.237386464356271E-2   -3.687453401901792E-2   -1.292875823751782E-2   -3.663358173555028E-2    4.700966426233262E-1   -2.090666096970989E-1
 6.529554580000000E9     5.509341409135859E-1   -1.031042307463847E-1   -1.236329692420430E-2   -3.686619955172887E-2   -1.320220278521745E-2   -3.685542102700216E-2    4.696375460044061E-1   -2.100122760407749E-1
 6.529564782600000E9     5.507725756332718E-1   -1.039164247904854E-1   -1.249448140776115E-2   -3.719890999209013E-2   -1.328706273707461E-2   -3.701494345981955E-2    4.691276105452029E-1   -2.110378899599305E-1
 6.529574985200000E9     5.505153952974557E-1   -1.047923982656916E-1   -1.278415479319407E-2   -3.750810006569286E-2   -1.354360217049541E-2   -3.718722158271996E-2    4.685896753198036E-1   -2.120384085827337E-1
 6.529585187800000E9     5.504745219982683E-1   -1.056421176408875E-1   -1.280341336958225E-2   -3.769180461632476E-2   -1.368289931848083E-2   -3.745874748685825E-2    4.681267835391695E-1   -2.130474084006940E-1
 6.529595390400000E9     5.501753043594083E-1   -1.065182159589896E-1   -1.305718992901884E-2   -3.779170506891330E-2   -1.385154287631030E-2   -3.761815049023873E-2    4.675273602050197E-1   -2.139487531968169E-1
 6.529605593000000E9     5.500556113841634E-1   -1.073714193722776E-1   -1.324280461821584E-2   -3.793654617495945E-2   -1.398188396681006E-2   -3.781745304029584E-2    4.670958703533504E-1   -2.149712707688643E-1
 6.529615795600000E9     5.496930997685353E-1   -1.082014605861075E-1   -1.337171561188437E-2   -3.820083546345449E-2   -1.431062478327222E-2   -3.808036240122497E-2    4.666378882898135E-1   -2.160812206117764E-1
 6.529625998200000E9     5.497154690549899E-1   -1.091472325449708E-1   -1.338643894576212E-2   -3.851794039944737E-2   -1.428268963282367E-2   -3.814266174258809E-2    4.660574968062849E-1   -2.168199723265604E-1
 6.529636200800000E9     5.493688749250855E-1   -1.100964930499691E-1   -1.363965856657562E-2   -3.884440573861522E-2   -1.446270094147482E-2   -3.848784932316826E-2    4.654185084239403E-1   -2.179403037868070E-1
 6.529646403400000E9     5.492348182562002E-1   -1.108363891951636E-1   -1.394506902298954E-2   -3.893406047162198E-2   -1.471032067443438E-2   -3.868745523648908E-2    4.650206202931312E-1   -2.188580550550918E-1
 6.529656606000000E9     5.489892766676255E-1   -1.117426208900051E-1   -1.408441269379972E-2   -3.910572934431374E-2   -1.495650945758364E-2   -3.882030319618836E-2    4.645391624116966E-1   -2.199261145549858E-1
 6.529666808600000E9     5.487351129685802E-1   -1.126370909642068E-1   -1.428250965025652E-2   -3.929529486084827E-2   -1.505769204130256E-2   -3.912971872882626E-2    4.638627160669868E-1   -2.208792491414035E-1
 6.529677011200000E9     5.486527346961133E-1   -1.133971224557289E-1   -1.435310862587688E-2   -3.955462424739189E-2   -1.522725783210117E-2   -3.938682887702377E-2    4.634182784662579E-1   -2.219104153908060E-1
 6.529687213800000E9     5.483492076438790E-1   -1.141703374313963E-1   -1.447402874417242E-2   -3.985981558899141E-2   -1.536966965448480E-2   -3.959715080104743E-2    4.628639425377808E-1   -2.229031588556598E-1
 6.529697416400000E9     5.481490016212706E-1   -1.150972623484309E-1   -1.467609137122339E-2   -4.011576386557804E-2   -1.560462835500047E-2   -3.971517813135265E-2    4.621346369892161E-1   -2.237092789681446E-1
 6.529707619000000E9     5.479601724891500E-1   -1.160033506869931E-1   -1.479790083632625E-2   -4.031309366522925E-2   -1.578442071031115E-2   -4.008458067830246E-2    4.617054093229195E-1   -2.248264022052273E-1
 6.529717821600000E9     5.476427338129709E-1   -1.169277506970993E-1   -1.513760182945974E-2   -4.046384956215466E-2   -1.603417169822777E-2   -4.023970020531222E-2    4.610332947605032E-1   -2.259829537668037E-1
 6.529728024200000E9     5.475612852939239E-1   -1.178462263167463E-1   -1.530436537028555E-2   -4.085919198174078E-2   -1.621771628961757E-2   -4.047400504443673E-2    4.606349446179552E-1   -2.267020750687537E-1
 6.529738226800000E9     5.473108670760407E-1   -1.186371387568993E-1   -1.558938810368216E-2   -4.099149571843095E-2   -1.646139811323130E-2   -4.065868644056015E-2    4.598911789665798E-1   -2.279640615223978E-1
 6.529748429400000E9     5.470217593607267E-1   -1.195598484070968E-1   -1.563868976255012E-2   -4.116574916297171E-2   -1.658120653361996E-2   -4.084897668662636E-2    4.593625521822641E-1   -2.290382762761470E-1
 6.529758632000000E9     5.468411428288456E-1   -1.204895496284856E-1   -1.598057305857159E-2   -4.156000591819439E-2   -1.677938251970989E-2   -4.131199662292517E-2    4.588061118410346E-1   -2.301585400804531E-1
 6.529768834600000E9     5.466046331957001E-1   -1.213159917228618E-1   -1.615865044598778E-2   -4.174679265029829E-2   -1.704600855089947E-2   -4.151519536580222E-2    4.580301354468959E-1   -2.310172155631539E-1
 6.529779037200000E9     5.463955864010127E-1   -1.222471356019522E-1   -1.629664430547774E-2   -4.207117903882663E-2   -1.723578302287137E-2   -4.176597040519210E-2    4.575154552147045E-1   -2.321113587527917E-1
 6.529789239800000E9     5.462231967586840E-1   -1.231594925322856E-1   -1.654476830277788E-2   -4.228521941746920E-2   -1.748211140580096E-2   -4.192564151087832E-2    4.569472045729490E-1   -2.330449561127033E-1
 6.529799442400000E9     5.460409291475816E-1   -1.239881976880626E-1   -1.678434813423803E-2   -4.254139487905998E-2   -1.764253178598467E-2   -4.226293434669670E-2    4.560983031916900E-1   -2.341423262904539E-1
 6.529809645000000E9     5.457718616961655E-1   -1.248267303394309E-1   -1.695962264814658E-2   -4.272229708890118E-2   -1.791140758830853E-2   -4.244495872316514E-2    4.555143585766097E-1   -2.352906624106448E-1
 6.529819847600000E9     5.454850680833039E-1   -1.258361100098088E-1   -1.715095775747482E-2   -4.316559448447545E-2   -1.822461799607526E-2   -4.277152201621452E-2    4.549148429397372E-1   -2.361920469099004E-1
 6.529830050200000E9     5.452501864364228E-1   -1.266285382992091E-1   -1.728159675788100E-2   -4.342932951545190E-2   -1.840754623172180E-2   -4.309054606524756E-2    4.543271597287247E-1   -2.373904766662923E-1
 6.529840252800000E9     5.449366903103462E-1   -1.275241882166080E-1   -1.755221655487825E-2   -4.351999020637667E-2   -1.865944784601566E-2   -4.321297448152678E-2    4.537553285751872E-1   -2.385242172642490E-1
 6.529850455400000E9     5.448953408449335E-1   -1.284422153311443E-1   -1.781867990325095E-2   -4.392031518419776E-2   -1.878562580041588E-2   -4.351033467422151E-2    4.528630685556956E-1   -2.395325038239881E-1
 6.529860658000000E9     5.445220346117400E-1   -1.292548430084701E-1   -1.805558672182263E-2   -4.416950004296492E-2   -1.915853882716072E-2   -4.378932647785087E-2    4.522585331288496E-1   -2.407454605530650E-1
 6.529870860600000E9     5.442341035612009E-1   -1.302370594137819E-1   -1.845706501024860E-2   -4.438778740691264E-2   -1.943241452804877E-2   -4.410010469680001E-2    4.517735343232441E-1   -2.417194838299720E-1
 6.529881063200000E9     5.440315367714420E-1   -1.311140257991807E-1   -1.843970988083952E-2   -4.469465500477020E-2   -1.954087391407309E-2   -4.437614357405895E-2    4.508673554557607E-1   -2.428316990504381E-1
 6.529891265800000E9     5.437482143423507E-1   -1.320400810315279E-1   -1.880164832296945E-2   -4.488898527298418E-2   -1.986970451155960E-2   -4.465564646370473E-2    4.502665821058147E-1   -2.440025854035260E-1
 6.529901468400000E9     5.435236173135604E-1   -1.329875976652541E-1   -1.913060798870577E-2   -4.518671403251669E-2   -2.008937309685346E-2   -4.487413021931781E-2    4.494165750339775E-1   -2.449148078707440E-1
 6.529911671000000E9     5.431045127323750E-1   -1.338562555161818E-1   -1.931778305834938E-2   -4.568590027200893E-2   -2.037538348890494E-2   -4.515442654227570E-2    4.485439976488496E-1   -2.461638620105586E-1
 6.529921873600000E9     5.428913135862984E-1   -1.347192756287173E-1   -1.956692356490344E-2   -4.586054662019695E-2   -2.069368897605924E-2   -4.540475821054984E-2    4.481049063510585E-1   -2.471725046207543E-1
 6.529932076200000E9     5.425590264246435E-1   -1.357436131414849E-1   -1.985896558960807E-2   -4.623135818448683E-2   -2.093774881692119E-2   -4.584205041017538E-2    4.471173893956793E-1   -2.483988412034445E-1
 6.529942278800000E9     5.423980552614216E-1   -1.366244618025948E-1   -2.026191377310030E-2   -4.665430635922198E-2   -2.121838854046193E-2   -4.612361497549283E-2    4.465078905680439E-1   -2.495213780507934E-1
 6.529952481400000E9     5.420320685840200E-1   -1.375972333367266E-1   -2.042516599079049E-2   -4.686782166615264E-2   -2.156303513420384E-2   -4.647186288165499E-2    4.457729984001604E-1   -2.506002165142917E-1
 6.529962684000000E9     5.417655066983025E-1   -1.383996942039864E-1   -2.084443830913197E-2   -4.737196082571436E-2   -2.179492631692482E-2   -4.680890742710068E-2    4.449867372853378E-1   -2.518792414465886E-1
 6.529972886600000E9     5.415771955245290E-1   -1.393940947970157E-1   -2.100679453959099E-2   -4.755346238450087E-2   -2.215442422075331E-2   -4.712339782039383E-2    4.440053014390349E-1   -2.527936619711610E-1
 6.529983089200000E9     5.411561406594677E-1   -1.403449254081494E-1   -2.140976982553084E-2   -4.781724224020344E-2   -2.244788447741163E-2   -4.740788301098311E-2    4.433455144357790E-1   -2.541439607343594E-1
 6.529993291800000E9     5.409226394093202E-1   -1.412759935202071E-1   -2.162052775375420E-2   -4.820973453470757E-2   -2.271401477403588E-2   -4.765796248651693E-2    4.424151799714921E-1   -2.551931281550836E-1
 6.530003494400000E9     5.404580665347755E-1   -1.422756857578309E-1   -2.182874734819544E-2   -4.855774527083568E-2   -2.306310182589396E-2   -4.814995907773646E-2    4.416663164272431E-1   -2.565456141352493E-1
 6.530013697000000E9     5.402657851193130E-1   -1.431514696954355E-1   -2.235275408294999E-2   -4.881729312322824E-2   -2.343022624762606E-2   -4.838854871915385E-2    4.408724850857286E-1   -2.577426262437403E-1
 6.530023899600000E9     5.398937991822715E-1   -1.440684358645247E-1   -2.253715467486502E-2   -4.920800251258867E-2   -2.373472691668225E-2   -4.879053904325209E-2    4.399191113988321E-1   -2.587796000012582E-1
 6.530034102200000E9     5.395919758291884E-1   -1.450926493996589E-1   -2.288453899840119E-2   -4.969189742203812E-2   -2.404544365897152E-2   -4.905537574613800E-2    4.390526095907523E-1   -2.599638781974080E-1
 6.530044304800000E9     5.391882852287447E-1   -1.460349578950977E-1   -2.335116062259081E-2   -4.986476859781424E-2   -2.447440262516640E-2   -4.942797328229426E-2    4.381305521052361E-1   -2.613557690670348E-1
 6.530054507400000E9     5.390079189722847E-1   -1.468744853324724E-1   -2.359836164213448E-2   -5.015184314174482E-2   -2.477080883322962E-2   -4.987307185754439E-2    4.373533177411607E-1   -2.623768035111254E-1
 6.530064710000000E9     5.386069625867514E-1   -1.479659868352340E-1   -2.379165053676948E-2   -5.062997205953767E-2   -2.512959812303249E-2   -5.015551626407285E-2    4.362586148688836E-1   -2.635156320067038E-1
