#  HZ   S   RI   R     50.00 
! Rohde & Schwarz Vector Network Analyzer 
! Rohde-Schwarz,ZNB20-2Port,1311601062101988,3.16
! Created: UTC 3/21/2024, 1:13:41 AM
! freq[Hz]                re:S11                  im:S11                  re:S21                  im:S21                  re:S12                  im:S12                  re:S22                  im:S22
 6.529171317000000E9     5.562754717200596E-1   -7.151031357672909E-2   -7.895868578154479E-3   -3.075617658796262E-2   -8.532823078791796E-3   -3.040759960823230E-2    4.828951313185746E-1   -1.757573355410457E-1
 6.529181468250000E9     5.562472690811276E-1   -7.227012281553849E-2   -8.011749198703689E-3   -3.075487580198313E-2   -8.619373379067607E-3   -3.052772859162584E-2    4.825912991745905E-1   -1.766075378209302E-1
 6.529191619500000E9     5.560470859514648E-1   -7.321046502074201E-2   -8.193903502501891E-3   -3.068094948171184E-2   -8.555570984816067E-3   -3.068087675746816E-2    4.821984566341653E-1   -1.773977994432707E-1
 6.529201770750000E9     5.560071009855422E-1   -7.388744895067230E-2   -7.973714431008867E-3   -3.090466553919308E-2   -8.838853221292131E-3   -3.075618140899415E-2    4.817497088971812E-1   -1.781111641545078E-1
 6.529211922000000E9     5.557597292908159E-1   -7.467589634759167E-2   -8.339204759504429E-3   -3.113520993431670E-2   -8.816963401999686E-3   -3.102404970363075E-2    4.814912852544436E-1   -1.788366728708928E-1
 6.529222073250000E9     5.556060897786852E-1   -7.553240121379821E-2   -8.319779720134082E-3   -3.126832906621718E-2   -9.002095713334572E-3   -3.104408878862606E-2    4.811212560851686E-1   -1.798076332221777E-1
 6.529232224500000E9     5.556471204282288E-1   -7.633621135439854E-2   -8.554305695774179E-3   -3.134264535450081E-2   -9.114094046333707E-3   -3.131982196165958E-2    4.808433965964987E-1   -1.807597918311662E-1
 6.529242375750000E9     5.554227402022784E-1   -7.706830158479508E-2   -8.446155294831149E-3   -3.159899726311326E-2   -9.193960643307728E-3   -3.131005315637302E-2    4.803298072276349E-1   -1.815233633421323E-1
 6.529252527000000E9     5.553835190436220E-1   -7.793106919802513E-2   -8.603955457532068E-3   -3.167227904528007E-2   -9.339183199891132E-3   -3.157270271974100E-2    4.801608969039207E-1   -1.824588635090792E-1
 6.529262678250000E9     5.553006262956729E-1   -7.886241651133931E-2   -8.705282650066910E-3   -3.178804488576893E-2   -9.340500573026650E-3   -3.168606804601563E-2    4.797148158589212E-1   -1.833289291363495E-1
 6.529272829500000E9     5.550887379222783E-1   -7.957346632425789E-2   -8.786964237514088E-3   -3.197248433346702E-2   -9.427623863981454E-3   -3.182092616366138E-2    4.792706333489222E-1   -1.842466258743475E-1
 6.529282980750000E9     5.549939929533344E-1   -8.044691282201341E-2   -9.012045374015121E-3   -3.214999371824644E-2   -9.579984333491989E-3   -3.196872419845219E-2    4.789076534843120E-1   -1.849840104697088E-1
 6.529293132000000E9     5.548833712879299E-1   -8.123052063353797E-2   -9.070442139447615E-3   -3.229386392099436E-2   -9.622349946922439E-3   -3.211455491135323E-2    4.786019022809503E-1   -1.858232776530022E-1
 6.529303283250000E9     5.546765155876864E-1   -8.209332222476991E-2   -9.119533269514897E-3   -3.231125681459409E-2   -9.841835047954941E-3   -3.223974353269167E-2    4.783048047110831E-1   -1.868796114937100E-1
 6.529313434500000E9     5.545682871096607E-1   -8.293786192278814E-2   -9.211170859260830E-3   -3.252793744727917E-2   -9.923180089449554E-3   -3.251226103384610E-2    4.778406558041514E-1   -1.877544084270578E-1
 6.529323585750000E9     5.544097515690584E-1   -8.368020295307603E-2   -9.194348025627457E-3   -3.278876717641754E-2   -1.007262626553449E-2   -3.256964229807979E-2    4.774701746503766E-1   -1.885977599639322E-1
 6.529333737000000E9     5.543902092048681E-1   -8.455614280282790E-2   -9.518420586791492E-3   -3.298882709413793E-2   -1.016070371320377E-2   -3.275017097883681E-2    4.770878468355529E-1   -1.896322557729816E-1
 6.529343888250000E9     5.541345131201305E-1   -8.542154778417732E-2   -9.612824930834532E-3   -3.307541429033518E-2   -1.025846189449318E-2   -3.294388731937284E-2    4.766073796777364E-1   -1.901964709125886E-1
 6.529354039500000E9     5.541325730457487E-1   -8.616520557486282E-2   -9.749617025609803E-3   -3.318580023326041E-2   -1.044376535976621E-2   -3.305179960775515E-2    4.763308557143401E-1   -1.911850656286480E-1
 6.529364190750000E9     5.539626398268630E-1   -8.706263611715993E-2   -9.716532952422606E-3   -3.341051891230527E-2   -1.051269468890405E-2   -3.314074806186525E-2    4.759024892428610E-1   -1.922131168113938E-1
 6.529374342000000E9     5.538484935629095E-1   -8.788719059603840E-2   -9.957961829112899E-3   -3.360533515467268E-2   -1.069225967341972E-2   -3.337124344566707E-2    4.754171442793978E-1   -1.931668048761820E-1
 6.529384493250000E9     5.535711808455267E-1   -8.869474305131161E-2   -1.020815570509265E-2   -3.357621625242285E-2   -1.073706853102202E-2   -3.349431930598500E-2    4.751417855087386E-1   -1.939381410512457E-1
 6.529394644500000E9     5.535119508745975E-1   -8.949001418513283E-2   -1.012264272836796E-2   -3.391194501447468E-2   -1.082566147988099E-2   -3.360245756611106E-2    4.746033898605306E-1   -1.947808112121173E-1
 6.529404795750000E9     5.533570826703597E-1   -9.026378096998400E-2   -1.025912256171429E-2   -3.387410239711905E-2   -1.099424516510015E-2   -3.386617261078289E-2    4.742458417806669E-1   -1.956853743028647E-1
 6.529414947000000E9     5.531670258041063E-1   -9.121092511990327E-2   -1.045782554172276E-2   -3.422219883674340E-2   -1.107056890637325E-2   -3.395838994774882E-2    4.736972716702608E-1   -1.967754382923468E-1
 6.529425098250000E9     5.530375726932790E-1   -9.199829348031661E-2   -1.044135795364410E-2   -3.419679473577325E-2   -1.118499958094478E-2   -3.409373608774683E-2    4.734206175596348E-1   -1.976070405382263E-1
 6.529435249500000E9     5.528683352352027E-1   -9.279516836917537E-2   -1.062651455837186E-2   -3.446886200482224E-2   -1.134983415336322E-2   -3.435407436818885E-2    4.730416624936287E-1   -1.984920575494897E-1
 6.529445400750000E9     5.528775149012550E-1   -9.357229404220450E-2   -1.079838104399591E-2   -3.463499232814458E-2   -1.151203233902681E-2   -3.447962855139957E-2    4.726110771152679E-1   -1.993866163231448E-1
 6.529455552000000E9     5.525869835345263E-1   -9.447778974949304E-2   -1.081774466946781E-2   -3.484162606421489E-2   -1.160900709513265E-2   -3.461046403177774E-2    4.722072169468972E-1   -2.003126453865076E-1
 6.529465703250000E9     5.525498885881680E-1   -9.529344181354392E-2   -1.105255607802978E-2   -3.509286592949062E-2   -1.174072556635798E-2   -3.484596358305352E-2    4.717158390689191E-1   -2.011317524478536E-1
 6.529475854500000E9     5.522719449194244E-1   -9.610814396828085E-2   -1.114871826999987E-2   -3.519062437727565E-2   -1.193717874009752E-2   -3.508123136243448E-2    4.713578026041004E-1   -2.020282765100455E-1
 6.529486005750000E9     5.520703906730043E-1   -9.698532646425621E-2   -1.130063309903930E-2   -3.525851968068980E-2   -1.203760553682436E-2   -3.523405756746112E-2    4.708447315786039E-1   -2.029652219421492E-1
 6.529496157000000E9     5.520034317920107E-1   -9.786753188103212E-2   -1.137545576727611E-2   -3.554778397434040E-2   -1.213928098222581E-2   -3.542812957575833E-2    4.704794239606702E-1   -2.038873122946171E-1
 6.529506308250000E9     5.517811665064148E-1   -9.867826527852874E-2   -1.159795098137419E-2   -3.572466430384692E-2   -1.239452364076496E-2   -3.559905336361521E-2    4.698106426006938E-1   -2.049465564735588E-1
 6.529516459500000E9     5.516331101631085E-1   -9.951051462923911E-2   -1.180157216050328E-2   -3.579649489641768E-2   -1.253041601402615E-2   -3.570306093771924E-2    4.694039856518134E-1   -2.057535190754230E-1
 6.529526610750000E9     5.514616234531076E-1   -1.004539246939497E-1   -1.173875853949085E-2   -3.620896606774054E-2   -1.261579769627549E-2   -3.586391610404076E-2    4.688367269703846E-1   -2.067749713203056E-1
 6.529536762000000E9     5.512965142947635E-1   -1.011162415942874E-1   -1.199772136290092E-2   -3.623531018839123E-2   -1.278686423692247E-2   -3.610123073502501E-2    4.685194009771484E-1   -2.077505464096796E-1
 6.529546913250000E9     5.510536056480042E-1   -1.021547903681785E-1   -1.212046225108001E-2   -3.643966024033323E-2   -1.293481358381239E-2   -3.626804568223319E-2    4.681057730983801E-1   -2.088296462676894E-1
 6.529557064500000E9     5.509997287855176E-1   -1.028990697547373E-1   -1.218873940306483E-2   -3.662665819670997E-2   -1.302402985140091E-2   -3.649224081765227E-2    4.674894675954325E-1   -2.096320270061283E-1
 6.529567215750000E9     5.507624398144233E-1   -1.037785779192335E-1   -1.252437963273139E-2   -3.683906165365629E-2   -1.332878681217801E-2   -3.682637038773389E-2    4.670756566244190E-1   -2.104820721606959E-1
 6.529577367000000E9     5.506099870790285E-1   -1.045871314763256E-1   -1.251563926893850E-2   -3.710044435217317E-2   -1.346226565162095E-2   -3.685051640943152E-2    4.666255175476983E-1   -2.115769395153125E-1
 6.529587518250000E9     5.504518550888707E-1   -1.054876628913524E-1   -1.262221696050334E-2   -3.729693418924543E-2   -1.346417593934089E-2   -3.707225013178996E-2    4.661252632068367E-1   -2.125520289784411E-1
 6.529597669500000E9     5.502100040495940E-1   -1.063219543266329E-1   -1.293398818217552E-2   -3.748118675762292E-2   -1.368090982950366E-2   -3.725934479653686E-2    4.656387926987297E-1   -2.134439534307813E-1
 6.529607820750000E9     5.500480344321461E-1   -1.070990622137463E-1   -1.302539311232421E-2   -3.776798381687367E-2   -1.390657033640429E-2   -3.751893081150428E-2    4.651937835738578E-1   -2.144257638553769E-1
 6.529617972000000E9     5.498237370740244E-1   -1.079552479318654E-1   -1.320022752650763E-2   -3.794295349929504E-2   -1.400841645241551E-2   -3.761777552100629E-2    4.646760305887656E-1   -2.154147626752216E-1
 6.529628123250000E9     5.496157136571911E-1   -1.088707875994101E-1   -1.330712799580052E-2   -3.808900705021134E-2   -1.416023738308192E-2   -3.785150252593827E-2    4.641677053729193E-1   -2.163177626814525E-1
 6.529638274500000E9     5.494744208582933E-1   -1.097927196079098E-1   -1.356959708889756E-2   -3.832767973802826E-2   -1.426027270324822E-2   -3.809548394255648E-2    4.634440718506710E-1   -2.173399045874458E-1
 6.529648425750000E9     5.492751814764908E-1   -1.104822841846420E-1   -1.366857468562815E-2   -3.862229427796935E-2   -1.448416293251169E-2   -3.830951598377477E-2    4.631599704484831E-1   -2.183780098506347E-1
 6.529658577000000E9     5.491740101231001E-1   -1.114766830042403E-1   -1.369587224582964E-2   -3.889394154413276E-2   -1.457135713884868E-2   -3.865267821065023E-2    4.625799467953567E-1   -2.192226762409624E-1
 6.529668728250000E9     5.489073292516601E-1   -1.123098000265395E-1   -1.385257568461684E-2   -3.889924157258509E-2   -1.493928242930119E-2   -3.876258795345990E-2    4.618917211863609E-1   -2.202744192728871E-1
 6.529678879500000E9     5.486999995098316E-1   -1.130941523033170E-1   -1.400690035508919E-2   -3.928497323216466E-2   -1.496138601672668E-2   -3.895383770761219E-2    4.615085808843690E-1   -2.212591383492399E-1
 6.529689030750000E9     5.484830195903034E-1   -1.140800766076127E-1   -1.432368057081247E-2   -3.946663359064742E-2   -1.528969351850497E-2   -3.913349577907719E-2    4.610101366720931E-1   -2.222780079712268E-1
 6.529699182000000E9     5.482830115754581E-1   -1.148025973857431E-1   -1.456397250760050E-2   -3.963910623658375E-2   -1.542769624123136E-2   -3.940728234566278E-2    4.602796379399103E-1   -2.231099838192866E-1
 6.529709333250000E9     5.479730726075566E-1   -1.157228436028493E-1   -1.457534885408754E-2   -3.977966242512967E-2   -1.561664924296258E-2   -3.958013915843905E-2    4.597856900517864E-1   -2.242169099276834E-1
 6.529719484500000E9     5.479404532970110E-1   -1.166958469901734E-1   -1.487760154151023E-2   -4.006543651925096E-2   -1.581664147997603E-2   -3.996572615165575E-2    4.592876798747665E-1   -2.252706276593668E-1
 6.529729635750000E9     5.476013077950771E-1   -1.174657579952137E-1   -1.516595060930079E-2   -4.030685106873454E-2   -1.599329270054843E-2   -4.015001377139281E-2    4.586637398498851E-1   -2.262489254352681E-1
 6.529739787000000E9     5.473142207532563E-1   -1.184411729945969E-1   -1.518171109046446E-2   -4.058338479598099E-2   -1.624168709472334E-2   -4.029398349229201E-2    4.582144594774851E-1   -2.273458646032819E-1
 6.529749938250000E9     5.471847294060058E-1   -1.192598527385290E-1   -1.553528777917731E-2   -4.073426598699873E-2   -1.634819533511047E-2   -4.050643743535048E-2    4.574495199447863E-1   -2.281380163799318E-1
 6.529760089500000E9     5.469851330430061E-1   -1.200579463470088E-1   -1.572822934687108E-2   -4.118149952987239E-2   -1.664438260095651E-2   -4.081617768331033E-2    4.568332326102371E-1   -2.292366462054336E-1
 6.529770240750000E9     5.467400899321809E-1   -1.209999468962489E-1   -1.587981081504558E-2   -4.130150214813554E-2   -1.674586944479066E-2   -4.106307102765383E-2    4.563476175225532E-1   -2.304057783710623E-1
 6.529780392000000E9     5.465765243800085E-1   -1.219070596630908E-1   -1.611149585839032E-2   -4.156941878979178E-2   -1.708433665207690E-2   -4.121057087488798E-2    4.556137695353492E-1   -2.314508865702497E-1
 6.529790543250000E9     5.463659798554913E-1   -1.228267268923146E-1   -1.629421583383524E-2   -4.183376992214773E-2   -1.719703755378097E-2   -4.154879413389791E-2    4.551758142882041E-1   -2.323492857181736E-1
 6.529800694500000E9     5.460626013983853E-1   -1.236276215686917E-1   -1.642857743912938E-2   -4.204932803209081E-2   -1.744763442807777E-2   -4.181520283710668E-2    4.544453643893035E-1   -2.334697811631725E-1
 6.529810845750000E9     5.458577163938055E-1   -1.243999880981260E-1   -1.681085486809684E-2   -4.240451331543565E-2   -1.767627891595776E-2   -4.208460434064436E-2    4.539512824601047E-1   -2.345512068089800E-1
 6.529820997000000E9     5.456097689050607E-1   -1.254107236528636E-1   -1.684414594405418E-2   -4.266153519051648E-2   -1.798003183091972E-2   -4.222444605087199E-2    4.531534943886482E-1   -2.355670790520641E-1
 6.529831148250000E9     5.454643558994849E-1   -1.262401780650864E-1   -1.719722372835330E-2   -4.276198774827859E-2   -1.812722940370428E-2   -4.248330578140598E-2    4.524587736711531E-1   -2.365580711438580E-1
 6.529841299500000E9     5.451611489399010E-1   -1.271138281312169E-1   -1.735368829247346E-2   -4.323574716698082E-2   -1.833890607539783E-2   -4.286188488645416E-2    4.519050891757553E-1   -2.376296690929301E-1
 6.529851450750000E9     5.448664989148075E-1   -1.280460623257696E-1   -1.750737225096567E-2   -4.338374636039297E-2   -1.858391608869222E-2   -4.318802236817715E-2    4.511492858876351E-1   -2.386202235574844E-1
 6.529861602000000E9     5.446337245323640E-1   -1.289954061097300E-1   -1.775127671660714E-2   -4.382548818681438E-2   -1.879079396441199E-2   -4.333380759322643E-2    4.505785152042243E-1   -2.397124734995816E-1
 6.529871753250000E9     5.444115229575947E-1   -1.299463493575884E-1   -1.800931512635634E-2   -4.404866417310180E-2   -1.901915188354915E-2   -4.362408145128121E-2    4.498481899947550E-1   -2.408923902033116E-1
 6.529881904500000E9     5.440990959143081E-1   -1.307997950506204E-1   -1.835251201717487E-2   -4.432279885230826E-2   -1.931968919891095E-2   -4.380369507701151E-2    4.492632484625394E-1   -2.417754958196299E-1
 6.529892055750000E9     5.439244029812822E-1   -1.316347933165343E-1   -1.844903298117348E-2   -4.464688760323592E-2   -1.949737099527006E-2   -4.413787636999319E-2    4.485389054264720E-1   -2.429463231350388E-1
 6.529902207000000E9     5.436282225506298E-1   -1.325204967737856E-1   -1.885284593315281E-2   -4.484862124472833E-2   -1.976468085441715E-2   -4.443502164136690E-2    4.477522092797315E-1   -2.439762291041329E-1
 6.529912358250000E9     5.433378154113038E-1   -1.334149620561449E-1   -1.908027618017649E-2   -4.502900040553796E-2   -2.005524210675474E-2   -4.481167891018756E-2    4.470582689000083E-1   -2.451761474849186E-1
 6.529922509500000E9     5.431163561728405E-1   -1.343240343876496E-1   -1.930213649921103E-2   -4.555613113411344E-2   -2.045434574666699E-2   -4.500620061052538E-2    4.462358783276106E-1   -2.461583466946267E-1
 6.529932660750000E9     5.428442858119081E-1   -1.353015352397406E-1   -1.952752292431189E-2   -4.578638431897929E-2   -2.056500012204354E-2   -4.534016254978365E-2    4.457614467575610E-1   -2.473450578256926E-1
 6.529942812000000E9     5.425757250812036E-1   -1.362627941809651E-1   -1.983038614195837E-2   -4.607650638272232E-2   -2.090567139689572E-2   -4.568281736333463E-2    4.448290194334271E-1   -2.485035742313913E-1
 6.529952963250000E9     5.421847231359579E-1   -1.371256495628419E-1   -1.999640122091109E-2   -4.629771359593309E-2   -2.122892898520519E-2   -4.593371302152339E-2    4.441991098965333E-1   -2.493692486978520E-1
 6.529963114500000E9     5.418719906786416E-1   -1.379221014049493E-1   -2.037971347115507E-2   -4.674011200336771E-2   -2.144689206525291E-2   -4.626950298386642E-2    4.434256636514353E-1   -2.505722960066115E-1
 6.529973265750000E9     5.416258229210340E-1   -1.389498751452256E-1   -2.054546592826320E-2   -4.702036867451664E-2   -2.177859828825338E-2   -4.660109367479674E-2    4.426501599705270E-1   -2.518167080119149E-1
 6.529983417000000E9     5.415006916950137E-1   -1.397874809759670E-1   -2.094496809833110E-2   -4.722843268762451E-2   -2.203661631247484E-2   -4.689483772913004E-2    4.418624385446926E-1   -2.528533316991685E-1
 6.529993568250000E9     5.410846434149122E-1   -1.407699942118246E-1   -2.117013903827618E-2   -4.757603634396642E-2   -2.235651773156048E-2   -4.727217729534454E-2    4.410275088214227E-1   -2.539595478340249E-1
 6.530003719500000E9     5.407026394575981E-1   -1.417409436289033E-1   -2.146566900205842E-2   -4.804220153062591E-2   -2.270688387271062E-2   -4.744430216939489E-2    4.403031588961055E-1   -2.553244819478961E-1
 6.530013870750000E9     5.403821452608674E-1   -1.426378260635766E-1   -2.184537461134161E-2   -4.823736979617846E-2   -2.300395522420760E-2   -4.791440334648950E-2    4.393890601230339E-1   -2.563569775168588E-1
 6.530024022000000E9     5.401665174748371E-1   -1.435454027984900E-1   -2.215468102994505E-2   -4.859996631502121E-2   -2.327349764516304E-2   -4.815405349133579E-2    4.386649674830209E-1   -2.573614575556856E-1
 6.530034173250000E9     5.398232471959679E-1   -1.446048198666774E-1   -2.232293925079872E-2   -4.906747893531095E-2   -2.365341938177637E-2   -4.845420759085971E-2    4.377590015353994E-1   -2.587089150410055E-1
 6.530044324500000E9     5.395915170662124E-1   -1.454476173768192E-1   -2.267793115491917E-2   -4.932091833282948E-2   -2.395820333332880E-2   -4.884459353514744E-2    4.368087132701161E-1   -2.599368002194865E-1
 6.530054475750000E9     5.392848003539561E-1   -1.465149882630509E-1   -2.314075211736855E-2   -4.963545300950281E-2   -2.431185873699993E-2   -4.926702585827752E-2    4.360649595830026E-1   -2.608795514893857E-1
 6.530064627000000E9     5.389114079898670E-1   -1.473977837156314E-1   -2.326248908556388E-2   -5.006737531773189E-2   -2.460976898487872E-2   -4.954314430881154E-2    4.351289845059281E-1   -2.622829488716114E-1
 6.530074778250000E9     5.384685323036187E-1   -1.482716434288898E-1   -2.392760758635016E-2   -5.040158600763200E-2   -2.492453751860076E-2   -4.992270276820381E-2    4.342281361170016E-1   -2.634793965414232E-1
 6.530084929500000E9     5.383084143261613E-1   -1.491766499789942E-1   -2.402649521074944E-2   -5.072160308329743E-2   -2.534645569819661E-2   -5.028456948624140E-2    4.333792693531224E-1   -2.646557438261972E-1
