#  HZ   S   RI   R     50.00 
! Rohde & Schwarz Vector Network Analyzer 
! Rohde-Schwarz,ZNB20-2Port,1311601062101988,3.16
! Created: UTC 3/21/2024, 1:13:43 AM
! freq[Hz]                re:S11                  im:S11                  re:S21                  im:S21                  re:S12                  im:S12                  re:S22                  im:S22
 6.529173723000000E9     5.562815523442838E-1   -7.154912845649970E-2   -8.054058625021577E-3   -3.054106524038458E-2   -8.411104207965935E-3   -3.037665190778897E-2    4.824818100054312E-1   -1.757883039651748E-1
 6.529183869825000E9     5.560405381323460E-1   -7.246948093870553E-2   -8.037678423992459E-3   -3.081697542259243E-2   -8.606403074333089E-3   -3.061671032541900E-2    4.823001726393323E-1   -1.766393034535498E-1
 6.529194016650000E9     5.559418417204355E-1   -7.333377408602566E-2   -8.124660808250474E-3   -3.078831470662108E-2   -8.753239379152362E-3   -3.069241277273538E-2    4.817817939889980E-1   -1.774270614564661E-1
 6.529204163475000E9     5.559280730687766E-1   -7.409203389362534E-2   -8.139881938436120E-3   -3.097158883785621E-2   -8.840694567122345E-3   -3.070618967242407E-2    4.815056373721269E-1   -1.783726096980410E-1
 6.529214310300000E9     5.557056419954503E-1   -7.498548646702867E-2   -8.170114125104466E-3   -3.111158494938661E-2   -8.940939299585516E-3   -3.094270249901689E-2    4.812246908234217E-1   -1.792655599953845E-1
 6.529224457125000E9     5.557230395816870E-1   -7.560037386551217E-2   -8.322378479825036E-3   -3.123742603800965E-2   -9.036724595111926E-3   -3.111072337423666E-2    4.807228637058525E-1   -1.798941647520067E-1
 6.529234603950000E9     5.556228568004090E-1   -7.653481729123256E-2   -8.471137712677233E-3   -3.145671652764744E-2   -9.084840597505320E-3   -3.125138728270574E-2    4.805735245516106E-1   -1.808345625238993E-1
 6.529244750775000E9     5.554996231300039E-1   -7.728931012521724E-2   -8.563553063245535E-3   -3.148690275658941E-2   -9.128923512907092E-3   -3.140588813520065E-2    4.802400632381452E-1   -1.817736687238860E-1
 6.529254897600000E9     5.553066869096529E-1   -7.820433367940233E-2   -8.757342585343430E-3   -3.164103126218885E-2   -9.274573636779547E-3   -3.152373807582690E-2    4.797881432376293E-1   -1.827774719904277E-1
 6.529265044425000E9     5.550514972076850E-1   -7.895296003208371E-2   -8.806354692091610E-3   -3.181003048714735E-2   -9.385735125858385E-3   -3.167974699826070E-2    4.794277619141895E-1   -1.836128263256435E-1
 6.529275191250000E9     5.550701389703454E-1   -7.968279769774714E-2   -8.823775586413176E-3   -3.201613936906397E-2   -9.483773775969734E-3   -3.187210751431934E-2    4.792154929017396E-1   -1.845598094131627E-1
 6.529285338075000E9     5.549607441638302E-1   -8.055820137119052E-2   -8.984260658395405E-3   -3.228090007913154E-2   -9.578627498606274E-3   -3.193049459836649E-2    4.786356248527508E-1   -1.852356954587446E-1
 6.529295484900000E9     5.547437497627383E-1   -8.141282329803806E-2   -9.013079680756909E-3   -3.223014708237437E-2   -9.712954148167653E-3   -3.215788779918395E-2    4.783674825693879E-1   -1.861998632422903E-1
 6.529305631725000E9     5.546248129942767E-1   -8.233442316374408E-2   -9.060763135057862E-3   -3.227564897603025E-2   -9.784728079670372E-3   -3.224216382472033E-2    4.780567754133432E-1   -1.871154811883567E-1
 6.529315778550000E9     5.545673594810316E-1   -8.311027765984345E-2   -9.255203805488115E-3   -3.262084020865443E-2   -9.947274856517963E-3   -3.238730439472726E-2    4.776807983159410E-1   -1.877502890411647E-1
 6.529325925375000E9     5.544749487746194E-1   -8.389700603794772E-2   -9.386160994957614E-3   -3.282124192092140E-2   -1.006588843553331E-2   -3.260032442773710E-2    4.771883043559426E-1   -1.886873032168385E-1
 6.529336072200000E9     5.543085563027970E-1   -8.467822008643780E-2   -9.461440390540482E-3   -3.282754619986342E-2   -1.017942609524745E-2   -3.264406416249251E-2    4.767738201665894E-1   -1.895521791761657E-1
 6.529346219025000E9     5.541821492182335E-1   -8.548562798169600E-2   -9.708913526761270E-3   -3.306754988413185E-2   -1.025120589246071E-2   -3.293061262846211E-2    4.764320100789482E-1   -1.905968586520478E-1
 6.529356365850000E9     5.540260134024831E-1   -8.634480235434049E-2   -9.749117980253597E-3   -3.328101680301674E-2   -1.045631787196171E-2   -3.302565904843887E-2    4.760596464817104E-1   -1.914394157291568E-1
 6.529366512675000E9     5.537883725395875E-1   -8.721727508649617E-2   -9.717120616565933E-3   -3.332505151104216E-2   -1.054353999141154E-2   -3.319771408458191E-2    4.756565118629246E-1   -1.923349083559298E-1
 6.529376659500000E9     5.536637695496112E-1   -8.808755759197390E-2   -1.001993877139843E-2   -3.349295459056740E-2   -1.069282125427624E-2   -3.332054961568032E-2    4.752243693225978E-1   -1.930305457511027E-1
 6.529386806325000E9     5.536604138161556E-1   -8.887866478456660E-2   -1.004735210394641E-2   -3.368210400184866E-2   -1.079751445759731E-2   -3.356930689869222E-2    4.749124015022822E-1   -1.941477492371552E-1
 6.529396953150000E9     5.533977948634521E-1   -8.970288396675201E-2   -1.009543486784540E-2   -3.391369458128558E-2   -1.090745611681445E-2   -3.359188339701461E-2    4.743807923376502E-1   -1.950736073543143E-1
 6.529407099975000E9     5.532578010856496E-1   -9.044359119594260E-2   -1.027470771577320E-2   -3.408265086314898E-2   -1.099958089435640E-2   -3.382381023323349E-2    4.741122529583592E-1   -1.960372829389814E-1
 6.529417246800000E9     5.532716417472213E-1   -9.135678494423451E-2   -1.050075885589166E-2   -3.411147441772283E-2   -1.118927812922441E-2   -3.396666727471963E-2    4.735775555677702E-1   -1.967914337836119E-1
 6.529427393625000E9     5.529587194997058E-1   -9.211604897257235E-2   -1.047445683694327E-2   -3.435679736072695E-2   -1.124799653184529E-2   -3.410586515192184E-2    4.730957787571021E-1   -1.979924431677629E-1
 6.529437540450000E9     5.528476463943042E-1   -9.307059837815403E-2   -1.066001093153015E-2   -3.453284691587418E-2   -1.143816419132232E-2   -3.433602894690959E-2    4.727405894030952E-1   -1.985784143864815E-1
 6.529447687275000E9     5.526781589804131E-1   -9.387353702524219E-2   -1.069327068426681E-2   -3.465077758201410E-2   -1.156093104346579E-2   -3.438305464669199E-2    4.723279080150355E-1   -1.993920797141099E-1
 6.529457834100000E9     5.526541684831860E-1   -9.462485440866564E-2   -1.102588762578374E-2   -3.483579966558226E-2   -1.165397997312221E-2   -3.473428551383873E-2    4.717175280981243E-1   -2.004891140633359E-1
 6.529467980925000E9     5.524169916664045E-1   -9.554696097752384E-2   -1.096313597566526E-2   -3.486629059167987E-2   -1.179912839143263E-2   -3.483393737096613E-2    4.713783740360812E-1   -2.015345012562126E-1
 6.529478127750000E9     5.522294617289284E-1   -9.618071589785200E-2   -1.108302554650592E-2   -3.526160776462573E-2   -1.190237439596294E-2   -3.495546902036094E-2    4.710239661462240E-1   -2.022708432648036E-1
 6.529488274575000E9     5.521013010295741E-1   -9.711532060564217E-2   -1.129992544880419E-2   -3.534383291518391E-2   -1.203902639926816E-2   -3.521887792858673E-2    4.705253643124260E-1   -2.032747065311765E-1
 6.529498421400000E9     5.518741153498059E-1   -9.804297609691419E-2   -1.138862997404980E-2   -3.553274800051159E-2   -1.226699682708887E-2   -3.541847576071874E-2    4.699636130066639E-1   -2.040973112170743E-1
 6.529508568225000E9     5.517529481685961E-1   -9.884586538929142E-2   -1.159197046015557E-2   -3.576582695116653E-2   -1.245122314004927E-2   -3.556157094712403E-2    4.695999402537990E-1   -2.050453546679536E-1
 6.529518715050000E9     5.515677068908039E-1   -9.961695204229991E-2   -1.170104145318527E-2   -3.589052956676326E-2   -1.244190967999178E-2   -3.579698707248036E-2    4.692171584581769E-1   -2.059148745923959E-1
 6.529528861875000E9     5.513208220698309E-1   -1.006144130927409E-1   -1.184458104802519E-2   -3.626340292177797E-2   -1.263307097188773E-2   -3.601097390772487E-2    4.688445763871356E-1   -2.068626166564175E-1
 6.529539008700000E9     5.512241850840520E-1   -1.013553319308638E-1   -1.198621355212975E-2   -3.639060873684737E-2   -1.281251683741587E-2   -3.611335890841508E-2    4.682646429257522E-1   -2.078711366352150E-1
 6.529549155525000E9     5.510030308415201E-1   -1.020982819980308E-1   -1.215833593132778E-2   -3.650324863583376E-2   -1.293730640470712E-2   -3.645874142152405E-2    4.678031563682443E-1   -2.086886566382732E-1
 6.529559302350000E9     5.509172143668167E-1   -1.030106156770248E-1   -1.227515094811693E-2   -3.678879406226113E-2   -1.311529978611611E-2   -3.650991510151851E-2    4.673376400229398E-1   -2.098347994636754E-1
 6.529569449175000E9     5.507937834304163E-1   -1.038614012110247E-1   -1.244908270581540E-2   -3.687886829104945E-2   -1.323272841613481E-2   -3.664611751102834E-2    4.667731668337121E-1   -2.107549874839829E-1
 6.529579596000000E9     5.504903924273360E-1   -1.047453368706670E-1   -1.255978825597351E-2   -3.711525091663157E-2   -1.343604913188516E-2   -3.689424841599630E-2    4.663883208415103E-1   -2.118828926804438E-1
 6.529589742825000E9     5.503636052317347E-1   -1.056319702817818E-1   -1.287787050230679E-2   -3.728643290202566E-2   -1.355441365362665E-2   -3.706550303620348E-2    4.658212292185944E-1   -2.126227950405294E-1
 6.529599889650000E9     5.501009733629378E-1   -1.064642378814653E-1   -1.283000590428489E-2   -3.759696197282122E-2   -1.370561901820141E-2   -3.728233742532910E-2    4.653987844752630E-1   -2.135546452865571E-1
 6.529610036475000E9     5.499453745394874E-1   -1.072323130889144E-1   -1.308071693595379E-2   -3.776956455404533E-2   -1.384326002367214E-2   -3.755861996518566E-2    4.649048714019395E-1   -2.146303946629654E-1
 6.529620183300000E9     5.497206043814853E-1   -1.082311356738478E-1   -1.323960453560675E-2   -3.796443180050545E-2   -1.406128074788091E-2   -3.762954640951673E-2    4.643418136259959E-1   -2.155266806487934E-1
 6.529630330125000E9     5.495671403741589E-1   -1.090521224382430E-1   -1.329289556394670E-2   -3.811159406352463E-2   -1.418365127910087E-2   -3.783399394302226E-2    4.639000836159379E-1   -2.164959060261218E-1
 6.529640476950000E9     5.494807845203169E-1   -1.100213519256634E-1   -1.347349728800355E-2   -3.834564729071279E-2   -1.441208106096471E-2   -3.816882368928210E-2    4.631633290464460E-1   -2.175435147712171E-1
 6.529650623775000E9     5.493301947663585E-1   -1.107028295840555E-1   -1.359024271670685E-2   -3.866468227499667E-2   -1.451019943678386E-2   -3.824712785296545E-2    4.627445352666977E-1   -2.184140541907293E-1
 6.529660770600000E9     5.490568905042011E-1   -1.116935629699109E-1   -1.385106381947080E-2   -3.888632007183394E-2   -1.463769040228404E-2   -3.854659826917595E-2    4.623106832911814E-1   -2.194365988272278E-1
 6.529670917425000E9     5.488036817229152E-1   -1.123815606127982E-1   -1.401699941763694E-2   -3.896047090379350E-2   -1.494598100846377E-2   -3.868488762887146E-2    4.616216827454644E-1   -2.203869478103142E-1
 6.529681064250000E9     5.487166398996701E-1   -1.133191402322315E-1   -1.422628582176802E-2   -3.933430629895073E-2   -1.502236127418962E-2   -3.892911710291162E-2    4.611515102355123E-1   -2.215099405437020E-1
 6.529691211075000E9     5.484957474690156E-1   -1.142615125576911E-1   -1.438503383812375E-2   -3.954852670762413E-2   -1.522815263205208E-2   -3.928135724283308E-2    4.606314946758882E-1   -2.224076897816984E-1
 6.529701357900000E9     5.482468024094743E-1   -1.150279494891814E-1   -1.449992781792255E-2   -3.954339922700117E-2   -1.539807980468759E-2   -3.942152624476595E-2    4.600926029032238E-1   -2.232873175628301E-1
 6.529711504725000E9     5.481415378119219E-1   -1.159180573656582E-1   -1.465968632158704E-2   -3.986878827520621E-2   -1.566885233768622E-2   -3.971900512435175E-2    4.594133571982001E-1   -2.242185948264391E-1
 6.529721651550000E9     5.478975821172410E-1   -1.166882557393433E-1   -1.490718369756797E-2   -4.031909007073974E-2   -1.574897184990159E-2   -3.981755832811689E-2    4.589262364932818E-1   -2.253115245554722E-1
 6.529731798375000E9     5.476571419548458E-1   -1.175626053120926E-1   -1.507074759219450E-2   -4.033707827786522E-2   -1.597489989898026E-2   -3.997312889445716E-2    4.582805174325879E-1   -2.262732290959286E-1
 6.529741945200000E9     5.473358473946888E-1   -1.186362451849498E-1   -1.530067853630761E-2   -4.066723977609034E-2   -1.622463658367500E-2   -4.028464203318166E-2    4.576872979356855E-1   -2.272951086257987E-1
 6.529752092025000E9     5.472176814134718E-1   -1.194998033972828E-1   -1.546531724695305E-2   -4.087726992329555E-2   -1.634071464873058E-2   -4.053380589358475E-2    4.572620786512851E-1   -2.282745413524195E-1
 6.529762238850000E9     5.469880889047699E-1   -1.203666572575301E-1   -1.572319103429892E-2   -4.108357209580260E-2   -1.661944612445342E-2   -4.084124297126637E-2    4.566629932831269E-1   -2.294332358754867E-1
 6.529772385675000E9     5.467799306729691E-1   -1.212018574803617E-1   -1.582458008516563E-2   -4.144669212405404E-2   -1.682619991126871E-2   -4.109190375933917E-2    4.561497994811365E-1   -2.304182528974204E-1
 6.529782532500000E9     5.465067625100217E-1   -1.220734328523600E-1   -1.620106354393018E-2   -4.160641585000190E-2   -1.703109343799215E-2   -4.127779829090257E-2    4.553101141994852E-1   -2.314475719268564E-1
 6.529792679325000E9     5.461681851080895E-1   -1.228250789282275E-1   -1.635313640599241E-2   -4.178770724143476E-2   -1.725815863427117E-2   -4.155789935903362E-2    4.547335417799621E-1   -2.324995226048411E-1
 6.529802826150000E9     5.460450346288640E-1   -1.238153622529261E-1   -1.640586384389434E-2   -4.211489522048616E-2   -1.745842145300489E-2   -4.171599318610292E-2    4.541983711919139E-1   -2.336003329929788E-1
 6.529812972975000E9     5.458116823392001E-1   -1.246437762192888E-1   -1.668606627842023E-2   -4.234745067531365E-2   -1.779020959006399E-2   -4.202423614768783E-2    4.535889631474749E-1   -2.345118617846478E-1
 6.529823119800000E9     5.455687571735918E-1   -1.255109011124970E-1   -1.701247760255416E-2   -4.260957398922168E-2   -1.782118792089744E-2   -4.229614354880888E-2    4.530281627650273E-1   -2.354987933659248E-1
 6.529833266625000E9     5.453921554577950E-1   -1.264788106216708E-1   -1.718366294288263E-2   -4.296448439544300E-2   -1.810938774615105E-2   -4.259079401245221E-2    4.523234082784891E-1   -2.367898125774660E-1
 6.529843413450000E9     5.451249500944634E-1   -1.274455930351872E-1   -1.741182316584539E-2   -4.314273437746520E-2   -1.839674108199183E-2   -4.278151556639642E-2    4.517520256480790E-1   -2.376765474008884E-1
 6.529853560275000E9     5.448655539118019E-1   -1.282419395974982E-1   -1.753956395453610E-2   -4.356143725275795E-2   -1.858056857122543E-2   -4.303009424962494E-2    4.509279916141651E-1   -2.386564680276557E-1
 6.529863707100000E9     5.446548189547358E-1   -1.291655078957090E-1   -1.780529288941206E-2   -4.369433119239294E-2   -1.889053467929521E-2   -4.338627925908465E-2    4.503422712849418E-1   -2.398371349219531E-1
 6.529873853925000E9     5.443690131864501E-1   -1.300771809539817E-1   -1.804369000903721E-2   -4.400450163443595E-2   -1.910917556824767E-2   -4.363531089610723E-2    4.497494987100736E-1   -2.408077241333344E-1
 6.529884000750000E9     5.440520183409021E-1   -1.309683025023224E-1   -1.828029130564733E-2   -4.428154989934047E-2   -1.931917316937035E-2   -4.391920061972463E-2    4.490287985349006E-1   -2.419236215284208E-1
 6.529894147575000E9     5.437892128206061E-1   -1.317401142190412E-1   -1.850841442888178E-2   -4.460352957686569E-2   -1.955190249479934E-2   -4.415152891375209E-2    4.482189298011283E-1   -2.430693008659991E-1
 6.529904294400000E9     5.435988450698280E-1   -1.326029631314415E-1   -1.886595511018826E-2   -4.476263635741922E-2   -1.982565328454249E-2   -4.448645174576955E-2    4.476630034214086E-1   -2.442650119497768E-1
 6.529914441225000E9     5.433544113310325E-1   -1.336201422290016E-1   -1.905107491734894E-2   -4.507981210174713E-2   -2.017475615139871E-2   -4.473347908393024E-2    4.468700935313344E-1   -2.452301893031735E-1
 6.529924588050000E9     5.430433314259107E-1   -1.345928306924911E-1   -1.934271738573218E-2   -4.537720372598442E-2   -2.033566431632378E-2   -4.501281276584404E-2    4.461784840846585E-1   -2.463653779646936E-1
 6.529934734875000E9     5.426888960681939E-1   -1.353825313606789E-1   -1.966764027039593E-2   -4.574127886045620E-2   -2.063741964461407E-2   -4.527886830731899E-2    4.453873859537705E-1   -2.473107235694037E-1
 6.529944881700000E9     5.426891761313183E-1   -1.364409176349017E-1   -1.982867412321358E-2   -4.600816036769412E-2   -2.097160488107142E-2   -4.568611436287048E-2    4.445104038443757E-1   -2.485294701808813E-1
 6.529955028525000E9     5.423986173975295E-1   -1.372654386745004E-1   -2.007844623592503E-2   -4.629569170187305E-2   -2.125016879549878E-2   -4.590717219415232E-2    4.437468628413089E-1   -2.496687567475892E-1
 6.529965175350000E9     5.419807057396253E-1   -1.381936278751388E-1   -2.039928187034137E-2   -4.679596866280892E-2   -2.152225151576073E-2   -4.617651297622601E-2    4.432203019137523E-1   -2.508302648949394E-1
 6.529975322175000E9     5.416439915407303E-1   -1.391243127134619E-1   -2.052648085692872E-2   -4.704253608028748E-2   -2.184119431403618E-2   -4.645281424677922E-2    4.423355094029616E-1   -2.519404534846208E-1
 6.529985469000000E9     5.413578324327691E-1   -1.400163355513109E-1   -2.087347825334467E-2   -4.730860989351904E-2   -2.207157338783714E-2   -4.687506756428938E-2    4.415426969631573E-1   -2.531135177563814E-1
 6.529995615825000E9     5.410617361234468E-1   -1.408955750135133E-1   -2.122336871118921E-2   -4.770376352209619E-2   -2.249695038642045E-2   -4.716399515438620E-2    4.406624294649853E-1   -2.540615918403532E-1
 6.530005762650000E9     5.407144620647810E-1   -1.418792167913862E-1   -2.149927229931423E-2   -4.795230608062420E-2   -2.261093928514083E-2   -4.754122232081250E-2    4.399196765365180E-1   -2.553380709909950E-1
 6.530015909475000E9     5.404814174511381E-1   -1.428457286154464E-1   -2.178829603468769E-2   -4.833727295236237E-2   -2.301266986742370E-2   -4.782976579234584E-2    4.392243246501852E-1   -2.565017094898379E-1
 6.530026056300000E9     5.400780448404289E-1   -1.437528628677970E-1   -2.223924588922376E-2   -4.854679719247788E-2   -2.340554660975149E-2   -4.815110043123867E-2    4.383079515238697E-1   -2.576543795527887E-1
 6.530036203125000E9     5.397781296761354E-1   -1.446295156221258E-1   -2.242244971835301E-2   -4.898293272827368E-2   -2.369848658221228E-2   -4.845922973137026E-2    4.374947764073872E-1   -2.588411048557798E-1
 6.530046349950000E9     5.395384769103760E-1   -1.454426967314462E-1   -2.281291910724323E-2   -4.924397290219969E-2   -2.405677049966773E-2   -4.881963182912482E-2    4.365850033452603E-1   -2.600522649781959E-1
 6.530056496775000E9     5.391575455706227E-1   -1.464572963943934E-1   -2.325533209391889E-2   -4.979534559186477E-2   -2.439874258275864E-2   -4.920748334112928E-2    4.357600345891716E-1   -2.612174902941481E-1
 6.530066643600000E9     5.387415749081543E-1   -1.475892018062047E-1   -2.349938659488701E-2   -4.988787238721833E-2   -2.467674158554892E-2   -4.951880376636758E-2    4.347986864701240E-1   -2.624450639367108E-1
 6.530076790425000E9     5.384790714424148E-1   -1.484882198345294E-1   -2.371905617434938E-2   -5.026921741496153E-2   -2.509954938659305E-2   -4.991901000469806E-2    4.337963496011307E-1   -2.636281788498430E-1
 6.530086937250000E9     5.382206776567749E-1   -1.492605632436321E-1   -2.408814237412706E-2   -5.079733306210406E-2   -2.536261958639861E-2   -5.026259119485811E-2    4.329480165212377E-1   -2.648521936902084E-1
