#  HZ   S   RI   R     50.00 
! Rohde & Schwarz Vector Network Analyzer 
! Rohde-Schwarz,ZNB20-2Port,1311601062101988,3.16
! Created: UTC 3/21/2024, 1:13:48 AM
! freq[Hz]                re:S11                  im:S11                  re:S21                  im:S21                  re:S12                  im:S12                  re:S22                  im:S22
 6.529177458000000E9     5.561927141106879E-1   -7.193931909001182E-2   -8.091098486638734E-3   -3.059666117089400E-2   -8.509173058207725E-3   -3.046051444292788E-2    4.822592073828433E-1   -1.761660678961968E-1
 6.529187600775000E9     5.561235602383489E-1   -7.273040146082782E-2   -7.952371933622049E-3   -3.071812133222630E-2   -8.559695528132264E-3   -3.058809702698206E-2    4.817087495172839E-1   -1.769766376759850E-1
 6.529197743550000E9     5.559295651276199E-1   -7.346375144080548E-2   -8.013135102830566E-3   -3.086987601603846E-2   -8.752038126544497E-3   -3.071798649007948E-2    4.814591463644426E-1   -1.777774814854802E-1
 6.529207886325000E9     5.558746171902954E-1   -7.434999682505157E-2   -8.231999243765047E-3   -3.100991821121526E-2   -8.746337715093529E-3   -3.076905533360218E-2    4.812109488486761E-1   -1.787341519198510E-1
 6.529218029100000E9     5.557232290642811E-1   -7.507829711101160E-2   -8.387055954361258E-3   -3.117910420673049E-2   -8.968956386068283E-3   -3.096253503615059E-2    4.810589273089916E-1   -1.794945957601575E-1
 6.529228171875000E9     5.556857200989265E-1   -7.581826171981683E-2   -8.238936013820440E-3   -3.132769339090361E-2   -8.941391279887174E-3   -3.112983086294648E-2    4.804920068079188E-1   -1.803773115777139E-1
 6.529238314650000E9     5.555987209733917E-1   -7.673997556557050E-2   -8.559764738717140E-3   -3.142655462656102E-2   -9.122158344606753E-3   -3.131394529606228E-2    4.801552879315197E-1   -1.811916647063746E-1
 6.529248457425000E9     5.554375193759230E-1   -7.761310774075710E-2   -8.496736977190332E-3   -3.152207397901206E-2   -9.233425375189737E-3   -3.140129499103878E-2    4.797426291554405E-1   -1.821330842969587E-1
 6.529258600200000E9     5.552370435216754E-1   -7.831536858557797E-2   -8.635796877140610E-3   -3.165403226315991E-2   -9.276766624583968E-3   -3.154922146998568E-2    4.793880049946100E-1   -1.829811198548600E-1
 6.529268742975000E9     5.551491968140829E-1   -7.923211113924188E-2   -8.743901496922144E-3   -3.174340861642100E-2   -9.428966529264287E-3   -3.175037868049724E-2    4.791529703676961E-1   -1.838857889982088E-1
 6.529278885750000E9     5.550572384898604E-1   -7.998687247439619E-2   -8.913017726799704E-3   -3.185285209143377E-2   -9.519643843589718E-3   -3.182140463186474E-2    4.786189721939960E-1   -1.846059855983603E-1
 6.529289028525000E9     5.549286252147049E-1   -8.077913222976728E-2   -9.074444827725609E-3   -3.211668839120613E-2   -9.602386658569438E-3   -3.196583794119025E-2    4.785107110800347E-1   -1.856439901877712E-1
 6.529299171300000E9     5.547660688834305E-1   -8.181588451685957E-2   -9.027222982090719E-3   -3.226214693673136E-2   -9.658053494779124E-3   -3.212620704406630E-2    4.778568440167412E-1   -1.864991113346251E-1
 6.529309314075000E9     5.545685932291132E-1   -8.252790474472133E-2   -9.191681499135487E-3   -3.244963604399930E-2   -9.869933308730646E-3   -3.231983253624277E-2    4.774868403725577E-1   -1.873298853326844E-1
 6.529319456850000E9     5.545644718515415E-1   -8.323178032119954E-2   -9.399071862990962E-3   -3.246926669318621E-2   -9.946302871005631E-3   -3.244292042194218E-2    4.771654437956174E-1   -1.882419739461707E-1
 6.529329599625000E9     5.543138140193845E-1   -8.406457251912146E-2   -9.403671922825515E-3   -3.288350358808094E-2   -1.003837199989067E-2   -3.259330791941492E-2    4.768418434336285E-1   -1.891739750637638E-1
 6.529339742400000E9     5.542779452523157E-1   -8.498007058244185E-2   -9.576647342394447E-3   -3.292875112813540E-2   -1.023108428576267E-2   -3.272369025880638E-2    4.763926209915004E-1   -1.899700446187348E-1
 6.529349885175000E9     5.542210772012176E-1   -8.570648361166316E-2   -9.630808931359381E-3   -3.304857407903020E-2   -1.022305316647237E-2   -3.293359802322435E-2    4.760174560713210E-1   -1.909096226696529E-1
 6.529360027950000E9     5.540121038579748E-1   -8.662904183752441E-2   -9.581268547121232E-3   -3.315911726338883E-2   -1.043868014758235E-2   -3.303690891369034E-2    4.755596396845698E-1   -1.916699531000035E-1
 6.529370170725000E9     5.538521363991180E-1   -8.740571205834194E-2   -9.794541878876904E-3   -3.346527490290347E-2   -1.061727775484204E-2   -3.323511202109134E-2    4.751131576004372E-1   -1.927237973524632E-1
 6.529380313500000E9     5.537527086686180E-1   -8.823624243641809E-2   -9.969927018672857E-3   -3.350739108964613E-2   -1.068866178445627E-2   -3.340606358611578E-2    4.748160799148636E-1   -1.936322078191480E-1
 6.529390456275000E9     5.536079201127356E-1   -8.910847568018491E-2   -1.008536887291310E-2   -3.357704886254324E-2   -1.083374812708214E-2   -3.342453026366220E-2    4.743669165608163E-1   -1.945575672872511E-1
 6.529400599050000E9     5.534476871011470E-1   -8.983714350103848E-2   -1.030812128130934E-2   -3.382862822932888E-2   -1.093225664499377E-2   -3.370033242659567E-2    4.740127851796766E-1   -1.953671153908725E-1
 6.529410741825000E9     5.532586996473672E-1   -9.068745594370188E-2   -1.028975476889912E-2   -3.398293682575178E-2   -1.103856562469158E-2   -3.380818569964021E-2    4.737902383003899E-1   -1.961980977161797E-1
 6.529420884600000E9     5.532140093693075E-1   -9.146055521817846E-2   -1.038202505816869E-2   -3.418680133589168E-2   -1.120380523760349E-2   -3.401623969452413E-2    4.730707350171168E-1   -1.972669806519107E-1
 6.529431027375000E9     5.530545580634814E-1   -9.237712304293140E-2   -1.045086707802826E-2   -3.430873988167993E-2   -1.131922640029097E-2   -3.414937312158756E-2    4.727882014427000E-1   -1.981505674373516E-1
 6.529441170150000E9     5.528015072942617E-1   -9.321415857189864E-2   -1.073710874574810E-2   -3.463656121105006E-2   -1.141808404427941E-2   -3.440410644879461E-2    4.724350601694251E-1   -1.990438116150056E-1
 6.529451312925000E9     5.526324455914352E-1   -9.407807212146549E-2   -1.071538626424342E-2   -3.474147048324261E-2   -1.151247244000141E-2   -3.461447749564989E-2    4.718494614862445E-1   -1.998241781484164E-1
 6.529461455700000E9     5.525520741971146E-1   -9.486292903284015E-2   -1.101204446912553E-2   -3.490184595565215E-2   -1.168186656464354E-2   -3.471844300684303E-2    4.715362436724216E-1   -2.008437311920751E-1
 6.529471598475000E9     5.523115895475204E-1   -9.567696890429733E-2   -1.104664801750174E-2   -3.495501563941871E-2   -1.170685742668574E-2   -3.485417052625978E-2    4.709206197743443E-1   -2.017182502045526E-1
 6.529481741250000E9     5.523397011894614E-1   -9.648614870465631E-2   -1.114248275389734E-2   -3.521674027834884E-2   -1.182929206929301E-2   -3.507269987524160E-2    4.706184309796843E-1   -2.026800342496650E-1
 6.529491884025000E9     5.519702590751464E-1   -9.746255148137120E-2   -1.125510869023393E-2   -3.535770422156816E-2   -1.206670090306037E-2   -3.521249437364087E-2    4.700315257827974E-1   -2.034813582559958E-1
 6.529502026800000E9     5.519251528835892E-1   -9.818726213931639E-2   -1.146090827178035E-2   -3.562056120217608E-2   -1.222717736404389E-2   -3.539445765245965E-2    4.696554647901920E-1   -2.046813453251097E-1
 6.529512169575000E9     5.517469078281897E-1   -9.914842706530470E-2   -1.159803833604056E-2   -3.579114947558572E-2   -1.240701079600945E-2   -3.562191717626812E-2    4.692356214619964E-1   -2.054741311216896E-1
 6.529522312350000E9     5.515303811297766E-1   -9.997125758074182E-2   -1.181498886436959E-2   -3.598048045468730E-2   -1.247945419891641E-2   -3.559773993855501E-2    4.688102797717035E-1   -2.064043349673044E-1
 6.529532455125000E9     5.513655235508729E-1   -1.006808974594812E-1   -1.185531785106961E-2   -3.616450261887593E-2   -1.258673276553933E-2   -3.601517290619388E-2    4.683270249363799E-1   -2.072919698574402E-1
 6.529542597900000E9     5.511520165441810E-1   -1.015620940613175E-1   -1.192793722506086E-2   -3.631548758071748E-2   -1.283312769875860E-2   -3.610332114140989E-2    4.677637531140204E-1   -2.083062449066581E-1
 6.529552740675000E9     5.511115516005505E-1   -1.023693258145349E-1   -1.219656006552224E-2   -3.653723740399276E-2   -1.286687871644022E-2   -3.629005180143278E-2    4.673710496515857E-1   -2.091270690450869E-1
 6.529562883450000E9     5.508087310675581E-1   -1.032859266680354E-1   -1.228627473512823E-2   -3.673376157550864E-2   -1.306423545733799E-2   -3.655872727322983E-2    4.669182894485351E-1   -2.102462526757757E-1
 6.529573026225000E9     5.506139940125728E-1   -1.040757848145250E-1   -1.243142446942305E-2   -3.689418726478780E-2   -1.333263593295717E-2   -3.671403092367648E-2    4.663975276546158E-1   -2.111138917627053E-1
 6.529583169000000E9     5.503972483986439E-1   -1.049470646699159E-1   -1.257694561728720E-2   -3.717348413465010E-2   -1.338379303200674E-2   -3.689858624392185E-2    4.658605577570717E-1   -2.119409274848375E-1
 6.529593311775000E9     5.502204823737054E-1   -1.057785799822870E-1   -1.269569178699563E-2   -3.734816873240111E-2   -1.358676807790151E-2   -3.705752069580748E-2    4.654442424501593E-1   -2.129872302888122E-1
 6.529603454550000E9     5.501942511398331E-1   -1.066293316018236E-1   -1.300628433953429E-2   -3.759877589483838E-2   -1.382760942452095E-2   -3.726361894484218E-2    4.650190158956429E-1   -2.138199049027509E-1
 6.529613597325000E9     5.500607708746997E-1   -1.075809608126647E-1   -1.303292053788372E-2   -3.772841045017718E-2   -1.392705120631520E-2   -3.751024446364580E-2    4.645066711559508E-1   -2.148750447900589E-1
 6.529623740100000E9     5.499239719672586E-1   -1.084327470148940E-1   -1.329428117441140E-2   -3.785012862060172E-2   -1.395378932258262E-2   -3.774967824797450E-2    4.638039155109436E-1   -2.157839281416355E-1
 6.529633882875000E9     5.495592410716157E-1   -1.091823663852454E-1   -1.322121284122767E-2   -3.816238545312845E-2   -1.425029723144151E-2   -3.784887994617854E-2    4.632777306615452E-1   -2.167535238358375E-1
 6.529644025650000E9     5.494053748061898E-1   -1.100302731402891E-1   -1.358462400666146E-2   -3.833063149995204E-2   -1.440346471811016E-2   -3.805645833541120E-2    4.629039514691091E-1   -2.178053487072508E-1
 6.529654168425000E9     5.491795921375527E-1   -1.109847927306381E-1   -1.378860839716306E-2   -3.860149102993537E-2   -1.457593873841890E-2   -3.830986075040725E-2    4.622459135020864E-1   -2.187072799276827E-1
 6.529664311200000E9     5.490182833827889E-1   -1.118449438004053E-1   -1.384417058011651E-2   -3.873104061597563E-2   -1.489029487080406E-2   -3.851347230097712E-2    4.617089421224048E-1   -2.195548011487320E-1
 6.529674453975000E9     5.487773560857038E-1   -1.125980179193282E-1   -1.401238104969078E-2   -3.901341133149611E-2   -1.499444163587440E-2   -3.878889873657500E-2    4.613685949271582E-1   -2.206933539272604E-1
 6.529684596750000E9     5.486774616294140E-1   -1.135541854226131E-1   -1.415237300907595E-2   -3.909310855133818E-2   -1.510572100121329E-2   -3.893712576547623E-2    4.608081051164099E-1   -2.216636867307548E-1
 6.529694739525000E9     5.484609610902895E-1   -1.144729544985662E-1   -1.433973408701889E-2   -3.947691836556575E-2   -1.535563161779625E-2   -3.915532666606686E-2    4.602339390900084E-1   -2.226309674833218E-1
 6.529704882300000E9     5.481647847303706E-1   -1.152014021541862E-1   -1.454736575900330E-2   -3.967691703298942E-2   -1.548287042539054E-2   -3.943556213113394E-2    4.596346936134705E-1   -2.235060055564801E-1
 6.529715025075000E9     5.479177086591228E-1   -1.161780445305056E-1   -1.466547417663720E-2   -3.988839166677793E-2   -1.563239329733719E-2   -3.964141142913164E-2    4.590794763485974E-1   -2.246762807763347E-1
 6.529725167850000E9     5.478132990915485E-1   -1.170252000745584E-1   -1.494411058342485E-2   -4.011885755667068E-2   -1.577551695616763E-2   -3.979569893668569E-2    4.586627046819332E-1   -2.254688074470230E-1
 6.529735310625000E9     5.476882166832390E-1   -1.178030589258034E-1   -1.516365701419493E-2   -4.034639241222270E-2   -1.604337523591410E-2   -4.012939377699097E-2    4.579591747348681E-1   -2.267350903526310E-1
 6.529745453400000E9     5.472493858681968E-1   -1.186972504917461E-1   -1.534546109093125E-2   -4.055785639943771E-2   -1.629407003686827E-2   -4.030134003002743E-2    4.573396849003438E-1   -2.276680124852477E-1
 6.529755596175000E9     5.471253603888115E-1   -1.196969677062140E-1   -1.554817495898487E-2   -4.074802395324413E-2   -1.639274046781754E-2   -4.055736495803644E-2    4.567621079567692E-1   -2.286011696565187E-1
 6.529765738950000E9     5.469561296873756E-1   -1.205109052833156E-1   -1.574048682850905E-2   -4.098126059866449E-2   -1.669836298442554E-2   -4.085894630956510E-2    4.562941329987672E-1   -2.296013268823893E-1
 6.529775881725000E9     5.467301027174816E-1   -1.213047213882272E-1   -1.595027745177942E-2   -4.120736788083146E-2   -1.688183610300064E-2   -4.109698009184080E-2    4.555399152102476E-1   -2.306408656128636E-1
 6.529786024500000E9     5.465756703402426E-1   -1.221663177681280E-1   -1.600628799638452E-2   -4.162183518370272E-2   -1.701421962597960E-2   -4.124056639828443E-2    4.548850352043219E-1   -2.317618365705073E-1
 6.529796167275000E9     5.462987991108306E-1   -1.231441232649873E-1   -1.632327879241847E-2   -4.169634150218498E-2   -1.727177232795313E-2   -4.151021961077913E-2    4.543054360039940E-1   -2.327262420197390E-1
 6.529806310050000E9     5.460324092800487E-1   -1.239529072121484E-1   -1.645133270143914E-2   -4.222499882573053E-2   -1.740751559142541E-2   -4.185452666242065E-2    4.538595595083682E-1   -2.337999239114118E-1
 6.529816452825000E9     5.457942815464426E-1   -1.247734627210644E-1   -1.682776179396696E-2   -4.232839985826355E-2   -1.762186478529944E-2   -4.198642517247556E-2    4.532613313263724E-1   -2.347489585746165E-1
 6.529826595600000E9     5.456335253233097E-1   -1.257479482076527E-1   -1.686188753893416E-2   -4.250850039141351E-2   -1.795329683624926E-2   -4.236689244791129E-2    4.524843373291537E-1   -2.359085261875657E-1
 6.529836738375000E9     5.452901097027437E-1   -1.266906011796052E-1   -1.712799803094612E-2   -4.293788764851643E-2   -1.817555679244438E-2   -4.247084392398089E-2    4.518493034209356E-1   -2.369736302054719E-1
 6.529846881150000E9     5.449353883026955E-1   -1.275332479944707E-1   -1.742131135108150E-2   -4.308377630380240E-2   -1.841768869360106E-2   -4.284070543722281E-2    4.512328448254799E-1   -2.381762513023810E-1
 6.529857023925000E9     5.449160193361926E-1   -1.283591516171526E-1   -1.768263913146715E-2   -4.348045588507989E-2   -1.871415784520670E-2   -4.303457788094386E-2    4.505710539597635E-1   -2.390407615001306E-1
 6.529867166700000E9     5.444726519190793E-1   -1.292679384519251E-1   -1.782347625456166E-2   -4.375640814620396E-2   -1.882057387216943E-2   -4.329640621969334E-2    4.499423855276481E-1   -2.399356045953489E-1
 6.529877309475000E9     5.442718812974096E-1   -1.301915238892769E-1   -1.814338889724772E-2   -4.395359111101505E-2   -1.913885444506004E-2   -4.359474106394005E-2    4.491775534782216E-1   -2.411352590599766E-1
 6.529887452250000E9     5.440205295330930E-1   -1.311678932483259E-1   -1.836618789121922E-2   -4.418157480435997E-2   -1.938361666997759E-2   -4.388377688295336E-2    4.484444397846490E-1   -2.423199473668797E-1
 6.529897595025000E9     5.438202935722757E-1   -1.319098339647781E-1   -1.864313442810499E-2   -4.463632957196994E-2   -1.954740266807091E-2   -4.409205676704877E-2    4.478385128464475E-1   -2.434046291371867E-1
 6.529907737800000E9     5.433991594304803E-1   -1.328005207866599E-1   -1.882601174481154E-2   -4.481027793657958E-2   -1.987483389194258E-2   -4.448124303661619E-2    4.471443116518922E-1   -2.444021104914098E-1
 6.529917880575000E9     5.433524668925993E-1   -1.338070514682435E-1   -1.907531223122479E-2   -4.511268252324246E-2   -2.018638809262862E-2   -4.468713082493116E-2    4.463386934589071E-1   -2.454184437627603E-1
 6.529928023350000E9     5.429653343584793E-1   -1.345975438280635E-1   -1.933289759812820E-2   -4.525700845023537E-2   -2.035497270599799E-2   -4.506734278243602E-2    4.457362997312392E-1   -2.467099370559508E-1
 6.529938166125000E9     5.427751952179301E-1   -1.355536427771849E-1   -1.965402909983982E-2   -4.573089357892954E-2   -2.074975251676740E-2   -4.532407163026963E-2    4.450432712767623E-1   -2.476399355289725E-1
 6.529948308900000E9     5.425267383046904E-1   -1.365046277437792E-1   -1.990883756578878E-2   -4.602558422612413E-2   -2.091074444402762E-2   -4.567069245375308E-2    4.443446543880208E-1   -2.488780502096553E-1
 6.529958451675000E9     5.420437394604932E-1   -1.373947842061897E-1   -2.015336873145595E-2   -4.636243672513376E-2   -2.122737942216871E-2   -4.607191000729500E-2    4.434684208952068E-1   -2.498969474690803E-1
 6.529968594450000E9     5.419050709263948E-1   -1.383299937331868E-1   -2.045299598811537E-2   -4.671056783410116E-2   -2.158665717353510E-2   -4.618232436787018E-2    4.426737834895668E-1   -2.510393800598059E-1
 6.529978737225000E9     5.415874320315462E-1   -1.392383404344101E-1   -2.071861726453665E-2   -4.690406867688082E-2   -2.177456402696195E-2   -4.650435029667453E-2    4.419165068469705E-1   -2.521346463155658E-1
 6.529988880000000E9     5.412979514587418E-1   -1.401459187415798E-1   -2.089276641860781E-2   -4.718951275974109E-2   -2.211643391699333E-2   -4.694514544390224E-2    4.411206085843997E-1   -2.532724716467057E-1
 6.529999022775000E9     5.410597133198698E-1   -1.411001305385139E-1   -2.153152049720111E-2   -4.772035789153772E-2   -2.242312140271913E-2   -4.721854035603665E-2    4.403095171240916E-1   -2.544798656531407E-1
 6.530009165550000E9     5.407946082356840E-1   -1.420447307877723E-1   -2.152913305802774E-2   -4.789898808015013E-2   -2.273611695567932E-2   -4.746760561028828E-2    4.394683454037044E-1   -2.558301769583693E-1
 6.530019308325000E9     5.403917379040917E-1   -1.429604365882430E-1   -2.204580542529254E-2   -4.830167711537549E-2   -2.300737782714679E-2   -4.786031640359417E-2    4.386503036036227E-1   -2.567882734278195E-1
 6.530029451100000E9     5.400588269491613E-1   -1.439388570503351E-1   -2.217758091177733E-2   -4.871730513306177E-2   -2.329167763561301E-2   -4.822002248643597E-2    4.377973806891294E-1   -2.578367471058696E-1
 6.530039593875000E9     5.396992956214758E-1   -1.448156099402347E-1   -2.247366075334629E-2   -4.895766262235442E-2   -2.367373310504029E-2   -4.855581785903199E-2    4.370292573514490E-1   -2.591586978660679E-1
 6.530049736650000E9     5.393936833048295E-1   -1.457245322559665E-1   -2.284708244875072E-2   -4.924788547411119E-2   -2.407073303357951E-2   -4.889873293430765E-2    4.361970127575188E-1   -2.601627700069092E-1
 6.530059879425000E9     5.391531271223341E-1   -1.466376167261100E-1   -2.317085457453077E-2   -4.975519297195109E-2   -2.433659509784803E-2   -4.916392485256765E-2    4.352970487194601E-1   -2.614272840505011E-1
 6.530070022200000E9     5.388114221145247E-1   -1.476651945938063E-1   -2.351490369472327E-2   -5.000720122992262E-2   -2.465487029358268E-2   -4.957359889837788E-2    4.343698052461942E-1   -2.624415842730881E-1
 6.530080164975000E9     5.383823581307798E-1   -1.486818826903628E-1   -2.393289047522314E-2   -5.039647026643546E-2   -2.514347493013451E-2   -4.993750207202135E-2    4.334262794930699E-1   -2.639341670802957E-1
 6.530090307750000E9     5.381079569917279E-1   -1.495667461475030E-1   -2.427137834617163E-2   -5.075294049833175E-2   -2.539367956854410E-2   -5.029393043370661E-2    4.325087080245949E-1   -2.649769058416248E-1
