#  HZ   S   RI   R     50.00 
! Rohde & Schwarz Vector Network Analyzer 
! Rohde-Schwarz,ZNB20-2Port,1311601062101988,3.16
! Created: UTC 3/21/2024, 1:13:56 AM
! freq[Hz]                re:S11                  im:S11                  re:S21                  im:S21                  re:S12                  im:S12                  re:S22                  im:S22
 6.529185842000000E9     5.561085269358370E-1   -7.234583726146614E-2   -8.073058281201690E-3   -3.058111030443629E-2   -8.524851664548989E-3   -3.059106522092398E-2    4.815258464184812E-1   -1.767683377929483E-1
 6.529195965475000E9     5.560844594134411E-1   -7.322078769497950E-2   -7.989991170857006E-3   -3.071779056081563E-2   -8.557833300307290E-3   -3.057017224465174E-2    4.811335889631456E-1   -1.776366482096858E-1
 6.529206088950000E9     5.559320636579029E-1   -7.406811220470366E-2   -8.027834271409233E-3   -3.090327172639488E-2   -8.812714478175492E-3   -3.073557233354021E-2    4.808573980030693E-1   -1.785412030339623E-1
 6.529216212425000E9     5.556771748262458E-1   -7.476989462000433E-2   -8.217522645246342E-3   -3.091185496783850E-2   -8.875370244031618E-3   -3.086202667577924E-2    4.805460699598153E-1   -1.793505114154292E-1
 6.529226335900000E9     5.557346005939341E-1   -7.561614999395287E-2   -8.319714416148928E-3   -3.111871718084982E-2   -8.987188017496725E-3   -3.100415236359890E-2    4.802996482986435E-1   -1.803026732532482E-1
 6.529236459375000E9     5.555300189747286E-1   -7.640656170020842E-2   -8.237546061958900E-3   -3.133506442113531E-2   -9.150915659779605E-3   -3.109095207303926E-2    4.797287464022006E-1   -1.810279038160395E-1
 6.529246582850000E9     5.554053721008388E-1   -7.727807099979937E-2   -8.411327832226220E-3   -3.139461390694542E-2   -9.194124976694170E-3   -3.127773159531182E-2    4.794671471839062E-1   -1.819662203751333E-1
 6.529256706325000E9     5.553584552889718E-1   -7.822206823216667E-2   -8.624510692707157E-3   -3.157367893306795E-2   -9.333510073065788E-3   -3.139375123064891E-2    4.791453347252922E-1   -1.828487526319504E-1
 6.529266829800000E9     5.552071221988968E-1   -7.898401918258700E-2   -8.740066869783580E-3   -3.168732853761295E-2   -9.370740144720677E-3   -3.158030807171232E-2    4.786881120978740E-1   -1.837223101243059E-1
 6.529276953275000E9     5.550223977131281E-1   -7.973338124568395E-2   -8.834686144492144E-3   -3.186028788981164E-2   -9.435934327278125E-3   -3.176478783670059E-2    4.783504406621890E-1   -1.846960472247726E-1
 6.529287076750000E9     5.549025009660090E-1   -8.048405986270971E-2   -8.899507016429492E-3   -3.201927478509319E-2   -9.626691213475624E-3   -3.179542637433296E-2    4.779145489975284E-1   -1.855729803538627E-1
 6.529297200225000E9     5.547405252941259E-1   -8.125785770220287E-2   -9.094073112316666E-3   -3.215814633095190E-2   -9.700514433657340E-3   -3.200489371094098E-2    4.775707603357237E-1   -1.862707577773876E-1
 6.529307323700000E9     5.547744332069936E-1   -8.216337592636509E-2   -9.142602966006417E-3   -3.238296389085786E-2   -9.806894869128953E-3   -3.220795753680443E-2    4.772990095060770E-1   -1.871297931563443E-1
 6.529317447175000E9     5.546258614393269E-1   -8.311587671283624E-2   -9.333878900875345E-3   -3.243805078948244E-2   -9.891277629062551E-3   -3.234344046715807E-2    4.768870642587807E-1   -1.880483495920202E-1
 6.529327570650000E9     5.543968684102644E-1   -8.386381531152448E-2   -9.378378563033481E-3   -3.261379876336629E-2   -9.974147488687031E-3   -3.251966262038037E-2    4.766482553082553E-1   -1.889965134241518E-1
 6.529337694125000E9     5.543987314547307E-1   -8.463582720874104E-2   -9.558663138386757E-3   -3.271947777465672E-2   -1.011254631254616E-2   -3.263554079357919E-2    4.760996689107223E-1   -1.897720794651919E-1
 6.529347817600000E9     5.540849156428548E-1   -8.548474770035397E-2   -9.579433915846204E-3   -3.284300205404950E-2   -1.009324972023254E-2   -3.278987862866371E-2    4.757470296261829E-1   -1.908835821657711E-1
 6.529357941075000E9     5.540282397240106E-1   -8.631415199170754E-2   -9.719575967762508E-3   -3.305258780346524E-2   -1.041427102097705E-2   -3.305634095352004E-2    4.752155544339565E-1   -1.917291199804333E-1
 6.529368064550000E9     5.539158923197285E-1   -8.709940795839932E-2   -9.757995863998895E-3   -3.324995140812317E-2   -1.047461932044211E-2   -3.299229712233761E-2    4.748138817663830E-1   -1.925191462752689E-1
 6.529378188025000E9     5.537292247586076E-1   -8.791859525384758E-2   -9.916143251479496E-3   -3.324911815537248E-2   -1.061101341635981E-2   -3.318357130406864E-2    4.745022435663663E-1   -1.933665249034396E-1
 6.529388311500000E9     5.536011229863910E-1   -8.883439526803771E-2   -1.004413168207170E-2   -3.357175759378149E-2   -1.064747204410259E-2   -3.346317370498666E-2    4.739792131633048E-1   -1.942301395311156E-1
 6.529398434975000E9     5.534789971351526E-1   -8.955532846262733E-2   -1.011712926100618E-2   -3.375878192152136E-2   -1.080972807161376E-2   -3.352557327230885E-2    4.737298059168469E-1   -1.950547338580948E-1
 6.529408558450000E9     5.532252718228687E-1   -9.039742377076770E-2   -1.009824449713431E-2   -3.390899522812139E-2   -1.096909935442556E-2   -3.370634398821360E-2    4.732278934530423E-1   -1.959476714660815E-1
 6.529418681925000E9     5.533020486510783E-1   -9.126588215263053E-2   -1.047192705485656E-2   -3.391658750007756E-2   -1.101990146171256E-2   -3.389865508106462E-2    4.728761157755033E-1   -1.969016039758556E-1
 6.529428805400000E9     5.530540914147127E-1   -9.213366940073967E-2   -1.042481863304334E-2   -3.415057165910657E-2   -1.124145866788579E-2   -3.404473403825841E-2    4.724321492640260E-1   -1.978466154759247E-1
 6.529438928875000E9     5.528252094523258E-1   -9.294262190963781E-2   -1.069638270398425E-2   -3.438717022958091E-2   -1.127116505700934E-2   -3.414470520345059E-2    4.719802513420815E-1   -1.986385334549545E-1
 6.529449052350000E9     5.528185166850886E-1   -9.374590353099772E-2   -1.067341895350944E-2   -3.451754970850324E-2   -1.148591286415069E-2   -3.441213428299094E-2    4.715836719516160E-1   -1.996261606420840E-1
 6.529459175825000E9     5.525252922845096E-1   -9.457809947350240E-2   -1.095882662656751E-2   -3.482111765890584E-2   -1.160818690439932E-2   -3.450748488032516E-2    4.711509950181600E-1   -2.006274432520992E-1
 6.529469299300000E9     5.524971960047511E-1   -9.543387146082218E-2   -1.103802056259996E-2   -3.493365861911347E-2   -1.177210539807365E-2   -3.478691867111643E-2    4.708222040209366E-1   -2.016531315991544E-1
 6.529479422775000E9     5.522850353504417E-1   -9.624299573024660E-2   -1.111782907436387E-2   -3.508983041476686E-2   -1.183580179514183E-2   -3.482388068489900E-2    4.703359133404280E-1   -2.025729538069396E-1
 6.529489546250000E9     5.520704701219222E-1   -9.713977086243153E-2   -1.132829446070684E-2   -3.518937686282526E-2   -1.200671292205250E-2   -3.511288310637897E-2    4.698537648386185E-1   -2.032723152754806E-1
 6.529499669725000E9     5.519368825936118E-1   -9.787225367999669E-2   -1.145532719012495E-2   -3.538574717053879E-2   -1.214324144348017E-2   -3.524581938987380E-2    4.693690796063475E-1   -2.042916910944180E-1
 6.529509793200000E9     5.518306603253428E-1   -9.873601589268770E-2   -1.147225228428146E-2   -3.566906331842158E-2   -1.216037812680298E-2   -3.536419759053273E-2    4.690543500330305E-1   -2.051137027505167E-1
 6.529519916675000E9     5.515543474799185E-1   -9.953625054935812E-2   -1.167063176413176E-2   -3.592720436783980E-2   -1.248508945616300E-2   -3.550850853183697E-2    4.686348769805457E-1   -2.061843628223770E-1
 6.529530040150000E9     5.515216471701408E-1   -1.003644495260876E-1   -1.184749624125701E-2   -3.614859248880883E-2   -1.265043661977110E-2   -3.579093161820290E-2    4.680757500866133E-1   -2.070672099830381E-1
 6.529540163625000E9     5.512787202352819E-1   -1.012832011977729E-1   -1.200433147866624E-2   -3.618224673531489E-2   -1.273393616197319E-2   -3.594581755019086E-2    4.675069870752779E-1   -2.080473660730727E-1
 6.529550287100000E9     5.512570171144614E-1   -1.019735577024802E-1   -1.212234824866634E-2   -3.647118918158573E-2   -1.288122349942857E-2   -3.618722018378987E-2    4.671477717499029E-1   -2.089250004029324E-1
 6.529560410575000E9     5.509762524445545E-1   -1.029846276136856E-1   -1.216226788993632E-2   -3.661117609234910E-2   -1.298622958467384E-2   -3.634968665275540E-2    4.666843898318155E-1   -2.097534127806521E-1
 6.529570534050000E9     5.508708819408676E-1   -1.037975213643174E-1   -1.239942335424814E-2   -3.675554065888802E-2   -1.309061872550076E-2   -3.658619511407855E-2    4.661391561531579E-1   -2.108706439435013E-1
 6.529580657525000E9     5.504317909026234E-1   -1.046277430454225E-1   -1.247698437669259E-2   -3.686682197031780E-2   -1.318323049989061E-2   -3.677759779207736E-2    4.657871029420917E-1   -2.118874174872362E-1
 6.529590781000000E9     5.503991178841853E-1   -1.053980462280399E-1   -1.257089979359892E-2   -3.722930729011471E-2   -1.344051482596159E-2   -3.694452209393913E-2    4.651781123522691E-1   -2.127433324344687E-1
 6.529600904475000E9     5.502387325160122E-1   -1.063689899304897E-1   -1.285247981653090E-2   -3.742251860306946E-2   -1.365468382322945E-2   -3.711726043721388E-2    4.646327603953515E-1   -2.136486604028279E-1
 6.529611027950000E9     5.500347123481806E-1   -1.071472033433147E-1   -1.301009509930935E-2   -3.748407303108612E-2   -1.375256387278765E-2   -3.727476868402395E-2    4.642002816049083E-1   -2.146759477563811E-1
 6.529621151425000E9     5.498238520327713E-1   -1.080290810128130E-1   -1.320945482576558E-2   -3.770166901455219E-2   -1.390637864008418E-2   -3.745338711547658E-2    4.636609505938078E-1   -2.155866815415519E-1
 6.529631274900000E9     5.497447750977743E-1   -1.089999673369630E-1   -1.321940563051331E-2   -3.799353294526612E-2   -1.415309285002084E-2   -3.769805458977041E-2    4.632022373858352E-1   -2.164858991001934E-1
 6.529641398375000E9     5.494244543623246E-1   -1.097253533744802E-1   -1.343118043464581E-2   -3.823438608280105E-2   -1.423288487298392E-2   -3.799660352635161E-2    4.628345143187814E-1   -2.174220538182412E-1
 6.529651521850000E9     5.492539432583121E-1   -1.105036390165782E-1   -1.361887149097321E-2   -3.849141763162636E-2   -1.443434301296473E-2   -3.818367190847391E-2    4.621831281635752E-1   -2.184333120652298E-1
 6.529661645325000E9     5.491105876397969E-1   -1.114199559926560E-1   -1.368149445676138E-2   -3.869384123585690E-2   -1.452666632323191E-2   -3.838344451180201E-2    4.616210291317662E-1   -2.193052000882454E-1
 6.529671768800000E9     5.488751736656511E-1   -1.122589407544287E-1   -1.389939293783209E-2   -3.877778817080871E-2   -1.484394806987861E-2   -3.859436391717023E-2    4.611039680266864E-1   -2.203431999066691E-1
 6.529681892275000E9     5.488061465399501E-1   -1.132858559750794E-1   -1.418699631653429E-2   -3.904219000171243E-2   -1.493831832668425E-2   -3.895520052824531E-2    4.605737454204969E-1   -2.214607713390260E-1
 6.529692015750000E9     5.485416160749244E-1   -1.140545289734957E-1   -1.429808515537441E-2   -3.921721720466143E-2   -1.517150944819495E-2   -3.902974613851683E-2    4.600701630047711E-1   -2.223727273662869E-1
 6.529702139225000E9     5.482672863009562E-1   -1.148527121236716E-1   -1.453057421911595E-2   -3.951675906947544E-2   -1.530165315146636E-2   -3.923447922026294E-2    4.594784109841820E-1   -2.232429800311546E-1
 6.529712262700000E9     5.480290806714462E-1   -1.157646436000311E-1   -1.465008785889022E-2   -3.968426057302429E-2   -1.551559676702724E-2   -3.942743202397153E-2    4.589080917391829E-1   -2.246365571224612E-1
 6.529722386175000E9     5.479960065838888E-1   -1.166375369793302E-1   -1.486458626367954E-2   -4.007026229363830E-2   -1.571501614788896E-2   -3.962281683833543E-2    4.584254516016495E-1   -2.253684041648253E-1
 6.529732509650000E9     5.476413968963556E-1   -1.174233739372653E-1   -1.510653741753194E-2   -4.009351969967132E-2   -1.591023675205955E-2   -3.978675669387000E-2    4.577394869317644E-1   -2.262656967104268E-1
 6.529742633125000E9     5.474089303175517E-1   -1.183750688041116E-1   -1.541558832799300E-2   -4.049553224051441E-2   -1.608537842645022E-2   -4.014604432159134E-2    4.570079764330021E-1   -2.272387282267369E-1
 6.529752756600000E9     5.472977682668981E-1   -1.193058419869136E-1   -1.536499999915659E-2   -4.075027525487773E-2   -1.628698883703234E-2   -4.037978146449950E-2    4.568332371911439E-1   -2.282793995882899E-1
 6.529762880075000E9     5.469554355751143E-1   -1.201625642411451E-1   -1.549355963944311E-2   -4.080749438671979E-2   -1.657655053114894E-2   -4.057158667310744E-2    4.561562010189710E-1   -2.294062102155817E-1
 6.529773003550000E9     5.468379505419028E-1   -1.209656812541248E-1   -1.576982510264084E-2   -4.113233405277036E-2   -1.675236737948194E-2   -4.090049322277309E-2    4.555920592759147E-1   -2.304575497714433E-1
 6.529783127025000E9     5.465561128022305E-1   -1.218313483458674E-1   -1.593447078345176E-2   -4.138501363858229E-2   -1.684934270470011E-2   -4.110468819662232E-2    4.549250779139684E-1   -2.313891034768302E-1
 6.529793250500000E9     5.463101481544412E-1   -1.227307462596699E-1   -1.622154290479573E-2   -4.154264532046161E-2   -1.711771205501988E-2   -4.128842940012469E-2    4.543635023821460E-1   -2.322842994334915E-1
 6.529803373975000E9     5.461821010528667E-1   -1.235838785024001E-1   -1.635171075373996E-2   -4.188816165308459E-2   -1.733971850710157E-2   -4.151212281253488E-2    4.537103111592027E-1   -2.333536263482618E-1
 6.529813497450000E9     5.459395598123704E-1   -1.244790386292547E-1   -1.661769363304354E-2   -4.217375706987832E-2   -1.756534512840181E-2   -4.186023245891551E-2    4.530341157700912E-1   -2.343046692367805E-1
 6.529823620925000E9     5.456957572234110E-1   -1.253507871030987E-1   -1.665303411241395E-2   -4.241842205708030E-2   -1.777418944956732E-2   -4.206993410037791E-2    4.524173387960307E-1   -2.355421887244095E-1
 6.529833744400000E9     5.453893397070615E-1   -1.262056953898857E-1   -1.715927194584331E-2   -4.267353610521490E-2   -1.801088518026797E-2   -4.228282548401158E-2    4.517416788112787E-1   -2.365387210517492E-1
 6.529843867875000E9     5.451728208511696E-1   -1.271282349325634E-1   -1.724699846253559E-2   -4.282080035776336E-2   -1.819481862171417E-2   -4.268964077304215E-2    4.509887109586860E-1   -2.376544476652567E-1
 6.529853991350000E9     5.449118893937390E-1   -1.280383645048475E-1   -1.745902448824764E-2   -4.323956927145495E-2   -1.840046851783894E-2   -4.297194487998376E-2    4.505360372432832E-1   -2.387300778910802E-1
 6.529864114825000E9     5.446726724997597E-1   -1.288834669074306E-1   -1.768053898922355E-2   -4.346795634998704E-2   -1.867524595118285E-2   -4.317176316683748E-2    4.500544439054270E-1   -2.397304256270294E-1
 6.529874238300000E9     5.445397951253929E-1   -1.297399419296631E-1   -1.798947778795485E-2   -4.371820062273907E-2   -1.905877405910304E-2   -4.341401093692598E-2    4.491077992754932E-1   -2.406795877470333E-1
 6.529884361775000E9     5.442293349171435E-1   -1.307111235246985E-1   -1.820879107674540E-2   -4.388247629466353E-2   -1.923468721804399E-2   -4.368237962046091E-2    4.485898101605499E-1   -2.418310755680941E-1
 6.529894485250000E9     5.440057393816297E-1   -1.315435555948569E-1   -1.842644596218892E-2   -4.430108801107994E-2   -1.942968726454920E-2   -4.397451455380568E-2    4.475675574219342E-1   -2.428575558321189E-1
 6.529904608725000E9     5.436078857792008E-1   -1.324896804280984E-1   -1.866781167675326E-2   -4.450399003237582E-2   -1.976347201449354E-2   -4.429882782553027E-2    4.470063830285581E-1   -2.439633344233936E-1
 6.529914732200000E9     5.433767063773548E-1   -1.333873661915989E-1   -1.883506361085412E-2   -4.486775880283814E-2   -1.995464922075623E-2   -4.447424521833204E-2    4.463878462820131E-1   -2.448861546512538E-1
 6.529924855675000E9     5.431354446957984E-1   -1.342906545621390E-1   -1.919746401826261E-2   -4.525438062795174E-2   -2.011181031909265E-2   -4.485338772001319E-2    4.457948016323268E-1   -2.460806005238143E-1
 6.529934979150000E9     5.428370330620886E-1   -1.351070524496498E-1   -1.931693065856094E-2   -4.541906389998478E-2   -2.060038327379319E-2   -4.502731137202384E-2    4.449585837153145E-1   -2.473449748314605E-1
 6.529945102625000E9     5.425712360910802E-1   -1.360867708672711E-1   -1.971861741413952E-2   -4.587072466068375E-2   -2.081017455740963E-2   -4.540491417263247E-2    4.442734960905442E-1   -2.482332855769643E-1
 6.529955226100000E9     5.424178510194915E-1   -1.369191633148658E-1   -1.994935494121098E-2   -4.604193430890715E-2   -2.106585341226433E-2   -4.556043160723061E-2    4.434415030454075E-1   -2.494118042675935E-1
 6.529965349575000E9     5.419811518686748E-1   -1.379334840444456E-1   -2.019560820017262E-2   -4.641953266784084E-2   -2.135995538537346E-2   -4.596423114313459E-2    4.426115614239955E-1   -2.504436126108489E-1
 6.529975473050000E9     5.418275556179536E-1   -1.387680557457797E-1   -2.037574812566124E-2   -4.686467817242972E-2   -2.158705046346540E-2   -4.626721450143432E-2    4.419344172214234E-1   -2.517004869477288E-1
 6.529985596525000E9     5.414344040227749E-1   -1.397027959446505E-1   -2.078136114883851E-2   -4.695015861781093E-2   -2.189204584674797E-2   -4.672660980291317E-2    4.411315744781640E-1   -2.527226238801382E-1
 6.529995720000000E9     5.410694313219800E-1   -1.406567218025442E-1   -2.114691485570055E-2   -4.737090722752269E-2   -2.221152158232168E-2   -4.689100463086754E-2    4.402436636814063E-1   -2.540127771762119E-1
 6.530005843475000E9     5.408698884845700E-1   -1.414338584405606E-1   -2.131012008742980E-2   -4.769739374501086E-2   -2.249545230212779E-2   -4.728490026874085E-2    4.395831741707222E-1   -2.550977531117151E-1
 6.530015966950000E9     5.405715165033977E-1   -1.425253262302117E-1   -2.161612376227867E-2   -4.808800431433763E-2   -2.278261894466355E-2   -4.763043331231036E-2    4.387177300352459E-1   -2.561634205228414E-1
 6.530026090425000E9     5.403055463843051E-1   -1.433950979215358E-1   -2.191408512629632E-2   -4.825890518989457E-2   -2.313017419655080E-2   -4.784989717170683E-2    4.379581513099847E-1   -2.574010810598377E-1
 6.530036213900000E9     5.399540696699195E-1   -1.443669115045382E-1   -2.225790375616217E-2   -4.858211144743947E-2   -2.345207431312826E-2   -4.821596517949223E-2    4.370703738415047E-1   -2.584998056497521E-1
 6.530046337375000E9     5.397043649764874E-1   -1.453054546113927E-1   -2.253210609992808E-2   -4.900512674830883E-2   -2.379631793552863E-2   -4.863188698624157E-2    4.362269399859727E-1   -2.596510236203448E-1
 6.530056460850000E9     5.393353702006446E-1   -1.462065344197714E-1   -2.294412351336833E-2   -4.939204923289545E-2   -2.401607642776964E-2   -4.895860555117845E-2    4.353788683574655E-1   -2.608013292378394E-1
 6.530066584325000E9     5.389512950477438E-1   -1.471172319720300E-1   -2.321351036378855E-2   -4.967238346773292E-2   -2.442441594774708E-2   -4.926737553517961E-2    4.344617384151466E-1   -2.619422257103551E-1
 6.530076707800000E9     5.387896383714026E-1   -1.480905490170990E-1   -2.353336233174321E-2   -5.004956058877002E-2   -2.489036903438982E-2   -4.954885552278928E-2    4.336232314553536E-1   -2.631589409496672E-1
 6.530086831275000E9     5.383919931890818E-1   -1.491404023352536E-1   -2.382740276656214E-2   -5.048184722991938E-2   -2.506907308084810E-2   -5.002714919038787E-2    4.327770239009094E-1   -2.644948105454165E-1
 6.530096954750000E9     5.380486261468793E-1   -1.500771546774050E-1   -2.429946324577663E-2   -5.099911124394674E-2   -2.548822909294498E-2   -5.023537457668557E-2    4.317497357365774E-1   -2.656207902740687E-1
