#  HZ   S   RI   R     50.00 
! Rohde & Schwarz Vector Network Analyzer 
! Rohde-Schwarz,ZNB20-2Port,1311601062101988,3.16
! Created: UTC 3/21/2024, 1:13:58 AM
! freq[Hz]                re:S11                  im:S11                  re:S21                  im:S21                  re:S12                  im:S12                  re:S22                  im:S22
 6.529189313000000E9     5.560582584837902E-1   -7.259218459677350E-2   -7.979730345078009E-3   -3.070447379470231E-2   -8.520702285807143E-3   -3.041062140259245E-2    4.812116541684717E-1   -1.772009679967930E-1
 6.529199426850000E9     5.561015408163756E-1   -7.344627506313475E-2   -8.105844206877214E-3   -3.073321456134554E-2   -8.750165820100070E-3   -3.065030951629411E-2    4.810137379289154E-1   -1.779748490386113E-1
 6.529209540700000E9     5.559176727106125E-1   -7.431376698602968E-2   -8.213568191583405E-3   -3.098048887137369E-2   -8.722759321793642E-3   -3.075067519064202E-2    4.804845660269663E-1   -1.788897193313467E-1
 6.529219654550000E9     5.558133391603374E-1   -7.513866258644689E-2   -8.137254718162875E-3   -3.115598039768438E-2   -8.775671091286288E-3   -3.095748484663392E-2    4.802513111605495E-1   -1.796650727085548E-1
 6.529229768400000E9     5.556254508170112E-1   -7.590582314563729E-2   -8.325063755907903E-3   -3.104322408163784E-2   -8.964965440203271E-3   -3.106880403146296E-2    4.798194269483849E-1   -1.805061131508814E-1
 6.529239882250000E9     5.555679610442542E-1   -7.668142625168922E-2   -8.507973020684900E-3   -3.123590936698017E-2   -9.114658049060137E-3   -3.110160398606918E-2    4.794491398153393E-1   -1.815024241436837E-1
 6.529249996100000E9     5.553588560847880E-1   -7.754686666074469E-2   -8.670263363081214E-3   -3.146003370327657E-2   -9.271616042072868E-3   -3.136615098218033E-2    4.790683951512779E-1   -1.822037668724750E-1
 6.529260109950000E9     5.553761143706059E-1   -7.834078579439425E-2   -8.619070224947062E-3   -3.150841424917115E-2   -9.363431017644591E-3   -3.143005385875798E-2    4.786787917957264E-1   -1.831055073551072E-1
 6.529270223800000E9     5.552582532394753E-1   -7.918082241913599E-2   -8.705660027880162E-3   -3.184726993200538E-2   -9.384543274952034E-3   -3.156554033556358E-2    4.785951009174662E-1   -1.840377169932000E-1
 6.529280337650000E9     5.551858821951584E-1   -8.003377807807592E-2   -8.871066738423484E-3   -3.186696654762540E-2   -9.535767948094255E-3   -3.172430938606450E-2    4.782953762775620E-1   -1.848743237599303E-1
 6.529290451500000E9     5.548587808059197E-1   -8.089020830794581E-2   -8.997499932554401E-3   -3.217771904098302E-2   -9.619453783694210E-3   -3.189982520078689E-2    4.777312668513459E-1   -1.856849394412874E-1
 6.529300565350000E9     5.548079610406640E-1   -8.164561549976665E-2   -8.990933380783826E-3   -3.211508208278097E-2   -9.771081397505465E-3   -3.203215241266036E-2    4.773711245999676E-1   -1.867521819347543E-1
 6.529310679200000E9     5.546771803944361E-1   -8.249642566317682E-2   -9.167451845555973E-3   -3.234590580794874E-2   -9.799794266737110E-3   -3.218730966202159E-2    4.768957696241826E-1   -1.874334750125732E-1
 6.529320793050000E9     5.545102527915252E-1   -8.323675759494951E-2   -9.272972099699264E-3   -3.252724412211276E-2   -9.885926532269058E-3   -3.231718027108204E-2    4.765166173325758E-1   -1.883217585857069E-1
 6.529330906900000E9     5.543868273050845E-1   -8.406874166034249E-2   -9.339976723784746E-3   -3.270974141566908E-2   -1.011158682283065E-2   -3.240200106379836E-2    4.762596055754563E-1   -1.892044549890272E-1
 6.529341020750000E9     5.542335692971325E-1   -8.480974396975929E-2   -9.335295785756169E-3   -3.278969604449578E-2   -1.029175173158272E-2   -3.258130788067360E-2    4.760276121809668E-1   -1.900353665700824E-1
 6.529351134600000E9     5.540706887843356E-1   -8.569358833056244E-2   -9.624905370001272E-3   -3.292768555600290E-2   -1.031976237501677E-2   -3.278625254155583E-2    4.755941407653737E-1   -1.910129425751738E-1
 6.529361248450000E9     5.540289090046876E-1   -8.648203896924385E-2   -9.545698385361082E-3   -3.300794772573550E-2   -1.028439998215667E-2   -3.293829200642313E-2    4.751139659479055E-1   -1.919626416487930E-1
 6.529371362300000E9     5.539190168995415E-1   -8.734175019805339E-2   -9.723882699682489E-3   -3.325952021946725E-2   -1.055889773911126E-2   -3.313102535510766E-2    4.746444427708411E-1   -1.927844667465431E-1
 6.529381476150000E9     5.537411767675194E-1   -8.811861149022278E-2   -9.845994325691072E-3   -3.355209599403720E-2   -1.061260581521241E-2   -3.320817290549503E-2    4.742521721191140E-1   -1.936341706983897E-1
 6.529391590000000E9     5.535610395906518E-1   -8.896176050082830E-2   -9.935195798659875E-3   -3.366283078840260E-2   -1.077694331666487E-2   -3.343827259519223E-2    4.738503581174086E-1   -1.945220887974612E-1
 6.529401703850000E9     5.534440672369504E-1   -8.981832150544454E-2   -1.004109556841098E-2   -3.370292750918538E-2   -1.089054484162834E-2   -3.359404090778784E-2    4.734012611482730E-1   -1.955607709910104E-1
 6.529411817700000E9     5.534101667181782E-1   -9.071042349608742E-2   -1.022590596239987E-2   -3.392200941620847E-2   -1.111117709264848E-2   -3.373801064209338E-2    4.730306253960447E-1   -1.963182256522636E-1
 6.529421931550000E9     5.531440996610764E-1   -9.147014378890513E-2   -1.038799870187165E-2   -3.401874671390082E-2   -1.105621252532825E-2   -3.386699174453306E-2    4.726449065637077E-1   -1.973068277152123E-1
 6.529432045400000E9     5.529985899736254E-1   -9.235686710443632E-2   -1.052271411856569E-2   -3.443290923380023E-2   -1.119567757195297E-2   -3.409472256079194E-2    4.721215038441143E-1   -1.980748723162453E-1
 6.529442159250000E9     5.529339939220491E-1   -9.302033080462123E-2   -1.059846810381803E-2   -3.440205108691173E-2   -1.131056519821550E-2   -3.417066622594370E-2    4.718147989089305E-1   -1.990116027159217E-1
 6.529452273100000E9     5.527601746236117E-1   -9.394169741432708E-2   -1.063287803904540E-2   -3.463714402764114E-2   -1.156302625459087E-2   -3.446782125236325E-2    4.714306410192015E-1   -1.999533960955633E-1
 6.529462386950000E9     5.526094908405942E-1   -9.482296609997719E-2   -1.095005198885268E-2   -3.465879698469172E-2   -1.155531715221533E-2   -3.452942808487142E-2    4.709799572611343E-1   -2.010216513342229E-1
 6.529472500800000E9     5.523640375789136E-1   -9.562281392918240E-2   -1.114612553203818E-2   -3.495336367622652E-2   -1.176743325894359E-2   -3.468189137985045E-2    4.705010633698720E-1   -2.017829547325058E-1
 6.529482614650000E9     5.523548772859596E-1   -9.647382808253772E-2   -1.128576279014306E-2   -3.510267456772393E-2   -1.195074257991179E-2   -3.496120456421148E-2    4.700062592552134E-1   -2.027812004900224E-1
 6.529492728500000E9     5.520187088796964E-1   -9.728807736928412E-2   -1.151199917852824E-2   -3.533463467850786E-2   -1.213825200534640E-2   -3.513597621343578E-2    4.697067687039661E-1   -2.035777635109318E-1
 6.529502842350000E9     5.519183373196255E-1   -9.806038266250017E-2   -1.145073458863180E-2   -3.555407371873065E-2   -1.219055728963955E-2   -3.535327306932429E-2    4.690287952722182E-1   -2.045641702709299E-1
 6.529512956200000E9     5.517292360479862E-1   -9.899978488844718E-2   -1.167181206843153E-2   -3.565426745651232E-2   -1.240456864358920E-2   -3.544367638545970E-2    4.686750889683183E-1   -2.055244250356216E-1
 6.529523070050000E9     5.515704101585989E-1   -9.991015098981082E-2   -1.179534192333155E-2   -3.592696363015437E-2   -1.246427843871251E-2   -3.559677253141356E-2    4.681712950760935E-1   -2.064639901949045E-1
 6.529533183900000E9     5.514066454295317E-1   -1.006451552029695E-1   -1.184441893617117E-2   -3.593421760723996E-2   -1.257095196426700E-2   -3.578217137481145E-2    4.679076980035134E-1   -2.072347806043080E-1
 6.529543297750000E9     5.512442695321779E-1   -1.015033202810593E-1   -1.202340355856922E-2   -3.620320320299703E-2   -1.269673456690890E-2   -3.596059756443575E-2    4.673049439553019E-1   -2.081061443876100E-1
 6.529553411600000E9     5.510994250573876E-1   -1.022698242112146E-1   -1.215666885736220E-2   -3.650389316851601E-2   -1.290979592326383E-2   -3.621347390219647E-2    4.668265517363189E-1   -2.092824019859345E-1
 6.529563525450000E9     5.509625556197535E-1   -1.031479022633779E-1   -1.225457262708777E-2   -3.660366600709097E-2   -1.299881695619439E-2   -3.642681923773170E-2    4.664551734021388E-1   -2.101430243528435E-1
 6.529573639300000E9     5.507328651398138E-1   -1.040887917318167E-1   -1.240134581469058E-2   -3.671544602660840E-2   -1.314159637186808E-2   -3.657772185154615E-2    4.658131069321204E-1   -2.110654597272704E-1
 6.529583753150000E9     5.506449162457063E-1   -1.047331485619469E-1   -1.257046243162593E-2   -3.699317660153030E-2   -1.323883131919039E-2   -3.679447652446896E-2    4.654253912901737E-1   -2.119028006537531E-1
 6.529593867000000E9     5.504299288020705E-1   -1.056885327749780E-1   -1.262059077835199E-2   -3.716472451209261E-2   -1.350004310933217E-2   -3.683986025332687E-2    4.649337023056788E-1   -2.129319156432604E-1
 6.529603980850000E9     5.501938815555200E-1   -1.065685568169022E-1   -1.274535047478761E-2   -3.739888206454168E-2   -1.365312216781226E-2   -3.723767925538247E-2    4.644775105508136E-1   -2.139124574701336E-1
 6.529614094700000E9     5.500431223240346E-1   -1.072832411218682E-1   -1.298354772289583E-2   -3.756766371064638E-2   -1.387083791981395E-2   -3.739247748813873E-2    4.639441172903546E-1   -2.147419268173636E-1
 6.529624208550000E9     5.499422122831303E-1   -1.082105766490635E-1   -1.325378517564218E-2   -3.792252035080435E-2   -1.402709013656893E-2   -3.759837579612480E-2    4.634497376327614E-1   -2.157486751036833E-1
 6.529634322400000E9     5.496359171405021E-1   -1.091223521190879E-1   -1.342337728024966E-2   -3.796130720000002E-2   -1.415305821906782E-2   -3.778759188003989E-2    4.629616225863346E-1   -2.168339252461445E-1
 6.529644436250000E9     5.494601140337433E-1   -1.099759425292326E-1   -1.358842954738192E-2   -3.818302574562481E-2   -1.426291946540123E-2   -3.797035519375751E-2    4.622982315116331E-1   -2.177042298857345E-1
 6.529654550100000E9     5.493575722779698E-1   -1.107030642777858E-1   -1.344303142444213E-2   -3.834369137894617E-2   -1.454567732189570E-2   -3.815428377957800E-2    4.617484492150030E-1   -2.185751356827958E-1
 6.529664663950000E9     5.490041656681828E-1   -1.117060839086857E-1   -1.383952869525663E-2   -3.878407338051719E-2   -1.462376533278540E-2   -3.838763849218083E-2    4.612691486354871E-1   -2.197822098738101E-1
 6.529674777800000E9     5.488789211786932E-1   -1.124968448375444E-1   -1.389936885191426E-2   -3.886620375912921E-2   -1.479750708760859E-2   -3.868195100797436E-2    4.608988552734686E-1   -2.206607559414140E-1
 6.529684891650000E9     5.487227665182804E-1   -1.132549123334862E-1   -1.425674302913856E-2   -3.913755476944138E-2   -1.497764457846608E-2   -3.878007766285121E-2    4.602601942031220E-1   -2.215879257085432E-1
 6.529695005500000E9     5.484935394908352E-1   -1.141793596940649E-1   -1.435923132667983E-2   -3.932902896811626E-2   -1.513681491288357E-2   -3.891379125700450E-2    4.597228424582330E-1   -2.225290964570300E-1
 6.529705119350000E9     5.482757725126257E-1   -1.151160987015912E-1   -1.441127090140278E-2   -3.952145814796207E-2   -1.540805353090057E-2   -3.923529662936206E-2    4.592455467217892E-1   -2.236441518861821E-1
 6.529715233200000E9     5.480771436242252E-1   -1.158861757674333E-1   -1.465536522808839E-2   -3.981984221481348E-2   -1.561055225326261E-2   -3.942980752603675E-2    4.586033505449369E-1   -2.245605242206996E-1
 6.529725347050000E9     5.478008025440675E-1   -1.167241188102214E-1   -1.477993712202644E-2   -3.992451792020076E-2   -1.581386512588219E-2   -3.965401081104787E-2    4.581405221874906E-1   -2.255294649950031E-1
 6.529735460900000E9     5.476187695477438E-1   -1.176055442769448E-1   -1.501853689027530E-2   -4.017489982074633E-2   -1.579985589617580E-2   -3.990685286313407E-2    4.575419245726812E-1   -2.266573324185266E-1
 6.529745574750000E9     5.474229110709448E-1   -1.184942476444278E-1   -1.524408431341847E-2   -4.038719668058233E-2   -1.613413630107209E-2   -4.023037684775056E-2    4.569088546507961E-1   -2.276297847115432E-1
 6.529755688600000E9     5.472557220147696E-1   -1.193946269257700E-1   -1.537560311197139E-2   -4.072027748268686E-2   -1.633314593157054E-2   -4.032008378395926E-2    4.564972912166176E-1   -2.284324726737319E-1
 6.529765802450000E9     5.469640860821848E-1   -1.201886192935393E-1   -1.560508971554272E-2   -4.097309883231898E-2   -1.655009718129333E-2   -4.062453187432001E-2    4.558196571306644E-1   -2.295952309675449E-1
 6.529775916300000E9     5.468084048269132E-1   -1.211349041895646E-1   -1.588605807251305E-2   -4.119620385299656E-2   -1.674453403815250E-2   -4.084452378870945E-2    4.552343520576642E-1   -2.304401708114496E-1
 6.529786030150000E9     5.465619741756251E-1   -1.219812210497724E-1   -1.599997247957626E-2   -4.140293183081197E-2   -1.689091266790318E-2   -4.114576896030132E-2    4.544393157535854E-1   -2.317117465364928E-1
 6.529796144000000E9     5.462942005245650E-1   -1.228239402809845E-1   -1.613461207811220E-2   -4.157901860438910E-2   -1.712990928934801E-2   -4.137675009876343E-2    4.541106410423584E-1   -2.326601478578556E-1
 6.529806257850000E9     5.461134233812138E-1   -1.236754884696362E-1   -1.639927944229269E-2   -4.191256011729565E-2   -1.737214731969017E-2   -4.164184608787398E-2    4.533577435251456E-1   -2.335989806478520E-1
 6.529816371700000E9     5.458305914277473E-1   -1.245409567821296E-1   -1.665304000652606E-2   -4.211986910013323E-2   -1.761802686409708E-2   -4.189712523814578E-2    4.527069779590167E-1   -2.347077031367505E-1
 6.529826485550000E9     5.456704250007298E-1   -1.254859590053538E-1   -1.680489214902594E-2   -4.240692503161284E-2   -1.787942199189790E-2   -4.210495412835444E-2    4.520829657518672E-1   -2.356445453056550E-1
 6.529836599400000E9     5.454146148316925E-1   -1.264128288278452E-1   -1.708966378691307E-2   -4.271168892251837E-2   -1.813702902188172E-2   -4.232700522434818E-2    4.515733989324727E-1   -2.368923359291094E-1
 6.529846713250000E9     5.450856421145166E-1   -1.272833343884171E-1   -1.731984722617715E-2   -4.290513471689882E-2   -1.824256540320480E-2   -4.262575438889754E-2    4.508052207785249E-1   -2.377817644974509E-1
 6.529856827100000E9     5.448046878476904E-1   -1.281593302565996E-1   -1.750139530181732E-2   -4.308643319086317E-2   -1.848842508289971E-2   -4.291270877111989E-2    4.503176516978167E-1   -2.388044579800757E-1
 6.529866940950000E9     5.446405869715977E-1   -1.290221095401293E-1   -1.775475157408103E-2   -4.357325961321548E-2   -1.872328501026416E-2   -4.314162581829487E-2    4.494652644211592E-1   -2.398708057483588E-1
 6.529877054800000E9     5.444374827228045E-1   -1.298944191595001E-1   -1.790248286477285E-2   -4.370564482895990E-2   -1.891735490936079E-2   -4.346615437785990E-2    4.487458148704698E-1   -2.409684880675071E-1
 6.529887168650000E9     5.441281623514820E-1   -1.307343033240503E-1   -1.828031383139968E-2   -4.410529909680404E-2   -1.930957651912383E-2   -4.366162444425864E-2    4.481292493884679E-1   -2.420011529771862E-1
 6.529897282500000E9     5.439175228391759E-1   -1.317439625580676E-1   -1.850582065195221E-2   -4.437842327582651E-2   -1.940953285969362E-2   -4.389634882334968E-2    4.473186708152113E-1   -2.430388285973640E-1
 6.529907396350000E9     5.435808449306884E-1   -1.326586625015064E-1   -1.861034995387080E-2   -4.473105320252228E-2   -1.974716850844937E-2   -4.428415291424138E-2    4.467652107516036E-1   -2.441648564297825E-1
 6.529917510200000E9     5.433244351352470E-1   -1.335229440994036E-1   -1.892738999775821E-2   -4.496510519928411E-2   -1.995680328163689E-2   -4.450104516634666E-2    4.462829390083313E-1   -2.452465384744055E-1
 6.529927624050000E9     5.430440539550192E-1   -1.345481185488104E-1   -1.922565593947274E-2   -4.511550530418907E-2   -2.033737740822872E-2   -4.479775236600221E-2    4.453187925446607E-1   -2.464474613945717E-1
 6.529937737900000E9     5.428466653580258E-1   -1.352944234948049E-1   -1.950418063263216E-2   -4.557606455950937E-2   -2.052050265133911E-2   -4.512155059122329E-2    4.446635517360318E-1   -2.474683128797509E-1
 6.529947851750000E9     5.425388289474602E-1   -1.362296562038275E-1   -1.964826262460400E-2   -4.572528821549248E-2   -2.076219337747476E-2   -4.545574392700367E-2    4.437928288921359E-1   -2.485665370356414E-1
 6.529957965600000E9     5.422855028596810E-1   -1.372200549366517E-1   -2.002260258157974E-2   -4.619516255363457E-2   -2.106139974240073E-2   -4.579688066541546E-2    4.432000619128084E-1   -2.496072837661288E-1
 6.529968079450000E9     5.420734561363745E-1   -1.381212262694477E-1   -2.022525032910055E-2   -4.641824171063741E-2   -2.129455322494064E-2   -4.604121299901475E-2    4.425381145020496E-1   -2.507252851137300E-1
 6.529978193300000E9     5.416516983947415E-1   -1.390452348209428E-1   -2.057440770030008E-2   -4.671339235706470E-2   -2.160950452530113E-2   -4.627996249496101E-2    4.417391453137414E-1   -2.519302479381743E-1
 6.529988307150000E9     5.414328917005714E-1   -1.399293158123938E-1   -2.081315879274346E-2   -4.704106683588555E-2   -2.190758812386553E-2   -4.668197473972668E-2    4.408418683111326E-1   -2.531603135290050E-1
 6.529998421000000E9     5.410395382093641E-1   -1.408978618206662E-1   -2.111048554069258E-2   -4.736785996765003E-2   -2.213365121544026E-2   -4.698032863306378E-2    4.400444147752879E-1   -2.542418078643958E-1
 6.530008534850000E9     5.407956783172635E-1   -1.417174822111846E-1   -2.152617171877645E-2   -4.771258343266015E-2   -2.255956707828455E-2   -4.722552312790617E-2    4.392840696233981E-1   -2.552262170819685E-1
 6.530018648700000E9     5.405158420661091E-1   -1.426472194266235E-1   -2.179717650310224E-2   -4.808309210011478E-2   -2.282062027943714E-2   -4.755540785936740E-2    4.383673115928459E-1   -2.565937482353485E-1
 6.530028762550000E9     5.402067896947204E-1   -1.436205379331534E-1   -2.205763754716643E-2   -4.828374693409499E-2   -2.314055723818842E-2   -4.789688704529093E-2    4.376141930331799E-1   -2.575769954392668E-1
 6.530038876400000E9     5.398818702246199E-1   -1.445503048268297E-1   -2.234675693853058E-2   -4.883558238053817E-2   -2.355095118149903E-2   -4.820308388328421E-2    4.367208639020540E-1   -2.587344897433282E-1
 6.530048990250000E9     5.395734240032963E-1   -1.455831752569242E-1   -2.258638878923046E-2   -4.906218691771923E-2   -2.380537038381100E-2   -4.854434353104516E-2    4.359247881846467E-1   -2.598576591341682E-1
 6.530059104100000E9     5.392646658456329E-1   -1.463473240356574E-1   -2.293273672988733E-2   -4.951108686568040E-2   -2.412989947637057E-2   -4.895120979250189E-2    4.351160681189242E-1   -2.610422572835963E-1
 6.530069217950000E9     5.388396444988828E-1   -1.472899310908238E-1   -2.334814080467888E-2   -4.976777788663776E-2   -2.450521355541661E-2   -4.929774318973683E-2    4.341021282362059E-1   -2.622389939196627E-1
 6.530079331800000E9     5.386088669594860E-1   -1.483545382367317E-1   -2.366011430164899E-2   -5.009293101170654E-2   -2.482196634720516E-2   -4.964435979303452E-2    4.333358037560068E-1   -2.635866836144811E-1
 6.530089445650000E9     5.383464636423285E-1   -1.490911141617782E-1   -2.397585450931485E-2   -5.036974278682230E-2   -2.521576768631054E-2   -5.001124137018477E-2    4.323205817909304E-1   -2.647487951097652E-1
 6.530099559500000E9     5.379568761592983E-1   -1.501456510462274E-1   -2.429576423071299E-2   -5.081885554221238E-2   -2.550026934782290E-2   -5.035822030801121E-2    4.314699383202958E-1   -2.657899494555663E-1
