#  HZ   S   RI   R     50.00 
! Rohde & Schwarz Vector Network Analyzer 
! Rohde-Schwarz,ZNB20-2Port,1311601062101988,3.16
! Created: UTC 3/21/2024, 1:14:35 AM
! freq[Hz]                re:S11                  im:S11                  re:S21                  im:S21                  re:S12                  im:S12                  re:S22                  im:S22
 6.529224818000000E9     5.555465173190198E-1   -7.514738534898847E-2   -8.290532968755791E-3   -3.070244069667679E-2   -8.805834877152485E-3   -3.064985330444866E-2    4.774489964416251E-1   -1.810555875038463E-1
 6.529234853275000E9     5.554682003113812E-1   -7.592809320985505E-2   -8.323212356450777E-3   -3.079691360883091E-2   -8.873243197315511E-3   -3.066996897033605E-2    4.771500858962527E-1   -1.818595802326356E-1
 6.529244888550000E9     5.552979086405099E-1   -7.668753110335831E-2   -8.397256670405133E-3   -3.097116124454261E-2   -8.943743657449625E-3   -3.086868126231862E-2    4.767410137679461E-1   -1.827326624372979E-1
 6.529254923825000E9     5.551395678123184E-1   -7.754650293667474E-2   -8.441285086761679E-3   -3.095958382629040E-2   -9.195606421280363E-3   -3.087638152977092E-2    4.763057636910928E-1   -1.835193916815964E-1
 6.529264959100000E9     5.551371670876665E-1   -7.836074426086365E-2   -8.624694248991670E-3   -3.120471427600359E-2   -9.186431357670513E-3   -3.101328024978404E-2    4.760784120187673E-1   -1.844210855608016E-1
 6.529274994375000E9     5.550870308682297E-1   -7.908408342280270E-2   -8.682877056767690E-3   -3.151590571768396E-2   -9.305879562151242E-3   -3.132021926911203E-2    4.758722624567081E-1   -1.852215962343588E-1
 6.529285029650000E9     5.548815698111642E-1   -7.993915138446833E-2   -8.835732419059777E-3   -3.155283618620733E-2   -9.415951250789084E-3   -3.134611221353131E-2    4.753060444174597E-1   -1.860544802332526E-1
 6.529295064925000E9     5.547814147301969E-1   -8.067492504820963E-2   -8.914981268293378E-3   -3.171711603372472E-2   -9.528579793373113E-3   -3.151778435172407E-2    4.749020060473300E-1   -1.868838214095345E-1
 6.529305100200000E9     5.547330725912538E-1   -8.161891175313774E-2   -8.943042427885859E-3   -3.187729027883345E-2   -9.593298053462091E-3   -3.169990434569076E-2    4.744575897950771E-1   -1.878226104686556E-1
 6.529315135475000E9     5.545556197531583E-1   -8.243593843769413E-2   -9.099065600901592E-3   -3.195464827471399E-2   -9.713475636335914E-3   -3.179809339699561E-2    4.740924539149863E-1   -1.885303730384774E-1
 6.529325170750000E9     5.543826225150017E-1   -8.314026231711916E-2   -9.129667204710852E-3   -3.220276927919008E-2   -9.846849953338042E-3   -3.194985308318207E-2    4.737529568626443E-1   -1.895340043112341E-1
 6.529335206025000E9     5.543027233057505E-1   -8.406650805979035E-2   -9.321482037799780E-3   -3.219171208381385E-2   -9.981846141144569E-3   -3.203849744703101E-2    4.734604855162023E-1   -1.903433800007783E-1
 6.529345241300000E9     5.541057251922843E-1   -8.480899490261673E-2   -9.398429033240429E-3   -3.234929816398525E-2   -1.010034176372347E-2   -3.229951540248587E-2    4.729884386893660E-1   -1.912107225558516E-1
 6.529355276575000E9     5.540042140794761E-1   -8.561578779777453E-2   -9.406365422894974E-3   -3.246896536800199E-2   -1.018434026879857E-2   -3.248487388723020E-2    4.726965396216277E-1   -1.920251433501098E-1
 6.529365311850000E9     5.539253059384166E-1   -8.643325760489644E-2   -9.549010426485692E-3   -3.283189330000680E-2   -1.029057035509272E-2   -3.253110067107533E-2    4.722708279125577E-1   -1.930139349192168E-1
 6.529375347125000E9     5.537927346020646E-1   -8.730955321653545E-2   -9.820160693173024E-3   -3.292624193883602E-2   -1.041579958911974E-2   -3.269843775526662E-2    4.719891200262429E-1   -1.938803123526859E-1
 6.529385382400000E9     5.536371012575514E-1   -8.792534072370603E-2   -9.850683304652424E-3   -3.309585560652954E-2   -1.048346477837216E-2   -3.292724523353650E-2    4.717092584962547E-1   -1.946624525966396E-1
 6.529395417675000E9     5.534734807293438E-1   -8.886242763254754E-2   -9.888264180275885E-3   -3.303464017170982E-2   -1.063950072942503E-2   -3.301073234285792E-2    4.711177924738207E-1   -1.955489224730276E-1
 6.529405452950000E9     5.532890650854662E-1   -8.969978830834016E-2   -1.020300505775619E-2   -3.340797027716229E-2   -1.075287643187620E-2   -3.305921482804016E-2    4.708467668195692E-1   -1.963583105637529E-1
 6.529415488225000E9     5.531361799462423E-1   -9.043001839402053E-2   -1.023197816229472E-2   -3.342984265607875E-2   -1.080035874127235E-2   -3.321106538474380E-2    4.704114622311161E-1   -1.973137885431110E-1
 6.529425523500000E9     5.531375690359825E-1   -9.130103298092805E-2   -1.025672441363123E-2   -3.365520106548277E-2   -1.099010798643257E-2   -3.352954159455249E-2    4.698522562566328E-1   -1.981108852367454E-1
 6.529435558775000E9     5.528903665007154E-1   -9.210616103029554E-2   -1.036699522415453E-2   -3.376356160427042E-2   -1.113418689769063E-2   -3.364107488865919E-2    4.694497555347090E-1   -1.992654458390369E-1
 6.529445594050000E9     5.527842211012232E-1   -9.292149975069951E-2   -1.043844554315167E-2   -3.400747565441901E-2   -1.118093802263197E-2   -3.376377739068370E-2    4.690153812091222E-1   -1.998907688223865E-1
 6.529455629325000E9     5.526114568547597E-1   -9.383017777108045E-2   -1.044010334975337E-2   -3.407665528524922E-2   -1.131851064131880E-2   -3.404780980311344E-2    4.687381843228936E-1   -2.009294198588932E-1
 6.529465664600000E9     5.525002559787473E-1   -9.456777869718148E-2   -1.078784155718652E-2   -3.423624244296824E-2   -1.146236842368959E-2   -3.415728750899624E-2    4.682330924199047E-1   -2.016113127062812E-1
 6.529475699875000E9     5.523842413076288E-1   -9.540002017112303E-2   -1.092290780976572E-2   -3.452717094626245E-2   -1.153621706831604E-2   -3.429278707714119E-2    4.678155010382576E-1   -2.026956855362504E-1
 6.529485735150000E9     5.521934585137394E-1   -9.627654187314477E-2   -1.101135964896665E-2   -3.474021093109965E-2   -1.170044405727894E-2   -3.448098472525873E-2    4.671857398262935E-1   -2.034372259364052E-1
 6.529495770425000E9     5.519911746262687E-1   -9.701099899035981E-2   -1.117767067320325E-2   -3.475337001196419E-2   -1.187611946624214E-2   -3.463991452636512E-2    4.668333969221969E-1   -2.045850256780569E-1
 6.529505805700000E9     5.517834881655629E-1   -9.797079557684513E-2   -1.131415987637179E-2   -3.498618263625736E-2   -1.198424520510865E-2   -3.478523505089091E-2    4.664692638384961E-1   -2.053313426725517E-1
 6.529515840975000E9     5.517988458329977E-1   -9.868540802714922E-2   -1.127075417255741E-2   -3.523039944504431E-2   -1.208684494202001E-2   -3.503037945744886E-2    4.660112410027482E-1   -2.061839619697295E-1
 6.529525876250000E9     5.515411064429405E-1   -9.948177941664445E-2   -1.149300671090730E-2   -3.535079354731271E-2   -1.221950946916311E-2   -3.512307536062753E-2    4.655276355205887E-1   -2.070763943447133E-1
 6.529535911525000E9     5.514400678712085E-1   -1.003382159547647E-1   -1.164050611754989E-2   -3.546652616039650E-2   -1.236262081227355E-2   -3.535756462706161E-2    4.651634392809999E-1   -2.080453237752614E-1
 6.529545946800000E9     5.512775671428347E-1   -1.012948077902985E-1   -1.177602824561292E-2   -3.569557704901165E-2   -1.258860807969135E-2   -3.542730207351280E-2    4.646636582251586E-1   -2.089549624944073E-1
 6.529555982075000E9     5.510536316492839E-1   -1.020002181401082E-1   -1.196786727719631E-2   -3.585439911923489E-2   -1.263379188905137E-2   -3.568224991854038E-2    4.642097813125581E-1   -2.098651006078171E-1
 6.529566017350000E9     5.508903861765005E-1   -1.028717373623860E-1   -1.202141819565188E-2   -3.607456402032341E-2   -1.287961578370163E-2   -3.581656439065944E-2    4.637696080454961E-1   -2.107096686457678E-1
 6.529576052625000E9     5.506441121254740E-1   -1.037033110140177E-1   -1.219021000731206E-2   -3.639760354503718E-2   -1.299082560367208E-2   -3.606268463434304E-2    4.632812065446579E-1   -2.116548362172431E-1
 6.529586087900000E9     5.505530666269054E-1   -1.046430219889259E-1   -1.229276874447842E-2   -3.655179348711549E-2   -1.312547688781949E-2   -3.618821468874660E-2    4.629028262720209E-1   -2.125333705373634E-1
 6.529596123175000E9     5.503516063453554E-1   -1.053385241258513E-1   -1.236733272826166E-2   -3.667338698768063E-2   -1.319382210276993E-2   -3.646655986505273E-2    4.623016561724971E-1   -2.134852024062532E-1
 6.529606158450000E9     5.502548307473544E-1   -1.061298973113484E-1   -1.250811650534510E-2   -3.695712644037629E-2   -1.356067848759276E-2   -3.660283265959702E-2    4.618677687443083E-1   -2.144128145876451E-1
 6.529616193725000E9     5.499661954853130E-1   -1.070031321598641E-1   -1.279727232821896E-2   -3.714327124744577E-2   -1.359015896675832E-2   -3.677702833015371E-2    4.614948999149338E-1   -2.152859780847880E-1
 6.529626229000000E9     5.499167186529760E-1   -1.079016149367278E-1   -1.295958695484122E-2   -3.724825668119296E-2   -1.381535484157624E-2   -3.697854485136451E-2    4.609333725124996E-1   -2.162070901757155E-1
 6.529636264275000E9     5.496472305317935E-1   -1.087961088923913E-1   -1.305772476114114E-2   -3.763069682021644E-2   -1.400220899846369E-2   -3.711349843115880E-2    4.604486997417230E-1   -2.171901291628309E-1
 6.529646299550000E9     5.494795144666466E-1   -1.096198628728810E-1   -1.323696709600710E-2   -3.760716798679374E-2   -1.404014355537351E-2   -3.745395521183717E-2    4.599999269623645E-1   -2.182975045867279E-1
 6.529656334825000E9     5.493754686583447E-1   -1.104493973598837E-1   -1.356540482942123E-2   -3.780502706135561E-2   -1.412917246221491E-2   -3.765611857357604E-2    4.593442276217713E-1   -2.192389760107305E-1
 6.529666370100000E9     5.490535653337335E-1   -1.113138006574436E-1   -1.367667567096330E-2   -3.816726890700163E-2   -1.441592783069496E-2   -3.789785007909500E-2    4.588026844653411E-1   -2.200747509008496E-1
 6.529676405375000E9     5.487996635739057E-1   -1.121101139716848E-1   -1.380706961369354E-2   -3.839258496085904E-2   -1.458084037691507E-2   -3.810696873031525E-2    4.584481000251574E-1   -2.211824126761927E-1
 6.529686440650000E9     5.487427304319218E-1   -1.130264391337258E-1   -1.398048899691125E-2   -3.854890144350764E-2   -1.469787911892534E-2   -3.827905663204236E-2    4.577178280547513E-1   -2.222596338826762E-1
 6.529696475925000E9     5.484141703354403E-1   -1.138246397338904E-1   -1.418593307911497E-2   -3.861629792750947E-2   -1.492647355885628E-2   -3.852985290716585E-2    4.574117224548332E-1   -2.230034796200671E-1
 6.529706511200000E9     5.483044991702569E-1   -1.145862239611433E-1   -1.425437660993239E-2   -3.900109438446047E-2   -1.512081153434211E-2   -3.861897658974253E-2    4.566231975358617E-1   -2.240466425991445E-1
 6.529716546475000E9     5.479796528991595E-1   -1.155202893459155E-1   -1.427346613178227E-2   -3.898989771686281E-2   -1.524249780817385E-2   -3.890333097193114E-2    4.561526483645926E-1   -2.250167707295771E-1
 6.529726581750000E9     5.479150284013160E-1   -1.163985174591657E-1   -1.442726280787846E-2   -3.945799542883124E-2   -1.539232436675941E-2   -3.919053736620922E-2    4.556494180793606E-1   -2.257713688639876E-1
 6.529736617025000E9     5.477439568621163E-1   -1.170676928052157E-1   -1.485132032661422E-2   -3.957621423450839E-2   -1.557034099968062E-2   -3.936070813941298E-2    4.551849338607905E-1   -2.267946580732286E-1
 6.529746652300000E9     5.474411885178735E-1   -1.180255742946630E-1   -1.488534135045079E-2   -3.972423915754358E-2   -1.578360525269191E-2   -3.952042643569548E-2    4.545341596286149E-1   -2.278330032853021E-1
 6.529756687575000E9     5.473353734563247E-1   -1.189241913989607E-1   -1.514566209504015E-2   -4.006182074542607E-2   -1.601521987610452E-2   -3.974249561954442E-2    4.539885509703589E-1   -2.287136815348048E-1
 6.529766722850000E9     5.471438750102309E-1   -1.197562691457233E-1   -1.541685134317118E-2   -4.022132911489821E-2   -1.619639497462013E-2   -3.998609190928969E-2    4.534771930702402E-1   -2.297476898889371E-1
 6.529776758125000E9     5.468006010252413E-1   -1.205492310952834E-1   -1.540566858706970E-2   -4.057388589863033E-2   -1.642859749510275E-2   -4.022959085635384E-2    4.527606113401792E-1   -2.308848687056815E-1
 6.529786793400000E9     5.465543008258429E-1   -1.214479006395434E-1   -1.570602495185460E-2   -4.076258739070571E-2   -1.669148730874164E-2   -4.042464196641787E-2    4.522014007076921E-1   -2.317273318307543E-1
 6.529796828675000E9     5.462605835228426E-1   -1.223846926167792E-1   -1.583789787155478E-2   -4.082414433720290E-2   -1.684482015560536E-2   -4.064604534158858E-2    4.516911457723271E-1   -2.328422272176748E-1
 6.529806863950000E9     5.461099982579566E-1   -1.232830877680384E-1   -1.602471174656538E-2   -4.116883175805326E-2   -1.700629730000407E-2   -4.093284137373503E-2    4.511199652058890E-1   -2.336327758583355E-1
 6.529816899225000E9     5.460603459551194E-1   -1.241068476875606E-1   -1.633469773907161E-2   -4.151730097553850E-2   -1.725856240418569E-2   -4.115323354476699E-2    4.505615768308202E-1   -2.349034561613391E-1
 6.529826934500000E9     5.457682974884714E-1   -1.250312372683242E-1   -1.648962613876912E-2   -4.181385028584830E-2   -1.750406131777322E-2   -4.138439930269320E-2    4.497871464418181E-1   -2.358048434025354E-1
 6.529836969775000E9     5.454137725238984E-1   -1.258492177708201E-1   -1.664410302519073E-2   -4.195486153008795E-2   -1.769057287255489E-2   -4.166314342647436E-2    4.491561110471445E-1   -2.368051327889524E-1
 6.529847005050000E9     5.452715791631254E-1   -1.266416370344034E-1   -1.701547115021023E-2   -4.218869833053751E-2   -1.789175817088950E-2   -4.192143062655530E-2    4.485545816266127E-1   -2.377614906874057E-1
 6.529857040325000E9     5.450321170252369E-1   -1.276170620574759E-1   -1.711614522603130E-2   -4.251833948957933E-2   -1.798418951607812E-2   -4.212214624448094E-2    4.478730100419296E-1   -2.390478960542860E-1
 6.529867075600000E9     5.447848694220552E-1   -1.284227734452093E-1   -1.748814828006051E-2   -4.273056264229542E-2   -1.831633399716745E-2   -4.232545906097695E-2    4.472603853895127E-1   -2.399701314153880E-1
 6.529877110875000E9     5.446201159473477E-1   -1.293888066244680E-1   -1.748333180471614E-2   -4.300007559362098E-2   -1.853644908966984E-2   -4.265499434403056E-2    4.466726692799294E-1   -2.408639180591114E-1
 6.529887146150000E9     5.443292853214741E-1   -1.301573700098585E-1   -1.771454313231373E-2   -4.333345583790114E-2   -1.869371508510857E-2   -4.302567341720503E-2    4.459336069070644E-1   -2.419127983400273E-1
 6.529897181425000E9     5.440214175215293E-1   -1.310568192108425E-1   -1.789287157280442E-2   -4.362116489433865E-2   -1.903866169338636E-2   -4.320675588515646E-2    4.453550560054720E-1   -2.431443470950579E-1
 6.529907216700000E9     5.438483358849981E-1   -1.320171137385505E-1   -1.812973763236274E-2   -4.386935951439876E-2   -1.929219190123751E-2   -4.345687854865080E-2    4.446369878036207E-1   -2.441184047818272E-1
 6.529917251975000E9     5.436351492256685E-1   -1.328516318299642E-1   -1.858493977874326E-2   -4.412824179247484E-2   -1.950126444777146E-2   -4.370742023951983E-2    4.437989508814911E-1   -2.452385415096305E-1
 6.529927287250000E9     5.433218059775448E-1   -1.337224212598169E-1   -1.874370261343015E-2   -4.437035998210678E-2   -1.974354612467314E-2   -4.404592672125320E-2    4.433956131220781E-1   -2.461040344945494E-1
 6.529937322525000E9     5.430695777486197E-1   -1.346458531905790E-1   -1.891341783048645E-2   -4.476056634343833E-2   -2.005126541433458E-2   -4.424336255852040E-2    4.425943956766936E-1   -2.471750706013085E-1
 6.529947357800000E9     5.426880145366678E-1   -1.355442769696670E-1   -1.922178935509199E-2   -4.501598127321874E-2   -2.024138537381320E-2   -4.458695008091600E-2    4.418500475479816E-1   -2.482736556619649E-1
 6.529957393075000E9     5.424514217286921E-1   -1.364577991277543E-1   -1.941585756521206E-2   -4.531800613646347E-2   -2.054692509797052E-2   -4.476487786754161E-2    4.412286666005592E-1   -2.493197098409046E-1
 6.529967428350000E9     5.422617272548893E-1   -1.372933684637131E-1   -1.980037162337348E-2   -4.559439389605385E-2   -2.074553530615214E-2   -4.516736492990812E-2    4.402040822445559E-1   -2.504706435737057E-1
 6.529977463625000E9     5.419826696605834E-1   -1.382254597766332E-1   -2.002690781506158E-2   -4.592380932865246E-2   -2.098568691852480E-2   -4.546414187575713E-2    4.396723739942896E-1   -2.516090348835816E-1
 6.529987498900000E9     5.416591077123927E-1   -1.391759766035388E-1   -2.027193177089682E-2   -4.626154235618081E-2   -2.139362326757437E-2   -4.572232294876361E-2    4.390540322585449E-1   -2.527495970874250E-1
 6.529997534175000E9     5.414128681008263E-1   -1.400164029549004E-1   -2.062420101358671E-2   -4.637614768163311E-2   -2.156833041112620E-2   -4.601474948170860E-2    4.382227265302294E-1   -2.537499862889679E-1
 6.530007569450000E9     5.410788821914990E-1   -1.410232849199470E-1   -2.074274763235882E-2   -4.675613249873097E-2   -2.183722241304944E-2   -4.634851834682431E-2    4.373615489220162E-1   -2.548925808774660E-1
 6.530017604725000E9     5.407710110545062E-1   -1.417476880465234E-1   -2.105011189174861E-2   -4.716269163518504E-2   -2.220116116165079E-2   -4.670740599550609E-2    4.366650316588878E-1   -2.560012475628344E-1
 6.530027640000000E9     5.405449135177659E-1   -1.427163545121538E-1   -2.131109063561719E-2   -4.750061852576704E-2   -2.247871602706240E-2   -4.696966913211475E-2    4.357012828529114E-1   -2.570838753130155E-1
 6.530037675275000E9     5.402374515956521E-1   -1.436245240726471E-1   -2.162775415089993E-2   -4.776555355967874E-2   -2.290687009460470E-2   -4.732159341485564E-2    4.349573265790873E-1   -2.582825762395349E-1
 6.530047710550000E9     5.399841992098091E-1   -1.444753885849170E-1   -2.197245958117113E-2   -4.812577241443945E-2   -2.308824760317041E-2   -4.755308369990376E-2    4.343754447690798E-1   -2.591992872073248E-1
 6.530057745825000E9     5.397243064122886E-1   -1.454438153910033E-1   -2.249516853190671E-2   -4.836160554293337E-2   -2.343577298978309E-2   -4.798666680982015E-2    4.333131919011644E-1   -2.605125744801491E-1
 6.530067781100000E9     5.392420096362791E-1   -1.465664014772776E-1   -2.255725453010617E-2   -4.879355405156244E-2   -2.376868800589037E-2   -4.827543423151846E-2    4.324953815480149E-1   -2.616600256804859E-1
 6.530077816375000E9     5.389432561458226E-1   -1.472497423686625E-1   -2.300459935100547E-2   -4.909573274899451E-2   -2.403710242865143E-2   -4.854430227851844E-2    4.315725866568126E-1   -2.628230227001163E-1
 6.530087851650000E9     5.386468766633911E-1   -1.483849198182186E-1   -2.335545852464847E-2   -4.957763972449114E-2   -2.447232792216175E-2   -4.893880353545604E-2    4.307021776797050E-1   -2.640390516579012E-1
 6.530097886925000E9     5.383168275784818E-1   -1.491979684315233E-1   -2.351120657820783E-2   -4.973875594406207E-2   -2.477788311254280E-2   -4.931404927551366E-2    4.300193848125689E-1   -2.651019393875638E-1
 6.530107922200000E9     5.380009140495629E-1   -1.502634774389301E-1   -2.391326521267615E-2   -5.010549735440174E-2   -2.513389184371639E-2   -4.957394086416062E-2    4.290162651405143E-1   -2.661821726191676E-1
 6.530117957475000E9     5.376178834131313E-1   -1.511823771585819E-1   -2.428886902990961E-2   -5.057854307777605E-2   -2.545102268225239E-2   -5.002753470990289E-2    4.281415474715028E-1   -2.675175569828431E-1
 6.530127992750000E9     5.372170510956417E-1   -1.520009049571050E-1   -2.464314234193148E-2   -5.091072159610747E-2   -2.586003575678342E-2   -5.034661420926636E-2    4.272036729050824E-1   -2.686315685715819E-1
