#  HZ   S   RI   R     50.00 
! Rohde & Schwarz Vector Network Analyzer 
! Rohde-Schwarz,ZNB20-2Port,1311601062101988,3.16
! Created: UTC 3/21/2024, 1:14:38 AM
! freq[Hz]                re:S11                  im:S11                  re:S21                  im:S21                  re:S12                  im:S12                  re:S22                  im:S22
 6.529234473000000E9     5.554492413374479E-1   -7.592040357713649E-2   -8.250171921069789E-3   -3.082835377117171E-2   -8.888443485036078E-3   -3.068760149621082E-2    4.770596377200730E-1   -1.819791336772583E-1
 6.529244486950000E9     5.554181747635283E-1   -7.681935178271093E-2   -8.404502638130211E-3   -3.087186386714658E-2   -8.980776742208218E-3   -3.073906248807771E-2    4.765217486773317E-1   -1.827306380167943E-1
 6.529254500900000E9     5.553004240199323E-1   -7.740769841246756E-2   -8.376014615398832E-3   -3.118994729995130E-2   -9.194939055570254E-3   -3.098129000925051E-2    4.764083653734417E-1   -1.835434850651029E-1
 6.529264514850000E9     5.552435004468349E-1   -7.822227007381818E-2   -8.633354800686104E-3   -3.134829242706438E-2   -9.178420359128013E-3   -3.107118752856909E-2    4.759956315332028E-1   -1.843415477701653E-1
 6.529274528800000E9     5.550972529971021E-1   -7.909612761315568E-2   -8.622237706754993E-3   -3.141027662320087E-2   -9.253223651847437E-3   -3.133136106813069E-2    4.754822540151837E-1   -1.852874395303063E-1
 6.529284542750000E9     5.550363331040870E-1   -7.984831959263615E-2   -8.768788678354034E-3   -3.156186812513040E-2   -9.305616993739050E-3   -3.124972657737182E-2    4.751176997310934E-1   -1.860402087928166E-1
 6.529294556700000E9     5.548758538305677E-1   -8.073240211343392E-2   -8.865790596756603E-3   -3.162799174061598E-2   -9.592158486666936E-3   -3.150872776737591E-2    4.748475148522618E-1   -1.870467041343278E-1
 6.529304570650000E9     5.547168681535835E-1   -8.149063099516646E-2   -8.930578274954297E-3   -3.173106660623195E-2   -9.771659087454946E-3   -3.166577825419875E-2    4.744439214821975E-1   -1.877543387089931E-1
 6.529314584600000E9     5.544938042476590E-1   -8.227646085886405E-2   -9.006464132401150E-3   -3.183057717692342E-2   -9.738821597604646E-3   -3.190002834998318E-2    4.740872659648208E-1   -1.886121894065000E-1
 6.529324598550000E9     5.544867264042863E-1   -8.307686915166655E-2   -9.197595398558474E-3   -3.200334998757617E-2   -9.758975057699496E-3   -3.209201632356236E-2    4.737310755342691E-1   -1.894925897842986E-1
 6.529334612500000E9     5.542944702432735E-1   -8.386032569482310E-2   -9.278435241989617E-3   -3.231055064750494E-2   -9.932643491052924E-3   -3.207337900202537E-2    4.732890592012264E-1   -1.901704192361073E-1
 6.529344626450000E9     5.541716595068595E-1   -8.486764705557755E-2   -9.280188568795087E-3   -3.234172346451834E-2   -1.007102176667811E-2   -3.221363045575039E-2    4.730699026942341E-1   -1.911305355146733E-1
 6.529354640400000E9     5.540948843784345E-1   -8.546510692792836E-2   -9.438169333887612E-3   -3.265575344013523E-2   -1.011358104582948E-2   -3.234149857939380E-2    4.726010679526590E-1   -1.920620297422285E-1
 6.529364654350000E9     5.539123478460364E-1   -8.632156468889901E-2   -9.464356436132814E-3   -3.268520033696509E-2   -1.033779906245962E-2   -3.245656577571891E-2    4.722055526305818E-1   -1.928847172011891E-1
 6.529374668300000E9     5.537542723040882E-1   -8.723369593213921E-2   -9.572584422120263E-3   -3.280418068340035E-2   -1.043308781223201E-2   -3.275976672927432E-2    4.718645248264944E-1   -1.937973517457184E-1
 6.529384682250000E9     5.535882703257295E-1   -8.790603672541158E-2   -9.757879900007963E-3   -3.305125204683638E-2   -1.052427406204499E-2   -3.289241933886281E-2    4.714687085420320E-1   -1.945778592705721E-1
 6.529394696200000E9     5.534976715157698E-1   -8.873547182070204E-2   -9.794288389749843E-3   -3.322402947039976E-2   -1.069349616044251E-2   -3.297443796116160E-2    4.709768323162553E-1   -1.955935789201030E-1
 6.529404710150000E9     5.534458201066473E-1   -8.964074431511679E-2   -1.016354185156692E-2   -3.320880627603406E-2   -1.065190650805862E-2   -3.316984277742886E-2    4.705893876180532E-1   -1.963649699305995E-1
 6.529414724100000E9     5.531693035641634E-1   -9.033803617122861E-2   -1.010304528490044E-2   -3.355718067729886E-2   -1.077063762073731E-2   -3.343836716464023E-2    4.701463617120878E-1   -1.973054636341738E-1
 6.529424738050000E9     5.532043783658805E-1   -9.129610307713695E-2   -1.022493490765882E-2   -3.350312298088200E-2   -1.096488492919706E-2   -3.354820726869945E-2    4.697933119225783E-1   -1.983665467975615E-1
 6.529434752000000E9     5.528953902974283E-1   -9.197582953766634E-2   -1.044565105985452E-2   -3.376944413798717E-2   -1.105980222595022E-2   -3.357344487023667E-2    4.692944115481261E-1   -1.990457146884794E-1
 6.529444765950000E9     5.528369981579893E-1   -9.280731485179311E-2   -1.050646446734516E-2   -3.388764933495785E-2   -1.116329006918829E-2   -3.368411274733926E-2    4.690391781903532E-1   -1.999213517747873E-1
 6.529454779900000E9     5.527220261050403E-1   -9.365603223121045E-2   -1.063143552261154E-2   -3.408446486598591E-2   -1.123273934229259E-2   -3.390885667983465E-2    4.683883381953708E-1   -2.007689815627000E-1
 6.529464793850000E9     5.524861791807339E-1   -9.446946631671899E-2   -1.065829086723375E-2   -3.441375589436713E-2   -1.149051183761562E-2   -3.413248615875099E-2    4.681698265995671E-1   -2.015945145969792E-1
 6.529474807800000E9     5.524065827354291E-1   -9.530544307599549E-2   -1.092259074152421E-2   -3.445169392705117E-2   -1.160788246130164E-2   -3.422357689810340E-2    4.675659473671299E-1   -2.025719109550161E-1
 6.529484821750000E9     5.521454674506439E-1   -9.606863953842386E-2   -1.092695329332873E-2   -3.467464320375634E-2   -1.159366657196740E-2   -3.447088872732532E-2    4.672710837425701E-1   -2.034805864497319E-1
 6.529494835700000E9     5.520732443255538E-1   -9.688564934775380E-2   -1.112719923576637E-2   -3.480691220170180E-2   -1.178465408243332E-2   -3.463640579338472E-2    4.667977277238121E-1   -2.044874519462802E-1
 6.529504849650000E9     5.518983999416507E-1   -9.773174985888967E-2   -1.107719261737155E-2   -3.489817417176304E-2   -1.195296676220469E-2   -3.468564377683175E-2    4.663566407702213E-1   -2.052321266677629E-1
 6.529514863600000E9     5.515808174105555E-1   -9.865163168220326E-2   -1.137620133130545E-2   -3.504112896282368E-2   -1.208278991080064E-2   -3.494534957115691E-2    4.658714981074440E-1   -2.062307174448591E-1
 6.529524877550000E9     5.515801307677424E-1   -9.947378232734597E-2   -1.147335550126185E-2   -3.533987470175632E-2   -1.221385230073725E-2   -3.512349440035966E-2    4.655299435799809E-1   -2.070684465236821E-1
 6.529534891500000E9     5.514478531021318E-1   -1.002136049711692E-1   -1.151104158648754E-2   -3.561936718295414E-2   -1.247086556349486E-2   -3.526993249105500E-2    4.649376049244123E-1   -2.080007102664309E-1
 6.529544905450000E9     5.513363989074619E-1   -1.011497369330853E-1   -1.171739022704946E-2   -3.577894497697274E-2   -1.252155835843173E-2   -3.547000367624781E-2    4.646159270743894E-1   -2.089268156228572E-1
 6.529554919400000E9     5.510438409507359E-1   -1.019185191518482E-1   -1.180195417540117E-2   -3.585950049894674E-2   -1.261748595743106E-2   -3.562316348530930E-2    4.641731819234567E-1   -2.098446384395149E-1
 6.529564933350000E9     5.509921321883341E-1   -1.026770983565776E-1   -1.207695668998639E-2   -3.603231890631838E-2   -1.278176392703172E-2   -3.581483847370900E-2    4.637071122526589E-1   -2.108202445339397E-1
 6.529574947300000E9     5.505899325027784E-1   -1.036150527222854E-1   -1.217422982663654E-2   -3.622089294058481E-2   -1.294872672823612E-2   -3.596264976579392E-2    4.633372156931477E-1   -2.117281342366177E-1
 6.529584961250000E9     5.505514521590652E-1   -1.043869536886523E-1   -1.226921214771933E-2   -3.654687740675949E-2   -1.309051511381921E-2   -3.626706086445401E-2    4.626955774246309E-1   -2.124975395159429E-1
 6.529594975200000E9     5.503879075676377E-1   -1.052091147267577E-1   -1.243446567507773E-2   -3.650562723655904E-2   -1.328189039562385E-2   -3.642271810160451E-2    4.623922547319890E-1   -2.134979030706879E-1
 6.529604989150000E9     5.502303408125019E-1   -1.060947040313174E-1   -1.269446481760820E-2   -3.697817471593492E-2   -1.352098966947885E-2   -3.655196502121937E-2    4.617031327585926E-1   -2.143781486734870E-1
 6.529615003100000E9     5.500221671261221E-1   -1.068747128942202E-1   -1.279204577965143E-2   -3.708307458754665E-2   -1.356452283689563E-2   -3.683273901295320E-2    4.611303434652057E-1   -2.152299991582474E-1
 6.529625017050000E9     5.497412163431624E-1   -1.077317021473447E-1   -1.289776183875854E-2   -3.719018932959606E-2   -1.372249055273423E-2   -3.691857299004920E-2    4.608536526236163E-1   -2.162190936745649E-1
 6.529635031000000E9     5.496182750435367E-1   -1.087298708442252E-1   -1.310559666956092E-2   -3.731906955651903E-2   -1.393218893317728E-2   -3.712202908558981E-2    4.604743231505346E-1   -2.172486750872464E-1
 6.529645044950000E9     5.495609895846857E-1   -1.094329061504981E-1   -1.317345716568674E-2   -3.758385461692738E-2   -1.402660844585184E-2   -3.737348285257712E-2    4.598332472196440E-1   -2.181857271000190E-1
 6.529655058900000E9     5.494473133395026E-1   -1.102584608407882E-1   -1.333524894566182E-2   -3.770725784400641E-2   -1.420528978037546E-2   -3.756830716898475E-2    4.593972552440069E-1   -2.191517174388542E-1
 6.529665072850000E9     5.490913209794765E-1   -1.110707865571987E-1   -1.354342749578157E-2   -3.793529816462896E-2   -1.442325837333900E-2   -3.771881437064449E-2    4.588280216948886E-1   -2.200135725511431E-1
 6.529675086800000E9     5.489369093164056E-1   -1.120487439804067E-1   -1.366429072328328E-2   -3.815902163821876E-2   -1.462508625539376E-2   -3.802771882730314E-2    4.583108747245840E-1   -2.209756835744091E-1
 6.529685100750000E9     5.486712967127372E-1   -1.128099401870851E-1   -1.392387038437335E-2   -3.851258963680461E-2   -1.467656355868083E-2   -3.821589131256781E-2    4.575703172168800E-1   -2.219560517653154E-1
 6.529695114700000E9     5.484497583223906E-1   -1.136268194615553E-1   -1.396518979958909E-2   -3.855619196112704E-2   -1.485741372282541E-2   -3.829496943286897E-2    4.574512217710872E-1   -2.228761549121505E-1
 6.529705128650000E9     5.482433597529378E-1   -1.145531643826024E-1   -1.425371367126958E-2   -3.892366543255382E-2   -1.496841403694166E-2   -3.859549426078072E-2    4.567257970859306E-1   -2.238133740766478E-1
 6.529715142600000E9     5.481951772967540E-1   -1.153327293225517E-1   -1.447456989427093E-2   -3.912743932439640E-2   -1.528351847232430E-2   -3.883741909072306E-2    4.560956364939802E-1   -2.249781380696088E-1
 6.529725156550000E9     5.479248242002706E-1   -1.162300638545896E-1   -1.455819749929220E-2   -3.920795497537679E-2   -1.547844235375683E-2   -3.906324504367816E-2    4.558042964693944E-1   -2.256954571409115E-1
 6.529735170500000E9     5.477565362336220E-1   -1.170094685637333E-1   -1.460585923393473E-2   -3.946503802396124E-2   -1.562736733413507E-2   -3.919515516502382E-2    4.551979249651247E-1   -2.267885295430049E-1
 6.529745184450000E9     5.475125417866333E-1   -1.179432707628570E-1   -1.485478872303988E-2   -3.975833317250979E-2   -1.582441771586912E-2   -3.955778802569924E-2    4.545643922098963E-1   -2.277257533523904E-1
 6.529755198400000E9     5.473333669604793E-1   -1.187015791094649E-1   -1.504248255250743E-2   -3.996943631017356E-2   -1.594521598993589E-2   -3.961585296524409E-2    4.540384761466338E-1   -2.285221562433538E-1
 6.529765212350000E9     5.470963516192997E-1   -1.195418437935722E-1   -1.527521636620443E-2   -4.022864493811709E-2   -1.627685171784866E-2   -3.994257639272526E-2    4.533535943870100E-1   -2.296973577877161E-1
 6.529775226300000E9     5.469551491662757E-1   -1.204983726983105E-1   -1.545563239435253E-2   -4.049243406088030E-2   -1.636536347082307E-2   -4.011346801685133E-2    4.529160608599362E-1   -2.306661263194893E-1
 6.529785240250000E9     5.466910781116882E-1   -1.213283255392957E-1   -1.552256099346846E-2   -4.066535830164106E-2   -1.652350542701249E-2   -4.022795464602827E-2    4.523422646635231E-1   -2.316942054605413E-1
 6.529795254200000E9     5.464562528280208E-1   -1.221829943189304E-1   -1.581657614015152E-2   -4.099070001826313E-2   -1.678728092976288E-2   -4.062568914862334E-2    4.515423390150692E-1   -2.325773205971092E-1
 6.529805268150000E9     5.462537354133349E-1   -1.229743869536376E-1   -1.591181412412005E-2   -4.111973489553736E-2   -1.697708032582924E-2   -4.088427136487061E-2    4.509987885422995E-1   -2.336482308554035E-1
 6.529815282100000E9     5.460746152120850E-1   -1.238710965852191E-1   -1.623953752096817E-2   -4.133950066777870E-2   -1.714357444993637E-2   -4.104310148376774E-2    4.504171481112944E-1   -2.345749980884198E-1
 6.529825296050000E9     5.458530595770995E-1   -1.247883832672283E-1   -1.645291122046121E-2   -4.159857643038715E-2   -1.738992861267788E-2   -4.146917764004411E-2    4.497630066062797E-1   -2.356341211058961E-1
 6.529835310000000E9     5.456642422519056E-1   -1.257063435604290E-1   -1.661276101645146E-2   -4.199397205152487E-2   -1.762250018166249E-2   -4.145312854624519E-2    4.491731565506566E-1   -2.366873486461489E-1
 6.529845323950000E9     5.452979307025366E-1   -1.265641908850147E-1   -1.688715387536620E-2   -4.217024457814741E-2   -1.774916153571059E-2   -4.169662322150790E-2    4.485963303210685E-1   -2.376554589114814E-1
 6.529855337900000E9     5.450974473648890E-1   -1.273495638678871E-1   -1.714260792964612E-2   -4.249636212300726E-2   -1.799342534272219E-2   -4.205138266085847E-2    4.479647744205899E-1   -2.387360682767415E-1
 6.529865351850000E9     5.447412341005342E-1   -1.282958593992967E-1   -1.728167322509208E-2   -4.271870045303076E-2   -1.823472645928902E-2   -4.229822256961684E-2    4.472568772379155E-1   -2.397387737363509E-1
 6.529875365800000E9     5.445506540275102E-1   -1.291790700701810E-1   -1.743308061171136E-2   -4.283930698448466E-2   -1.849521841028880E-2   -4.259387868799440E-2    4.465976096856182E-1   -2.407777259423613E-1
 6.529885379750000E9     5.443283466194727E-1   -1.300311104631355E-1   -1.776765530448753E-2   -4.312927553006034E-2   -1.873156830039026E-2   -4.290862406026037E-2    4.462105592628123E-1   -2.418765386106600E-1
 6.529895393700000E9     5.441546378851575E-1   -1.308256511992350E-1   -1.802999102667531E-2   -4.352193073699308E-2   -1.892057154588567E-2   -4.320355888341459E-2    4.453609107431493E-1   -2.428289214224496E-1
 6.529905407650000E9     5.438817647869938E-1   -1.317781277558211E-1   -1.807690865637996E-2   -4.376530994642375E-2   -1.914112445691572E-2   -4.339980332355357E-2    4.445902701518348E-1   -2.440068527676112E-1
 6.529915421600000E9     5.436698605348481E-1   -1.326626880627789E-1   -1.839671905158070E-2   -4.403355533645728E-2   -1.954003132480807E-2   -4.362399941120602E-2    4.439718730108164E-1   -2.451326511957830E-1
 6.529925435550000E9     5.432966833636995E-1   -1.335742947448140E-1   -1.866434859635820E-2   -4.430065750835504E-2   -1.966177112351847E-2   -4.394380192129366E-2    4.433225911560298E-1   -2.459349347327030E-1
 6.529935449500000E9     5.430920489245478E-1   -1.344959133395355E-1   -1.910471898618679E-2   -4.460018549593976E-2   -1.995309274158757E-2   -4.425891283019977E-2    4.427178888196785E-1   -2.470595236288472E-1
 6.529945463450000E9     5.428443018688712E-1   -1.353703563264693E-1   -1.901862103073988E-2   -4.504125717743883E-2   -2.029237856422792E-2   -4.447443360639155E-2    4.418462313352616E-1   -2.481038940569273E-1
 6.529955477400000E9     5.425227529977663E-1   -1.360839078401463E-1   -1.938339108238533E-2   -4.520294616650865E-2   -2.051539815774475E-2   -4.473626918950455E-2    4.412417800119935E-1   -2.492616839290223E-1
 6.529965491350000E9     5.422567309735072E-1   -1.370897169161564E-1   -1.956561253986013E-2   -4.528908355667623E-2   -2.075844880539863E-2   -4.500132874161023E-2    4.404529827847222E-1   -2.502442766538728E-1
 6.529975505300000E9     5.420571445031193E-1   -1.379448899294650E-1   -1.985489384138852E-2   -4.578198715319684E-2   -2.101083569451708E-2   -4.539796250276043E-2    4.398200334149728E-1   -2.514006405284345E-1
 6.529985519250000E9     5.417914182292656E-1   -1.390268598344955E-1   -2.008959434966439E-2   -4.603369073919283E-2   -2.120607772540075E-2   -4.569927268612810E-2    4.390521911344093E-1   -2.523388882412634E-1
 6.529995533200000E9     5.415021053407725E-1   -1.397775124366575E-1   -2.053836102578908E-2   -4.631966796271708E-2   -2.151053377854409E-2   -4.608227167145713E-2    4.382495195329089E-1   -2.534717964626617E-1
 6.530005547150000E9     5.411207916181402E-1   -1.407859203520074E-1   -2.069701076354365E-2   -4.664029102797643E-2   -2.184339657059260E-2   -4.622620427506038E-2    4.375105753855083E-1   -2.545890778402091E-1
 6.530015561100000E9     5.408346571014814E-1   -1.415186167045122E-1   -2.099184979451424E-2   -4.712360400754152E-2   -2.210779768659439E-2   -4.654654285596388E-2    4.366199335384834E-1   -2.558303246330942E-1
 6.530025575050000E9     5.406270673962489E-1   -1.425091094693977E-1   -2.129019750454755E-2   -4.737948764599280E-2   -2.238970855840412E-2   -4.683633970907058E-2    4.358971172000579E-1   -2.569067567587083E-1
 6.530035589000000E9     5.402110542787173E-1   -1.434110174955215E-1   -2.155520595472234E-2   -4.778937122555582E-2   -2.272981087936865E-2   -4.718387084127666E-2    4.350920888213756E-1   -2.579509804268438E-1
 6.530045602950000E9     5.398779483642360E-1   -1.443038018481129E-1   -2.192517684793178E-2   -4.801258654956190E-2   -2.303528759216359E-2   -4.754036883022923E-2    4.341585586819301E-1   -2.590802259334528E-1
 6.530055616900000E9     5.397203277299858E-1   -1.452985758399005E-1   -2.223345791964581E-2   -4.837855212152781E-2   -2.335742909014525E-2   -4.779596138271971E-2    4.335234845029612E-1   -2.603852596023878E-1
 6.530065630850000E9     5.393736967341015E-1   -1.461695707348555E-1   -2.258062859269815E-2   -4.861719185750678E-2   -2.371817232464987E-2   -4.819272666763264E-2    4.326657238639936E-1   -2.613231399417457E-1
 6.530075644800000E9     5.389616854180910E-1   -1.471217258136566E-1   -2.287849656138734E-2   -4.904358269050824E-2   -2.399317308975307E-2   -4.843997160035942E-2    4.316501519480400E-1   -2.627171569873606E-1
 6.530085658750000E9     5.388682028937550E-1   -1.480286632577035E-1   -2.308728442244936E-2   -4.935099747933917E-2   -2.436216852061960E-2   -4.883373320664251E-2    4.307225953686509E-1   -2.637666786893158E-1
 6.530095672700000E9     5.384133859557907E-1   -1.489264929234548E-1   -2.345567450200491E-2   -4.965631296016875E-2   -2.473353997085752E-2   -4.922460520948027E-2    4.300223926369995E-1   -2.648377468870102E-1
 6.530105686650000E9     5.380378175039335E-1   -1.498827723905726E-1   -2.380074051945943E-2   -5.001431156445940E-2   -2.511456447733139E-2   -4.945623735320737E-2    4.291010962330781E-1   -2.660029450387102E-1
 6.530115700600000E9     5.376752540679945E-1   -1.508757533783745E-1   -2.422531478451685E-2   -5.042424313878561E-2   -2.530393039871159E-2   -4.989785128388440E-2    4.282746056199691E-1   -2.671852041174058E-1
 6.530125714550000E9     5.374230184874277E-1   -1.518322150386759E-1   -2.452204123849872E-2   -5.060779124562622E-2   -2.566728049393280E-2   -5.025558424066570E-2    4.273139158082882E-1   -2.683838003392694E-1
 6.530135728500000E9     5.371221273708325E-1   -1.527778897856163E-1   -2.489057557107973E-2   -5.107858425138743E-2   -2.603689801680775E-2   -5.055771786731163E-2    4.265277442637903E-1   -2.696461791255318E-1
