#  HZ   S   RI   R     50.00 
! Rohde & Schwarz Vector Network Analyzer 
! Rohde-Schwarz,ZNB20-2Port,1311601062101988,3.16
! Created: UTC 3/21/2024, 1:14:45 AM
! freq[Hz]                re:S11                  im:S11                  re:S21                  im:S21                  re:S12                  im:S12                  re:S22                  im:S22
 6.529242773000000E9     5.557033833088452E-1   -7.625965041580171E-2   -8.393245726922988E-3   -3.088111171397406E-2   -8.964548992567239E-3   -3.067220987349394E-2    4.756494212406877E-1   -1.829226083949349E-1
 6.529252765875000E9     5.555073655862397E-1   -7.709175073067612E-2   -8.407519020489165E-3   -3.100252011462483E-2   -9.033933450654799E-3   -3.075302165904046E-2    4.754877531384081E-1   -1.836490626703989E-1
 6.529262758750000E9     5.553172123336215E-1   -7.790662920841368E-2   -8.494428737184168E-3   -3.121876973763078E-2   -9.149663048634434E-3   -3.092812517541947E-2    4.751306446058239E-1   -1.845780164077649E-1
 6.529272751625000E9     5.552714566224537E-1   -7.859555471976173E-2   -8.514018354540773E-3   -3.137394726263987E-2   -9.313321663170507E-3   -3.111692448029712E-2    4.746685323548710E-1   -1.853992570622914E-1
 6.529282744500000E9     5.551120813628022E-1   -7.933120344418626E-2   -8.652807210363753E-3   -3.139914109199282E-2   -9.354840450158238E-3   -3.126104867747408E-2    4.743885730871148E-1   -1.862266868508098E-1
 6.529292737375000E9     5.550750121828714E-1   -8.026493021048704E-2   -8.640946948868640E-3   -3.153191353877258E-2   -9.462322695449997E-3   -3.134299199014397E-2    4.740335298663882E-1   -1.871757639290832E-1
 6.529302730250000E9     5.549175392248384E-1   -8.110845650769623E-2   -9.031772219854149E-3   -3.170791143832288E-2   -9.534332851730999E-3   -3.150659507385614E-2    4.736997434303598E-1   -1.880140646388394E-1
 6.529312723125000E9     5.546642419733884E-1   -8.192104560017435E-2   -9.124941437790477E-3   -3.191228972583036E-2   -9.735324488543659E-3   -3.166007729318820E-2    4.733828156029155E-1   -1.888541461940740E-1
 6.529322716000000E9     5.545736289109808E-1   -8.257999133631455E-2   -9.009395482972532E-3   -3.197576034678441E-2   -9.781484962204511E-3   -3.182726222773102E-2    4.729915715990258E-1   -1.895662324895927E-1
 6.529332708875000E9     5.544656672399375E-1   -8.349409486220263E-2   -9.288539419666999E-3   -3.207548685936857E-2   -9.815911483380272E-3   -3.198529511758176E-2    4.725537970881389E-1   -1.904195022932485E-1
 6.529342701750000E9     5.543483176584688E-1   -8.433631386024482E-2   -9.217876768981363E-3   -3.233858627415624E-2   -9.919280637343155E-3   -3.209742516274107E-2    4.721233433671648E-1   -1.914038728150734E-1
 6.529352694625000E9     5.541553595504055E-1   -8.512738307483482E-2   -9.297929600665627E-3   -3.242369962974062E-2   -1.012820481559594E-2   -3.210289932747271E-2    4.718382754650094E-1   -1.921663956109714E-1
 6.529362687500000E9     5.541173186058564E-1   -8.591918053270514E-2   -9.656738854314565E-3   -3.248168978455790E-2   -1.024726704823126E-2   -3.240973889837593E-2    4.714090875917984E-1   -1.931352388115176E-1
 6.529372680375000E9     5.539049612190649E-1   -8.664660137354892E-2   -9.677308429299012E-3   -3.275947664370627E-2   -1.035344890016559E-2   -3.251770506446251E-2    4.710366138758126E-1   -1.939598708207972E-1
 6.529382673250000E9     5.537657956292181E-1   -8.765112044022604E-2   -9.613967072918514E-3   -3.277469281781643E-2   -1.046739117417735E-2   -3.261666722054222E-2    4.706346846150249E-1   -1.948427912733729E-1
 6.529392666125000E9     5.535972229312062E-1   -8.837130829606367E-2   -9.959712744121352E-3   -3.310196100257798E-2   -1.055911814564487E-2   -3.291042641397653E-2    4.700287121106588E-1   -1.956138373399644E-1
 6.529402659000000E9     5.535024157008918E-1   -8.916434252832330E-2   -9.960514619865293E-3   -3.321481708877681E-2   -1.076362171063403E-2   -3.302943905181480E-2    4.697139325625159E-1   -1.966603366235206E-1
 6.529412651875000E9     5.533692653024032E-1   -8.991881303391806E-2   -1.022840297296545E-2   -3.344303260906997E-2   -1.074929092342894E-2   -3.319801661568793E-2    4.694561953845569E-1   -1.974990995905514E-1
 6.529422644750000E9     5.532120935502612E-1   -9.070003316526934E-2   -1.018198487049944E-2   -3.351220527050552E-2   -1.091549200393938E-2   -3.340054002469920E-2    4.690858067812312E-1   -1.983335061582548E-1
 6.529432637625000E9     5.531169475925178E-1   -9.160404740552654E-2   -1.035674186687298E-2   -3.368327288894539E-2   -1.102452509420502E-2   -3.344924218774698E-2    4.684662074825329E-1   -1.992216563092239E-1
 6.529442630500000E9     5.530526188577992E-1   -9.244070644232200E-2   -1.051132366900535E-2   -3.390123190191128E-2   -1.117190375160659E-2   -3.362404100132618E-2    4.682440353494771E-1   -2.001816012223809E-1
 6.529452623375000E9     5.528628486420788E-1   -9.327434434543458E-2   -1.047210576365733E-2   -3.382655727613412E-2   -1.132975901785919E-2   -3.370942933220079E-2    4.676406749680496E-1   -2.010090184037978E-1
 6.529462616250000E9     5.527832421449941E-1   -9.411757821376229E-2   -1.069921350511584E-2   -3.426895950598069E-2   -1.135802743696202E-2   -3.404276937527104E-2    4.673539186866817E-1   -2.018793570795915E-1
 6.529472609125000E9     5.524395160660968E-1   -9.486587817595456E-2   -1.072604074513117E-2   -3.431358663745938E-2   -1.149905149312891E-2   -3.417069131643721E-2    4.669103631416874E-1   -2.028094964941061E-1
 6.529482602000000E9     5.522978979666766E-1   -9.566108100474732E-2   -1.086989298478733E-2   -3.444220622042018E-2   -1.164586994037970E-2   -3.431242085607284E-2    4.664385310675572E-1   -2.033963804379219E-1
 6.529492594875000E9     5.521479483116962E-1   -9.648814038222865E-2   -1.101955802800760E-2   -3.479035265348374E-2   -1.168628261864951E-2   -3.444075251685652E-2    4.659909772973172E-1   -2.044721427165261E-1
 6.529502587750000E9     5.520276759565912E-1   -9.738162541839346E-2   -1.126803848937330E-2   -3.476463764512298E-2   -1.185219404648007E-2   -3.466800848789252E-2    4.654131644450693E-1   -2.054922091203981E-1
 6.529512580625000E9     5.518698582124485E-1   -9.819327224140580E-2   -1.115913118990735E-2   -3.496598796898512E-2   -1.205081904222816E-2   -3.477640902758907E-2    4.652863685202496E-1   -2.063462755391832E-1
 6.529522573500000E9     5.517697844077857E-1   -9.896476777183355E-2   -1.139643118184731E-2   -3.535653542231385E-2   -1.225667871295518E-2   -3.501544485094381E-2    4.646967947654401E-1   -2.071905385343044E-1
 6.529532566375000E9     5.516576592793478E-1   -9.985237603599738E-2   -1.158439497202674E-2   -3.552682340539978E-2   -1.248008635796067E-2   -3.517757065309517E-2    4.643978606816970E-1   -2.080511154295666E-1
 6.529542559250000E9     5.515561193978606E-1   -1.006676341521633E-1   -1.168025882377429E-2   -3.547152936449209E-2   -1.241944293753706E-2   -3.530657918183132E-2    4.639029549438781E-1   -2.090161988196751E-1
 6.529552552125000E9     5.511830607886046E-1   -1.015175667053846E-1   -1.176396618503405E-2   -3.576738764775014E-2   -1.262675270536789E-2   -3.549660609903026E-2    4.635282234961318E-1   -2.098795871470286E-1
 6.529562545000000E9     5.511163187365443E-1   -1.022251546645716E-1   -1.211917982075972E-2   -3.594776714411720E-2   -1.279184539358330E-2   -3.563938400078737E-2    4.629434567104166E-1   -2.105951435275375E-1
 6.529572537875000E9     5.508419227206822E-1   -1.031357325365146E-1   -1.219484364538369E-2   -3.597964024391993E-2   -1.285092678367510E-2   -3.590557334482497E-2    4.625383024325109E-1   -2.117575791544220E-1
 6.529582530750000E9     5.507593322369735E-1   -1.040545399848313E-1   -1.227802618601434E-2   -3.622471852842729E-2   -1.304951138169819E-2   -3.601461113608846E-2    4.620695036142480E-1   -2.124101679126718E-1
 6.529592523625000E9     5.506024773965689E-1   -1.047530080172117E-1   -1.235683221409735E-2   -3.640227704290277E-2   -1.329786397093301E-2   -3.620055750230022E-2    4.614534443074700E-1   -2.134751071659546E-1
 6.529602516500000E9     5.503175047010577E-1   -1.056100912059862E-1   -1.254459474036866E-2   -3.671277458956515E-2   -1.342310032207533E-2   -3.642819128620244E-2    4.611634390048247E-1   -2.143578420389504E-1
 6.529612509375000E9     5.502148351158298E-1   -1.064612983254401E-1   -1.262631353945636E-2   -3.677284452212431E-2   -1.342375988176555E-2   -3.658482314721113E-2    4.605630201564681E-1   -2.154367040412022E-1
 6.529622502250000E9     5.501934378811407E-1   -1.073115555325501E-1   -1.280134760233940E-2   -3.688630045271332E-2   -1.358995026207626E-2   -3.672439992007077E-2    4.601417639541879E-1   -2.163854082688077E-1
 6.529632495125000E9     5.498724813634936E-1   -1.080310097492970E-1   -1.301180793755329E-2   -3.738920225204111E-2   -1.375554930374085E-2   -3.705019559004980E-2    4.596240977297799E-1   -2.173805621509911E-1
 6.529642488000000E9     5.496570374552554E-1   -1.089253767169623E-1   -1.326752555689718E-2   -3.746469172025937E-2   -1.390961334928744E-2   -3.720244388076353E-2    4.590305105768923E-1   -2.180713885047633E-1
 6.529652480875000E9     5.494966850205024E-1   -1.097734249573148E-1   -1.344067701861362E-2   -3.761484079729608E-2   -1.408391218246480E-2   -3.740116683105201E-2    4.584904471626676E-1   -2.190978841597146E-1
 6.529662473750000E9     5.492771051861584E-1   -1.106612951122777E-1   -1.339689044075140E-2   -3.787337864365323E-2   -1.428364017069416E-2   -3.759773883028707E-2    4.579330897375599E-1   -2.201052090625962E-1
 6.529672466625000E9     5.490814264503693E-1   -1.114554851619802E-1   -1.362437192006661E-2   -3.798379294693430E-2   -1.439314133922029E-2   -3.777300004775366E-2    4.575210181069198E-1   -2.210881114108638E-1
 6.529682459500000E9     5.489481409792275E-1   -1.123301289894802E-1   -1.371014181503999E-2   -3.826386668384418E-2   -1.458447664435556E-2   -3.804340690164321E-2    4.569512661109527E-1   -2.218645502107212E-1
 6.529692452375000E9     5.488116420647682E-1   -1.131508275879305E-1   -1.393872328352750E-2   -3.853231595061048E-2   -1.475854483012818E-2   -3.815899966140376E-2    4.564919761616423E-1   -2.227933882019702E-1
 6.529702445250000E9     5.484434987258624E-1   -1.141095574430203E-1   -1.412383103393964E-2   -3.865377445278294E-2   -1.491703778616457E-2   -3.838411914370232E-2    4.560702974911847E-1   -2.238481722106447E-1
 6.529712438125000E9     5.483020788316364E-1   -1.148158175950779E-1   -1.419066690326742E-2   -3.892675180313682E-2   -1.521795550009991E-2   -3.860976723092276E-2    4.554851438692284E-1   -2.248125708123029E-1
 6.529722431000000E9     5.480943278849131E-1   -1.156241271266760E-1   -1.435282096152530E-2   -3.909242439535696E-2   -1.533819699070387E-2   -3.886504927818298E-2    4.548240674790570E-1   -2.257880962905718E-1
 6.529732423875000E9     5.478963742029480E-1   -1.165507125501354E-1   -1.462984657779289E-2   -3.949622213723373E-2   -1.551563070057098E-2   -3.896276086476697E-2    4.543028775191245E-1   -2.267328452234533E-1
 6.529742416750000E9     5.476893712883482E-1   -1.174610170336455E-1   -1.493174789087802E-2   -3.960650734969866E-2   -1.573783958750452E-2   -3.925974511174188E-2    4.538518029268598E-1   -2.276586703980232E-1
 6.529752409625000E9     5.475020613815622E-1   -1.181949863290936E-1   -1.496324101717538E-2   -3.983100706365138E-2   -1.585878114367550E-2   -3.945184168201139E-2    4.532598763684519E-1   -2.286115463162610E-1
 6.529762402500000E9     5.472969137874322E-1   -1.192067254524316E-1   -1.514327199743452E-2   -4.007258982728937E-2   -1.608382172897039E-2   -3.972155475347351E-2    4.526528369616000E-1   -2.296043799388714E-1
 6.529772395375000E9     5.471114139321478E-1   -1.199663854335740E-1   -1.535990692757189E-2   -4.006018053734529E-2   -1.622532818993077E-2   -3.995298849769385E-2    4.519199276056798E-1   -2.306515709577126E-1
 6.529782388250000E9     5.468877517274172E-1   -1.208798298251648E-1   -1.563838813884285E-2   -4.048310339075865E-2   -1.634554058418138E-2   -4.014467737058109E-2    4.514111491081377E-1   -2.315817644442200E-1
 6.529792381125000E9     5.466026295739729E-1   -1.216712075688895E-1   -1.569502891877386E-2   -4.078529983591220E-2   -1.667196110643946E-2   -4.039784069150611E-2    4.509684784079271E-1   -2.326965914195507E-1
 6.529802374000000E9     5.464510020031927E-1   -1.225635638534187E-1   -1.587083640314671E-2   -4.093569997789567E-2   -1.681016847105611E-2   -4.070170978446378E-2    4.502255586431241E-1   -2.336291764483125E-1
 6.529812366875000E9     5.462567184254035E-1   -1.234233194833353E-1   -1.603123721769291E-2   -4.120710598228380E-2   -1.709405066228924E-2   -4.079087988612317E-2    4.497594289637614E-1   -2.345078364756404E-1
 6.529822359750000E9     5.459438667010708E-1   -1.242709985719281E-1   -1.625150507569568E-2   -4.140615128885965E-2   -1.726381495006544E-2   -4.110661316911899E-2    4.490945432602561E-1   -2.355183468813648E-1
 6.529832352625000E9     5.457920468727903E-1   -1.251900858911497E-1   -1.648065275821643E-2   -4.169215904063626E-2   -1.754161827136251E-2   -4.133796310959053E-2    4.485379686495090E-1   -2.363829464809571E-1
 6.529842345500000E9     5.456237978839674E-1   -1.260112468249937E-1   -1.662843345031522E-2   -4.201788941517175E-2   -1.763135482187145E-2   -4.162402831376231E-2    4.480751267885829E-1   -2.374968655098070E-1
 6.529852338375000E9     5.453026915930136E-1   -1.268075143162254E-1   -1.681799188271061E-2   -4.214112982414833E-2   -1.784305320415611E-2   -4.191323786182739E-2    4.473003690187349E-1   -2.386231522668104E-1
 6.529862331250000E9     5.450075920966447E-1   -1.277634022875666E-1   -1.705746040706877E-2   -4.248090683195765E-2   -1.800878673558648E-2   -4.211488348027122E-2    4.466892835041608E-1   -2.396427369110828E-1
 6.529872324125000E9     5.448164577189800E-1   -1.285941029643366E-1   -1.731719096265149E-2   -4.258593247423070E-2   -1.844215688668430E-2   -4.237749940264923E-2    4.461111398036582E-1   -2.405069129975707E-1
 6.529882317000000E9     5.445197934533315E-1   -1.295598578277538E-1   -1.752816076737474E-2   -4.292439353430132E-2   -1.846533360175712E-2   -4.265747909738089E-2    4.453456023594723E-1   -2.415223315404410E-1
 6.529892309875000E9     5.442683469111724E-1   -1.303787028821501E-1   -1.787662697914784E-2   -4.326774796250823E-2   -1.881557515119492E-2   -4.286525686122309E-2    4.447777610272605E-1   -2.427006571876120E-1
 6.529902302750000E9     5.440665446757227E-1   -1.312813121607767E-1   -1.809148324992199E-2   -4.355247637358770E-2   -1.904243572659601E-2   -4.311019424881062E-2    4.441271876359088E-1   -2.437873532203998E-1
 6.529912295625000E9     5.437427678320652E-1   -1.321607182013560E-1   -1.825460610021140E-2   -4.375779754867602E-2   -1.927294835274289E-2   -4.340515461089455E-2    4.434479310035612E-1   -2.448413277189513E-1
 6.529922288500000E9     5.436970692102761E-1   -1.329927270151476E-1   -1.862044890818262E-2   -4.417132871023027E-2   -1.947154689276285E-2   -4.366326403381311E-2    4.425820903260261E-1   -2.458367100709792E-1
 6.529932281375000E9     5.433635280677376E-1   -1.340082817272306E-1   -1.867640396236138E-2   -4.443839716140863E-2   -1.978124589287893E-2   -4.400324594243039E-2    4.420130366280098E-1   -2.468669500244974E-1
 6.529942274250000E9     5.430890024088346E-1   -1.347977983194292E-1   -1.894322845090337E-2   -4.462960700914416E-2   -2.006005211434387E-2   -4.422731539036844E-2    4.413285980351824E-1   -2.479841396602526E-1
 6.529952267125000E9     5.427687769335229E-1   -1.356741947138398E-1   -1.925861053297338E-2   -4.497643929068241E-2   -2.038031860345997E-2   -4.457303318893705E-2    4.408514576807442E-1   -2.487934659136372E-1
 6.529962260000000E9     5.426347746107038E-1   -1.366477985118075E-1   -1.945282586538711E-2   -4.532209208446256E-2   -2.053305581304806E-2   -4.485577012882341E-2    4.399539069436503E-1   -2.500986988189970E-1
 6.529972252875000E9     5.422619856789211E-1   -1.375900523862427E-1   -1.974147023352981E-2   -4.569436839844859E-2   -2.090734025592902E-2   -4.510534560833767E-2    4.391086128403150E-1   -2.511338333595064E-1
 6.529982245750000E9     5.419759320933751E-1   -1.383419383835312E-1   -1.996309732217050E-2   -4.578431382413266E-2   -2.094600517965396E-2   -4.528907056680812E-2    4.383922655141725E-1   -2.522142890396905E-1
 6.529992238625000E9     5.416121806380227E-1   -1.392451655805202E-1   -2.024205846722757E-2   -4.606961733304283E-2   -2.132685801470753E-2   -4.568921460138518E-2    4.375991984050914E-1   -2.533725628690573E-1
 6.530002231500000E9     5.414658458469127E-1   -1.402251443100934E-1   -2.057320891651449E-2   -4.627970300738360E-2   -2.162386775904560E-2   -4.604059968254180E-2    4.369593085089901E-1   -2.544167447381503E-1
 6.530012224375000E9     5.411104795979633E-1   -1.410896691812186E-1   -2.071243192284348E-2   -4.666010315340752E-2   -2.195321766408655E-2   -4.627607071340142E-2    4.361739360161989E-1   -2.554407169757442E-1
 6.530022217250000E9     5.406835597537389E-1   -1.418961063256884E-1   -2.108783037571423E-2   -4.713801862865742E-2   -2.224798198379445E-2   -4.659262879061692E-2    4.353740741308224E-1   -2.565874470775337E-1
 6.530032210125000E9     5.405501932212613E-1   -1.429348408990015E-1   -2.124510301879554E-2   -4.729802498581467E-2   -2.244509768544240E-2   -4.691961769665160E-2    4.345541170792551E-1   -2.576706057361982E-1
 6.530042203000000E9     5.402206228557005E-1   -1.437519867682786E-1   -2.169719228329880E-2   -4.779525737010065E-2   -2.278677438164870E-2   -4.712135802207880E-2    4.337319511530360E-1   -2.588693888402796E-1
 6.530052195875000E9     5.399222478575348E-1   -1.447545747353352E-1   -2.199189102290850E-2   -4.805330194159813E-2   -2.317345106965201E-2   -4.757342432937677E-2    4.329125243233400E-1   -2.598136789051063E-1
 6.530062188750000E9     5.396252279010133E-1   -1.456249356884052E-1   -2.240816513812448E-2   -4.837051579522111E-2   -2.340050968291055E-2   -4.783169781121355E-2    4.322068085074706E-1   -2.610826096129724E-1
 6.530072181625000E9     5.393671308449399E-1   -1.465617616111354E-1   -2.264091589361746E-2   -4.870828252044129E-2   -2.374814112742049E-2   -4.818747953498251E-2    4.312364482215011E-1   -2.621325691085132E-1
 6.530082174500000E9     5.390007205506478E-1   -1.474666079999888E-1   -2.289110301441624E-2   -4.901500692754754E-2   -2.410569725093228E-2   -4.852666857642637E-2    4.304576784867976E-1   -2.633636209289254E-1
 6.530092167375000E9     5.387529758228499E-1   -1.483413831606611E-1   -2.333384085979952E-2   -4.946483152084563E-2   -2.453916569284153E-2   -4.884031053704688E-2    4.296305676579113E-1   -2.644898721257333E-1
 6.530102160250000E9     5.384715885166627E-1   -1.493161609774561E-1   -2.365192339099786E-2   -4.978960910904284E-2   -2.479657755913205E-2   -4.922592408786840E-2    4.285503122797184E-1   -2.656046162609271E-1
 6.530112153125000E9     5.381120921923974E-1   -1.502473867950060E-1   -2.380711876902144E-2   -5.011818309542440E-2   -2.508336793223118E-2   -4.952898147348678E-2    4.277846034112224E-1   -2.668711289548212E-1
 6.530122146000000E9     5.376386233683490E-1   -1.512316370943792E-1   -2.434275028188181E-2   -5.042537302029759E-2   -2.552793474550330E-2   -4.982676956813561E-2    4.270169412811145E-1   -2.681478361359992E-1
 6.530132138875000E9     5.374218506496756E-1   -1.521861874616950E-1   -2.456217369357203E-2   -5.085560081866432E-2   -2.588066104052419E-2   -5.026692517331219E-2    4.259949690057824E-1   -2.691769047997243E-1
 6.530142131750000E9     5.370900364967733E-1   -1.531000077026668E-1   -2.503818756184497E-2   -5.107850136567253E-2   -2.632917781357329E-2   -5.062792453733405E-2    4.249810775406749E-1   -2.703756347514312E-1
