#  HZ   S   RI   R     50.00 
! Rohde & Schwarz Vector Network Analyzer 
! Rohde-Schwarz,ZNB20-2Port,1311601062101988,3.16
! Created: UTC 3/21/2024, 1:14:50 AM
! freq[Hz]                re:S11                  im:S11                  re:S21                  im:S21                  re:S12                  im:S12                  re:S22                  im:S22
 6.529246407000000E9     5.555364957989412E-1   -7.644614750861321E-2   -8.420628018251232E-3   -3.077464123938652E-2   -8.963242708747441E-3   -3.074025429390241E-2    4.754316090895160E-1   -1.835490090988530E-1
 6.529256396900000E9     5.554389227260395E-1   -7.730351862288434E-2   -8.454506434204560E-3   -3.100227754993638E-2   -9.119463303087317E-3   -3.089105458935434E-2    4.749331665393483E-1   -1.842514030502889E-1
 6.529266386800000E9     5.552181791673959E-1   -7.805482765978981E-2   -8.401800606859180E-3   -3.102856242185761E-2   -9.258588255322206E-3   -3.084678529523460E-2    4.747094876234737E-1   -1.853189474482775E-1
 6.529276376700000E9     5.552052229640043E-1   -7.888277880996139E-2   -8.708244854542567E-3   -3.118192371171176E-2   -9.334844894502948E-3   -3.114119558259682E-2    4.741554502307212E-1   -1.860763591816515E-1
 6.529286366600000E9     5.549997035993005E-1   -7.963936088690260E-2   -8.683886624562516E-3   -3.131820517837425E-2   -9.364107361449592E-3   -3.124263626748057E-2    4.739197146875347E-1   -1.869994025773873E-1
 6.529296356500000E9     5.548836909905541E-1   -8.050684848155244E-2   -8.772857713369534E-3   -3.162044190723423E-2   -9.554360223801505E-3   -3.135227560657505E-2    4.735287227084440E-1   -1.878094979349220E-1
 6.529306346400000E9     5.548224338060632E-1   -8.136975633334853E-2   -9.003779274148773E-3   -3.175572408973186E-2   -9.625839186730576E-3   -3.147267070345763E-2    4.732394820532284E-1   -1.886790545096315E-1
 6.529316336300000E9     5.547823442297677E-1   -8.210394440238782E-2   -9.051729576478413E-3   -3.198841180500534E-2   -9.699566771143980E-3   -3.163725704884246E-2    4.727167364241238E-1   -1.894957185649849E-1
 6.529326326200000E9     5.546022274913213E-1   -8.284598189368091E-2   -9.136989207655807E-3   -3.200614741833987E-2   -9.740948160348525E-3   -3.182229959070054E-2    4.725509074098828E-1   -1.903911443052557E-1
 6.529336316100000E9     5.543693295855446E-1   -8.376972013187413E-2   -9.315851172743927E-3   -3.202219358879579E-2   -9.907595687620611E-3   -3.199402803799127E-2    4.720202220241926E-1   -1.912306305920169E-1
 6.529346306000000E9     5.543670083106416E-1   -8.448969201123775E-2   -9.299077068926020E-3   -3.246501285329927E-2   -1.004345154308472E-2   -3.212552734877330E-2    4.717107026888859E-1   -1.920605154617326E-1
 6.529356295900000E9     5.541874312652799E-1   -8.530669931640959E-2   -9.514760036985580E-3   -3.234776285824506E-2   -1.011856838566149E-2   -3.236277786270592E-2    4.712703150800883E-1   -1.929300569929927E-1
 6.529366285800000E9     5.539787615464303E-1   -8.618177865529883E-2   -9.696783055661217E-3   -3.246912483774132E-2   -1.016059229274706E-2   -3.236578732914774E-2    4.708741755193692E-1   -1.937380040626673E-1
 6.529376275700000E9     5.539459284407082E-1   -8.688630340645682E-2   -9.720723443200203E-3   -3.265434500852658E-2   -1.035379480218716E-2   -3.256895202381647E-2    4.705221458274882E-1   -1.946019047550877E-1
 6.529386265600000E9     5.537271621484299E-1   -8.770334103247303E-2   -9.756221246803564E-3   -3.286468004425801E-2   -1.047277305555755E-2   -3.264774246020899E-2    4.701413015682669E-1   -1.954546263494540E-1
 6.529396255500000E9     5.537076469538433E-1   -8.857522215772361E-2   -9.968711651978450E-3   -3.308553509083326E-2   -1.059351962281660E-2   -3.284519978452850E-2    4.697595082860075E-1   -1.962771790340299E-1
 6.529406245400000E9     5.534989234170790E-1   -8.928376520479397E-2   -1.007506831241324E-2   -3.335097424154936E-2   -1.066523147908522E-2   -3.290308209923487E-2    4.694760794878918E-1   -1.972699142756257E-1
 6.529416235300000E9     5.533368410472378E-1   -9.016213394419574E-2   -9.956972996361961E-3   -3.334826918506351E-2   -1.084551552650834E-2   -3.317411364973924E-2    4.687788098108212E-1   -1.981279314152116E-1
 6.529426225200000E9     5.532881905620238E-1   -9.092261105364863E-2   -1.031229267704399E-2   -3.339270592677870E-2   -1.089713948081762E-2   -3.328983885791768E-2    4.685946171294040E-1   -1.990156247388644E-1
 6.529436215100000E9     5.530410837407159E-1   -9.174199343099325E-2   -1.031583799645914E-2   -3.361238340247773E-2   -1.106562988121234E-2   -3.350970951647753E-2    4.680069382481435E-1   -1.996811878218879E-1
 6.529446205000000E9     5.528795993979024E-1   -9.264336469799297E-2   -1.040732492215717E-2   -3.382084141371450E-2   -1.119852942372270E-2   -3.368593592375064E-2    4.677548402070693E-1   -2.008070946474301E-1
 6.529456194900000E9     5.528274372944784E-1   -9.345108757711068E-2   -1.045714401179041E-2   -3.400089442572767E-2   -1.128974735280611E-2   -3.387183184033926E-2    4.673486846045639E-1   -2.015914221997921E-1
 6.529466184800000E9     5.526008161058356E-1   -9.424230279472229E-2   -1.083343550930155E-2   -3.404994326648355E-2   -1.140525158643073E-2   -3.398558319539362E-2    4.667789652814998E-1   -2.024358005065096E-1
 6.529476174700000E9     5.525365879338843E-1   -9.513688144891222E-2   -1.083975873911806E-2   -3.423498796292471E-2   -1.152235434685988E-2   -3.407905871495671E-2    4.664304669968004E-1   -2.033660121498450E-1
 6.529486164600000E9     5.522506271997659E-1   -9.590410519920514E-2   -1.091118672375881E-2   -3.437342251574095E-2   -1.164250828192132E-2   -3.422520094306229E-2    4.659180440601737E-1   -2.041821107800071E-1
 6.529496154500000E9     5.521028301341391E-1   -9.670728952725420E-2   -1.114383451008361E-2   -3.459723935162810E-2   -1.184789563342165E-2   -3.446723495401103E-2    4.655507930606982E-1   -2.051311815023303E-1
 6.529506144400000E9     5.520793520125792E-1   -9.757025132587797E-2   -1.119399234777993E-2   -3.483934426090887E-2   -1.194260723300881E-2   -3.461355688615847E-2    4.651619584823135E-1   -2.060882962995667E-1
 6.529516134300000E9     5.518054559748707E-1   -9.826980664907957E-2   -1.132052759665251E-2   -3.504562039677595E-2   -1.215939364097027E-2   -3.483132154336464E-2    4.647441602857576E-1   -2.067965919385338E-1
 6.529526124200000E9     5.515456302765682E-1   -9.920519974885968E-2   -1.137677984557516E-2   -3.526979639303273E-2   -1.224348807087474E-2   -3.492898335970773E-2    4.643330025383720E-1   -2.078329609036218E-1
 6.529536114100000E9     5.515541572626226E-1   -1.000335936648037E-1   -1.172357505138134E-2   -3.533989707519733E-2   -1.235070093569867E-2   -3.517754051117546E-2    4.638602209240892E-1   -2.085767687662498E-1
 6.529546104000000E9     5.513655423014524E-1   -1.008049961771582E-1   -1.180214921561282E-2   -3.554640845424553E-2   -1.242723189733723E-2   -3.515369615964664E-2    4.635038320276507E-1   -2.096677074609922E-1
 6.529556093900000E9     5.511622410409869E-1   -1.016842277456832E-1   -1.185447764916303E-2   -3.574904838783925E-2   -1.264404898866653E-2   -3.553397786863534E-2    4.629607977116483E-1   -2.104453715074543E-1
 6.529566083800000E9     5.510228736765866E-1   -1.023923882893028E-1   -1.205273372719128E-2   -3.595442598871063E-2   -1.270569528611466E-2   -3.569533992681328E-2    4.624057532863478E-1   -2.114360639966422E-1
 6.529576073700000E9     5.508127817497964E-1   -1.033341285646857E-1   -1.207060824823114E-2   -3.611447160043939E-2   -1.298869879971734E-2   -3.585218027058054E-2    4.619821643289461E-1   -2.122437521341711E-1
 6.529586063600000E9     5.507797994754385E-1   -1.041723444161374E-1   -1.225572215065012E-2   -3.627409479128436E-2   -1.306227840359240E-2   -3.603867823726103E-2    4.615434849598602E-1   -2.131704314089084E-1
 6.529596053500000E9     5.504400249169418E-1   -1.050476867341862E-1   -1.241335141615309E-2   -3.655807100232922E-2   -1.323721825172821E-2   -3.624258533325149E-2    4.611012541391369E-1   -2.141895312192053E-1
 6.529606043400000E9     5.502980425249243E-1   -1.057936753772167E-1   -1.262208360061151E-2   -3.657362330141192E-2   -1.339641670804519E-2   -3.644612653368480E-2    4.605872562536380E-1   -2.149911379896992E-1
 6.529616033300000E9     5.500749071110186E-1   -1.066278815313756E-1   -1.259945293621728E-2   -3.684616049190850E-2   -1.355017772332846E-2   -3.655943929503018E-2    4.600932106997245E-1   -2.160101948010959E-1
 6.529626023200000E9     5.498848499983815E-1   -1.074197581111770E-1   -1.290328517499549E-2   -3.698464386950608E-2   -1.366802603204436E-2   -3.678886542770783E-2    4.595405809235480E-1   -2.169692639699068E-1
 6.529636013100000E9     5.497907994778918E-1   -1.083282685460187E-1   -1.302165098814135E-2   -3.727109234107862E-2   -1.383270599198150E-2   -3.699309037859910E-2    4.590857010601189E-1   -2.179586205359074E-1
 6.529646003000000E9     5.495528617623850E-1   -1.091216525923071E-1   -1.310834930913567E-2   -3.742205967670483E-2   -1.402220899118158E-2   -3.722391639008457E-2    4.584145506472831E-1   -2.189013830180174E-1
 6.529655992900000E9     5.493610241091932E-1   -1.098978179745786E-1   -1.331318887582936E-2   -3.755828111107149E-2   -1.416392928862843E-2   -3.735304597311002E-2    4.581781024323143E-1   -2.198550235254905E-1
 6.529665982800000E9     5.491483576277304E-1   -1.107091484998850E-1   -1.340082655667632E-2   -3.798012469215017E-2   -1.431781670472459E-2   -3.769063826450602E-2    4.575346089229981E-1   -2.206446452223891E-1
 6.529675972700000E9     5.491305269758280E-1   -1.117384109969276E-1   -1.366470035265385E-2   -3.803860077081313E-2   -1.446499005941462E-2   -3.779031163326815E-2    4.570161696514863E-1   -2.217174977914488E-1
 6.529685962600000E9     5.488257405755318E-1   -1.124373155273831E-1   -1.387463028639128E-2   -3.815288727468260E-2   -1.468117046229461E-2   -3.801858198864572E-2    4.565948410493477E-1   -2.225270758135373E-1
 6.529695952500000E9     5.486789473058833E-1   -1.133917307284836E-1   -1.395902133586014E-2   -3.862035772736908E-2   -1.481667197271647E-2   -3.826240998815254E-2    4.559509326614894E-1   -2.234439523688881E-1
 6.529705942400000E9     5.483503404963891E-1   -1.143421058421688E-1   -1.408028663673035E-2   -3.867061493930261E-2   -1.506851980663370E-2   -3.844046517593223E-2    4.554774046092748E-1   -2.244681205264595E-1
 6.529715932300000E9     5.483248463235825E-1   -1.149956536528035E-1   -1.422322183801667E-2   -3.877929323317147E-2   -1.512095423757154E-2   -3.862001736221272E-2    4.549373722590026E-1   -2.256434336494188E-1
 6.529725922200000E9     5.480110668698494E-1   -1.158929970066785E-1   -1.437663407979077E-2   -3.905543275412220E-2   -1.537489123701550E-2   -3.878989991032858E-2    4.545357697519282E-1   -2.262881338501882E-1
 6.529735912100000E9     5.478536818653486E-1   -1.166515766957588E-1   -1.461899638075444E-2   -3.936677879315006E-2   -1.551808349423341E-2   -3.905340648411966E-2    4.538869234109024E-1   -2.273368587332246E-1
 6.529745902000000E9     5.477066643724642E-1   -1.176407704894583E-1   -1.488313579672776E-2   -3.964984714252064E-2   -1.566243080071096E-2   -3.925177628227369E-2    4.534934553005969E-1   -2.282505726483635E-1
 6.529755891900000E9     5.475102195557228E-1   -1.184779803997861E-1   -1.509088463183508E-2   -3.964723022940114E-2   -1.589801147848467E-2   -3.958483038096913E-2    4.527084766082326E-1   -2.293755459791111E-1
 6.529765881800000E9     5.472970381020555E-1   -1.193748386286783E-1   -1.528102364964458E-2   -3.996133318157229E-2   -1.608840980030226E-2   -3.966006271885652E-2    4.520262281857120E-1   -2.302993554743406E-1
 6.529775871700000E9     5.470508368252170E-1   -1.199823103879375E-1   -1.523092190777658E-2   -4.026004329045304E-2   -1.630760534089282E-2   -3.992770826164797E-2    4.513967943379648E-1   -2.312291115734070E-1
 6.529785861600000E9     5.468474892653994E-1   -1.211032890554001E-1   -1.556011099530942E-2   -4.049650902600366E-2   -1.649793595076342E-2   -4.023161167489319E-2    4.510735953819281E-1   -2.323094902987436E-1
 6.529795851500000E9     5.466690361966537E-1   -1.218922870480169E-1   -1.568329443404233E-2   -4.067490995564837E-2   -1.664336833652955E-2   -4.040989794255107E-2    4.503490044302086E-1   -2.330224506613155E-1
 6.529805841400000E9     5.463634172069071E-1   -1.226686685787981E-1   -1.592548354588683E-2   -4.102045000801591E-2   -1.680650276621726E-2   -4.066100605940227E-2    4.499163434539927E-1   -2.342691384101348E-1
 6.529815831300000E9     5.462147056829789E-1   -1.236156432672694E-1   -1.617741812757245E-2   -4.119728444842981E-2   -1.710833126362003E-2   -4.094109210779100E-2    4.491840113348177E-1   -2.352075324165784E-1
 6.529825821200000E9     5.458598727823355E-1   -1.244470299980716E-1   -1.655245833139889E-2   -4.148697273319930E-2   -1.726181369517376E-2   -4.117406276159363E-2    4.486609995175709E-1   -2.362349316282761E-1
 6.529835811100000E9     5.457317157813503E-1   -1.253530178843921E-1   -1.643912830771860E-2   -4.165898686673664E-2   -1.752737736926311E-2   -4.134106500127532E-2    4.479157015045874E-1   -2.370703141473038E-1
 6.529845801000000E9     5.454897049345567E-1   -1.262008607914599E-1   -1.671946655222339E-2   -4.191924357844997E-2   -1.770543406818797E-2   -4.163288130707846E-2    4.474496512006205E-1   -2.381464911140957E-1
 6.529855790900000E9     5.453071467460791E-1   -1.270354410125872E-1   -1.685461780307048E-2   -4.219439101711212E-2   -1.788837827109063E-2   -4.182823445056510E-2    4.468016626847305E-1   -2.390883635111071E-1
 6.529865780800000E9     5.450375286392337E-1   -1.279504805345382E-1   -1.716265783948308E-2   -4.239760384134539E-2   -1.811346184972179E-2   -4.213336542210081E-2    4.459535522379555E-1   -2.402506326554014E-1
 6.529875770700000E9     5.447445958974686E-1   -1.288412423791904E-1   -1.742335743125232E-2   -4.271955630090585E-2   -1.834448526070634E-2   -4.235203102315097E-2    4.453947679521104E-1   -2.413410015221093E-1
 6.529885760600000E9     5.445999188011624E-1   -1.296489245176841E-1   -1.769083285639855E-2   -4.291315696649824E-2   -1.864605076030583E-2   -4.265938846365500E-2    4.445962003809169E-1   -2.422992636397297E-1
 6.529895750500000E9     5.442358389842924E-1   -1.305025598364147E-1   -1.786975842254470E-2   -4.330226587880093E-2   -1.872584259053318E-2   -4.288568525158400E-2    4.440881995608203E-1   -2.431986435870587E-1
 6.529905740400000E9     5.441252552038601E-1   -1.313528824510144E-1   -1.801134631402163E-2   -4.336199521263409E-2   -1.918957371316788E-2   -4.314171748672331E-2    4.435316794755759E-1   -2.443873266504376E-1
 6.529915730300000E9     5.437901210556060E-1   -1.321979346761809E-1   -1.816320976461448E-2   -4.374383017016401E-2   -1.930565658458291E-2   -4.344111688056546E-2    4.427701691255865E-1   -2.454542422395224E-1
 6.529925720200000E9     5.435082245126591E-1   -1.332562111810445E-1   -1.859208688530822E-2   -4.407749049245860E-2   -1.949883055009579E-2   -4.370769983567020E-2    4.422534703036179E-1   -2.464084648036936E-1
 6.529935710100000E9     5.433506404131639E-1   -1.339303024356896E-1   -1.883486519416465E-2   -4.441677251702207E-2   -1.988474379679195E-2   -4.391328205397323E-2    4.414857152131947E-1   -2.474452814933492E-1
 6.529945700000000E9     5.430144614435977E-1   -1.349544936834719E-1   -1.886968265773050E-2   -4.473140674241113E-2   -2.016386867389388E-2   -4.428280363624106E-2    4.406302566046764E-1   -2.486839616982689E-1
 6.529955689900000E9     5.426769592382836E-1   -1.358216251719466E-1   -1.932575630775258E-2   -4.496615143668981E-2   -2.041061027089991E-2   -4.460709588538174E-2    4.399429889110616E-1   -2.496573854792519E-1
 6.529965679800000E9     5.424476466861822E-1   -1.367583265716600E-1   -1.959997250095649E-2   -4.517275028484793E-2   -2.061976802977426E-2   -4.475566759492804E-2    4.393169010652651E-1   -2.505624658818650E-1
 6.529975669700000E9     5.421416017905110E-1   -1.375611386133951E-1   -1.980619245545265E-2   -4.555893675984349E-2   -2.083529521653032E-2   -4.517821638999280E-2    4.386423303913076E-1   -2.517843947123298E-1
 6.529985659600000E9     5.420055927999915E-1   -1.385592570868797E-1   -2.006879053314044E-2   -4.579212520710964E-2   -2.106647385860555E-2   -4.536232754168134E-2    4.379142351422398E-1   -2.528043021876286E-1
 6.529995649500000E9     5.416274198823742E-1   -1.394170137115140E-1   -2.029172439149301E-2   -4.614921686176126E-2   -2.136669379938890E-2   -4.570456714390618E-2    4.370429618083068E-1   -2.539649841254195E-1
 6.530005639400000E9     5.413560687248140E-1   -1.403111076432979E-1   -2.075305990709455E-2   -4.635710066012812E-2   -2.171758194656549E-2   -4.592374834069307E-2    4.362384384266683E-1   -2.549966200624572E-1
 6.530015629300000E9     5.410755467912488E-1   -1.413941491695874E-1   -2.098724996155456E-2   -4.671003886020925E-2   -2.204676988740834E-2   -4.629892348796775E-2    4.354852243698684E-1   -2.561570428020812E-1
 6.530025619200000E9     5.407771005845022E-1   -1.422124876690364E-1   -2.112016163679975E-2   -4.698172007613276E-2   -2.216095580300402E-2   -4.653142748290492E-2    4.347937625799322E-1   -2.572915120415721E-1
 6.530035609100000E9     5.404079260468581E-1   -1.431426228743971E-1   -2.151855506768940E-2   -4.735075490427678E-2   -2.259839976944722E-2   -4.677132960403008E-2    4.341317464650342E-1   -2.583915116819818E-1
 6.530045599000000E9     5.401760845867346E-1   -1.440367985696210E-1   -2.174695536602327E-2   -4.770607117912383E-2   -2.276483873819348E-2   -4.721179782446373E-2    4.332738898177174E-1   -2.594334481189825E-1
 6.530055588900000E9     5.398235301422529E-1   -1.448708554249529E-1   -2.192556027438008E-2   -4.805318681348362E-2   -2.315121184850471E-2   -4.750220722796639E-2    4.323511657311435E-1   -2.605221562888296E-1
 6.530065578800000E9     5.395986372801144E-1   -1.457338425124421E-1   -2.236745346599633E-2   -4.833193166304131E-2   -2.346640619542139E-2   -4.792250362871933E-2    4.316106896555060E-1   -2.617294531703027E-1
 6.530075568700000E9     5.392462390675556E-1   -1.466512599136516E-1   -2.265504765555432E-2   -4.866288470368314E-2   -2.379108108839046E-2   -4.824712931920434E-2    4.308345156024928E-1   -2.628448668198479E-1
 6.530085558600000E9     5.389533732173577E-1   -1.475709455208366E-1   -2.289761592032475E-2   -4.898710477859084E-2   -2.412344301334080E-2   -4.855854771941302E-2    4.298235341605888E-1   -2.639144917288780E-1
 6.530095548500000E9     5.385493623995541E-1   -1.485680499981226E-1   -2.325890551742756E-2   -4.918194181828189E-2   -2.444609826167344E-2   -4.888537166170599E-2    4.291351431306089E-1   -2.650907633826806E-1
 6.530105538400000E9     5.383123259222693E-1   -1.495174669632845E-1   -2.371100222715283E-2   -4.973498848394280E-2   -2.493694995554209E-2   -4.929820809705898E-2    4.280625126869479E-1   -2.663357822142253E-1
 6.530115528300000E9     5.379331342351482E-1   -1.503899379680692E-1   -2.407090262706581E-2   -5.005134664337135E-2   -2.515959197235994E-2   -4.954786289887577E-2    4.272871076211024E-1   -2.674485942386950E-1
 6.530125518200000E9     5.376790201049937E-1   -1.513284834615793E-1   -2.428680705246722E-2   -5.038568763134864E-2   -2.545383377288215E-2   -4.992381908220990E-2    4.263265075225022E-1   -2.685872531092626E-1
 6.530135508100000E9     5.371816252562032E-1   -1.523816972623097E-1   -2.456567522360262E-2   -5.082346653911098E-2   -2.583250117026169E-2   -5.036619930154509E-2    4.254611883241348E-1   -2.695769753975619E-1
 6.530145498000000E9     5.369067666517069E-1   -1.533705711506595E-1   -2.497466844968534E-2   -5.132513659626387E-2   -2.628330318173931E-2   -5.056737159253930E-2    4.245979882439364E-1   -2.710269483866523E-1
