#  HZ   S   RI   R     50.00 
! Rohde & Schwarz Vector Network Analyzer 
! Rohde-Schwarz,ZNB20-2Port,1311601062101988,3.16
! Created: UTC 3/21/2024, 1:15:09 AM
! freq[Hz]                re:S11                  im:S11                  re:S21                  im:S21                  re:S12                  im:S12                  re:S22                  im:S22
 6.529267163000000E9     5.553492291633556E-1   -7.779705962961439E-2   -8.663041888325586E-3   -3.093705947366522E-2   -9.151762592342634E-3   -3.077952596494639E-2    4.733965957495410E-1   -1.872612333116055E-1
 6.529277108100000E9     5.552122380957905E-1   -7.855721915412267E-2   -8.797214133956002E-3   -3.099597327159477E-2   -9.275719873625859E-3   -3.091486986525848E-2    4.730467884224887E-1   -1.879993001862063E-1
 6.529287053200000E9     5.551236416067834E-1   -7.943007530901597E-2   -8.712255984860414E-3   -3.111473698772275E-2   -9.299581955849527E-3   -3.113955132159125E-2    4.727779754677105E-1   -1.888142903082089E-1
 6.529296998300000E9     5.549789355491010E-1   -8.021921694431222E-2   -8.866029533270193E-3   -3.144780576223770E-2   -9.528864280985965E-3   -3.120072735869955E-2    4.724075464760839E-1   -1.897168181796458E-1
 6.529306943400000E9     5.548382610881074E-1   -8.099613945689138E-2   -8.937152714719383E-3   -3.144735829899589E-2   -9.497796464136158E-3   -3.131017233611830E-2    4.720250803227961E-1   -1.904909183750883E-1
 6.529316888500000E9     5.548083740190664E-1   -8.172538072816682E-2   -9.037516056796025E-3   -3.172878390363466E-2   -9.617218181975836E-3   -3.141578518444181E-2    4.715719056371726E-1   -1.913730297992992E-1
 6.529326833600000E9     5.546631301823927E-1   -8.265312631806727E-2   -9.152209360678919E-3   -3.172292531306365E-2   -9.863684715833265E-3   -3.167989406738046E-2    4.713283223021728E-1   -1.922647737823080E-1
 6.529336778700000E9     5.545579148368315E-1   -8.343426042990296E-2   -9.146961952063305E-3   -3.192352642312916E-2   -9.835239441789189E-3   -3.175015386169161E-2    4.709148613400400E-1   -1.930328410824698E-1
 6.529346723800000E9     5.544093997078661E-1   -8.407582817937193E-2   -9.251310946251727E-3   -3.216221929431665E-2   -1.003598540412863E-2   -3.185437228216172E-2    4.705084693067552E-1   -1.939655348526310E-1
 6.529356668900000E9     5.542179271691684E-1   -8.496195809584467E-2   -9.446053707354797E-3   -3.221768057307323E-2   -1.008834024520745E-2   -3.202364298323267E-2    4.700823185635977E-1   -1.947359578679957E-1
 6.529366614000000E9     5.540653712650560E-1   -8.578494184347643E-2   -9.417035494924297E-3   -3.224702307522172E-2   -1.029805884303369E-2   -3.221050064945229E-2    4.697883518384192E-1   -1.955232407400680E-1
 6.529376559100000E9     5.539782498888589E-1   -8.658116873065258E-2   -9.585541364728044E-3   -3.261305296577408E-2   -1.036790216592672E-2   -3.236164873811593E-2    4.693063142369867E-1   -1.964326389392482E-1
 6.529386504200000E9     5.538691489262741E-1   -8.741579905592252E-2   -9.713298431751474E-3   -3.260008196709073E-2   -1.056394242016536E-2   -3.248457298642084E-2    4.690508365702845E-1   -1.974487491356535E-1
 6.529396449300000E9     5.537491842446611E-1   -8.826971408274523E-2   -9.824142969076501E-3   -3.267267879084501E-2   -1.049744072470039E-2   -3.260909818881581E-2    4.686417340643815E-1   -1.982926768750127E-1
 6.529406394400000E9     5.536140143579216E-1   -8.913324844562197E-2   -1.000028901727936E-2   -3.303373590541401E-2   -1.064247013605038E-2   -3.277783371559094E-2    4.682170664597030E-1   -1.991081769160513E-1
 6.529416339500000E9     5.534877257735558E-1   -8.987198145754485E-2   -9.919244485726290E-3   -3.311712718220276E-2   -1.075098333884488E-2   -3.299180166865740E-2    4.677560282784523E-1   -1.998811455212200E-1
 6.529426284600000E9     5.532851051524754E-1   -9.066756503444300E-2   -1.009810296344226E-2   -3.318966892291283E-2   -1.088844759850995E-2   -3.301368159889824E-2    4.673541285138336E-1   -2.006223354443271E-1
 6.529436229700000E9     5.531271037985048E-1   -9.146639065440085E-2   -1.030703897047349E-2   -3.336360701672442E-2   -1.107889585384352E-2   -3.325206421880591E-2    4.668762328000665E-1   -2.018000525455046E-1
 6.529446174800000E9     5.529424834247730E-1   -9.233918303294263E-2   -1.036923033641395E-2   -3.351012033148365E-2   -1.113751141315876E-2   -3.331136794062409E-2    4.665237868605445E-1   -2.024604868367177E-1
 6.529456119900000E9     5.528229258886499E-1   -9.308381298005630E-2   -1.053943794296672E-2   -3.372511987275885E-2   -1.122488513414106E-2   -3.366589245966470E-2    4.659978839787942E-1   -2.033230455319248E-1
 6.529466065000000E9     5.527492809278580E-1   -9.380524744088489E-2   -1.056417556397164E-2   -3.379637321205822E-2   -1.141337509495587E-2   -3.368115490258725E-2    4.657014608631678E-1   -2.042655084112220E-1
 6.529476010100000E9     5.525411098409337E-1   -9.471630065819578E-2   -1.067321906039937E-2   -3.403188583400707E-2   -1.158323956279451E-2   -3.391341389327721E-2    4.653460719586882E-1   -2.052360817078249E-1
 6.529485955200000E9     5.523736256292667E-1   -9.563174090580501E-2   -1.078174157771644E-2   -3.428256013696667E-2   -1.160415547639401E-2   -3.407817990973634E-2    4.648160335873123E-1   -2.060124745632109E-1
 6.529495900300000E9     5.521432184467727E-1   -9.637008728411725E-2   -1.103992877551917E-2   -3.439705695911230E-2   -1.178785921126219E-2   -3.416771402050714E-2    4.643920139200049E-1   -2.068858075946066E-1
 6.529505845400000E9     5.520566856102934E-1   -9.707412031881661E-2   -1.122032221967430E-2   -3.462904490831188E-2   -1.187224096509243E-2   -3.442227390573688E-2    4.639003610504743E-1   -2.078431384791279E-1
 6.529515790500000E9     5.519733688029288E-1   -9.802883959449357E-2   -1.118777719797555E-2   -3.474905417737648E-2   -1.205920869952279E-2   -3.453531840911830E-2    4.635105015055141E-1   -2.084326135532203E-1
 6.529525735600000E9     5.518083952543023E-1   -9.872763107927718E-2   -1.139057983206780E-2   -3.502093674779955E-2   -1.211013682003442E-2   -3.483357455962531E-2    4.631829592516334E-1   -2.094407521234084E-1
 6.529535680700000E9     5.516120550458470E-1   -9.961521972301209E-2   -1.153503852946428E-2   -3.506262776669230E-2   -1.229095567947890E-2   -3.484607380517921E-2    4.625679393092993E-1   -2.102357996827912E-1
 6.529545625800000E9     5.514347307603991E-1   -1.003863570186633E-1   -1.171863553339469E-2   -3.539050683500828E-2   -1.244805020184623E-2   -3.502446301568585E-2    4.622193782579059E-1   -2.111467619412255E-1
 6.529555570900000E9     5.513209474888590E-1   -1.012686732309747E-1   -1.171483116117622E-2   -3.554818347317642E-2   -1.253433654948497E-2   -3.532257454553639E-2    4.617716948817340E-1   -2.121513159777494E-1
 6.529565516000000E9     5.512450689810952E-1   -1.020101739518869E-1   -1.197683291698260E-2   -3.581956939871762E-2   -1.274089606877216E-2   -3.550268260642669E-2    4.613296358955328E-1   -2.132406380599573E-1
 6.529575461100000E9     5.509506307404626E-1   -1.029346482138023E-1   -1.201444713195888E-2   -3.575803954269546E-2   -1.285545756407776E-2   -3.545129410083624E-2    4.607431611869830E-1   -2.140062892170457E-1
 6.529585406200000E9     5.508752105728163E-1   -1.037503377353271E-1   -1.212073255095151E-2   -3.602120505239136E-2   -1.293125451990314E-2   -3.575975049983397E-2    4.602564857841359E-1   -2.149664258567207E-1
 6.529595351300000E9     5.506824578229979E-1   -1.045198594323412E-1   -1.221212808496008E-2   -3.623615649167507E-2   -1.310273611877844E-2   -3.601444344040394E-2    4.597578120673477E-1   -2.157416727863214E-1
 6.529605296400000E9     5.504040399284159E-1   -1.053899858186801E-1   -1.242272943786080E-2   -3.647130442967112E-2   -1.324035951657350E-2   -3.621725285759145E-2    4.594045907377599E-1   -2.166870697930229E-1
 6.529615241500000E9     5.501973844041943E-1   -1.062041510306460E-1   -1.260477799171831E-2   -3.659216121207122E-2   -1.345180383673036E-2   -3.637085646787035E-2    4.588153870034220E-1   -2.176616122565071E-1
 6.529625186600000E9     5.500225686028504E-1   -1.070041776439409E-1   -1.273764545187391E-2   -3.670674506304816E-2   -1.360611457135418E-2   -3.653541007104470E-2    4.584789609771595E-1   -2.185273938141130E-1
 6.529635131700000E9     5.499396753687102E-1   -1.078622795054458E-1   -1.300503890693737E-2   -3.697903658729505E-2   -1.368525885351552E-2   -3.673042376047280E-2    4.581666015950533E-1   -2.196101270686212E-1
 6.529645076800000E9     5.498259142902624E-1   -1.086873372742542E-1   -1.309404107767175E-2   -3.724352136223608E-2   -1.387050775535783E-2   -3.689890163244582E-2    4.574311425334029E-1   -2.204570305561832E-1
 6.529655021900000E9     5.495760677223743E-1   -1.095911571781784E-1   -1.315540555541547E-2   -3.733838490318075E-2   -1.408691934054491E-2   -3.701255115245557E-2    4.569541748567507E-1   -2.212554805922034E-1
 6.529664967000000E9     5.494532271977576E-1   -1.102041275467463E-1   -1.334625741113861E-2   -3.765526777356485E-2   -1.423984851056866E-2   -3.734903196028926E-2    4.564525624834904E-1   -2.223495736531352E-1
 6.529674912100000E9     5.492170719989831E-1   -1.110864454953961E-1   -1.347832918798037E-2   -3.778799906120845E-2   -1.436282470837660E-2   -3.749176186598047E-2    4.559451597044048E-1   -2.231160175347838E-1
 6.529684857200000E9     5.489434249832889E-1   -1.120875497447430E-1   -1.360330056083134E-2   -3.783158847646070E-2   -1.457479857742599E-2   -3.773165233080999E-2    4.554973470589723E-1   -2.239661160410886E-1
 6.529694802300000E9     5.487482717289207E-1   -1.128697323238365E-1   -1.372330546875798E-2   -3.814642044486100E-2   -1.471032278757701E-2   -3.792203728721583E-2    4.549276982670687E-1   -2.251338868379027E-1
 6.529704747400000E9     5.486547248410225E-1   -1.137434042411201E-1   -1.390207785436152E-2   -3.839653103560448E-2   -1.484244372529266E-2   -3.815744273299331E-2    4.544721719109965E-1   -2.260450848611976E-1
 6.529714692500000E9     5.484200963768343E-1   -1.145922201772290E-1   -1.421387130419478E-2   -3.848732587472813E-2   -1.499709769964713E-2   -3.839233422110338E-2    4.538116300266893E-1   -2.269934226902148E-1
 6.529724637600000E9     5.482920231919219E-1   -1.153881611489160E-1   -1.429394329328330E-2   -3.876167627748030E-2   -1.523312037188699E-2   -3.852077994547277E-2    4.532202402139898E-1   -2.278963536873254E-1
 6.529734582700000E9     5.480025939813797E-1   -1.161998300060906E-1   -1.456570557301697E-2   -3.898597812467657E-2   -1.537401817673379E-2   -3.873760604405768E-2    4.527658422396058E-1   -2.288936923563894E-1
 6.529744527800000E9     5.478373330196703E-1   -1.171169586411650E-1   -1.469730074687214E-2   -3.916759778766946E-2   -1.557846494808243E-2   -3.887151282631209E-2    4.522376718396516E-1   -2.297698759646444E-1
 6.529754472900000E9     5.476591003443879E-1   -1.179261761279571E-1   -1.498008844173990E-2   -3.951012181091039E-2   -1.581079986601394E-2   -3.919798343689315E-2    4.517783484092980E-1   -2.306416422453559E-1
 6.529764418000000E9     5.474671337838444E-1   -1.187905687036288E-1   -1.499957385034572E-2   -3.960699738009965E-2   -1.592821814373141E-2   -3.939163009249461E-2    4.510952957300853E-1   -2.317619246930130E-1
 6.529774363100000E9     5.471641384373170E-1   -1.196225289744952E-1   -1.527790079162170E-2   -3.984209560432791E-2   -1.614305152882484E-2   -3.952663879885486E-2    4.504654117647071E-1   -2.325762251609320E-1
 6.529784308200000E9     5.471227394190826E-1   -1.205460756460589E-1   -1.530334344619375E-2   -4.007266838856575E-2   -1.636180762829873E-2   -3.977906075583001E-2    4.498684533590877E-1   -2.336089331430165E-1
 6.529794253300000E9     5.468590365108479E-1   -1.213246022120682E-1   -1.562711918438930E-2   -4.022499544411211E-2   -1.648940826126010E-2   -4.000720825348773E-2    4.492888313585595E-1   -2.346694008573492E-1
 6.529804198400000E9     5.465486464180784E-1   -1.222236184750721E-1   -1.564128530189054E-2   -4.058837077552857E-2   -1.665042884617941E-2   -4.023450585505802E-2    4.488014119235469E-1   -2.356706912744956E-1
 6.529814143500000E9     5.463854457903928E-1   -1.230641797326196E-1   -1.602907290501154E-2   -4.082212132161639E-2   -1.687431171706174E-2   -4.051664154351731E-2    4.481848114973073E-1   -2.365035899322829E-1
 6.529824088600000E9     5.461081551837805E-1   -1.239246907979827E-1   -1.613894962178631E-2   -4.106123640820687E-2   -1.708997018892948E-2   -4.076542593453693E-2    4.476519686086253E-1   -2.374847619819345E-1
 6.529834033700000E9     5.458879444818203E-1   -1.248382768271492E-1   -1.622293792341713E-2   -4.136730178897401E-2   -1.729713125292635E-2   -4.095788894592353E-2    4.470339401680614E-1   -2.384242550691774E-1
 6.529843978800000E9     5.456722938426694E-1   -1.257222246424285E-1   -1.665348631222884E-2   -4.165493754243063E-2   -1.747937413632957E-2   -4.116580993366225E-2    4.462534036101812E-1   -2.395406365502915E-1
 6.529853923900000E9     5.454244425572378E-1   -1.263872859211064E-1   -1.689900264327134E-2   -4.172565307433340E-2   -1.769147362353419E-2   -4.151455381042329E-2    4.457923122143455E-1   -2.404388258010244E-1
 6.529863869000000E9     5.451485660230554E-1   -1.272753678429794E-1   -1.705081696760025E-2   -4.204320714476303E-2   -1.796492516355607E-2   -4.162256647448125E-2    4.449965505770207E-1   -2.415660425808568E-1
 6.529873814100000E9     5.449521890396849E-1   -1.282640458199615E-1   -1.714321977688920E-2   -4.226615622927946E-2   -1.815648178418628E-2   -4.194670791977014E-2    4.445084345817527E-1   -2.425315908540827E-1
 6.529883759200000E9     5.446926133716455E-1   -1.291101455496784E-1   -1.735020759744482E-2   -4.265125265771373E-2   -1.840118853572000E-2   -4.218745356395631E-2    4.436832508984251E-1   -2.434750418394193E-1
 6.529893704300000E9     5.444517834025845E-1   -1.299333158609690E-1   -1.766126996059452E-2   -4.284225013434764E-2   -1.862686086698097E-2   -4.247984739027746E-2    4.431958200256868E-1   -2.446046405056313E-1
 6.529903649400000E9     5.442086674800983E-1   -1.307336669145227E-1   -1.790550083991521E-2   -4.309876616449292E-2   -1.890631897066566E-2   -4.270824518924005E-2    4.424116922936631E-1   -2.455295757025460E-1
 6.529913594500000E9     5.440183225168983E-1   -1.316993054156164E-1   -1.801552917041485E-2   -4.318596337431108E-2   -1.904928272106007E-2   -4.302509363516090E-2    4.419127608688130E-1   -2.466521077190308E-1
 6.529923539600000E9     5.437399733824807E-1   -1.325207375043641E-1   -1.841388175626757E-2   -4.377928403772083E-2   -1.941581317845920E-2   -4.321753147231331E-2    4.412159975026674E-1   -2.477761187205843E-1
 6.529933484700000E9     5.434429999267736E-1   -1.333630877629747E-1   -1.852498316974500E-2   -4.389440172928014E-2   -1.963811998538868E-2   -4.348035697581397E-2    4.405718114109554E-1   -2.486734936402015E-1
 6.529943429800000E9     5.432664363245036E-1   -1.342932010569548E-1   -1.867493355622734E-2   -4.416523403734534E-2   -1.988151959409950E-2   -4.363103968574000E-2    4.397256023285804E-1   -2.497796958602856E-1
 6.529953374900000E9     5.429223592748836E-1   -1.351978725248359E-1   -1.905486634926680E-2   -4.442290303997653E-2   -2.013112855242109E-2   -4.398095109438765E-2    4.390903788120395E-1   -2.507869447149708E-1
 6.529963320000000E9     5.427634972987203E-1   -1.359737960309730E-1   -1.918461088762273E-2   -4.480234071276680E-2   -2.027479319276573E-2   -4.445753721601296E-2    4.384776562663603E-1   -2.518665871597253E-1
 6.529973265100000E9     5.424006823608751E-1   -1.369253130716409E-1   -1.951186247009302E-2   -4.503826671281962E-2   -2.062593494534254E-2   -4.466056526063335E-2    4.379229464433321E-1   -2.529684984424213E-1
 6.529983210200000E9     5.422861740334943E-1   -1.378949029665843E-1   -1.961066209663645E-2   -4.536053309388322E-2   -2.076640629389685E-2   -4.493716819214827E-2    4.370858633086417E-1   -2.538562468293500E-1
 6.529993155300000E9     5.418333069412320E-1   -1.388582774681445E-1   -2.007168871918972E-2   -4.571027868852319E-2   -2.109258878720839E-2   -4.515316248540688E-2    4.363238675838974E-1   -2.549811546254875E-1
 6.530003100400000E9     5.415386235536804E-1   -1.396364618515181E-1   -2.035536013624929E-2   -4.598860935863094E-2   -2.135828359002081E-2   -4.561733278687728E-2    4.355794094273595E-1   -2.561514610343087E-1
 6.530013045500000E9     5.413833589862012E-1   -1.404882437035218E-1   -2.064903349318921E-2   -4.621907765300618E-2   -2.162826789394849E-2   -4.584695281310445E-2    4.347607269538271E-1   -2.571401757926641E-1
 6.530022990600000E9     5.411118549613539E-1   -1.416013082625160E-1   -2.087256629720148E-2   -4.651002727497111E-2   -2.194805861248798E-2   -4.607654205195048E-2    4.340024392987273E-1   -2.582018902655729E-1
 6.530032935700000E9     5.407597825103783E-1   -1.422588984799778E-1   -2.112249611016306E-2   -4.677306001492883E-2   -2.225119339799014E-2   -4.642713162394038E-2    4.332689629358118E-1   -2.592724295311271E-1
 6.530042880800000E9     5.403979295571038E-1   -1.432352568982888E-1   -2.142242141037546E-2   -4.724386034540800E-2   -2.250267364281873E-2   -4.673643512321352E-2    4.324111169413398E-1   -2.603544173627754E-1
 6.530052825900000E9     5.401616057512906E-1   -1.442498011050740E-1   -2.172713711426734E-2   -4.759177572104428E-2   -2.285950250603216E-2   -4.705868041101456E-2    4.315610598280695E-1   -2.614645520146163E-1
 6.530062771000000E9     5.400842315323017E-1   -1.451592515698078E-1   -2.194438219624333E-2   -4.785952436238982E-2   -2.316781883030205E-2   -4.726614892841902E-2    4.307530016617118E-1   -2.627192328962111E-1
 6.530072716100000E9     5.396463742317382E-1   -1.459998918368421E-1   -2.234672947567029E-2   -4.814062879756589E-2   -2.344410358695774E-2   -4.766327392849749E-2    4.299544071127794E-1   -2.637253269511339E-1
 6.530082661200000E9     5.393543023426330E-1   -1.468817576267977E-1   -2.245744523803093E-2   -4.848684301708140E-2   -2.373488227097310E-2   -4.798845993396095E-2    4.290581240164933E-1   -2.648399137763089E-1
 6.530092606300000E9     5.389079834785944E-1   -1.478550739349188E-1   -2.288461423723541E-2   -4.874092801324983E-2   -2.417299598903152E-2   -4.833370820956068E-2    4.283516292738789E-1   -2.660046865289438E-1
 6.530102551400000E9     5.386106931812980E-1   -1.487381719911593E-1   -2.318838394503358E-2   -4.906236946333567E-2   -2.444809969146584E-2   -4.862246478454794E-2    4.275033717751289E-1   -2.672185182765831E-1
 6.530112496500000E9     5.383721611976804E-1   -1.497132287779825E-1   -2.345970689388910E-2   -4.955940611830612E-2   -2.479215558362862E-2   -4.899932452514645E-2    4.265817471037558E-1   -2.682295398267964E-1
 6.530122441600000E9     5.379841766611504E-1   -1.504982801481486E-1   -2.385448291892612E-2   -4.977306992292076E-2   -2.510672663783626E-2   -4.932863513744165E-2    4.256249925504165E-1   -2.694398398618967E-1
 6.530132386700000E9     5.377030268609111E-1   -1.515496731122986E-1   -2.410107634957903E-2   -5.026996080891322E-2   -2.547481394041861E-2   -4.965974081741719E-2    4.248147877811725E-1   -2.703894463349253E-1
 6.530142331800000E9     5.373530215438203E-1   -1.523525090987488E-1   -2.449371931088706E-2   -5.062317616548299E-2   -2.575813781452419E-2   -5.007569113524942E-2    4.238799287111581E-1   -2.717604715635475E-1
 6.530152276900000E9     5.370271297306189E-1   -1.532845194323176E-1   -2.486422639494830E-2   -5.086269768007476E-2   -2.622023204336715E-2   -5.040891758861711E-2    4.230077211074266E-1   -2.729912290118420E-1
 6.530162222000000E9     5.366772051479516E-1   -1.543304005694512E-1   -2.530492576016516E-2   -5.135623335231230E-2   -2.655925465684945E-2   -5.077918748077338E-2    4.220924888631847E-1   -2.740741793824351E-1
