#  HZ   S   RI   R     50.00 
! Rohde & Schwarz Vector Network Analyzer 
! Rohde-Schwarz,ZNB20-2Port,1311601062101988,3.16
! Created: UTC 3/21/2024, 1:15:17 AM
! freq[Hz]                re:S11                  im:S11                  re:S21                  im:S21                  re:S12                  im:S12                  re:S22                  im:S22
 6.529274451000000E9     5.552200789721811E-1   -7.815489753747139E-2   -8.508176484378543E-3   -3.099686794094084E-2   -9.243229692063648E-3   -3.078858171046830E-2    4.733110255571387E-1   -1.877137062745179E-1
 6.529284382175000E9     5.551153541297441E-1   -7.919316856446605E-2   -8.595535252037521E-3   -3.126630583932456E-2   -9.280483954305916E-3   -3.088750559679688E-2    4.730743961887930E-1   -1.884862736110265E-1
 6.529294313350000E9     5.550333486572034E-1   -7.998679220558175E-2   -8.701907334708967E-3   -3.125023211605107E-2   -9.398590439346219E-3   -3.107404975025875E-2    4.726870308841752E-1   -1.892520345227204E-1
 6.529304244525000E9     5.548925626675858E-1   -8.071024572017690E-2   -8.894989783472579E-3   -3.146057589744693E-2   -9.495657600790717E-3   -3.117461089729126E-2    4.721268232527558E-1   -1.900954927273608E-1
 6.529314175700000E9     5.547429828554775E-1   -8.143619422612568E-2   -8.908722991143288E-3   -3.152590964498754E-2   -9.605806069357434E-3   -3.141521227166640E-2    4.717007785136054E-1   -1.908999610861727E-1
 6.529324106875000E9     5.546244535880560E-1   -8.240280155989874E-2   -9.085638212580115E-3   -3.158368620416079E-2   -9.693275195604442E-3   -3.157938019928872E-2    4.714242612332780E-1   -1.919457785802133E-1
 6.529334038050000E9     5.544829201770465E-1   -8.297167463870329E-2   -9.134280253226714E-3   -3.179421246848626E-2   -9.753462087789034E-3   -3.168026027242632E-2    4.709995494664075E-1   -1.926826601613252E-1
 6.529343969225000E9     5.544118218218709E-1   -8.386057300018203E-2   -9.197835886679707E-3   -3.218758299068051E-2   -9.997369281317487E-3   -3.182340879629049E-2    4.707570219790887E-1   -1.936679829005382E-1
 6.529353900400000E9     5.542446788055565E-1   -8.468118141399412E-2   -9.270947364413073E-3   -3.205546798141092E-2   -1.004790977742710E-2   -3.201938979446262E-2    4.704235578777240E-1   -1.943285744535891E-1
 6.529363831575000E9     5.540799325470619E-1   -8.548473102898223E-2   -9.555840177066777E-3   -3.225388346999962E-2   -1.006538547120059E-2   -3.203450138082540E-2    4.700054694207726E-1   -1.952049540826021E-1
 6.529373762750000E9     5.540686812070457E-1   -8.626127500640503E-2   -9.511950512866055E-3   -3.241922901876233E-2   -1.026659832672841E-2   -3.227148844873947E-2    4.695722125203872E-1   -1.961604491469692E-1
 6.529383693925000E9     5.538021000613979E-1   -8.705083252225894E-2   -9.749156047389988E-3   -3.261577689672004E-2   -1.038090029750521E-2   -3.239823316731933E-2    4.690874142021307E-1   -1.968718229245157E-1
 6.529393625100000E9     5.537713829112907E-1   -8.784434390292194E-2   -9.716062853147781E-3   -3.262421665693750E-2   -1.048365627194859E-2   -3.261343996508285E-2    4.688018433049334E-1   -1.978125905037504E-1
 6.529403556275000E9     5.535776398575712E-1   -8.858293146232077E-2   -1.001275068783929E-2   -3.281443330463651E-2   -1.055386305543949E-2   -3.271365745758692E-2    4.683236224294564E-1   -1.986348138365873E-1
 6.529413487450000E9     5.533808650824931E-1   -8.947077947843229E-2   -9.949144433540160E-3   -3.303823764515928E-2   -1.062985481261584E-2   -3.283223679634792E-2    4.681174494430663E-1   -1.995108179344402E-1
 6.529423418625000E9     5.533059659534034E-1   -9.026810723214675E-2   -1.011884590436579E-2   -3.316121708343272E-2   -1.082531112833624E-2   -3.291040395834343E-2    4.676452827677549E-1   -2.004413491447584E-1
 6.529433349800000E9     5.532386861351585E-1   -9.104676111755768E-2   -1.022780101507965E-2   -3.335576899697591E-2   -1.090896947555238E-2   -3.308927705933560E-2    4.671887024280314E-1   -2.011155146789286E-1
 6.529443280975000E9     5.531313629297844E-1   -9.209126421337015E-2   -1.037772955669124E-2   -3.354277016368417E-2   -1.112519104758269E-2   -3.328786937111562E-2    4.667800576711859E-1   -2.021529466523211E-1
 6.529453212150000E9     5.528632364561342E-1   -9.265448760495532E-2   -1.047553971744466E-2   -3.373672748258728E-2   -1.113773853403192E-2   -3.347953414039209E-2    4.664163022420982E-1   -2.030632300808353E-1
 6.529463143325000E9     5.526763697847276E-1   -9.353809735751033E-2   -1.056937981579689E-2   -3.381506163001863E-2   -1.132332153201447E-2   -3.375459975524117E-2    4.661283671953840E-1   -2.039280039152961E-1
 6.529473074500000E9     5.525986080139064E-1   -9.430532216790066E-2   -1.061684933784215E-2   -3.400264570416454E-2   -1.144910958512532E-2   -3.373493653567191E-2    4.656683733523652E-1   -2.047431444011807E-1
 6.529483005675000E9     5.524983620501887E-1   -9.510589097100063E-2   -1.080574683274644E-2   -3.400355588968773E-2   -1.157273514946728E-2   -3.393461976284978E-2    4.652214496851586E-1   -2.055546464845604E-1
 6.529492936850000E9     5.523140651949924E-1   -9.589003886046503E-2   -1.090339289082703E-2   -3.440703477817142E-2   -1.163128994881080E-2   -3.411336306985045E-2    4.647054426976898E-1   -2.064789061394920E-1
 6.529502868025000E9     5.520761076108816E-1   -9.681551709712199E-2   -1.136915430779432E-2   -3.435572776853701E-2   -1.182664582674978E-2   -3.427413163707556E-2    4.642486721123962E-1   -2.073058905585432E-1
 6.529512799200000E9     5.519847392867391E-1   -9.767982913689603E-2   -1.115105583924518E-2   -3.459128727339611E-2   -1.185210175124874E-2   -3.441216811294458E-2    4.639105132036876E-1   -2.081379448445356E-1
 6.529522730375000E9     5.518775062625692E-1   -9.828603601619307E-2   -1.132710631411457E-2   -3.468384811350401E-2   -1.198577423199969E-2   -3.459040396995602E-2    4.632779471584841E-1   -2.090785984291263E-1
 6.529532661550000E9     5.516712124773469E-1   -9.924087579641633E-2   -1.142442978993432E-2   -3.500355831000663E-2   -1.221002145926059E-2   -3.469075775059528E-2    4.629271826985131E-1   -2.098523433297068E-1
 6.529542592725000E9     5.516862835019386E-1   -1.000447147910786E-1   -1.146979882225273E-2   -3.513569595187430E-2   -1.227078073961302E-2   -3.504199014748324E-2    4.624779121747953E-1   -2.108291262291368E-1
 6.529552523900000E9     5.513811111085573E-1   -1.007755174166565E-1   -1.187112418051541E-2   -3.538646659388241E-2   -1.250241982534504E-2   -3.505380141010694E-2    4.620194629312996E-1   -2.118527331865900E-1
 6.529562455075000E9     5.512457405649784E-1   -1.017284164837560E-1   -1.184208322794340E-2   -3.552721812458729E-2   -1.256432413105002E-2   -3.528816006138535E-2    4.616227437127176E-1   -2.125980448284456E-1
 6.529572386250000E9     5.511141742387944E-1   -1.024976929191423E-1   -1.195622345157018E-2   -3.566478131774765E-2   -1.266906225274600E-2   -3.545878327684751E-2    4.610777886779353E-1   -2.134792266389866E-1
 6.529582317425000E9     5.508491071387893E-1   -1.033550414250324E-1   -1.215017487710906E-2   -3.583664925234883E-2   -1.288076140908819E-2   -3.567256705382591E-2    4.605502827363359E-1   -2.142272945005300E-1
 6.529592248600000E9     5.506723727518575E-1   -1.041853363623334E-1   -1.228315046868888E-2   -3.609657369080760E-2   -1.294659006779492E-2   -3.583587946048131E-2    4.601860551899747E-1   -2.153258165155498E-1
 6.529602179775000E9     5.504654880181743E-1   -1.049360954955329E-1   -1.232464485069896E-2   -3.629623238778445E-2   -1.320975708681802E-2   -3.583489119833475E-2    4.597634711137804E-1   -2.163063231520068E-1
 6.529612110950000E9     5.503980135313961E-1   -1.057710673346896E-1   -1.261199989934595E-2   -3.643932313315370E-2   -1.331717183164658E-2   -3.620889123119603E-2    4.592543180010047E-1   -2.173196897373429E-1
 6.529622042125000E9     5.502234812681869E-1   -1.066224530140170E-1   -1.269488993922075E-2   -3.654802988914570E-2   -1.350811155505593E-2   -3.640770009795651E-2    4.587707460128157E-1   -2.180703200195218E-1
 6.529631973300000E9     5.499265797780010E-1   -1.074707482772065E-1   -1.280526173643021E-2   -3.670248138493306E-2   -1.364688076133812E-2   -3.661442481146175E-2    4.583346232355324E-1   -2.189679150171038E-1
 6.529641904475000E9     5.498119792781105E-1   -1.082067743836777E-1   -1.301752453306704E-2   -3.714710877079983E-2   -1.368947957425216E-2   -3.666734512667356E-2    4.577651862705815E-1   -2.198322934519933E-1
 6.529651835650000E9     5.496823264188873E-1   -1.091771875879372E-1   -1.324246170181428E-2   -3.718211284325555E-2   -1.396613094336704E-2   -3.689868185043749E-2    4.573956581256368E-1   -2.208391406027867E-1
 6.529661766825000E9     5.495134499390968E-1   -1.100382691252869E-1   -1.318129260224521E-2   -3.731648001741315E-2   -1.411957220498207E-2   -3.729311354629383E-2    4.567614340208839E-1   -2.216702050631759E-1
 6.529671698000000E9     5.493071229239517E-1   -1.108889113255882E-1   -1.341386404759181E-2   -3.752778059939645E-2   -1.420434547606566E-2   -3.732036834007376E-2    4.561307909849326E-1   -2.226488055552222E-1
 6.529681629175000E9     5.490554320739575E-1   -1.115244316976481E-1   -1.367530352837096E-2   -3.793865935255011E-2   -1.446301265942623E-2   -3.758989395428906E-2    4.557352896616662E-1   -2.235807624087370E-1
 6.529691560350000E9     5.488757222763860E-1   -1.124396258154229E-1   -1.374382747615538E-2   -3.799132815853289E-2   -1.459013337007065E-2   -3.774661833797403E-2    4.552985617045542E-1   -2.245404777387634E-1
 6.529701491525000E9     5.487603416468594E-1   -1.133725422392026E-1   -1.395441424185997E-2   -3.831083455208854E-2   -1.482442115495834E-2   -3.791825683869870E-2    4.547876059478689E-1   -2.254995717738303E-1
 6.529711422700000E9     5.485492039608969E-1   -1.141680488019719E-1   -1.405744622598386E-2   -3.841713150617113E-2   -1.491732724112932E-2   -3.817970690072988E-2    4.543084001553854E-1   -2.264940369333625E-1
 6.529721353875000E9     5.483185287352056E-1   -1.149125851210629E-1   -1.422604211067503E-2   -3.857244989723201E-2   -1.500745536430621E-2   -3.841361221237273E-2    4.537450249497894E-1   -2.275730367469261E-1
 6.529731285050000E9     5.481256968675058E-1   -1.158052387982239E-1   -1.444939530027705E-2   -3.879226984145399E-2   -1.521704024020784E-2   -3.857047898406869E-2    4.530695627637529E-1   -2.283392959235610E-1
 6.529741216225000E9     5.478316353883865E-1   -1.165804414335250E-1   -1.456594287265020E-2   -3.920335098243093E-2   -1.554475188289022E-2   -3.868822383970254E-2    4.526556109154865E-1   -2.292182984654833E-1
 6.529751147400000E9     5.477426928600860E-1   -1.174213098962631E-1   -1.467065429632940E-2   -3.931721419617549E-2   -1.558541562525424E-2   -3.896049947376900E-2    4.521420194591340E-1   -2.303705336897543E-1
 6.529761078575000E9     5.474985255831287E-1   -1.182553791904093E-1   -1.499899961530138E-2   -3.948155821939903E-2   -1.585253121643329E-2   -3.927268738167830E-2    4.513708701013858E-1   -2.311306865953261E-1
 6.529771009750000E9     5.472798881662501E-1   -1.192197723640342E-1   -1.499975707222262E-2   -3.980069433158099E-2   -1.593633555427497E-2   -3.940191805732650E-2    4.510209010967136E-1   -2.320191241978680E-1
 6.529780940925000E9     5.471337446279317E-1   -1.200078989952252E-1   -1.534484399150710E-2   -3.993021336349844E-2   -1.619851864448682E-2   -3.960812533223615E-2    4.503973947409838E-1   -2.331753376695256E-1
 6.529790872100000E9     5.469142944671944E-1   -1.210088709861556E-1   -1.545028773278369E-2   -4.019130650397849E-2   -1.640453351718578E-2   -3.993986668311988E-2    4.496520561045776E-1   -2.339884585311722E-1
 6.529800803275000E9     5.466437508265083E-1   -1.217625767871643E-1   -1.562535185362370E-2   -4.050320530161453E-2   -1.658024002165134E-2   -4.007961428489341E-2    4.492544244697103E-1   -2.350497389999843E-1
 6.529810734450000E9     5.465158630439684E-1   -1.226428806587659E-1   -1.584508771682510E-2   -4.057862243579757E-2   -1.675472374760950E-2   -4.024417663385663E-2    4.485150816404288E-1   -2.358068763854311E-1
 6.529820665625000E9     5.462429133450448E-1   -1.233746273028430E-1   -1.617223318685596E-2   -4.085151636140723E-2   -1.698066364004147E-2   -4.057620053028364E-2    4.479301887207649E-1   -2.369881632811190E-1
 6.529830596800000E9     5.459885962871972E-1   -1.242393086588170E-1   -1.617581031265749E-2   -4.116707730466300E-2   -1.719200275798680E-2   -4.084954383908009E-2    4.474259393904444E-1   -2.379698424223662E-1
 6.529840527975000E9     5.457767200749132E-1   -1.251237940802238E-1   -1.650964359060780E-2   -4.131629547612335E-2   -1.732825327429444E-2   -4.111402732299146E-2    4.469679550526605E-1   -2.388734013590222E-1
 6.529850459150000E9     5.455255269969935E-1   -1.260584971850977E-1   -1.646054513950803E-2   -4.158096485429656E-2   -1.760401541943552E-2   -4.130922320780272E-2    4.463000550176044E-1   -2.398658901673793E-1
 6.529860390325000E9     5.453541237202205E-1   -1.268469624803473E-1   -1.678964213403175E-2   -4.193998859064619E-2   -1.775270833160860E-2   -4.144405609289467E-2    4.454602732815544E-1   -2.410553963770578E-1
 6.529870321500000E9     5.451088517354609E-1   -1.276799348634335E-1   -1.696174045075029E-2   -4.211263518412058E-2   -1.798539840896145E-2   -4.172680444910169E-2    4.451390300184884E-1   -2.420712789792230E-1
 6.529880252675000E9     5.448688652388818E-1   -1.285936052582368E-1   -1.739503892115404E-2   -4.228217581355158E-2   -1.821008646529372E-2   -4.204016839041329E-2    4.443171187160354E-1   -2.430320154325337E-1
 6.529890183850000E9     5.446624525111498E-1   -1.294000872072986E-1   -1.742644827834334E-2   -4.274016499189554E-2   -1.843476541128401E-2   -4.228768994086313E-2    4.437328671190124E-1   -2.439570173796645E-1
 6.529900115025000E9     5.443612949693718E-1   -1.303772694869824E-1   -1.768868548617073E-2   -4.290235786570246E-2   -1.879583680023915E-2   -4.260094048033845E-2    4.430455058873367E-1   -2.448512032493298E-1
 6.529910046200000E9     5.441196748411384E-1   -1.311702728874418E-1   -1.782618233087233E-2   -4.317129094340854E-2   -1.886169270558698E-2   -4.278886259970469E-2    4.423817934951252E-1   -2.459145290207188E-1
 6.529919977375000E9     5.438826122856724E-1   -1.321406977407424E-1   -1.811740368409711E-2   -4.346508423292764E-2   -1.910995315661205E-2   -4.305698305943464E-2    4.418371964280718E-1   -2.469391511879819E-1
 6.529929908550000E9     5.435155696333284E-1   -1.329393572990091E-1   -1.833007190296309E-2   -4.362848011872656E-2   -1.939925268157753E-2   -4.328175565719219E-2    4.410329360024339E-1   -2.480243266778050E-1
 6.529939839725000E9     5.434485655947012E-1   -1.338714886134680E-1   -1.862980649244272E-2   -4.392349676923139E-2   -1.962273947689499E-2   -4.361894670852930E-2    4.403816327523220E-1   -2.491445416068004E-1
 6.529949770900000E9     5.431500636111420E-1   -1.348278638542222E-1   -1.878656832260704E-2   -4.411491733736766E-2   -1.992535544230484E-2   -4.372143386481437E-2    4.395997386407258E-1   -2.500374316764832E-1
 6.529959702075000E9     5.429233266971893E-1   -1.355096125676729E-1   -1.920279646463223E-2   -4.458413663211232E-2   -2.015988765691329E-2   -4.411895332916877E-2    4.390130555615199E-1   -2.512227285230576E-1
 6.529969633250000E9     5.426662709104100E-1   -1.365681612505464E-1   -1.935448708687948E-2   -4.476937202338966E-2   -2.043832079306979E-2   -4.450512143280665E-2    4.383675960256464E-1   -2.522726484747755E-1
 6.529979564425000E9     5.423892073134419E-1   -1.373870410294764E-1   -1.965789109935172E-2   -4.509339611077175E-2   -2.069277820384264E-2   -4.468546325005989E-2    4.374610236856124E-1   -2.534087773633388E-1
 6.529989495600000E9     5.420444232219921E-1   -1.383415475043968E-1   -1.989973005483239E-2   -4.539860356445424E-2   -2.079781673778382E-2   -4.493696193792043E-2    4.366636271374004E-1   -2.543366826197443E-1
 6.529999426775000E9     5.417668087122626E-1   -1.391928534921028E-1   -1.999750157382834E-2   -4.567765024174125E-2   -2.115444979339801E-2   -4.526293481983862E-2    4.359243371669910E-1   -2.553281052032899E-1
 6.530009357950000E9     5.414837878638560E-1   -1.400556752580293E-1   -2.025000233043775E-2   -4.591595299879291E-2   -2.151766511377618E-2   -4.556894561149021E-2    4.352982545136827E-1   -2.565427560584408E-1
 6.530019289125000E9     5.412531699361608E-1   -1.409968545924354E-1   -2.066738067420023E-2   -4.637327776424592E-2   -2.170038476440135E-2   -4.578333638612873E-2    4.344821636876034E-1   -2.574785510786246E-1
 6.530029220300000E9     5.409415242933561E-1   -1.418045814780489E-1   -2.090008703350137E-2   -4.661207935856632E-2   -2.199927162664134E-2   -4.620170922279804E-2    4.337135481534656E-1   -2.587134421033770E-1
 6.530039151475000E9     5.406679537766315E-1   -1.427760000500535E-1   -2.105880147657168E-2   -4.692430571223619E-2   -2.233857920958498E-2   -4.644027387616481E-2    4.331024559877554E-1   -2.596848958789555E-1
 6.530049082650000E9     5.402649816364258E-1   -1.436091188926408E-1   -2.146619354460530E-2   -4.709988171181303E-2   -2.259349916162700E-2   -4.685043325319777E-2    4.322503658405613E-1   -2.608113436428573E-1
 6.530059013825000E9     5.401236838057721E-1   -1.445182580135125E-1   -2.173646962999645E-2   -4.755963730387123E-2   -2.286661868175469E-2   -4.716060661682568E-2    4.314118960950054E-1   -2.619193055467424E-1
 6.530068945000000E9     5.397691791848566E-1   -1.453868970273139E-1   -2.202743053685070E-2   -4.783498549488475E-2   -2.325430550051885E-2   -4.738702509942831E-2    4.305935778599268E-1   -2.630986675659335E-1
 6.530078876175000E9     5.394497057343671E-1   -1.463514036427913E-1   -2.231454860916676E-2   -4.809074009271531E-2   -2.354518653341786E-2   -4.768439057116092E-2    4.298904521118751E-1   -2.640767337843414E-1
 6.530088807350000E9     5.392011708334579E-1   -1.472728692532858E-1   -2.265932621446247E-2   -4.845967733586255E-2   -2.389330167960594E-2   -4.802973128114012E-2    4.290716322611314E-1   -2.653122861235743E-1
 6.530098738525000E9     5.388149894852606E-1   -1.482397046727435E-1   -2.297185580655222E-2   -4.889076159522138E-2   -2.419810962479629E-2   -4.831521912929786E-2    4.280637456245121E-1   -2.663698827270274E-1
 6.530108669700000E9     5.385213766976958E-1   -1.491426712292167E-1   -2.328784398183130E-2   -4.909876227479047E-2   -2.444121082130251E-2   -4.873945360922279E-2    4.273624709369078E-1   -2.675024103893183E-1
 6.530118600875000E9     5.381869562267992E-1   -1.499648338361654E-1   -2.370046349741963E-2   -4.938683120774721E-2   -2.483870762652223E-2   -4.911420091545433E-2    4.263260427512871E-1   -2.686098486922420E-1
 6.530128532050000E9     5.378320153759260E-1   -1.510642620212429E-1   -2.385900818172200E-2   -4.977298119626886E-2   -2.517074230727643E-2   -4.926953769734846E-2    4.255772117516702E-1   -2.697841201113608E-1
 6.530138463225000E9     5.375590125799801E-1   -1.519512579837039E-1   -2.418527230982066E-2   -5.027570550678524E-2   -2.555112515715331E-2   -4.975579582348114E-2    4.245362293487013E-1   -2.709850360855405E-1
 6.530148394400000E9     5.372053523175927E-1   -1.528195161530242E-1   -2.471531228638085E-2   -5.066214088428603E-2   -2.588217678914435E-2   -5.005637083688091E-2    4.236970536627025E-1   -2.720316824817440E-1
 6.530158325575000E9     5.368877803830815E-1   -1.537570313008005E-1   -2.505744198257414E-2   -5.103883421695982E-2   -2.624723199331267E-2   -5.045318353580482E-2    4.228262962392192E-1   -2.733432389402561E-1
 6.530168256750000E9     5.365639024834736E-1   -1.546381502638995E-1   -2.539366098327350E-2   -5.140454614571143E-2   -2.666589081152192E-2   -5.079440868486260E-2    4.218341182102594E-1   -2.743404028451000E-1
