#  HZ   S   RI   R     50.00 
! Rohde & Schwarz Vector Network Analyzer 
! Rohde-Schwarz,ZNB20-2Port,1311601062101988,3.16
! Created: UTC 3/21/2024, 12:52:44 AM
! freq[Hz]                re:S11                  im:S11                  re:S21                  im:S21                  re:S12                  im:S12                  re:S22                  im:S22
 6.528825960000000E9     5.606994509680300E-1   -5.837083303083339E-2   -8.264887516803926E-3   -3.346893847693779E-2   -9.096444593373316E-3   -3.333390364603829E-2    4.816171895410236E-1   -1.895097747595227E-1
 6.528835251350000E9     5.606691279886283E-1   -5.920282555847060E-2   -8.444222824652844E-3   -3.368890713231470E-2   -9.167175529680792E-3   -3.350881429109064E-2    4.812224287977700E-1   -1.903456252079125E-1
 6.528844542700000E9     5.605308583945664E-1   -5.986789197278624E-2   -8.548032385305498E-3   -3.379235227871209E-2   -9.264836286664222E-3   -3.365868797075905E-2    4.809420764353831E-1   -1.912142017113233E-1
 6.528853834050000E9     5.605041099348905E-1   -6.075568942887043E-2   -8.584133422590345E-3   -3.399520479685932E-2   -9.388796532923927E-3   -3.373208213145212E-2    4.806448432098641E-1   -1.919624502522672E-1
 6.528863125400000E9     5.603725000669656E-1   -6.151279136079242E-2   -8.686055493835611E-3   -3.400909880424581E-2   -9.420144699835174E-3   -3.392003720915635E-2    4.801747596185693E-1   -1.929148889408358E-1
 6.528872416750000E9     5.603348748230214E-1   -6.225051385370574E-2   -8.863100165866089E-3   -3.435087795072174E-2   -9.617716439070294E-3   -3.411758727927477E-2    4.796759801911789E-1   -1.938044305232329E-1
 6.528881708100000E9     5.602041147406738E-1   -6.281743171016285E-2   -8.833145015154736E-3   -3.445446340576844E-2   -9.719980167542476E-3   -3.424348267014798E-2    4.795667319128583E-1   -1.945961706148267E-1
 6.528890999450000E9     5.601243479560458E-1   -6.378607672677493E-2   -8.996882269710559E-3   -3.451620815846744E-2   -9.767516732711569E-3   -3.430335417187937E-2    4.790116482346650E-1   -1.953229343941238E-1
 6.528900290800000E9     5.599609379618387E-1   -6.452499048918568E-2   -9.129528755713023E-3   -3.469453090042641E-2   -9.945914456271637E-3   -3.452987247676822E-2    4.787294042817512E-1   -1.962414739733780E-1
 6.528909582150000E9     5.599338264102933E-1   -6.539009009339666E-2   -9.317815316569949E-3   -3.489510734209875E-2   -9.933697858050533E-3   -3.477569524531385E-2    4.783504051698143E-1   -1.971186519715299E-1
 6.528918873500000E9     5.598656993782321E-1   -6.604443744731081E-2   -9.479110273094640E-3   -3.494312585971945E-2   -1.009153765658421E-2   -3.488967101875414E-2    4.779086944294415E-1   -1.978707338667342E-1
 6.528928164850000E9     5.596661980779019E-1   -6.688261462630496E-2   -9.489367478149406E-3   -3.520992481110178E-2   -1.025306751292217E-2   -3.500923811586833E-2    4.777600098397203E-1   -1.988235678709336E-1
 6.528937456200000E9     5.597066591828576E-1   -6.764577045085587E-2   -9.478161570086456E-3   -3.539819206199132E-2   -1.024518380623965E-2   -3.513590857699088E-2    4.771819664194894E-1   -1.996885182329778E-1
 6.528946747550000E9     5.594157017799446E-1   -6.841746815482108E-2   -9.571409715079811E-3   -3.551275624313770E-2   -1.046755624116143E-2   -3.530217822281310E-2    4.768795654965245E-1   -2.005934708398834E-1
 6.528956038900000E9     5.594258268880572E-1   -6.923753824234748E-2   -9.782641706427460E-3   -3.566646106513079E-2   -1.050565712046585E-2   -3.560455198105848E-2    4.764058757212040E-1   -2.012259975228695E-1
 6.528965330250000E9     5.593141430521327E-1   -6.995545602185994E-2   -9.781658376230646E-3   -3.596968409065565E-2   -1.062862809239938E-2   -3.574980293043203E-2    4.761303336491622E-1   -2.023119152337221E-1
 6.528974621600000E9     5.592011124646505E-1   -7.076341150298025E-2   -9.965289021712474E-3   -3.588036656391575E-2   -1.074520208590111E-2   -3.580395697440105E-2    4.756852471875898E-1   -2.030750364754260E-1
 6.528983912950000E9     5.590588803746684E-1   -7.156779589210450E-2   -1.001642778738167E-2   -3.611362017766015E-2   -1.092227706245685E-2   -3.610681616116852E-2    4.752732873819612E-1   -2.040071535189028E-1
 6.528993204300000E9     5.589466392184002E-1   -7.235365489035392E-2   -1.015127915619225E-2   -3.646004569858016E-2   -1.109761225130112E-2   -3.618343833877304E-2    4.748290173388626E-1   -2.047519357632232E-1
 6.529002495650000E9     5.587810663610462E-1   -7.296857934567215E-2   -1.049809325542834E-2   -3.649452533907314E-2   -1.115230688275266E-2   -3.643025242343401E-2    4.744378010403613E-1   -2.055773414981695E-1
 6.529011787000000E9     5.588736283031382E-1   -7.385108187616772E-2   -1.029216274456956E-2   -3.678584194273672E-2   -1.126666818037224E-2   -3.655024033881982E-2    4.741174769335194E-1   -2.066985975274656E-1
 6.529021078350000E9     5.586418991801189E-1   -7.465745781903740E-2   -1.063120654000070E-2   -3.690099368964141E-2   -1.147332622101758E-2   -3.674790686836526E-2    4.734985131627573E-1   -2.074211761986357E-1
 6.529030369700000E9     5.584707661005328E-1   -7.539080435570777E-2   -1.067005402432693E-2   -3.716133944205937E-2   -1.153726362019174E-2   -3.689959040253621E-2    4.731320454194704E-1   -2.083079632750681E-1
 6.529039661050000E9     5.584500431706464E-1   -7.617648932517090E-2   -1.067276920114475E-2   -3.734660130379156E-2   -1.170142335327251E-2   -3.711147674158136E-2    4.727298594425129E-1   -2.091117394514899E-1
 6.529048952400000E9     5.583011979447590E-1   -7.699810034668218E-2   -1.090093588341002E-2   -3.737400088199060E-2   -1.180840360983337E-2   -3.723580733770504E-2    4.723720148608431E-1   -2.099479311338655E-1
 6.529058243750000E9     5.581359635102779E-1   -7.784813220981626E-2   -1.110116331042645E-2   -3.766686411485274E-2   -1.182403481449057E-2   -3.755822737215906E-2    4.717500770141669E-1   -2.110173387349273E-1
 6.529067535100000E9     5.581002335069567E-1   -7.857464521717945E-2   -1.126088476633015E-2   -3.791363415459047E-2   -1.202682327474899E-2   -3.768509834099549E-2    4.713760134198222E-1   -2.118433329341082E-1
 6.529076826450000E9     5.579466520356402E-1   -7.946072528592990E-2   -1.137095512681251E-2   -3.804340310711535E-2   -1.226781835957921E-2   -3.782138700706648E-2    4.708901058885178E-1   -2.126568774074025E-1
 6.529086117800000E9     5.576936273121779E-1   -8.013362541529664E-2   -1.139003137045267E-2   -3.849592535623016E-2   -1.234262363567940E-2   -3.808157344836618E-2    4.706096173177274E-1   -2.136822143180085E-1
 6.529095409150000E9     5.575618062349744E-1   -8.084636842719103E-2   -1.169474221372456E-2   -3.832170316152806E-2   -1.252368982052911E-2   -3.819803839143642E-2    4.702012251879484E-1   -2.142744230080516E-1
 6.529104700500000E9     5.575904029034630E-1   -8.159586759792711E-2   -1.183733097340445E-2   -3.862077043055451E-2   -1.261256711023018E-2   -3.834860369307140E-2    4.697415981503714E-1   -2.154264860462919E-1
 6.529113991850000E9     5.573626380324609E-1   -8.256853337785067E-2   -1.192682950832080E-2   -3.883029029233247E-2   -1.280907353705165E-2   -3.865120786431590E-2    4.691226589681188E-1   -2.163577624586069E-1
 6.529123283200000E9     5.572429018730827E-1   -8.316342995974557E-2   -1.202797398085951E-2   -3.902945318123841E-2   -1.301113720501729E-2   -3.883515453607696E-2    4.688404984420046E-1   -2.171753467090941E-1
 6.529132574550000E9     5.570676385037736E-1   -8.421046574679955E-2   -1.216050836252369E-2   -3.929263138197673E-2   -1.311450506684976E-2   -3.903691644531277E-2    4.682961650853171E-1   -2.181672343354139E-1
 6.529141865900000E9     5.569479993146194E-1   -8.494358266555053E-2   -1.230642813929874E-2   -3.953292613905411E-2   -1.321631520607816E-2   -3.922354096508248E-2    4.677788145789612E-1   -2.189925958850215E-1
 6.529151157250000E9     5.567446237938232E-1   -8.573274110221030E-2   -1.255242361745839E-2   -3.973310327488874E-2   -1.340757302557206E-2   -3.949151289685229E-2    4.673623536165158E-1   -2.199212786149685E-1
 6.529160448600000E9     5.566667537727060E-1   -8.663247672863936E-2   -1.262841030917279E-2   -3.985206887377776E-2   -1.343480155175351E-2   -3.965359596102652E-2    4.668907910083217E-1   -2.209244159782403E-1
 6.529169739950000E9     5.564786455603371E-1   -8.732160862342815E-2   -1.269176498029396E-2   -4.011579889969709E-2   -1.373173264667488E-2   -3.982000079676547E-2    4.663768285198511E-1   -2.219202103372948E-1
 6.529179031300000E9     5.562931995765890E-1   -8.810532862740898E-2   -1.288330709622527E-2   -4.017378902975749E-2   -1.397343097840197E-2   -4.009045827006526E-2    4.657528693881834E-1   -2.227079595500686E-1
 6.529188322650000E9     5.561696875182701E-1   -8.899925027162971E-2   -1.305624122292113E-2   -4.061570438507920E-2   -1.397636059333198E-2   -4.025887275029449E-2    4.653742276647274E-1   -2.236608241867806E-1
 6.529197614000000E9     5.560992607048755E-1   -8.988435766346058E-2   -1.326146374654345E-2   -4.069343540986513E-2   -1.422382413242333E-2   -4.044960945970093E-2    4.647925582181922E-1   -2.245844169032572E-1
 6.529206905350000E9     5.560480279449412E-1   -9.052228227491403E-2   -1.330823011386904E-2   -4.098964201779426E-2   -1.429169116244553E-2   -4.076112361564018E-2    4.643284449254485E-1   -2.255737900452608E-1
 6.529216196700000E9     5.558641090646007E-1   -9.135204153811560E-2   -1.359675738893728E-2   -4.118079306904299E-2   -1.455884564513231E-2   -4.101760940824470E-2    4.638081458186624E-1   -2.265378021935721E-1
 6.529225488050000E9     5.556141498563861E-1   -9.212941260412201E-2   -1.379453226775111E-2   -4.132775365863444E-2   -1.470703867452204E-2   -4.123082999837966E-2    4.634128714973786E-1   -2.275247857753472E-1
 6.529234779400000E9     5.553879615876945E-1   -9.295283464050216E-2   -1.394614833197584E-2   -4.168163452404122E-2   -1.479984065222313E-2   -4.136812591543495E-2    4.628143044311797E-1   -2.283213719871153E-1
 6.529244070750000E9     5.552622067185640E-1   -9.381662946044490E-2   -1.396862106880126E-2   -4.189329157768862E-2   -1.509572265463465E-2   -4.152803153085678E-2    4.622219839992313E-1   -2.293865298498533E-1
 6.529253362100000E9     5.551376608439899E-1   -9.457549837276299E-2   -1.423786426327149E-2   -4.214091341450890E-2   -1.517308510459476E-2   -4.185140993009177E-2    4.616748731643183E-1   -2.303792500819281E-1
 6.529262653450000E9     5.550471369110678E-1   -9.550679475670898E-2   -1.442122393364554E-2   -4.238871897787370E-2   -1.534401349455931E-2   -4.208878179365527E-2    4.612420469183107E-1   -2.311892320683654E-1
 6.529271944800000E9     5.547704362356364E-1   -9.626918928916749E-2   -1.466180072561572E-2   -4.258296526151481E-2   -1.556473641102874E-2   -4.231290627949497E-2    4.607494693101647E-1   -2.321506230206166E-1
 6.529281236150000E9     5.546262485960712E-1   -9.704608981249156E-2   -1.477847627850602E-2   -4.291576569969438E-2   -1.579035766206022E-2   -4.257712740452628E-2    4.600924457442084E-1   -2.332297957935323E-1
 6.529290527500000E9     5.545267078560306E-1   -9.788380028264805E-2   -1.495132511569627E-2   -4.305082093035801E-2   -1.592526262841468E-2   -4.271796945462897E-2    4.594992077532975E-1   -2.341553178016167E-1
 6.529299818850000E9     5.543613477404812E-1   -9.880730193600744E-2   -1.505591354297890E-2   -4.330638178561102E-2   -1.613917944036540E-2   -4.300408378832295E-2    4.588881423038709E-1   -2.352191872178379E-1
 6.529309110200000E9     5.540897837519783E-1   -9.945790868312913E-2   -1.532410964374468E-2   -4.348215464792277E-2   -1.634949742960065E-2   -4.339119835947731E-2    4.582569885414436E-1   -2.358230041558827E-1
 6.529318401550000E9     5.540361757629215E-1   -1.004308595912583E-1   -1.543267477467530E-2   -4.379879848453292E-2   -1.648196330141671E-2   -4.359986486713414E-2    4.579622540002901E-1   -2.370475101091985E-1
 6.529327692900000E9     5.538709285664154E-1   -1.011278293914966E-1   -1.571837983053337E-2   -4.404787407559271E-2   -1.672493011045808E-2   -4.377178212316785E-2    4.571570734460319E-1   -2.380750667522721E-1
 6.529336984250000E9     5.536080529849626E-1   -1.018618713345936E-1   -1.597124192936613E-2   -4.431550909370548E-2   -1.698724278354589E-2   -4.415136861318646E-2    4.566307880419670E-1   -2.390916467606791E-1
 6.529346275600000E9     5.533865184180111E-1   -1.029362479987601E-1   -1.611757478786020E-2   -4.467525424290655E-2   -1.713882535920943E-2   -4.426486876150196E-2    4.560414190436942E-1   -2.401604947692262E-1
 6.529355566950000E9     5.533142875441367E-1   -1.038086467141123E-1   -1.625969595089761E-2   -4.494420572577788E-2   -1.738523700149572E-2   -4.455768442889525E-2    4.553984351191808E-1   -2.408691746338611E-1
 6.529364858300000E9     5.530340940910718E-1   -1.045557170571875E-1   -1.644436835449468E-2   -4.514437809970424E-2   -1.750302951101319E-2   -4.484791596852061E-2    4.548753003067549E-1   -2.419724717893799E-1
 6.529374149650000E9     5.528890353392093E-1   -1.054114175265399E-1   -1.672832648454306E-2   -4.535615484582854E-2   -1.778695641592729E-2   -4.507641047887957E-2    4.540826036635364E-1   -2.430168812085619E-1
 6.529383441000000E9     5.525378160668957E-1   -1.061731527729811E-1   -1.696355944304198E-2   -4.564499044807235E-2   -1.812743655163914E-2   -4.543667527884154E-2    4.536665439980183E-1   -2.441971020144421E-1
 6.529392732350000E9     5.524913831322724E-1   -1.071231117502292E-1   -1.714132456241949E-2   -4.598681412127237E-2   -1.824273986529861E-2   -4.570329025010239E-2    4.529560725809966E-1   -2.452143897291010E-1
 6.529402023700000E9     5.522689591642890E-1   -1.078614388327498E-1   -1.743593188430323E-2   -4.631534927951825E-2   -1.856360641384574E-2   -4.594951076145481E-2    4.522687339784828E-1   -2.461295000479876E-1
 6.529411315050000E9     5.520568663491223E-1   -1.088017632413945E-1   -1.762255097869301E-2   -4.664973816057705E-2   -1.865183817552149E-2   -4.610616748126457E-2    4.516306063876890E-1   -2.473023888441265E-1
 6.529420606400000E9     5.519006263978089E-1   -1.096583518100214E-1   -1.768774233638291E-2   -4.689959555276418E-2   -1.889308041250670E-2   -4.657158651418208E-2    4.510094134826108E-1   -2.482673897577216E-1
 6.529429897750000E9     5.515936858654790E-1   -1.104794047723250E-1   -1.799858568185423E-2   -4.720743172166735E-2   -1.914601718237345E-2   -4.681141846997741E-2    4.502536416922099E-1   -2.493600176436817E-1
 6.529439189100000E9     5.513727691436141E-1   -1.113236425336835E-1   -1.829422961331569E-2   -4.741009044725168E-2   -1.938623107158267E-2   -4.709914251694115E-2    4.496257622963462E-1   -2.503902802049049E-1
 6.529448480450000E9     5.511553729593497E-1   -1.121291976989331E-1   -1.841911644133308E-2   -4.776979581727189E-2   -1.966906014444705E-2   -4.740820822338888E-2    4.489996007055551E-1   -2.513886028509871E-1
 6.529457771800000E9     5.508621655227904E-1   -1.131473970735812E-1   -1.869429450201993E-2   -4.802808491925233E-2   -1.988971388463197E-2   -4.776349834515902E-2    4.483868955584603E-1   -2.523652622523579E-1
 6.529467063150000E9     5.507623371158989E-1   -1.139338768056386E-1   -1.888741433458603E-2   -4.841580126224117E-2   -2.033308111333263E-2   -4.796788112562138E-2    4.475509515469813E-1   -2.536726280128084E-1
 6.529476354500000E9     5.505187222188647E-1   -1.148377753722511E-1   -1.931602730064459E-2   -4.871535639808024E-2   -2.039864389914226E-2   -4.829699037292460E-2    4.468324712111251E-1   -2.545864805781047E-1
 6.529485645850000E9     5.503559118737187E-1   -1.156905901286578E-1   -1.944514504890398E-2   -4.886000172615298E-2   -2.070218805151142E-2   -4.852614418078700E-2    4.460784280702769E-1   -2.558237910035164E-1
 6.529494937200000E9     5.500882807485770E-1   -1.166401191372323E-1   -1.983473174115594E-2   -4.939531975913528E-2   -2.094401134552804E-2   -4.896712642503496E-2    4.454228454170988E-1   -2.568380230783314E-1
 6.529504228550000E9     5.498358342921996E-1   -1.173572004419034E-1   -2.005922591910455E-2   -4.978785585886811E-2   -2.127752729775674E-2   -4.930310140978215E-2    4.446422570954782E-1   -2.578788508664034E-1
 6.529513519900000E9     5.496040318820247E-1   -1.182774886357649E-1   -2.019276068020516E-2   -4.994682243869958E-2   -2.146707481785156E-2   -4.964100604529803E-2    4.438865282308713E-1   -2.589410522698307E-1
 6.529522811250000E9     5.493599965030589E-1   -1.190678546580219E-1   -2.052284145036212E-2   -5.035656947652932E-2   -2.179991552764295E-2   -4.990446939852175E-2    4.432344225879025E-1   -2.602637924696936E-1
 6.529532102600000E9     5.490909767564830E-1   -1.200900934029688E-1   -2.077632424826003E-2   -5.070786688646123E-2   -2.210793511366456E-2   -5.031496059293165E-2    4.423674441889094E-1   -2.612715308471247E-1
 6.529541393950000E9     5.489009913597440E-1   -1.209644980628122E-1   -2.115846967797779E-2   -5.106160379771078E-2   -2.233706789505689E-2   -5.052298846429866E-2    4.415938445495482E-1   -2.625383584342003E-1
 6.529550685300000E9     5.486324172620970E-1   -1.218261432424009E-1   -2.138235623214522E-2   -5.140387726823105E-2   -2.272365942144006E-2   -5.086479880624278E-2    4.409406511570478E-1   -2.635253136343220E-1
 6.529559976650000E9     5.483422890296440E-1   -1.227255092869932E-1   -2.162645979778797E-2   -5.166816449049718E-2   -2.306884384556711E-2   -5.125986528201528E-2    4.399253826817223E-1   -2.645254741775995E-1
 6.529569268000000E9     5.482501292259875E-1   -1.235463044779522E-1   -2.208425595661203E-2   -5.216545250176152E-2   -2.327698074655651E-2   -5.154275104757691E-2    4.392802126279208E-1   -2.659275343620495E-1
 6.529578559350000E9     5.477628361544999E-1   -1.245960039693757E-1   -2.237317249881542E-2   -5.231424311599581E-2   -2.363491660453125E-2   -5.203344117793074E-2    4.382124994625198E-1   -2.671318814681654E-1
 6.529587850700000E9     5.475580203018127E-1   -1.253789661267266E-1   -2.266664709735774E-2   -5.289328570339573E-2   -2.410377589107818E-2   -5.237948936581558E-2    4.374664321932275E-1   -2.681756713694387E-1
 6.529597142050000E9     5.473166511480061E-1   -1.263436434099421E-1   -2.303758505905954E-2   -5.336103972019992E-2   -2.424986291622326E-2   -5.274827646109793E-2    4.365025457164156E-1   -2.693249658470248E-1
 6.529606433400000E9     5.470065847934215E-1   -1.271815141798348E-1   -2.326434242782628E-2   -5.350457177394773E-2   -2.465356821679167E-2   -5.304805114496489E-2    4.356756561708117E-1   -2.705044654223563E-1
 6.529615724750000E9     5.466949025208944E-1   -1.281267902816409E-1   -2.366569545658367E-2   -5.398339415413041E-2   -2.499227808886306E-2   -5.341172456799660E-2    4.347859731133158E-1   -2.715678097489181E-1
 6.529625016100000E9     5.463712016138376E-1   -1.289841271029547E-1   -2.402592017071579E-2   -5.438584514623706E-2   -2.532228597909023E-2   -5.386904838172921E-2    4.339177136130372E-1   -2.728154974144654E-1
 6.529634307450000E9     5.461306104182206E-1   -1.298884320541145E-1   -2.423666425622620E-2   -5.476170502247962E-2   -2.578414154712656E-2   -5.422172057007887E-2    4.328894546171770E-1   -2.737639834817727E-1
 6.529643598800000E9     5.458216014503440E-1   -1.308468345778989E-1   -2.456032899250679E-2   -5.513978639050902E-2   -2.610131368473638E-2   -5.455675830305835E-2    4.321398496845133E-1   -2.752427557217372E-1
 6.529652890150000E9     5.456166230783002E-1   -1.317085952963544E-1   -2.493596422674576E-2   -5.548528403948010E-2   -2.647135497468926E-2   -5.506862569299274E-2    4.311698018851360E-1   -2.763702341148329E-1
 6.529662181500000E9     5.452491791212467E-1   -1.327693070363121E-1   -2.529881776246356E-2   -5.577878453090836E-2   -2.688253404804442E-2   -5.532073010083776E-2    4.301993303560944E-1   -2.774974333913139E-1
