#  HZ   S   RI   R     50.00 
! Rohde & Schwarz Vector Network Analyzer 
! Rohde-Schwarz,ZNB20-2Port,1311601062101988,3.16
! Created: UTC 3/21/2024, 1:15:37 AM
! freq[Hz]                re:S11                  im:S11                  re:S21                  im:S21                  re:S12                  im:S12                  re:S22                  im:S22
 6.529296324000000E9     5.548578559724905E-1   -8.004717599983317E-2   -8.689635782437997E-3   -3.115410671768708E-2   -9.284614418037076E-3   -3.097836042607772E-2    4.725625981782991E-1   -1.892656220281927E-1
 6.529306208125000E9     5.547705452591669E-1   -8.082970137578278E-2   -8.797096240855166E-3   -3.123264217923271E-2   -9.465807764226552E-3   -3.111218100473577E-2    4.720957485169870E-1   -1.902783321431243E-1
 6.529316092250000E9     5.546385730518734E-1   -8.158365595339946E-2   -8.784895493007615E-3   -3.141750157134078E-2   -9.524507654775615E-3   -3.124486605895066E-2    4.717791232813831E-1   -1.910871984735585E-1
 6.529325976375000E9     5.544384154025911E-1   -8.236355986675173E-2   -8.863759644422358E-3   -3.157391199923289E-2   -9.700706984036548E-3   -3.139067120909442E-2    4.714147678175154E-1   -1.917905762427727E-1
 6.529335860500000E9     5.544603209161406E-1   -8.315877579854038E-2   -8.942596665253183E-3   -3.158005741339159E-2   -9.734017148828409E-3   -3.148811734966124E-2    4.710636145613645E-1   -1.925459666642317E-1
 6.529345744625000E9     5.542428244131182E-1   -8.395392477254834E-2   -9.194508199133431E-3   -3.193191026468635E-2   -9.928778024432608E-3   -3.160989233610215E-2    4.707040846619023E-1   -1.934514063344577E-1
 6.529355628750000E9     5.541318578221373E-1   -8.486277714795165E-2   -9.345909887545809E-3   -3.184647237776701E-2   -9.923059717786391E-3   -3.179829460201407E-2    4.704101930357253E-1   -1.942770422932608E-1
 6.529365512875000E9     5.540383246566605E-1   -8.563785629638214E-2   -9.503255463354178E-3   -3.214507885385245E-2   -1.007292018663949E-2   -3.191644662660249E-2    4.697960186916474E-1   -1.952720854790171E-1
 6.529375397000000E9     5.539173226941078E-1   -8.645210765497821E-2   -9.622140319755064E-3   -3.232468072484016E-2   -1.020537877877807E-2   -3.213972594694395E-2    4.695595994774337E-1   -1.961424012242066E-1
 6.529385281125000E9     5.537845725278201E-1   -8.711890935197462E-2   -9.624252888378051E-3   -3.240031977189595E-2   -1.026710190962694E-2   -3.225362062820501E-2    4.691509047878277E-1   -1.968028648621106E-1
 6.529395165250000E9     5.534444300748271E-1   -8.791008976703758E-2   -9.732249321344205E-3   -3.252466872946674E-2   -1.034597579015570E-2   -3.236636841202083E-2    4.688639864661865E-1   -1.977242561570151E-1
 6.529405049375000E9     5.534236799797260E-1   -8.871174982130409E-2   -9.851504330898157E-3   -3.270395955949740E-2   -1.049485962908560E-2   -3.251528381601595E-2    4.682837648490365E-1   -1.987012095032157E-1
 6.529414933500000E9     5.534205729579542E-1   -8.959536058014783E-2   -9.924337982753047E-3   -3.275486976431311E-2   -1.052285928397069E-2   -3.257212572343553E-2    4.679343213897534E-1   -1.993415923375838E-1
 6.529424817625000E9     5.533025610377974E-1   -9.035727063754047E-2   -1.005937564571306E-2   -3.297740151261900E-2   -1.070455265926830E-2   -3.280251639011111E-2    4.673855566028440E-1   -2.001918964017495E-1
 6.529434701750000E9     5.530855820705818E-1   -9.119440027305603E-2   -1.009109008478506E-2   -3.313894019656449E-2   -1.074431609369438E-2   -3.290638171350570E-2    4.672102379214974E-1   -2.010756106797158E-1
 6.529444585875000E9     5.529542920556849E-1   -9.195398426409446E-2   -1.019369670152476E-2   -3.340552344228354E-2   -1.095943732262999E-2   -3.310039451991061E-2    4.667807240815616E-1   -2.020458382291275E-1
 6.529454470000000E9     5.527660015634748E-1   -9.273141117176667E-2   -1.048537100036148E-2   -3.335408819091924E-2   -1.106030883655430E-2   -3.330481536095706E-2    4.663369151576306E-1   -2.029906474943637E-1
 6.529464354125000E9     5.525907929967516E-1   -9.358938054643651E-2   -1.051432430829677E-2   -3.360999556798649E-2   -1.119085188581944E-2   -3.342973191274873E-2    4.659906585762745E-1   -2.037794344576454E-1
 6.529474238250000E9     5.524676347579499E-1   -9.451145140536682E-2   -1.053158970217105E-2   -3.369658832808811E-2   -1.134085019303802E-2   -3.362649191564394E-2    4.655810734584754E-1   -2.045824620028487E-1
 6.529484122375000E9     5.523611360941315E-1   -9.518675755369518E-2   -1.062339774384002E-2   -3.402332262649254E-2   -1.140186717771958E-2   -3.374396949392397E-2    4.649464090994558E-1   -2.053818489278842E-1
 6.529494006500000E9     5.521763733830226E-1   -9.599550039626630E-2   -1.080471937496570E-2   -3.417813471165521E-2   -1.159419449841387E-2   -3.391123390702774E-2    4.646119228835298E-1   -2.062544275612103E-1
 6.529503890625000E9     5.521083580884069E-1   -9.683024345111531E-2   -1.090956807617462E-2   -3.426175858648578E-2   -1.168171694080872E-2   -3.399462289947741E-2    4.642688034151650E-1   -2.071820374514826E-1
 6.529513774750000E9     5.518556952685096E-1   -9.769072207858219E-2   -1.117063673394972E-2   -3.441858969182052E-2   -1.189239666838355E-2   -3.426074242609239E-2    4.638216818348571E-1   -2.081190367284123E-1
 6.529523658875000E9     5.516785795450594E-1   -9.829353056707106E-2   -1.129001436003537E-2   -3.452598054374848E-2   -1.198437427504151E-2   -3.434559194677154E-2    4.633414213827735E-1   -2.089226976239092E-1
 6.529533543000000E9     5.515708888867978E-1   -9.914771387227980E-2   -1.131754425279605E-2   -3.469804068794218E-2   -1.204790851358446E-2   -3.450159345855344E-2    4.629080922743570E-1   -2.098429334693830E-1
 6.529543427125000E9     5.513838612034855E-1   -9.998033222532422E-2   -1.144454593439526E-2   -3.479823069338320E-2   -1.220391052702325E-2   -3.480432104789391E-2    4.625443225612939E-1   -2.105608512985938E-1
 6.529553311250000E9     5.513196176915418E-1   -1.007777305082581E-1   -1.160771840030740E-2   -3.517491843126172E-2   -1.238854583821113E-2   -3.491433565920193E-2    4.619785070336942E-1   -2.115547739577776E-1
 6.529563195375000E9     5.511328116511808E-1   -1.016456820756700E-1   -1.169835074165807E-2   -3.533139470108439E-2   -1.245064963182006E-2   -3.499093716240331E-2    4.615112021333856E-1   -2.125121349894530E-1
 6.529573079500000E9     5.509889305348540E-1   -1.024956453719251E-1   -1.184276558227712E-2   -3.549289507338063E-2   -1.260923684134568E-2   -3.515937874674380E-2    4.609543059337726E-1   -2.133545564223087E-1
 6.529582963625000E9     5.506890726463596E-1   -1.032990088329232E-1   -1.205777496720877E-2   -3.564490416197744E-2   -1.287348033076794E-2   -3.539947921769401E-2    4.607791190415278E-1   -2.142897463867970E-1
 6.529592847750000E9     5.505838968574672E-1   -1.042069073310128E-1   -1.222110306484791E-2   -3.564532293929060E-2   -1.280521540904471E-2   -3.562094131549179E-2    4.603325709210453E-1   -2.151537002521587E-1
 6.529602731875000E9     5.505050538136920E-1   -1.049188654568658E-1   -1.225072577922752E-2   -3.609784957340345E-2   -1.306354334364387E-2   -3.570149279756561E-2    4.597388314911214E-1   -2.160565335156852E-1
 6.529612616000000E9     5.501926197606063E-1   -1.057243894986593E-1   -1.237816915280408E-2   -3.622583075420299E-2   -1.320444908760206E-2   -3.598343385300588E-2    4.593131976735653E-1   -2.169054807999624E-1
 6.529622500125000E9     5.501513112337886E-1   -1.066249689012849E-1   -1.246461049683816E-2   -3.649362502210447E-2   -1.325790751679392E-2   -3.604229375399128E-2    4.588037196201024E-1   -2.178169712884940E-1
 6.529632384250000E9     5.499419941650383E-1   -1.074627929939305E-1   -1.272144978798063E-2   -3.657366522750296E-2   -1.352935053349851E-2   -3.637948662407639E-2    4.584176168311700E-1   -2.187387276297054E-1
 6.529642268375000E9     5.495797420177962E-1   -1.082528706875348E-1   -1.281192712232302E-2   -3.674004587345576E-2   -1.359669259761945E-2   -3.644728905806789E-2    4.578955424853212E-1   -2.195598676607104E-1
 6.529652152500000E9     5.496113396543744E-1   -1.090597292983640E-1   -1.287109798130267E-2   -3.675982432833449E-2   -1.372810377024001E-2   -3.675687667670524E-2    4.574081905669680E-1   -2.205204423892682E-1
 6.529662036625000E9     5.493088757416094E-1   -1.097822514370643E-1   -1.314141947830032E-2   -3.702720631482925E-2   -1.390064666967591E-2   -3.699334213822743E-2    4.568136328535620E-1   -2.214910851603044E-1
 6.529671920750000E9     5.492852897817084E-1   -1.107111367965456E-1   -1.328489285126318E-2   -3.742447835117359E-2   -1.413884342327526E-2   -3.709635929054272E-2    4.563116520956789E-1   -2.222924097100746E-1
 6.529681804875000E9     5.489302461486792E-1   -1.114861912092993E-1   -1.343117556019786E-2   -3.755493638309675E-2   -1.425495209370525E-2   -3.732365240547671E-2    4.558872440851973E-1   -2.232588835582576E-1
 6.529691689000000E9     5.488427313198425E-1   -1.123836309795261E-1   -1.368264227822019E-2   -3.777926848888397E-2   -1.439067281829757E-2   -3.746848189465574E-2    4.552246561030598E-1   -2.242145905501627E-1
 6.529701573125000E9     5.486282694340583E-1   -1.131069451068118E-1   -1.356103099521300E-2   -3.790192477706684E-2   -1.456232939739244E-2   -3.775789811025117E-2    4.547559636635495E-1   -2.251478247634166E-1
 6.529711457250000E9     5.484635351596674E-1   -1.139838446653879E-1   -1.394921610180756E-2   -3.819059346699195E-2   -1.473855040614049E-2   -3.785838628206031E-2    4.544111720878352E-1   -2.261547843204876E-1
 6.529721341375000E9     5.482696299505047E-1   -1.148588660227916E-1   -1.391968767387330E-2   -3.829975602749065E-2   -1.486662399398027E-2   -3.813938877267252E-2    4.537719130066837E-1   -2.270381669022534E-1
 6.529731225500000E9     5.480348482093172E-1   -1.157665244361672E-1   -1.422218483187834E-2   -3.869710452824525E-2   -1.515454879185908E-2   -3.829926521440280E-2    4.532264241521061E-1   -2.278974306915051E-1
 6.529741109625000E9     5.477565164743188E-1   -1.166025024627269E-1   -1.434717395748263E-2   -3.884544116612480E-2   -1.522956974862220E-2   -3.852944331513676E-2    4.526266316030561E-1   -2.288191108322161E-1
 6.529750993750000E9     5.476511835320954E-1   -1.173699412752993E-1   -1.459393632159922E-2   -3.900142980337089E-2   -1.547523691466157E-2   -3.873718597929996E-2    4.522169934220164E-1   -2.298661799027644E-1
 6.529760877875000E9     5.475077358702320E-1   -1.181553391590134E-1   -1.478989303059788E-2   -3.927337994116879E-2   -1.553869962327166E-2   -3.885230381629628E-2    4.516425864607134E-1   -2.307748787763836E-1
 6.529770762000000E9     5.473390639319510E-1   -1.189990415973833E-1   -1.489384980507571E-2   -3.932904522235472E-2   -1.579589369575697E-2   -3.912878391242453E-2    4.511332178074117E-1   -2.318905421110396E-1
 6.529780646125000E9     5.471300617684544E-1   -1.199024984333646E-1   -1.506373930892518E-2   -3.977176521905790E-2   -1.589006078146770E-2   -3.938993249211836E-2    4.506331629547140E-1   -2.325945317985403E-1
 6.529790530250000E9     5.467826553608437E-1   -1.206434828617233E-1   -1.517616223285761E-2   -3.990120059140641E-2   -1.617003536377824E-2   -3.948029664819534E-2    4.500677558359336E-1   -2.337591045786622E-1
 6.529800414375000E9     5.465745093795302E-1   -1.216506897541445E-1   -1.564815834740559E-2   -4.018422741600178E-2   -1.633677838226121E-2   -3.986863937743121E-2    4.493743469156408E-1   -2.343634249966674E-1
 6.529810298500000E9     5.465148355540896E-1   -1.224636308186659E-1   -1.575906123170148E-2   -4.037399055328998E-2   -1.657804596535388E-2   -3.996473243165102E-2    4.487298219747367E-1   -2.355374106233922E-1
 6.529820182625000E9     5.460858157283871E-1   -1.233232281938579E-1   -1.576842304365750E-2   -4.058785182121268E-2   -1.671022697162994E-2   -4.026726575337080E-2    4.483041750913364E-1   -2.365676521591234E-1
 6.529830066750000E9     5.460301473332164E-1   -1.241573963084123E-1   -1.592496604383356E-2   -4.081487778355801E-2   -1.699858554719270E-2   -4.050359426450045E-2    4.477035743852568E-1   -2.374900455733776E-1
 6.529839950875000E9     5.457888949520175E-1   -1.249291246808746E-1   -1.610121821604617E-2   -4.112004814317820E-2   -1.717583167164765E-2   -4.072200619434155E-2    4.471376275506245E-1   -2.385438588714301E-1
 6.529849835000000E9     5.455335894727612E-1   -1.257960156389298E-1   -1.636374835214581E-2   -4.120931422252905E-2   -1.724710100938310E-2   -4.091446071037878E-2    4.462940963944650E-1   -2.394077962411516E-1
 6.529859719125000E9     5.453135598511627E-1   -1.267102235279864E-1   -1.645031673116803E-2   -4.155809967890441E-2   -1.758699078651462E-2   -4.122445482746438E-2    4.458539633484764E-1   -2.405105347401175E-1
 6.529869603250000E9     5.449790567754700E-1   -1.275332110819521E-1   -1.672786656130676E-2   -4.178443361289621E-2   -1.776366062706966E-2   -4.136937308176149E-2    4.452626133964681E-1   -2.414387367479091E-1
 6.529879487375000E9     5.448321420473776E-1   -1.283942798852472E-1   -1.700105900955056E-2   -4.210190275804963E-2   -1.804309696717843E-2   -4.163021194525509E-2    4.446041868735459E-1   -2.424718515780284E-1
 6.529889371500000E9     5.445641879663705E-1   -1.291576049558090E-1   -1.718544116155737E-2   -4.226812687748889E-2   -1.822314985146212E-2   -4.191243664873893E-2    4.439488827046211E-1   -2.434234000072613E-1
 6.529899255625000E9     5.442925207570447E-1   -1.302141929057773E-1   -1.744718001389147E-2   -4.249574526031828E-2   -1.845059419323465E-2   -4.218970361456095E-2    4.432799883662313E-1   -2.444075789870272E-1
 6.529909139750000E9     5.441210617511978E-1   -1.309030944235526E-1   -1.762350457959257E-2   -4.272058448997660E-2   -1.864024891801369E-2   -4.245588253737405E-2    4.426475895542117E-1   -2.454744505549447E-1
 6.529919023875000E9     5.439046210458229E-1   -1.318771753434497E-1   -1.783326379563779E-2   -4.309369053664441E-2   -1.889936794699219E-2   -4.264531949148559E-2    4.421983467883953E-1   -2.464102494538601E-1
 6.529928908000000E9     5.435703787216569E-1   -1.327291784459188E-1   -1.814916520635645E-2   -4.321569929222670E-2   -1.911097277566716E-2   -4.292720021244614E-2    4.412965414239859E-1   -2.475778243889340E-1
 6.529938792125000E9     5.434436673868006E-1   -1.335667811733381E-1   -1.838908940722926E-2   -4.350459777372455E-2   -1.934459868635658E-2   -4.309939203430381E-2    4.407255920269504E-1   -2.484216564523913E-1
 6.529948676250000E9     5.431173123332926E-1   -1.344472728642355E-1   -1.850312888723343E-2   -4.380709015720156E-2   -1.940976910069626E-2   -4.342625615644531E-2    4.399069779924064E-1   -2.494929806558732E-1
 6.529958560375000E9     5.428273058999628E-1   -1.353026735962484E-1   -1.883934847674608E-2   -4.402493809698942E-2   -1.986983266842328E-2   -4.371308552125096E-2    4.391302567182935E-1   -2.505486357547911E-1
 6.529968444500000E9     5.426302158660132E-1   -1.361689455373221E-1   -1.900754385009988E-2   -4.432333282958362E-2   -2.004797066732329E-2   -4.400960599827269E-2    4.386399905297521E-1   -2.516315822719845E-1
 6.529978328625000E9     5.423615340363872E-1   -1.369499934881336E-1   -1.924175780890677E-2   -4.461508903412977E-2   -2.036302420723590E-2   -4.428142333479396E-2    4.379177320823827E-1   -2.526346598829733E-1
 6.529988212750000E9     5.421848527609620E-1   -1.378575058648192E-1   -1.962250623956150E-2   -4.492077077648016E-2   -2.064004144367573E-2   -4.452115566375786E-2    4.372505043481499E-1   -2.536525166457379E-1
 6.529998096875000E9     5.419081793393129E-1   -1.388155416579716E-1   -1.968293182475118E-2   -4.520184337589278E-2   -2.084202308637216E-2   -4.485447379844208E-2    4.364135542124132E-1   -2.547597109562250E-1
 6.530007981000000E9     5.415375565180415E-1   -1.397306833732480E-1   -2.028718122731687E-2   -4.547408760557496E-2   -2.106862744460324E-2   -4.505256909490435E-2    4.356941230201795E-1   -2.559896258135789E-1
 6.530017865125000E9     5.411860351459387E-1   -1.405751167932950E-1   -2.037496124693150E-2   -4.577859879172268E-2   -2.137327190496754E-2   -4.545244357883400E-2    4.351467943701405E-1   -2.568597870550678E-1
 6.530027749250000E9     5.410256245230056E-1   -1.415581899320393E-1   -2.061539072300191E-2   -4.616295149277094E-2   -2.165119887778550E-2   -4.573919763588042E-2    4.341889745269487E-1   -2.579769535301256E-1
 6.530037633375000E9     5.407535320810610E-1   -1.425724670318858E-1   -2.090090052988599E-2   -4.640111036613385E-2   -2.187837673327287E-2   -4.600837744211185E-2    4.334407091228303E-1   -2.591084327578227E-1
 6.530047517500000E9     5.403688063409481E-1   -1.431928502286615E-1   -2.110817681873148E-2   -4.677362215438522E-2   -2.223267229806839E-2   -4.634088459353251E-2    4.327239916775928E-1   -2.600878589158945E-1
 6.530057401625000E9     5.401504180242314E-1   -1.442243163847551E-1   -2.141147598765737E-2   -4.705144953030405E-2   -2.247607085365485E-2   -4.657048577920900E-2    4.317982832631937E-1   -2.611349664225724E-1
 6.530067285750000E9     5.398430724818847E-1   -1.451345003014825E-1   -2.171321094336669E-2   -4.746720029955468E-2   -2.286803326315949E-2   -4.692664012405370E-2    4.310130074806716E-1   -2.624611681569630E-1
 6.530077169875000E9     5.395199469634269E-1   -1.459363982531171E-1   -2.198480006152565E-2   -4.777721902446999E-2   -2.309163539904918E-2   -4.720294932099504E-2    4.304453782337039E-1   -2.635238431245981E-1
 6.530087054000000E9     5.392044782277584E-1   -1.469526246918576E-1   -2.222868800658938E-2   -4.802511959622720E-2   -2.335854099709139E-2   -4.751420673406233E-2    4.296142571467438E-1   -2.645338864832763E-1
 6.530096938125000E9     5.389405495009981E-1   -1.477493120984558E-1   -2.259675476383689E-2   -4.831411001163977E-2   -2.381454922504573E-2   -4.794454751239736E-2    4.287214958963860E-1   -2.657390359866641E-1
 6.530106822250000E9     5.387139060693673E-1   -1.486674242189873E-1   -2.288063200293722E-2   -4.880450408256819E-2   -2.405375983800441E-2   -4.825271773374876E-2    4.278211911856568E-1   -2.666382767936129E-1
 6.530116706375000E9     5.383643766810441E-1   -1.496395100766564E-1   -2.319508307593725E-2   -4.907445797324832E-2   -2.442048943741390E-2   -4.855056144643945E-2    4.269885832301131E-1   -2.679174789338067E-1
 6.530126590500000E9     5.380819787173320E-1   -1.505773174234184E-1   -2.355106957445771E-2   -4.923256314996055E-2   -2.474434868605162E-2   -4.889507124724942E-2    4.260575855038182E-1   -2.689608058237232E-1
 6.530136474625000E9     5.376315007166519E-1   -1.515618438251710E-1   -2.392132401007574E-2   -4.967582277902593E-2   -2.508686101818719E-2   -4.916391623896219E-2    4.252406142092621E-1   -2.701613737131935E-1
 6.530146358750000E9     5.373203632984415E-1   -1.524483980688759E-1   -2.420339613277095E-2   -5.006191409344808E-2   -2.547875884937456E-2   -4.965392261032187E-2    4.243906481278478E-1   -2.712107030090659E-1
 6.530156242875000E9     5.370683498902815E-1   -1.531771931518903E-1   -2.451675582269776E-2   -5.049188410988154E-2   -2.578255173916484E-2   -4.987767848304813E-2    4.232681217740322E-1   -2.724058671679196E-1
 6.530166127000000E9     5.367290283256968E-1   -1.541977868801094E-1   -2.483158577911112E-2   -5.073242856714184E-2   -2.615478372120632E-2   -5.017639357909948E-2    4.225383426718392E-1   -2.736025148223195E-1
 6.530176011125000E9     5.362547379151095E-1   -1.551772622663563E-1   -2.532557064956460E-2   -5.115139379013102E-2   -2.657870886980143E-2   -5.055992528722437E-2    4.216752016872655E-1   -2.748176255783514E-1
 6.530185895250000E9     5.360427828847989E-1   -1.560208472846048E-1   -2.575122878247574E-2   -5.157848800952763E-2   -2.691464764902032E-2   -5.093317867984806E-2    4.206727064593414E-1   -2.757953319518428E-1
