#  HZ   S   RI   R     50.00 
! Rohde & Schwarz Vector Network Analyzer 
! Rohde-Schwarz,ZNB20-2Port,1311601062101988,3.16
! Created: UTC 3/21/2024, 12:52:47 AM
! freq[Hz]                re:S11                  im:S11                  re:S21                  im:S21                  re:S12                  im:S12                  re:S22                  im:S22
 6.528827085000000E9     5.607787779079642E-1   -5.847848920029391E-2   -8.410368630073878E-3   -3.342920786385115E-2   -9.043167247342635E-3   -3.333091864222128E-2    4.815880558859530E-1   -1.895576908984739E-1
 6.528836376400000E9     5.606511018421796E-1   -5.916249963809260E-2   -8.388916053498757E-3   -3.366178621054217E-2   -9.168064069229249E-3   -3.349647754571940E-2    4.812332216809458E-1   -1.904009604590446E-1
 6.528845667800000E9     5.605632447435598E-1   -6.003430950550648E-2   -8.451370090165139E-3   -3.376840514323882E-2   -9.259282207172110E-3   -3.354603788385719E-2    4.808261649139832E-1   -1.911601587798981E-1
 6.528854959200000E9     5.604381092603614E-1   -6.079031128557329E-2   -8.652476193165129E-3   -3.384726298927774E-2   -9.307269760102667E-3   -3.374411575499533E-2    4.806809053679983E-1   -1.919600633652529E-1
 6.528864250600000E9     5.604362258646910E-1   -6.153233562212228E-2   -8.654868920162262E-3   -3.411008404280891E-2   -9.495213645444086E-3   -3.394107587290971E-2    4.801120445871783E-1   -1.929386078560335E-1
 6.528873542000000E9     5.603143038648957E-1   -6.228877771711241E-2   -8.959391749192008E-3   -3.432687486938373E-2   -9.587839832148937E-3   -3.408696135452592E-2    4.797785228481994E-1   -1.939076349224797E-1
 6.528882833400000E9     5.602375842794260E-1   -6.309474125987356E-2   -8.922585624351428E-3   -3.429183114360809E-2   -9.623566138867567E-3   -3.424363994489522E-2    4.795860903933260E-1   -1.947163774451492E-1
 6.528892124800000E9     5.600512821831679E-1   -6.379545808476193E-2   -8.962165617614676E-3   -3.456375965474139E-2   -9.756442677549403E-3   -3.445475099613967E-2    4.791127632895379E-1   -1.953166847275884E-1
 6.528901416200000E9     5.599571234642580E-1   -6.453505689452183E-2   -9.181471560921568E-3   -3.462869277805140E-2   -9.936300811984232E-3   -3.463527406413130E-2    4.788050135162823E-1   -1.962426744328963E-1
 6.528910707600000E9     5.599390225134387E-1   -6.542171508054047E-2   -9.298659429877057E-3   -3.476549301043414E-2   -1.005664108176009E-2   -3.471166059927714E-2    4.783804652758354E-1   -1.971585205607004E-1
 6.528919999000000E9     5.598178068173826E-1   -6.610170148113752E-2   -9.519676497326655E-3   -3.493367863702246E-2   -9.990059582358417E-3   -3.484410907924104E-2    4.778750083185335E-1   -1.979208217236970E-1
 6.528929290400000E9     5.597629652791370E-1   -6.691360012314618E-2   -9.468592481625418E-3   -3.516943994251012E-2   -1.019647772059964E-2   -3.511861892471067E-2    4.775268464856917E-1   -1.988215987847803E-1
 6.528938581800000E9     5.596707943631614E-1   -6.762970322522613E-2   -9.470575662188313E-3   -3.539633779428192E-2   -1.034590604567988E-2   -3.515950860599263E-2    4.772668551664615E-1   -1.996504711563846E-1
 6.528947873200000E9     5.595260238330975E-1   -6.843656641934925E-2   -9.707311528611599E-3   -3.555844812912870E-2   -1.043358853672237E-2   -3.540144331713949E-2    4.768924834317083E-1   -2.004817494395844E-1
 6.528957164600000E9     5.593594167772978E-1   -6.931585553290086E-2   -9.807221054797706E-3   -3.558510258953988E-2   -1.054538748713380E-2   -3.543512811941363E-2    4.763189886300289E-1   -2.013308111766901E-1
 6.528966456000000E9     5.594048121654734E-1   -7.001248416005117E-2   -9.923980785679047E-3   -3.590307155458251E-2   -1.067856662837617E-2   -3.570849716438091E-2    4.759813599607252E-1   -2.022700614003663E-1
 6.528975747400000E9     5.591807410004622E-1   -7.075518637108545E-2   -1.001022240676980E-2   -3.604701564616146E-2   -1.075122152329802E-2   -3.592408306864845E-2    4.755668078288797E-1   -2.031335943898516E-1
 6.528985038800000E9     5.591399950203277E-1   -7.155693097419298E-2   -1.004414791638607E-2   -3.615264810043687E-2   -1.097559480942981E-2   -3.606477406955500E-2    4.750796472057789E-1   -2.039309411439913E-1
 6.528994330200000E9     5.588827507872354E-1   -7.243240689503527E-2   -1.031317026648569E-2   -3.639767494476485E-2   -1.107084701678455E-2   -3.619163634962883E-2    4.748156257126577E-1   -2.048158935798779E-1
 6.529003621600000E9     5.589041787475743E-1   -7.309388676802783E-2   -1.034847587877436E-2   -3.650595412793066E-2   -1.123279719206457E-2   -3.634087698336064E-2    4.743592316752490E-1   -2.055121332974071E-1
 6.529012913000000E9     5.587558640729298E-1   -7.382691488538193E-2   -1.043592460152794E-2   -3.670372009245061E-2   -1.129123455336967E-2   -3.663268744271697E-2    4.741620136072593E-1   -2.067105734336952E-1
 6.529022204400000E9     5.585890235426695E-1   -7.468669316198180E-2   -1.055336623675996E-2   -3.677990160649582E-2   -1.137930377956990E-2   -3.680009281101822E-2    4.734887596622367E-1   -2.074285912764815E-1
 6.529031495800000E9     5.585316017280857E-1   -7.547653909655658E-2   -1.062568401873889E-2   -3.710641254275199E-2   -1.160508254655551E-2   -3.697420175334588E-2    4.730739380800721E-1   -2.083109141884738E-1
 6.529040787200000E9     5.583740653966440E-1   -7.620996964162584E-2   -1.081770567897311E-2   -3.734269400557116E-2   -1.174768712874993E-2   -3.717457148101231E-2    4.727783953624894E-1   -2.090931134962529E-1
 6.529050078600000E9     5.583200851759614E-1   -7.709190784993750E-2   -1.095587480565279E-2   -3.736187424289785E-2   -1.186114309215003E-2   -3.721950227180657E-2    4.723215113477348E-1   -2.102194399778368E-1
 6.529059370000000E9     5.582446552645052E-1   -7.788517021479976E-2   -1.110568807988544E-2   -3.776182782827717E-2   -1.196023265790891E-2   -3.746389631711143E-2    4.718063714656779E-1   -2.110194879670160E-1
 6.529068661400000E9     5.581011814077635E-1   -7.851051460943673E-2   -1.127850331357998E-2   -3.782237169920838E-2   -1.212295081849214E-2   -3.765334974748884E-2    4.712925497830022E-1   -2.118448450907683E-1
 6.529077952800000E9     5.578655324467716E-1   -7.942124063213395E-2   -1.122071297907996E-2   -3.813795886179140E-2   -1.225030156813021E-2   -3.779435805840133E-2    4.709658030170549E-1   -2.125780058662659E-1
 6.529087244200000E9     5.577122101653645E-1   -8.024711243378857E-2   -1.144989203086475E-2   -3.834014543204654E-2   -1.241125393894421E-2   -3.800465414133913E-2    4.704423231878250E-1   -2.135763604570881E-1
 6.529096535600000E9     5.576366636229867E-1   -8.090091967549222E-2   -1.165654291190927E-2   -3.823519598786041E-2   -1.247921040397774E-2   -3.831569805786242E-2    4.701812278546713E-1   -2.146298986645361E-1
 6.529105827000000E9     5.575240083921826E-1   -8.181989237866520E-2   -1.174401223451420E-2   -3.861815467348523E-2   -1.261230012428804E-2   -3.839050655930376E-2    4.698337054881285E-1   -2.153659588015775E-1
 6.529115118400000E9     5.574263460261911E-1   -8.263297191719601E-2   -1.184079731884403E-2   -3.878512326609587E-2   -1.282053987504339E-2   -3.860965190539053E-2    4.692004814927354E-1   -2.162446509819818E-1
 6.529124409800000E9     5.572691488677466E-1   -8.344508853589910E-2   -1.202502536514778E-2   -3.899373907494485E-2   -1.289334666507872E-2   -3.873143913852623E-2    4.686708006873386E-1   -2.172624536529832E-1
 6.529133701200000E9     5.571379942847677E-1   -8.416848443418515E-2   -1.220227258828231E-2   -3.931945375090814E-2   -1.314107397111677E-2   -3.901786476118367E-2    4.683506258001962E-1   -2.181296354486299E-1
 6.529142992600000E9     5.569286808850243E-1   -8.494039017611284E-2   -1.231240435437687E-2   -3.942856399361484E-2   -1.317048219541764E-2   -3.921330075570324E-2    4.676998726907541E-1   -2.190938068512460E-1
 6.529152284000000E9     5.568476004550620E-1   -8.585538987728863E-2   -1.252290793236583E-2   -3.965996713218837E-2   -1.330431567248156E-2   -3.939059875376671E-2    4.672308121080851E-1   -2.199454658495189E-1
 6.529161575400000E9     5.566856553804275E-1   -8.653173086830288E-2   -1.267305894943192E-2   -4.002310998476278E-2   -1.341491682328578E-2   -3.958804870041371E-2    4.667009225310030E-1   -2.208883407585986E-1
 6.529170866800000E9     5.565749113276990E-1   -8.741112356785420E-2   -1.287604537062090E-2   -3.991751289854592E-2   -1.372076758275976E-2   -3.990914702950146E-2    4.664545484533288E-1   -2.218574428390236E-1
 6.529180158200000E9     5.563321317933313E-1   -8.817856086889378E-2   -1.306072932407070E-2   -4.030692861409707E-2   -1.391091997355820E-2   -4.013420557726846E-2    4.656666996787661E-1   -2.227208697160134E-1
 6.529189449600000E9     5.563435876563319E-1   -8.894000912651104E-2   -1.312398395480185E-2   -4.055456804831613E-2   -1.398147044822943E-2   -4.031507280646738E-2    4.650913938378727E-1   -2.236591660603522E-1
 6.529198741000000E9     5.560291452618228E-1   -8.982738689386933E-2   -1.314510984383035E-2   -4.073490814707183E-2   -1.413527950947938E-2   -4.052538356055053E-2    4.648323966568926E-1   -2.246580331569004E-1
 6.529208032400000E9     5.558844077911361E-1   -9.058179342406551E-2   -1.337467016170040E-2   -4.088981287973924E-2   -1.430090114597939E-2   -4.067228711149884E-2    4.641984970477158E-1   -2.257461721992637E-1
 6.529217323800000E9     5.559478136053929E-1   -9.140740736128489E-2   -1.356856837671436E-2   -4.126350263011604E-2   -1.454513022516017E-2   -4.084288535051624E-2    4.639333192817625E-1   -2.264504096680269E-1
 6.529226615200000E9     5.556126578647251E-1   -9.224646864584267E-2   -1.362637231853418E-2   -4.159652939127140E-2   -1.470444427947320E-2   -4.115409160146390E-2    4.631739995142359E-1   -2.275146499183581E-1
 6.529235906600000E9     5.554783840390246E-1   -9.303454434050362E-2   -1.395823710340412E-2   -4.167574167145702E-2   -1.483807766586152E-2   -4.136291170009218E-2    4.626024510015026E-1   -2.284045197477701E-1
 6.529245198000000E9     5.553126822765000E-1   -9.389643670025970E-2   -1.408142436085449E-2   -4.177864761585646E-2   -1.494876980091662E-2   -4.160383854709239E-2    4.621840815512331E-1   -2.294070087383524E-1
 6.529254489400000E9     5.552796204456212E-1   -9.466254344066798E-2   -1.414323629498329E-2   -4.213522921017482E-2   -1.521731336260888E-2   -4.182429944322035E-2    4.616719721351079E-1   -2.303630772771602E-1
 6.529263780800000E9     5.550724049194721E-1   -9.550528332778783E-2   -1.431748266669077E-2   -4.232105356346466E-2   -1.540806663781079E-2   -4.204429103376018E-2    4.612585733965776E-1   -2.312554732875383E-1
 6.529273072200000E9     5.548832099733020E-1   -9.638611604407160E-2   -1.468834307534805E-2   -4.262551124223440E-2   -1.558749030851271E-2   -4.232539696243746E-2    4.605033632237745E-1   -2.321300668602867E-1
 6.529282363600000E9     5.546340159812930E-1   -9.711847754155462E-2   -1.476860522730831E-2   -4.284798739680781E-2   -1.578169483178738E-2   -4.255360331665017E-2    4.601462524950675E-1   -2.333303019534544E-1
 6.529291655000000E9     5.545994960666832E-1   -9.795860958300380E-2   -1.507918752484955E-2   -4.309522267855889E-2   -1.596664222098299E-2   -4.283257513260567E-2    4.597261418494604E-1   -2.341477629281167E-1
 6.529300946400000E9     5.542732091774791E-1   -9.875160846681724E-2   -1.505736785872060E-2   -4.323929860389326E-2   -1.614472410674738E-2   -4.304087996342598E-2    4.588342982929896E-1   -2.351736522901596E-1
 6.529310237800000E9     5.541382111304093E-1   -9.957374999340149E-2   -1.523891372742920E-2   -4.357543766231312E-2   -1.633681996906949E-2   -4.321896514356000E-2    4.582698107899216E-1   -2.361219363730328E-1
 6.529319529200000E9     5.539095652968368E-1   -1.004665012989861E-1   -1.544976927111893E-2   -4.381503165382787E-2   -1.656554712435180E-2   -4.365616211268927E-2    4.578259017318412E-1   -2.371494798849989E-1
 6.529328820600000E9     5.537556493744936E-1   -1.012079744902293E-1   -1.569608864332620E-2   -4.412048712988103E-2   -1.668073024546675E-2   -4.377165435156456E-2    4.572006044337713E-1   -2.382679837390178E-1
 6.529338112000000E9     5.535358033681145E-1   -1.022054390164163E-1   -1.580493086163785E-2   -4.441439947802359E-2   -1.703486176759001E-2   -4.408821968573921E-2    4.564674731217110E-1   -2.392877944418642E-1
 6.529347403400000E9     5.534303569675471E-1   -1.029734053066856E-1   -1.605876566643347E-2   -4.464466106596796E-2   -1.712601374423615E-2   -4.428030303426578E-2    4.560549849536163E-1   -2.402171663363176E-1
 6.529356694800000E9     5.533201900232849E-1   -1.037248677766416E-1   -1.637575330746139E-2   -4.488792698640533E-2   -1.735126318246100E-2   -4.454690318567489E-2    4.553888572911661E-1   -2.411481624871477E-1
 6.529365986200000E9     5.530335514471528E-1   -1.046673953537786E-1   -1.654102020662858E-2   -4.517102506224022E-2   -1.754749866254258E-2   -4.486132641946568E-2    4.547728238586307E-1   -2.420810444344590E-1
 6.529375277600000E9     5.527144948681736E-1   -1.054180128945073E-1   -1.676043112023299E-2   -4.538329739844977E-2   -1.787360170417325E-2   -4.514005399869008E-2    4.541778668045661E-1   -2.431496570474082E-1
 6.529384569000000E9     5.526244513763108E-1   -1.062531174465313E-1   -1.694663095752005E-2   -4.568748169109474E-2   -1.805267382366413E-2   -4.540561185675865E-2    4.535202991876486E-1   -2.442076498255022E-1
 6.529393860400000E9     5.524984229037688E-1   -1.070764534380060E-1   -1.719328627261692E-2   -4.604773058388816E-2   -1.822077175918733E-2   -4.566748008798401E-2    4.529181761015095E-1   -2.452470198328002E-1
 6.529403151800000E9     5.522486672468383E-1   -1.079060726215648E-1   -1.743466057470237E-2   -4.625244108848240E-2   -1.852691440339747E-2   -4.594136575832471E-2    4.521529864162282E-1   -2.462570257152116E-1
 6.529412443200000E9     5.519971458040129E-1   -1.087772473079078E-1   -1.757635534780893E-2   -4.664781722895416E-2   -1.877095739767311E-2   -4.624396298950511E-2    4.515316573696549E-1   -2.472686772541875E-1
 6.529421734600000E9     5.519432185683024E-1   -1.096368299882832E-1   -1.782773860386425E-2   -4.680860663856536E-2   -1.897937794496964E-2   -4.644292211386798E-2    4.508981554189224E-1   -2.484052167385942E-1
 6.529431026000000E9     5.516494777627676E-1   -1.105832828449828E-1   -1.801822113521150E-2   -4.716842892959163E-2   -1.914500647873007E-2   -4.683768380558029E-2    4.503234397007621E-1   -2.494583032623671E-1
 6.529440317400000E9     5.514597691853769E-1   -1.113573872314895E-1   -1.826043215054887E-2   -4.737292989870765E-2   -1.938747541799672E-2   -4.706361640783792E-2    4.496624267476814E-1   -2.503732028987337E-1
 6.529449608800000E9     5.512675017499739E-1   -1.122432714117228E-1   -1.847014127515549E-2   -4.762919166166466E-2   -1.966479417260429E-2   -4.736782472785929E-2    4.489003775337702E-1   -2.514727621367970E-1
 6.529458900200000E9     5.510666355862724E-1   -1.131477825624026E-1   -1.871193710319165E-2   -4.803184766871923E-2   -1.996997520387522E-2   -4.768671597012301E-2    4.482238638397986E-1   -2.524405063570545E-1
 6.529468191600000E9     5.506620547983673E-1   -1.139831817193877E-1   -1.904651565281961E-2   -4.838192723591080E-2   -2.023157477663897E-2   -4.799724016024094E-2    4.474567420434702E-1   -2.536003035477950E-1
 6.529477483000000E9     5.506074515847309E-1   -1.148661559490079E-1   -1.943225178020888E-2   -4.864512445313048E-2   -2.037399472226396E-2   -4.824618648689079E-2    4.466787989755085E-1   -2.545827145630009E-1
 6.529486774400000E9     5.503124775837227E-1   -1.157434302325034E-1   -1.956938784817526E-2   -4.899502036176327E-2   -2.068060900724915E-2   -4.859911868448318E-2    4.460410013031227E-1   -2.558068292168467E-1
 6.529496065800000E9     5.501761898128851E-1   -1.166142743908811E-1   -1.968055185394768E-2   -4.922122009979497E-2   -2.088119582200995E-2   -4.893302221666178E-2    4.454091383745190E-1   -2.566238695520006E-1
 6.529505357200000E9     5.499021075247899E-1   -1.175376731401746E-1   -2.001478407619441E-2   -4.959383461419645E-2   -2.125442784226733E-2   -4.920157086549793E-2    4.445776064809973E-1   -2.580625359148639E-1
 6.529514648600000E9     5.495983721143568E-1   -1.182636375163927E-1   -2.035531516405949E-2   -5.006117467379941E-2   -2.162572103610805E-2   -4.953673348002848E-2    4.439484734906080E-1   -2.590093836691101E-1
 6.529523940000000E9     5.493418229690086E-1   -1.193111961688250E-1   -2.063450770852835E-2   -5.032788186493210E-2   -2.181830959388202E-2   -4.991575480245572E-2    4.431724427699912E-1   -2.602676414509716E-1
 6.529533231400000E9     5.492290538814929E-1   -1.201112532720785E-1   -2.086051485032903E-2   -5.066790293713453E-2   -2.214957625773633E-2   -5.024102494917387E-2    4.423155504864796E-1   -2.613589614001497E-1
 6.529542522800000E9     5.489627584309479E-1   -1.209154385706340E-1   -2.122084258068906E-2   -5.101146049576758E-2   -2.248619888930042E-2   -5.056136115866448E-2    4.414562479418801E-1   -2.623778657421557E-1
 6.529551814200000E9     5.486857380249128E-1   -1.219454267099954E-1   -2.133270330195001E-2   -5.135660747905536E-2   -2.273022145870065E-2   -5.094155131926255E-2    4.407329116143776E-1   -2.634917359331086E-1
 6.529561105600000E9     5.484054856808952E-1   -1.228822837869521E-1   -2.167179894942563E-2   -5.170485174172249E-2   -2.307369128006637E-2   -5.128184346055153E-2    4.398823653096360E-1   -2.645952735047364E-1
 6.529570397000000E9     5.481208772390561E-1   -1.236800773502502E-1   -2.200093075469594E-2   -5.211341947130160E-2   -2.331432580151463E-2   -5.159902855973950E-2    4.390976440848817E-1   -2.657494467907015E-1
 6.529579688400000E9     5.478205257658298E-1   -1.245061742369153E-1   -2.226023676636283E-2   -5.238882125089089E-2   -2.363840479279043E-2   -5.201610605745914E-2    4.382829347236919E-1   -2.670413770436595E-1
 6.529588979800000E9     5.476263073291227E-1   -1.255534504906433E-1   -2.258825270922048E-2   -5.276081467525927E-2   -2.389346581144759E-2   -5.230373325440993E-2    4.373074392534532E-1   -2.679533739686982E-1
 6.529598271200000E9     5.473524909603625E-1   -1.263746172828216E-1   -2.289598503324128E-2   -5.316319732901563E-2   -2.432931095787798E-2   -5.270707747994783E-2    4.364777469608780E-1   -2.691391738475398E-1
 6.529607562600000E9     5.471026417720143E-1   -1.272608325885004E-1   -2.323621869083325E-2   -5.357987733498973E-2   -2.471938540004717E-2   -5.319681411093802E-2    4.357440820424738E-1   -2.704833144966020E-1
 6.529616854000000E9     5.467259890291748E-1   -1.280972836922514E-1   -2.355416890672259E-2   -5.393501671591962E-2   -2.510972565296856E-2   -5.334461896928085E-2    4.347013056213705E-1   -2.715662006172748E-1
 6.529626145400000E9     5.464390782490929E-1   -1.289876351586927E-1   -2.407517677553558E-2   -5.442488863837693E-2   -2.532398592545408E-2   -5.386833400563169E-2    4.338097514907928E-1   -2.728962777093955E-1
 6.529635436800000E9     5.461345477927425E-1   -1.300373595871610E-1   -2.422560815239633E-2   -5.484837417676017E-2   -2.574253435687858E-2   -5.424856679898207E-2    4.329561960743605E-1   -2.740872932029652E-1
 6.529644728200000E9     5.460350411791652E-1   -1.309023009190446E-1   -2.470731951660128E-2   -5.522533657557395E-2   -2.618923500848741E-2   -5.456646470791335E-2    4.320637893782504E-1   -2.749964906253853E-1
 6.529654019600000E9     5.455797502280597E-1   -1.318910140746143E-1   -2.500842388130342E-2   -5.543855679174987E-2   -2.639243300903665E-2   -5.505792393331011E-2    4.310877340740190E-1   -2.765444079809713E-1
 6.529663311000000E9     5.453660415843312E-1   -1.327798039442102E-1   -2.544673458727839E-2   -5.599794744091350E-2   -2.683551720319453E-2   -5.531266774623213E-2    4.301578169554350E-1   -2.777089072656504E-1
