#  HZ   S   RI   R     50.00 
! Rohde & Schwarz Vector Network Analyzer 
! Rohde-Schwarz,ZNB20-2Port,1311601062101988,3.16
! Created: UTC 3/21/2024, 1:15:59 AM
! freq[Hz]                re:S11                  im:S11                  re:S21                  im:S21                  re:S12                  im:S12                  re:S22                  im:S22
 6.529322000000000E9     5.546988224870578E-1   -8.162418305765520E-2   -8.875942605958880E-3   -3.121466154444062E-2   -9.416252516600920E-3   -3.111008656624469E-2    4.713109903878015E-1   -1.914215678613156E-1
 6.529331819975000E9     5.545332300436944E-1   -8.248952981452452E-2   -8.815058407521665E-3   -3.142253266892978E-2   -9.586429059909730E-3   -3.124148764329936E-2    4.711184027345549E-1   -1.923346804665693E-1
 6.529341639950000E9     5.545808400952656E-1   -8.320978512993003E-2   -8.972109256641462E-3   -3.153886412943697E-2   -9.743777792937081E-3   -3.142266346664027E-2    4.707124798221121E-1   -1.933082689560970E-1
 6.529351459925000E9     5.541475533833683E-1   -8.410466127802606E-2   -9.006727758452222E-3   -3.156722896865270E-2   -9.666108812666649E-3   -3.158077876353709E-2    4.703934971227337E-1   -1.939564478297288E-1
 6.529361279900000E9     5.543959388214555E-1   -8.479566460689715E-2   -9.253430162501556E-3   -3.190898864931435E-2   -1.000483710030851E-2   -3.176046295792798E-2    4.699508480246824E-1   -1.947935264199381E-1
 6.529371099875000E9     5.539802988630715E-1   -8.551089934822523E-2   -9.279771676404563E-3   -3.208258203314041E-2   -1.005125908096626E-2   -3.174637026651184E-2    4.697581738832109E-1   -1.956337146247152E-1
 6.529380919850000E9     5.539511374422925E-1   -8.644315236934418E-2   -9.418708513609169E-3   -3.192644249200984E-2   -1.016788504027458E-2   -3.190205208124870E-2    4.692171982932699E-1   -1.965171781194832E-1
 6.529390739825000E9     5.537930174536867E-1   -8.728486166017214E-2   -9.575368404658915E-3   -3.221311032025376E-2   -1.008879764308567E-2   -3.210749696520067E-2    4.688343504688756E-1   -1.972903832346386E-1
 6.529400559800000E9     5.536763170438173E-1   -8.797269832515638E-2   -9.887731071836820E-3   -3.238650215661258E-2   -1.035288821734125E-2   -3.227200877686871E-2    4.683822369653366E-1   -1.982079976152600E-1
 6.529410379775000E9     5.536242182591987E-1   -8.871065240900114E-2   -9.802701079639316E-3   -3.252462192043896E-2   -1.043220472449976E-2   -3.234175449582812E-2    4.680802798908616E-1   -1.990846334008527E-1
 6.529420199750000E9     5.534895452259573E-1   -8.960809189841185E-2   -9.836876145946409E-3   -3.256426557092739E-2   -1.060222073194316E-2   -3.247345818420429E-2    4.676535679133430E-1   -1.999479368805271E-1
 6.529430019725000E9     5.532034802671772E-1   -9.035427314110563E-2   -9.922795813101419E-3   -3.297577525065275E-2   -1.072240659117025E-2   -3.260708502504276E-2    4.671999214495162E-1   -2.007833905317774E-1
 6.529439839700000E9     5.531887475263420E-1   -9.116920746190404E-2   -1.002793708969615E-2   -3.290832187543494E-2   -1.079316080617899E-2   -3.278716219227940E-2    4.666542702012987E-1   -2.016126211196382E-1
 6.529449659675000E9     5.530202577239741E-1   -9.192914490614260E-2   -9.954852569292171E-3   -3.306930194906017E-2   -1.088479304966503E-2   -3.292432311077167E-2    4.664805064796752E-1   -2.026061253724572E-1
 6.529459479650000E9     5.529044598780962E-1   -9.263737751201832E-2   -1.027710472705244E-2   -3.326890607402710E-2   -1.103628159152430E-2   -3.316426478715159E-2    4.660419100676381E-1   -2.032609862659403E-1
 6.529469299625000E9     5.527697886087287E-1   -9.363875647991117E-2   -1.050776973781155E-2   -3.336777345841127E-2   -1.113220292167822E-2   -3.318422282552570E-2    4.657249668260510E-1   -2.040670307650662E-1
 6.529479119600000E9     5.526088010408433E-1   -9.438042380602177E-2   -1.055270313106628E-2   -3.361929437666560E-2   -1.135137720819146E-2   -3.342697745923459E-2    4.652560754225242E-1   -2.051567814091796E-1
 6.529488939575000E9     5.524491055746411E-1   -9.518271770372033E-2   -1.059255658923450E-2   -3.375861833450181E-2   -1.133809355878323E-2   -3.355834704252213E-2    4.647547984888920E-1   -2.058985449102375E-1
 6.529498759550000E9     5.522203672528588E-1   -9.596863087297600E-2   -1.079148144787956E-2   -3.390651094984689E-2   -1.151236948411945E-2   -3.382600878104762E-2    4.644440361021225E-1   -2.067908856897874E-1
 6.529508579525000E9     5.520889743409827E-1   -9.673014300158618E-2   -1.092529434928631E-2   -3.401625239801422E-2   -1.167231491692087E-2   -3.390752871197764E-2    4.638418825802796E-1   -2.075735629084027E-1
 6.529518399500000E9     5.520746285185223E-1   -9.753528010735815E-2   -1.094500146562193E-2   -3.423056657423025E-2   -1.177778548642024E-2   -3.413189748549964E-2    4.635561360293359E-1   -2.083826494877389E-1
 6.529528219475000E9     5.520297788495523E-1   -9.832086408402720E-2   -1.107548477519272E-2   -3.448143867241938E-2   -1.191611230663115E-2   -3.421295347588853E-2    4.630739951681525E-1   -2.093588946549049E-1
 6.529538039450000E9     5.516742950170044E-1   -9.919164513581930E-2   -1.121908080388550E-2   -3.468542838447140E-2   -1.192744619561495E-2   -3.446822687140834E-2    4.627200397680907E-1   -2.101682897928069E-1
 6.529547859425000E9     5.514801858136688E-1   -9.993569634947566E-2   -1.137935943060480E-2   -3.471665339044459E-2   -1.223354233813789E-2   -3.457422636820133E-2    4.621159557071490E-1   -2.109257042556730E-1
 6.529557679400000E9     5.512479877873262E-1   -1.008225529593888E-1   -1.147503589327214E-2   -3.473912728537651E-2   -1.230952069395051E-2   -3.477694917164998E-2    4.618013735396191E-1   -2.119971594077899E-1
 6.529567499375000E9     5.512072199219746E-1   -1.016164908062690E-1   -1.157751229123558E-2   -3.506207990485748E-2   -1.242949178973203E-2   -3.493168511046646E-2    4.612422635181085E-1   -2.127781860406966E-1
 6.529577319350000E9     5.510457343068647E-1   -1.024193465828680E-1   -1.172888786460454E-2   -3.528341252078003E-2   -1.259564007120783E-2   -3.510594551347396E-2    4.608570893122570E-1   -2.136390936454826E-1
 6.529587139325000E9     5.508206596129170E-1   -1.032099047956962E-1   -1.177328512150624E-2   -3.536980183262419E-2   -1.265476469477669E-2   -3.529258722602919E-2    4.602856531717628E-1   -2.146533763891454E-1
 6.529596959300000E9     5.507893644426770E-1   -1.040914454486062E-1   -1.207439386161646E-2   -3.556056925559285E-2   -1.280602933571959E-2   -3.539059414511875E-2    4.599099153199279E-1   -2.153351669858911E-1
 6.529606779275000E9     5.505923690955401E-1   -1.048625222709390E-1   -1.216270820152548E-2   -3.599653638558124E-2   -1.284247162191204E-2   -3.555705615054560E-2    4.594674005963357E-1   -2.163508094073779E-1
 6.529616599250000E9     5.504872164119287E-1   -1.056655411802627E-1   -1.235227355422199E-2   -3.614006284789235E-2   -1.306840332446967E-2   -3.572962892048830E-2    4.590926727570990E-1   -2.172387318420432E-1
 6.529626419225000E9     5.501966716335903E-1   -1.064599499239582E-1   -1.246059533844473E-2   -3.630187647242283E-2   -1.313383827177326E-2   -3.594348427152343E-2    4.585561515211545E-1   -2.181541220272429E-1
 6.529636239200000E9     5.500315502849182E-1   -1.072672202316226E-1   -1.255083790156518E-2   -3.638134289518415E-2   -1.329022618969261E-2   -3.615748184451550E-2    4.580657450319056E-1   -2.189210308895966E-1
 6.529646059175000E9     5.497703916406947E-1   -1.080412092270188E-1   -1.276514273846611E-2   -3.652065765098676E-2   -1.358054509244284E-2   -3.628238393741483E-2    4.575737518388799E-1   -2.198344826693866E-1
 6.529655879150000E9     5.495984013318078E-1   -1.088531201712417E-1   -1.281949994092023E-2   -3.678962547608546E-2   -1.364308205633099E-2   -3.637124686589913E-2    4.570056577313427E-1   -2.207137913776542E-1
 6.529665699125000E9     5.495615430212594E-1   -1.098059252962951E-1   -1.301360196030729E-2   -3.691293441474367E-2   -1.381066062479465E-2   -3.679901392852966E-2    4.566153865384081E-1   -2.218461461996536E-1
 6.529675519100000E9     5.494039986938158E-1   -1.105082742803912E-1   -1.305743080703911E-2   -3.710323387544510E-2   -1.398000395411673E-2   -3.676853571242347E-2    4.562429135720513E-1   -2.226449739954871E-1
 6.529685339075000E9     5.492038615373478E-1   -1.112819728300996E-1   -1.337518148685102E-2   -3.731858275223989E-2   -1.427814460400859E-2   -3.708784571790873E-2    4.557351205301640E-1   -2.235452570438091E-1
 6.529695159050000E9     5.489009600711878E-1   -1.122402297886406E-1   -1.341300888668177E-2   -3.766612537572751E-2   -1.430596292731692E-2   -3.725639020838488E-2    4.552686934091076E-1   -2.243032640688090E-1
 6.529704979025000E9     5.487688670548950E-1   -1.130418026100506E-1   -1.366627812751285E-2   -3.772209659986369E-2   -1.452288974440638E-2   -3.748039619180601E-2    4.547036775612940E-1   -2.254038146888217E-1
 6.529714799000000E9     5.485233963858068E-1   -1.138889035751638E-1   -1.375877950484721E-2   -3.779292071735111E-2   -1.471140849838357E-2   -3.773691660125175E-2    4.538933871629876E-1   -2.262172630811675E-1
 6.529724618975000E9     5.485018028056823E-1   -1.147781978546202E-1   -1.400454059330200E-2   -3.816784198591248E-2   -1.476679613205713E-2   -3.786346247780470E-2    4.535618758209623E-1   -2.271337859140071E-1
 6.529734438950000E9     5.482219499448880E-1   -1.155409435892150E-1   -1.407828691898696E-2   -3.847797289053694E-2   -1.496879960310408E-2   -3.793717584476470E-2    4.530143312530105E-1   -2.280884366093500E-1
 6.529744258925000E9     5.479773500736415E-1   -1.163239540594314E-1   -1.415534875505441E-2   -3.853384716299554E-2   -1.507235114813058E-2   -3.821324753970223E-2    4.526426381944632E-1   -2.290773430877489E-1
 6.529754078900000E9     5.478421510312181E-1   -1.171597751970761E-1   -1.444861569150886E-2   -3.876194732630823E-2   -1.538129637056594E-2   -3.843588364723942E-2    4.520206411821822E-1   -2.299411292917682E-1
 6.529763898875000E9     5.476526868999375E-1   -1.178838135484511E-1   -1.457237160617920E-2   -3.897545974651761E-2   -1.539659601769388E-2   -3.876576564398910E-2    4.515711526371208E-1   -2.307980108648522E-1
 6.529773718850000E9     5.474707705950237E-1   -1.188217753008062E-1   -1.483282932384822E-2   -3.912696676230215E-2   -1.562816730554957E-2   -3.888913544107388E-2    4.510747761983308E-1   -2.318605222932680E-1
 6.529783538825000E9     5.470573151273509E-1   -1.196622353141780E-1   -1.496372535631725E-2   -3.942067214621024E-2   -1.576454784747067E-2   -3.915541133368110E-2    4.503968595178033E-1   -2.329213357276802E-1
 6.529793358800000E9     5.469158515263596E-1   -1.205533697115861E-1   -1.522495173309125E-2   -3.960170708476863E-2   -1.599791426219512E-2   -3.933467257869826E-2    4.498112562684844E-1   -2.338156127808972E-1
 6.529803178775000E9     5.468183904316443E-1   -1.213751936649622E-1   -1.523830462121101E-2   -3.982853656556447E-2   -1.614725283489414E-2   -3.958966872226802E-2    4.492593581177737E-1   -2.347714843689171E-1
 6.529812998750000E9     5.465102118105953E-1   -1.221501273058699E-1   -1.542472370985590E-2   -3.995693182405547E-2   -1.628523701884761E-2   -3.963854449186219E-2    4.486853802222041E-1   -2.355758921211246E-1
 6.529822818725000E9     5.463450590514255E-1   -1.229787898015148E-1   -1.561365483532340E-2   -4.028187312409769E-2   -1.653188404295403E-2   -3.991522443302145E-2    4.481326520805842E-1   -2.365667127044402E-1
 6.529832638700000E9     5.462126208986257E-1   -1.238407620915075E-1   -1.585483956273018E-2   -4.056025785153129E-2   -1.685296898654187E-2   -4.024717571745971E-2    4.474539047943406E-1   -2.376212013644508E-1
 6.529842458675000E9     5.459594518254723E-1   -1.247364542676964E-1   -1.598226705428291E-2   -4.077941559698937E-2   -1.701391796350128E-2   -4.042833865446127E-2    4.472290602069207E-1   -2.385655923970041E-1
 6.529852278650000E9     5.456325614687121E-1   -1.255959174499621E-1   -1.622473751030794E-2   -4.096637380897964E-2   -1.717868243106247E-2   -4.058872648948537E-2    4.464050560811005E-1   -2.394417755409744E-1
 6.529862098625000E9     5.454717806086781E-1   -1.265746776156181E-1   -1.632888714552396E-2   -4.121912710029756E-2   -1.724798930726271E-2   -4.094721225816001E-2    4.457400576520031E-1   -2.404957433060422E-1
 6.529871918600000E9     5.452469476085258E-1   -1.272868593572336E-1   -1.650087310718427E-2   -4.153981219613394E-2   -1.748139014530768E-2   -4.120647930886070E-2    4.449169700134729E-1   -2.416927714241052E-1
 6.529881738575000E9     5.450263974025967E-1   -1.282192330307198E-1   -1.694655399403528E-2   -4.167602587194300E-2   -1.782550789752547E-2   -4.133162395554560E-2    4.446236414221015E-1   -2.424992452360296E-1
 6.529891558550000E9     5.447276248819977E-1   -1.289779105934461E-1   -1.706827437277998E-2   -4.203942290330681E-2   -1.808072867171781E-2   -4.159918090376063E-2    4.439309508470918E-1   -2.433805857459407E-1
 6.529901378525000E9     5.444734899697418E-1   -1.298418516658322E-1   -1.727330847897642E-2   -4.209018014823441E-2   -1.814405188827675E-2   -4.183974528090889E-2    4.434058977812050E-1   -2.444947630925719E-1
 6.529911198500000E9     5.442818735302261E-1   -1.307832559137697E-1   -1.741776034360479E-2   -4.261457587496352E-2   -1.841015498555450E-2   -4.204740017540919E-2    4.426266853008392E-1   -2.453782519895579E-1
 6.529921018475000E9     5.440073944197854E-1   -1.315495916076552E-1   -1.757984773487162E-2   -4.269782698368115E-2   -1.864712459675691E-2   -4.240004852083788E-2    4.421270673194416E-1   -2.463984914679453E-1
 6.529930838450000E9     5.437475076688547E-1   -1.323227495923811E-1   -1.788741363956158E-2   -4.298533555989120E-2   -1.908728594581373E-2   -4.256269737637249E-2    4.414250009482210E-1   -2.474704973487938E-1
 6.529940658425000E9     5.435343422427942E-1   -1.332432322355950E-1   -1.798157761897698E-2   -4.336066209964042E-2   -1.904323455746145E-2   -4.292397772097643E-2    4.408315587697613E-1   -2.485125832793037E-1
 6.529950478400000E9     5.432314106726447E-1   -1.341335126600747E-1   -1.839123431193808E-2   -4.339244188468893E-2   -1.936036467884364E-2   -4.312114745487167E-2    4.401697578588892E-1   -2.495086787112942E-1
 6.529960298375000E9     5.430680010285993E-1   -1.350329442927549E-1   -1.853355559915439E-2   -4.385528813864682E-2   -1.954893704251386E-2   -4.335309740267099E-2    4.392648327915092E-1   -2.505551053775930E-1
 6.529970118350000E9     5.428130091568353E-1   -1.357624871156478E-1   -1.885053780907544E-2   -4.410111398623115E-2   -1.983874764413130E-2   -4.368345590912489E-2    4.386877276287576E-1   -2.513772912705547E-1
 6.529979938325000E9     5.425720906129406E-1   -1.367890517664653E-1   -1.902246013442288E-2   -4.427437971911641E-2   -2.004156334312745E-2   -4.394573873197644E-2    4.380161989955368E-1   -2.526832553488759E-1
 6.529989758300000E9     5.422547421808703E-1   -1.376431982356266E-1   -1.929230855275849E-2   -4.460221844981682E-2   -2.027172098954554E-2   -4.426332062870609E-2    4.373394598761179E-1   -2.536193643173156E-1
 6.529999578275000E9     5.419917221140039E-1   -1.385056548829810E-1   -1.951516062028104E-2   -4.480727816199375E-2   -2.061347620056079E-2   -4.443798693023045E-2    4.366325431488033E-1   -2.546122318242114E-1
 6.530009398250000E9     5.418150461291206E-1   -1.393546225899498E-1   -1.982460934275016E-2   -4.510221707474565E-2   -2.081867199472250E-2   -4.484328376749826E-2    4.359043329281164E-1   -2.556771475925784E-1
 6.530019218225000E9     5.415722683821708E-1   -1.402814454856952E-1   -1.997085730805367E-2   -4.558926534706911E-2   -2.103440444691194E-2   -4.509831509980920E-2    4.351841344800452E-1   -2.565011371436117E-1
 6.530029038200000E9     5.411465007195797E-1   -1.411690564988965E-1   -2.029537622175016E-2   -4.582228040268534E-2   -2.144863286981198E-2   -4.527432634217259E-2    4.343695035319232E-1   -2.578113608680841E-1
 6.530038858175000E9     5.408884091698226E-1   -1.420172659316609E-1   -2.061044758674993E-2   -4.613506900769176E-2   -2.167209917520406E-2   -4.558359574640811E-2    4.337513646885891E-1   -2.588278663230356E-1
 6.530048678150000E9     5.406626442440293E-1   -1.428868917686631E-1   -2.078027159837924E-2   -4.637474587026028E-2   -2.190609131832873E-2   -4.592148552877558E-2    4.329045081538576E-1   -2.599523437638686E-1
 6.530058498125000E9     5.404753728273717E-1   -1.439497897196444E-1   -2.108539386102102E-2   -4.668854195555417E-2   -2.218644429992610E-2   -4.624537563326220E-2    4.320473909735380E-1   -2.609394531974975E-1
 6.530068318100000E9     5.401204350326488E-1   -1.445658398058199E-1   -2.133970809801950E-2   -4.686246058723863E-2   -2.260605086215182E-2   -4.652368478883490E-2    4.313719604732105E-1   -2.621684998014005E-1
 6.530078138075000E9     5.397227375315155E-1   -1.456053324001516E-1   -2.173217361719698E-2   -4.735650127392198E-2   -2.290024586418835E-2   -4.690878723830951E-2    4.304711328818882E-1   -2.631092596569156E-1
 6.530087958050000E9     5.395701822649061E-1   -1.464304979952843E-1   -2.189620145426586E-2   -4.756517543353389E-2   -2.312300731904304E-2   -4.708104525886430E-2    4.296626605326654E-1   -2.642495249259530E-1
 6.530097778025000E9     5.392234686219047E-1   -1.472704617856133E-1   -2.228272385917991E-2   -4.799721431797220E-2   -2.331888129359289E-2   -4.744669623090330E-2    4.289798730307029E-1   -2.655054422881568E-1
 6.530107598000000E9     5.388294398386162E-1   -1.481964917252388E-1   -2.262165698696699E-2   -4.825726138107513E-2   -2.366649448526009E-2   -4.782580791251937E-2    4.282322611972892E-1   -2.664411056305940E-1
 6.530117417975000E9     5.386240772634295E-1   -1.492038192546310E-1   -2.285407615186448E-2   -4.869640585082453E-2   -2.401267062997520E-2   -4.816794720765264E-2    4.272747898320823E-1   -2.674535142005133E-1
 6.530127237950000E9     5.383278895779685E-1   -1.501280336798404E-1   -2.314246343607886E-2   -4.893037094417656E-2   -2.437919713482820E-2   -4.840534880418843E-2    4.265987532376057E-1   -2.686608942944090E-1
 6.530137057925000E9     5.379491017367077E-1   -1.509806467116036E-1   -2.349793427524701E-2   -4.941906710360802E-2   -2.463193209588880E-2   -4.871329713006190E-2    4.255387471601169E-1   -2.697355441166295E-1
 6.530146877900000E9     5.376798167828347E-1   -1.519116498158554E-1   -2.373515361729810E-2   -4.952716831796619E-2   -2.510482943169268E-2   -4.897623695222666E-2    4.248585433099313E-1   -2.707852505874092E-1
 6.530156697875000E9     5.371484607192283E-1   -1.528174215512433E-1   -2.421307014604521E-2   -4.992166071351971E-2   -2.542105111753905E-2   -4.946607210145003E-2    4.238834448923271E-1   -2.720848600024227E-1
 6.530166517850000E9     5.370415755053605E-1   -1.536879514320378E-1   -2.453076582526369E-2   -5.033485639589574E-2   -2.579116707444474E-2   -4.975344304535909E-2    4.230427221932541E-1   -2.731259960855294E-1
 6.530176337825000E9     5.366497735360580E-1   -1.546729074435201E-1   -2.479891811970496E-2   -5.074204289602086E-2   -2.607453559730126E-2   -5.011939947040326E-2    4.219689079112454E-1   -2.743706016678911E-1
 6.530186157800000E9     5.363735564834812E-1   -1.554484594101913E-1   -2.511349600772938E-2   -5.116037696912309E-2   -2.638178378218933E-2   -5.043156454634904E-2    4.211007942593015E-1   -2.754178978244508E-1
 6.530195977775000E9     5.360290875052560E-1   -1.564593977095508E-1   -2.553059919437933E-2   -5.145887775413650E-2   -2.679755490699035E-2   -5.087803996908909E-2    4.200880901837864E-1   -2.767193490349967E-1
 6.530205797750000E9     5.356415478389192E-1   -1.573516433374195E-1   -2.583908075610586E-2   -5.175811822585241E-2   -2.709730883766666E-2   -5.119914121994727E-2    4.192086183926805E-1   -2.777339148099606E-1
