#  HZ   S   RI   R     50.00 
! Rohde & Schwarz Vector Network Analyzer 
! Rohde-Schwarz,ZNB20-2Port,1311601062101988,3.16
! Created: UTC 3/21/2024, 1:16:26 AM
! freq[Hz]                re:S11                  im:S11                  re:S21                  im:S21                  re:S12                  im:S12                  re:S22                  im:S22
 6.529352120000000E9     5.543832860382116E-1   -8.370584226649717E-2   -8.978758322116930E-3   -3.132398257859205E-2   -9.610706171125426E-3   -3.137605902918893E-2    4.696522635217435E-1   -1.946892774459416E-1
 6.529361869900000E9     5.542449585557049E-1   -8.443122851610740E-2   -9.136224311133903E-3   -3.153706102910876E-2   -9.824620458475116E-3   -3.146662397919817E-2    4.693672778869561E-1   -1.955603363870808E-1
 6.529371619800000E9     5.541937436512885E-1   -8.526839541543937E-2   -9.243204920284258E-3   -3.170887280739945E-2   -9.961017647678806E-3   -3.160121550217284E-2    4.689405857349491E-1   -1.964922518609702E-1
 6.529381369700000E9     5.540873033397649E-1   -8.608089504213078E-2   -9.338932422252359E-3   -3.184906644956026E-2   -1.000074212571858E-2   -3.175409427579663E-2    4.686932304763649E-1   -1.971535257495828E-1
 6.529391119600000E9     5.537285391861855E-1   -8.672968739490855E-2   -9.488615169236644E-3   -3.195136018795535E-2   -1.007783802023745E-2   -3.178450720518940E-2    4.682423756599378E-1   -1.981399924170155E-1
 6.529400869500000E9     5.537450541819898E-1   -8.761652733097493E-2   -9.465709473069661E-3   -3.206375060564088E-2   -1.022127588917870E-2   -3.196015158974380E-2    4.678481920472670E-1   -1.989081169319914E-1
 6.529410619400000E9     5.536913660927550E-1   -8.832727602348285E-2   -9.643716212345816E-3   -3.219895007989772E-2   -1.023514530117527E-2   -3.215884414066551E-2    4.674569966663206E-1   -1.997036442467786E-1
 6.529420369300000E9     5.535194208162637E-1   -8.917603630493152E-2   -9.614095753615616E-3   -3.244731499618774E-2   -1.042508353569596E-2   -3.223263278820897E-2    4.670518859771978E-1   -2.004677134699036E-1
 6.529430119200000E9     5.533677126979683E-1   -8.997024985056197E-2   -9.752216195504355E-3   -3.248906879175963E-2   -1.053053481086359E-2   -3.243450122177582E-2    4.666185917505583E-1   -2.013113401976849E-1
 6.529439869100000E9     5.531182237021263E-1   -9.084869397055720E-2   -1.002912261364698E-2   -3.273756739216301E-2   -1.067991317523439E-2   -3.248504860422221E-2    4.662889186137908E-1   -2.020973847668893E-1
 6.529449619000000E9     5.530568764067322E-1   -9.163721168611813E-2   -1.009971309883631E-2   -3.281575873983585E-2   -1.071511280182550E-2   -3.260274272712038E-2    4.659173148915698E-1   -2.030392702355213E-1
 6.529459368900000E9     5.529550727259803E-1   -9.235816211544538E-2   -1.021850026293523E-2   -3.305419432971120E-2   -1.085186938593903E-2   -3.281453246086267E-2    4.656758129506393E-1   -2.039008714046770E-1
 6.529469118800000E9     5.528493147865997E-1   -9.312970025268093E-2   -1.024840251227775E-2   -3.316103511122925E-2   -1.107622496160972E-2   -3.301114338563266E-2    4.650975905677827E-1   -2.047188405810193E-1
 6.529478868700000E9     5.526505100020489E-1   -9.400547161953704E-2   -1.047466673767445E-2   -3.337834517053969E-2   -1.105820400273023E-2   -3.320601753130106E-2    4.647315449649813E-1   -2.056584178977800E-1
 6.529488618600000E9     5.526220845418680E-1   -9.477479557810868E-2   -1.063442124934824E-2   -3.342345510175886E-2   -1.124736152759770E-2   -3.338316488707154E-2    4.645205014228765E-1   -2.064553255806851E-1
 6.529498368500000E9     5.523652653432377E-1   -9.559577960526737E-2   -1.073387785509021E-2   -3.372883155844397E-2   -1.142338114848516E-2   -3.346503658362249E-2    4.638849121289618E-1   -2.073466020322944E-1
 6.529508118400000E9     5.520658057273544E-1   -9.626666835618046E-2   -1.075031265715733E-2   -3.377441315134291E-2   -1.139151799059578E-2   -3.365960974876905E-2    4.634160852910240E-1   -2.080491236568155E-1
 6.529517868300000E9     5.519841373638026E-1   -9.706186940435858E-2   -1.077570915400674E-2   -3.395448182670852E-2   -1.161468454854393E-2   -3.381251700410266E-2    4.631321161070242E-1   -2.089429380503988E-1
 6.529527618200000E9     5.517948724553574E-1   -9.782873641362493E-2   -1.095549287519491E-2   -3.405876342703204E-2   -1.170932882132383E-2   -3.406278221486950E-2    4.625907459651931E-1   -2.098935547751830E-1
 6.529537368100000E9     5.516640634667976E-1   -9.885045189725307E-2   -1.121419603695241E-2   -3.423388158924432E-2   -1.185732778902978E-2   -3.420642295213847E-2    4.621580498887602E-1   -2.107571374238633E-1
 6.529547118000000E9     5.516301091551060E-1   -9.961820640808654E-2   -1.130451822907563E-2   -3.444944864539182E-2   -1.198507160256918E-2   -3.422778657498410E-2    4.617224100978490E-1   -2.114767858459433E-1
 6.529556867900000E9     5.513952745758628E-1   -1.003294447654921E-1   -1.146854109006473E-2   -3.448206591250215E-2   -1.211126865838099E-2   -3.437665817164279E-2    4.612052797319269E-1   -2.124271799721038E-1
 6.529566617800000E9     5.512492453031220E-1   -1.011601330903508E-1   -1.137550221016449E-2   -3.467674179900997E-2   -1.225400852592464E-2   -3.454804325791628E-2    4.608629591734109E-1   -2.132651495891497E-1
 6.529576367700000E9     5.511004352247650E-1   -1.018250624573112E-1   -1.149220938143545E-2   -3.485165790572570E-2   -1.236374349647588E-2   -3.475578873085953E-2    4.603921654463076E-1   -2.140960185551251E-1
 6.529586117600000E9     5.510615639600007E-1   -1.027527170121017E-1   -1.175043028319771E-2   -3.505521584486812E-2   -1.254118253314731E-2   -3.484174429363602E-2    4.599101693302770E-1   -2.149773135370981E-1
 6.529595867500000E9     5.508369463868711E-1   -1.034733194087935E-1   -1.189254241734295E-2   -3.541678162189794E-2   -1.269323094098307E-2   -3.498649650783241E-2    4.595582539125380E-1   -2.159938889285964E-1
 6.529605617400000E9     5.506859640171705E-1   -1.043895425837948E-1   -1.187208108151819E-2   -3.540585224030006E-2   -1.278817417368878E-2   -3.511962214877738E-2    4.590923422561481E-1   -2.168097749551798E-1
 6.529615367300000E9     5.505408144688289E-1   -1.051272497653731E-1   -1.220929313412819E-2   -3.562026529383569E-2   -1.287760725611304E-2   -3.534741423943532E-2    4.585570406435071E-1   -2.176947032802222E-1
 6.529625117200000E9     5.502877110451614E-1   -1.059711557811921E-1   -1.233378441749312E-2   -3.576956522169393E-2   -1.311787947293535E-2   -3.557767750235281E-2    4.582878139686302E-1   -2.185464763906962E-1
 6.529634867100000E9     5.502184304787304E-1   -1.066443777911285E-1   -1.244004805793794E-2   -3.595823931563432E-2   -1.316068252347420E-2   -3.572800497342819E-2    4.577217989263566E-1   -2.193697181805465E-1
 6.529644617000000E9     5.499699490581680E-1   -1.075702525599442E-1   -1.257726891435083E-2   -3.641132213528938E-2   -1.329512765976005E-2   -3.597175670086773E-2    4.571338900233796E-1   -2.203995708292491E-1
 6.529654366900000E9     5.498389017440583E-1   -1.083868990947067E-1   -1.281416569447083E-2   -3.616800784066065E-2   -1.346225651584355E-2   -3.610885653860111E-2    4.567814636230510E-1   -2.210162736064779E-1
 6.529664116800000E9     5.496385354819414E-1   -1.091405736790202E-1   -1.285043447278864E-2   -3.655337623567054E-2   -1.365941031691640E-2   -3.624730669151476E-2    4.563523718438949E-1   -2.220508096494639E-1
 6.529673866700000E9     5.493427929282747E-1   -1.100637841842609E-1   -1.287928537638902E-2   -3.654206723846726E-2   -1.372980484711837E-2   -3.659732782759207E-2    4.556746711968720E-1   -2.229624850367266E-1
 6.529683616600000E9     5.493177648760932E-1   -1.108326786593858E-1   -1.300151709910268E-2   -3.690575887954079E-2   -1.387737687370342E-2   -3.665892550668382E-2    4.551873676354669E-1   -2.239515966646639E-1
 6.529693366500000E9     5.491383527710751E-1   -1.115792097850662E-1   -1.333310881546789E-2   -3.715688392925259E-2   -1.409910242331202E-2   -3.690782251525926E-2    4.548081906464524E-1   -2.248006049950949E-1
 6.529703116400000E9     5.488728808013794E-1   -1.124008892708039E-1   -1.350644434681494E-2   -3.727632560921586E-2   -1.429610470168210E-2   -3.701419789355236E-2    4.542945064162993E-1   -2.257186833912694E-1
 6.529712866300000E9     5.486190555572710E-1   -1.132262488104365E-1   -1.357974149342153E-2   -3.745285417147306E-2   -1.439626662847980E-2   -3.725649898874968E-2    4.537727254174119E-1   -2.264730855489323E-1
 6.529722616200000E9     5.485543632334505E-1   -1.140198940057685E-1   -1.364742707381142E-2   -3.768304531069053E-2   -1.462220531129925E-2   -3.740874983881613E-2    4.532919061028676E-1   -2.274456893705998E-1
 6.529732366100000E9     5.483690320581244E-1   -1.148619788840764E-1   -1.394994312893725E-2   -3.802336759425045E-2   -1.482180838001153E-2   -3.766095151451829E-2    4.527798353232873E-1   -2.284532743366079E-1
 6.529742116000000E9     5.482546047248104E-1   -1.157846698124555E-1   -1.390858911542903E-2   -3.807736126420755E-2   -1.487044608150763E-2   -3.787296772703388E-2    4.522025597458391E-1   -2.293521672652562E-1
 6.529751865900000E9     5.478994450190048E-1   -1.164777651827006E-1   -1.410545237601187E-2   -3.831475519481792E-2   -1.499282629294532E-2   -3.806786547300847E-2    4.516304376984199E-1   -2.301638095481052E-1
 6.529761615800000E9     5.477167740304956E-1   -1.173456448809844E-1   -1.419923619014417E-2   -3.849736010778850E-2   -1.529995712379975E-2   -3.829449786027378E-2    4.512215966932902E-1   -2.311470411192892E-1
 6.529771365700000E9     5.476011008632407E-1   -1.181998144308489E-1   -1.432697660000539E-2   -3.879931475962223E-2   -1.548703124777760E-2   -3.844308389160110E-2    4.507107136862606E-1   -2.321273679566444E-1
 6.529781115600000E9     5.473971831055110E-1   -1.190523896085370E-1   -1.470130473312329E-2   -3.901680534234677E-2   -1.549893440286746E-2   -3.861010151574577E-2    4.501422859890117E-1   -2.330800672608824E-1
 6.529790865500000E9     5.471830612271086E-1   -1.197989333511498E-1   -1.479611803049172E-2   -3.921828309456882E-2   -1.574615391254750E-2   -3.893140763301623E-2    4.496866562272804E-1   -2.338568655272085E-1
 6.529800615400000E9     5.470035535330149E-1   -1.208314036502979E-1   -1.491050611372240E-2   -3.936336997157888E-2   -1.597576082132037E-2   -3.906195547395525E-2    4.491394467985507E-1   -2.348547263296532E-1
 6.529810365300000E9     5.467306825438356E-1   -1.214384738450655E-1   -1.517443914302539E-2   -3.968860641657485E-2   -1.607562804009635E-2   -3.933290901109810E-2    4.485970626527834E-1   -2.357432770574111E-1
 6.529820115200000E9     5.465466305964490E-1   -1.223464034859147E-1   -1.524672711511676E-2   -3.991139565939122E-2   -1.632585807982354E-2   -3.946660907696707E-2    4.479259901464753E-1   -2.365649360667545E-1
 6.529829865100000E9     5.463785357000437E-1   -1.231709952976424E-1   -1.554783180564012E-2   -4.014896375677804E-2   -1.655338995509404E-2   -3.963189518670160E-2    4.473368598757389E-1   -2.378273291557115E-1
 6.529839615000000E9     5.461233528139008E-1   -1.240660175699461E-1   -1.581216406306104E-2   -4.017271075945016E-2   -1.655513444215045E-2   -3.993673711458488E-2    4.467699244744933E-1   -2.387391925331680E-1
 6.529849364900000E9     5.459957070519810E-1   -1.248859203611663E-1   -1.595056818455468E-2   -4.043962311390580E-2   -1.682030783749043E-2   -4.016843740563147E-2    4.462726858785269E-1   -2.394834144244698E-1
 6.529859114800000E9     5.457724559602140E-1   -1.256430441223058E-1   -1.614437024586299E-2   -4.083291337055335E-2   -1.712871601578447E-2   -4.035683909794379E-2    4.455049540942240E-1   -2.405556822751644E-1
 6.529868864700000E9     5.454430200938769E-1   -1.264621372656164E-1   -1.637143982835852E-2   -4.083017516848041E-2   -1.720394564212593E-2   -4.053468277426944E-2    4.449087492992466E-1   -2.413014552177543E-1
 6.529878614600000E9     5.452551518165777E-1   -1.274783207646811E-1   -1.647533129719401E-2   -4.123359935160294E-2   -1.745705123581378E-2   -4.092818083271446E-2    4.444992542685009E-1   -2.424394940560725E-1
 6.529888364500000E9     5.449429379595454E-1   -1.281372656915573E-1   -1.668797450143385E-2   -4.138371764418403E-2   -1.770930348966817E-2   -4.116127581521858E-2    4.437905477724794E-1   -2.433513067115463E-1
 6.529898114400000E9     5.448963154004468E-1   -1.289893863731310E-1   -1.697968542639237E-2   -4.156128801834460E-2   -1.795945196809035E-2   -4.131937255041159E-2    4.431473657276140E-1   -2.444239185772481E-1
 6.529907864300000E9     5.445651375208368E-1   -1.299409660781443E-1   -1.708523281991297E-2   -4.190264513125241E-2   -1.811378967764890E-2   -4.157274584284553E-2    4.424672079579053E-1   -2.454906631288754E-1
 6.529917614200000E9     5.443013191453092E-1   -1.307551004747363E-1   -1.730914326431934E-2   -4.225327079513300E-2   -1.835523602171462E-2   -4.187886229833735E-2    4.419547199845193E-1   -2.463314097594689E-1
 6.529927364100000E9     5.440581565751517E-1   -1.316090339463846E-1   -1.743725791841853E-2   -4.241532417123356E-2   -1.856058824262831E-2   -4.204447438379385E-2    4.413842539372785E-1   -2.472180534915716E-1
 6.529937114000000E9     5.437682664467978E-1   -1.324505445640347E-1   -1.771565147716793E-2   -4.274849055095689E-2   -1.880409679346747E-2   -4.232222411547820E-2    4.407312100341040E-1   -2.482994806156769E-1
 6.529946863900000E9     5.435660742616603E-1   -1.333288574488887E-1   -1.800694926244128E-2   -4.294978238201911E-2   -1.896247342179072E-2   -4.262834758077282E-2    4.398751770197179E-1   -2.492302732601382E-1
 6.529956613800000E9     5.433422293902898E-1   -1.341546103201572E-1   -1.824972318193823E-2   -4.317085347850857E-2   -1.920278880856838E-2   -4.274810038846583E-2    4.393399586539468E-1   -2.503639046368914E-1
 6.529966363700000E9     5.429595094861015E-1   -1.350297394028216E-1   -1.833381025040804E-2   -4.359839979263636E-2   -1.939943317038638E-2   -4.312886670972745E-2    4.386739099745534E-1   -2.512158678560410E-1
 6.529976113600000E9     5.428926103686265E-1   -1.358499456490064E-1   -1.876661427799184E-2   -4.360236261483941E-2   -1.969896688128085E-2   -4.336312459849148E-2    4.380871801550216E-1   -2.522114845328982E-1
 6.529985863500000E9     5.426296251267587E-1   -1.366782341914942E-1   -1.896766311250300E-2   -4.395440649344622E-2   -1.988303399329025E-2   -4.363934955926187E-2    4.374234752214366E-1   -2.534524940836285E-1
 6.529995613400000E9     5.422872632178262E-1   -1.376302331879698E-1   -1.913480060041285E-2   -4.427898562814740E-2   -2.020752586931810E-2   -4.377897962930356E-2    4.368335102618387E-1   -2.544244678009772E-1
 6.530005363300000E9     5.421621660916116E-1   -1.384717756611072E-1   -1.943503525531726E-2   -4.463177335961421E-2   -2.047055715928251E-2   -4.417123132740500E-2    4.360581300860035E-1   -2.553922900928184E-1
 6.530015113200000E9     5.417730029689009E-1   -1.392418150931057E-1   -1.952001146498545E-2   -4.489451107978398E-2   -2.055049795536404E-2   -4.454770686355752E-2    4.354742679899771E-1   -2.563155710858576E-1
 6.530024863100000E9     5.416243134682689E-1   -1.402140568753474E-1   -1.974571218427523E-2   -4.506347001747005E-2   -2.096132225682610E-2   -4.470608255389742E-2    4.345744655825707E-1   -2.576071202611276E-1
 6.530034613000000E9     5.412534817635929E-1   -1.410455891961939E-1   -2.016140050513614E-2   -4.530242346388975E-2   -2.116075156692726E-2   -4.503719569081728E-2    4.337773448238870E-1   -2.585826652060438E-1
 6.530044362900000E9     5.410044870031838E-1   -1.418508180083758E-1   -2.047957895523298E-2   -4.569326923382016E-2   -2.144227507420864E-2   -4.527464200700432E-2    4.331787066734926E-1   -2.593802941223528E-1
 6.530054112800000E9     5.406526082138126E-1   -1.428738297197376E-1   -2.065080436095590E-2   -4.593821883615570E-2   -2.173968807496099E-2   -4.554215350169514E-2    4.323300989616755E-1   -2.606678215138927E-1
 6.530063862700000E9     5.403416730648165E-1   -1.437597709032653E-1   -2.083448899573617E-2   -4.624631894876723E-2   -2.206882040276407E-2   -4.576138864747434E-2    4.316644505957867E-1   -2.616658452667863E-1
 6.530073612600000E9     5.401590664139743E-1   -1.445655438312461E-1   -2.098461354347765E-2   -4.666276002598387E-2   -2.234514915563682E-2   -4.606546588665602E-2    4.309345468045209E-1   -2.627435067682408E-1
 6.530083362500000E9     5.398685848062865E-1   -1.453817397956281E-1   -2.139819564044552E-2   -4.683287232312069E-2   -2.256926146411610E-2   -4.642319429360095E-2    4.300462839954157E-1   -2.636995224418913E-1
 6.530093112400000E9     5.396090320097159E-1   -1.463578261091721E-1   -2.162874291597461E-2   -4.721248094911690E-2   -2.288024074463731E-2   -4.675961467994328E-2    4.293353193947687E-1   -2.647385638521303E-1
 6.530102862300000E9     5.391912454017808E-1   -1.472621390093072E-1   -2.189126753758331E-2   -4.761868888482037E-2   -2.310284698519050E-2   -4.699193610581437E-2    4.285031864760666E-1   -2.659534501393896E-1
 6.530112612200000E9     5.390534518567848E-1   -1.481381746822619E-1   -2.234772839715120E-2   -4.781454860665738E-2   -2.345066291731372E-2   -4.738887561674576E-2    4.276078597122440E-1   -2.672470324858888E-1
 6.530122362100000E9     5.387462895122186E-1   -1.490369716226737E-1   -2.253958036265464E-2   -4.836156729740350E-2   -2.369794916473890E-2   -4.767067275149548E-2    4.268463003885949E-1   -2.680253246798310E-1
 6.530132112000000E9     5.384315091919041E-1   -1.500145869732548E-1   -2.283090685130570E-2   -4.859453817700941E-2   -2.406530979512782E-2   -4.805236715399613E-2    4.260348770180435E-1   -2.692305093189079E-1
 6.530141861900000E9     5.379667343920875E-1   -1.508355873273021E-1   -2.309505271105660E-2   -4.891241561047678E-2   -2.436858601776469E-2   -4.840829709050455E-2    4.250742340978590E-1   -2.701983160054320E-1
 6.530151611800000E9     5.378449583699270E-1   -1.517952314191741E-1   -2.345936718807022E-2   -4.933335611947665E-2   -2.478187278762107E-2   -4.871187822130654E-2    4.243339405527203E-1   -2.713975114452711E-1
 6.530161361700000E9     5.373963888455017E-1   -1.526388007181373E-1   -2.388591158827751E-2   -4.964587582362369E-2   -2.500882414833343E-2   -4.895086689223092E-2    4.233985982174027E-1   -2.725834572325945E-1
 6.530171111600000E9     5.372289234517024E-1   -1.535680459598507E-1   -2.404845022847074E-2   -4.983811870544319E-2   -2.541352836647170E-2   -4.928553029870010E-2    4.227655825898700E-1   -2.736835046977312E-1
 6.530180861500000E9     5.368852654563434E-1   -1.544384060648917E-1   -2.439611310333544E-2   -5.027094086859251E-2   -2.570427357420476E-2   -4.971048828065702E-2    4.216237647260675E-1   -2.747684311812245E-1
 6.530190611400000E9     5.365961436375154E-1   -1.554634529140835E-1   -2.482115522692148E-2   -5.057176688374513E-2   -2.615836757208612E-2   -4.995279353881048E-2    4.206212601918337E-1   -2.757981820622164E-1
 6.530200361300000E9     5.360507172080957E-1   -1.563136876318818E-1   -2.509756529980521E-2   -5.082223857222092E-2   -2.649199197661462E-2   -5.032332618439926E-2    4.200659307533475E-1   -2.770147331558798E-1
 6.530210111200000E9     5.358063956549305E-1   -1.572512058769518E-1   -2.542546404085612E-2   -5.146110914436356E-2   -2.683891464688077E-2   -5.063226033356331E-2    4.188940640976520E-1   -2.782444235081037E-1
 6.530219861100000E9     5.353812585244812E-1   -1.581579703709278E-1   -2.602934179540438E-2   -5.157646132587252E-2   -2.709918827612740E-2   -5.106860477228252E-2    4.180306666172141E-1   -2.793823102239202E-1
 6.530229611000000E9     5.350922722531926E-1   -1.589932624927391E-1   -2.632824397920068E-2   -5.206682868875874E-2   -2.757078995573468E-2   -5.146295953521498E-2    4.168454337801494E-1   -2.806044646373236E-1
