#  HZ   S   RI   R     50.00 
! Rohde & Schwarz Vector Network Analyzer 
! Rohde-Schwarz,ZNB20-2Port,1311601062101988,3.16
! Created: UTC 3/21/2024, 12:52:52 AM
! freq[Hz]                re:S11                  im:S11                  re:S21                  im:S21                  re:S12                  im:S12                  re:S22                  im:S22
 6.528824036000000E9     5.606883520615731E-1   -5.813331657129488E-2   -8.321388396968733E-3   -3.334377304334570E-2   -9.017053337369421E-3   -3.311804428486050E-2    4.816461195862032E-1   -1.891047483047635E-1
 6.528833353900000E9     5.605578556024723E-1   -5.892438266599492E-2   -8.353812043288758E-3   -3.358377555671045E-2   -9.194406662410563E-3   -3.340334852184640E-2    4.813725174584082E-1   -1.899681569695454E-1
 6.528842671800000E9     5.606357542408875E-1   -5.961802602467221E-2   -8.483420862752606E-3   -3.371926866576434E-2   -9.187743195231114E-3   -3.354246342050255E-2    4.810301857764289E-1   -1.907426465285080E-1
 6.528851989700000E9     5.605606452331433E-1   -6.034130281429513E-2   -8.668570734072808E-3   -3.387783380422131E-2   -9.323287233949377E-3   -3.372917973394444E-2    4.806488494694294E-1   -1.916648766798646E-1
 6.528861307600000E9     5.604344402062882E-1   -6.117858740044069E-2   -8.681992686080558E-3   -3.397004546770040E-2   -9.453896927206861E-3   -3.384191233469336E-2    4.803157279982598E-1   -1.924353775736360E-1
 6.528870625500000E9     5.603396981737941E-1   -6.199349553292397E-2   -8.797792828918793E-3   -3.413917786490950E-2   -9.516276548241599E-3   -3.409360363861514E-2    4.799411075904771E-1   -1.932693561964109E-1
 6.528879943400000E9     5.602018801729498E-1   -6.268610972086446E-2   -8.869152198962678E-3   -3.420557055415240E-2   -9.602506908684609E-3   -3.414931017057651E-2    4.794860936915559E-1   -1.942208690481546E-1
 6.528889261300000E9     5.601844758489908E-1   -6.346987223647345E-2   -9.118869027660745E-3   -3.453862824263974E-2   -9.773827337663811E-3   -3.438254519892622E-2    4.791979126148144E-1   -1.948304901083273E-1
 6.528898579200000E9     5.599925726971559E-1   -6.422506258349354E-2   -8.967501939212818E-3   -3.463470154015930E-2   -9.896782016749933E-3   -3.452803512958153E-2    4.787762581907288E-1   -1.958309422102906E-1
 6.528907897100000E9     5.600875835217936E-1   -6.499105841211718E-2   -9.275873606235132E-3   -3.480072494190362E-2   -9.913215335483939E-3   -3.457666615708060E-2    4.783813008586925E-1   -1.966702564324790E-1
 6.528917215000000E9     5.597895759242018E-1   -6.589504983992865E-2   -9.389597004669657E-3   -3.492388831197286E-2   -1.007343627773018E-2   -3.469603013519080E-2    4.780340552424209E-1   -1.974722137931526E-1
 6.528926532900000E9     5.597490279973608E-1   -6.657195375065773E-2   -9.392868601349967E-3   -3.512105306955032E-2   -1.010626197540050E-2   -3.491178364847779E-2    4.777693378258518E-1   -1.983765273798728E-1
 6.528935850800000E9     5.595636652462113E-1   -6.732269813577142E-2   -9.628050728611176E-3   -3.524830184445766E-2   -1.023277476886538E-2   -3.503422216180253E-2    4.772661024207404E-1   -1.991626226479272E-1
 6.528945168700000E9     5.596322285262073E-1   -6.808875040981438E-2   -9.612070506218737E-3   -3.541710495863040E-2   -1.035199603592101E-2   -3.518213080373328E-2    4.767564422069016E-1   -1.999549314249836E-1
 6.528954486600000E9     5.592957901983259E-1   -6.897212284893277E-2   -9.714003294261035E-3   -3.567427826643095E-2   -1.051126268474731E-2   -3.550706040821115E-2    4.764132991161089E-1   -2.008225511149734E-1
 6.528963804500000E9     5.592966786230176E-1   -6.969258165788103E-2   -9.770698801461048E-3   -3.564669671871695E-2   -1.064822023896397E-2   -3.564525910990197E-2    4.760842373284473E-1   -2.017341004190849E-1
 6.528973122400000E9     5.592471516209563E-1   -7.041872179015958E-2   -9.837064252252602E-3   -3.592222342975146E-2   -1.074926310935090E-2   -3.576930444894448E-2    4.757312227805827E-1   -2.028075340337865E-1
 6.528982440300000E9     5.590797890695223E-1   -7.133126711608782E-2   -9.881015731211279E-3   -3.602792847815684E-2   -1.085205629498789E-2   -3.600536098393749E-2    4.754368690025944E-1   -2.036246147039276E-1
 6.528991758200000E9     5.589806922697510E-1   -7.204255522246422E-2   -1.027825881308485E-2   -3.627120855591674E-2   -1.098081024091185E-2   -3.612277548002300E-2    4.749223851002441E-1   -2.042797291610405E-1
 6.529001076100000E9     5.589145708202967E-1   -7.280238348008843E-2   -1.035832073948598E-2   -3.641635247230833E-2   -1.108214630399436E-2   -3.628872355656679E-2    4.744444418691412E-1   -2.051273406805083E-1
 6.529010394000000E9     5.587113952654815E-1   -7.351720620645431E-2   -1.043718674207754E-2   -3.658049478884436E-2   -1.120106442283552E-2   -3.645061529157410E-2    4.740689698177294E-1   -2.062095684923432E-1
 6.529019711900000E9     5.586082670620381E-1   -7.447233803875654E-2   -1.059780071054501E-2   -3.668184862761687E-2   -1.137013780635660E-2   -3.665172229147401E-2    4.735886656229975E-1   -2.069817870429108E-1
 6.529029029800000E9     5.584493021155904E-1   -7.519102831534785E-2   -1.056114356382519E-2   -3.709387052194597E-2   -1.153719186937370E-2   -3.685739977078577E-2    4.731894190869140E-1   -2.078266473587391E-1
 6.529038347700000E9     5.584324547658189E-1   -7.597523685100513E-2   -1.075757439251991E-2   -3.718673652972516E-2   -1.158654072518175E-2   -3.686283648120622E-2    4.728274853226257E-1   -2.087582272634361E-1
 6.529047665600000E9     5.583181949058139E-1   -7.675804200939054E-2   -1.091875788977349E-2   -3.724367707900939E-2   -1.186620963239321E-2   -3.713722140247108E-2    4.722828128551149E-1   -2.096460135318798E-1
 6.529056983500000E9     5.581209380145354E-1   -7.755092076448307E-2   -1.108881436756516E-2   -3.748658332099283E-2   -1.184920541509873E-2   -3.738543814527955E-2    4.718976090929315E-1   -2.105397423664669E-1
 6.529066301400000E9     5.579779650393946E-1   -7.835905479209786E-2   -1.116253909459917E-2   -3.775016747691554E-2   -1.203310214114398E-2   -3.760386048027859E-2    4.715253595351257E-1   -2.114369043172377E-1
 6.529075619300000E9     5.579289549857854E-1   -7.908801773131954E-2   -1.131034482293850E-2   -3.801137159222485E-2   -1.220522023437193E-2   -3.767744306593879E-2    4.710120994490836E-1   -2.124135584375591E-1
 6.529084937200000E9     5.578840431128317E-1   -7.994580001672905E-2   -1.145750174404876E-2   -3.818361078736673E-2   -1.233319742656003E-2   -3.795156255652204E-2    4.705932022373151E-1   -2.132694957918748E-1
 6.529094255100000E9     5.577198304373550E-1   -8.068649172337143E-2   -1.170926071571855E-2   -3.823685524228179E-2   -1.247339200430178E-2   -3.813014029770855E-2    4.701656463693968E-1   -2.139856779989116E-1
 6.529103573000000E9     5.576138229090145E-1   -8.148041297797297E-2   -1.175946583772796E-2   -3.850747139463610E-2   -1.268127575803307E-2   -3.821285621556859E-2    4.696481536916768E-1   -2.150070655563697E-1
 6.529112890900000E9     5.573914014896001E-1   -8.228177716730553E-2   -1.194117469314018E-2   -3.865136498780999E-2   -1.271329737146238E-2   -3.855842164788369E-2    4.693729123212981E-1   -2.160200001890524E-1
 6.529122208800000E9     5.571892012266161E-1   -8.300083890062596E-2   -1.202442363682982E-2   -3.897770765229477E-2   -1.292984826505970E-2   -3.873034786553824E-2    4.688891918065316E-1   -2.168545996362150E-1
 6.529131526700000E9     5.571911538165075E-1   -8.394563859725696E-2   -1.213876067748660E-2   -3.916878958617391E-2   -1.296490860036042E-2   -3.897149722116833E-2    4.682547969457385E-1   -2.177335038886171E-1
 6.529140844600000E9     5.570460335926292E-1   -8.473775085739013E-2   -1.236582783293587E-2   -3.921697089027977E-2   -1.322700060402858E-2   -3.906162992260249E-2    4.679293167922631E-1   -2.185330463262404E-1
 6.529150162500000E9     5.567846254153248E-1   -8.552784098107431E-2   -1.247398272724029E-2   -3.951234819658911E-2   -1.336866894360831E-2   -3.938020778582315E-2    4.673308032664049E-1   -2.194660395075857E-1
 6.529159480400000E9     5.567793517663339E-1   -8.634746847770831E-2   -1.253137284641673E-2   -3.983536796084634E-2   -1.348808642378267E-2   -3.945171986584470E-2    4.669295880800168E-1   -2.204759040748095E-1
 6.529168798300000E9     5.565768779913065E-1   -8.709734129713401E-2   -1.264175328019559E-2   -3.992265203321477E-2   -1.369328242246159E-2   -3.977936771444043E-2    4.665097260357308E-1   -2.214141013679099E-1
 6.529178116200000E9     5.565025783743854E-1   -8.791328748832396E-2   -1.296988851264953E-2   -4.027155849607786E-2   -1.382680659487835E-2   -3.997991000565602E-2    4.659116888447690E-1   -2.223715852008467E-1
 6.529187434100000E9     5.562882497744999E-1   -8.872554128577931E-2   -1.308644674329289E-2   -4.040820302420751E-2   -1.390854218565542E-2   -4.013370909830298E-2    4.654132342102824E-1   -2.233071053571188E-1
 6.529196752000000E9     5.561046864297281E-1   -8.956055589261631E-2   -1.316666840706222E-2   -4.071236355979822E-2   -1.406519162512817E-2   -4.040702850769685E-2    4.649843900496318E-1   -2.243560961147492E-1
 6.529206069900000E9     5.560078312839499E-1   -9.036557530492280E-2   -1.323240694560015E-2   -4.065650015198447E-2   -1.429401649317169E-2   -4.057767283929854E-2    4.645704148536836E-1   -2.251323389132041E-1
 6.529215387800000E9     5.558686332693560E-1   -9.120989502762399E-2   -1.354576657129880E-2   -4.111655120253657E-2   -1.448485860096216E-2   -4.082371535385634E-2    4.638511515064140E-1   -2.260753274866357E-1
 6.529224705700000E9     5.557196679985500E-1   -9.190359490091467E-2   -1.366067948580688E-2   -4.123717272590122E-2   -1.464112645270100E-2   -4.106461167595996E-2    4.633779991493994E-1   -2.270857174171844E-1
 6.529234023600000E9     5.554800754525852E-1   -9.279309030632869E-2   -1.384546246017136E-2   -4.141637841945932E-2   -1.474581844927120E-2   -4.119141619402859E-2    4.628758725832999E-1   -2.279761856055525E-1
 6.529243341500000E9     5.553202482053947E-1   -9.354102162829735E-2   -1.385346067951842E-2   -4.169647366340282E-2   -1.492491120212866E-2   -4.148594406144031E-2    4.623451495677836E-1   -2.289999786675839E-1
 6.529252659400000E9     5.552297113699306E-1   -9.447733827543273E-2   -1.407074887383078E-2   -4.203116795603608E-2   -1.503191467455366E-2   -4.170899090889573E-2    4.618520727099797E-1   -2.298295132665878E-1
 6.529261977300000E9     5.549869688761756E-1   -9.527199756966413E-2   -1.428042143939688E-2   -4.231546305960480E-2   -1.539453324212321E-2   -4.189578496828382E-2    4.612882499769615E-1   -2.308399194990021E-1
 6.529271295200000E9     5.548068325496052E-1   -9.608524882659089E-2   -1.464550382213979E-2   -4.251808997393213E-2   -1.546181628823544E-2   -4.225308502760618E-2    4.607341705994059E-1   -2.318775077185601E-1
 6.529280613100000E9     5.546489074793581E-1   -9.685834527583666E-2   -1.466443223868299E-2   -4.267671935517318E-2   -1.560600923394979E-2   -4.256376886138594E-2    4.601905884052095E-1   -2.327329857086212E-1
 6.529289931000000E9     5.544169481701940E-1   -9.774579379919966E-2   -1.487151429721393E-2   -4.289453623767118E-2   -1.591364710850232E-2   -4.268535780551485E-2    4.594808179383283E-1   -2.336487361300863E-1
 6.529299248900000E9     5.544941778315035E-1   -9.846434239099704E-2   -1.503882141834695E-2   -4.323814381347747E-2   -1.598082937572188E-2   -4.287509904623486E-2    4.589788755207923E-1   -2.345272003860061E-1
 6.529308566800000E9     5.542177463069052E-1   -9.937566125949888E-2   -1.526408100374185E-2   -4.360115139141330E-2   -1.615495970411564E-2   -4.323820418013408E-2    4.584184043010396E-1   -2.356635003996703E-1
 6.529317884700000E9     5.539520742964530E-1   -1.001066430799593E-1   -1.541774522951870E-2   -4.377137230836476E-2   -1.638849348655488E-2   -4.339598720522486E-2    4.578840540940694E-1   -2.366867302285669E-1
 6.529327202600000E9     5.537555970726203E-1   -1.010663687318974E-1   -1.568798316397216E-2   -4.412635008034328E-2   -1.669115889511178E-2   -4.361789683196587E-2    4.572688274139069E-1   -2.374949759219984E-1
 6.529336520500000E9     5.536453358911005E-1   -1.017655740423500E-1   -1.593583942451154E-2   -4.423700775805044E-2   -1.687599135980294E-2   -4.393746160877390E-2    4.568656834258070E-1   -2.386852108395373E-1
 6.529345838400000E9     5.534341184941696E-1   -1.027296955531448E-1   -1.607819992726698E-2   -4.440546210491911E-2   -1.712240812445324E-2   -4.419135659573265E-2    4.562089448905725E-1   -2.397399500381013E-1
 6.529355156300000E9     5.532901228772381E-1   -1.036670970082629E-1   -1.622938697331639E-2   -4.477593316288266E-2   -1.729995010372233E-2   -4.445034073753023E-2    4.555527210056416E-1   -2.406631480316483E-1
 6.529364474200000E9     5.530731212109348E-1   -1.043839592399818E-1   -1.649319574859689E-2   -4.494187816481080E-2   -1.757914476666874E-2   -4.473837854999658E-2    4.548185201288558E-1   -2.417605815204534E-1
 6.529373792100000E9     5.528717996803780E-1   -1.052219099341252E-1   -1.670497202092220E-2   -4.528057554242906E-2   -1.773232463032977E-2   -4.501032678407507E-2    4.543360316428658E-1   -2.427504211515694E-1
 6.529383110000000E9     5.526778026028676E-1   -1.060362321638339E-1   -1.683017845421932E-2   -4.553093657824903E-2   -1.794843031165626E-2   -4.529597876644968E-2    4.536589841566154E-1   -2.437205343069793E-1
 6.529392427900000E9     5.524265581529667E-1   -1.069247510763589E-1   -1.714313110861564E-2   -4.590766520218202E-2   -1.816882465557787E-2   -4.540853359978505E-2    4.529001821892905E-1   -2.446153327966767E-1
 6.529401745800000E9     5.522264754686774E-1   -1.077379768634064E-1   -1.730566382257998E-2   -4.617502474949969E-2   -1.839618904246906E-2   -4.578153503130960E-2    4.525033837399179E-1   -2.457600032208832E-1
 6.529411063700000E9     5.520461280993972E-1   -1.086500365997263E-1   -1.755241234236231E-2   -4.642262299053315E-2   -1.860885426951769E-2   -4.611746052290839E-2    4.516994613055703E-1   -2.469298219956065E-1
 6.529420381600000E9     5.518446086092349E-1   -1.094039470191658E-1   -1.764781158929180E-2   -4.661711671459252E-2   -1.884185900440085E-2   -4.638763617374166E-2    4.509918189734720E-1   -2.479110088833079E-1
 6.529429699500000E9     5.515553601449333E-1   -1.102991403251981E-1   -1.795919301405595E-2   -4.684607207722990E-2   -1.913199619162699E-2   -4.663243230295917E-2    4.503305465169429E-1   -2.489326127354345E-1
 6.529439017400000E9     5.515730358578291E-1   -1.111625449867008E-1   -1.818359209401658E-2   -4.722681776712040E-2   -1.941745387427263E-2   -4.704970074509140E-2    4.499196837454008E-1   -2.499797828858535E-1
 6.529448335300000E9     5.511789047989564E-1   -1.119787015610918E-1   -1.840896048105986E-2   -4.769891194936288E-2   -1.969807144894386E-2   -4.734074106877099E-2    4.489866880158938E-1   -2.511123849645084E-1
 6.529457653200000E9     5.510821584869776E-1   -1.128295650419129E-1   -1.851447352518549E-2   -4.786587166227691E-2   -1.978155447567861E-2   -4.763314538522051E-2    4.483024478655780E-1   -2.519678083182858E-1
 6.529466971100000E9     5.507729175086732E-1   -1.138526198008963E-1   -1.883866202341719E-2   -4.830567259809930E-2   -2.017469601178122E-2   -4.789753553555232E-2    4.477083435795116E-1   -2.531056464581386E-1
 6.529476289000000E9     5.505352342281998E-1   -1.146741996475643E-1   -1.903063517642442E-2   -4.848675464081961E-2   -2.032357290643936E-2   -4.818367402396312E-2    4.469566255245732E-1   -2.542888659737332E-1
 6.529485606900000E9     5.503343047267552E-1   -1.154838347073165E-1   -1.940529769122765E-2   -4.883065689181326E-2   -2.058049015536415E-2   -4.856855413971918E-2    4.463557584415885E-1   -2.553425124891318E-1
 6.529494924800000E9     5.501486069019499E-1   -1.164482415346684E-1   -1.966298358804209E-2   -4.930798134128523E-2   -2.091242236319550E-2   -4.879486371152649E-2    4.454675915609868E-1   -2.564746887604146E-1
 6.529504242700000E9     5.498792405695934E-1   -1.171854566474575E-1   -1.991888151733952E-2   -4.948238951926533E-2   -2.115443005529645E-2   -4.903252661696770E-2    4.447050527719625E-1   -2.574515214118711E-1
 6.529513560600000E9     5.496222330941480E-1   -1.181436062052603E-1   -2.034960326714022E-2   -4.987838130745018E-2   -2.148806808580188E-2   -4.942724769095681E-2    4.438200499594473E-1   -2.585811541236524E-1
 6.529522878500000E9     5.493596030589831E-1   -1.190269742162927E-1   -2.061458583300567E-2   -5.014556623027597E-2   -2.178329017999236E-2   -4.980643020842804E-2    4.431962621567799E-1   -2.598218145989337E-1
 6.529532196400000E9     5.492458401566738E-1   -1.198626918129819E-1   -2.082059438255315E-2   -5.065539318684699E-2   -2.204204068079192E-2   -5.009640350676082E-2    4.424554792847007E-1   -2.609011479101911E-1
 6.529541514300000E9     5.489490838244662E-1   -1.207403480875641E-1   -2.099838935001743E-2   -5.082145966430411E-2   -2.240704846481984E-2   -5.054380669889533E-2    4.417482864739231E-1   -2.619684019904894E-1
 6.529550832200000E9     5.486936341950028E-1   -1.216200415788612E-1   -2.141214933910298E-2   -5.121535459277902E-2   -2.262336413010944E-2   -5.068507511825088E-2    4.408735273106250E-1   -2.631063832602910E-1
 6.529560150100000E9     5.484165695757833E-1   -1.225449499744419E-1   -2.172505094831357E-2   -5.151578823976292E-2   -2.297443978054352E-2   -5.117641217055556E-2    4.400473054086588E-1   -2.642799863509754E-1
 6.529569468000000E9     5.481565594150271E-1   -1.234638553678691E-1   -2.191481389450015E-2   -5.187438620411591E-2   -2.332376174043492E-2   -5.142801295997518E-2    4.391103151444383E-1   -2.653925432079826E-1
 6.529578785900000E9     5.479528126483347E-1   -1.243645636064997E-1   -2.230824435817595E-2   -5.230091083972439E-2   -2.355681520376142E-2   -5.187102480588226E-2    4.384458878888796E-1   -2.664711450388921E-1
 6.529588103800000E9     5.476001656626395E-1   -1.252557780867217E-1   -2.256008585833284E-2   -5.265432347058306E-2   -2.389230614029125E-2   -5.226271612032468E-2    4.375495071810793E-1   -2.676622579675146E-1
 6.529597421700000E9     5.473856266713707E-1   -1.261093147951357E-1   -2.295424043452511E-2   -5.305029977261237E-2   -2.425828866737670E-2   -5.253143664718316E-2    4.366382935592483E-1   -2.688220575434920E-1
 6.529606739600000E9     5.470406851723290E-1   -1.269930109861316E-1   -2.323865993547608E-2   -5.339405638593374E-2   -2.461676556261782E-2   -5.293630469075126E-2    4.359274998607508E-1   -2.700956247096591E-1
 6.529616057500000E9     5.468210775684818E-1   -1.279639183921382E-1   -2.360424108950928E-2   -5.377413516399302E-2   -2.493000007665389E-2   -5.327620779242374E-2    4.350157750377056E-1   -2.711862081603901E-1
 6.529625375400000E9     5.464510740272244E-1   -1.289784270515933E-1   -2.387358431598777E-2   -5.423146117106328E-2   -2.530592243731470E-2   -5.375242410533947E-2    4.341491397024846E-1   -2.724477596041147E-1
 6.529634693300000E9     5.462057581004705E-1   -1.298195014794356E-1   -2.435580705440863E-2   -5.462976301830453E-2   -2.574173450720063E-2   -5.411801157954725E-2    4.331488950400597E-1   -2.738399329770352E-1
 6.529644011200000E9     5.459373015710007E-1   -1.307024323481490E-1   -2.459884733009629E-2   -5.501058525022483E-2   -2.595254248521249E-2   -5.442811124708646E-2    4.321662578761828E-1   -2.748933431790882E-1
 6.529653329100000E9     5.456294127547097E-1   -1.315305868908076E-1   -2.508181067145967E-2   -5.536021668662401E-2   -2.646593818478112E-2   -5.485988201415903E-2    4.311554331877169E-1   -2.760654187718748E-1
 6.529662647000000E9     5.453228506687989E-1   -1.326166856763392E-1   -2.531733535388748E-2   -5.577465196318530E-2   -2.685208994051388E-2   -5.525079383362340E-2    4.303266651251121E-1   -2.772331547113275E-1
