#  HZ   S   RI   R     50.00 
! Rohde & Schwarz Vector Network Analyzer 
! Rohde-Schwarz,ZNB20-2Port,1311601062101988,3.16
! Created: UTC 3/21/2024, 1:16:46 AM
! freq[Hz]                re:S11                  im:S11                  re:S21                  im:S21                  re:S12                  im:S12                  re:S22                  im:S22
 6.529372983000000E9     5.542795795727521E-1   -8.502144754437439E-2   -9.279202600737512E-3   -3.144161638666897E-2   -1.003675038042365E-2   -3.133860347083117E-2    4.664155849817606E-1   -2.016028944760778E-1
 6.529382694125000E9     5.540290804407549E-1   -8.585456343257655E-2   -9.370966912305359E-3   -3.170481087633872E-2   -1.006688312449642E-2   -3.147296781016549E-2    4.659104692726390E-1   -2.023870485968563E-1
 6.529392405250000E9     5.538876198381535E-1   -8.658987198852057E-2   -9.445655713817048E-3   -3.166913239895937E-2   -1.023605681139001E-2   -3.172514808448471E-2    4.655472474087960E-1   -2.031997964187474E-1
 6.529402116375000E9     5.538031274543039E-1   -8.761485210838331E-2   -9.591363948938104E-3   -3.182679077819502E-2   -1.033858429492315E-2   -3.169966455164416E-2    4.651909393138779E-1   -2.041021633177731E-1
 6.529411827500000E9     5.536258135541275E-1   -8.832526705927560E-2   -9.774624919988999E-3   -3.216954895306764E-2   -1.033754878381716E-2   -3.182488417436421E-2    4.646796304910240E-1   -2.049302628962222E-1
 6.529421538625000E9     5.535085601935604E-1   -8.907648562152742E-2   -9.840792408559401E-3   -3.220559981153296E-2   -1.046482659144019E-2   -3.199409203604477E-2    4.642799766852262E-1   -2.055368423399180E-1
 6.529431249750000E9     5.533544422657879E-1   -8.982401454321173E-2   -9.939789542879326E-3   -3.246711874982949E-2   -1.057389738824075E-2   -3.221370894843290E-2    4.640384069552106E-1   -2.065372333785451E-1
 6.529440960875000E9     5.532667477490970E-1   -9.059623269788662E-2   -9.944435713895868E-3   -3.240695091199509E-2   -1.077066275578493E-2   -3.235123879872475E-2    4.635349945092120E-1   -2.073583174552347E-1
 6.529450672000000E9     5.530871632603703E-1   -9.142654289936533E-2   -1.013851939937508E-2   -3.264372701821611E-2   -1.079247688392020E-2   -3.251555550729440E-2    4.632708658636700E-1   -2.081081881592964E-1
 6.529460383125000E9     5.530107783084202E-1   -9.211925210677484E-2   -1.028103143549969E-2   -3.268700535487113E-2   -1.098648244093028E-2   -3.268447551600100E-2    4.626892139124388E-1   -2.089465992249372E-1
 6.529470094250000E9     5.527748743302744E-1   -9.296755107104837E-2   -1.035228757019771E-2   -3.293421650610346E-2   -1.103711371748000E-2   -3.276292601815087E-2    4.622429593685877E-1   -2.098137393282855E-1
 6.529479805375000E9     5.527346939386972E-1   -9.374413575660252E-2   -1.060777160709839E-2   -3.303099173649195E-2   -1.118227259632645E-2   -3.290149978001645E-2    4.620086327705508E-1   -2.106864290364381E-1
 6.529489516500000E9     5.524703635361811E-1   -9.468002820233545E-2   -1.052744109107419E-2   -3.319087525191677E-2   -1.128534658068983E-2   -3.303284980636433E-2    4.614893444068928E-1   -2.114323618754667E-1
 6.529499227625000E9     5.524938240071222E-1   -9.527490850152798E-2   -1.063081448728646E-2   -3.346633537919810E-2   -1.132539449118206E-2   -3.326551722508855E-2    4.610668291243065E-1   -2.123881051176676E-1
 6.529508938750000E9     5.522713895193957E-1   -9.611139428582441E-2   -1.077985135019034E-2   -3.348893604779461E-2   -1.146050881483047E-2   -3.343150463367948E-2    4.607852924438735E-1   -2.129990000089660E-1
 6.529518649875000E9     5.520194126606752E-1   -9.700509638922004E-2   -1.090895982437979E-2   -3.363851708068293E-2   -1.176979007671224E-2   -3.353354945114456E-2    4.603437525539276E-1   -2.140087765310782E-1
 6.529528361000000E9     5.521657115850723E-1   -9.770345735769227E-2   -1.106118580453718E-2   -3.392064309399283E-2   -1.172688434408049E-2   -3.364597000378450E-2    4.598991129109035E-1   -2.146986505124948E-1
 6.529538072125000E9     5.519127787198895E-1   -9.858652795770777E-2   -1.112328358540936E-2   -3.400728954426974E-2   -1.180836981212081E-2   -3.374990259687251E-2    4.593720999043687E-1   -2.155953816251153E-1
 6.529547783250000E9     5.517073533539096E-1   -9.924410579841014E-2   -1.125152890853805E-2   -3.410952281979429E-2   -1.204888438925791E-2   -3.399849025716432E-2    4.589663979946909E-1   -2.166633546010920E-1
 6.529557494375000E9     5.515678183729164E-1   -1.002054651025977E-1   -1.146007567188747E-2   -3.430628862989965E-2   -1.219120855445250E-2   -3.417994326490839E-2    4.585035432905280E-1   -2.172894184465480E-1
 6.529567205500000E9     5.513246857130580E-1   -1.009046423934988E-1   -1.147137905396043E-2   -3.447931516586658E-2   -1.232581097937195E-2   -3.433898871541718E-2    4.580343995717326E-1   -2.183069663229807E-1
 6.529576916625000E9     5.511751339582650E-1   -1.017472852458070E-1   -1.164564780133373E-2   -3.471901242025419E-2   -1.249194628622277E-2   -3.437457965362684E-2    4.576137793491293E-1   -2.191544706927492E-1
 6.529586627750000E9     5.510324089754682E-1   -1.024917446471243E-1   -1.165173327737280E-2   -3.488027748948166E-2   -1.261297838420659E-2   -3.459156543251760E-2    4.572058574833567E-1   -2.199508210408825E-1
 6.529596338875000E9     5.508988983664809E-1   -1.032431903470237E-1   -1.191669850940738E-2   -3.500101951834871E-2   -1.266864399848846E-2   -3.477076084253698E-2    4.568091025001078E-1   -2.208416086410140E-1
 6.529606050000000E9     5.506164560688140E-1   -1.041431253913613E-1   -1.209532992962883E-2   -3.525016094600429E-2   -1.286177617705577E-2   -3.490712716065322E-2    4.562294481532739E-1   -2.216095711403193E-1
 6.529615761125000E9     5.505944102293109E-1   -1.048309800629786E-1   -1.202954414788464E-2   -3.531739542619425E-2   -1.290844138642626E-2   -3.523279473406331E-2    4.556409512200687E-1   -2.224370960455047E-1
 6.529625472250000E9     5.503977220113334E-1   -1.057309845535941E-1   -1.208270456940854E-2   -3.562740854283065E-2   -1.308969558397482E-2   -3.520931621927273E-2    4.553415397181986E-1   -2.233762664991747E-1
 6.529635183375000E9     5.503078648207201E-1   -1.064535431370227E-1   -1.241695660868702E-2   -3.570132755034917E-2   -1.324592904122327E-2   -3.550043357954288E-2    4.548796943065430E-1   -2.242385704180958E-1
 6.529644894500000E9     5.500354002145469E-1   -1.072238267228259E-1   -1.238820587642337E-2   -3.586333512346492E-2   -1.339574788040337E-2   -3.559261217702721E-2    4.544066023170363E-1   -2.251948114297837E-1
 6.529654605625000E9     5.499006204481937E-1   -1.081571230144429E-1   -1.261269418529347E-2   -3.602288841029776E-2   -1.343017200194878E-2   -3.584001473760339E-2    4.538379449902585E-1   -2.260732392977752E-1
 6.529664316750000E9     5.496622345177289E-1   -1.090171929720198E-1   -1.288878507999398E-2   -3.626015377496523E-2   -1.364483252015882E-2   -3.605033770803529E-2    4.534871666349842E-1   -2.269094229097355E-1
 6.529674027875000E9     5.494950824368696E-1   -1.097488200933442E-1   -1.287844932276563E-2   -3.638411722165622E-2   -1.372453079469396E-2   -3.620971342257107E-2    4.529439152687077E-1   -2.277754067324317E-1
 6.529683739000000E9     5.493656238252285E-1   -1.105813441593586E-1   -1.314911272984140E-2   -3.659641137922940E-2   -1.397871534658527E-2   -3.638662057234837E-2    4.525388116593311E-1   -2.286752394992817E-1
 6.529693450125000E9     5.491373704859266E-1   -1.113066385715426E-1   -1.322941120441971E-2   -3.670248765808705E-2   -1.405247518623968E-2   -3.667464009816196E-2    4.519374393520079E-1   -2.296408656351381E-1
 6.529703161250000E9     5.489049723098642E-1   -1.121918477402764E-1   -1.344797569744103E-2   -3.702499055786526E-2   -1.427709642106925E-2   -3.683863225717011E-2    4.514511908385543E-1   -2.304328377761150E-1
 6.529712872375000E9     5.488192501529665E-1   -1.129047276231958E-1   -1.358504669686371E-2   -3.715416989068018E-2   -1.439236777591468E-2   -3.684730849711931E-2    4.508944159252839E-1   -2.313431961902729E-1
 6.529722583500000E9     5.486073831253192E-1   -1.137287951025453E-1   -1.372899582212315E-2   -3.738990383382455E-2   -1.455474798816944E-2   -3.703128608451096E-2    4.503715408430971E-1   -2.322278147269529E-1
 6.529732294625000E9     5.483467218453236E-1   -1.145130722140839E-1   -1.370974229804418E-2   -3.750519265928651E-2   -1.469090134465410E-2   -3.723304416403969E-2    4.498891329569918E-1   -2.330844839916829E-1
 6.529742005750000E9     5.482665625431444E-1   -1.154510270984144E-1   -1.404695409091618E-2   -3.786489941901004E-2   -1.498216641850603E-2   -3.749208953137805E-2    4.493120385026960E-1   -2.340294811173600E-1
 6.529751716875000E9     5.481069008371543E-1   -1.162552995145965E-1   -1.404435239526229E-2   -3.794681882274579E-2   -1.501361554137161E-2   -3.771262393368161E-2    4.489193630435497E-1   -2.350006336003506E-1
 6.529761428000000E9     5.479276636384952E-1   -1.170466268337618E-1   -1.429499798603485E-2   -3.822731489287137E-2   -1.518342376538120E-2   -3.785955031281319E-2    4.482926528215028E-1   -2.358524669287682E-1
 6.529771139125000E9     5.476051438711439E-1   -1.178343251912568E-1   -1.443883550183188E-2   -3.846787056645788E-2   -1.537281352790223E-2   -3.814149620827750E-2    4.479608451919315E-1   -2.365776568711504E-1
 6.529780850250000E9     5.475620807131533E-1   -1.186337041701186E-1   -1.460070456816642E-2   -3.861161472809406E-2   -1.548796750472219E-2   -3.829978610992476E-2    4.474289051326177E-1   -2.376298105740269E-1
 6.529790561375000E9     5.472484165031707E-1   -1.195371847554099E-1   -1.496203924106573E-2   -3.874969969756200E-2   -1.570782864175383E-2   -3.854313300249500E-2    4.467178950004092E-1   -2.385898645064907E-1
 6.529800272500000E9     5.471288128666055E-1   -1.204029991348834E-1   -1.501726892527451E-2   -3.900864173115687E-2   -1.586291608184040E-2   -3.874873499359063E-2    4.461451745789138E-1   -2.394389384682582E-1
 6.529809983625000E9     5.469360264693693E-1   -1.211608564706782E-1   -1.518379475761931E-2   -3.921991882586590E-2   -1.617558382245703E-2   -3.896723748261702E-2    4.457010690782222E-1   -2.404763214094050E-1
 6.529819694750000E9     5.467112433303085E-1   -1.219268009361260E-1   -1.520702107332350E-2   -3.948947815783222E-2   -1.626708311909792E-2   -3.912696457348239E-2    4.450707797136028E-1   -2.413836762684811E-1
 6.529829405875000E9     5.464473311792585E-1   -1.228388345256884E-1   -1.555120250711377E-2   -3.975563611781052E-2   -1.647540803799514E-2   -3.925060865530978E-2    4.443455695639864E-1   -2.423750089312618E-1
 6.529839117000000E9     5.462317463537271E-1   -1.236577117458960E-1   -1.576561663639964E-2   -3.989637545595578E-2   -1.651056691405970E-2   -3.945064072996259E-2    4.439383835581884E-1   -2.432480579601171E-1
 6.529848828125000E9     5.460361058483507E-1   -1.244686960020297E-1   -1.580939121180693E-2   -4.016338415508278E-2   -1.687177649170032E-2   -3.974896452857649E-2    4.435399522683529E-1   -2.440717824253313E-1
 6.529858539250000E9     5.457897515313286E-1   -1.253311214186765E-1   -1.603970057908394E-2   -4.027039577686788E-2   -1.697066243858370E-2   -3.997759924506619E-2    4.428061783045328E-1   -2.450513522303938E-1
 6.529868250375000E9     5.455579953146836E-1   -1.260984664394222E-1   -1.627351126546505E-2   -4.060807596776646E-2   -1.725781032539466E-2   -4.015595263710119E-2    4.422143058746711E-1   -2.460504264911068E-1
 6.529877961500000E9     5.454169183448118E-1   -1.269324107119747E-1   -1.646594147500796E-2   -4.084962818236120E-2   -1.743796544831145E-2   -4.042930654657975E-2    4.413963548958833E-1   -2.470652070372445E-1
 6.529887672625000E9     5.451786623125621E-1   -1.277734215020057E-1   -1.661845593018054E-2   -4.104567488527740E-2   -1.761872636816552E-2   -4.061931309339768E-2    4.409233357960461E-1   -2.480598334755882E-1
 6.529897383750000E9     5.448758190863943E-1   -1.286670679152908E-1   -1.695123683260926E-2   -4.114807253970797E-2   -1.780084721537629E-2   -4.093523777152547E-2    4.404872309358546E-1   -2.488888685007675E-1
 6.529907094875000E9     5.446807036214061E-1   -1.295479630842653E-1   -1.713689948220724E-2   -4.151034407988968E-2   -1.798553685084567E-2   -4.119620072323914E-2    4.397774871569953E-1   -2.499499392542326E-1
 6.529916806000000E9     5.444221873088373E-1   -1.303332942554256E-1   -1.730791677171709E-2   -4.168336704386275E-2   -1.826467957062208E-2   -4.140715021607856E-2    4.391038701078989E-1   -2.509337859834659E-1
 6.529926517125000E9     5.443041653776249E-1   -1.312150298099309E-1   -1.739112075397145E-2   -4.208869540326254E-2   -1.842580578758074E-2   -4.166157618464675E-2    4.385832881671521E-1   -2.518105484862448E-1
 6.529936228250000E9     5.439932936448463E-1   -1.321001027848221E-1   -1.762633883701025E-2   -4.227616634636879E-2   -1.863823872875466E-2   -4.184844026802973E-2    4.379160306744523E-1   -2.527517830124507E-1
 6.529945939375000E9     5.436751387619941E-1   -1.327902396577444E-1   -1.793865057051393E-2   -4.233932706196211E-2   -1.887683196616274E-2   -4.202797477792904E-2    4.370535800127855E-1   -2.537921734712372E-1
 6.529955650500000E9     5.435946598580552E-1   -1.337492977570554E-1   -1.803397059107182E-2   -4.275566141601359E-2   -1.908531030283940E-2   -4.228904056636989E-2    4.366151892739881E-1   -2.547934970447852E-1
 6.529965361625000E9     5.432977043457152E-1   -1.345766744786566E-1   -1.830555544616584E-2   -4.298466823817003E-2   -1.931488638295509E-2   -4.259783107649028E-2    4.358413818166104E-1   -2.556000580122995E-1
 6.529975072750000E9     5.429022018864321E-1   -1.354478066997425E-1   -1.835888327245492E-2   -4.324454798697331E-2   -1.957265404069431E-2   -4.283790061726465E-2    4.352336401663334E-1   -2.566547426306543E-1
 6.529984783875000E9     5.427638024644369E-1   -1.363178232847087E-1   -1.866041207184464E-2   -4.349734444753278E-2   -1.979440670308170E-2   -4.307432709218756E-2    4.345931323190635E-1   -2.577041732264159E-1
 6.529994495000000E9     5.425382883674936E-1   -1.371165040064689E-1   -1.886362268914001E-2   -4.381976675938495E-2   -2.006370480250486E-2   -4.336320251480875E-2    4.337666005967177E-1   -2.588125195911238E-1
 6.530004206125000E9     5.422311847641190E-1   -1.379269819385732E-1   -1.918471796365278E-2   -4.400224840265998E-2   -2.030806136793813E-2   -4.368313276847376E-2    4.331430123415588E-1   -2.599154556500467E-1
 6.530013917250000E9     5.421172087115950E-1   -1.388528871647081E-1   -1.936310850967343E-2   -4.434791395621577E-2   -2.051922199202783E-2   -4.390999563834841E-2    4.325329644838884E-1   -2.606760947040039E-1
 6.530023628375000E9     5.417890683790184E-1   -1.397075015266293E-1   -1.980467177945781E-2   -4.461570507786198E-2   -2.081683450711757E-2   -4.417996066486068E-2    4.319019713393481E-1   -2.617971535198849E-1
 6.530033339500000E9     5.414589738929823E-1   -1.405647665034176E-1   -1.983843831148385E-2   -4.493754451566857E-2   -2.093029998717975E-2   -4.443793747329382E-2    4.309330778992501E-1   -2.626991633458554E-1
 6.530043050625000E9     5.411892758130512E-1   -1.415170214554672E-1   -2.016226250592230E-2   -4.517512902644777E-2   -2.141255186962281E-2   -4.478148414849712E-2    4.301693511197389E-1   -2.637496897937137E-1
 6.530052761750000E9     5.410209070755744E-1   -1.423685654433803E-1   -2.033267668014522E-2   -4.551428903487553E-2   -2.158265177275243E-2   -4.506095936262913E-2    4.295057138048932E-1   -2.648406569030611E-1
 6.530062472875000E9     5.406611892006380E-1   -1.431180335305088E-1   -2.071484187682819E-2   -4.558374572734031E-2   -2.190191184166344E-2   -4.541605626769337E-2    4.286336855417229E-1   -2.658172764586225E-1
 6.530072184000000E9     5.403773734521353E-1   -1.440368943690253E-1   -2.097605190801046E-2   -4.611798203087170E-2   -2.211283440972650E-2   -4.559478068050184E-2    4.281667535788029E-1   -2.669244527673584E-1
 6.530081895125000E9     5.400754595478137E-1   -1.449826040353625E-1   -2.112390674461354E-2   -4.648491371978249E-2   -2.246419880744863E-2   -4.587440756788087E-2    4.273714914094112E-1   -2.678319623577634E-1
 6.530091606250000E9     5.398768200800929E-1   -1.458153256193437E-1   -2.149816321505255E-2   -4.660979478352792E-2   -2.273698203918629E-2   -4.614183809437816E-2    4.264826943892333E-1   -2.690507494780339E-1
 6.530101317375000E9     5.395661626191824E-1   -1.467672258610708E-1   -2.188262984350328E-2   -4.698262278024309E-2   -2.309581246612223E-2   -4.640424760915684E-2    4.256918322791703E-1   -2.698881232975840E-1
 6.530111028500000E9     5.392667664861540E-1   -1.475235923110301E-1   -2.204928716879366E-2   -4.723269393597204E-2   -2.323741759981528E-2   -4.681565525990562E-2    4.248998054277653E-1   -2.712172493877493E-1
 6.530120739625000E9     5.389686708372619E-1   -1.485768074318591E-1   -2.236880820802330E-2   -4.754545895090240E-2   -2.354215101426864E-2   -4.703921132790212E-2    4.241153607260665E-1   -2.720737969837756E-1
 6.530130450750000E9     5.386387504429546E-1   -1.493767421601656E-1   -2.266631617441514E-2   -4.794392986085270E-2   -2.384790638733754E-2   -4.740325093843190E-2    4.232418133463652E-1   -2.734242649599691E-1
 6.530140161875000E9     5.383421105186100E-1   -1.502725810862526E-1   -2.302599433247159E-2   -4.812073296540976E-2   -2.420072222104288E-2   -4.776825224079608E-2    4.224763724514288E-1   -2.742304074163205E-1
 6.530149873000000E9     5.379398781005694E-1   -1.510351295576349E-1   -2.323548804504878E-2   -4.848252745436213E-2   -2.449837265931758E-2   -4.803735185905082E-2    4.213379595962391E-1   -2.753454953143205E-1
 6.530159584125000E9     5.376857796677467E-1   -1.520415830475414E-1   -2.367911756760702E-2   -4.903327642443322E-2   -2.480764587105979E-2   -4.837241581412296E-2    4.207959746724065E-1   -2.764039775227724E-1
 6.530169295250000E9     5.373684127979036E-1   -1.529660019692066E-1   -2.385888489583301E-2   -4.929531304231121E-2   -2.518110358130877E-2   -4.858954032971335E-2    4.199646338119781E-1   -2.775330668674819E-1
 6.530179006375000E9     5.371582743442435E-1   -1.537966922312297E-1   -2.410533264053719E-2   -4.963699037549510E-2   -2.547239324429542E-2   -4.905534404480705E-2    4.191373472973176E-1   -2.787377628433824E-1
 6.530188717500000E9     5.367128095545679E-1   -1.547278714354448E-1   -2.463547363422557E-2   -4.993364824434574E-2   -2.587367086728198E-2   -4.939606629173460E-2    4.180442111501378E-1   -2.798120352715803E-1
 6.530198428625000E9     5.364622180841431E-1   -1.556457734469242E-1   -2.503586084886887E-2   -5.022320030099298E-2   -2.627620951353293E-2   -4.952186126579392E-2    4.171758623459303E-1   -2.809580509702159E-1
 6.530208139750000E9     5.360647873539984E-1   -1.565484078053815E-1   -2.526335188391650E-2   -5.063181801306296E-2   -2.656472996733712E-2   -4.997008953400649E-2    4.162826951011789E-1   -2.820113904171773E-1
 6.530217850875000E9     5.358449636834245E-1   -1.574721136168125E-1   -2.563473061217662E-2   -5.099654859445767E-2   -2.694675334723171E-2   -5.041490879012698E-2    4.152981147486046E-1   -2.831586639366937E-1
 6.530227562000000E9     5.354361324012133E-1   -1.584974671954574E-1   -2.610468620775355E-2   -5.143490413351631E-2   -2.735324703117264E-2   -5.079559664994039E-2    4.143852247614768E-1   -2.843521853546288E-1
 6.530237273125000E9     5.351653557679035E-1   -1.593427408034593E-1   -2.635104284368368E-2   -5.164668904135827E-2   -2.763878954646704E-2   -5.115432396344143E-2    4.134589052224400E-1   -2.855434622906571E-1
 6.530246984250000E9     5.347948923920723E-1   -1.601833657001085E-1   -2.656500921294406E-2   -5.200477329013040E-2   -2.797450509037746E-2   -5.152941715275083E-2    4.124516758939726E-1   -2.865767863470997E-1
