#  HZ   S   RI   R     50.00 
! Rohde & Schwarz Vector Network Analyzer 
! Rohde-Schwarz,ZNB20-2Port,1311601062101988,3.16
! Created: UTC 3/21/2024, 1:17:03 AM
! freq[Hz]                re:S11                  im:S11                  re:S21                  im:S21                  re:S12                  im:S12                  re:S22                  im:S22
 6.529393498000000E9     5.538584640143509E-1   -8.651799297509302E-2   -9.312682813515822E-3   -3.158796729322628E-2   -1.009797567499369E-2   -3.146998990223959E-2    4.656680901608564E-1   -2.029303432286726E-1
 6.529403157850000E9     5.538112706629321E-1   -8.734087885455989E-2   -9.594907660458351E-3   -3.187007308611200E-2   -1.020808304458330E-2   -3.165283458036387E-2    4.653883593506123E-1   -2.036853756379595E-1
 6.529412817700000E9     5.537021674982004E-1   -8.808065172126950E-2   -9.603604206135151E-3   -3.186694396276193E-2   -1.029167580451722E-2   -3.178282153312385E-2    4.649737295076182E-1   -2.044453377456853E-1
 6.529422477550000E9     5.534381672545075E-1   -8.888963486331392E-2   -9.760245665289937E-3   -3.206541469357341E-2   -1.030153112810604E-2   -3.186682002439345E-2    4.644174339720989E-1   -2.053985877119634E-1
 6.529432137400000E9     5.533588318528427E-1   -8.966716693181054E-2   -9.887246985353690E-3   -3.224038067193268E-2   -1.054609675083856E-2   -3.200100380743132E-2    4.641808863636638E-1   -2.061683656411169E-1
 6.529441797250000E9     5.532651612815516E-1   -9.047723367769990E-2   -9.980960167406638E-3   -3.233685796846080E-2   -1.068640458122745E-2   -3.213422294672286E-2    4.637206978969322E-1   -2.070236653466941E-1
 6.529451457100000E9     5.531217652252455E-1   -9.115953628647588E-2   -1.007616406694900E-2   -3.249299597954812E-2   -1.070206299185640E-2   -3.232607413491827E-2    4.633693986886934E-1   -2.076957397650192E-1
 6.529461116950000E9     5.530902850935424E-1   -9.202910634776770E-2   -1.023704587987926E-2   -3.259857545418104E-2   -1.079148609774312E-2   -3.231719143597608E-2    4.629064825456209E-1   -2.085832859425500E-1
 6.529470776800000E9     5.529175691267773E-1   -9.285925054268394E-2   -1.031598413015553E-2   -3.286971237458739E-2   -1.103748478403294E-2   -3.261536134629085E-2    4.624574573347192E-1   -2.094658158151323E-1
 6.529480436650000E9     5.527096307841851E-1   -9.348311621836877E-2   -1.040256670203138E-2   -3.294954279754669E-2   -1.117288867805692E-2   -3.268246785503812E-2    4.621198943079982E-1   -2.102677108935064E-1
 6.529490096500000E9     5.525425979847299E-1   -9.437362535081036E-2   -1.044085924700826E-2   -3.307010571755094E-2   -1.127588677660914E-2   -3.284816696707545E-2    4.616803676433802E-1   -2.110354718131672E-1
 6.529499756350000E9     5.523977370226987E-1   -9.514756321865933E-2   -1.047297508440999E-2   -3.329165193085652E-2   -1.130809617569409E-2   -3.302377478391897E-2    4.613204119937971E-1   -2.119262397292131E-1
 6.529509416200000E9     5.523566413225561E-1   -9.597788719699030E-2   -1.069643516828248E-2   -3.336940776755842E-2   -1.143928429444342E-2   -3.330025607144275E-2    4.609576237101053E-1   -2.127343474633041E-1
 6.529519076050000E9     5.522125515838978E-1   -9.667419431951577E-2   -1.071677850667402E-2   -3.362790085708450E-2   -1.160437021680230E-2   -3.338750842540746E-2    4.604411429339607E-1   -2.136305233768277E-1
 6.529528735900000E9     5.518370632853993E-1   -9.748602850038406E-2   -1.102622551749799E-2   -3.365825050619548E-2   -1.164269908522601E-2   -3.352968939452881E-2    4.600422064252497E-1   -2.144540989333363E-1
 6.529538395750000E9     5.517604765797332E-1   -9.824055892673110E-2   -1.101913417807179E-2   -3.372770028396848E-2   -1.173551909147341E-2   -3.365588143216841E-2    4.596868854645735E-1   -2.153349403077912E-1
 6.529548055600000E9     5.515819903163081E-1   -9.909971470868754E-2   -1.120596103983999E-2   -3.390566525443466E-2   -1.183721491581544E-2   -3.384532791366039E-2    4.591848752829668E-1   -2.160594558860027E-1
 6.529557715450000E9     5.515231074037852E-1   -9.997685401893314E-2   -1.118414574458207E-2   -3.407063854714946E-2   -1.209938073571368E-2   -3.395919849813032E-2    4.587240372061301E-1   -2.168972918110529E-1
 6.529567375300000E9     5.513723943228706E-1   -1.006715577647660E-1   -1.138308657527795E-2   -3.431159381805829E-2   -1.212285615172479E-2   -3.405834181492728E-2    4.583016762768245E-1   -2.177544485683387E-1
 6.529577035150000E9     5.513108291844396E-1   -1.014481189489908E-1   -1.145718966626416E-2   -3.457622152217059E-2   -1.229790656671793E-2   -3.428313787462522E-2    4.578149210239217E-1   -2.187184964581347E-1
 6.529586695000000E9     5.510276343438495E-1   -1.022290730769811E-1   -1.174279316759485E-2   -3.479692256285528E-2   -1.235794540619996E-2   -3.445906743219899E-2    4.573211650644400E-1   -2.196007007632952E-1
 6.529596354850000E9     5.510123709526277E-1   -1.030197865635931E-1   -1.174089473006880E-2   -3.472266573808275E-2   -1.254349491919407E-2   -3.462799153031614E-2    4.570826785302842E-1   -2.204271787013232E-1
 6.529606014700000E9     5.508279288494357E-1   -1.038028495309862E-1   -1.189028274570381E-2   -3.483274985075346E-2   -1.265157055568223E-2   -3.469276099451810E-2    4.564389423651455E-1   -2.210973659390449E-1
 6.529615674550000E9     5.504982467349269E-1   -1.046926542181660E-1   -1.208460395684236E-2   -3.514365683817233E-2   -1.285899081301546E-2   -3.494768714712953E-2    4.559737293429249E-1   -2.221186101367688E-1
 6.529625334400000E9     5.504379122009416E-1   -1.053507604631341E-1   -1.213631184927908E-2   -3.525463851013445E-2   -1.290294652100920E-2   -3.502428491173083E-2    4.557931777045387E-1   -2.228707762786646E-1
 6.529634994250000E9     5.501833525494252E-1   -1.061854059138643E-1   -1.225062037294715E-2   -3.556249517012236E-2   -1.313753761746928E-2   -3.527179482411989E-2    4.551810037908141E-1   -2.237536877203923E-1
 6.529644654100000E9     5.501138830260245E-1   -1.070293510495071E-1   -1.233148576762388E-2   -3.569060549076321E-2   -1.323054388603462E-2   -3.546430443311680E-2    4.547374547518003E-1   -2.245690100996195E-1
 6.529654313950000E9     5.499265271056418E-1   -1.077186131236365E-1   -1.256776894492070E-2   -3.576376792848983E-2   -1.345292708281037E-2   -3.561685587921969E-2    4.540670143452116E-1   -2.255387664044764E-1
 6.529663973800000E9     5.497079935661936E-1   -1.086669137802844E-1   -1.271712705359745E-2   -3.597659893757669E-2   -1.352639747695251E-2   -3.581559287472506E-2    4.536845006796717E-1   -2.264538920510568E-1
 6.529673633650000E9     5.495224166684540E-1   -1.094528010080990E-1   -1.280522008273085E-2   -3.623697779724686E-2   -1.363600791236911E-2   -3.598323025338801E-2    4.532856630362866E-1   -2.271997549098667E-1
 6.529683293500000E9     5.495013569603845E-1   -1.102444341651760E-1   -1.295627197617303E-2   -3.642282246827376E-2   -1.364754358666018E-2   -3.609940327525816E-2    4.527434394594086E-1   -2.280677720682237E-1
 6.529692953350000E9     5.492722088165284E-1   -1.110177461208650E-1   -1.319699218864887E-2   -3.663801473421203E-2   -1.396806909750970E-2   -3.631148300967021E-2    4.522778110071554E-1   -2.290804739758563E-1
 6.529702613200000E9     5.490474887939287E-1   -1.118231244381589E-1   -1.321318843959895E-2   -3.689412221307894E-2   -1.401483944824136E-2   -3.653575648464168E-2    4.519318805679907E-1   -2.298611947662402E-1
 6.529712273050000E9     5.488077300997278E-1   -1.126238007016422E-1   -1.340433409724998E-2   -3.693674705570413E-2   -1.425991216540866E-2   -3.671112872255871E-2    4.512323351684543E-1   -2.307094146066679E-1
 6.529721932900000E9     5.486314665594924E-1   -1.134479037920790E-1   -1.355460290980937E-2   -3.724020232414892E-2   -1.436567922834054E-2   -3.689657865037871E-2    4.507540420052532E-1   -2.317729500132922E-1
 6.529731592750000E9     5.485351344838819E-1   -1.142711869997124E-1   -1.364255960597006E-2   -3.733858082705893E-2   -1.448267098298915E-2   -3.697755216225442E-2    4.502569978308083E-1   -2.325274333478830E-1
 6.529741252600000E9     5.482386302297105E-1   -1.150573774957594E-1   -1.386902519194422E-2   -3.754524831380560E-2   -1.473743496752235E-2   -3.727364171268848E-2    4.497119193758460E-1   -2.334875218453470E-1
 6.529750912450000E9     5.481905980082320E-1   -1.159202499842923E-1   -1.399740686986195E-2   -3.783007054725434E-2   -1.491533040608316E-2   -3.747600415715268E-2    4.492847391850605E-1   -2.344153224484548E-1
 6.529760572300000E9     5.479619382054605E-1   -1.166583203507565E-1   -1.413283148429737E-2   -3.795353905825450E-2   -1.500379169170195E-2   -3.764701806704814E-2    4.486426047243525E-1   -2.353181924396565E-1
 6.529770232150000E9     5.477156254407750E-1   -1.174723971168269E-1   -1.424442621568355E-2   -3.812937288739555E-2   -1.528444479700525E-2   -3.779033883393335E-2    4.482512227955163E-1   -2.360624679537417E-1
 6.529779892000000E9     5.476099123067580E-1   -1.183554430671758E-1   -1.450793473264153E-2   -3.839485949053377E-2   -1.538389553655999E-2   -3.805382122887432E-2    4.476292672905513E-1   -2.370284364452525E-1
 6.529789551850000E9     5.472934143197273E-1   -1.191546238557485E-1   -1.465956054580091E-2   -3.855529208228590E-2   -1.546682346579146E-2   -3.831184714389687E-2    4.472286061411764E-1   -2.380836764032399E-1
 6.529799211700000E9     5.471803384420316E-1   -1.199670161450223E-1   -1.475426220233400E-2   -3.873556404427231E-2   -1.579315759586998E-2   -3.850646267987504E-2    4.466123412121412E-1   -2.388410689815020E-1
 6.529808871550000E9     5.469516485619653E-1   -1.207504957234381E-1   -1.492995569723600E-2   -3.906760568198873E-2   -1.593354522601295E-2   -3.868736740961059E-2    4.461729699207323E-1   -2.396656551578442E-1
 6.529818531400000E9     5.467163048439441E-1   -1.216403857667072E-1   -1.516568011818829E-2   -3.922322685579459E-2   -1.594720179410961E-2   -3.885831722914354E-2    4.454905301323808E-1   -2.405635736117715E-1
 6.529828191250000E9     5.464948720622270E-1   -1.224587881494116E-1   -1.534228590363684E-2   -3.942704044553085E-2   -1.621188112437660E-2   -3.906125734964791E-2    4.449672738865377E-1   -2.416910104159464E-1
 6.529837851100000E9     5.463198476530581E-1   -1.232562335854914E-1   -1.534009220122058E-2   -3.957773294271733E-2   -1.641899533543844E-2   -3.932227098858175E-2    4.443541994182884E-1   -2.425727462079753E-1
 6.529847510950000E9     5.460852236957926E-1   -1.239984159055741E-1   -1.570831176972832E-2   -3.977761622697561E-2   -1.661358297095895E-2   -3.951012258484349E-2    4.438917227558695E-1   -2.435450842952036E-1
 6.529857170800000E9     5.457648168723946E-1   -1.249076930297189E-1   -1.580617717816203E-2   -4.007275199379965E-2   -1.679332516801446E-2   -3.973534106377604E-2    4.433062729381473E-1   -2.443895762685736E-1
 6.529866830650000E9     5.457508832892479E-1   -1.257822373077643E-1   -1.593736853321082E-2   -4.036048771068205E-2   -1.699505537940400E-2   -3.996247811631796E-2    4.425680293840409E-1   -2.453413171458225E-1
 6.529876490500000E9     5.454595736460633E-1   -1.264824746631657E-1   -1.606699919283271E-2   -4.059400932311223E-2   -1.725125543542609E-2   -4.021926581073655E-2    4.419281727311146E-1   -2.463637242639958E-1
 6.529886150350000E9     5.453597093744037E-1   -1.273696609392795E-1   -1.638162400463654E-2   -4.075735986239426E-2   -1.737333107506089E-2   -4.045305295235319E-2    4.413217782870589E-1   -2.473225196323777E-1
 6.529895810200000E9     5.450901325983131E-1   -1.282388300606409E-1   -1.659208745772602E-2   -4.113344516571927E-2   -1.763379184138515E-2   -4.063770894978563E-2    4.408906685988514E-1   -2.481490188080571E-1
 6.529905470050000E9     5.447375339241127E-1   -1.290853232978767E-1   -1.681120381711260E-2   -4.130991146614157E-2   -1.778809150052814E-2   -4.081274961597073E-2    4.400557386148531E-1   -2.490324867522533E-1
 6.529915129900000E9     5.445944476509086E-1   -1.298601441518486E-1   -1.702880846614096E-2   -4.138828772261263E-2   -1.798341905266513E-2   -4.111044638858763E-2    4.394440245995828E-1   -2.501016776870070E-1
 6.529924789750000E9     5.443110102061829E-1   -1.307609729977553E-1   -1.729326786733875E-2   -4.197615972253527E-2   -1.825155138435463E-2   -4.136599453017691E-2    4.389347291738150E-1   -2.510222638232923E-1
 6.529934449600000E9     5.441288139975671E-1   -1.315431915611524E-1   -1.727530881256871E-2   -4.200202998956911E-2   -1.839135336256033E-2   -4.159720415606973E-2    4.384188263713116E-1   -2.519283118787429E-1
 6.529944109450000E9     5.439425647838799E-1   -1.324038613634305E-1   -1.756554428256368E-2   -4.219026914900636E-2   -1.861901647016430E-2   -4.179386879346453E-2    4.376939436362494E-1   -2.530230426845976E-1
 6.529953769300000E9     5.435951656316063E-1   -1.332529892512576E-1   -1.797790093487679E-2   -4.246569324038391E-2   -1.881663875499659E-2   -4.209477192891252E-2    4.370371743126034E-1   -2.537949714033840E-1
 6.529963429150000E9     5.434336879716197E-1   -1.340463107418820E-1   -1.807108962600325E-2   -4.268236298113200E-2   -1.902969559130603E-2   -4.225749954543224E-2    4.363758581234956E-1   -2.548463253267539E-1
 6.529973089000000E9     5.431407066706667E-1   -1.349173113623504E-1   -1.819728553774258E-2   -4.289343680822796E-2   -1.927769292486991E-2   -4.261229261155185E-2    4.358329407539147E-1   -2.558684779401555E-1
 6.529982748850000E9     5.429299086245337E-1   -1.358387320630390E-1   -1.842197663136241E-2   -4.325291451112775E-2   -1.948959446045757E-2   -4.280071689577986E-2    4.350521242136984E-1   -2.568636922485514E-1
 6.529992408700000E9     5.427577745960044E-1   -1.366053051950693E-1   -1.862315048050012E-2   -4.348395183802143E-2   -1.974806678025700E-2   -4.307950940029680E-2    4.346197931064001E-1   -2.580049125228882E-1
 6.530002068550000E9     5.424130656124598E-1   -1.374140968185562E-1   -1.893846092437366E-2   -4.364259849636928E-2   -1.990028413948314E-2   -4.336701377434395E-2    4.336926664688173E-1   -2.588954337718786E-1
 6.530011728400000E9     5.421139473271039E-1   -1.383449623070634E-1   -1.920726008821323E-2   -4.403694058242179E-2   -2.019777042702601E-2   -4.350391895720228E-2    4.331101894482328E-1   -2.599426306887838E-1
 6.530021388250000E9     5.419888884723130E-1   -1.391900345298517E-1   -1.944332024227092E-2   -4.427927298557286E-2   -2.041220685534936E-2   -4.381485413209115E-2    4.324431873817137E-1   -2.608646178525152E-1
 6.530031048100000E9     5.416440770543524E-1   -1.400638784945361E-1   -1.966977454968553E-2   -4.435857764032233E-2   -2.071693240962273E-2   -4.414279002698571E-2    4.316202897592922E-1   -2.618566313020575E-1
 6.530040707950000E9     5.413367864356746E-1   -1.409096648308591E-1   -1.971928010669438E-2   -4.480737954185139E-2   -2.095935698924308E-2   -4.440321986076803E-2    4.308381394693553E-1   -2.629657731954190E-1
 6.530050367800000E9     5.411597907038760E-1   -1.416845219329342E-1   -2.017330614751804E-2   -4.511206347746119E-2   -2.124241254157182E-2   -4.465948666368628E-2    4.301783721866763E-1   -2.641462629371574E-1
 6.530060027650000E9     5.408702455083425E-1   -1.426165762104954E-1   -2.043440103399070E-2   -4.551371886856522E-2   -2.150576130506820E-2   -4.485593326661619E-2    4.294185044134334E-1   -2.648489167244703E-1
 6.530069687500000E9     5.405983059869539E-1   -1.435648556429603E-1   -2.061962459363498E-2   -4.570393973598427E-2   -2.173149741078214E-2   -4.516975817845526E-2    4.287677304209732E-1   -2.658694487626814E-1
 6.530079347350000E9     5.403618736544366E-1   -1.443854724938607E-1   -2.098817053905705E-2   -4.604084698286912E-2   -2.207978374046200E-2   -4.550883455743459E-2    4.280029922363272E-1   -2.669153753792271E-1
 6.530089007200000E9     5.399572809223128E-1   -1.452152659666279E-1   -2.114422352293869E-2   -4.634167474510836E-2   -2.228663232959611E-2   -4.585341505668041E-2    4.273147268528489E-1   -2.679025758558606E-1
 6.530098667050000E9     5.397188455791911E-1   -1.460706205695586E-1   -2.152652569507479E-2   -4.665477127721908E-2   -2.257084663896505E-2   -4.605083637329897E-2    4.265010166452355E-1   -2.689630017833914E-1
 6.530108326900000E9     5.395874363368489E-1   -1.468912847449211E-1   -2.170317816415496E-2   -4.690587679251131E-2   -2.291883124768658E-2   -4.642997244757073E-2    4.256470535150352E-1   -2.700761865271260E-1
 6.530117986750000E9     5.391509786823269E-1   -1.478273016252453E-1   -2.214643306996381E-2   -4.717930702205787E-2   -2.312532747606595E-2   -4.677752170431256E-2    4.248885052517043E-1   -2.712699115597398E-1
 6.530127646600000E9     5.388282374149588E-1   -1.487476611549689E-1   -2.223206381081491E-2   -4.743307478776804E-2   -2.350302202902608E-2   -4.695780148616383E-2    4.240650101556178E-1   -2.723978177673138E-1
 6.530137306450000E9     5.385875633590947E-1   -1.495524052500886E-1   -2.254214661929901E-2   -4.776628220052213E-2   -2.376467866952994E-2   -4.730267450955471E-2    4.232516719653849E-1   -2.733475855317728E-1
 6.530146966300000E9     5.382491153080090E-1   -1.505392289721472E-1   -2.290962065598361E-2   -4.806877633366854E-2   -2.406252590776783E-2   -4.764765189747182E-2    4.225054268617946E-1   -2.743712776669693E-1
 6.530156626150000E9     5.379451530408974E-1   -1.515106623119738E-1   -2.326850765589435E-2   -4.835502722685463E-2   -2.442980802936768E-2   -4.795099725106348E-2    4.216378860087553E-1   -2.754832540576688E-1
 6.530166286000000E9     5.375549514983691E-1   -1.522835521061350E-1   -2.339104232952881E-2   -4.886169876164071E-2   -2.478660019539132E-2   -4.827503746300616E-2    4.206983879925545E-1   -2.766422008988421E-1
 6.530175945850000E9     5.372735677665880E-1   -1.532098172193807E-1   -2.380558815732692E-2   -4.918606313941364E-2   -2.498215456257184E-2   -4.852748243976881E-2    4.200086261469168E-1   -2.777875531806287E-1
 6.530185605700000E9     5.369790923911838E-1   -1.541482389525209E-1   -2.402970401477938E-2   -4.940911118955089E-2   -2.545187537369018E-2   -4.881349442912354E-2    4.189213812521069E-1   -2.787002372146646E-1
 6.530195265550000E9     5.367216955251499E-1   -1.549287906009616E-1   -2.448541792882954E-2   -4.995637839587565E-2   -2.570731941810611E-2   -4.923539835380461E-2    4.181613305096031E-1   -2.797952047012341E-1
 6.530204925400000E9     5.363178719084269E-1   -1.559646934703353E-1   -2.468925817092004E-2   -5.009753473262982E-2   -2.615889664079204E-2   -4.954299525096997E-2    4.171755693325446E-1   -2.809350833920077E-1
 6.530214585250000E9     5.359900510260798E-1   -1.567422785326863E-1   -2.515503037966404E-2   -5.050181879967054E-2   -2.647153451479451E-2   -4.990241170148630E-2    4.163206503972726E-1   -2.820068368462101E-1
 6.530224245100000E9     5.356923292109342E-1   -1.577730996670278E-1   -2.550128507827734E-2   -5.082920484311809E-2   -2.679836106236554E-2   -5.020391487425383E-2    4.154346543501902E-1   -2.832518317725068E-1
 6.530233904950000E9     5.354098375222192E-1   -1.585518788381346E-1   -2.583587432914294E-2   -5.133410943661011E-2   -2.720955952850787E-2   -5.060575690105892E-2    4.144579701143574E-1   -2.843527891675410E-1
 6.530243564800000E9     5.350898835606454E-1   -1.595535087103149E-1   -2.614642307908752E-2   -5.161459620198706E-2   -2.742943236332052E-2   -5.098233509511980E-2    4.136185544093958E-1   -2.855518202484516E-1
 6.530253224650000E9     5.346505176800295E-1   -1.605185975069781E-1   -2.648651732172224E-2   -5.179474177144160E-2   -2.788958264767693E-2   -5.133619044904874E-2    4.125654064819689E-1   -2.866307651541846E-1
 6.530262884500000E9     5.343928161891347E-1   -1.614611232045471E-1   -2.698023347124757E-2   -5.226975950241903E-2   -2.824613123420577E-2   -5.171484357205363E-2    4.115899204480784E-1   -2.878436201189412E-1
