#  HZ   S   RI   R     50.00 
! Rohde & Schwarz Vector Network Analyzer 
! Rohde-Schwarz,ZNB20-2Port,1311601062101988,3.16
! Created: UTC 3/21/2024, 1:17:13 AM
! freq[Hz]                re:S11                  im:S11                  re:S21                  im:S21                  re:S12                  im:S12                  re:S22                  im:S22
 6.529405370000000E9     5.537497846287186E-1   -8.745405209436147E-2   -9.539847537939085E-3   -3.169108187858054E-2   -1.018653157565684E-2   -3.156340511635123E-2    4.653262676662993E-1   -2.035827601446588E-1
 6.529415000600000E9     5.536580940394503E-1   -8.811865229600441E-2   -9.464069110673072E-3   -3.182335878515533E-2   -1.029536771132955E-2   -3.172645765983022E-2    4.649564292633935E-1   -2.044264336825478E-1
 6.529424631200000E9     5.535246130795471E-1   -8.886310148922667E-2   -9.689782335232974E-3   -3.189359246496987E-2   -1.037547457248234E-2   -3.187497783159191E-2    4.646046169747310E-1   -2.050890818349339E-1
 6.529434261800000E9     5.533522850230972E-1   -8.970229367140771E-2   -9.826486284060878E-3   -3.200635763751278E-2   -1.047020406210386E-2   -3.188844879360479E-2    4.642557529265671E-1   -2.061566637601920E-1
 6.529443892400000E9     5.533569353446637E-1   -9.047822392438840E-2   -9.848869795955395E-3   -3.224006223965675E-2   -1.063601610985087E-2   -3.216008073756087E-2    4.636679048902784E-1   -2.068951850569033E-1
 6.529453523000000E9     5.531184930173706E-1   -9.129307858973151E-2   -9.847288999820136E-3   -3.241007284990694E-2   -1.062709835077116E-2   -3.216536488544665E-2    4.633275471329703E-1   -2.076596307649403E-1
 6.529463153600000E9     5.529924559719154E-1   -9.203036132700709E-2   -1.005957365393619E-2   -3.262097901416864E-2   -1.077445672109727E-2   -3.228227137443828E-2    4.629534862726764E-1   -2.083314294272870E-1
 6.529472784200000E9     5.528089692842886E-1   -9.281469790775584E-2   -1.026256571476361E-2   -3.272409974679349E-2   -1.082542604283212E-2   -3.256226996747562E-2    4.625857851720226E-1   -2.091953148324205E-1
 6.529482414800000E9     5.526944874371496E-1   -9.358676974823120E-2   -1.022775517766310E-2   -3.278603079006186E-2   -1.099755528299603E-2   -3.274232312502546E-2    4.621734755130329E-1   -2.102517192479884E-1
 6.529492045400000E9     5.524831049818772E-1   -9.440553704451388E-2   -1.043301693982983E-2   -3.303099805413875E-2   -1.106261734656982E-2   -3.288777087647606E-2    4.617361381212350E-1   -2.109416937788706E-1
 6.529501676000000E9     5.524268625538182E-1   -9.514833127774294E-2   -1.063963747512580E-2   -3.308215010160474E-2   -1.129915881774219E-2   -3.301335217953560E-2    4.614136387616027E-1   -2.117516309454301E-1
 6.529511306600000E9     5.522601643619166E-1   -9.595106570992788E-2   -1.059490275418108E-2   -3.341671711064489E-2   -1.138838526726234E-2   -3.308111824043419E-2    4.608569785729663E-1   -2.125108944173894E-1
 6.529520937200000E9     5.520983252769303E-1   -9.684241551922837E-2   -1.081668009620723E-2   -3.341179982738614E-2   -1.148745145973021E-2   -3.324186538970836E-2    4.605225172329265E-1   -2.134802863947606E-1
 6.529530567800000E9     5.519615952482599E-1   -9.739513422265900E-2   -1.086389369148389E-2   -3.351491452274428E-2   -1.159824280138096E-2   -3.346066828594740E-2    4.600170014849898E-1   -2.142284295918471E-1
 6.529540198400000E9     5.517253181700259E-1   -9.838755571299908E-2   -1.082819484538992E-2   -3.375121061281364E-2   -1.178276169062152E-2   -3.361224424391936E-2    4.596951306331427E-1   -2.152366688125677E-1
 6.529549829000000E9     5.516100511329177E-1   -9.903586750410140E-2   -1.107690805839775E-2   -3.402102368771743E-2   -1.181812894085234E-2   -3.367418720893101E-2    4.593382440514271E-1   -2.159483736813558E-1
 6.529559459600000E9     5.515759730555093E-1   -9.985779661726868E-2   -1.124837789630022E-2   -3.404655968203644E-2   -1.198128826817373E-2   -3.397625300294631E-2    4.586446205113917E-1   -2.167233753789396E-1
 6.529569090200000E9     5.512326709864462E-1   -1.006586003732757E-1   -1.128761095374324E-2   -3.405939248842214E-2   -1.212624597287824E-2   -3.398081463085227E-2    4.582564339781974E-1   -2.175590473913715E-1
 6.529578720800000E9     5.512234792779283E-1   -1.014530773462256E-1   -1.150958982876928E-2   -3.447676870349499E-2   -1.221708464477449E-2   -3.425293509810765E-2    4.579985645340562E-1   -2.183297204752303E-1
 6.529588351400000E9     5.510155389239392E-1   -1.022872838650411E-1   -1.158857308259641E-2   -3.460242811425943E-2   -1.230062464595407E-2   -3.439868858438650E-2    4.574583666895108E-1   -2.192035608750156E-1
 6.529597982000000E9     5.508921864201120E-1   -1.029910087582425E-1   -1.175388884785539E-2   -3.464836464742119E-2   -1.245136089550622E-2   -3.453610535959087E-2    4.569927146462039E-1   -2.200315271396953E-1
 6.529607612600000E9     5.508011585402313E-1   -1.037683760318281E-1   -1.187503114320713E-2   -3.508262435011617E-2   -1.261010041483364E-2   -3.472848425156693E-2    4.564645081272496E-1   -2.209940683702837E-1
 6.529617243200000E9     5.506170666615902E-1   -1.046304497304042E-1   -1.208443879753095E-2   -3.503873619774423E-2   -1.279883833116621E-2   -3.487877545400031E-2    4.560748704173191E-1   -2.217855206068054E-1
 6.529626873800000E9     5.505240768915224E-1   -1.054648944595817E-1   -1.207676354017320E-2   -3.537961542541177E-2   -1.293448415591997E-2   -3.506076482334031E-2    4.555166105132883E-1   -2.227107092828977E-1
 6.529636504400000E9     5.502799299923594E-1   -1.062515133685634E-1   -1.227241292658331E-2   -3.555762888554892E-2   -1.300373844356657E-2   -3.523004456736256E-2    4.552874642553911E-1   -2.236799848343252E-1
 6.529646135000000E9     5.501163626550606E-1   -1.070540151066859E-1   -1.239922045890506E-2   -3.538462929768639E-2   -1.315383095913454E-2   -3.540217558880776E-2    4.545991745758914E-1   -2.244623113464061E-1
 6.529655765600000E9     5.499597189079791E-1   -1.077470119668881E-1   -1.255170005746966E-2   -3.574041929141918E-2   -1.334488336213857E-2   -3.558716967956279E-2    4.542627602741423E-1   -2.254234509052722E-1
 6.529665396200000E9     5.498244494980390E-1   -1.086575217302310E-1   -1.269048998259144E-2   -3.605848421181460E-2   -1.338675388927099E-2   -3.574278318910863E-2    4.536842780192593E-1   -2.263360940477738E-1
 6.529675026800000E9     5.495340296806345E-1   -1.092839596869085E-1   -1.266618700031606E-2   -3.619374849078531E-2   -1.358096559760942E-2   -3.596705088837051E-2    4.532071198691884E-1   -2.270449586995974E-1
 6.529684657400000E9     5.494520290044012E-1   -1.101602542316801E-1   -1.289548544236133E-2   -3.629228290600502E-2   -1.376015501351581E-2   -3.600626677483266E-2    4.529617734951660E-1   -2.278762595292739E-1
 6.529694288000000E9     5.492124999373755E-1   -1.109485681906126E-1   -1.312098646051986E-2   -3.660662233513713E-2   -1.394776563439819E-2   -3.615528937330899E-2    4.523759849075856E-1   -2.287801584424971E-1
 6.529703918600000E9     5.491156766364097E-1   -1.117713207064745E-1   -1.316669433279808E-2   -3.671857263278556E-2   -1.406813800763723E-2   -3.641110102407425E-2    4.519886146235305E-1   -2.297258731485064E-1
 6.529713549200000E9     5.488903293330867E-1   -1.125872489064564E-1   -1.340708661818800E-2   -3.675576205427190E-2   -1.413915043040389E-2   -3.663016811095584E-2    4.514110145689941E-1   -2.305114545736844E-1
 6.529723179800000E9     5.486987687536957E-1   -1.133359559394563E-1   -1.352513738950029E-2   -3.691684472703129E-2   -1.431209652611608E-2   -3.679432543521378E-2    4.508389408999952E-1   -2.313007346638666E-1
 6.529732810400000E9     5.485784267169165E-1   -1.142703739026853E-1   -1.370235581464804E-2   -3.727206078622400E-2   -1.449202204132891E-2   -3.690370856182461E-2    4.504682602475772E-1   -2.322269953972012E-1
 6.529742441000000E9     5.483288020301865E-1   -1.148950765057918E-1   -1.374489718066616E-2   -3.748584719388282E-2   -1.459210596077418E-2   -3.717110973056020E-2    4.498796839629051E-1   -2.332540732395797E-1
 6.529752071600000E9     5.479660268651642E-1   -1.158110830845632E-1   -1.392118284141530E-2   -3.764342770548174E-2   -1.478197578418835E-2   -3.741668861591901E-2    4.493849652954466E-1   -2.341977498311971E-1
 6.529761702200000E9     5.479506237274027E-1   -1.166443741747086E-1   -1.417720150174511E-2   -3.788105780091130E-2   -1.503435515781659E-2   -3.749584081569596E-2    4.486500679141544E-1   -2.350147021348921E-1
 6.529771332800000E9     5.477823031397088E-1   -1.174436531502777E-1   -1.427996261403911E-2   -3.793282259546243E-2   -1.518122105633340E-2   -3.773376889289807E-2    4.483482422912748E-1   -2.359710455743596E-1
 6.529780963400000E9     5.475943201999378E-1   -1.182541020580010E-1   -1.440588772822816E-2   -3.815092272484384E-2   -1.528129580541603E-2   -3.795986942870570E-2    4.478036846283120E-1   -2.367379810412689E-1
 6.529790594000000E9     5.473852385417181E-1   -1.190866937758368E-1   -1.467916574673443E-2   -3.832079590358212E-2   -1.550291598611354E-2   -3.819830309499301E-2    4.472873932306289E-1   -2.377341093743787E-1
 6.529800224600000E9     5.470288472739107E-1   -1.197819347395930E-1   -1.472836612900129E-2   -3.870653860773490E-2   -1.564355697014130E-2   -3.842000569612316E-2    4.466297097117091E-1   -2.384972895439345E-1
 6.529809855200000E9     5.469722732187886E-1   -1.206957214600418E-1   -1.483552457136593E-2   -3.891652098199302E-2   -1.575607742299516E-2   -3.860567778640905E-2    4.462246209547381E-1   -2.394035854200766E-1
 6.529819485800000E9     5.466207938706774E-1   -1.214802337985358E-1   -1.496599231242452E-2   -3.906792655567534E-2   -1.597468595406809E-2   -3.885512643830149E-2    4.455045520201552E-1   -2.404219485595779E-1
 6.529829116400000E9     5.466134577420275E-1   -1.223262442444072E-1   -1.526340126393384E-2   -3.920472725046853E-2   -1.621118587424296E-2   -3.906955338569659E-2    4.451631515277855E-1   -2.412490283651898E-1
 6.529838747000000E9     5.462915194862882E-1   -1.231777439554372E-1   -1.541405867623669E-2   -3.963309601699130E-2   -1.631450220250169E-2   -3.918574050035522E-2    4.446299170519681E-1   -2.423409977931700E-1
 6.529848377600000E9     5.461859681539221E-1   -1.240348885878825E-1   -1.562508036553613E-2   -3.973288218031786E-2   -1.656949688374358E-2   -3.947584077437621E-2    4.439266102566728E-1   -2.431895373803840E-1
 6.529858008200000E9     5.458667236629263E-1   -1.247053567392456E-1   -1.576822891716871E-2   -3.990014996730114E-2   -1.675310213851595E-2   -3.965696227510176E-2    4.433454366946957E-1   -2.440759242008563E-1
 6.529867638800000E9     5.457436375178302E-1   -1.254986368087299E-1   -1.588302508769645E-2   -4.013926941141695E-2   -1.687577056757519E-2   -3.984152601957864E-2    4.427972614716312E-1   -2.451493383131734E-1
 6.529877269400000E9     5.455907855525873E-1   -1.264296072027391E-1   -1.622098870357740E-2   -4.029263188619611E-2   -1.706870207264484E-2   -4.006826228741772E-2    4.421017767678050E-1   -2.458838178711202E-1
 6.529886900000000E9     5.452729921993228E-1   -1.272963935355350E-1   -1.637042572336255E-2   -4.057935079922980E-2   -1.717729154649199E-2   -4.035459847956887E-2    4.417192736519183E-1   -2.470157086199931E-1
 6.529896530600000E9     5.451496155556637E-1   -1.280632395223352E-1   -1.631114743760403E-2   -4.093212313062534E-2   -1.747244066639229E-2   -4.058672686775398E-2    4.409852235900814E-1   -2.478162192342822E-1
 6.529906161200000E9     5.449603526554848E-1   -1.288924102059754E-1   -1.657543632079303E-2   -4.109112324383458E-2   -1.770778953957213E-2   -4.080554306784598E-2    4.403585976713031E-1   -2.487751978091765E-1
 6.529915791800000E9     5.446181692534060E-1   -1.297190012477001E-1   -1.688246844517285E-2   -4.134334920708266E-2   -1.782300794506841E-2   -4.093827899588736E-2    4.397669919071284E-1   -2.496605592571895E-1
 6.529925422400000E9     5.443689453330099E-1   -1.305327589156389E-1   -1.714222889170600E-2   -4.153771391600079E-2   -1.811561991765166E-2   -4.126181532173803E-2    4.390329637911071E-1   -2.506885359734166E-1
 6.529935053000000E9     5.441645812043977E-1   -1.315588566951088E-1   -1.726260277488933E-2   -4.195945763905212E-2   -1.823988976370733E-2   -4.138143089651997E-2    4.384743239678602E-1   -2.517373145279744E-1
 6.529944683600000E9     5.440069951474529E-1   -1.322093488752558E-1   -1.750078235540875E-2   -4.201017867506246E-2   -1.848338301805692E-2   -4.169864972369509E-2    4.379717962314145E-1   -2.525667161981113E-1
 6.529954314200000E9     5.436819935892938E-1   -1.331235520166968E-1   -1.770062905577813E-2   -4.238733271203417E-2   -1.874267865327024E-2   -4.195528346000962E-2    4.373441790342383E-1   -2.535427484060745E-1
 6.529963944800000E9     5.434490627691168E-1   -1.339124256616701E-1   -1.790680778511330E-2   -4.246463634773485E-2   -1.891071992785509E-2   -4.225602087158703E-2    4.368097497395352E-1   -2.545477005053914E-1
 6.529973575400000E9     5.431196449303916E-1   -1.347921336285169E-1   -1.811149013817241E-2   -4.281062352435105E-2   -1.920950148274322E-2   -4.238587483766224E-2    4.360157972807162E-1   -2.556463361183373E-1
 6.529983206000000E9     5.428377028451667E-1   -1.356951276746970E-1   -1.845282205862900E-2   -4.310313473522874E-2   -1.944143227378856E-2   -4.268853176763705E-2    4.353851697173076E-1   -2.565612830401707E-1
 6.529992836600000E9     5.427715084299948E-1   -1.365206827855332E-1   -1.859049760969970E-2   -4.340694159590099E-2   -1.971909998192236E-2   -4.289107122584257E-2    4.345050742739452E-1   -2.574024758617661E-1
 6.530002467200000E9     5.424954127255115E-1   -1.373304301115751E-1   -1.870148812314168E-2   -4.343125369235078E-2   -1.983497562358114E-2   -4.322163630017990E-2    4.340613019162130E-1   -2.585929896709496E-1
 6.530012097800000E9     5.421437561922441E-1   -1.381757173502829E-1   -1.924041964477411E-2   -4.386087118227541E-2   -2.003994922179519E-2   -4.328594188510330E-2    4.334460840259532E-1   -2.594773402136641E-1
 6.530021728400000E9     5.420426041247876E-1   -1.391040796346582E-1   -1.920518638140626E-2   -4.417767104682809E-2   -2.035971024215090E-2   -4.375511174079838E-2    4.326518525896731E-1   -2.604827009229212E-1
 6.530031359000000E9     5.417230786162748E-1   -1.399141724605078E-1   -1.952416132210825E-2   -4.438816182539457E-2   -2.057164917539056E-2   -4.393935928977998E-2    4.320665123880435E-1   -2.615491106050975E-1
 6.530040989600000E9     5.414314249336856E-1   -1.407588053110507E-1   -1.963435328497502E-2   -4.456268473338085E-2   -2.084820932915793E-2   -4.430107476632979E-2    4.312132360127992E-1   -2.625322636746530E-1
 6.530050620200000E9     5.412705101837162E-1   -1.415597930920244E-1   -2.000822928205817E-2   -4.505964292774180E-2   -2.102924659241927E-2   -4.447961121604368E-2    4.305080314108392E-1   -2.634009808848722E-1
 6.530060250800000E9     5.408319509269489E-1   -1.424804952917081E-1   -2.023283830877089E-2   -4.517475886811157E-2   -2.136456008053183E-2   -4.478581919282095E-2    4.298274254988428E-1   -2.645640438310887E-1
 6.530069881400000E9     5.406913788649309E-1   -1.433226900925821E-1   -2.055435156598029E-2   -4.543843980165265E-2   -2.157868230685192E-2   -4.505329231244880E-2    4.290970482579630E-1   -2.654627118655324E-1
 6.530079512000000E9     5.403446255548565E-1   -1.442771636289829E-1   -2.075287928519821E-2   -4.575470620885000E-2   -2.184502270225253E-2   -4.525480802087135E-2    4.283470826395844E-1   -2.663757507245525E-1
 6.530089142600000E9     5.400496219774561E-1   -1.450605900708805E-1   -2.112385728327202E-2   -4.615361464103707E-2   -2.222126783254152E-2   -4.562948018291364E-2    4.276111542271900E-1   -2.674249151959406E-1
 6.530098773200000E9     5.396862616410207E-1   -1.459064201899249E-1   -2.133176336815513E-2   -4.633142986777199E-2   -2.248031555061826E-2   -4.595577863477159E-2    4.268665308444010E-1   -2.686599721829954E-1
 6.530108403800000E9     5.394006583425928E-1   -1.468136928215129E-1   -2.153836248385927E-2   -4.665745604579277E-2   -2.269732896113998E-2   -4.619712721594720E-2    4.260218388641201E-1   -2.696673446851962E-1
 6.530118034400000E9     5.392603429303783E-1   -1.476550255729453E-1   -2.167412814027983E-2   -4.691225240323722E-2   -2.296731054385688E-2   -4.649838779750119E-2    4.252833807292347E-1   -2.707708280948093E-1
 6.530127665000000E9     5.390227866699924E-1   -1.485592771437564E-1   -2.207920315179529E-2   -4.734744783930472E-2   -2.330536168590371E-2   -4.683626639537510E-2    4.245353630170822E-1   -2.718063887287136E-1
 6.530137295600000E9     5.387777845410743E-1   -1.495651404157815E-1   -2.240603555511003E-2   -4.763271011754391E-2   -2.359669556851260E-2   -4.721436956749332E-2    4.237752987306234E-1   -2.728353549967603E-1
 6.530146926200000E9     5.383598705515401E-1   -1.503323640883467E-1   -2.260726613097131E-2   -4.781959863821047E-2   -2.386941500849575E-2   -4.743474280578402E-2    4.227613789893315E-1   -2.738734122477036E-1
 6.530156556800000E9     5.380854180550649E-1   -1.511283687309735E-1   -2.299130556804898E-2   -4.818433863703780E-2   -2.427717681973863E-2   -4.771794376708201E-2    4.218992985711856E-1   -2.749700583967080E-1
 6.530166187400000E9     5.376818934096133E-1   -1.520180729786824E-1   -2.332038096321517E-2   -4.850548204026840E-2   -2.447702561524416E-2   -4.799636950330086E-2    4.212061036465391E-1   -2.759986078810747E-1
 6.530175818000000E9     5.374886447680126E-1   -1.531200965581997E-1   -2.365603096827119E-2   -4.893276772302532E-2   -2.477769143811343E-2   -4.833311381169912E-2    4.203970979559976E-1   -2.770955610419362E-1
 6.530185448600000E9     5.370918085415468E-1   -1.538817616091014E-1   -2.381308778924772E-2   -4.925322560807940E-2   -2.522057125391044E-2   -4.873446892035305E-2    4.195441335041827E-1   -2.782517675256466E-1
 6.530195079200000E9     5.368629188822919E-1   -1.548494865178576E-1   -2.425680233255464E-2   -4.960903683589828E-2   -2.554032085187644E-2   -4.906105941942548E-2    4.185992299398238E-1   -2.793890449857865E-1
 6.530204709800000E9     5.365253363174997E-1   -1.555141350422662E-1   -2.468656873984504E-2   -4.995107193395528E-2   -2.575118995469101E-2   -4.929165479312368E-2    4.175136078288674E-1   -2.802575949736197E-1
 6.530214340400000E9     5.361038383704941E-1   -1.565768009656214E-1   -2.505729125782087E-2   -5.028179067337180E-2   -2.618425075260649E-2   -4.966807806469301E-2    4.166071325352366E-1   -2.815578660001758E-1
 6.530223971000000E9     5.358425004726651E-1   -1.575077467889275E-1   -2.524669395055730E-2   -5.066929316530858E-2   -2.653667212198441E-2   -4.996296989590134E-2    4.159639296208922E-1   -2.825497627627833E-1
 6.530233601600000E9     5.354765541392931E-1   -1.583586353607290E-1   -2.554536409778914E-2   -5.093949867131569E-2   -2.690825704264910E-2   -5.037408827963585E-2    4.148320893290381E-1   -2.837349414125276E-1
 6.530243232200000E9     5.351669529490970E-1   -1.593540881003100E-1   -2.594872658159495E-2   -5.124456740258692E-2   -2.723292309815520E-2   -5.071377894330465E-2    4.139944160726003E-1   -2.848834796117198E-1
 6.530252862800000E9     5.347418828018041E-1   -1.601851720797679E-1   -2.636770575099931E-2   -5.158619191803280E-2   -2.770593038241095E-2   -5.099019718981362E-2    4.131440422605318E-1   -2.861324176838099E-1
 6.530262493400000E9     5.345550058971811E-1   -1.610688855040475E-1   -2.678197493950119E-2   -5.210294884056663E-2   -2.806543003992159E-2   -5.153835725703638E-2    4.121251105848041E-1   -2.872043691760931E-1
 6.530272124000000E9     5.340654668488646E-1   -1.621096754221057E-1   -2.703596396461323E-2   -5.245211308789324E-2   -2.844030047127502E-2   -5.186667764480996E-2    4.109134190518766E-1   -2.884971615004289E-1
