#  HZ   S   RI   R     50.00 
! Rohde & Schwarz Vector Network Analyzer 
! Rohde-Schwarz,ZNB20-2Port,1311601062101988,3.16
! Created: UTC 3/21/2024, 1:17:16 AM
! freq[Hz]                re:S11                  im:S11                  re:S21                  im:S21                  re:S12                  im:S12                  re:S22                  im:S22
 6.529410030000000E9     5.536871987435742E-1   -8.771298421882665E-2   -9.507290852487920E-3   -3.175461711143558E-2   -1.012770979300389E-2   -3.161380698053128E-2    4.651092035194209E-1   -2.039993368854557E-1
 6.529419644825000E9     5.535797813117532E-1   -8.851913556350702E-2   -9.655808415023741E-3   -3.186592326820511E-2   -1.027673021600630E-2   -3.171762820153912E-2    4.646236272628866E-1   -2.047559592968574E-1
 6.529429259650000E9     5.533838642907288E-1   -8.918647903712794E-2   -9.787536388944402E-3   -3.218478590763484E-2   -1.046939238594716E-2   -3.190277193189969E-2    4.644867336310317E-1   -2.056005330019463E-1
 6.529438874475000E9     5.533539981877917E-1   -9.000007848694817E-2   -9.732134317302637E-3   -3.233251192973406E-2   -1.046750182423542E-2   -3.202422450293921E-2    4.640024717280030E-1   -2.063688295408855E-1
 6.529448489300000E9     5.530806684361175E-1   -9.084677310074123E-2   -9.939521238693719E-3   -3.229691469906123E-2   -1.063762480506664E-2   -3.208820358561972E-2    4.637378155425698E-1   -2.070969869354395E-1
 6.529458104125000E9     5.529377221940128E-1   -9.168215144811977E-2   -1.002933909806139E-2   -3.249618835530791E-2   -1.068295673078112E-2   -3.223238863958770E-2    4.632756788635475E-1   -2.079104696638309E-1
 6.529467718950000E9     5.529424597743371E-1   -9.226859547505260E-2   -1.004050339996321E-2   -3.264993767921805E-2   -1.089496298729117E-2   -3.249481282357686E-2    4.627708701191953E-1   -2.088852882149256E-1
 6.529477333775000E9     5.527252360570689E-1   -9.311953771211011E-2   -1.025305534736727E-2   -3.275553076077054E-2   -1.102356732452747E-2   -3.257543726744562E-2    4.624163728710328E-1   -2.096251513603312E-1
 6.529486948600000E9     5.525572966332313E-1   -9.389883586419527E-2   -1.023514701068303E-2   -3.280359578487232E-2   -1.104409865672832E-2   -3.273038775773280E-2    4.620153054343042E-1   -2.103129203484309E-1
 6.529496563425000E9     5.524457456707919E-1   -9.466398307645164E-2   -1.045790741721853E-2   -3.305524988140996E-2   -1.110530647650384E-2   -3.287845157495839E-2    4.615255851431314E-1   -2.114009297101729E-1
 6.529506178250000E9     5.523825965923970E-1   -9.548501074515850E-2   -1.051634883468386E-2   -3.311372586158193E-2   -1.140245623038036E-2   -3.292878581096937E-2    4.610146253930567E-1   -2.121170973238585E-1
 6.529515793075000E9     5.521751841142843E-1   -9.618687544004599E-2   -1.084594136177572E-2   -3.337909427304148E-2   -1.146988813498950E-2   -3.317069938182964E-2    4.607737139088987E-1   -2.130445954476815E-1
 6.529525407900000E9     5.519768275597620E-1   -9.696792328438102E-2   -1.081830520987409E-2   -3.339571569853962E-2   -1.146914745683245E-2   -3.339503106276497E-2    4.602687310282627E-1   -2.138779662637386E-1
 6.529535022725000E9     5.518752092659212E-1   -9.784649850944940E-2   -1.082867414498842E-2   -3.370155624966271E-2   -1.162148761066273E-2   -3.348635451460748E-2    4.599780678193315E-1   -2.144577600899002E-1
 6.529544637550000E9     5.518119176055614E-1   -9.850449714838154E-2   -1.106513857010315E-2   -3.380932245562571E-2   -1.177642248168647E-2   -3.373163626114236E-2    4.593995090085288E-1   -2.154192126347811E-1
 6.529554252375000E9     5.516336518555346E-1   -9.944910270255725E-2   -1.115087580365513E-2   -3.394573596087874E-2   -1.181279127208188E-2   -3.372537039962103E-2    4.590409894315455E-1   -2.164551763180710E-1
 6.529563867200000E9     5.514828911049673E-1   -1.000814762052804E-1   -1.116711669720197E-2   -3.418097393689819E-2   -1.206621612213905E-2   -3.388995870070759E-2    4.587100185835994E-1   -2.172313028565736E-1
 6.529573482025000E9     5.512989178949675E-1   -1.009728180964397E-1   -1.139301038476107E-2   -3.433778222906249E-2   -1.216334597515584E-2   -3.416282114660684E-2    4.581680979079100E-1   -2.179232999562361E-1
 6.529583096850000E9     5.511488860003613E-1   -1.017267410810972E-1   -1.153477038379663E-2   -3.439430944567459E-2   -1.225270827070706E-2   -3.426510149303270E-2    4.577224359588563E-1   -2.187549388060282E-1
 6.529592711675000E9     5.509059851288233E-1   -1.024915573466748E-1   -1.154697600933152E-2   -3.468242732857711E-2   -1.249900623178398E-2   -3.444844520130703E-2    4.572289800388788E-1   -2.195226046844832E-1
 6.529602326500000E9     5.507721519028791E-1   -1.033160888928758E-1   -1.174632497065591E-2   -3.471741415965565E-2   -1.258183769840312E-2   -3.456986659495815E-2    4.568915628825218E-1   -2.206147035303522E-1
 6.529611941325000E9     5.507243811760124E-1   -1.041065250172604E-1   -1.186581693738538E-2   -3.499776768759597E-2   -1.265688081491336E-2   -3.474328965227508E-2    4.564699336321623E-1   -2.213656067013961E-1
 6.529621556150000E9     5.505371816385377E-1   -1.049643648022679E-1   -1.208116577420798E-2   -3.504297901036069E-2   -1.279241291510498E-2   -3.495725139682158E-2    4.560504763420735E-1   -2.221655398451838E-1
 6.529631170975000E9     5.503819620304012E-1   -1.057072271926383E-1   -1.205598648476860E-2   -3.533050538562964E-2   -1.287059982736436E-2   -3.495356756132975E-2    4.553966670252359E-1   -2.230257126282956E-1
 6.529640785800000E9     5.500640425612366E-1   -1.065777221107603E-1   -1.222520088115813E-2   -3.552384807353813E-2   -1.309497868645555E-2   -3.524493137718369E-2    4.549796799854484E-1   -2.238945384934804E-1
 6.529650400625000E9     5.499906034255112E-1   -1.072552540747483E-1   -1.245909444489207E-2   -3.572054581482782E-2   -1.329387090189994E-2   -3.535162358487314E-2    4.544992554924880E-1   -2.248296906304041E-1
 6.529660015450000E9     5.498528011643007E-1   -1.081314253397446E-1   -1.263047934169230E-2   -3.576323487535450E-2   -1.332809127805219E-2   -3.554970904872851E-2    4.542726262341889E-1   -2.257133304943195E-1
 6.529669630275000E9     5.496035750370072E-1   -1.088865888736091E-1   -1.273669029659782E-2   -3.600913728641629E-2   -1.358442549848975E-2   -3.573220703175115E-2    4.535831602090156E-1   -2.265947085420020E-1
 6.529679245100000E9     5.495975718825522E-1   -1.096997938829193E-1   -1.280519072263014E-2   -3.608047329729099E-2   -1.359576895861718E-2   -3.595032861362833E-2    4.532563551625562E-1   -2.273828280389683E-1
 6.529688859925000E9     5.493797839545662E-1   -1.105044654582531E-1   -1.290167118447350E-2   -3.625032192697867E-2   -1.375061246163877E-2   -3.618740636333470E-2    4.525783589045433E-1   -2.282168473070607E-1
 6.529698474750000E9     5.491622827969678E-1   -1.112828746020782E-1   -1.316416907039239E-2   -3.649756539581963E-2   -1.396850248238056E-2   -3.629355043653727E-2    4.520924267029495E-1   -2.291345082664228E-1
 6.529708089575000E9     5.488872037506156E-1   -1.120972258689583E-1   -1.323984346205851E-2   -3.678055670798025E-2   -1.407947524010358E-2   -3.648622440644409E-2    4.517693480853200E-1   -2.300274046105936E-1
 6.529717704400000E9     5.487617804747316E-1   -1.129890470829455E-1   -1.333479404579887E-2   -3.694288271816564E-2   -1.428585111188616E-2   -3.667458924132695E-2    4.511602460583448E-1   -2.309605805918321E-1
 6.529727319225000E9     5.486265485335969E-1   -1.136582194367348E-1   -1.348102109781430E-2   -3.701656219867861E-2   -1.437231109783403E-2   -3.684333269030842E-2    4.507809661130596E-1   -2.316643153683302E-1
 6.529736934050000E9     5.482949424101068E-1   -1.143907181210874E-1   -1.370062901759460E-2   -3.738867948493754E-2   -1.456787448594521E-2   -3.698662176919616E-2    4.503372390822842E-1   -2.327729908805737E-1
 6.529746548875000E9     5.482905999859310E-1   -1.153074591783044E-1   -1.376556860986473E-2   -3.740526725107881E-2   -1.464243632579046E-2   -3.717595320962437E-2    4.496658155758549E-1   -2.335243612138287E-1
 6.529756163700000E9     5.481185185264402E-1   -1.160892288379410E-1   -1.394166204431556E-2   -3.768644477733178E-2   -1.487250492918481E-2   -3.750953776408359E-2    4.492703637712432E-1   -2.344693678083380E-1
 6.529765778525000E9     5.478059331621816E-1   -1.168748329781268E-1   -1.412826815955310E-2   -3.786874231204725E-2   -1.501248172058280E-2   -3.762358515554945E-2    4.486172101887803E-1   -2.353584833043800E-1
 6.529775393350000E9     5.477515135008190E-1   -1.177792328608909E-1   -1.423811135177937E-2   -3.815122470491818E-2   -1.508390564806273E-2   -3.775959171206547E-2    4.480388183054511E-1   -2.361138916865485E-1
 6.529785008175000E9     5.475406253084886E-1   -1.185465117090074E-1   -1.456788750893173E-2   -3.834547424492896E-2   -1.533827489648091E-2   -3.806492089530999E-2    4.475877265865174E-1   -2.369886083850090E-1
 6.529794623000000E9     5.472841566871579E-1   -1.194048945169018E-1   -1.452333146824441E-2   -3.852730399043752E-2   -1.549107922809682E-2   -3.822320924051566E-2    4.469680386395203E-1   -2.380359817936266E-1
 6.529804237825000E9     5.471020499454956E-1   -1.201833102493839E-1   -1.482203497614602E-2   -3.892464032319248E-2   -1.569822063169882E-2   -3.837479461127399E-2    4.464222459701805E-1   -2.390775821530727E-1
 6.529813852650000E9     5.469970433597778E-1   -1.209535511306303E-1   -1.496279865670309E-2   -3.892849010731667E-2   -1.585859703331275E-2   -3.858843039757168E-2    4.460633409938494E-1   -2.397862377203521E-1
 6.529823467475000E9     5.466437064673819E-1   -1.218292013193603E-1   -1.518895677311965E-2   -3.920608457725006E-2   -1.598193639033978E-2   -3.876427004073327E-2    4.453449758203247E-1   -2.407058968863464E-1
 6.529833082300000E9     5.464804537228936E-1   -1.226833553927535E-1   -1.536088767042035E-2   -3.929206259191900E-2   -1.617717523938981E-2   -3.903103513937636E-2    4.448172217339852E-1   -2.416174848986569E-1
 6.529842697125000E9     5.462058708942805E-1   -1.234163421733455E-1   -1.556440076843205E-2   -3.959954500309692E-2   -1.640027081893392E-2   -3.908640779614786E-2    4.443134990885682E-1   -2.426027406685749E-1
 6.529852311950000E9     5.461213083380868E-1   -1.242630380749316E-1   -1.547192750907738E-2   -3.973946707323947E-2   -1.645543155547504E-2   -3.946557832958103E-2    4.437819306524504E-1   -2.436192575109200E-1
 6.529861926775000E9     5.458755660113922E-1   -1.251452794177576E-1   -1.586733486714099E-2   -4.001893901052045E-2   -1.671630759672824E-2   -3.971876100948282E-2    4.432067066875522E-1   -2.444877527207820E-1
 6.529871541600000E9     5.456040776786503E-1   -1.258487013128521E-1   -1.606544132461653E-2   -4.013715275972685E-2   -1.702920437980268E-2   -3.988088987586873E-2    4.425450471875750E-1   -2.453627512450893E-1
 6.529881156425000E9     5.454763781463247E-1   -1.265711043462276E-1   -1.611323504137479E-2   -4.045075892614522E-2   -1.712083897097683E-2   -4.009938666920620E-2    4.420905025648809E-1   -2.463111331316660E-1
 6.529890771250000E9     5.450852745833874E-1   -1.274927193472482E-1   -1.640469438420413E-2   -4.052458526217943E-2   -1.743979641842432E-2   -4.039441601816549E-2    4.413476021045852E-1   -2.472810634776422E-1
 6.529900386075000E9     5.449978099765692E-1   -1.284126790410919E-1   -1.653728602485124E-2   -4.105026931936644E-2   -1.760859795743617E-2   -4.062104341200274E-2    4.407214975477388E-1   -2.483610205041806E-1
 6.529910000900000E9     5.447664907710649E-1   -1.292155935871088E-1   -1.674339797078885E-2   -4.109462416250573E-2   -1.770467389172614E-2   -4.088743843983428E-2    4.401894746253234E-1   -2.491294337293348E-1
 6.529919615725000E9     5.445294277362445E-1   -1.300086431844539E-1   -1.707404464005131E-2   -4.130615570992836E-2   -1.789428244420234E-2   -4.097717300679531E-2    4.397063580432132E-1   -2.499501915837399E-1
 6.529929230550000E9     5.442872405188555E-1   -1.308288640043399E-1   -1.701026285572805E-2   -4.155268071370363E-2   -1.820286117673105E-2   -4.118851558055281E-2    4.387769890071098E-1   -2.509922196598020E-1
 6.529938845375000E9     5.440560043700808E-1   -1.317141644054897E-1   -1.733213158989281E-2   -4.183899607533564E-2   -1.831834957671905E-2   -4.143803505779766E-2    4.384190398236251E-1   -2.518989288972175E-1
 6.529948460200000E9     5.439006418185099E-1   -1.324845536612411E-1   -1.764063666717082E-2   -4.204712988567095E-2   -1.854282014482362E-2   -4.176560696670126E-2    4.377342583783353E-1   -2.528771702894225E-1
 6.529958075025000E9     5.437059756293899E-1   -1.333143803372475E-1   -1.770120158114058E-2   -4.225234112853497E-2   -1.877058328097046E-2   -4.193885640266364E-2    4.371122776894948E-1   -2.539511742728865E-1
 6.529967689850000E9     5.433424312251814E-1   -1.342572232338339E-1   -1.795740644515983E-2   -4.257506549728681E-2   -1.894652853195753E-2   -4.221265264479698E-2    4.364542182046799E-1   -2.549955432192568E-1
 6.529977304675000E9     5.431282645061309E-1   -1.350402478680022E-1   -1.821165692708673E-2   -4.270731179132978E-2   -1.925557141990852E-2   -4.240976857608986E-2    4.357055823350895E-1   -2.558772371112576E-1
 6.529986919500000E9     5.429422042411758E-1   -1.358253550252413E-1   -1.842614801119499E-2   -4.308540677082982E-2   -1.947507750523639E-2   -4.270750184390537E-2    4.350546637008650E-1   -2.568377068188194E-1
 6.529996534325000E9     5.427548218376347E-1   -1.367394780541046E-1   -1.859213305639853E-2   -4.328440209868059E-2   -1.972324786525345E-2   -4.306171649314137E-2    4.344845644486588E-1   -2.577621503830588E-1
 6.530006149150000E9     5.423948751173687E-1   -1.376785623268040E-1   -1.880188122613626E-2   -4.356702925178450E-2   -1.990099131390201E-2   -4.311351267107609E-2    4.337286181439913E-1   -2.588777920827579E-1
 6.530015763975000E9     5.421085504401677E-1   -1.384142660381426E-1   -1.909557004255210E-2   -4.399644569560070E-2   -2.016783284773131E-2   -4.351640863470115E-2    4.331621282147448E-1   -2.596955227211192E-1
 6.530025378800000E9     5.418227673144883E-1   -1.392886051654935E-1   -1.939058418631458E-2   -4.414823005817006E-2   -2.029808615345501E-2   -4.375270963192012E-2    4.322803374720898E-1   -2.605868081591814E-1
 6.530034993625000E9     5.416699959977395E-1   -1.401372819183046E-1   -1.947954117354043E-2   -4.445262087844264E-2   -2.068780761444199E-2   -4.405352445839040E-2    4.317842803206793E-1   -2.616724342278883E-1
 6.530044608450000E9     5.413898554385562E-1   -1.410104949127796E-1   -1.974934133266786E-2   -4.472364640764811E-2   -2.091651197264324E-2   -4.440300662284566E-2    4.310843291907848E-1   -2.627773130535461E-1
 6.530054223275000E9     5.411244932804075E-1   -1.417274150282599E-1   -2.015885723091890E-2   -4.489224918500494E-2   -2.121514989607494E-2   -4.457733674670679E-2    4.304034183110687E-1   -2.637286341369458E-1
 6.530063838100000E9     5.408235264721332E-1   -1.427036319935832E-1   -2.032285314814419E-2   -4.523241597028301E-2   -2.132390571429559E-2   -4.481627234694186E-2    4.297813407613946E-1   -2.649408392296108E-1
 6.530073452925000E9     5.406268072935869E-1   -1.435325138376388E-1   -2.067157147403701E-2   -4.552361953413661E-2   -2.176300813379365E-2   -4.506679470627910E-2    4.288956006746230E-1   -2.660205513130102E-1
 6.530083067750000E9     5.401878258229098E-1   -1.445094692416384E-1   -2.076021630505404E-2   -4.584504631355027E-2   -2.195824478316228E-2   -4.548352307455097E-2    4.281065360129281E-1   -2.667493261520978E-1
 6.530092682575000E9     5.401175918597132E-1   -1.452737085368745E-1   -2.113515133499871E-2   -4.615449526688430E-2   -2.222642045007670E-2   -4.569814720343384E-2    4.273392168868275E-1   -2.679652999446467E-1
 6.530102297400000E9     5.398500955154428E-1   -1.462686582196196E-1   -2.156552878282196E-2   -4.641627219441825E-2   -2.245657503847003E-2   -4.592490424290398E-2    4.264684845774365E-1   -2.689348980931092E-1
 6.530111912225000E9     5.394030575621965E-1   -1.470275292862701E-1   -2.154233792476044E-2   -4.670763020747203E-2   -2.277517168958082E-2   -4.629172362776285E-2    4.257775170201029E-1   -2.699707313792552E-1
 6.530121527050000E9     5.391623378206489E-1   -1.478528988143433E-1   -2.188758715990518E-2   -4.691394856589831E-2   -2.302372377204731E-2   -4.653267091085945E-2    4.250022435368149E-1   -2.711492758054216E-1
 6.530131141875000E9     5.389121389173374E-1   -1.488201828403540E-1   -2.215639263866328E-2   -4.733153072431111E-2   -2.339811400518718E-2   -4.672416398467889E-2    4.240919584101947E-1   -2.721878255184864E-1
 6.530140756700000E9     5.385668937919662E-1   -1.496697716457016E-1   -2.258594909058395E-2   -4.764993064747146E-2   -2.368446030598730E-2   -4.717637132023945E-2    4.234920492022042E-1   -2.730674056720468E-1
 6.530150371525000E9     5.383367529750673E-1   -1.505677633442248E-1   -2.276103811305147E-2   -4.811214525759309E-2   -2.392616479256326E-2   -4.736926417154678E-2    4.226153223314559E-1   -2.742742827966598E-1
 6.530159986350000E9     5.378484892860144E-1   -1.513834074714116E-1   -2.308658066682065E-2   -4.830139524616728E-2   -2.424801184237884E-2   -4.772676574230271E-2    4.218524923962847E-1   -2.752140008282392E-1
 6.530169601175000E9     5.377279916389076E-1   -1.523938677025534E-1   -2.342834786361521E-2   -4.861852312370014E-2   -2.461876152462278E-2   -4.814699122780799E-2    4.210386278140001E-1   -2.763479896172436E-1
 6.530179216000000E9     5.373766707198169E-1   -1.532454594384470E-1   -2.373376571887560E-2   -4.894202641135485E-2   -2.496520388215062E-2   -4.847241832339085E-2    4.202843248697499E-1   -2.773984924059445E-1
 6.530188830825000E9     5.370698501844577E-1   -1.541500892405542E-1   -2.399725310967250E-2   -4.934054445637052E-2   -2.528867439010223E-2   -4.877531691643983E-2    4.192211092628714E-1   -2.785200327189054E-1
 6.530198445650000E9     5.368046844998137E-1   -1.549954419402652E-1   -2.433821604370886E-2   -4.969526888415195E-2   -2.561510129219820E-2   -4.910024307254258E-2    4.181701546669701E-1   -2.795949579886359E-1
 6.530208060475000E9     5.365079722320033E-1   -1.559300563811191E-1   -2.453660652690468E-2   -4.996108276045268E-2   -2.589913419468916E-2   -4.941153377819162E-2    4.174330609401263E-1   -2.808074087109781E-1
 6.530217675300000E9     5.361675901750323E-1   -1.568808340058853E-1   -2.494191707060358E-2   -5.026936668188959E-2   -2.625964241502219E-2   -4.975004577111598E-2    4.165310804624939E-1   -2.818773000583759E-1
 6.530227290125000E9     5.357967628593768E-1   -1.577842583018444E-1   -2.546169487115937E-2   -5.074156530062358E-2   -2.658849590345227E-2   -5.006473452013440E-2    4.155599703391126E-1   -2.830365109943825E-1
 6.530236904950000E9     5.354116422313940E-1   -1.586227173165602E-1   -2.570203041765953E-2   -5.098292012883560E-2   -2.695384940452950E-2   -5.041939595279731E-2    4.145838319000879E-1   -2.842031635598520E-1
 6.530246519775000E9     5.351349378238486E-1   -1.594390683786664E-1   -2.592857295982276E-2   -5.149925914291670E-2   -2.738709151900541E-2   -5.078269545199128E-2    4.136199895769141E-1   -2.852092452679740E-1
 6.530256134600000E9     5.347830983576372E-1   -1.604524602322590E-1   -2.649293803748056E-2   -5.187670637331947E-2   -2.767013262986207E-2   -5.114860468961314E-2    4.127271728141046E-1   -2.863442118774193E-1
 6.530265749425000E9     5.343631403720317E-1   -1.613726130499175E-1   -2.672327995124596E-2   -5.221406388726146E-2   -2.814369326820727E-2   -5.151042521585168E-2    4.119078086855669E-1   -2.874666000773020E-1
 6.530275364250000E9     5.339864838302528E-1   -1.622943294788630E-1   -2.714101612692455E-2   -5.251859675696563E-2   -2.847962126807415E-2   -5.186140270017951E-2    4.110594035380368E-1   -2.886221870399672E-1
