#  HZ   S   RI   R     50.00 
! Rohde & Schwarz Vector Network Analyzer 
! Rohde-Schwarz,ZNB20-2Port,1311601062101988,3.16
! Created: UTC 3/21/2024, 1:18:03 AM
! freq[Hz]                re:S11                  im:S11                  re:S21                  im:S21                  re:S12                  im:S12                  re:S22                  im:S22
 6.529467280000000E9     5.529183433401236E-1   -9.178888336918128E-2   -9.963988997731491E-3   -3.204112769075360E-2   -1.059558784851761E-2   -3.205530662879313E-2    4.630328957150029E-1   -2.100636412902896E-1
 6.529476753950000E9     5.528259878022181E-1   -9.248706960981377E-2   -9.941329697228662E-3   -3.251282400530225E-2   -1.074296137812295E-2   -3.213545743522393E-2    4.626301448929525E-1   -2.108226824286330E-1
 6.529486227900000E9     5.526124034615180E-1   -9.337186729030802E-2   -1.009848384310925E-2   -3.242560352410316E-2   -1.086900076342728E-2   -3.224366665382503E-2    4.623107212830399E-1   -2.116336533294351E-1
 6.529495701850000E9     5.525756358830256E-1   -9.402230620383972E-2   -1.019684043188476E-2   -3.255870275273815E-2   -1.099192708836084E-2   -3.236118047145745E-2    4.619331602078093E-1   -2.123119663452517E-1
 6.529505175800000E9     5.524694615077183E-1   -9.488895003961267E-2   -1.033775608951406E-2   -3.269972521890353E-2   -1.106937861452109E-2   -3.251696209202286E-2    4.614964993642713E-1   -2.132711907154223E-1
 6.529514649750000E9     5.521962255574283E-1   -9.560141531900618E-2   -1.030853122766071E-2   -3.277823630147772E-2   -1.120212696163607E-2   -3.260294307666987E-2    4.608906856721596E-1   -2.141204808260545E-1
 6.529524123700000E9     5.521086897001147E-1   -9.624280582811949E-2   -1.052142615818656E-2   -3.302533839360031E-2   -1.128119069377376E-2   -3.290243345237229E-2    4.606517030938251E-1   -2.148696974321982E-1
 6.529533597650000E9     5.520873662759043E-1   -9.714812526337423E-2   -1.073594405106016E-2   -3.330192369462417E-2   -1.145130171382693E-2   -3.299274083095614E-2    4.602636780289041E-1   -2.156637363611735E-1
 6.529543071600000E9     5.518200329167455E-1   -9.795669425704280E-2   -1.054852577259379E-2   -3.332866317273434E-2   -1.154264340185642E-2   -3.314907265681904E-2    4.599656759965858E-1   -2.164651434728548E-1
 6.529552545550000E9     5.517223998220036E-1   -9.861646329349204E-2   -1.080735802242901E-2   -3.351019169563835E-2   -1.167401697664215E-2   -3.329222728429145E-2    4.593568638164096E-1   -2.172152356249838E-1
 6.529562019500000E9     5.515607079947855E-1   -9.946876916420062E-2   -1.106743612935985E-2   -3.358318384988160E-2   -1.176749643528506E-2   -3.341017694320003E-2    4.590352660709841E-1   -2.181738187864430E-1
 6.529571493450000E9     5.514969530073057E-1   -1.001452402650984E-1   -1.117810443898474E-2   -3.383970070221821E-2   -1.182353406627329E-2   -3.363036220416787E-2    4.586799564897834E-1   -2.188747283356594E-1
 6.529580967400000E9     5.512399441571953E-1   -1.010040998871662E-1   -1.114839832751456E-2   -3.379703802670191E-2   -1.199508209962201E-2   -3.365639708329839E-2    4.580008001144205E-1   -2.197453317692243E-1
 6.529590441350000E9     5.509788439802372E-1   -1.017580925492580E-1   -1.125418614716500E-2   -3.408793315416295E-2   -1.213788809029541E-2   -3.383641958107833E-2    4.578829384875147E-1   -2.206624986076534E-1
 6.529599915300000E9     5.508802288715698E-1   -1.025614111634040E-1   -1.142640770970363E-2   -3.421458228186920E-2   -1.225976847871495E-2   -3.402084622522856E-2    4.572921323735761E-1   -2.211611286846034E-1
 6.529609389250000E9     5.507885124368320E-1   -1.033265645106431E-1   -1.153681946258200E-2   -3.437652972827035E-2   -1.238969704235803E-2   -3.427417765090073E-2    4.568702930495717E-1   -2.221564195047758E-1
 6.529618863200000E9     5.507476350329747E-1   -1.041025457125138E-1   -1.177710861375428E-2   -3.453808718275184E-2   -1.249754240718132E-2   -3.437867886357709E-2    4.564897196987399E-1   -2.230163193294152E-1
 6.529628337150000E9     5.504525455633379E-1   -1.048467311330479E-1   -1.180283180319481E-2   -3.476090376660144E-2   -1.260819241057205E-2   -3.448920846123295E-2    4.559572878179975E-1   -2.237888190283964E-1
 6.529637811100000E9     5.503417898740506E-1   -1.057614999708899E-1   -1.187161996589222E-2   -3.477366810637905E-2   -1.271341698639151E-2   -3.470213537005582E-2    4.555263993203200E-1   -2.247873139646243E-1
 6.529647285050000E9     5.502028429135332E-1   -1.063688316466770E-1   -1.195787566756759E-2   -3.502045878716656E-2   -1.289209337296638E-2   -3.486421293535184E-2    4.552616615644018E-1   -2.255914909500241E-1
 6.529656759000000E9     5.500516899955482E-1   -1.071884197941916E-1   -1.220348417883481E-2   -3.525606589211332E-2   -1.305952895166767E-2   -3.491329864549546E-2    4.546404593307657E-1   -2.263390702150100E-1
 6.529666232950000E9     5.498253465659004E-1   -1.079621790665039E-1   -1.228512131358528E-2   -3.544285223955389E-2   -1.304849132325242E-2   -3.518541791588460E-2    4.542131785472160E-1   -2.272586677809769E-1
 6.529675706900000E9     5.497922761288117E-1   -1.087201117796064E-1   -1.246322417266879E-2   -3.547274355347655E-2   -1.323973020284412E-2   -3.528051773159399E-2    4.536593948489832E-1   -2.280326200808658E-1
 6.529685180850000E9     5.495815483345151E-1   -1.095375708000422E-1   -1.264362965693024E-2   -3.549722086106278E-2   -1.341305691699016E-2   -3.552203560995237E-2    4.532813832533313E-1   -2.288248028212500E-1
 6.529694654800000E9     5.492711304701735E-1   -1.102923277770979E-1   -1.281739532468498E-2   -3.593897451987525E-2   -1.357924005168492E-2   -3.563023495159651E-2    4.526811165833819E-1   -2.296824408736787E-1
 6.529704128750000E9     5.492204349441914E-1   -1.110323120976935E-1   -1.281201801340055E-2   -3.599128228310181E-2   -1.361434053549762E-2   -3.580985053436984E-2    4.523805262471232E-1   -2.307271794465191E-1
 6.529713602700000E9     5.489919920386993E-1   -1.118878019032555E-1   -1.290406161694267E-2   -3.619526608827664E-2   -1.387714751662921E-2   -3.594990670520719E-2    4.517795498340624E-1   -2.316680655572257E-1
 6.529723076650000E9     5.488278621630973E-1   -1.126873881051384E-1   -1.320803158515834E-2   -3.651922126821484E-2   -1.399397418872919E-2   -3.623412694364334E-2    4.513922300144047E-1   -2.324004622842706E-1
 6.529732550600000E9     5.487492494508457E-1   -1.135243564943814E-1   -1.324129303899611E-2   -3.665395194436145E-2   -1.418635301224234E-2   -3.627296733824539E-2    4.509350950615291E-1   -2.331902008927995E-1
 6.529742024550000E9     5.484488112755127E-1   -1.142744121192259E-1   -1.348208241989747E-2   -3.683133912554907E-2   -1.427100142640442E-2   -3.653071006471601E-2    4.503613273801377E-1   -2.340363534492361E-1
 6.529751498500000E9     5.481719690442990E-1   -1.150197273005624E-1   -1.363011228470503E-2   -3.710906778570489E-2   -1.444092005386260E-2   -3.664107691719970E-2    4.497580961017373E-1   -2.350360598789503E-1
 6.529760972450000E9     5.481844217623868E-1   -1.160063159384123E-1   -1.363559646897161E-2   -3.714931565922702E-2   -1.452028842942420E-2   -3.695338951443085E-2    4.493027980649181E-1   -2.359916512019611E-1
 6.529770446400000E9     5.479628990004625E-1   -1.165837844270372E-1   -1.362446576857769E-2   -3.735387041631566E-2   -1.468343992997385E-2   -3.707814587005225E-2    4.488448649279929E-1   -2.366237620316601E-1
 6.529779920350000E9     5.478365925383296E-1   -1.174447155202156E-1   -1.407527415405309E-2   -3.754521378892697E-2   -1.487241636558910E-2   -3.733475186755036E-2    4.483341040945617E-1   -2.374257254279598E-1
 6.529789394300000E9     5.475293118853912E-1   -1.182368404205980E-1   -1.401993380826125E-2   -3.782890336729097E-2   -1.502397353271527E-2   -3.747610232651893E-2    4.478905037395156E-1   -2.385191374696811E-1
 6.529798868250000E9     5.474547678895231E-1   -1.190314463614974E-1   -1.431198791972316E-2   -3.800259768207735E-2   -1.522156188397080E-2   -3.752655144470503E-2    4.472621786819869E-1   -2.395168235108762E-1
 6.529808342200000E9     5.471393913530709E-1   -1.197462539721795E-1   -1.450859598153362E-2   -3.827468216085586E-2   -1.534885342093037E-2   -3.786177411441377E-2    4.467368413832712E-1   -2.401941586656882E-1
 6.529817816150000E9     5.470466203178248E-1   -1.206325576220385E-1   -1.455258405669048E-2   -3.853212744910544E-2   -1.555188040946693E-2   -3.807967427579135E-2    4.463192310157735E-1   -2.410734208135463E-1
 6.529827290100000E9     5.467364178479240E-1   -1.213916755414405E-1   -1.473596997930800E-2   -3.852697240299081E-2   -1.570091633454915E-2   -3.839250625550188E-2    4.457720913151965E-1   -2.421530517474719E-1
 6.529836764050000E9     5.465579538898809E-1   -1.221522223004941E-1   -1.477286355181558E-2   -3.879310809151890E-2   -1.583626614491059E-2   -3.851951959170942E-2    4.451796699635462E-1   -2.430011939554911E-1
 6.529846238000000E9     5.463157559100467E-1   -1.230800717840014E-1   -1.513655869884338E-2   -3.898560095952304E-2   -1.612403902832023E-2   -3.859730155634902E-2    4.446919491425911E-1   -2.437751606407037E-1
 6.529855711950000E9     5.462540403728393E-1   -1.238758264882007E-1   -1.527564036013172E-2   -3.922664196136696E-2   -1.622518946179841E-2   -3.889787680222064E-2    4.441332166491692E-1   -2.447125532092670E-1
 6.529865185900000E9     5.460489666410436E-1   -1.247089968412395E-1   -1.556561529850799E-2   -3.939099920496546E-2   -1.635563952134013E-2   -3.908958667295438E-2    4.435241369775815E-1   -2.455315773467121E-1
 6.529874659850000E9     5.457822418139153E-1   -1.254520993601513E-1   -1.567373735597333E-2   -3.960074801717937E-2   -1.660033574153966E-2   -3.927911834723224E-2    4.431640103195297E-1   -2.465045262458369E-1
 6.529884133800000E9     5.456242723167640E-1   -1.262548846649084E-1   -1.587717946216722E-2   -4.002732914598806E-2   -1.673572013570710E-2   -3.950644386430224E-2    4.423915459152336E-1   -2.472915858811240E-1
 6.529893607750000E9     5.455241054884501E-1   -1.269731502791474E-1   -1.595094973080066E-2   -4.011242797055903E-2   -1.703729628612883E-2   -3.972153237425688E-2    4.418208501895763E-1   -2.482386452792384E-1
 6.529903081700000E9     5.451355855339969E-1   -1.278734615184748E-1   -1.611195523205221E-2   -4.019112758201662E-2   -1.712155935164444E-2   -3.993336417952637E-2    4.413685361003244E-1   -2.491838519157512E-1
 6.529912555650000E9     5.449756760659623E-1   -1.286816502988425E-1   -1.636383292993061E-2   -4.047217467525395E-2   -1.729852079370821E-2   -4.019202055109702E-2    4.407049095446791E-1   -2.501448752467897E-1
 6.529922029600000E9     5.446528323176066E-1   -1.295093685731847E-1   -1.664297861143706E-2   -4.070475367805347E-2   -1.749282923892395E-2   -4.030083290044079E-2    4.400885505026230E-1   -2.511139805388363E-1
 6.529931503550000E9     5.445040818345305E-1   -1.303274609529025E-1   -1.661108820487045E-2   -4.085437525462433E-2   -1.778403849436242E-2   -4.061326203645777E-2    4.397298682012572E-1   -2.520985574552927E-1
 6.529940977500000E9     5.442506434685378E-1   -1.310832152570580E-1   -1.692003177034830E-2   -4.117138601188877E-2   -1.785441356089868E-2   -4.080468655867523E-2    4.388509454723432E-1   -2.529183006483889E-1
 6.529950451450000E9     5.440837906340901E-1   -1.319878650603646E-1   -1.713692444753203E-2   -4.131192991449386E-2   -1.803071933070860E-2   -4.104281620569748E-2    4.383999844012059E-1   -2.539237572056992E-1
 6.529959925400000E9     5.437745940264875E-1   -1.328018994894328E-1   -1.715481576945353E-2   -4.161005168216192E-2   -1.833985392437431E-2   -4.131669657559123E-2    4.376505463781481E-1   -2.548095657776961E-1
 6.529969399350000E9     5.436604630520722E-1   -1.336716049165605E-1   -1.751476618755376E-2   -4.175683121692492E-2   -1.855699762706370E-2   -4.153134504940329E-2    4.370043423045224E-1   -2.556288053834369E-1
 6.529978873300000E9     5.434584595507136E-1   -1.343734548554305E-1   -1.769980541139103E-2   -4.211841108893665E-2   -1.867187169503837E-2   -4.174365720024024E-2    4.363562241875369E-1   -2.565650714497715E-1
 6.529988347250000E9     5.431070900073693E-1   -1.353238710027244E-1   -1.795702118619337E-2   -4.235684274102680E-2   -1.895710133654421E-2   -4.201962231875667E-2    4.357577229211667E-1   -2.577641811278192E-1
 6.529997821200000E9     5.429145287981628E-1   -1.360910435035881E-1   -1.798847552369670E-2   -4.260780217954040E-2   -1.919266166214554E-2   -4.211658109000976E-2    4.350197562150208E-1   -2.584720643731495E-1
 6.530007295150000E9     5.426857842580206E-1   -1.368869142758651E-1   -1.829227971254594E-2   -4.289855032586176E-2   -1.938799727747387E-2   -4.254390881836816E-2    4.344734291681773E-1   -2.596650892872746E-1
 6.530016769100000E9     5.424667893863052E-1   -1.376475153086112E-1   -1.864817034007221E-2   -4.306014458833065E-2   -1.958839050337147E-2   -4.274801921791609E-2    4.338436020873623E-1   -2.605199545088390E-1
 6.530026243050000E9     5.421475334735356E-1   -1.386251566535819E-1   -1.882767611301091E-2   -4.342462237920545E-2   -1.984746458753175E-2   -4.288815391390367E-2    4.331682621086236E-1   -2.615711502597957E-1
 6.530035717000000E9     5.418463219577937E-1   -1.392918622572641E-1   -1.904647592465642E-2   -4.357830225927878E-2   -2.009535074511040E-2   -4.326681227635999E-2    4.326824963780665E-1   -2.623713775290265E-1
 6.530045190950000E9     5.417511047164367E-1   -1.401617022479609E-1   -1.930831387230480E-2   -4.387638568267171E-2   -2.028091990568752E-2   -4.344981822175075E-2    4.318044957142254E-1   -2.635346192521152E-1
 6.530054664900000E9     5.415799692730555E-1   -1.410746509671719E-1   -1.963867801365525E-2   -4.420232975555341E-2   -2.054058607463960E-2   -4.369179163537733E-2    4.312378038993218E-1   -2.643165922627504E-1
 6.530064138850000E9     5.412244548112448E-1   -1.418612064478826E-1   -1.963518823262188E-2   -4.445577097626385E-2   -2.075972413894391E-2   -4.387717957019549E-2    4.304332768500199E-1   -2.654394857695277E-1
 6.530073612800000E9     5.409545793475021E-1   -1.426103562008904E-1   -1.991670844830713E-2   -4.465149275564229E-2   -2.100704619763619E-2   -4.419647949073804E-2    4.296725261962387E-1   -2.664238729565135E-1
 6.530083086750000E9     5.406972196116968E-1   -1.434810129919599E-1   -2.009691006930344E-2   -4.499688277163561E-2   -2.121603226446937E-2   -4.454193149403633E-2    4.289968922011251E-1   -2.673234613713611E-1
 6.530092560700000E9     5.402900445953135E-1   -1.444309199861228E-1   -2.046754185297479E-2   -4.524040023668568E-2   -2.145733492132628E-2   -4.481756055030622E-2    4.283361564098220E-1   -2.682746323506296E-1
 6.530102034650000E9     5.400580803025136E-1   -1.453095176377756E-1   -2.065897774724415E-2   -4.552028746175225E-2   -2.178628067983862E-2   -4.501168790830298E-2    4.276148923036447E-1   -2.694336475036788E-1
 6.530111508600000E9     5.398625046411377E-1   -1.461698496045161E-1   -2.087264180692444E-2   -4.590833353212679E-2   -2.211340419002804E-2   -4.537132745111821E-2    4.267636305879232E-1   -2.703365686528065E-1
 6.530120982550000E9     5.395625571286886E-1   -1.470226717292326E-1   -2.123210579037290E-2   -4.600840580384730E-2   -2.241874678136610E-2   -4.566351546794518E-2    4.260805511103001E-1   -2.714113629851435E-1
 6.530130456500000E9     5.392769739965539E-1   -1.478880636304788E-1   -2.155056879971206E-2   -4.651868180768559E-2   -2.258555053482164E-2   -4.589850007039865E-2    4.252763662847786E-1   -2.723458757624160E-1
 6.530139930450000E9     5.391137240758671E-1   -1.487130124885384E-1   -2.165695149170268E-2   -4.656763788173862E-2   -2.286282055876884E-2   -4.625831367478878E-2    4.246214950940299E-1   -2.734865777416279E-1
 6.530149404400000E9     5.386965226101867E-1   -1.495124351304911E-1   -2.196005059981766E-2   -4.700644255779553E-2   -2.313045197144891E-2   -4.649960514468369E-2    4.239322957799692E-1   -2.744688597128463E-1
 6.530158878350000E9     5.384129328010028E-1   -1.504185434428044E-1   -2.227310244796930E-2   -4.731547232780971E-2   -2.349662474303200E-2   -4.673940763919211E-2    4.230480929429983E-1   -2.755094716342619E-1
 6.530168352300000E9     5.380407546847470E-1   -1.512526970437139E-1   -2.249325977640552E-2   -4.768218103882041E-2   -2.381463478506494E-2   -4.705542848533179E-2    4.222778113898494E-1   -2.765154843356425E-1
 6.530177826250000E9     5.378546992338543E-1   -1.520842417180361E-1   -2.279267116945493E-2   -4.797168909315083E-2   -2.413782931042362E-2   -4.731846116845480E-2    4.213635651131924E-1   -2.775999572146155E-1
 6.530187300200000E9     5.375436565999875E-1   -1.529715647268638E-1   -2.313408831562789E-2   -4.822758047557415E-2   -2.433010974752400E-2   -4.770452904683201E-2    4.205415437912430E-1   -2.787424551320612E-1
 6.530196774150000E9     5.372460999928863E-1   -1.539411116567560E-1   -2.345625119663377E-2   -4.863321935580638E-2   -2.476431323508928E-2   -4.796413957036044E-2    4.197315106343179E-1   -2.796228262445408E-1
 6.530206248100000E9     5.368706995756763E-1   -1.547026010241548E-1   -2.383231419397781E-2   -4.885149174379336E-2   -2.498541661301977E-2   -4.830350857813463E-2    4.190261580058606E-1   -2.807822602114197E-1
 6.530215722050000E9     5.366033690598403E-1   -1.556066253833685E-1   -2.405844793077861E-2   -4.907890654083974E-2   -2.532331936603616E-2   -4.869531008142626E-2    4.180867362757137E-1   -2.817408115933260E-1
 6.530225196000000E9     5.362644421513403E-1   -1.565120904192586E-1   -2.435149326129888E-2   -4.952644983842988E-2   -2.557481669798504E-2   -4.903251849486167E-2    4.171403332683305E-1   -2.828738217781195E-1
 6.530234669950000E9     5.359853980650289E-1   -1.574427297560794E-1   -2.474974031991531E-2   -4.979065506425339E-2   -2.594889066210647E-2   -4.929763407173063E-2    4.162769533350957E-1   -2.838654688089912E-1
 6.530244143900000E9     5.356907812655013E-1   -1.581864970511526E-1   -2.499362988125224E-2   -5.024508205542308E-2   -2.627810833998126E-2   -4.959990845568481E-2    4.153348324104382E-1   -2.852236325085611E-1
 6.530253617850000E9     5.352511628553652E-1   -1.591392499313565E-1   -2.528449639651874E-2   -5.048627117770715E-2   -2.668557279749425E-2   -4.987666367454742E-2    4.145867764746816E-1   -2.862517537198697E-1
 6.530263091800000E9     5.349548562610128E-1   -1.600309525709524E-1   -2.577225226704175E-2   -5.088601216048581E-2   -2.712338289707423E-2   -5.028687325441918E-2    4.136722640381738E-1   -2.872737549081988E-1
 6.530272565750000E9     5.346835045952885E-1   -1.610986283219118E-1   -2.601560811798290E-2   -5.133356042841239E-2   -2.734115830387962E-2   -5.057058353553458E-2    4.127817726731970E-1   -2.883718427637195E-1
 6.530282039700000E9     5.343236662708630E-1   -1.618624645655586E-1   -2.644407378705146E-2   -5.159914348650516E-2   -2.772703962658628E-2   -5.100997305345793E-2    4.117352551669128E-1   -2.896197001688270E-1
 6.530291513650000E9     5.340128894789021E-1   -1.628231634142361E-1   -2.678159269213050E-2   -5.190014995702049E-2   -2.813845513037009E-2   -5.123498228572628E-2    4.107895479591333E-1   -2.906719686502890E-1
 6.530300987600000E9     5.336207789515198E-1   -1.635907248777385E-1   -2.715339355263279E-2   -5.242285882477304E-2   -2.856703344643764E-2   -5.175292799431749E-2    4.099520682171944E-1   -2.917312793588404E-1
 6.530310461550000E9     5.332119410037131E-1   -1.646063919286234E-1   -2.761055673870181E-2   -5.285626295232954E-2   -2.881363743921696E-2   -5.201647699939051E-2    4.088681943012504E-1   -2.929894997109407E-1
 6.530319935500000E9     5.329556276132144E-1   -1.654853758651550E-1   -2.796840326726906E-2   -5.311163726776916E-2   -2.921595365925933E-2   -5.240785124405123E-2    4.079200362519558E-1   -2.942318228128366E-1
