#  HZ   S   RI   R     50.00 
! Rohde & Schwarz Vector Network Analyzer 
! Rohde-Schwarz,ZNB20-2Port,1311601062101988,3.16
! Created: UTC 3/21/2024, 1:18:10 AM
! freq[Hz]                re:S11                  im:S11                  re:S21                  im:S21                  re:S12                  im:S12                  re:S22                  im:S22
 6.529474840000000E9     5.528934560297756E-1   -9.226433640993235E-2   -9.917012012672852E-3   -3.224524325043936E-2   -1.064480770571860E-2   -3.199614941693293E-2    4.628485918927293E-1   -2.107437757693012E-1
 6.529484299625000E9     5.527150915280692E-1   -9.301068474151497E-2   -9.998827523698423E-3   -3.229184399919221E-2   -1.075122423274396E-2   -3.208868155503815E-2    4.624874808012645E-1   -2.116788879110708E-1
 6.529493759250000E9     5.525302132232162E-1   -9.376438850713058E-2   -1.020162892681423E-2   -3.252432647457322E-2   -1.093355535881440E-2   -3.233489277769315E-2    4.621188486225585E-1   -2.124074727934567E-1
 6.529503218875000E9     5.522760626147641E-1   -9.456433188761008E-2   -1.019621350481562E-2   -3.257870443398229E-2   -1.104699766280227E-2   -3.239906732571649E-2    4.616224076518030E-1   -2.131049362208270E-1
 6.529512678500000E9     5.523529385509794E-1   -9.536343618526212E-2   -1.035322692526379E-2   -3.283458860276227E-2   -1.114974750480828E-2   -3.258343885566045E-2    4.612741209119508E-1   -2.139279621368230E-1
 6.529522138125000E9     5.522595592048385E-1   -9.606167088202559E-2   -1.048224846117931E-2   -3.293437027102046E-2   -1.125733145267859E-2   -3.273248483008025E-2    4.609431994876484E-1   -2.148978190884250E-1
 6.529531597750000E9     5.519010226752197E-1   -9.674697372450260E-2   -1.078758351076309E-2   -3.310960465321358E-2   -1.128892024927496E-2   -3.287381983150799E-2    4.604524492495805E-1   -2.155865408010070E-1
 6.529541057375000E9     5.519193717675898E-1   -9.751699445174468E-2   -1.067046147001174E-2   -3.319069888927133E-2   -1.144838728236841E-2   -3.300837892530959E-2    4.600561059662514E-1   -2.164326442534980E-1
 6.529550517000000E9     5.517174582531235E-1   -9.842169392578730E-2   -1.085795490766871E-2   -3.325527030124346E-2   -1.158204925564234E-2   -3.311035413320658E-2    4.595302619561928E-1   -2.172179922407011E-1
 6.529559976625000E9     5.516976336444878E-1   -9.910240762563995E-2   -1.083989162701160E-2   -3.344279837660170E-2   -1.175873247303133E-2   -3.317175076475648E-2    4.592569447762394E-1   -2.179865732368378E-1
 6.529569436250000E9     5.515201563060251E-1   -9.990668607953798E-2   -1.113359862515530E-2   -3.354553272720987E-2   -1.178078488413676E-2   -3.347077717166162E-2    4.587112285468567E-1   -2.186982377694567E-1
 6.529578895875000E9     5.513922437402429E-1   -1.005612377861011E-1   -1.113219234407271E-2   -3.382011514832837E-2   -1.197085877826603E-2   -3.360321382943941E-2    4.583000493154609E-1   -2.197986344793569E-1
 6.529588355500000E9     5.512514180792180E-1   -1.013861809793492E-1   -1.138214831754427E-2   -3.400662285971815E-2   -1.194804731753837E-2   -3.373394109247592E-2    4.579674669999795E-1   -2.205039916835392E-1
 6.529597815125000E9     5.510870150364969E-1   -1.022147570090329E-1   -1.142458196233063E-2   -3.409463085147414E-2   -1.212475088229362E-2   -3.403012429185181E-2    4.574784785322047E-1   -2.212464847748866E-1
 6.529607274750000E9     5.509013311174839E-1   -1.029988800921335E-1   -1.146946820548731E-2   -3.431719106209334E-2   -1.230624843602819E-2   -3.405792034547737E-2    4.570359672410084E-1   -2.221414527382542E-1
 6.529616734375000E9     5.507319519666440E-1   -1.037869117102174E-1   -1.171282097748409E-2   -3.443595870501626E-2   -1.234055456788437E-2   -3.431415622968557E-2    4.567289572005632E-1   -2.229874786444369E-1
 6.529626194000000E9     5.505484209349962E-1   -1.045810720573768E-1   -1.177507142439765E-2   -3.457552416464670E-2   -1.253029128546843E-2   -3.433494261716741E-2    4.561276866868465E-1   -2.238474556205244E-1
 6.529635653625000E9     5.503464583173928E-1   -1.053132964409487E-1   -1.188672272457468E-2   -3.484538287738800E-2   -1.254391260893886E-2   -3.454539663040145E-2    4.558248318995493E-1   -2.246467270983010E-1
 6.529645113250000E9     5.501831471974405E-1   -1.061001007104060E-1   -1.184385552210358E-2   -3.499278515224311E-2   -1.270935895330801E-2   -3.470085467276709E-2    4.554074227602876E-1   -2.254253729226488E-1
 6.529654572875000E9     5.500818829764593E-1   -1.069045882690023E-1   -1.216499054234870E-2   -3.506244245194579E-2   -1.299500676862981E-2   -3.485290116212110E-2    4.547933591270525E-1   -2.265033677821754E-1
 6.529664032500000E9     5.498582738111663E-1   -1.077025992453699E-1   -1.228941618150978E-2   -3.536685847911485E-2   -1.312089524507954E-2   -3.510838264024686E-2    4.545087282096666E-1   -2.272499459277567E-1
 6.529673492125000E9     5.497628048183377E-1   -1.083917062000914E-1   -1.242023489177830E-2   -3.554057190203862E-2   -1.322668961095658E-2   -3.531018634280323E-2    4.540740220261836E-1   -2.278916346537151E-1
 6.529682951750000E9     5.495527728603073E-1   -1.092386219179913E-1   -1.246374065321177E-2   -3.543610404270167E-2   -1.336419301589900E-2   -3.541127764550440E-2    4.533774290257320E-1   -2.288278694934363E-1
 6.529692411375000E9     5.494131199549741E-1   -1.101284359519505E-1   -1.254035695832936E-2   -3.585927991659243E-2   -1.350249881009698E-2   -3.555121090746548E-2    4.529561102484005E-1   -2.297472240549844E-1
 6.529701871000000E9     5.492293585022471E-1   -1.106934232757974E-1   -1.284010062218097E-2   -3.593332948344682E-2   -1.359097162048510E-2   -3.575973153419065E-2    4.526627341292258E-1   -2.305202220057409E-1
 6.529711330625000E9     5.490609217266135E-1   -1.115416821089818E-1   -1.285231858407260E-2   -3.618223141347976E-2   -1.369811606174842E-2   -3.590241961691477E-2    4.520129435777694E-1   -2.313334733391546E-1
 6.529720790250000E9     5.489706264755930E-1   -1.123140043443461E-1   -1.309072527768481E-2   -3.626498401215779E-2   -1.404464699382393E-2   -3.611431260372416E-2    4.514740419436228E-1   -2.322891769021770E-1
 6.529730249875000E9     5.487124100273985E-1   -1.132517554742316E-1   -1.323302938971050E-2   -3.645190561015230E-2   -1.406216275101876E-2   -3.625683258234695E-2    4.510897486687362E-1   -2.332018910713417E-1
 6.529739709500000E9     5.485416645144858E-1   -1.139021162067538E-1   -1.341718382132513E-2   -3.673624199843847E-2   -1.420707410891686E-2   -3.640980980861255E-2    4.504014559010462E-1   -2.340357208949624E-1
 6.529749169125000E9     5.483570640141860E-1   -1.147362696833425E-1   -1.340382938889268E-2   -3.675194831605939E-2   -1.439675441818617E-2   -3.662347007390959E-2    4.500085501213376E-1   -2.347815153676471E-1
 6.529758628750000E9     5.481045980316795E-1   -1.155793173749302E-1   -1.351857489370919E-2   -3.697331330244703E-2   -1.447956651767932E-2   -3.682220433850746E-2    4.498050390593352E-1   -2.357365515920760E-1
 6.529768088375000E9     5.480087303715713E-1   -1.163244786578538E-1   -1.369911046820047E-2   -3.728636775563785E-2   -1.462129526851357E-2   -3.704037035183649E-2    4.491045832844542E-1   -2.366467604405345E-1
 6.529777548000000E9     5.478837879027154E-1   -1.171134527708991E-1   -1.397862965779831E-2   -3.750812312795983E-2   -1.481339601015224E-2   -3.720229484171828E-2    4.485789588274098E-1   -2.374958777880059E-1
 6.529787007625000E9     5.475068428609988E-1   -1.178921499025105E-1   -1.404933790334356E-2   -3.760448925022786E-2   -1.486542218247438E-2   -3.740355647232647E-2    4.480738241150227E-1   -2.382823574426000E-1
 6.529796467250000E9     5.474469751951072E-1   -1.186457521411327E-1   -1.407988252827171E-2   -3.790148475093351E-2   -1.499297090258714E-2   -3.753526347748677E-2    4.475151816242200E-1   -2.391227119145236E-1
 6.529805926875000E9     5.473025570182264E-1   -1.194543304459949E-1   -1.425547622313941E-2   -3.788710602882227E-2   -1.525056506024139E-2   -3.766326049737478E-2    4.471197665118491E-1   -2.401612030654461E-1
 6.529815386500000E9     5.470529649478043E-1   -1.202175162998058E-1   -1.448044258762140E-2   -3.824622126854536E-2   -1.535976566954014E-2   -3.786601353777629E-2    4.465132989613315E-1   -2.409276661019358E-1
 6.529824846125000E9     5.468490608112119E-1   -1.210953994065245E-1   -1.472015977134625E-2   -3.835073740620049E-2   -1.558473056039609E-2   -3.809108382530933E-2    4.460740199604866E-1   -2.417410048828224E-1
 6.529834305750000E9     5.466605642671361E-1   -1.219169201690350E-1   -1.469779642259898E-2   -3.848860767727447E-2   -1.578459331753597E-2   -3.835209406533549E-2    4.454264931741252E-1   -2.427134900763524E-1
 6.529843765375000E9     5.465204456640725E-1   -1.227021979269555E-1   -1.502828370831623E-2   -3.881461075055528E-2   -1.582878512319112E-2   -3.843843014069034E-2    4.448849803842954E-1   -2.435229320732375E-1
 6.529853225000000E9     5.462190052659655E-1   -1.234851660699259E-1   -1.514618786414451E-2   -3.894238271249778E-2   -1.604443447461725E-2   -3.871448196647731E-2    4.443442693748715E-1   -2.444753251476620E-1
 6.529862684625000E9     5.460508656311904E-1   -1.243122490092945E-1   -1.534980308184785E-2   -3.929341839645733E-2   -1.632205027858858E-2   -3.890155386849622E-2    4.437675262152708E-1   -2.453703944729265E-1
 6.529872144250000E9     5.459366776527631E-1   -1.250377863973780E-1   -1.555868968887347E-2   -3.941519697287917E-2   -1.647727445221839E-2   -3.907279156277869E-2    4.433020314186236E-1   -2.462502469174355E-1
 6.529881603875000E9     5.455977767919408E-1   -1.259755844898763E-1   -1.577990087019306E-2   -3.968332794587583E-2   -1.670446699555411E-2   -3.930411897161375E-2    4.426684196605054E-1   -2.471457745598299E-1
 6.529891063500000E9     5.454223995677907E-1   -1.265514762244789E-1   -1.589436294961716E-2   -3.989999955786978E-2   -1.691723620584047E-2   -3.952394716826378E-2    4.420906180564744E-1   -2.480656700199961E-1
 6.529900523125000E9     5.452713226113306E-1   -1.274105616906914E-1   -1.610900090951868E-2   -4.012040225683861E-2   -1.698626859257982E-2   -3.972060216601320E-2    4.415323916859692E-1   -2.488654185435829E-1
 6.529909982750000E9     5.450478831958927E-1   -1.282992378371385E-1   -1.636140206616854E-2   -4.029068572069773E-2   -1.723069199642547E-2   -3.991420622840330E-2    4.410892634464199E-1   -2.499764331604093E-1
 6.529919442375000E9     5.449355953642068E-1   -1.291299534359580E-1   -1.648390918225600E-2   -4.063615500151561E-2   -1.737798989824518E-2   -4.014114355377391E-2    4.403396626005556E-1   -2.508834366717475E-1
 6.529928902000000E9     5.445338263803493E-1   -1.298941123061034E-1   -1.671849972874508E-2   -4.074882387485700E-2   -1.760418095880101E-2   -4.035573014161049E-2    4.398399619312692E-1   -2.517766662530576E-1
 6.529938361625000E9     5.444633898504782E-1   -1.307371870837111E-1   -1.683920086857213E-2   -4.106456596055970E-2   -1.773616587455564E-2   -4.062122619086616E-2    4.391633841621159E-1   -2.526705163435054E-1
 6.529947821250000E9     5.441897670639626E-1   -1.315541473997335E-1   -1.704245201222790E-2   -4.118752785852475E-2   -1.799003578837409E-2   -4.095154039145155E-2    4.386461369676785E-1   -2.537263246204972E-1
 6.529957280875000E9     5.439044391488670E-1   -1.325058110892582E-1   -1.710225065365211E-2   -4.157901315375530E-2   -1.815184000662905E-2   -4.110121574477236E-2    4.379818703754297E-1   -2.546471618378155E-1
 6.529966740500000E9     5.436263488638420E-1   -1.331728100970068E-1   -1.730839430447104E-2   -4.160182376766423E-2   -1.826446965995470E-2   -4.142059660473614E-2    4.373684734226834E-1   -2.555313785875448E-1
 6.529976200125000E9     5.434339042804468E-1   -1.340134956004913E-1   -1.754615133270700E-2   -4.190986869344387E-2   -1.854076621670108E-2   -4.156312054479146E-2    4.367029158574284E-1   -2.563805035421849E-1
 6.529985659750000E9     5.431084615576632E-1   -1.347567420268855E-1   -1.775924838743912E-2   -4.218525168205604E-2   -1.883748486817212E-2   -4.184706803807564E-2    4.359894593162409E-1   -2.574159738423272E-1
 6.529995119375000E9     5.430854006152686E-1   -1.356323536555208E-1   -1.781266280683064E-2   -4.240656381309737E-2   -1.894626164686363E-2   -4.210250238346668E-2    4.354683857773590E-1   -2.585180824492503E-1
 6.530004579000000E9     5.426588522720726E-1   -1.364686384102012E-1   -1.817392859883722E-2   -4.265395629888948E-2   -1.925779492453974E-2   -4.234668732327971E-2    4.348671491405459E-1   -2.591797629130452E-1
 6.530014038625000E9     5.425171649917264E-1   -1.373840399344790E-1   -1.849994693087279E-2   -4.288843287801358E-2   -1.941981895315200E-2   -4.257142341943218E-2    4.342233553169982E-1   -2.604025458077953E-1
 6.530023498250000E9     5.422999172482876E-1   -1.381548844658880E-1   -1.855351316804929E-2   -4.319187629971607E-2   -1.970738147345527E-2   -4.270831929881436E-2    4.334842172537857E-1   -2.610886220490051E-1
 6.530032957875000E9     5.421140603696091E-1   -1.390390773860926E-1   -1.876495874379099E-2   -4.328545955996364E-2   -1.989443853321796E-2   -4.297439841969085E-2    4.329938436750918E-1   -2.621706535320215E-1
 6.530042417500000E9     5.418796149898955E-1   -1.398516842211394E-1   -1.908504576047624E-2   -4.380770512392130E-2   -2.020215679246044E-2   -4.327208991955610E-2    4.321543268215651E-1   -2.629997378573534E-1
 6.530051877125000E9     5.416456782218538E-1   -1.406727858113489E-1   -1.921820736240120E-2   -4.394856438680134E-2   -2.038642367330148E-2   -4.349626328038809E-2    4.315692613620616E-1   -2.641541773760203E-1
 6.530061336750000E9     5.413317284969827E-1   -1.413894607298169E-1   -1.968886839343984E-2   -4.421734220427037E-2   -2.059064712263326E-2   -4.386490073387303E-2    4.309336802973722E-1   -2.650065363367527E-1
 6.530070796375000E9     5.410646173010378E-1   -1.423831247066257E-1   -1.968594968921742E-2   -4.452893183904563E-2   -2.080011740093883E-2   -4.411555495228460E-2    4.300719656444326E-1   -2.661219265756717E-1
 6.530080256000000E9     5.407668222242589E-1   -1.431524154019865E-1   -2.002057263112265E-2   -4.484436174708378E-2   -2.102548036312389E-2   -4.428080014347269E-2    4.293359463348541E-1   -2.671297173462136E-1
 6.530089715625000E9     5.406495015103170E-1   -1.439765760686567E-1   -2.019428663851023E-2   -4.506157408755555E-2   -2.135980324794746E-2   -4.457203346938315E-2    4.287299521478434E-1   -2.680828883638114E-1
 6.530099175250000E9     5.402986611274307E-1   -1.449652663649389E-1   -2.040942625446384E-2   -4.524274870647322E-2   -2.160455399701324E-2   -4.486286705601480E-2    4.281361854261799E-1   -2.691057182058811E-1
 6.530108634875000E9     5.399878339976664E-1   -1.457092218932128E-1   -2.071332796862671E-2   -4.564803651046972E-2   -2.187261644563731E-2   -4.511140126717456E-2    4.273832742649023E-1   -2.700998689834737E-1
 6.530118094500000E9     5.396953357324384E-1   -1.466093819121236E-1   -2.108990672578371E-2   -4.589758298027089E-2   -2.215011406669704E-2   -4.541855997103213E-2    4.263754359406445E-1   -2.711115480055896E-1
 6.530127554125000E9     5.394905339864037E-1   -1.473558503386568E-1   -2.126984951785199E-2   -4.614332911435208E-2   -2.238675984113053E-2   -4.570293487780498E-2    4.257498850257233E-1   -2.721798280039136E-1
 6.530137013750000E9     5.391570262018435E-1   -1.482243127766419E-1   -2.159632552474421E-2   -4.650812442667777E-2   -2.265690508326388E-2   -4.596866889318646E-2    4.250503104241294E-1   -2.732051384774439E-1
 6.530146473375000E9     5.388858298152485E-1   -1.491531381077841E-1   -2.180099694776906E-2   -4.661148559945845E-2   -2.301708164061739E-2   -4.624146130118004E-2    4.241690341080435E-1   -2.742000792455352E-1
 6.530155933000000E9     5.386352517716152E-1   -1.500108030593218E-1   -2.207166910497144E-2   -4.711276104460940E-2   -2.313896157343629E-2   -4.657140130958433E-2    4.235136410397685E-1   -2.752998279282068E-1
 6.530165392625000E9     5.382119566921720E-1   -1.508640842765161E-1   -2.239452152922398E-2   -4.735777607434400E-2   -2.351248745995597E-2   -4.681860058225809E-2    4.227120769264436E-1   -2.761584698456334E-1
 6.530174852250000E9     5.379852537809751E-1   -1.516005227386505E-1   -2.266566430483718E-2   -4.770205201986796E-2   -2.373783879438624E-2   -4.711116387131269E-2    4.219414670999407E-1   -2.771869570992693E-1
 6.530184311875000E9     5.376924606076686E-1   -1.525334921430906E-1   -2.302745975888595E-2   -4.795354804413558E-2   -2.415234523041196E-2   -4.744661931133557E-2    4.209332197056122E-1   -2.784208675779682E-1
 6.530193771500000E9     5.373829021248586E-1   -1.534273906447010E-1   -2.316012947299928E-2   -4.839527330167702E-2   -2.450834820210045E-2   -4.774830586969551E-2    4.202217568892819E-1   -2.792990781141045E-1
 6.530203231125000E9     5.371606623193212E-1   -1.542657392826753E-1   -2.354881249661219E-2   -4.853913611755103E-2   -2.473310476349012E-2   -4.808107565572915E-2    4.194690246915153E-1   -2.802110202311621E-1
 6.530212690750000E9     5.367873201425075E-1   -1.551680725533399E-1   -2.375366281339934E-2   -4.887796925755614E-2   -2.509219489264997E-2   -4.834769705008028E-2    4.185199731923471E-1   -2.813802999163442E-1
 6.530222150375000E9     5.364146057006801E-1   -1.559100225803134E-1   -2.408417561577365E-2   -4.919504756532510E-2   -2.539312976735944E-2   -4.867014952214067E-2    4.177886099884944E-1   -2.824467384180813E-1
 6.530231610000000E9     5.361283575158260E-1   -1.569076440926694E-1   -2.458227750534264E-2   -4.954189081269460E-2   -2.573057913419045E-2   -4.904414370604705E-2    4.167526510252206E-1   -2.835325252973267E-1
 6.530241069625000E9     5.357786779256050E-1   -1.578224683843786E-1   -2.469815246585593E-2   -5.004541083179791E-2   -2.599460422042860E-2   -4.931735359683724E-2    4.158405702044434E-1   -2.846941820723212E-1
 6.530250529250000E9     5.355383436200316E-1   -1.586838881245396E-1   -2.516476384496700E-2   -5.029019944720634E-2   -2.632177127674824E-2   -4.972741170559703E-2    4.151389043604760E-1   -2.858444514094949E-1
 6.530259988875000E9     5.351373195549842E-1   -1.596195636360636E-1   -2.541393009049547E-2   -5.051206361016636E-2   -2.671125550217832E-2   -5.008604109293945E-2    4.140899439060058E-1   -2.869741758314018E-1
 6.530269448500000E9     5.348667057047526E-1   -1.605372216816350E-1   -2.565540976433395E-2   -5.089403543464370E-2   -2.714313165321870E-2   -5.031097917651194E-2    4.133226387029094E-1   -2.880923966691810E-1
 6.530278908125000E9     5.345314453007612E-1   -1.613843679801096E-1   -2.605654280428773E-2   -5.128266715432418E-2   -2.746552904509128E-2   -5.066214782548291E-2    4.123768849798662E-1   -2.890975559508749E-1
 6.530288367750000E9     5.342112396286373E-1   -1.622217675692608E-1   -2.651634018972694E-2   -5.162679301472025E-2   -2.770253690501787E-2   -5.110896211063051E-2    4.113699122408557E-1   -2.904785052271340E-1
 6.530297827375000E9     5.339397406329813E-1   -1.631801245910621E-1   -2.676937599266535E-2   -5.211456806265843E-2   -2.821735673208655E-2   -5.145059521788514E-2    4.105686753603061E-1   -2.914851375746166E-1
 6.530307287000000E9     5.334370873750498E-1   -1.641709556273629E-1   -2.723031063815776E-2   -5.245130497697482E-2   -2.857860169085917E-2   -5.171435552927811E-2    4.094225849449675E-1   -2.924382394817859E-1
 6.530316746625000E9     5.331678170132375E-1   -1.649294539263317E-1   -2.765778979150194E-2   -5.285954288244935E-2   -2.897798981740733E-2   -5.222009636125757E-2    4.084040142929219E-1   -2.935338213274539E-1
 6.530326206250000E9     5.327343937004353E-1   -1.657944432905665E-1   -2.789936776472727E-2   -5.317269875186627E-2   -2.933397269820949E-2   -5.250295540126848E-2    4.075544826960213E-1   -2.948054458611299E-1
