#  HZ   S   RI   R     50.00 
! Rohde & Schwarz Vector Network Analyzer 
! Rohde-Schwarz,ZNB20-2Port,1311601062101988,3.16
! Created: UTC 3/21/2024, 1:18:22 AM
! freq[Hz]                re:S11                  im:S11                  re:S21                  im:S21                  re:S12                  im:S12                  re:S22                  im:S22
 6.529489210000000E9     5.527355730364641E-1   -9.329464434345269E-2   -9.976292757063568E-3   -3.223371637469465E-2   -1.078915437460837E-2   -3.212005669967024E-2    4.623455248635708E-1   -2.117811048940518E-1
 6.529498635450000E9     5.525672825695629E-1   -9.406566392442239E-2   -1.011054442248471E-2   -3.242566210089775E-2   -1.089256901694256E-2   -3.220238455014331E-2    4.618628861252219E-1   -2.127025925079296E-1
 6.529508060900000E9     5.523556425628636E-1   -9.484448483852079E-2   -1.017332511110985E-2   -3.255675058208819E-2   -1.098672866229669E-2   -3.228715501473754E-2    4.616346359805121E-1   -2.135502215931070E-1
 6.529517486350000E9     5.522687325960343E-1   -9.554945569461719E-2   -1.030130798755156E-2   -3.266838984978017E-2   -1.108104993939199E-2   -3.254774699789802E-2    4.611376024414745E-1   -2.143305487021440E-1
 6.529526911800000E9     5.522027849343479E-1   -9.621926815332732E-2   -1.048142012798084E-2   -3.285298216360891E-2   -1.115486685490086E-2   -3.263122855493611E-2    4.606769083585051E-1   -2.150775549639417E-1
 6.529536337250000E9     5.521144781614978E-1   -9.704405126692203E-2   -1.049290702574213E-2   -3.296810328763324E-2   -1.135858206946740E-2   -3.280788992930533E-2    4.603260727640013E-1   -2.158795400468257E-1
 6.529545762700000E9     5.519441343963504E-1   -9.786850778874703E-2   -1.079113877047950E-2   -3.319177854604635E-2   -1.154755879383717E-2   -3.297257946719562E-2    4.599232237531574E-1   -2.167083515308969E-1
 6.529555188150000E9     5.516904345673147E-1   -9.847881390098692E-2   -1.079085216799891E-2   -3.339157602672819E-2   -1.159051749400597E-2   -3.322301213007506E-2    4.595801974298019E-1   -2.174821096970941E-1
 6.529564613600000E9     5.515551456641864E-1   -9.934214494549934E-2   -1.089875210937403E-2   -3.360616284520315E-2   -1.167737891685910E-2   -3.329212867652127E-2    4.590123795252439E-1   -2.182413272718377E-1
 6.529574039050000E9     5.513667617908382E-1   -1.002074828618017E-1   -1.110588658326671E-2   -3.368205001904678E-2   -1.167976406049032E-2   -3.339761156208647E-2    4.586070988892562E-1   -2.191268777283089E-1
 6.529583464500000E9     5.512582554601200E-1   -1.009377798345620E-1   -1.109365801545945E-2   -3.379345984944414E-2   -1.199612124546954E-2   -3.353475622960813E-2    4.582834515657083E-1   -2.199045179859892E-1
 6.529592889950000E9     5.511538599856858E-1   -1.015701123173011E-1   -1.124793332747618E-2   -3.405633320673290E-2   -1.204641946239625E-2   -3.373266173841197E-2    4.577473543004583E-1   -2.207850960787357E-1
 6.529602315400000E9     5.509773255027671E-1   -1.024270656466410E-1   -1.133971778128065E-2   -3.410126658759452E-2   -1.206921105660747E-2   -3.382883738319810E-2    4.573151133956958E-1   -2.214529086687403E-1
 6.529611740850000E9     5.507724058320328E-1   -1.031719683463675E-1   -1.147852606753827E-2   -3.429214846760729E-2   -1.219956348579077E-2   -3.397280533464427E-2    4.569565011060963E-1   -2.223747186797934E-1
 6.529621166300000E9     5.506289682937819E-1   -1.038327960750491E-1   -1.152485464436803E-2   -3.437789795752944E-2   -1.236729340165499E-2   -3.419257844200480E-2    4.564002749859618E-1   -2.234118021610016E-1
 6.529630591750000E9     5.505135801151116E-1   -1.047533371374193E-1   -1.163761650319662E-2   -3.463853872474089E-2   -1.256112184433300E-2   -3.426157709184857E-2    4.561381242829717E-1   -2.241372756765472E-1
 6.529640017200000E9     5.503550000515383E-1   -1.054258524611242E-1   -1.178908788813943E-2   -3.469328951803709E-2   -1.267830497292624E-2   -3.449108315246709E-2    4.555395207832981E-1   -2.247359504064641E-1
 6.529649442650000E9     5.501257688941301E-1   -1.062479429087154E-1   -1.194114547195338E-2   -3.493630343599582E-2   -1.274919448253052E-2   -3.464813349627934E-2    4.552087744275116E-1   -2.257964193403779E-1
 6.529658868100000E9     5.500857055505078E-1   -1.071534535066578E-1   -1.228138264629450E-2   -3.505693546046566E-2   -1.283954734537745E-2   -3.489784140943426E-2    4.547204114849355E-1   -2.265628437357031E-1
 6.529668293550000E9     5.498649311745608E-1   -1.079491047072074E-1   -1.226085291154747E-2   -3.518181377677870E-2   -1.299520235930134E-2   -3.500892233372065E-2    4.543010845421042E-1   -2.275024643518858E-1
 6.529677719000000E9     5.498081776042306E-1   -1.085790665005939E-1   -1.231305110555410E-2   -3.533042274198250E-2   -1.321801570490416E-2   -3.498784656551167E-2    4.538475339951218E-1   -2.282480175553979E-1
 6.529687144450000E9     5.495187852919974E-1   -1.094002708905119E-1   -1.252846644364776E-2   -3.558049447399608E-2   -1.328844018173239E-2   -3.532633955669950E-2    4.532364865358994E-1   -2.289894850148070E-1
 6.529696569900000E9     5.493931586882317E-1   -1.101715600635067E-1   -1.261271379781744E-2   -3.568212340099887E-2   -1.337322163528593E-2   -3.544529245094463E-2    4.529656534703041E-1   -2.298506250329888E-1
 6.529705995350000E9     5.493181569290899E-1   -1.111110820207811E-1   -1.272615664598973E-2   -3.579148659286373E-2   -1.359260514684526E-2   -3.564141439260807E-2    4.523595702208265E-1   -2.307641746139202E-1
 6.529715420800000E9     5.490276348229651E-1   -1.117080630021763E-1   -1.282230123690730E-2   -3.607188797678598E-2   -1.368655299630608E-2   -3.581368807558829E-2    4.519386510874931E-1   -2.315044289505164E-1
 6.529724846250000E9     5.488806818459905E-1   -1.126119793326103E-1   -1.294529061184408E-2   -3.633713154236333E-2   -1.385280951929497E-2   -3.602641700284531E-2    4.513185238427744E-1   -2.324995368751493E-1
 6.529734271700000E9     5.486753078859417E-1   -1.131670645077431E-1   -1.319069071654892E-2   -3.659849444072750E-2   -1.393734986478505E-2   -3.614955144286213E-2    4.511088858681802E-1   -2.332129113530977E-1
 6.529743697150000E9     5.485677188528782E-1   -1.140155992276446E-1   -1.335614088931807E-2   -3.661080286294899E-2   -1.420341458658208E-2   -3.642596344363200E-2    4.504737253427688E-1   -2.340896799174410E-1
 6.529753122600000E9     5.483616184285544E-1   -1.149029455167143E-1   -1.334974456458175E-2   -3.691088467946960E-2   -1.432689175289172E-2   -3.656314563431692E-2    4.500390120967659E-1   -2.350518782398045E-1
 6.529762548050000E9     5.481546151045172E-1   -1.156039899883371E-1   -1.351773835688250E-2   -3.697406675583492E-2   -1.446652855805997E-2   -3.672334152356216E-2    4.495843053388493E-1   -2.359587591111556E-1
 6.529771973500000E9     5.480131697512803E-1   -1.163850997137820E-1   -1.381730285315476E-2   -3.709706983396972E-2   -1.457059609429608E-2   -3.685457828491876E-2    4.490797503502564E-1   -2.367650372214714E-1
 6.529781398950000E9     5.477915789579878E-1   -1.171866681028609E-1   -1.376665554130212E-2   -3.737167172837869E-2   -1.472972286256045E-2   -3.710728598571560E-2    4.485562033598384E-1   -2.377118401178661E-1
 6.529790824400000E9     5.476970401137826E-1   -1.180205298888265E-1   -1.399261570143570E-2   -3.753825973793964E-2   -1.487353945438902E-2   -3.720001568993821E-2    4.479552197887525E-1   -2.384569727679076E-1
 6.529800249850000E9     5.473835357796163E-1   -1.186995929331884E-1   -1.414988013072258E-2   -3.776243681097088E-2   -1.506688183488590E-2   -3.740867306686557E-2    4.474638078342236E-1   -2.393787332209684E-1
 6.529809675300000E9     5.473396757208068E-1   -1.196826551634841E-1   -1.426942593294086E-2   -3.805028409093722E-2   -1.514143131737842E-2   -3.762562370468104E-2    4.469336352224794E-1   -2.401999067022611E-1
 6.529819100750000E9     5.471466700975750E-1   -1.205061327291324E-1   -1.435882292381188E-2   -3.823620210036725E-2   -1.537442928370647E-2   -3.780444494506643E-2    4.464322950958948E-1   -2.411396432461020E-1
 6.529828526200000E9     5.467477967574849E-1   -1.212587074372171E-1   -1.464666881032513E-2   -3.826555202507290E-2   -1.556611298246629E-2   -3.797192268808549E-2    4.459449067284403E-1   -2.420109565322636E-1
 6.529837951650000E9     5.467355666262764E-1   -1.220872238112404E-1   -1.476821467266899E-2   -3.871268553050709E-2   -1.574520222913770E-2   -3.821122227361490E-2    4.454188945006750E-1   -2.427919779343896E-1
 6.529847377100000E9     5.464953795656639E-1   -1.228037449511388E-1   -1.503604963878874E-2   -3.876794284047664E-2   -1.591490857951012E-2   -3.845709395490645E-2    4.448456370473458E-1   -2.437456374923293E-1
 6.529856802550000E9     5.463122237456389E-1   -1.234762296141970E-1   -1.488438524442208E-2   -3.896650698725675E-2   -1.605000607690854E-2   -3.867895392312015E-2    4.443633224276425E-1   -2.444643704132804E-1
 6.529866228000000E9     5.460484683105028E-1   -1.243086162946409E-1   -1.529732518598646E-2   -3.914075922233286E-2   -1.620191968175856E-2   -3.885111532147632E-2    4.438381675333367E-1   -2.455420408047342E-1
 6.529875653450000E9     5.459063959296235E-1   -1.252923812366138E-1   -1.548835748754231E-2   -3.927431687293136E-2   -1.652413806040016E-2   -3.907436789187684E-2    4.432479469947906E-1   -2.465258785116576E-1
 6.529885078900000E9     5.457683608700743E-1   -1.259217881444723E-1   -1.560757193556018E-2   -3.964141306894468E-2   -1.660354295124260E-2   -3.927941108326467E-2    4.426296447195208E-1   -2.473094310294582E-1
 6.529894504350000E9     5.454574410417546E-1   -1.267147151714167E-1   -1.573834605273268E-2   -3.987015304512830E-2   -1.679046256871687E-2   -3.940968315584913E-2    4.421648288291535E-1   -2.482339225173304E-1
 6.529903929800000E9     5.452238340840071E-1   -1.275501487081467E-1   -1.596919483352575E-2   -4.005218008833131E-2   -1.699554976894949E-2   -3.957540599062975E-2    4.415389241804593E-1   -2.491655171418024E-1
 6.529913355250000E9     5.450630587126685E-1   -1.284098926015506E-1   -1.620598481627443E-2   -4.024833052617728E-2   -1.710391188038592E-2   -3.978678414470761E-2    4.409038911937848E-1   -2.500027095543416E-1
 6.529922780700000E9     5.447862568314783E-1   -1.292827546016538E-1   -1.634006614568832E-2   -4.037009115354901E-2   -1.728181764051594E-2   -4.009414291374196E-2    4.403911856885626E-1   -2.509659421256294E-1
 6.529932206150000E9     5.445036813945406E-1   -1.300242333925546E-1   -1.653790489834527E-2   -4.062377384615015E-2   -1.749045112685239E-2   -4.019030209228903E-2    4.398572825470918E-1   -2.519040484935799E-1
 6.529941631600000E9     5.443380769018465E-1   -1.306991186279299E-1   -1.667922350504025E-2   -4.091360548743080E-2   -1.776980879865309E-2   -4.050115127536270E-2    4.393621955845261E-1   -2.527507971048900E-1
 6.529951057050000E9     5.441478978137408E-1   -1.316018171329769E-1   -1.690203117574767E-2   -4.130826059903780E-2   -1.788830677622138E-2   -4.067538686043326E-2    4.386077767617521E-1   -2.538051690081192E-1
 6.529960482500000E9     5.439430409991135E-1   -1.323860589539738E-1   -1.704169903226661E-2   -4.142388167418705E-2   -1.818145346640016E-2   -4.092526270863846E-2    4.380343079293428E-1   -2.547474958555538E-1
 6.529969907950000E9     5.437057040959706E-1   -1.331875059461277E-1   -1.728820592763831E-2   -4.150792190417300E-2   -1.834565014300239E-2   -4.122722491883390E-2    4.373426774903780E-1   -2.556149788758621E-1
 6.529979333400000E9     5.434647207691103E-1   -1.341408045610830E-1   -1.750176870125670E-2   -4.165671648763420E-2   -1.856837889048357E-2   -4.141100573702791E-2    4.367355967274117E-1   -2.564932503495320E-1
 6.529988758850000E9     5.432623107876099E-1   -1.348591598884969E-1   -1.772952982134822E-2   -4.198737067563757E-2   -1.882253434865009E-2   -4.163069994240025E-2    4.361665515476434E-1   -2.574762356950102E-1
 6.529998184300000E9     5.429482307883094E-1   -1.358247993475519E-1   -1.785771296717509E-2   -4.228122677021579E-2   -1.900593981248778E-2   -4.195235485767253E-2    4.356171358341654E-1   -2.584013661737868E-1
 6.530007609750000E9     5.427988260695201E-1   -1.365465465265868E-1   -1.810671584754910E-2   -4.250672000547195E-2   -1.910836885730934E-2   -4.211958543872626E-2    4.347736563114928E-1   -2.593943810407837E-1
 6.530017035200000E9     5.426651431197751E-1   -1.373433454564818E-1   -1.821667498653912E-2   -4.271381876900108E-2   -1.933771719489814E-2   -4.235350841915082E-2    4.342303389753386E-1   -2.601532665610726E-1
 6.530026460650000E9     5.424282578736913E-1   -1.381781442914934E-1   -1.851612750460523E-2   -4.306729194757180E-2   -1.953765183726268E-2   -4.261772507595334E-2    4.335593214486178E-1   -2.612343311796126E-1
 6.530035886100000E9     5.419916253939617E-1   -1.390658447282274E-1   -1.882421029111991E-2   -4.328932082058237E-2   -1.980399125699479E-2   -4.285769137231149E-2    4.328947507913076E-1   -2.622063961556466E-1
 6.530045311550000E9     5.417613867606682E-1   -1.398661593647024E-1   -1.891102735005186E-2   -4.358188833857283E-2   -2.014431201887742E-2   -4.316261775271049E-2    4.320976261735159E-1   -2.632317606901605E-1
 6.530054737000000E9     5.415933724050821E-1   -1.407593944670731E-1   -1.912433574722822E-2   -4.388826741446862E-2   -2.027016874289625E-2   -4.343562509372688E-2    4.315928587814510E-1   -2.641005295530104E-1
 6.530064162450000E9     5.413616651953342E-1   -1.416482964473312E-1   -1.952635924492899E-2   -4.408849875061666E-2   -2.053999495098455E-2   -4.372595679219118E-2    4.309718416040624E-1   -2.650646187317122E-1
 6.530073587900000E9     5.410332397629174E-1   -1.423289466781221E-1   -1.967584671140125E-2   -4.442726326344113E-2   -2.072965512885580E-2   -4.391425040728089E-2    4.301889551484243E-1   -2.660071914550894E-1
 6.530083013350000E9     5.407970057918076E-1   -1.431727971797568E-1   -1.991455106370537E-2   -4.459898336994563E-2   -2.095776876232579E-2   -4.416429743193185E-2    4.294716321014534E-1   -2.670813049234415E-1
 6.530092438800000E9     5.405667394934818E-1   -1.440616426212569E-1   -2.012795481431344E-2   -4.486881529260744E-2   -2.115744537477253E-2   -4.440817790395576E-2    4.286842614864769E-1   -2.681568370399239E-1
 6.530101864250000E9     5.402542240449292E-1   -1.448787319891041E-1   -2.041639564255339E-2   -4.518409197673862E-2   -2.140847856643176E-2   -4.469861028032174E-2    4.280992651963887E-1   -2.690531731648263E-1
 6.530111289700000E9     5.399768049706529E-1   -1.456036978497180E-1   -2.049260363391945E-2   -4.536864921164792E-2   -2.174748292171527E-2   -4.496688198238639E-2    4.273270551927623E-1   -2.699085266121950E-1
 6.530120715150000E9     5.397625593500345E-1   -1.465231121807864E-1   -2.085942998731622E-2   -4.571790020848617E-2   -2.208805527240568E-2   -4.527489890864143E-2    4.266324936549770E-1   -2.710539827877363E-1
 6.530130140600000E9     5.394650473190773E-1   -1.473772432368658E-1   -2.112752024053749E-2   -4.595004877072626E-2   -2.223596815470066E-2   -4.548994305968575E-2    4.257910973151918E-1   -2.719712027381208E-1
 6.530139566050000E9     5.393075322425017E-1   -1.482903017381363E-1   -2.146919752030605E-2   -4.624527087812696E-2   -2.257562031426482E-2   -4.582440100867848E-2    4.251040043359249E-1   -2.730994561697764E-1
 6.530148991500000E9     5.389996442959011E-1   -1.491245581020867E-1   -2.173293560376259E-2   -4.657107517307579E-2   -2.280665417546838E-2   -4.612271198978219E-2    4.243293767843345E-1   -2.742187279606650E-1
 6.530158416950000E9     5.386824259664038E-1   -1.498909563237664E-1   -2.184262499193181E-2   -4.700272153968318E-2   -2.308921895453910E-2   -4.636276321482449E-2    4.236924850097494E-1   -2.751705885801404E-1
 6.530167842400000E9     5.383501424523852E-1   -1.507867698563441E-1   -2.218814120599489E-2   -4.722824772172252E-2   -2.341939592545298E-2   -4.662171931170404E-2    4.228686521913922E-1   -2.762693940643208E-1
 6.530177267850000E9     5.380340226256662E-1   -1.515835804962179E-1   -2.244414544125392E-2   -4.748804967570226E-2   -2.368046567362802E-2   -4.701375026188695E-2    4.221550681821525E-1   -2.773750651886696E-1
 6.530186693300000E9     5.377492410641997E-1   -1.525119293634647E-1   -2.277967646337417E-2   -4.783879857579262E-2   -2.396109960911701E-2   -4.732625963054933E-2    4.212143000646053E-1   -2.781199222525050E-1
 6.530196118750000E9     5.375034698547380E-1   -1.534080900629814E-1   -2.305022983297034E-2   -4.800665679759360E-2   -2.424555591835585E-2   -4.758851145035827E-2    4.203635713111553E-1   -2.792675620385880E-1
 6.530205544200000E9     5.371834520489651E-1   -1.542997509134659E-1   -2.348058755340060E-2   -4.835769787300379E-2   -2.463962872792633E-2   -4.782608117075714E-2    4.196599766277540E-1   -2.802415292337999E-1
 6.530214969650000E9     5.367761009764156E-1   -1.550955574030619E-1   -2.358864181451035E-2   -4.876443869688904E-2   -2.485069496883365E-2   -4.825828980558594E-2    4.187276815968315E-1   -2.814739512146917E-1
 6.530224395100000E9     5.364642834620607E-1   -1.560325514849480E-1   -2.403399657985499E-2   -4.904340375456185E-2   -2.523710637249142E-2   -4.851868710925972E-2    4.179441529893878E-1   -2.824808624027587E-1
 6.530233820550000E9     5.361576586366293E-1   -1.569729343840041E-1   -2.433885147771302E-2   -4.949777870774018E-2   -2.559611924729369E-2   -4.884036424610574E-2    4.169796681407186E-1   -2.835652935332330E-1
 6.530243246000000E9     5.359838099663545E-1   -1.577759918106581E-1   -2.461731484561822E-2   -4.960704157934420E-2   -2.584579295234574E-2   -4.913388120250298E-2    4.161669916151201E-1   -2.846969786571151E-1
 6.530252671450000E9     5.355479546081503E-1   -1.586156079083119E-1   -2.485389982231371E-2   -4.995435041198164E-2   -2.624570893274344E-2   -4.948627332615706E-2    4.154396172615673E-1   -2.858180995199113E-1
 6.530262096900000E9     5.351738401185862E-1   -1.595123217754283E-1   -2.533873520990041E-2   -5.058614171773923E-2   -2.646566133688536E-2   -4.990925020303283E-2    4.145061445310535E-1   -2.867972260505953E-1
 6.530271522350000E9     5.348527025207008E-1   -1.602811273210521E-1   -2.562000707230501E-2   -5.080230149762035E-2   -2.688840417827415E-2   -5.011607400306513E-2    4.134144366019227E-1   -2.878788164054549E-1
 6.530280947800000E9     5.346408870706154E-1   -1.613135017704924E-1   -2.601125295871829E-2   -5.115980720823394E-2   -2.714653438015595E-2   -5.052223590021129E-2    4.127126549204404E-1   -2.890412093863543E-1
 6.530290373250000E9     5.343626963001624E-1   -1.622833052517888E-1   -2.639636031983910E-2   -5.154071645221888E-2   -2.756129514263483E-2   -5.088140771071210E-2    4.116519059842251E-1   -2.899983857188144E-1
 6.530299798700000E9     5.339745087347906E-1   -1.629953507239429E-1   -2.665925160094470E-2   -5.177061482240047E-2   -2.793646257701290E-2   -5.114101285665686E-2    4.106934354618356E-1   -2.912334541895884E-1
 6.530309224150000E9     5.335686411585446E-1   -1.639682279069050E-1   -2.703269222420936E-2   -5.215586197983597E-2   -2.841914615266078E-2   -5.166799155276916E-2    4.097027734246431E-1   -2.924077565383773E-1
 6.530318649600000E9     5.332215887416273E-1   -1.648430802433145E-1   -2.745996762264149E-2   -5.261179779362019E-2   -2.862139651398885E-2   -5.196418402459334E-2    4.087028855126743E-1   -2.934021794949259E-1
 6.530328075050000E9     5.328051970035432E-1   -1.656714797346013E-1   -2.769469402552912E-2   -5.304016716249483E-2   -2.915451065425900E-2   -5.230061242807844E-2    4.078292219957207E-1   -2.947001073458527E-1
 6.530337500500000E9     5.325601915348724E-1   -1.667393047683269E-1   -2.806216307180837E-2   -5.342982164797098E-2   -2.955349540995704E-2   -5.257688448901374E-2    4.067570525896074E-1   -2.957427778625100E-1
