#  HZ   S   RI   R     50.00 
! Rohde & Schwarz Vector Network Analyzer 
! Rohde-Schwarz,ZNB20-2Port,1311601062101988,3.16
! Created: UTC 3/21/2024, 1:18:27 AM
! freq[Hz]                re:S11                  im:S11                  re:S21                  im:S21                  re:S12                  im:S12                  re:S22                  im:S22
 6.529495601000000E9     5.526068723511727E-1   -9.358273975821924E-2   -1.013489391014958E-2   -3.248033900375451E-2   -1.076222405105796E-2   -3.219304756152187E-2    4.619692748479597E-1   -2.123794205146781E-1
 6.529505008400000E9     5.525910400148387E-1   -9.444620244048015E-2   -1.029304798572858E-2   -3.255474711151208E-2   -1.095866885557834E-2   -3.229685859157706E-2    4.616797342688837E-1   -2.132399471666223E-1
 6.529514415800000E9     5.524059849995747E-1   -9.520729339501803E-2   -1.027623103955712E-2   -3.259031368034800E-2   -1.105578948048003E-2   -3.240328331743196E-2    4.612911706963075E-1   -2.139583985876498E-1
 6.529523823200000E9     5.522435615106405E-1   -9.601580145323897E-2   -1.042593674592562E-2   -3.279133879161844E-2   -1.108319873968612E-2   -3.258162020231841E-2    4.609254518185543E-1   -2.147751672588654E-1
 6.529533230600000E9     5.520967693627755E-1   -9.670699653268366E-2   -1.047825278112026E-2   -3.289446495087855E-2   -1.112072189570048E-2   -3.274611232361107E-2    4.605415946262631E-1   -2.155844851841797E-1
 6.529542638000000E9     5.518948726234095E-1   -9.745124947640234E-2   -1.069159957311525E-2   -3.307180309242073E-2   -1.135605589820837E-2   -3.283877774849411E-2    4.601668076836041E-1   -2.162718236912965E-1
 6.529552045400000E9     5.518393372226839E-1   -9.821394940051287E-2   -1.083325789761632E-2   -3.318946714423109E-2   -1.145794261025799E-2   -3.297815598974351E-2    4.595974257647032E-1   -2.172805585039284E-1
 6.529561452800000E9     5.516808303687694E-1   -9.903039957917895E-2   -1.083346912933912E-2   -3.329284015276204E-2   -1.154844065407605E-2   -3.321202893281541E-2    4.592849308279125E-1   -2.181093510872620E-1
 6.529570860200000E9     5.515308973249907E-1   -9.973059491531028E-2   -1.092136521610924E-2   -3.346680054559142E-2   -1.166726891986097E-2   -3.330042172357989E-2    4.588164463412812E-1   -2.188214357234295E-1
 6.529580267600000E9     5.513643516369316E-1   -1.005647050692960E-1   -1.090900474327423E-2   -3.380019579842151E-2   -1.176284866216776E-2   -3.351456306962314E-2    4.585012654664124E-1   -2.195607903108300E-1
 6.529589675000000E9     5.512176883698829E-1   -1.012959655104680E-1   -1.116577900745772E-2   -3.382712692382062E-2   -1.193502043373588E-2   -3.364763463871241E-2    4.580533697818276E-1   -2.204296266339906E-1
 6.529599082400000E9     5.510480585695965E-1   -1.021114270112620E-1   -1.122478216362918E-2   -3.387447711408446E-2   -1.210011691870457E-2   -3.374395957819740E-2    4.576777020202021E-1   -2.212156370497473E-1
 6.529608489800000E9     5.509415057012927E-1   -1.028985938232730E-1   -1.145738183894025E-2   -3.412778573455084E-2   -1.222030179593826E-2   -3.398595993350145E-2    4.570934544037293E-1   -2.220558867967161E-1
 6.529617897200000E9     5.508242363721293E-1   -1.035850426450518E-1   -1.162422416626598E-2   -3.431901423527989E-2   -1.231383066536831E-2   -3.411311686094937E-2    4.566925367082231E-1   -2.228015392537020E-1
 6.529627304600000E9     5.505840036463554E-1   -1.043493653734152E-1   -1.162262206138464E-2   -3.441653097265351E-2   -1.236567163649414E-2   -3.426487080904397E-2    4.562457331680796E-1   -2.238462229674153E-1
 6.529636712000000E9     5.504900330992836E-1   -1.051720026821614E-1   -1.166037991385531E-2   -3.472902558060130E-2   -1.259655484478200E-2   -3.442344545042909E-2    4.558947956609838E-1   -2.244826703290084E-1
 6.529646119400000E9     5.502175418466466E-1   -1.059788820859930E-1   -1.194788756802285E-2   -3.469873456893521E-2   -1.272468393597899E-2   -3.452540616822015E-2    4.553253732896109E-1   -2.252193298221330E-1
 6.529655526800000E9     5.500961350264969E-1   -1.067404016756776E-1   -1.210266623669321E-2   -3.493584686473257E-2   -1.282386558420130E-2   -3.471715449836368E-2    4.550067867281428E-1   -2.260688950430245E-1
 6.529664934200000E9     5.500181420167319E-1   -1.074774133686609E-1   -1.218399386550176E-2   -3.521384755403998E-2   -1.293130440948407E-2   -3.487778959577940E-2    4.544181441464372E-1   -2.269688601006457E-1
 6.529674341600000E9     5.497166922031710E-1   -1.082489900087303E-1   -1.223753702262934E-2   -3.545344447591883E-2   -1.308663430965192E-2   -3.511697002684652E-2    4.540158644981120E-1   -2.278350512871401E-1
 6.529683749000000E9     5.495744942090041E-1   -1.090031284989561E-1   -1.236574688168773E-2   -3.535894681869498E-2   -1.306780460838436E-2   -3.522844160368874E-2    4.534872248593338E-1   -2.286757066814713E-1
 6.529693156400000E9     5.495016688019249E-1   -1.099792138082814E-1   -1.248251410372605E-2   -3.543382878531462E-2   -1.333771225663931E-2   -3.533155006307521E-2    4.530145686301487E-1   -2.295789585000023E-1
 6.529702563800000E9     5.492918080791839E-1   -1.104593915820718E-1   -1.269005521917051E-2   -3.580966178089733E-2   -1.352235992604147E-2   -3.556300566110474E-2    4.526944749925794E-1   -2.302629718200838E-1
 6.529711971200000E9     5.491446829301941E-1   -1.112667086393217E-1   -1.278525903444702E-2   -3.591632150244872E-2   -1.358079242843465E-2   -3.586312413020246E-2    4.523387517652764E-1   -2.311280713003178E-1
 6.529721378600000E9     5.489376211499217E-1   -1.121046912985473E-1   -1.292066700340228E-2   -3.612260744776153E-2   -1.378492380869609E-2   -3.585601144528546E-2    4.517458506903266E-1   -2.319962344977622E-1
 6.529730786000000E9     5.487670232627000E-1   -1.129011480478915E-1   -1.304778131944609E-2   -3.628125906495552E-2   -1.389697581257018E-2   -3.604726998542052E-2    4.512843406417191E-1   -2.330750929130930E-1
 6.529740193400000E9     5.485898191830524E-1   -1.136306623751197E-1   -1.311915501637416E-2   -3.654754586356677E-2   -1.410009070568855E-2   -3.630020899136908E-2    4.507066255678915E-1   -2.338462213094744E-1
 6.529749600800000E9     5.483623213347409E-1   -1.144592884846822E-1   -1.345987542882177E-2   -3.673290224489584E-2   -1.421462336019889E-2   -3.636548702496443E-2    4.502205520581502E-1   -2.345820875546412E-1
 6.529759008200000E9     5.482953983513876E-1   -1.151824395925427E-1   -1.340304901253080E-2   -3.684564094726213E-2   -1.430808676955910E-2   -3.664332297731850E-2    4.497702456126092E-1   -2.355480508766207E-1
 6.529768415600000E9     5.481442533450649E-1   -1.161749919511347E-1   -1.370270633736904E-2   -3.715213544159998E-2   -1.446915535468199E-2   -3.678323306976692E-2    4.492946294392633E-1   -2.364474395606374E-1
 6.529777823000000E9     5.479460708741370E-1   -1.169107056077507E-1   -1.384056409827906E-2   -3.715428515834041E-2   -1.468363256015429E-2   -3.691445303635974E-2    4.487920807936973E-1   -2.372725066640431E-1
 6.529787230400000E9     5.477668909511488E-1   -1.174984403488215E-1   -1.393727492613140E-2   -3.733176744831976E-2   -1.477274679471328E-2   -3.705426415761963E-2    4.483646335605253E-1   -2.379645793263746E-1
 6.529796637800000E9     5.474712129012415E-1   -1.184361313141555E-1   -1.405801835041732E-2   -3.757119091076622E-2   -1.499086320896323E-2   -3.736935077458627E-2    4.477799238747917E-1   -2.389725773747445E-1
 6.529806045200000E9     5.473670170406165E-1   -1.191788483335954E-1   -1.420960169253268E-2   -3.783533730156895E-2   -1.513926891269016E-2   -3.752448357413572E-2    4.472896116245791E-1   -2.398111810929254E-1
 6.529815452600000E9     5.471115191383563E-1   -1.200420988114753E-1   -1.440447358693008E-2   -3.796729708490600E-2   -1.522779891332133E-2   -3.771936000119399E-2    4.467105673249275E-1   -2.407676277059002E-1
 6.529824860000000E9     5.469694745612553E-1   -1.208159630793282E-1   -1.455828219644638E-2   -3.817544604892570E-2   -1.546630744764031E-2   -3.794177489544651E-2    4.462280888782671E-1   -2.415517014877789E-1
 6.529834267400000E9     5.467266759501811E-1   -1.215978128391383E-1   -1.473196974558932E-2   -3.843385824913535E-2   -1.559148784756376E-2   -3.806106228741985E-2    4.458211845634595E-1   -2.425664779473625E-1
 6.529843674800000E9     5.465713262636084E-1   -1.223934419874508E-1   -1.477357296045070E-2   -3.864066796418870E-2   -1.573962442868821E-2   -3.831044051072197E-2    4.453836138062675E-1   -2.434044016965269E-1
 6.529853082200000E9     5.463438935893500E-1   -1.231288041798505E-1   -1.505931723307650E-2   -3.875825502022294E-2   -1.588195366934137E-2   -3.852486074333806E-2    4.447389471858699E-1   -2.440719099468771E-1
 6.529862489600000E9     5.462135056960863E-1   -1.239577380792537E-1   -1.505404363715418E-2   -3.907329874760877E-2   -1.605907622900398E-2   -3.864014084661747E-2    4.440156546672724E-1   -2.451732156152816E-1
 6.529871897000000E9     5.459785546524374E-1   -1.247207601827624E-1   -1.534578375079499E-2   -3.917570946307156E-2   -1.629591047360156E-2   -3.897491442017879E-2    4.435281357974477E-1   -2.460740810005216E-1
 6.529881304400000E9     5.458289120100617E-1   -1.256655471647304E-1   -1.557192683914292E-2   -3.937486836787638E-2   -1.645755297020192E-2   -3.905349144665903E-2    4.429228771049584E-1   -2.468956340416947E-1
 6.529890711800000E9     5.455443244006662E-1   -1.264114425593633E-1   -1.574970125761978E-2   -3.964252153889476E-2   -1.663192278682976E-2   -3.927677867934589E-2    4.423552833100775E-1   -2.477720991842886E-1
 6.529900119200000E9     5.453637852668514E-1   -1.272101544451240E-1   -1.578333776298497E-2   -3.986664734798314E-2   -1.681166136640240E-2   -3.947472221163725E-2    4.420001740974817E-1   -2.487913358267300E-1
 6.529909526600000E9     5.451444725928347E-1   -1.279652740744313E-1   -1.599848747892713E-2   -3.996628700124710E-2   -1.691257677688619E-2   -3.971321690149012E-2    4.412178961542039E-1   -2.495616125876534E-1
 6.529918934000000E9     5.449649641609458E-1   -1.288124631964109E-1   -1.621381636791759E-2   -4.035173412936988E-2   -1.721750830675346E-2   -3.995124022476480E-2    4.406484769223632E-1   -2.505511797563570E-1
 6.529928341400000E9     5.447880751599418E-1   -1.295060191463975E-1   -1.628786084589079E-2   -4.046489599943814E-2   -1.738428473615721E-2   -4.013871129359499E-2    4.401832162155412E-1   -2.514051538647702E-1
 6.529937748800000E9     5.445245708419718E-1   -1.304450811023349E-1   -1.652601524545000E-2   -4.083675578958927E-2   -1.758001322800891E-2   -4.048959619253616E-2    4.396812546572454E-1   -2.522878777356706E-1
 6.529947156200000E9     5.443490474243651E-1   -1.311539017958930E-1   -1.677779970854766E-2   -4.105123899708599E-2   -1.774271032549648E-2   -4.059678021995540E-2    4.389593688678722E-1   -2.531331722817917E-1
 6.529956563600000E9     5.439851075921867E-1   -1.319816075592432E-1   -1.687222076090609E-2   -4.113909486170090E-2   -1.803130918846107E-2   -4.080076030216489E-2    4.382806521746099E-1   -2.541445920276176E-1
 6.529965971000000E9     5.438543612780170E-1   -1.328015120473168E-1   -1.720633473448378E-2   -4.144619042441054E-2   -1.811459333883350E-2   -4.104771379482809E-2    4.378000408462859E-1   -2.550529103623554E-1
 6.529975378400000E9     5.436109065337075E-1   -1.335964436904861E-1   -1.741867248257938E-2   -4.167113430184247E-2   -1.833624081494720E-2   -4.125380549635545E-2    4.371465560351258E-1   -2.560552097336792E-1
 6.529984785800000E9     5.433574797179211E-1   -1.344718732905212E-1   -1.759126394124733E-2   -4.188535431191470E-2   -1.852910065620665E-2   -4.134255288075166E-2    4.366394039267961E-1   -2.568976835194631E-1
 6.529994193200000E9     5.432159678322755E-1   -1.351538396911093E-1   -1.779650708779022E-2   -4.223098714675708E-2   -1.879750308548984E-2   -4.180140906353625E-2    4.359811499666473E-1   -2.579139099735223E-1
 6.530003600600000E9     5.428899231791181E-1   -1.361292238881510E-1   -1.798764276132574E-2   -4.235157216036912E-2   -1.902233681401211E-2   -4.188514803221061E-2    4.353176868309663E-1   -2.588356590033579E-1
 6.530013008000000E9     5.427019114225123E-1   -1.369400823085328E-1   -1.812546855289999E-2   -4.256247915029335E-2   -1.918115275103390E-2   -4.222359923636038E-2    4.346857953003687E-1   -2.598583407494308E-1
 6.530022415400000E9     5.423906114346849E-1   -1.377410062699355E-1   -1.839102550570531E-2   -4.296120421074026E-2   -1.947847341075756E-2   -4.251936482487849E-2    4.339469450472298E-1   -2.607578761397782E-1
 6.530031822800000E9     5.421529847943152E-1   -1.385818876866168E-1   -1.861729567952706E-2   -4.300840799987599E-2   -1.968577854046685E-2   -4.268939860084835E-2    4.332615891753068E-1   -2.616512894808372E-1
 6.530041230200000E9     5.419623144786800E-1   -1.393476412847129E-1   -1.886872219563723E-2   -4.338163807977816E-2   -1.985285263945061E-2   -4.292076990286706E-2    4.327731300730948E-1   -2.627958859308518E-1
 6.530050637600000E9     5.417277552520028E-1   -1.402682582872959E-1   -1.901131687612051E-2   -4.363567538312581E-2   -2.007371111942281E-2   -4.313837382054180E-2    4.320292202413065E-1   -2.635837742276613E-1
 6.530060045000000E9     5.414428216338124E-1   -1.411328105938394E-1   -1.932781798321454E-2   -4.376909849963592E-2   -2.034495101376866E-2   -4.349053151275633E-2    4.313551042284424E-1   -2.646355522693866E-1
 6.530069452400000E9     5.411791727558576E-1   -1.419368286025789E-1   -1.933926878301304E-2   -4.418113190177467E-2   -2.065065898433949E-2   -4.369620203206102E-2    4.307943981370016E-1   -2.656245047346635E-1
 6.530078859800000E9     5.410164597988567E-1   -1.427353932117232E-1   -1.969914345507458E-2   -4.439602024009962E-2   -2.078104333987681E-2   -4.389428650674522E-2    4.297729421005413E-1   -2.665568947843712E-1
 6.530088267200000E9     5.407383054247102E-1   -1.435721714806063E-1   -1.996728872836941E-2   -4.474923526214643E-2   -2.104155446046723E-2   -4.425631811537013E-2    4.291754147603653E-1   -2.674629091391124E-1
 6.530097674600000E9     5.404529596290240E-1   -1.443313761952092E-1   -2.020985070352752E-2   -4.500795013143324E-2   -2.122156145667626E-2   -4.450814779684342E-2    4.286645317570640E-1   -2.685252869184134E-1
 6.530107082000000E9     5.402672237843267E-1   -1.451709428458735E-1   -2.033241083445016E-2   -4.516328201746009E-2   -2.154820401939672E-2   -4.472927879736970E-2    4.277651397118009E-1   -2.694968070982173E-1
 6.530116489400000E9     5.399123835010480E-1   -1.459699630307285E-1   -2.068720792899406E-2   -4.562941014117854E-2   -2.179685469647433E-2   -4.512531154181491E-2    4.271306514755872E-1   -2.705164338637333E-1
 6.530125896800000E9     5.396427132985655E-1   -1.470313240973302E-1   -2.090273613411366E-2   -4.585224778577619E-2   -2.202672849398150E-2   -4.542296041378405E-2    4.263848539412541E-1   -2.715401285830263E-1
 6.530135304200000E9     5.393617033395931E-1   -1.477113931165240E-1   -2.123357920090774E-2   -4.619346496343540E-2   -2.231570075254238E-2   -4.545116815176018E-2    4.255301203198457E-1   -2.726321130621353E-1
 6.530144711600000E9     5.390770045848743E-1   -1.485811410542767E-1   -2.137532801527281E-2   -4.633607214203385E-2   -2.250482950146374E-2   -4.587456281999015E-2    4.248152359292347E-1   -2.733867301127124E-1
 6.530154119000000E9     5.386937973194197E-1   -1.494016727138018E-1   -2.167023067629993E-2   -4.664117617360142E-2   -2.287240830502135E-2   -4.617564633886549E-2    4.241361994612632E-1   -2.746035684170550E-1
 6.530163526400000E9     5.385526490848436E-1   -1.503231763565251E-1   -2.200449074219623E-2   -4.693813947462088E-2   -2.315040910943695E-2   -4.649161034680796E-2    4.234426972504541E-1   -2.754663668513199E-1
 6.530172933800000E9     5.382529499919160E-1   -1.511542142451191E-1   -2.219117230804112E-2   -4.733550644036388E-2   -2.347857741941182E-2   -4.676799355332328E-2    4.226469358240557E-1   -2.767155423892182E-1
 6.530182341200000E9     5.380165277325681E-1   -1.521298109189118E-1   -2.250600342837388E-2   -4.751545484087018E-2   -2.372943631446565E-2   -4.700368623017297E-2    4.218492138752622E-1   -2.776037298603042E-1
 6.530191748600000E9     5.376568443650721E-1   -1.528803744929065E-1   -2.283026579853785E-2   -4.783102286812072E-2   -2.401341530655006E-2   -4.732264832400681E-2    4.208684960085619E-1   -2.786851697752361E-1
 6.530201156000000E9     5.373209520639299E-1   -1.536831507428996E-1   -2.322220912853506E-2   -4.829262803625256E-2   -2.442562322545366E-2   -4.766980165968776E-2    4.200219398413218E-1   -2.796323368128796E-1
 6.530210563400000E9     5.370709701746054E-1   -1.545453741264215E-1   -2.330807776495654E-2   -4.848990813914960E-2   -2.464063866789850E-2   -4.788987183254684E-2    4.194296530866251E-1   -2.808193965012033E-1
 6.530219970800000E9     5.366541439898039E-1   -1.554655163487260E-1   -2.380224090693125E-2   -4.869352282165983E-2   -2.485742682146486E-2   -4.820011068504774E-2    4.184876366487517E-1   -2.816403032600036E-1
 6.530229378200000E9     5.364378818968140E-1   -1.562846665262817E-1   -2.402597807933997E-2   -4.910459422562432E-2   -2.530996315101300E-2   -4.861191028363923E-2    4.175901587291712E-1   -2.828987572242152E-1
 6.530238785600000E9     5.362106715145312E-1   -1.571416089779114E-1   -2.433700592194947E-2   -4.941752727137520E-2   -2.565932841768547E-2   -4.885604957585168E-2    4.165783650192444E-1   -2.840260895053446E-1
 6.530248193000000E9     5.357440960675566E-1   -1.580596611105017E-1   -2.473160819766446E-2   -4.979057444814191E-2   -2.592633853952926E-2   -4.925899286618144E-2    4.159388696086642E-1   -2.851427914452567E-1
 6.530257600400000E9     5.354697816470784E-1   -1.590147730330764E-1   -2.496754292632566E-2   -5.020598079131895E-2   -2.637510198708308E-2   -4.950391103165126E-2    4.149321197790897E-1   -2.861257285786484E-1
 6.530267007800000E9     5.352219396893195E-1   -1.597773765417887E-1   -2.532009538451338E-2   -5.049776246007893E-2   -2.664212946332141E-2   -4.997499654912884E-2    4.140793086480121E-1   -2.871805936523473E-1
 6.530276415200000E9     5.349451628527270E-1   -1.607976201366152E-1   -2.571126259423124E-2   -5.084966103426761E-2   -2.706645206961183E-2   -5.034123693039648E-2    4.132188244229834E-1   -2.883632754655596E-1
 6.530285822600000E9     5.344310238507579E-1   -1.616447575056373E-1   -2.594485943810543E-2   -5.118254662005424E-2   -2.739889348625270E-2   -5.065698784014019E-2    4.124258802592092E-1   -2.893820537418511E-1
 6.530295230000000E9     5.342557074538270E-1   -1.625358691984441E-1   -2.645439304176881E-2   -5.164836037054241E-2   -2.767095521543856E-2   -5.095444463807759E-2    4.113461636509225E-1   -2.904781717220282E-1
 6.530304637400000E9     5.337872792461466E-1   -1.634114043058468E-1   -2.676557505479333E-2   -5.187153968483256E-2   -2.804911192180547E-2   -5.125438507281940E-2    4.104346662672068E-1   -2.916207976148472E-1
 6.530314044800000E9     5.335458449491554E-1   -1.644152303422410E-1   -2.716331996414270E-2   -5.226091975260504E-2   -2.833844067726245E-2   -5.161844328767567E-2    4.093749710789878E-1   -2.927587647591156E-1
 6.530323452200000E9     5.332186908121945E-1   -1.652901657354571E-1   -2.746732663991839E-2   -5.266354604482620E-2   -2.879081143334413E-2   -5.203165210795167E-2    4.086457951510675E-1   -2.937746816448500E-1
 6.530332859600000E9     5.326307985406770E-1   -1.661725917216204E-1   -2.781648195015584E-2   -5.303498397050289E-2   -2.907943688136830E-2   -5.237870561031735E-2    4.074786526461223E-1   -2.950573721262976E-1
 6.530342267000000E9     5.323488139389277E-1   -1.669791780039790E-1   -2.816064331425195E-2   -5.350164125209506E-2   -2.957361652494309E-2   -5.274255908870942E-2    4.063677516916328E-1   -2.962038838142497E-1
