#  HZ   S   RI   R     50.00 
! Rohde & Schwarz Vector Network Analyzer 
! Rohde-Schwarz,ZNB20-2Port,1311601062101988,3.16
! Created: UTC 3/21/2024, 1:18:53 AM
! freq[Hz]                re:S11                  im:S11                  re:S21                  im:S21                  re:S12                  im:S12                  re:S22                  im:S22
 6.529526880000000E9     5.522249951753005E-1   -9.595814187035118E-2   -1.034929022894128E-2   -3.254956856995272E-2   -1.106697086252392E-2   -3.242066655910424E-2    4.606077309924139E-1   -2.134796150891190E-1
 6.529536209775000E9     5.521121945780006E-1   -9.662696921518961E-2   -1.038618870749763E-2   -3.276687031635549E-2   -1.112548796166979E-2   -3.251625410820831E-2    4.602908618260618E-1   -2.143734568871920E-1
 6.529545539550000E9     5.518766872240572E-1   -9.740094557419085E-2   -1.050893210047788E-2   -3.282839376292345E-2   -1.119371810469192E-2   -3.262835204195590E-2    4.599372341380986E-1   -2.150647660872692E-1
 6.529554869325000E9     5.518335451505527E-1   -9.818574312389129E-2   -1.059719042924842E-2   -3.299838683089294E-2   -1.138223417779634E-2   -3.267577907367074E-2    4.594390088325022E-1   -2.159432074790143E-1
 6.529564199100000E9     5.515850992896854E-1   -9.897342421475681E-2   -1.061049797172274E-2   -3.309348533029783E-2   -1.142812993191688E-2   -3.291000379063438E-2    4.591828098046030E-1   -2.166291126731126E-1
 6.529573528875000E9     5.515221605668835E-1   -9.967007072369478E-2   -1.067650307863933E-2   -3.328664450674968E-2   -1.156333963858534E-2   -3.303532084133771E-2    4.587627256504268E-1   -2.174919108585928E-1
 6.529582858650000E9     5.514225291893857E-1   -1.004187704033853E-1   -1.093121633235083E-2   -3.346643645951160E-2   -1.166128588806866E-2   -3.322177576683530E-2    4.583349121464764E-1   -2.184227179274713E-1
 6.529592188425000E9     5.511277220015940E-1   -1.012976976386920E-1   -1.097752985624014E-2   -3.351486367541139E-2   -1.184433082072101E-2   -3.343393169661737E-2    4.579288326616928E-1   -2.191388280198368E-1
 6.529601518200000E9     5.511403783513982E-1   -1.018899766310308E-1   -1.099434506078504E-2   -3.384948582722110E-2   -1.185031768025181E-2   -3.357510074465340E-2    4.575253549848101E-1   -2.200378692246342E-1
 6.529610847975000E9     5.508170274904814E-1   -1.027580030581073E-1   -1.132221171775014E-2   -3.392808732577973E-2   -1.203411338096073E-2   -3.366706345283285E-2    4.570076600365911E-1   -2.206561020880281E-1
 6.529620177750000E9     5.507398734526696E-1   -1.034721909148257E-1   -1.130880093255948E-2   -3.396789008721325E-2   -1.218128255011092E-2   -3.382223251518022E-2    4.567961918566250E-1   -2.215653589812734E-1
 6.529629507525000E9     5.506498539176141E-1   -1.042396934137963E-1   -1.137635931610187E-2   -3.403664121385238E-2   -1.225616597383791E-2   -3.398765198232719E-2    4.562783234835691E-1   -2.223290744318952E-1
 6.529638837300000E9     5.503794953795356E-1   -1.050490154390048E-1   -1.165212214486172E-2   -3.433910464105667E-2   -1.240847933224327E-2   -3.420244705965481E-2    4.557994840199355E-1   -2.231982846229876E-1
 6.529648167075000E9     5.502513541838923E-1   -1.058680547630213E-1   -1.180387575846841E-2   -3.451824746601018E-2   -1.249245202998013E-2   -3.435558353148920E-2    4.553479022620666E-1   -2.240178478272134E-1
 6.529657496850000E9     5.501140864307810E-1   -1.065307923060728E-1   -1.189064491533743E-2   -3.472660217170322E-2   -1.258935795949031E-2   -3.440886983670119E-2    4.548430523602764E-1   -2.247415905328437E-1
 6.529666826625000E9     5.499950991815907E-1   -1.072891936826303E-1   -1.191860028836699E-2   -3.475325001283690E-2   -1.279710167093786E-2   -3.467450246661082E-2    4.544638174334546E-1   -2.256339814033917E-1
 6.529676156400000E9     5.497409312766053E-1   -1.080694185393140E-1   -1.214593037745509E-2   -3.499548363871972E-2   -1.286948147131285E-2   -3.476228336981287E-2    4.538388151067984E-1   -2.264629691158611E-1
 6.529685486175000E9     5.495953119855186E-1   -1.088785486002835E-1   -1.227064510206909E-2   -3.505059068794994E-2   -1.302922944107100E-2   -3.494190258173702E-2    4.535632982424253E-1   -2.274071374652012E-1
 6.529694815950000E9     5.494575133736124E-1   -1.095299750551415E-1   -1.237951003066376E-2   -3.527190933660276E-2   -1.314867570027081E-2   -3.506295749485470E-2    4.530379502256470E-1   -2.280411754000727E-1
 6.529704145725000E9     5.492973095898673E-1   -1.103895146209741E-1   -1.247608846656263E-2   -3.543557049098400E-2   -1.332431228754438E-2   -3.525513517825819E-2    4.526135747622619E-1   -2.288701049406705E-1
 6.529713475500000E9     5.491177601566807E-1   -1.112107022104451E-1   -1.266642359345461E-2   -3.550885356472367E-2   -1.339321397332207E-2   -3.541592324495500E-2    4.522137368714013E-1   -2.296929591118129E-1
 6.529722805275000E9     5.489592090771488E-1   -1.118881200302098E-1   -1.283220333842624E-2   -3.586386073157150E-2   -1.348342719118016E-2   -3.558928937579796E-2    4.515655825716727E-1   -2.305529407588204E-1
 6.529732135050000E9     5.486916538361232E-1   -1.126324421917422E-1   -1.284633752378914E-2   -3.595902885946476E-2   -1.366242380942617E-2   -3.579796100483131E-2    4.513769101101340E-1   -2.314167167042042E-1
 6.529741464825000E9     5.486089021617785E-1   -1.134203179421909E-1   -1.296400991651359E-2   -3.621219569080660E-2   -1.372824945638811E-2   -3.591273303497715E-2    4.509806806196388E-1   -2.323952108112302E-1
 6.529750794600000E9     5.483988849149185E-1   -1.142703728717435E-1   -1.316394206678833E-2   -3.641150271519024E-2   -1.401235596621827E-2   -3.609196495601418E-2    4.503674804681649E-1   -2.331371870505394E-1
 6.529760124375000E9     5.482833981832618E-1   -1.149754971711687E-1   -1.322140547600770E-2   -3.642710681233888E-2   -1.408919716985425E-2   -3.629227418058001E-2    4.497676435409336E-1   -2.339645710668464E-1
 6.529769454150000E9     5.480942186390277E-1   -1.158809954123647E-1   -1.341124817571740E-2   -3.662724280204689E-2   -1.419525265046191E-2   -3.636304219566333E-2    4.493482330781187E-1   -2.348533340529687E-1
 6.529778783925000E9     5.479710404865032E-1   -1.165711759611800E-1   -1.360207766098636E-2   -3.679608632758116E-2   -1.437884223595471E-2   -3.667788677184976E-2    4.489319635547525E-1   -2.358069167982180E-1
 6.529788113700000E9     5.477065956295897E-1   -1.171701737592524E-1   -1.372296767086948E-2   -3.705476894490441E-2   -1.456479926902758E-2   -3.685482000939483E-2    4.482805324368540E-1   -2.366329001985616E-1
 6.529797443475000E9     5.476090664272423E-1   -1.181686880695235E-1   -1.359678568194627E-2   -3.726247423574548E-2   -1.467553416631015E-2   -3.698254408880404E-2    4.479390665158856E-1   -2.372555611477870E-1
 6.529806773250000E9     5.474052456615535E-1   -1.188890683461029E-1   -1.391032771809911E-2   -3.747998864362744E-2   -1.492422009010629E-2   -3.713936647651824E-2    4.472569718068079E-1   -2.381928552423770E-1
 6.529816103025000E9     5.472220576015518E-1   -1.197401731216288E-1   -1.419810832356454E-2   -3.772425045276056E-2   -1.486165356202295E-2   -3.725621019077228E-2    4.467885773144464E-1   -2.390487269785351E-1
 6.529825432800000E9     5.471264593901461E-1   -1.204801231733601E-1   -1.428815202440556E-2   -3.790223938469010E-2   -1.524028560972519E-2   -3.756453668215864E-2    4.463216142040665E-1   -2.399245250993034E-1
 6.529834762575000E9     5.468058045051090E-1   -1.213164450788874E-1   -1.455911314384066E-2   -3.811929702608988E-2   -1.533098511534587E-2   -3.769338304035508E-2    4.459747811309478E-1   -2.407866918216906E-1
 6.529844092350000E9     5.466103433512421E-1   -1.220290262861976E-1   -1.458559068065378E-2   -3.829009316002341E-2   -1.537729726273969E-2   -3.789136038179222E-2    4.452948112139583E-1   -2.416746350959181E-1
 6.529853422125000E9     5.464680366762097E-1   -1.229040501610198E-1   -1.466918034680992E-2   -3.840349412417460E-2   -1.563563686506431E-2   -3.816149247111428E-2    4.448185688306953E-1   -2.425928022300024E-1
 6.529862751900000E9     5.461962754539600E-1   -1.236708846693114E-1   -1.490734030675574E-2   -3.854521790665336E-2   -1.583541686646479E-2   -3.827144601275417E-2    4.443143906887012E-1   -2.434423842402679E-1
 6.529872081675000E9     5.461632890398892E-1   -1.243357377050613E-1   -1.510610638697912E-2   -3.878328030893839E-2   -1.599131872326130E-2   -3.846076224497783E-2    4.436384307392439E-1   -2.442952380929458E-1
 6.529881411450000E9     5.458326217172604E-1   -1.252002459404485E-1   -1.525369850171330E-2   -3.907434993271781E-2   -1.606978571934708E-2   -3.865687436497655E-2    4.432450692574298E-1   -2.451096577016575E-1
 6.529890741225000E9     5.456935712955523E-1   -1.259915052356139E-1   -1.538331420350152E-2   -3.927616089179073E-2   -1.627158724908249E-2   -3.888634286962906E-2    4.426874120083549E-1   -2.461643022629349E-1
 6.529900071000000E9     5.455740484364515E-1   -1.267117262288248E-1   -1.562009290345526E-2   -3.935921531651264E-2   -1.641911047796751E-2   -3.901486180742459E-2    4.421527349265532E-1   -2.469147318433854E-1
 6.529909400775000E9     5.452893498522730E-1   -1.276025562314765E-1   -1.572347730721987E-2   -3.940741261548930E-2   -1.668446044874432E-2   -3.927011658545791E-2    4.417414943113171E-1   -2.478455166817324E-1
 6.529918730550000E9     5.450360668796788E-1   -1.284207477557559E-1   -1.600950440387398E-2   -3.971228923750762E-2   -1.691851386095692E-2   -3.957446104015594E-2    4.410316474478640E-1   -2.486653120417543E-1
 6.529928060325000E9     5.448423441614154E-1   -1.291415842470718E-1   -1.607057451939900E-2   -4.026532309619801E-2   -1.709576492282665E-2   -3.975541052330615E-2    4.403700790648691E-1   -2.497112256613959E-1
 6.529937390100000E9     5.445643014290180E-1   -1.299535884861554E-1   -1.622991123381538E-2   -4.032579852183234E-2   -1.724272931254823E-2   -4.002706306070364E-2    4.399342167145038E-1   -2.504551745533578E-1
 6.529946719875000E9     5.444383179531381E-1   -1.307771633702328E-1   -1.646526326273418E-2   -4.060212627628230E-2   -1.748019676782702E-2   -4.016204084005493E-2    4.391465203746527E-1   -2.514182696454487E-1
 6.529956049650000E9     5.441287638644150E-1   -1.315766307055198E-1   -1.655524714898568E-2   -4.067853023675627E-2   -1.760017669305108E-2   -4.039623491813750E-2    4.386624226374042E-1   -2.523534202933135E-1
 6.529965379425000E9     5.439373360171808E-1   -1.325164757868097E-1   -1.688356392918768E-2   -4.092499777145334E-2   -1.775132438907777E-2   -4.063040842020237E-2    4.381658588106658E-1   -2.532243187473285E-1
 6.529974709200000E9     5.437081347412267E-1   -1.330734572167641E-1   -1.696943778272121E-2   -4.124706275170687E-2   -1.801413084202282E-2   -4.081434291612334E-2    4.375183075344853E-1   -2.542112589241418E-1
 6.529984038975000E9     5.435267992347791E-1   -1.340775302422173E-1   -1.716968533365809E-2   -4.134381510842975E-2   -1.815873443664053E-2   -4.107176654403510E-2    4.368230645334252E-1   -2.552009501150687E-1
 6.529993368750000E9     5.433592549811331E-1   -1.347130485898945E-1   -1.732489223454424E-2   -4.174892474029970E-2   -1.837662250727415E-2   -4.129657116311682E-2    4.363525714804137E-1   -2.560578015927904E-1
 6.530002698525000E9     5.431214764147804E-1   -1.356496028347931E-1   -1.763540532336658E-2   -4.191497579445268E-2   -1.854331999178103E-2   -4.156690305470632E-2    4.356893326878101E-1   -2.568499462209451E-1
 6.530012028300000E9     5.428142430049752E-1   -1.364502061413487E-1   -1.789702296952867E-2   -4.220210399203309E-2   -1.869529245538413E-2   -4.177351412758776E-2    4.350745855584019E-1   -2.579968937619801E-1
 6.530021358075000E9     5.426565409543106E-1   -1.373049475270958E-1   -1.789891561751382E-2   -4.239131468310223E-2   -1.900573489345266E-2   -4.193775930723893E-2    4.345364192956988E-1   -2.589295732641354E-1
 6.530030687850000E9     5.422947022932184E-1   -1.380159635269478E-1   -1.822495530458642E-2   -4.263363584779611E-2   -1.925892044579015E-2   -4.225066490512414E-2    4.338860249882251E-1   -2.597225204947389E-1
 6.530040017625000E9     5.420722733817422E-1   -1.390026184406715E-1   -1.841153307441442E-2   -4.290313016062770E-2   -1.943841304551347E-2   -4.242291399142828E-2    4.332123830623580E-1   -2.608328202426994E-1
 6.530049347400000E9     5.418820602078545E-1   -1.396695302798670E-1   -1.853535742649170E-2   -4.309481282473877E-2   -1.959332069699404E-2   -4.271169132602421E-2    4.324373294825258E-1   -2.616731219934247E-1
 6.530058677175000E9     5.416530903777940E-1   -1.404156419981401E-1   -1.879470195314419E-2   -4.341490421365268E-2   -1.987672001723046E-2   -4.295674034110525E-2    4.317748623871467E-1   -2.626064544508104E-1
 6.530068006950000E9     5.413852557590041E-1   -1.413068224182628E-1   -1.913787018609346E-2   -4.365786082611860E-2   -2.010311406397798E-2   -4.326665109054541E-2    4.311580376041688E-1   -2.636524996272915E-1
 6.530077336725000E9     5.411172959571797E-1   -1.421562457597604E-1   -1.932106371058979E-2   -4.383958259418379E-2   -2.031658924214056E-2   -4.345684247068927E-2    4.303838203333104E-1   -2.646158293766569E-1
 6.530086666500000E9     5.409267548957775E-1   -1.429033684204355E-1   -1.942938315750334E-2   -4.401092676906078E-2   -2.062215276919136E-2   -4.368955186166421E-2    4.298553094472470E-1   -2.654106647092480E-1
 6.530095996275000E9     5.406894186664655E-1   -1.438714793832455E-1   -1.974054228409930E-2   -4.445337541965812E-2   -2.082539199882910E-2   -4.391233938879150E-2    4.291421058337461E-1   -2.664593640336012E-1
 6.530105326050000E9     5.405098346667059E-1   -1.446592841003289E-1   -2.000121446471646E-2   -4.476150739985368E-2   -2.111356567675487E-2   -4.419298089049175E-2    4.284866155609025E-1   -2.673288159762625E-1
 6.530114655825000E9     5.400985206975015E-1   -1.455317490758760E-1   -2.023305019782675E-2   -4.495984211889211E-2   -2.128265306075572E-2   -4.458237002022721E-2    4.279370839006403E-1   -2.684792506782465E-1
 6.530123985600000E9     5.399169091979903E-1   -1.463641824771542E-1   -2.044278324010291E-2   -4.498773767189986E-2   -2.146416781742983E-2   -4.470106887089744E-2    4.271923424062711E-1   -2.694915856654175E-1
 6.530133315375000E9     5.395984810577226E-1   -1.471530645907311E-1   -2.073954206869624E-2   -4.554427193118841E-2   -2.183465983229494E-2   -4.498701858708652E-2    4.265360476615759E-1   -2.704778418717005E-1
 6.530142645150000E9     5.392615453187808E-1   -1.479681417194410E-1   -2.094143556980220E-2   -4.583031824589578E-2   -2.204017560900335E-2   -4.523665652290965E-2    4.255793330625058E-1   -2.715786828529219E-1
 6.530151974925000E9     5.390697753478448E-1   -1.487432641909770E-1   -2.109598410950441E-2   -4.606847543447583E-2   -2.234120223089583E-2   -4.565691294283159E-2    4.248591867164266E-1   -2.723837050477884E-1
 6.530161304700000E9     5.387291376635642E-1   -1.496899619357828E-1   -2.150984155045471E-2   -4.637685361508017E-2   -2.248225234958802E-2   -4.587016365169098E-2    4.241541193874196E-1   -2.734906813749770E-1
 6.530170634475000E9     5.385313381413376E-1   -1.505487629646931E-1   -2.177797538955905E-2   -4.660365369594508E-2   -2.293593305238882E-2   -4.626089645370339E-2    4.234078074623405E-1   -2.743850402655500E-1
 6.530179964250000E9     5.381626824941997E-1   -1.513152100718011E-1   -2.204934708371457E-2   -4.695690303575246E-2   -2.318186159054806E-2   -4.647997713477936E-2    4.226569240258747E-1   -2.754096594703905E-1
 6.530189294025000E9     5.379398275456184E-1   -1.522105621340547E-1   -2.227262253629858E-2   -4.717039142856827E-2   -2.349838125072553E-2   -4.664869005324226E-2    4.218632802279803E-1   -2.764145410751581E-1
 6.530198623800000E9     5.376151237827300E-1   -1.530977154942320E-1   -2.257046759381953E-2   -4.752898060959875E-2   -2.383040718217586E-2   -4.709292350646910E-2    4.209729801237206E-1   -2.775852646638554E-1
 6.530207953575000E9     5.373465669382113E-1   -1.539276263055655E-1   -2.268841352119396E-2   -4.781977826872071E-2   -2.395292333501819E-2   -4.739489400431205E-2    4.203615065647517E-1   -2.784757809364991E-1
 6.530217283350000E9     5.370155961445737E-1   -1.547524313033631E-1   -2.306682835618215E-2   -4.809482126644821E-2   -2.443650927164825E-2   -4.773146857684782E-2    4.194596843854403E-1   -2.794539839301661E-1
 6.530226613125000E9     5.368866620389023E-1   -1.556355643002430E-1   -2.339113714381679E-2   -4.842940690707229E-2   -2.463349833511883E-2   -4.788419029192798E-2    4.186452077031221E-1   -2.806191003270030E-1
 6.530235942900000E9     5.364118620577217E-1   -1.564937598276903E-1   -2.364288507016444E-2   -4.880441086699866E-2   -2.502633084605838E-2   -4.827369130688615E-2    4.178167396469590E-1   -2.816561243196279E-1
 6.530245272675000E9     5.362602920792386E-1   -1.573278442498103E-1   -2.404044789745641E-2   -4.914852731078233E-2   -2.531551143825441E-2   -4.858695337448904E-2    4.169496030207285E-1   -2.826643229283012E-1
 6.530254602450000E9     5.358070312293399E-1   -1.581722129217168E-1   -2.436334911742155E-2   -4.946916986290893E-2   -2.560126521921889E-2   -4.890022842384781E-2    4.161751972058547E-1   -2.839311727570228E-1
 6.530263932225000E9     5.355420543692142E-1   -1.590608430020304E-1   -2.465301378628047E-2   -4.976502478224500E-2   -2.593233975367129E-2   -4.928615404096241E-2    4.153226557858741E-1   -2.848418880875262E-1
 6.530273262000000E9     5.352054012920821E-1   -1.599240545059567E-1   -2.508775009374990E-2   -5.027139397055689E-2   -2.627105591181089E-2   -4.945035369368130E-2    4.143427816262845E-1   -2.859310872484115E-1
 6.530282591775000E9     5.348784965225507E-1   -1.607289695249863E-1   -2.530782203880009E-2   -5.041134599638811E-2   -2.652014045061709E-2   -4.993975763409530E-2    4.133707291209089E-1   -2.869851023566248E-1
 6.530291921550000E9     5.345648851001658E-1   -1.617732224406010E-1   -2.559824269405380E-2   -5.067511299066296E-2   -2.692196773215721E-2   -5.015117975423136E-2    4.126021471179348E-1   -2.880824793379259E-1
 6.530301251325000E9     5.341224255399516E-1   -1.625523456566843E-1   -2.606338660303043E-2   -5.129797091225611E-2   -2.734105876469323E-2   -5.060139050235306E-2    4.116789761324134E-1   -2.892133693508043E-1
 6.530310581100000E9     5.338346980492730E-1   -1.633893195351217E-1   -2.627513102041737E-2   -5.141294690707859E-2   -2.760465692836460E-2   -5.081691669652606E-2    4.107463056934431E-1   -2.902350310446684E-1
 6.530319910875000E9     5.334617436043102E-1   -1.643437919152661E-1   -2.667943804292731E-2   -5.184187002410339E-2   -2.812605033131459E-2   -5.127793416322642E-2    4.098338674585261E-1   -2.913146464388445E-1
 6.530329240650000E9     5.330884519588417E-1   -1.653572175301400E-1   -2.710985131694729E-2   -5.228758897655010E-2   -2.834651085264710E-2   -5.159030080173159E-2    4.089055853273324E-1   -2.923472888476562E-1
 6.530338570425000E9     5.327335886094771E-1   -1.661127427620620E-1   -2.728114976680364E-2   -5.255750399287138E-2   -2.876004668136762E-2   -5.190066329119254E-2    4.078479378850354E-1   -2.936145807524458E-1
 6.530347900200000E9     5.324854198734048E-1   -1.670421892952218E-1   -2.777369715252008E-2   -5.302080836925867E-2   -2.909366766724977E-2   -5.229831657395738E-2    4.068663676850036E-1   -2.946951556964590E-1
 6.530357229975000E9     5.320256295560962E-1   -1.678466549594566E-1   -2.818082577758165E-2   -5.322729116215755E-2   -2.957912214479758E-2   -5.273541429632417E-2    4.060554347752049E-1   -2.958454171924678E-1
 6.530366559750000E9     5.317718856408269E-1   -1.687814297925758E-1   -2.849803623200834E-2   -5.387885826193208E-2   -2.997013574657204E-2   -5.304675855381680E-2    4.048762666070634E-1   -2.972462444098574E-1
