#  HZ   S   RI   R     50.00 
! Rohde & Schwarz Vector Network Analyzer 
! Rohde-Schwarz,ZNB20-2Port,1311601062101988,3.16
! Created: UTC 3/21/2024, 1:19:24 AM
! freq[Hz]                re:S11                  im:S11                  re:S21                  im:S21                  re:S12                  im:S12                  re:S22                  im:S22
 6.529565429000000E9     5.517262717322938E-1   -9.845901960533192E-2   -1.049252225289817E-2   -3.280583223594784E-2   -1.115838194530726E-2   -3.260382603306429E-2    4.592249387804887E-1   -2.159625417972340E-1
 6.529574660125000E9     5.515530118810029E-1   -9.925636785271644E-2   -1.060694880280784E-2   -3.303261277846187E-2   -1.138416101004071E-2   -3.278495163578533E-2    4.588213730807502E-1   -2.167028885398216E-1
 6.529583891250000E9     5.514229830318296E-1   -1.000172123372219E-1   -1.069556189555945E-2   -3.326724135967622E-2   -1.145139139247010E-2   -3.289947096365118E-2    4.584279836684498E-1   -2.175326856543131E-1
 6.529593122375000E9     5.512460051114081E-1   -1.007454250607224E-1   -1.088941149793961E-2   -3.322531486252019E-2   -1.162005736889995E-2   -3.307032684784586E-2    4.580054817032172E-1   -2.185606649580210E-1
 6.529602353500000E9     5.511498386127481E-1   -1.015283243049948E-1   -1.097890469418063E-2   -3.342294715949164E-2   -1.179703850947494E-2   -3.323330621564011E-2    4.577206928553871E-1   -2.191912551698390E-1
 6.529611584625000E9     5.510618007727365E-1   -1.022751770380570E-1   -1.099020144041032E-2   -3.352944921993681E-2   -1.179682954456886E-2   -3.338813914224996E-2    4.570884827944189E-1   -2.201135871670859E-1
 6.529620815750000E9     5.508742992196183E-1   -1.030048144785074E-1   -1.115152522345428E-2   -3.358058075623731E-2   -1.197051735635534E-2   -3.350650032457327E-2    4.569142048099888E-1   -2.208517983524348E-1
 6.529630046875000E9     5.507164015926304E-1   -1.038403548169229E-1   -1.140375884950164E-2   -3.386920452572995E-2   -1.204482521310126E-2   -3.371713081225735E-2    4.564138001805668E-1   -2.215803311500709E-1
 6.529639278000000E9     5.505466835922159E-1   -1.044509223038788E-1   -1.150482235825054E-2   -3.404222640484911E-2   -1.208784259934490E-2   -3.384520095501995E-2    4.560225383471903E-1   -2.223802726677457E-1
 6.529648509125000E9     5.503942374617588E-1   -1.053082278664111E-1   -1.151465718027262E-2   -3.416752100010467E-2   -1.226272583822692E-2   -3.397110090431650E-2    4.556094726945150E-1   -2.232744249200660E-1
 6.529657740250000E9     5.502248439493981E-1   -1.060990888224845E-1   -1.158854208469318E-2   -3.414673382979694E-2   -1.240507137010944E-2   -3.408627605242051E-2    4.551785439924845E-1   -2.239338207968731E-1
 6.529666971375000E9     5.501882482096803E-1   -1.068556654680948E-1   -1.172023592468144E-2   -3.457617451365096E-2   -1.250137309617892E-2   -3.424000113940386E-2    4.546827178638449E-1   -2.246921217415693E-1
 6.529676202500000E9     5.498847468216111E-1   -1.074771424642898E-1   -1.191331175804076E-2   -3.470805829343857E-2   -1.264631276396270E-2   -3.440326568679106E-2    4.545026115742941E-1   -2.254534409921362E-1
 6.529685433625000E9     5.497496926662772E-1   -1.082695269408705E-1   -1.182925164571204E-2   -3.490637410086050E-2   -1.284083001565001E-2   -3.458466147054880E-2    4.539269321492614E-1   -2.263441544526221E-1
 6.529694664750000E9     5.496741938700412E-1   -1.090598588022064E-1   -1.213766692965750E-2   -3.490156835056293E-2   -1.284438057844923E-2   -3.466580943651309E-2    4.533877888125810E-1   -2.272287153253289E-1
 6.529703895875000E9     5.494796411813372E-1   -1.099073835910581E-1   -1.219421399921251E-2   -3.507393402371871E-2   -1.307110892790633E-2   -3.495217539740152E-2    4.530383441116503E-1   -2.279931431965831E-1
 6.529713127000000E9     5.493225734104376E-1   -1.106113733745169E-1   -1.239033991667601E-2   -3.523100243148031E-2   -1.311766481183100E-2   -3.513103920735706E-2    4.525203232626099E-1   -2.288106383273055E-1
 6.529722358125000E9     5.491322072389302E-1   -1.113955309167066E-1   -1.244751695313365E-2   -3.536108819273386E-2   -1.315924281393754E-2   -3.519310646795196E-2    4.521383333987717E-1   -2.297861004225749E-1
 6.529731589250000E9     5.489760223431126E-1   -1.120088138232842E-1   -1.267855706239272E-2   -3.546587697070835E-2   -1.345121344053264E-2   -3.540472498609212E-2    4.516956382360037E-1   -2.303811633854706E-1
 6.529740820375000E9     5.488039479273914E-1   -1.128917081197384E-1   -1.274833771367931E-2   -3.586843282523330E-2   -1.358321144646054E-2   -3.557048697467682E-2    4.512548182185153E-1   -2.313404085766913E-1
 6.529750051500000E9     5.485689123172522E-1   -1.137502794145847E-1   -1.289069150312135E-2   -3.591551644485274E-2   -1.368714995907069E-2   -3.568875844288848E-2    4.507911155731932E-1   -2.322390581247509E-1
 6.529759282625000E9     5.484507512855500E-1   -1.143879528144096E-1   -1.285856464839124E-2   -3.599968166580055E-2   -1.387584471453863E-2   -3.588796581430693E-2    4.501577176458019E-1   -2.329912437989156E-1
 6.529768513750000E9     5.483051501594450E-1   -1.150484228155317E-1   -1.324739750582012E-2   -3.636012042633278E-2   -1.394997838952372E-2   -3.607807043101659E-2    4.496250869922004E-1   -2.337058144610583E-1
 6.529777744875000E9     5.480116316865388E-1   -1.158247021633921E-1   -1.315610665521642E-2   -3.652853779020716E-2   -1.407519385484243E-2   -3.626325908969186E-2    4.493050957894267E-1   -2.346220254656994E-1
 6.529786976000000E9     5.479015489536201E-1   -1.165772642056161E-1   -1.337110278667644E-2   -3.657669350351882E-2   -1.424010731508670E-2   -3.638653732849774E-2    4.488382059727380E-1   -2.354730730468050E-1
 6.529796207125000E9     5.478047235204820E-1   -1.174452718397442E-1   -1.361494519775309E-2   -3.683528569561620E-2   -1.442389286760545E-2   -3.660616707372016E-2    4.483388810580249E-1   -2.363890063454147E-1
 6.529805438250000E9     5.474190632194720E-1   -1.182842142560760E-1   -1.367973223603506E-2   -3.702392244798099E-2   -1.452254853006613E-2   -3.673521521680969E-2    4.477456406424911E-1   -2.373155652839711E-1
 6.529814669375000E9     5.474563104520607E-1   -1.190033415091232E-1   -1.386188633197433E-2   -3.721210628055837E-2   -1.475096001295964E-2   -3.691612015014331E-2    4.473897267664219E-1   -2.379781018217993E-1
 6.529823900500000E9     5.471807629737679E-1   -1.198207753568945E-1   -1.404083247738383E-2   -3.736534004881957E-2   -1.483427456101453E-2   -3.705827969293132E-2    4.467957775558168E-1   -2.388459419250715E-1
 6.529833131625000E9     5.470423321948193E-1   -1.205260271178745E-1   -1.407700396145648E-2   -3.765264318525374E-2   -1.492904795683516E-2   -3.730231019463392E-2    4.464742372046888E-1   -2.398549381294191E-1
 6.529842362750000E9     5.469360512118405E-1   -1.214990275852710E-1   -1.432835352578047E-2   -3.774603005385300E-2   -1.509302948076798E-2   -3.755282589963879E-2    4.457714878747039E-1   -2.405384132716148E-1
 6.529851593875000E9     5.467055325249405E-1   -1.221402767612698E-1   -1.442032578246715E-2   -3.796247764945548E-2   -1.531102752151891E-2   -3.764381624571290E-2    4.452529334235557E-1   -2.414184150319208E-1
 6.529860825000000E9     5.465236297715987E-1   -1.228692342673623E-1   -1.463232502602664E-2   -3.814022964654930E-2   -1.548783451854604E-2   -3.787348969905807E-2    4.448840032689227E-1   -2.422723058784707E-1
 6.529870056125000E9     5.461756955957006E-1   -1.237250844767671E-1   -1.479435981208219E-2   -3.839118374884071E-2   -1.572027778495436E-2   -3.806413564020340E-2    4.443809862940049E-1   -2.432352395074136E-1
 6.529879287250000E9     5.460399806142372E-1   -1.244242350493264E-1   -1.493256362336521E-2   -3.848924005176838E-2   -1.574930037756805E-2   -3.827882543995707E-2    4.437229113498586E-1   -2.440859084422758E-1
 6.529888518375000E9     5.458877272555440E-1   -1.252078892982688E-1   -1.501213648444718E-2   -3.871926237435828E-2   -1.597005789445122E-2   -3.847802036212111E-2    4.432800608412293E-1   -2.447907018845401E-1
 6.529897749500000E9     5.456318424105945E-1   -1.259418711267282E-1   -1.516141564478624E-2   -3.884219149942914E-2   -1.605868684223977E-2   -3.878940811679855E-2    4.427499276026405E-1   -2.457599560319269E-1
 6.529906980625000E9     5.455002687229538E-1   -1.268142671220834E-1   -1.539525842211294E-2   -3.911464459169259E-2   -1.623300306053691E-2   -3.890873925607689E-2    4.421655638692913E-1   -2.465391760388697E-1
 6.529916211750000E9     5.452801235109290E-1   -1.276612400155112E-1   -1.547595694435811E-2   -3.937688624597832E-2   -1.646081765823115E-2   -3.907784824804605E-2    4.417095744818881E-1   -2.474050448353452E-1
 6.529925442875000E9     5.450376695015111E-1   -1.284430745351733E-1   -1.555030703018652E-2   -3.957360464028327E-2   -1.673802809282093E-2   -3.922606747091622E-2    4.410630826293098E-1   -2.484363777826721E-1
 6.529934674000000E9     5.449024263008981E-1   -1.292239957988033E-1   -1.587106260922871E-2   -3.983969697979680E-2   -1.676058052193195E-2   -3.948736502372637E-2    4.406601577579590E-1   -2.493444373870542E-1
 6.529943905125000E9     5.446281546926306E-1   -1.300662932420603E-1   -1.596944632021381E-2   -3.986107131030520E-2   -1.699207478057738E-2   -3.964201880536887E-2    4.400892505609607E-1   -2.501840519463968E-1
 6.529953136250000E9     5.443631559551889E-1   -1.307015552097835E-1   -1.617005211563740E-2   -4.029872812645573E-2   -1.719963444868421E-2   -3.987462918123821E-2    4.394302495825271E-1   -2.510901796240019E-1
 6.529962367375000E9     5.442468843886190E-1   -1.315501219527525E-1   -1.634123971559499E-2   -4.048992017856555E-2   -1.729009538919888E-2   -4.005344816896552E-2    4.389621583070820E-1   -2.518469846000013E-1
 6.529971598500000E9     5.440433077041137E-1   -1.323834376530234E-1   -1.653004590142410E-2   -4.058634843844173E-2   -1.765126400652282E-2   -4.027442681413173E-2    4.382270287768276E-1   -2.528109510894135E-1
 6.529980829625000E9     5.438450177287197E-1   -1.331127954936236E-1   -1.679507454462670E-2   -4.083441601923965E-2   -1.769459158456206E-2   -4.052305643244872E-2    4.377114234397992E-1   -2.536797752480829E-1
 6.529990060750000E9     5.436275528077580E-1   -1.337877175379170E-1   -1.709765112993804E-2   -4.109407071103940E-2   -1.780725331402230E-2   -4.081783150633539E-2    4.371323849012886E-1   -2.545442102334239E-1
 6.529999291875000E9     5.433854431967767E-1   -1.347403641701028E-1   -1.708793943787746E-2   -4.130312359185247E-2   -1.812696738055665E-2   -4.102330454056059E-2    4.363297531945035E-1   -2.554981494397874E-1
 6.530008523000000E9     5.430803026059110E-1   -1.355408947364750E-1   -1.727948348956851E-2   -4.155445649130302E-2   -1.835375599623033E-2   -4.118188867231156E-2    4.359790321635451E-1   -2.563989456805632E-1
 6.530017754125000E9     5.429100470186494E-1   -1.362771398183786E-1   -1.744606963215671E-2   -4.177486417058002E-2   -1.852835090642009E-2   -4.129635094634451E-2    4.352800107601005E-1   -2.574083938680350E-1
 6.530026985250000E9     5.427493101977342E-1   -1.370335490581173E-1   -1.771821093559615E-2   -4.189714768622028E-2   -1.870312466493819E-2   -4.159791248828272E-2    4.349692068177603E-1   -2.583128522273409E-1
 6.530036216375000E9     5.426047882822312E-1   -1.378013701074263E-1   -1.792479912671386E-2   -4.238368016090108E-2   -1.895906958869254E-2   -4.177748019670222E-2    4.342050281650914E-1   -2.592145886409799E-1
 6.530045447500000E9     5.422395012161360E-1   -1.386581612003756E-1   -1.810081401030810E-2   -4.228343655918351E-2   -1.920013387040530E-2   -4.214606353024331E-2    4.335246241185268E-1   -2.601089097173650E-1
 6.530054678625000E9     5.419075752835267E-1   -1.395504912612347E-1   -1.838303443483432E-2   -4.268214447162680E-2   -1.943499746115366E-2   -4.226343702945103E-2    4.329963299742434E-1   -2.610538010111126E-1
 6.530063909750000E9     5.417455222144868E-1   -1.402780691059476E-1   -1.856814291019772E-2   -4.287485871075170E-2   -1.946158297005775E-2   -4.259780265082611E-2    4.322344735464977E-1   -2.620956687999960E-1
 6.530073140875000E9     5.416020373385381E-1   -1.411486388258676E-1   -1.881065826885210E-2   -4.318017774264914E-2   -1.983281325926734E-2   -4.275035596722824E-2    4.314099726962720E-1   -2.628299915594288E-1
 6.530082372000000E9     5.414026682777736E-1   -1.419913274195761E-1   -1.899965988253571E-2   -4.350772279130941E-2   -2.003188332493443E-2   -4.311521064488637E-2    4.309628928685904E-1   -2.637546647986211E-1
 6.530091603125000E9     5.410208464594083E-1   -1.428190856884478E-1   -1.914816970402040E-2   -4.364465037067397E-2   -2.020144034576001E-2   -4.330384926670851E-2    4.302646703757915E-1   -2.648166775843620E-1
 6.530100834250000E9     5.408164675319413E-1   -1.436280150135077E-1   -1.945124393348014E-2   -4.393530980419472E-2   -2.049120390271549E-2   -4.344226814294313E-2    4.295211024515457E-1   -2.658170077862392E-1
 6.530110065375000E9     5.405429899931189E-1   -1.443375865111893E-1   -1.944204596340718E-2   -4.438791731910069E-2   -2.070872621970527E-2   -4.385263862619568E-2    4.288452705386432E-1   -2.667643611626736E-1
 6.530119296500000E9     5.402216533130717E-1   -1.452312127640399E-1   -1.998974102447056E-2   -4.458063085472079E-2   -2.093003617004868E-2   -4.418526814547871E-2    4.280938654936223E-1   -2.678169150386574E-1
 6.530128527625000E9     5.399785942554741E-1   -1.460776583185143E-1   -2.003901861913705E-2   -4.484877288303916E-2   -2.121757000982210E-2   -4.428097836035157E-2    4.275280391785388E-1   -2.686547547605491E-1
 6.530137758750000E9     5.397021644266258E-1   -1.468289977192334E-1   -2.033447134022729E-2   -4.506707304563427E-2   -2.135300410758363E-2   -4.464428435652924E-2    4.268051034398441E-1   -2.696095425317843E-1
 6.530146989875000E9     5.395598552447449E-1   -1.476686425346503E-1   -2.061307630069882E-2   -4.534614347382810E-2   -2.167845506128274E-2   -4.488402600739785E-2    4.261415368358864E-1   -2.705815612815879E-1
 6.530156221000000E9     5.392675322096045E-1   -1.483856048379510E-1   -2.085237596913141E-2   -4.551937732484418E-2   -2.195363160606091E-2   -4.519242255734653E-2    4.254030388055682E-1   -2.717507979710299E-1
 6.530165452125000E9     5.389138146705706E-1   -1.493752439262626E-1   -2.112161441350438E-2   -4.587534988225039E-2   -2.224092210474946E-2   -4.545303671771415E-2    4.246784620612063E-1   -2.726810770830022E-1
 6.530174683250000E9     5.386036210611981E-1   -1.501518968904782E-1   -2.132854794290198E-2   -4.613893023890057E-2   -2.257600548606110E-2   -4.573645734288496E-2    4.239555985060124E-1   -2.736325916306843E-1
 6.530183914375000E9     5.382785181142951E-1   -1.510255717593279E-1   -2.167679148978170E-2   -4.636470550399170E-2   -2.279952702983100E-2   -4.604680012781857E-2    4.232256112235791E-1   -2.744883721233156E-1
 6.530193145500000E9     5.380753867905600E-1   -1.518358447385378E-1   -2.197791538156949E-2   -4.672258371126509E-2   -2.294711545549741E-2   -4.626656631599747E-2    4.223688504149335E-1   -2.755593848878791E-1
 6.530202376625000E9     5.377757424655606E-1   -1.526297526052534E-1   -2.212688499400103E-2   -4.704594058963513E-2   -2.334367507608525E-2   -4.665350254775193E-2    4.216973769963629E-1   -2.766165490534845E-1
 6.530211607750000E9     5.375868891371851E-1   -1.535149072520710E-1   -2.236444611684822E-2   -4.732434691295142E-2   -2.362865628539162E-2   -4.675609860929297E-2    4.209023957474248E-1   -2.775719378446380E-1
 6.530220838875000E9     5.371947765522790E-1   -1.543455945103872E-1   -2.254886912004300E-2   -4.767426526293150E-2   -2.381630178937355E-2   -4.725220523980366E-2    4.201461803068062E-1   -2.785445635603851E-1
 6.530230070000000E9     5.369089450973680E-1   -1.553234303845465E-1   -2.294577802320536E-2   -4.780966883677438E-2   -2.409215294572519E-2   -4.750636987150689E-2    4.194381589585229E-1   -2.795770870350213E-1
 6.530239301125000E9     5.366866564316610E-1   -1.560331739368774E-1   -2.318400158111125E-2   -4.831832469982697E-2   -2.442612711963431E-2   -4.777033914624450E-2    4.185935993370646E-1   -2.806851893929208E-1
 6.530248532250000E9     5.364188678819553E-1   -1.568579482734514E-1   -2.356822863412954E-2   -4.857694688158234E-2   -2.476090865586587E-2   -4.803872035257808E-2    4.177802402790355E-1   -2.817632411539007E-1
 6.530257763375000E9     5.361278941475492E-1   -1.576066770797807E-1   -2.387991620230734E-2   -4.888371787992683E-2   -2.504567025428226E-2   -4.832597165167180E-2    4.168734420982163E-1   -2.827808677183327E-1
 6.530266994500000E9     5.358417828466407E-1   -1.585800092775797E-1   -2.416149802889523E-2   -4.933653322095104E-2   -2.539306191335054E-2   -4.865690962201268E-2    4.159979195319558E-1   -2.838195185698246E-1
 6.530276225625000E9     5.353959524776960E-1   -1.595635495557122E-1   -2.452750707762247E-2   -4.948849342538032E-2   -2.565285092913435E-2   -4.900136434081710E-2    4.152174794328378E-1   -2.848445047608111E-1
 6.530285456750000E9     5.351003735868696E-1   -1.602753225090815E-1   -2.476694315087922E-2   -4.984939175621038E-2   -2.602938461368171E-2   -4.929223668412110E-2    4.143706632717654E-1   -2.856924632572161E-1
 6.530294687875000E9     5.347396193217547E-1   -1.613332428480371E-1   -2.505561910538748E-2   -5.004440392704923E-2   -2.638902662567681E-2   -4.962831157889755E-2    4.135312499984181E-1   -2.869462221966555E-1
 6.530303919000000E9     5.345618968395576E-1   -1.621310031469123E-1   -2.553656196038082E-2   -5.049593667408040E-2   -2.671795300517476E-2   -4.995461976916432E-2    4.126840253084428E-1   -2.880540920290163E-1
 6.530313150125000E9     5.341549493568463E-1   -1.628631990057703E-1   -2.572187327953615E-2   -5.078463348295942E-2   -2.704788610723636E-2   -5.026416187861835E-2    4.116358335678905E-1   -2.890672952964509E-1
 6.530322381250000E9     5.337961661391433E-1   -1.638865011403554E-1   -2.609317827560596E-2   -5.117892451758254E-2   -2.746176684701791E-2   -5.057143119221564E-2    4.107525058939341E-1   -2.901557075500754E-1
 6.530331612375000E9     5.335017860270573E-1   -1.646589829520561E-1   -2.645380687824003E-2   -5.155942664593101E-2   -2.771942864452202E-2   -5.097829190182297E-2    4.098298828847862E-1   -2.913198204950926E-1
 6.530340843500000E9     5.331966131824755E-1   -1.655216138314478E-1   -2.683559385050456E-2   -5.205654314568283E-2   -2.811115620246183E-2   -5.125173776454130E-2    4.090119120632981E-1   -2.924227493508584E-1
 6.530350074625000E9     5.327471605201308E-1   -1.663960626832349E-1   -2.704019898515661E-2   -5.237827490275235E-2   -2.850221935506944E-2   -5.166428210220655E-2    4.078190409543333E-1   -2.935301371311307E-1
 6.530359305750000E9     5.323985480727974E-1   -1.672925532049639E-1   -2.750253441856611E-2   -5.259400136816597E-2   -2.889636100464286E-2   -5.198634583330278E-2    4.072033359633601E-1   -2.947321644452196E-1
 6.530368536875000E9     5.320783332651106E-1   -1.680612618510922E-1   -2.793324453123724E-2   -5.292426798802657E-2   -2.922057508684881E-2   -5.239659195336314E-2    4.059618088932325E-1   -2.958639112503008E-1
 6.530377768000000E9     5.317175091759098E-1   -1.690260092947150E-1   -2.823710169567206E-2   -5.342878829743452E-2   -2.967336845103389E-2   -5.272670002565116E-2    4.050765141594466E-1   -2.970043431513548E-1
 6.530386999125000E9     5.313828243328912E-1   -1.699193740891569E-1   -2.863131352850804E-2   -5.387909094019890E-2   -3.002094530420015E-2   -5.305062005113870E-2    4.040274075750952E-1   -2.980825494953874E-1
 6.530396230250000E9     5.309165058561260E-1   -1.709056541215839E-1   -2.898482635288292E-2   -5.429646764344676E-2   -3.040369265250207E-2   -5.354640382646658E-2    4.029194578559319E-1   -2.990444775444809E-1
