#  HZ   S   RI   R     50.00 
! Rohde & Schwarz Vector Network Analyzer 
! Rohde-Schwarz,ZNB20-2Port,1311601062101988,3.16
! Created: UTC 3/21/2024, 1:19:50 AM
! freq[Hz]                re:S11                  im:S11                  re:S21                  im:S21                  re:S12                  im:S12                  re:S22                  im:S22
 6.529590079000000E9     5.515111224820087E-1   -1.000323044219438E-1   -1.072457464798612E-2   -3.297303414736601E-2   -1.143211101176369E-2   -3.282692909876503E-2    4.584116564160637E-1   -2.174245712477549E-1
 6.529599259400000E9     5.513011079132653E-1   -1.008945337109077E-1   -1.069170669744127E-2   -3.310686813434419E-2   -1.149594569946351E-2   -3.298443624791384E-2    4.579601907374964E-1   -2.182435575307174E-1
 6.529608439800000E9     5.511489431741458E-1   -1.015839627198666E-1   -1.085348399543113E-2   -3.334325447465581E-2   -1.169403177647923E-2   -3.312562411110295E-2    4.577171157564126E-1   -2.189540466898204E-1
 6.529617620200000E9     5.510177045902169E-1   -1.022644019988473E-1   -1.112384769225025E-2   -3.339443756180979E-2   -1.179209684507912E-2   -3.318586898873507E-2    4.572304629231945E-1   -2.198454440469612E-1
 6.529626800600000E9     5.508843566984503E-1   -1.031089041723243E-1   -1.103401988957246E-2   -3.361780786951518E-2   -1.180475388606593E-2   -3.330443882654005E-2    4.568281277692913E-1   -2.205102424938710E-1
 6.529635981000000E9     5.507687495016067E-1   -1.039476028760856E-1   -1.119721436483773E-2   -3.378004198385236E-2   -1.194919871175185E-2   -3.346443951125778E-2    4.565146037617450E-1   -2.213547755892949E-1
 6.529645161400000E9     5.506118972782483E-1   -1.046007299097842E-1   -1.133310343627095E-2   -3.378422844284898E-2   -1.210413937112481E-2   -3.365915652903420E-2    4.559422201297145E-1   -2.222280186886956E-1
 6.529654341800000E9     5.504177181371180E-1   -1.053076665732807E-1   -1.131695777386247E-2   -3.394398091120462E-2   -1.217426568711673E-2   -3.377639846991346E-2    4.555906035139816E-1   -2.229797332508552E-1
 6.529663522200000E9     5.504395234790407E-1   -1.060909181161928E-1   -1.150267740819747E-2   -3.424538374742986E-2   -1.238820073908825E-2   -3.398586106106990E-2    4.551727760817791E-1   -2.237050289160772E-1
 6.529672702600000E9     5.500065504724224E-1   -1.067748099567463E-1   -1.178171051461301E-2   -3.427300063796834E-2   -1.249523409265543E-2   -3.401521403961291E-2    4.547285970126499E-1   -2.245253165043978E-1
 6.529681883000000E9     5.498645328861190E-1   -1.075453136358516E-1   -1.171672012395188E-2   -3.450453014475208E-2   -1.252342631145059E-2   -3.432425754499512E-2    4.543130341793258E-1   -2.254422927226398E-1
 6.529691063400000E9     5.497716373185179E-1   -1.084801211124274E-1   -1.197714040437623E-2   -3.453203190335084E-2   -1.269039206197879E-2   -3.436827279251962E-2    4.538520882262368E-1   -2.262213375371264E-1
 6.529700243800000E9     5.496135500741132E-1   -1.090017738576537E-1   -1.191136692499429E-2   -3.479364711063424E-2   -1.285041759049950E-2   -3.450832971453227E-2    4.534611955646906E-1   -2.268526029081715E-1
 6.529709424200000E9     5.494285999667585E-1   -1.098479401406252E-1   -1.215172391103786E-2   -3.489776742442917E-2   -1.289552137149653E-2   -3.462686894053010E-2    4.528898292418992E-1   -2.276873966493570E-1
 6.529718604600000E9     5.492140834064463E-1   -1.106222953560829E-1   -1.241585637708762E-2   -3.515723771024190E-2   -1.298612826169495E-2   -3.481395021893692E-2    4.526749807076949E-1   -2.284318171637100E-1
 6.529727785000000E9     5.491814746962472E-1   -1.113838665913126E-1   -1.234513055403627E-2   -3.538992672936194E-2   -1.315723209506305E-2   -3.497623136305703E-2    4.522599359405371E-1   -2.293457592133858E-1
 6.529736965400000E9     5.488918025517592E-1   -1.121155194886401E-1   -1.252852209091683E-2   -3.541429855246583E-2   -1.318262868273125E-2   -3.527903485800907E-2    4.516597712505137E-1   -2.302646404807193E-1
 6.529746145800000E9     5.487912995906605E-1   -1.128417744101873E-1   -1.272277618225478E-2   -3.556819667233340E-2   -1.333966075219286E-2   -3.531910965661477E-2    4.512458090723452E-1   -2.309400044449332E-1
 6.529755326200000E9     5.486589639673114E-1   -1.136734433718608E-1   -1.278005219070378E-2   -3.584002018569870E-2   -1.364512745492287E-2   -3.556730748208427E-2    4.509007446591486E-1   -2.319271679318221E-1
 6.529764506600000E9     5.485112422325089E-1   -1.143770060434773E-1   -1.289656323332152E-2   -3.591708100211267E-2   -1.370764609220609E-2   -3.560490420316879E-2    4.503896185230864E-1   -2.326768203535511E-1
 6.529773687000000E9     5.483040508886994E-1   -1.151029205356605E-1   -1.306769884758504E-2   -3.624410266796972E-2   -1.395725120813363E-2   -3.574002799265855E-2    4.498683905724022E-1   -2.334069299883669E-1
 6.529782867400000E9     5.481088209153308E-1   -1.159607979792974E-1   -1.314123127068884E-2   -3.622122045409436E-2   -1.405137127227763E-2   -3.619173119991518E-2    4.493071865248011E-1   -2.343055280152093E-1
 6.529792047800000E9     5.480486055395729E-1   -1.165428844356322E-1   -1.328206968629473E-2   -3.647248314642328E-2   -1.412414042857785E-2   -3.617923496475420E-2    4.489515205342503E-1   -2.350642709662878E-1
 6.529801228200000E9     5.478933234197011E-1   -1.174340098811478E-1   -1.344841569394692E-2   -3.657806796355899E-2   -1.440397227599386E-2   -3.634787182528174E-2    4.485234133288698E-1   -2.359417725028472E-1
 6.529810408600000E9     5.476737665009088E-1   -1.182756344526058E-1   -1.370180358613103E-2   -3.674410218814460E-2   -1.437727490330378E-2   -3.657226999543016E-2    4.478862649498785E-1   -2.367068021132970E-1
 6.529819589000000E9     5.473853038571505E-1   -1.188919612203036E-1   -1.358310968544261E-2   -3.706081271538179E-2   -1.470190518518548E-2   -3.684283513391753E-2    4.475227818659734E-1   -2.377783017363264E-1
 6.529828769400000E9     5.473438572939857E-1   -1.197107979987456E-1   -1.379441142194229E-2   -3.727515283316803E-2   -1.476427482283880E-2   -3.697825435930436E-2    4.469481387505368E-1   -2.384301624048115E-1
 6.529837949800000E9     5.471592132517632E-1   -1.204916345230705E-1   -1.399703241615619E-2   -3.728291774790559E-2   -1.488456085241173E-2   -3.709894709760958E-2    4.464987654625466E-1   -2.393377162211953E-1
 6.529847130200000E9     5.469330815776131E-1   -1.213028969626370E-1   -1.413294374185052E-2   -3.743161302800201E-2   -1.490607365139871E-2   -3.731855754046264E-2    4.459250973478365E-1   -2.402186912550636E-1
 6.529856310600000E9     5.467921070745767E-1   -1.220365037328202E-1   -1.419478192143131E-2   -3.779044541959984E-2   -1.507836022237389E-2   -3.743052829026997E-2    4.454816144258964E-1   -2.409094655483932E-1
 6.529865491000000E9     5.464261963654423E-1   -1.228817452517295E-1   -1.444208877163565E-2   -3.789784281900200E-2   -1.530076656851052E-2   -3.761551695383904E-2    4.448010924202770E-1   -2.418589526859544E-1
 6.529874671400000E9     5.462779746179692E-1   -1.235130140253046E-1   -1.468088356522746E-2   -3.819704159255709E-2   -1.552082170371763E-2   -3.778832139167389E-2    4.444055653535538E-1   -2.427783380116599E-1
 6.529883851800000E9     5.461440467750680E-1   -1.244380239221815E-1   -1.464923317458201E-2   -3.838817025240276E-2   -1.562540011581403E-2   -3.804857016572295E-2    4.439543672454362E-1   -2.434022192913379E-1
 6.529893032200000E9     5.458842658798885E-1   -1.252237973931024E-1   -1.487131968048925E-2   -3.851443998507314E-2   -1.573636284996334E-2   -3.822122738240637E-2    4.435329461737029E-1   -2.444301015119736E-1
 6.529902212600000E9     5.457591819659602E-1   -1.259485804191983E-1   -1.512414935099663E-2   -3.869193812521134E-2   -1.599749032912337E-2   -3.848852461899905E-2    4.429595768232887E-1   -2.454719459508562E-1
 6.529911393000000E9     5.456129904371653E-1   -1.267398095757877E-1   -1.514753017580839E-2   -3.893454311764086E-2   -1.619545740181940E-2   -3.858455355660604E-2    4.424737598389539E-1   -2.462069312597687E-1
 6.529920573400000E9     5.452554290478256E-1   -1.273237707741533E-1   -1.532908556109972E-2   -3.913896468284622E-2   -1.643756267466666E-2   -3.869343377491778E-2    4.418792183940777E-1   -2.471049927980983E-1
 6.529929753800000E9     5.451130869827402E-1   -1.282730700233694E-1   -1.563746856863842E-2   -3.940103781633016E-2   -1.646248098352158E-2   -3.906004103253809E-2    4.414352884092396E-1   -2.480328482979690E-1
 6.529938934200000E9     5.449095352832768E-1   -1.290754929170783E-1   -1.566921738646754E-2   -3.948095795463493E-2   -1.673203103204385E-2   -3.917085842031395E-2    4.408835758234984E-1   -2.487634398873836E-1
 6.529948114600000E9     5.447444173503273E-1   -1.297982448921649E-1   -1.581421709229777E-2   -3.968424544720792E-2   -1.681395368162527E-2   -3.937674704111661E-2    4.402089472029095E-1   -2.497454963242637E-1
 6.529957295000000E9     5.444897544021515E-1   -1.305017784789617E-1   -1.612309474838491E-2   -3.991993623184848E-2   -1.695627754637885E-2   -3.950381404193794E-2    4.396558871273311E-1   -2.504822540121410E-1
 6.529966475400000E9     5.442559087046641E-1   -1.314166081437113E-1   -1.617846867022492E-2   -4.013661420836538E-2   -1.717327103609391E-2   -3.982797259325666E-2    4.390559557503181E-1   -2.512872438344615E-1
 6.529975655800000E9     5.441051801125264E-1   -1.321050040891419E-1   -1.640650920634533E-2   -4.037170425240764E-2   -1.731399413260808E-2   -3.997956436428285E-2    4.385050531690097E-1   -2.524126298949653E-1
 6.529984836200000E9     5.439181638920293E-1   -1.329050741390128E-1   -1.650194200002262E-2   -4.065676346444089E-2   -1.751544394444008E-2   -4.029110700290959E-2    4.379738395915981E-1   -2.531132935354284E-1
 6.529994016600000E9     5.436187519436304E-1   -1.337570615639446E-1   -1.672069504423500E-2   -4.085376113018550E-2   -1.779299747304388E-2   -4.052403793411909E-2    4.374742271500831E-1   -2.541677277605844E-1
 6.530003197000000E9     5.434611613879261E-1   -1.345428483422995E-1   -1.689069650170143E-2   -4.108219978419871E-2   -1.802178992722873E-2   -4.062417619321343E-2    4.368400319007961E-1   -2.551089670337410E-1
 6.530012377400000E9     5.431846074985356E-1   -1.354317512315649E-1   -1.712056246858042E-2   -4.116286411438159E-2   -1.805524239400502E-2   -4.096489328327433E-2    4.361791130564706E-1   -2.559200926699162E-1
 6.530021557800000E9     5.429984141104289E-1   -1.361074546323763E-1   -1.721650197399908E-2   -4.148940361345425E-2   -1.847103583608397E-2   -4.106892497060104E-2    4.355785378742046E-1   -2.568978213568139E-1
 6.530030738200000E9     5.427502853433458E-1   -1.370009154974250E-1   -1.743320798301229E-2   -4.175808772145344E-2   -1.869829462308420E-2   -4.129108396040814E-2    4.348969650767230E-1   -2.576504408226225E-1
 6.530039918600000E9     5.425020241454019E-1   -1.376924005624084E-1   -1.786410501853816E-2   -4.194229627854072E-2   -1.881940145737311E-2   -4.155438684625487E-2    4.343378886802864E-1   -2.588484959440704E-1
 6.530049099000000E9     5.423287399386598E-1   -1.384257302966402E-1   -1.798631371398332E-2   -4.213341179738045E-2   -1.903929099471807E-2   -4.179304263460734E-2    4.337539567714578E-1   -2.595547024476504E-1
 6.530058279400000E9     5.420666886853063E-1   -1.392425930738070E-1   -1.814481494030303E-2   -4.244338304389922E-2   -1.909413915444235E-2   -4.197011885394363E-2    4.331152545984130E-1   -2.605209917107555E-1
 6.530067459800000E9     5.419253362729499E-1   -1.401023654855411E-1   -1.820087872826946E-2   -4.266551566307884E-2   -1.932578572873667E-2   -4.230812809561274E-2    4.325494128489273E-1   -2.615178816347665E-1
 6.530076640200000E9     5.417397489269759E-1   -1.408992913799030E-1   -1.845050078417142E-2   -4.285618997160676E-2   -1.959598209683524E-2   -4.248432088461739E-2    4.319099037088199E-1   -2.623369832725219E-1
 6.530085820600000E9     5.413298094639246E-1   -1.417431260699592E-1   -1.872396059837222E-2   -4.312603190583201E-2   -1.981224446936269E-2   -4.275629356987194E-2    4.312250461835921E-1   -2.631737992611067E-1
 6.530095001000000E9     5.411457580484679E-1   -1.425866061119502E-1   -1.888161326026107E-2   -4.351272199288396E-2   -2.002525661603620E-2   -4.298606451926031E-2    4.306534440654294E-1   -2.640464140395483E-1
 6.530104181400000E9     5.408740047238667E-1   -1.432571865548252E-1   -1.916137889789059E-2   -4.360241647968784E-2   -2.022007695964283E-2   -4.327549112597727E-2    4.300613056694410E-1   -2.651951177353396E-1
 6.530113361800000E9     5.406692987920257E-1   -1.442491591211306E-1   -1.949704755311308E-2   -4.391002223934656E-2   -2.039694129930777E-2   -4.347317359182343E-2    4.292707606261417E-1   -2.661925975165345E-1
 6.530122542200000E9     5.404052556993069E-1   -1.449583117101231E-1   -1.973059166875717E-2   -4.414599692504238E-2   -2.080521401683610E-2   -4.379083405444728E-2    4.286154453215595E-1   -2.669619696498133E-1
 6.530131722600000E9     5.401649509484119E-1   -1.458037345922951E-1   -1.977493261173190E-2   -4.449217399470794E-2   -2.095704337009462E-2   -4.393042060640712E-2    4.278533820188242E-1   -2.679867864696110E-1
 6.530140903000000E9     5.398154799752545E-1   -1.466171812240548E-1   -2.005491241102165E-2   -4.472723703503415E-2   -2.111230815383510E-2   -4.434290611751190E-2    4.273235861381608E-1   -2.688563006852920E-1
 6.530150083400000E9     5.396166450821802E-1   -1.473644492570775E-1   -2.035081990504973E-2   -4.495693666200097E-2   -2.139403696997001E-2   -4.451395330977041E-2    4.265054880062157E-1   -2.700167296205467E-1
 6.530159263800000E9     5.394304956275118E-1   -1.482242843287334E-1   -2.052191321454712E-2   -4.510630812137106E-2   -2.158340117258814E-2   -4.483225335100836E-2    4.259045361470120E-1   -2.709057139496431E-1
 6.530168444200000E9     5.391353823240415E-1   -1.489894907201196E-1   -2.077211564625524E-2   -4.552654595790567E-2   -2.188766416010581E-2   -4.505144208401560E-2    4.251058281452759E-1   -2.719385518422490E-1
 6.530177624600000E9     5.387870668154814E-1   -1.499792195982967E-1   -2.095456753669210E-2   -4.582837063208015E-2   -2.222401317440039E-2   -4.543209578361735E-2    4.243687141817653E-1   -2.729437732665850E-1
 6.530186805000000E9     5.386175504392267E-1   -1.506516661971931E-1   -2.128760421027747E-2   -4.600672481044770E-2   -2.245904303127705E-2   -4.552814962990580E-2    4.237202885727927E-1   -2.738527159399112E-1
 6.530195985400000E9     5.382777684522648E-1   -1.514348701912487E-1   -2.140582020492255E-2   -4.635655872217827E-2   -2.270353078661213E-2   -4.584213410850217E-2    4.229799255211521E-1   -2.749262357849807E-1
 6.530205165800000E9     5.380336746496149E-1   -1.523383125688146E-1   -2.180928180802992E-2   -4.664967438222790E-2   -2.290213194420082E-2   -4.628557238462918E-2    4.221463642380833E-1   -2.757615280301329E-1
 6.530214346200000E9     5.377178487034453E-1   -1.531930638616474E-1   -2.190502277447330E-2   -4.688899094885943E-2   -2.331974353662521E-2   -4.648121641166857E-2    4.214309847750036E-1   -2.768354170694260E-1
 6.530223526600000E9     5.374238880668497E-1   -1.539056825187750E-1   -2.228042564064562E-2   -4.726017387600361E-2   -2.352960251964848E-2   -4.668902558891978E-2    4.207053403165382E-1   -2.778248499587418E-1
 6.530232707000000E9     5.371390395408150E-1   -1.548956085676960E-1   -2.265176812202572E-2   -4.751813876401024E-2   -2.386545216823345E-2   -4.698553124939994E-2    4.199661361931260E-1   -2.787151270783258E-1
 6.530241887400000E9     5.369056810768283E-1   -1.556070837488631E-1   -2.306263109496761E-2   -4.779050920153841E-2   -2.412222035788769E-2   -4.737207277263305E-2    4.191517670846228E-1   -2.798507811522447E-1
 6.530251067800000E9     5.364983836385671E-1   -1.565881932942074E-1   -2.328349094728210E-2   -4.814463230669791E-2   -2.432986696207286E-2   -4.750467405898585E-2    4.182276442912901E-1   -2.807063970333659E-1
 6.530260248200000E9     5.362463420726467E-1   -1.573937914526630E-1   -2.331710475305972E-2   -4.840926739527541E-2   -2.472922818931768E-2   -4.792722515454945E-2    4.176060306814279E-1   -2.819108304670447E-1
 6.530269428600000E9     5.359644368979148E-1   -1.583306215755884E-1   -2.369583236314627E-2   -4.877531877829921E-2   -2.501182354848070E-2   -4.822049894168899E-2    4.167391892162620E-1   -2.829103101528296E-1
 6.530278609000000E9     5.357160878563165E-1   -1.591291554361201E-1   -2.401703353244307E-2   -4.915537730109615E-2   -2.529036520277679E-2   -4.851168509386906E-2    4.160129873735018E-1   -2.840430618912199E-1
 6.530287789400000E9     5.354429126449982E-1   -1.598813475967463E-1   -2.434976682099594E-2   -4.937137025754277E-2   -2.567119045789158E-2   -4.879161180285326E-2    4.150117397138446E-1   -2.851358123163873E-1
 6.530296969800000E9     5.350229912277267E-1   -1.608191344408073E-1   -2.458716887577863E-2   -4.964403579563596E-2   -2.591498252307073E-2   -4.917343312565807E-2    4.141924542798672E-1   -2.861902965277635E-1
 6.530306150200000E9     5.346953329322286E-1   -1.616846464732190E-1   -2.491044480471390E-2   -5.004266754492466E-2   -2.629945437837029E-2   -4.943874706916275E-2    4.134082799050845E-1   -2.869994340419752E-1
 6.530315330600000E9     5.343991882228724E-1   -1.625405743440280E-1   -2.531903027414636E-2   -5.042727860459491E-2   -2.661290686636886E-2   -4.981812805024636E-2    4.126083202605073E-1   -2.880548719653092E-1
 6.530324511000000E9     5.340910348227139E-1   -1.634085928558911E-1   -2.570899996111441E-2   -5.067587837275046E-2   -2.688553148799680E-2   -5.018779428562357E-2    4.116417588149300E-1   -2.891551827620369E-1
 6.530333691400000E9     5.337388875073654E-1   -1.641972623886484E-1   -2.579028606718923E-2   -5.108129721733475E-2   -2.734591699678327E-2   -5.046892057754556E-2    4.105896632298672E-1   -2.904359148324815E-1
 6.530342871800000E9     5.334002192096255E-1   -1.651991691043860E-1   -2.635956388685149E-2   -5.141309641258121E-2   -2.757085490810321E-2   -5.080708724946595E-2    4.097222705669203E-1   -2.913628608088784E-1
 6.530352052200000E9     5.330358374732355E-1   -1.658350221957409E-1   -2.661847282494233E-2   -5.185810246950831E-2   -2.789863353543431E-2   -5.121561190431147E-2    4.089199718211802E-1   -2.924733492405905E-1
 6.530361232600000E9     5.328055575249867E-1   -1.669130579855042E-1   -2.702180623317472E-2   -5.213308918458075E-2   -2.835589215694072E-2   -5.148073523901565E-2    4.079422708653108E-1   -2.935009302083871E-1
 6.530370413000000E9     5.323492095062745E-1   -1.677424281633859E-1   -2.733481377523507E-2   -5.250682873666850E-2   -2.876272655706786E-2   -5.177525409354782E-2    4.069104920523863E-1   -2.946367348331154E-1
 6.530379593400000E9     5.319190050845459E-1   -1.686297526248853E-1   -2.764727483595451E-2   -5.277416779871536E-2   -2.908534729239630E-2   -5.221421414728410E-2    4.058514136290874E-1   -2.957255001573066E-1
 6.530388773800000E9     5.316363464943098E-1   -1.695076112190869E-1   -2.805208097611579E-2   -5.331811235655872E-2   -2.952869212809157E-2   -5.254877026535469E-2    4.050157182764735E-1   -2.969674426543353E-1
 6.530397954200000E9     5.313191673077123E-1   -1.703437244579780E-1   -2.841199952491604E-2   -5.361418045464891E-2   -2.991755351049034E-2   -5.300165176276191E-2    4.040883331301080E-1   -2.979426483332848E-1
 6.530407134600000E9     5.309712788795409E-1   -1.712421151854158E-1   -2.877174093592094E-2   -5.412744145402233E-2   -3.035920974285739E-2   -5.335698295444655E-2    4.031127390163591E-1   -2.991205075610658E-1
 6.530416315000000E9     5.305026708788607E-1   -1.722105512694551E-1   -2.927312254561936E-2   -5.446314219544520E-2   -3.060288560226055E-2   -5.360730232956706E-2    4.019949869961616E-1   -3.003130951391434E-1
