#  HZ   S   RI   R     50.00 
! Rohde & Schwarz Vector Network Analyzer 
! Rohde-Schwarz,ZNB20-2Port,1311601062101988,3.16
! Created: UTC 3/21/2024, 1:19:52 AM
! freq[Hz]                re:S11                  im:S11                  re:S21                  im:S21                  re:S12                  im:S12                  re:S22                  im:S22
 6.529593381000000E9     5.513609815157693E-1   -1.003092201114561E-1   -1.064085410922398E-2   -3.298501906630074E-2   -1.145171967115376E-2   -3.293959592060176E-2    4.583941393756894E-1   -2.176089986984048E-1
 6.529602552075000E9     5.512302354421489E-1   -1.011104459301526E-1   -1.089548519671255E-2   -3.314957011570877E-2   -1.150540500238696E-2   -3.294170080291003E-2    4.579208972560802E-1   -2.184148977701078E-1
 6.529611723150000E9     5.511329349469065E-1   -1.017642663079960E-1   -1.091682214784750E-2   -3.328093466615569E-2   -1.157555657052929E-2   -3.310277197551798E-2    4.574124600880666E-1   -2.192483206435621E-1
 6.529620894225000E9     5.509909694166440E-1   -1.025433858395758E-1   -1.106772422240373E-2   -3.341891000131263E-2   -1.170176383219551E-2   -3.329466302486182E-2    4.572600660911366E-1   -2.199539826265978E-1
 6.529630065300000E9     5.508040245922550E-1   -1.033201095731537E-1   -1.097001254053179E-2   -3.348708143083379E-2   -1.182182625684457E-2   -3.333708249967828E-2    4.566620318001317E-1   -2.206715833640214E-1
 6.529639236375000E9     5.505905571273547E-1   -1.041094136888021E-1   -1.130433017743828E-2   -3.371405764068910E-2   -1.202867994833581E-2   -3.350726739001500E-2    4.563352892129723E-1   -2.215823975749041E-1
 6.529648407450000E9     5.505723527376086E-1   -1.047876348635049E-1   -1.125072576994468E-2   -3.404485447943194E-2   -1.208291906357655E-2   -3.367912473191800E-2    4.559948297778164E-1   -2.224704035615274E-1
 6.529657578525000E9     5.503475389432021E-1   -1.055258021326922E-1   -1.145178257971888E-2   -3.403451381891794E-2   -1.225962759143812E-2   -3.368303646268466E-2    4.553782291184165E-1   -2.231743149574140E-1
 6.529666749600000E9     5.500837370664484E-1   -1.062772550374014E-1   -1.151539999070381E-2   -3.407341167121409E-2   -1.237588797513149E-2   -3.399962317328444E-2    4.550763013890169E-1   -2.240693881462867E-1
 6.529675920675000E9     5.500240207019161E-1   -1.070383492005838E-1   -1.165531926192428E-2   -3.434550860030176E-2   -1.246764126078573E-2   -3.415952815221467E-2    4.547588132855233E-1   -2.247960839358673E-1
 6.529685091750000E9     5.498785042910069E-1   -1.077396006053706E-1   -1.174099345438604E-2   -3.448416964657074E-2   -1.256721341655747E-2   -3.422041177494606E-2    4.543442434632162E-1   -2.256031560872664E-1
 6.529694262825000E9     5.498015728732429E-1   -1.085483391704515E-1   -1.184298329401077E-2   -3.457426094926835E-2   -1.269896911483656E-2   -3.441984125276819E-2    4.538290187109039E-1   -2.263247816304895E-1
 6.529703433900000E9     5.494872745936189E-1   -1.092708110866974E-1   -1.191341048799023E-2   -3.499849263413127E-2   -1.287302517872257E-2   -3.463059163245827E-2    4.532908332300427E-1   -2.271676312068079E-1
 6.529712604975000E9     5.494469351689639E-1   -1.100747197747596E-1   -1.215057712477133E-2   -3.509702528864577E-2   -1.299820864008604E-2   -3.478357316279838E-2    4.528800190597568E-1   -2.279629047714352E-1
 6.529721776050000E9     5.492669573470795E-1   -1.108410687494738E-1   -1.241855472859746E-2   -3.502948781359123E-2   -1.310111263244958E-2   -3.493528128096217E-2    4.524640896149630E-1   -2.289300779980750E-1
 6.529730947125000E9     5.490975428726003E-1   -1.116777384806469E-1   -1.241603811435682E-2   -3.528855261765947E-2   -1.320612159396042E-2   -3.512000754249596E-2    4.520973778807535E-1   -2.296069140579327E-1
 6.529740118200000E9     5.489786511466256E-1   -1.124197619725769E-1   -1.249088785182636E-2   -3.551283062405609E-2   -1.337286508103762E-2   -3.523691822123222E-2    4.515502941177941E-1   -2.304422509386292E-1
 6.529749289275000E9     5.487193207971207E-1   -1.131651369178773E-1   -1.263302176334946E-2   -3.564177632044477E-2   -1.348576789603882E-2   -3.541666306107251E-2    4.511302775010006E-1   -2.312684749337529E-1
 6.529758460350000E9     5.485639571956973E-1   -1.139163294207324E-1   -1.286684530309753E-2   -3.582690519163801E-2   -1.369603795089389E-2   -3.558599513564997E-2    4.505529617251836E-1   -2.321894535814850E-1
 6.529767631425000E9     5.485164160737205E-1   -1.145646934165772E-1   -1.297363697888903E-2   -3.601300947312747E-2   -1.378929562100614E-2   -3.572448966709629E-2    4.501599749057709E-1   -2.329506407245387E-1
 6.529776802500000E9     5.482536421772073E-1   -1.152894474259238E-1   -1.302586638413125E-2   -3.616211701383681E-2   -1.395610269614780E-2   -3.587091840355364E-2    4.496391796084559E-1   -2.338161872880160E-1
 6.529785973575000E9     5.481509019567814E-1   -1.161606015276170E-1   -1.317137639959959E-2   -3.627609588284337E-2   -1.401202563071662E-2   -3.596904469698040E-2    4.492223006506678E-1   -2.345630946133193E-1
 6.529795144650000E9     5.478549350788277E-1   -1.167811043741514E-1   -1.325980976494263E-2   -3.651800934699962E-2   -1.415814766527697E-2   -3.623933618440358E-2    4.488860369337330E-1   -2.354328625007586E-1
 6.529804315725000E9     5.478103487561072E-1   -1.176471663346670E-1   -1.339998017622267E-2   -3.654958691601740E-2   -1.438328181917166E-2   -3.634298935531100E-2    4.483049806725620E-1   -2.362793537449744E-1
 6.529813486800000E9     5.475486008251375E-1   -1.183309812909045E-1   -1.352260696176858E-2   -3.670689717553596E-2   -1.443455182349217E-2   -3.651811606236801E-2    4.476898011221445E-1   -2.370031379936665E-1
 6.529822657875000E9     5.473552443270356E-1   -1.191571495957990E-1   -1.364563176311831E-2   -3.697973986357678E-2   -1.458693761323483E-2   -3.677521677159533E-2    4.474912121907199E-1   -2.378760383015193E-1
 6.529831828950000E9     5.472150408069919E-1   -1.200109120114720E-1   -1.384180720290880E-2   -3.728207891498816E-2   -1.473551709787453E-2   -3.693717331851775E-2    4.467256374364527E-1   -2.387487681662195E-1
 6.529841000025000E9     5.468878993609263E-1   -1.207167165204981E-1   -1.392301111696258E-2   -3.735475919527776E-2   -1.495335817995615E-2   -3.711184889347492E-2    4.462287432528226E-1   -2.395712630871191E-1
 6.529850171100000E9     5.468974534239175E-1   -1.215605365234782E-1   -1.418058848179972E-2   -3.767304503741332E-2   -1.503782499721847E-2   -3.729438490359297E-2    4.458777000559807E-1   -2.403281010659088E-1
 6.529859342175000E9     5.466145344185345E-1   -1.222534667486049E-1   -1.436977011203049E-2   -3.772079702188467E-2   -1.522124498995057E-2   -3.749002399738364E-2    4.452745428205330E-1   -2.414117407414017E-1
 6.529868513250000E9     5.463894279343757E-1   -1.230456308382832E-1   -1.446415906668692E-2   -3.793194872231067E-2   -1.539137451694286E-2   -3.763389190959673E-2    4.448609039048747E-1   -2.420116157826163E-1
 6.529877684325000E9     5.461844542059907E-1   -1.237795029022355E-1   -1.454450486660534E-2   -3.816173693359010E-2   -1.554428778670124E-2   -3.784461032476819E-2    4.443492430113073E-1   -2.429012297576299E-1
 6.529886855400000E9     5.460297894109414E-1   -1.246707986596838E-1   -1.474661945396328E-2   -3.847270824029085E-2   -1.561788696467554E-2   -3.804597803194974E-2    4.437229620582124E-1   -2.438394145932259E-1
 6.529896026475000E9     5.459030980832469E-1   -1.253037124525228E-1   -1.517371225412176E-2   -3.857555099759553E-2   -1.577801272848208E-2   -3.818679252556417E-2    4.433270205953316E-1   -2.447381959771789E-1
 6.529905197550000E9     5.457987964258667E-1   -1.260651491788298E-1   -1.523616692044856E-2   -3.878346881036929E-2   -1.600352485631927E-2   -3.849978191450136E-2    4.428658464259507E-1   -2.455754893800493E-1
 6.529914368625000E9     5.454863789579905E-1   -1.267795299589079E-1   -1.522934322430704E-2   -3.903466019149975E-2   -1.610612725341974E-2   -3.865163112824071E-2    4.421739424110094E-1   -2.463437289081684E-1
 6.529923539700000E9     5.453761842703174E-1   -1.277204678908681E-1   -1.546551912249119E-2   -3.909169572586354E-2   -1.633362281744603E-2   -3.878106046008515E-2    4.415040780165537E-1   -2.472850768639795E-1
 6.529932710775000E9     5.450902999100687E-1   -1.286036412905185E-1   -1.558977522443733E-2   -3.945749373251696E-2   -1.646105068790190E-2   -3.903699841302296E-2    4.411919583896794E-1   -2.482402224968344E-1
 6.529941881850000E9     5.449062305736755E-1   -1.292803845191477E-1   -1.554334720848382E-2   -3.949295662837015E-2   -1.664204361842512E-2   -3.922235298167692E-2    4.406983029313418E-1   -2.490015003735498E-1
 6.529951052925000E9     5.446443795512513E-1   -1.300049665057204E-1   -1.586330396145462E-2   -3.986212611960335E-2   -1.682326435256669E-2   -3.951392348437442E-2    4.402515185855271E-1   -2.499256402101446E-1
 6.529960224000000E9     5.444693664705527E-1   -1.309249217454259E-1   -1.614550775692919E-2   -3.986565001758782E-2   -1.706159012911805E-2   -3.961134417119781E-2    4.395663781282150E-1   -2.506940492809722E-1
 6.529969395075000E9     5.442853889879065E-1   -1.315775379543371E-1   -1.628613841882716E-2   -4.016650696313440E-2   -1.722649243756081E-2   -3.983509004513535E-2    4.389239200890191E-1   -2.517142705089235E-1
 6.529978566150000E9     5.441042170240791E-1   -1.323443905473098E-1   -1.651185369236920E-2   -4.044379736876279E-2   -1.745703718149582E-2   -4.010007431358190E-2    4.382786188152384E-1   -2.524555455660282E-1
 6.529987737225000E9     5.438185859196432E-1   -1.331560805062456E-1   -1.648059097835791E-2   -4.069952445408644E-2   -1.764423343327034E-2   -4.032954742441930E-2    4.378226772235342E-1   -2.533025353371893E-1
 6.529996908300000E9     5.436384974156534E-1   -1.339070665158001E-1   -1.678239421993754E-2   -4.092602147271250E-2   -1.776784378113855E-2   -4.048745682237876E-2    4.372642029258161E-1   -2.543814622836605E-1
 6.530006079375000E9     5.434396253310774E-1   -1.346927041820419E-1   -1.696466981244315E-2   -4.111930721927509E-2   -1.791271756365771E-2   -4.072060850140584E-2    4.366537992121555E-1   -2.552460869942784E-1
 6.530015250450000E9     5.431932503135779E-1   -1.355558109676023E-1   -1.720393139159780E-2   -4.130953018948031E-2   -1.814232308853661E-2   -4.093355568229749E-2    4.360929007213101E-1   -2.562831485990361E-1
 6.530024421525000E9     5.429455456582211E-1   -1.363186981936755E-1   -1.731264970915772E-2   -4.146729632910015E-2   -1.837323870693536E-2   -4.123909431369883E-2    4.355999945803742E-1   -2.570544216331999E-1
 6.530033592600000E9     5.427916384896843E-1   -1.370897531404938E-1   -1.756130029015006E-2   -4.171417455174424E-2   -1.860715937920128E-2   -4.139363790663764E-2    4.348689875105734E-1   -2.579487872769806E-1
 6.530042763675000E9     5.424421658277075E-1   -1.379052880751824E-1   -1.773457459454608E-2   -4.190907908349886E-2   -1.877785523450634E-2   -4.166928816733570E-2    4.342958795747622E-1   -2.589096524445876E-1
 6.530051934750000E9     5.421980127853863E-1   -1.385666552531592E-1   -1.799770164877005E-2   -4.202407424698503E-2   -1.901537872640884E-2   -4.182904597732183E-2    4.336615464592514E-1   -2.598965703224177E-1
 6.530061105825000E9     5.420465885685098E-1   -1.394830297395287E-1   -1.816641495518628E-2   -4.249777555443781E-2   -1.919664727156922E-2   -4.209899419025612E-2    4.331037588871831E-1   -2.608463425736599E-1
 6.530070276900000E9     5.417842278062974E-1   -1.402613340442075E-1   -1.836988554894202E-2   -4.272358349228710E-2   -1.941566199352592E-2   -4.228472811716986E-2    4.323601010907959E-1   -2.616617660110936E-1
 6.530079447975000E9     5.415835351223420E-1   -1.411882648614373E-1   -1.850603104136161E-2   -4.281541526375828E-2   -1.969946712330070E-2   -4.250541055730334E-2    4.318018249713223E-1   -2.625925668057699E-1
 6.530088619050000E9     5.413092377527939E-1   -1.419470362659889E-1   -1.881413589077238E-2   -4.319130481698757E-2   -1.974822335777997E-2   -4.269173910320713E-2    4.311572091207848E-1   -2.632858733507078E-1
 6.530097790125000E9     5.411528210661926E-1   -1.427875485466880E-1   -1.902547699364148E-2   -4.348040576151040E-2   -2.004275361595708E-2   -4.302067744784957E-2    4.304001922938435E-1   -2.645721073047062E-1
 6.530106961200000E9     5.408393105222905E-1   -1.435995325708078E-1   -1.922146067868341E-2   -4.365302815658168E-2   -2.023903223695398E-2   -4.329023325640781E-2    4.297712204229331E-1   -2.653203421138693E-1
 6.530116132275000E9     5.406946601236953E-1   -1.444148398139100E-1   -1.931935047914653E-2   -4.391087803647449E-2   -2.048500634341494E-2   -4.359228799223190E-2    4.291301483494573E-1   -2.663856157302771E-1
 6.530125303350000E9     5.403779106247637E-1   -1.451553103938511E-1   -1.968395824439002E-2   -4.426574019882427E-2   -2.081082700423814E-2   -4.374325317596914E-2    4.283944131553601E-1   -2.674241191149122E-1
 6.530134474425000E9     5.401676391881851E-1   -1.460028768977809E-1   -1.986485772055358E-2   -4.446017313674607E-2   -2.101079496611327E-2   -4.408543701772117E-2    4.279190908362890E-1   -2.681533511523569E-1
 6.530143645500000E9     5.398418743350011E-1   -1.467698849221704E-1   -2.013387926700919E-2   -4.467647054206480E-2   -2.116523443645460E-2   -4.424068415704580E-2    4.270539059096844E-1   -2.692716791450445E-1
 6.530152816575000E9     5.395799281919750E-1   -1.475882597636204E-1   -2.031180817918030E-2   -4.493359631112095E-2   -2.147841730344371E-2   -4.453504126416485E-2    4.264677427598756E-1   -2.702877125812284E-1
 6.530161987650000E9     5.392557302797979E-1   -1.482581643963133E-1   -2.061021966980855E-2   -4.527214235564582E-2   -2.172979119563637E-2   -4.477618424952031E-2    4.256918671298418E-1   -2.711100298549048E-1
 6.530171158725000E9     5.389777803460616E-1   -1.493600623783653E-1   -2.086268182753134E-2   -4.553741359695159E-2   -2.212366952975008E-2   -4.506150216769127E-2    4.251716608814412E-1   -2.721100943872178E-1
 6.530180329800000E9     5.387420079152124E-1   -1.500571503481437E-1   -2.104407275806509E-2   -4.596051453100230E-2   -2.221796290589048E-2   -4.541448004600906E-2    4.241081226991172E-1   -2.729905433302251E-1
 6.530189500875000E9     5.384302787341939E-1   -1.509589484996841E-1   -2.127354913559738E-2   -4.599935073889556E-2   -2.243739574767410E-2   -4.562329355809070E-2    4.234635796904487E-1   -2.739568428318547E-1
 6.530198671950000E9     5.382716052920030E-1   -1.517241146448114E-1   -2.161003857445470E-2   -4.638302676397540E-2   -2.274618908826462E-2   -4.597579574218076E-2    4.227642185154869E-1   -2.749558810342416E-1
 6.530207843025000E9     5.380145676311214E-1   -1.524663979378217E-1   -2.186301815453885E-2   -4.666735078577782E-2   -2.295846160406836E-2   -4.616490047279197E-2    4.221746876643192E-1   -2.759908869705030E-1
 6.530217014100000E9     5.376005244212692E-1   -1.534220147085876E-1   -2.217762648694259E-2   -4.707233107446065E-2   -2.328650927050035E-2   -4.644957664112216E-2    4.212940952109916E-1   -2.769431209636211E-1
 6.530226185175000E9     5.373971657847694E-1   -1.542084008118952E-1   -2.252666583347550E-2   -4.724208193010222E-2   -2.366150984674524E-2   -4.682030385164577E-2    4.205527255556094E-1   -2.779959164298619E-1
 6.530235356250000E9     5.371093871432822E-1   -1.550891568644907E-1   -2.268550264970022E-2   -4.758470357228444E-2   -2.388363938861120E-2   -4.711225388068045E-2    4.197728402514410E-1   -2.790348682440099E-1
 6.530244527325000E9     5.368514969802562E-1   -1.559316710511070E-1   -2.302218792288189E-2   -4.782542658661788E-2   -2.413346833541975E-2   -4.727766072753344E-2    4.190879054231669E-1   -2.801221717124560E-1
 6.530253698400000E9     5.365309454500580E-1   -1.567022404242069E-1   -2.328136133383910E-2   -4.816931643288956E-2   -2.445293330638072E-2   -4.765285092190172E-2    4.182435173026036E-1   -2.811007087889123E-1
 6.530262869475000E9     5.360862955280483E-1   -1.575106200956096E-1   -2.343134216917392E-2   -4.835268901340427E-2   -2.458450219880289E-2   -4.790657871118171E-2    4.173789093845199E-1   -2.822244995182446E-1
 6.530272040550000E9     5.359385213191239E-1   -1.584412489034604E-1   -2.378426535915766E-2   -4.884760795884765E-2   -2.502309794202225E-2   -4.830107501632688E-2    4.165396846075967E-1   -2.832738069214603E-1
 6.530281211625000E9     5.356357604271488E-1   -1.593076071445034E-1   -2.417275392033069E-2   -4.914359981463563E-2   -2.534973175177519E-2   -4.856329626286712E-2    4.158318644716582E-1   -2.840475962073797E-1
 6.530290382700000E9     5.353359567817180E-1   -1.600803901406349E-1   -2.427579062755306E-2   -4.956610973176758E-2   -2.563371938755173E-2   -4.884627094699136E-2    4.150963561162717E-1   -2.853568409403450E-1
 6.530299553775000E9     5.349392223305613E-1   -1.608582486278248E-1   -2.483120080112968E-2   -4.982537593311152E-2   -2.596056690333044E-2   -4.915936546546451E-2    4.140886875536609E-1   -2.863199339787855E-1
 6.530308724850000E9     5.346437335201878E-1   -1.619256462818520E-1   -2.516265186599706E-2   -5.014375260554531E-2   -2.642548950445544E-2   -4.952990000034094E-2    4.132102737191999E-1   -2.874336552495697E-1
 6.530317895925000E9     5.344477322369097E-1   -1.628061590639452E-1   -2.540948052395456E-2   -5.046905100686425E-2   -2.661399200041932E-2   -4.981200593022452E-2    4.122508894550402E-1   -2.883014403422363E-1
 6.530327067000000E9     5.341016010290839E-1   -1.634997850944521E-1   -2.575924323783688E-2   -5.095011593753712E-2   -2.700230019799818E-2   -5.016501641528465E-2    4.114366356815691E-1   -2.893858345323349E-1
 6.530336238075000E9     5.337351124330584E-1   -1.644853855958473E-1   -2.602577217054297E-2   -5.119564388582787E-2   -2.729745794905121E-2   -5.060702467563152E-2    4.105998886658542E-1   -2.904811282008732E-1
 6.530345409150000E9     5.333524361910209E-1   -1.651378437657402E-1   -2.638520733488578E-2   -5.145238879891380E-2   -2.776972645842149E-2   -5.082711308684650E-2    4.096120398008661E-1   -2.916800754138845E-1
 6.530354580225000E9     5.329568924505231E-1   -1.660595677866772E-1   -2.666659134134583E-2   -5.189934457820015E-2   -2.803432581251325E-2   -5.126858859196250E-2    4.087650278041770E-1   -2.927296857430858E-1
 6.530363751300000E9     5.326127666665882E-1   -1.670536406966321E-1   -2.709106795401111E-2   -5.210261940928400E-2   -2.834074318845762E-2   -5.145776422273453E-2    4.077569290716223E-1   -2.937018521404505E-1
 6.530372922375000E9     5.323448377925525E-1   -1.679671432007129E-1   -2.747145119466554E-2   -5.264296030888990E-2   -2.879051563061775E-2   -5.191027720784395E-2    4.066976439804730E-1   -2.948303791374812E-1
 6.530382093450000E9     5.319186837355833E-1   -1.689013383149385E-1   -2.784666169665306E-2   -5.298972159680813E-2   -2.915409793788171E-2   -5.227763326997121E-2    4.058625900613781E-1   -2.960746777355290E-1
 6.530391264525000E9     5.316683481058987E-1   -1.697076915860156E-1   -2.810679117311750E-2   -5.314670851392470E-2   -2.951210515600142E-2   -5.267235706036391E-2    4.049348391753667E-1   -2.970587217004487E-1
 6.530400435600000E9     5.313056713699924E-1   -1.706557228457847E-1   -2.853734029350354E-2   -5.362697011075990E-2   -2.994085601372997E-2   -5.305509386926909E-2    4.036413842077572E-1   -2.982223770281944E-1
 6.530409606675000E9     5.309062413448641E-1   -1.714984642586597E-1   -2.895470523839512E-2   -5.406435311900379E-2   -3.028930118875595E-2   -5.340792569635085E-2    4.027998967173667E-1   -2.993222416174794E-1
 6.530418777750000E9     5.306212880898837E-1   -1.722149265108919E-1   -2.947243763235187E-2   -5.450210597353239E-2   -3.076006845826828E-2   -5.375326522570842E-2    4.018558013588586E-1   -3.004408249406562E-1
