#  HZ   S   RI   R     50.00 
! Rohde & Schwarz Vector Network Analyzer 
! Rohde-Schwarz,ZNB20-2Port,1311601062101988,3.16
! Created: UTC 3/21/2024, 1:19:57 AM
! freq[Hz]                re:S11                  im:S11                  re:S21                  im:S21                  re:S12                  im:S12                  re:S22                  im:S22
 6.529596140000000E9     5.513999959026872E-1   -1.004721131877780E-1   -1.068571384101775E-2   -3.297126417379546E-2   -1.148663614727098E-2   -3.281334074749366E-2    4.582848154566556E-1   -2.177529221752400E-1
 6.529605311000000E9     5.511788731099676E-1   -1.012392217101881E-1   -1.083569408219156E-2   -3.323679246469778E-2   -1.152428641190357E-2   -3.297699661292683E-2    4.577455997238793E-1   -2.186522721953399E-1
 6.529614482000000E9     5.511175416267450E-1   -1.019002300953177E-1   -1.076260488962468E-2   -3.333178137767868E-2   -1.151107447199231E-2   -3.303465886770164E-2    4.574676770295311E-1   -2.194523017689792E-1
 6.529623653000000E9     5.510425531223718E-1   -1.027659924608869E-1   -1.101003233602758E-2   -3.343827459503152E-2   -1.177295946093009E-2   -3.327573642097958E-2    4.571521554458990E-1   -2.201667418155299E-1
 6.529632824000000E9     5.507817637969572E-1   -1.034336229336347E-1   -1.098458518260739E-2   -3.353789901599446E-2   -1.194499654103839E-2   -3.337508608001857E-2    4.566585463527444E-1   -2.209544077086566E-1
 6.529641995000000E9     5.506490091053285E-1   -1.041180319186350E-1   -1.133483747518972E-2   -3.368859654484080E-2   -1.191032232119942E-2   -3.356743622473422E-2    4.563164800973328E-1   -2.218339269175181E-1
 6.529651166000000E9     5.504478634501434E-1   -1.050365647221462E-1   -1.135645576430365E-2   -3.384297662930937E-2   -1.212577218875199E-2   -3.370165674068481E-2    4.559062460350727E-1   -2.226574773165994E-1
 6.529660337000000E9     5.502963172785806E-1   -1.057111906459707E-1   -1.136637325692962E-2   -3.402395042099350E-2   -1.228619147768846E-2   -3.384320521379179E-2    4.554645134505854E-1   -2.233803320270515E-1
 6.529669508000000E9     5.502519959913587E-1   -1.063554554341000E-1   -1.162455519760418E-2   -3.408939430329310E-2   -1.238725602986880E-2   -3.399428991900213E-2    4.551751352713223E-1   -2.241404151160436E-1
 6.529678679000000E9     5.499722904479032E-1   -1.071513890320455E-1   -1.158417820581394E-2   -3.438011024375741E-2   -1.246780952771695E-2   -3.412186068946389E-2    4.544465855120228E-1   -2.249068610478902E-1
 6.529687850000000E9     5.499603153530965E-1   -1.080414340634859E-1   -1.187733688981120E-2   -3.445205175107983E-2   -1.260246067050411E-2   -3.433986965480454E-2    4.543352572873977E-1   -2.258654167091347E-1
 6.529697021000000E9     5.496352816479766E-1   -1.087053926367879E-1   -1.185972284463670E-2   -3.473944238769870E-2   -1.274769313364668E-2   -3.445206272067393E-2    4.538484305170423E-1   -2.266169592139218E-1
 6.529706192000000E9     5.495209046013844E-1   -1.095240349601624E-1   -1.218182938687038E-2   -3.485363276717714E-2   -1.278110835950546E-2   -3.456486550548182E-2    4.532708592951453E-1   -2.273939518414213E-1
 6.529715363000000E9     5.494994488658068E-1   -1.102927504266258E-1   -1.216959281207386E-2   -3.495649296907210E-2   -1.291572925849146E-2   -3.470588836343898E-2    4.527796220829245E-1   -2.282685617087828E-1
 6.529724534000000E9     5.491660490661576E-1   -1.108291411587077E-1   -1.244150769841497E-2   -3.516823669684175E-2   -1.309147814789212E-2   -3.497008798842877E-2    4.524539983167152E-1   -2.290067927672127E-1
 6.529733705000000E9     5.491560568657928E-1   -1.118179321757158E-1   -1.246525830634299E-2   -3.520648732146139E-2   -1.321147746880859E-2   -3.496347480808998E-2    4.519041123220487E-1   -2.299274940234125E-1
 6.529742876000000E9     5.488354530861018E-1   -1.123679446679627E-1   -1.266362338625040E-2   -3.552237572293581E-2   -1.337934181279770E-2   -3.516595623166022E-2    4.515243837943559E-1   -2.306475282587877E-1
 6.529752047000000E9     5.486934556721436E-1   -1.132422960977619E-1   -1.269128311150561E-2   -3.569643020573633E-2   -1.353296481695716E-2   -3.540426069343711E-2    4.509329407592103E-1   -2.314676160722704E-1
 6.529761218000000E9     5.485183824431749E-1   -1.139907343305113E-1   -1.280523316927495E-2   -3.580905136937372E-2   -1.361065188643529E-2   -3.550198573459882E-2    4.506304233404531E-1   -2.323174553359618E-1
 6.529770389000000E9     5.483143594230716E-1   -1.147425969924441E-1   -1.280312290591777E-2   -3.587578569025125E-2   -1.381902299511389E-2   -3.570925550136216E-2    4.501534864367299E-1   -2.329415917962864E-1
 6.529779560000000E9     5.481924668163298E-1   -1.155257080772100E-1   -1.316427434197735E-2   -3.612833230722340E-2   -1.383436487960964E-2   -3.591866901956484E-2    4.497027519459346E-1   -2.339205659971784E-1
 6.529788731000000E9     5.480155759680138E-1   -1.162939210789690E-1   -1.315593789924103E-2   -3.622011089649257E-2   -1.400559677662962E-2   -3.607282241673757E-2    4.492142773269543E-1   -2.345531828671449E-1
 6.529797902000000E9     5.480023575863562E-1   -1.170484653344767E-1   -1.322932786810140E-2   -3.645992388823290E-2   -1.416474530652865E-2   -3.628099689631221E-2    4.487038674454259E-1   -2.354720710451203E-1
 6.529807073000000E9     5.476887019373992E-1   -1.178492147105988E-1   -1.341167151280436E-2   -3.684442449642143E-2   -1.424719915171829E-2   -3.649618575950481E-2    4.482890802500041E-1   -2.363403594709565E-1
 6.529816244000000E9     5.474760086813374E-1   -1.184791221553536E-1   -1.354301083062224E-2   -3.679263550102565E-2   -1.451311879312562E-2   -3.659314407639366E-2    4.476292006215469E-1   -2.370989296406167E-1
 6.529825415000000E9     5.473070145678736E-1   -1.193034001445753E-1   -1.373787387579236E-2   -3.704095410018233E-2   -1.462280285579425E-2   -3.674701922410067E-2    4.473138560099668E-1   -2.380916902750125E-1
 6.529834586000000E9     5.471275943901570E-1   -1.201862709624858E-1   -1.391243107211611E-2   -3.720964072657539E-2   -1.473639522664073E-2   -3.695390066674636E-2    4.468420974203722E-1   -2.388833203920360E-1
 6.529843757000000E9     5.468391796921150E-1   -1.209184507310673E-1   -1.390577862448467E-2   -3.737089302643321E-2   -1.495455241336676E-2   -3.707396296122561E-2    4.461120326618835E-1   -2.396002039157104E-1
 6.529852928000000E9     5.466649159671366E-1   -1.216033310602726E-1   -1.409700916892150E-2   -3.746918205144387E-2   -1.513144095093372E-2   -3.748994169178645E-2    4.456454441333693E-1   -2.406533048353209E-1
 6.529862099000000E9     5.465834140956586E-1   -1.224006997100780E-1   -1.430767054987041E-2   -3.772358907681919E-2   -1.525989096728797E-2   -3.747571271211653E-2    4.452601924456345E-1   -2.414631662848283E-1
 6.529871270000000E9     5.464239648397240E-1   -1.231013423925534E-1   -1.444815572102683E-2   -3.803505716292282E-2   -1.537394018345551E-2   -3.765117411032762E-2    4.447672557656047E-1   -2.423474174088677E-1
 6.529880441000000E9     5.462330564854023E-1   -1.238673446632607E-1   -1.460835251077251E-2   -3.812521547019947E-2   -1.555330177264341E-2   -3.788083792635856E-2    4.441329769071365E-1   -2.433702195406953E-1
 6.529889612000000E9     5.461099782709097E-1   -1.247753100970764E-1   -1.481519542509480E-2   -3.836910387041038E-2   -1.575111391011607E-2   -3.803103053268489E-2    4.438094483499377E-1   -2.439120060298253E-1
 6.529898783000000E9     5.458990366273675E-1   -1.255446632223049E-1   -1.496362047682476E-2   -3.849249014110848E-2   -1.579563458436569E-2   -3.825145258074364E-2    4.431899317624798E-1   -2.447787005612259E-1
 6.529907954000000E9     5.456897807835671E-1   -1.261624790071698E-1   -1.514855775133493E-2   -3.883451596074831E-2   -1.601910197183374E-2   -3.845787759514386E-2    4.427799754620886E-1   -2.457361494895776E-1
 6.529917125000000E9     5.454788846900526E-1   -1.269883789496232E-1   -1.533019338663164E-2   -3.891099131539860E-2   -1.620315463722033E-2   -3.863389769716170E-2    4.422929948766178E-1   -2.466445671306829E-1
 6.529926296000000E9     5.452750795216846E-1   -1.278947802416252E-1   -1.548287480158970E-2   -3.909941972990760E-2   -1.634896653472195E-2   -3.888168622016158E-2    4.418361996716564E-1   -2.474964274043163E-1
 6.529935467000000E9     5.450004893150970E-1   -1.285778239137376E-1   -1.548640862963187E-2   -3.936682387536411E-2   -1.655828970368758E-2   -3.913898598168494E-2    4.412908509545400E-1   -2.481703019436511E-1
 6.529944638000000E9     5.449606344396365E-1   -1.293970866722468E-1   -1.575848279216240E-2   -3.958030108157636E-2   -1.666730896220416E-2   -3.927695107349320E-2    4.406727038980594E-1   -2.492527644332564E-1
 6.529953809000000E9     5.446707139920199E-1   -1.301708718623609E-1   -1.601516086167032E-2   -3.982306719787825E-2   -1.684212717482292E-2   -3.950551357599405E-2    4.399793017102681E-1   -2.501689279851715E-1
 6.529962980000000E9     5.443115191459160E-1   -1.309958097040005E-1   -1.602929539899684E-2   -3.990726811954899E-2   -1.702902459304112E-2   -3.960772566561554E-2    4.394484399072780E-1   -2.509813136677186E-1
 6.529972151000000E9     5.442453824505059E-1   -1.317104204570009E-1   -1.634119558475284E-2   -4.022280798046285E-2   -1.730069756388300E-2   -3.988382350560432E-2    4.388848078858668E-1   -2.518324495773006E-1
 6.529981322000000E9     5.439975524687394E-1   -1.325781150762551E-1   -1.637679683366856E-2   -4.041874319811787E-2   -1.738653421846347E-2   -4.017166207678356E-2    4.383779546002590E-1   -2.527390389056234E-1
 6.529990493000000E9     5.436971036862485E-1   -1.333113806911007E-1   -1.661095828023735E-2   -4.056676991904035E-2   -1.766341297409663E-2   -4.031991618115485E-2    4.378633731184714E-1   -2.536852676965716E-1
 6.529999664000000E9     5.436298188420031E-1   -1.340503122357079E-1   -1.682785525569186E-2   -4.092630472792525E-2   -1.774281737301085E-2   -4.047045592589345E-2    4.371806580529856E-1   -2.546093005880819E-1
 6.530008835000000E9     5.432721307462419E-1   -1.349346569157301E-1   -1.702085096057418E-2   -4.110061592669082E-2   -1.798448067044846E-2   -4.065730095208255E-2    4.366042412482972E-1   -2.554068518048146E-1
 6.530018006000000E9     5.431151809598602E-1   -1.356653564964579E-1   -1.717255604320913E-2   -4.120741294850778E-2   -1.819640442046481E-2   -4.102013036805621E-2    4.359551330617532E-1   -2.563633034650414E-1
 6.530027177000000E9     5.428982225947658E-1   -1.364419278231687E-1   -1.747741187308912E-2   -4.166196840659685E-2   -1.831742538524363E-2   -4.110779582045786E-2    4.353848026554381E-1   -2.572732917128187E-1
 6.530036348000000E9     5.426111378814041E-1   -1.373378965593278E-1   -1.763199318896893E-2   -4.188260197177053E-2   -1.845901451288047E-2   -4.134961481308041E-2    4.348988533505291E-1   -2.580749455943079E-1
 6.530045519000000E9     5.424709073791014E-1   -1.380867307446508E-1   -1.774961047605699E-2   -4.205961162838615E-2   -1.881504333631023E-2   -4.162281242039389E-2    4.342528554375347E-1   -2.591529318978779E-1
 6.530054690000000E9     5.421306965882794E-1   -1.387905298340365E-1   -1.797054073598684E-2   -4.222490094139180E-2   -1.896019275589658E-2   -4.180333119273794E-2    4.335991623644955E-1   -2.599573015817316E-1
 6.530063861000000E9     5.418952349754363E-1   -1.395990873498916E-1   -1.809446874202982E-2   -4.259245603319169E-2   -1.921692022562617E-2   -4.200135591500436E-2    4.329258744952224E-1   -2.606909864203748E-1
 6.530073032000000E9     5.418806530155441E-1   -1.404734864154667E-1   -1.827766127895012E-2   -4.269487572502678E-2   -1.947362313365827E-2   -4.230493226391697E-2    4.323082863384504E-1   -2.616980334526036E-1
 6.530082203000000E9     5.414109478100595E-1   -1.412513874040952E-1   -1.857109117512706E-2   -4.292788510622259E-2   -1.956482114073939E-2   -4.247701766263678E-2    4.317101638338470E-1   -2.626537541778431E-1
 6.530091374000000E9     5.414062122991198E-1   -1.420867471045263E-1   -1.888108475201496E-2   -4.314985697743161E-2   -1.979000596599925E-2   -4.271008554644594E-2    4.311689643643198E-1   -2.636670021390650E-1
 6.530100545000000E9     5.409732383787489E-1   -1.428910520418852E-1   -1.889812045981746E-2   -4.346715757713705E-2   -2.003037321118220E-2   -4.310280425645776E-2    4.304004532169382E-1   -2.646429418583500E-1
 6.530109716000000E9     5.407997783969900E-1   -1.436764951400955E-1   -1.925768407916068E-2   -4.373800789420393E-2   -2.031326707878800E-2   -4.315893336530585E-2    4.298068355864263E-1   -2.654971283074171E-1
 6.530118887000000E9     5.404611620481520E-1   -1.444409124656307E-1   -1.935440136256667E-2   -4.396756951590774E-2   -2.053330954692503E-2   -4.350923616692312E-2    4.288970918810858E-1   -2.665741364004124E-1
 6.530128058000000E9     5.403390404048957E-1   -1.453715858083755E-1   -1.969634817176764E-2   -4.429286998644243E-2   -2.073513264443912E-2   -4.380560594546739E-2    4.284040244388523E-1   -2.674561281983004E-1
 6.530137229000000E9     5.400835372807605E-1   -1.460891433377915E-1   -2.003598018528266E-2   -4.445635965228499E-2   -2.096183896829728E-2   -4.398113332783788E-2    4.277491425461135E-1   -2.682505573936714E-1
 6.530146400000000E9     5.398340910348804E-1   -1.469173400381607E-1   -2.008515430336782E-2   -4.484119097434525E-2   -2.119150521919671E-2   -4.421226768758439E-2    4.270312079845686E-1   -2.694500507673017E-1
 6.530155571000000E9     5.395487486833457E-1   -1.476463160626428E-1   -2.042104163362383E-2   -4.497587314589544E-2   -2.154091102560335E-2   -4.451604691687878E-2    4.264604473955106E-1   -2.702734333991968E-1
 6.530164742000000E9     5.392001978743154E-1   -1.485673964366642E-1   -2.057841052676363E-2   -4.513708660406845E-2   -2.177634568365992E-2   -4.486912669074522E-2    4.255884773352828E-1   -2.711469083585419E-1
 6.530173913000000E9     5.389269746623242E-1   -1.493745877991919E-1   -2.081459286164181E-2   -4.552129360338213E-2   -2.186455787473145E-2   -4.511438977358018E-2    4.249984822325238E-1   -2.723398793999128E-1
 6.530183084000000E9     5.387366322571742E-1   -1.502372399722597E-1   -2.118736288265482E-2   -4.581658697962470E-2   -2.225819340279667E-2   -4.530828705320646E-2    4.241590062453489E-1   -2.733700603757999E-1
 6.530192255000000E9     5.385234692561640E-1   -1.510573855604994E-1   -2.136512538295717E-2   -4.607248267302531E-2   -2.245723626880093E-2   -4.559483531393527E-2    4.235803313068451E-1   -2.740705025342111E-1
 6.530201426000000E9     5.381842409966454E-1   -1.518826072032727E-1   -2.148926396701117E-2   -4.651488667724662E-2   -2.278691215557227E-2   -4.599762649795888E-2    4.228426267121865E-1   -2.752467036759459E-1
 6.530210597000000E9     5.378432815453371E-1   -1.526854812880998E-1   -2.183238155187485E-2   -4.666880961089988E-2   -2.294675989533197E-2   -4.621751469522960E-2    4.221032382877168E-1   -2.762696013985730E-1
 6.530219768000000E9     5.377110829813021E-1   -1.536271076285496E-1   -2.221805653030836E-2   -4.695969386743126E-2   -2.322374487887310E-2   -4.655767918281814E-2    4.213358230716459E-1   -2.770689712603991E-1
 6.530228939000000E9     5.373839759507907E-1   -1.544416585468238E-1   -2.236676253794564E-2   -4.733215727590405E-2   -2.345925818084153E-2   -4.679691648788568E-2    4.204566057552170E-1   -2.781380192254735E-1
 6.530238110000000E9     5.370350219008628E-1   -1.551723123730520E-1   -2.270821914445065E-2   -4.754344235382319E-2   -2.380156469557559E-2   -4.699448171551304E-2    4.197711357911454E-1   -2.791237591076313E-1
 6.530247281000000E9     5.368224617672480E-1   -1.558955589326650E-1   -2.291449533945663E-2   -4.781349788107613E-2   -2.432269448894061E-2   -4.728157892581256E-2    4.190098904323073E-1   -2.800580078052318E-1
 6.530256452000000E9     5.364098748405633E-1   -1.568626332195275E-1   -2.328148743535935E-2   -4.812347614382900E-2   -2.442112769350786E-2   -4.758236117079075E-2    4.180866684616170E-1   -2.810752153058715E-1
 6.530265623000000E9     5.362124198818435E-1   -1.576523744271974E-1   -2.352819805100486E-2   -4.845626274382526E-2   -2.473874317304087E-2   -4.801428197472232E-2    4.174476068980224E-1   -2.821833495246651E-1
 6.530274794000000E9     5.359610315321617E-1   -1.585473419791235E-1   -2.388953497178091E-2   -4.882454969126566E-2   -2.504725292829672E-2   -4.826451353290553E-2    4.164101752841008E-1   -2.832361326047219E-1
 6.530283965000000E9     5.354570853926612E-1   -1.593831652944868E-1   -2.408077744473913E-2   -4.903395431508670E-2   -2.546328639423407E-2   -4.858242256977154E-2    4.156447881627670E-1   -2.843422948986618E-1
 6.530293136000000E9     5.353086225523938E-1   -1.603323884276253E-1   -2.447004125978264E-2   -4.946583722374320E-2   -2.563568942299529E-2   -4.884127163951821E-2    4.148429162280933E-1   -2.854214319035152E-1
 6.530302307000000E9     5.349322072443441E-1   -1.611550221965033E-1   -2.483884084717916E-2   -4.976790994931764E-2   -2.599991524492621E-2   -4.911658731620535E-2    4.140135626602263E-1   -2.864154167315472E-1
 6.530311478000000E9     5.346277629783178E-1   -1.619744747062248E-1   -2.495151369870125E-2   -5.020496462745665E-2   -2.627725678099614E-2   -4.947380672622661E-2    4.131369996273007E-1   -2.875108061655123E-1
 6.530320649000000E9     5.341948275779795E-1   -1.629226261045272E-1   -2.526759447710835E-2   -5.050988624648778E-2   -2.681625995656589E-2   -4.974873250045979E-2    4.121902415101040E-1   -2.884970119882167E-1
 6.530329820000000E9     5.339071564720301E-1   -1.638124564319332E-1   -2.568296645366010E-2   -5.096095498055434E-2   -2.695208002710645E-2   -5.025785937910719E-2    4.113849623170967E-1   -2.895450757724351E-1
 6.530338991000000E9     5.336358877840397E-1   -1.644991490364755E-1   -2.606574875365131E-2   -5.101945737049461E-2   -2.729809379888166E-2   -5.057835689734216E-2    4.104815402411461E-1   -2.906208064069083E-1
 6.530348162000000E9     5.333528527755632E-1   -1.653796745556886E-1   -2.631595679393428E-2   -5.159775937442625E-2   -2.771586072444510E-2   -5.087540919305469E-2    4.095212956606001E-1   -2.918668897814733E-1
 6.530357333000000E9     5.329803028965577E-1   -1.662158868084670E-1   -2.668581095050318E-2   -5.177774840242483E-2   -2.809869612095811E-2   -5.125202301226748E-2    4.086008984105149E-1   -2.928434265739636E-1
 6.530366504000000E9     5.326588997561347E-1   -1.671355353338940E-1   -2.693750477243650E-2   -5.230733857060013E-2   -2.850811968420263E-2   -5.147621825797896E-2    4.077848990655044E-1   -2.940112882155662E-1
 6.530375675000000E9     5.323265482888528E-1   -1.680613981429224E-1   -2.743967537970807E-2   -5.264091620131704E-2   -2.876132674635932E-2   -5.188410889816775E-2    4.068969523011813E-1   -2.949571010883032E-1
 6.530384846000000E9     5.320215780297217E-1   -1.688752684336909E-1   -2.778068079717878E-2   -5.292325347042914E-2   -2.909935608021653E-2   -5.224552347962873E-2    4.058368952329585E-1   -2.962375835715496E-1
 6.530394017000000E9     5.315350857293381E-1   -1.698042994887094E-1   -2.814591758413574E-2   -5.339692807663723E-2   -2.954934623603441E-2   -5.261727123854940E-2    4.047279583226340E-1   -2.972214817156279E-1
 6.530403188000000E9     5.312191655918176E-1   -1.707368571372911E-1   -2.863880400221788E-2   -5.366774916030055E-2   -3.000415994653224E-2   -5.295692003482883E-2    4.038453117831015E-1   -2.983540052814648E-1
 6.530412359000000E9     5.308714255156551E-1   -1.715704084338049E-1   -2.902990655580205E-2   -5.400635482779530E-2   -3.043156286683074E-2   -5.343442596083360E-2    4.026517153951384E-1   -2.996844752965491E-1
 6.530421530000000E9     5.304428491217732E-1   -1.725108743419927E-1   -2.937629175507033E-2   -5.452638347444220E-2   -3.076676886475908E-2   -5.373245954947407E-2    4.017881626807049E-1   -3.005623561368150E-1
