#  HZ   S   RI   R     50.00 
! Rohde & Schwarz Vector Network Analyzer 
! Rohde-Schwarz,ZNB20-2Port,1311601062101988,3.16
! Created: UTC 3/21/2024, 1:19:59 AM
! freq[Hz]                re:S11                  im:S11                  re:S21                  im:S21                  re:S12                  im:S12                  re:S22                  im:S22
 6.529595838000000E9     5.513080669547706E-1   -1.003971665296384E-1   -1.070896993293722E-2   -3.299974167736130E-2   -1.133405101382413E-2   -3.286978620341743E-2    4.583168786727981E-1   -2.177715075546730E-1
 6.529605018125000E9     5.512416874344573E-1   -1.010995641199025E-1   -1.060467211970459E-2   -3.318282420598644E-2   -1.159342351994636E-2   -3.280316868225013E-2    4.579605533501984E-1   -2.185188479217100E-1
 6.529614198250000E9     5.509975497046603E-1   -1.018598992069329E-1   -1.084631007621114E-2   -3.324560775281018E-2   -1.167379401873280E-2   -3.303667710424419E-2    4.575079891708783E-1   -2.195141976529227E-1
 6.529623378375000E9     5.510554786181358E-1   -1.025992840078743E-1   -1.101608851052003E-2   -3.333687216843913E-2   -1.180402610939963E-2   -3.322877467537357E-2    4.569801453120202E-1   -2.202059910149696E-1
 6.529632558500000E9     5.509069414985566E-1   -1.034679973416275E-1   -1.126577180989727E-2   -3.360989056832668E-2   -1.189092263026014E-2   -3.331047470709438E-2    4.565734129287611E-1   -2.209152985660474E-1
 6.529641738625000E9     5.505881362157313E-1   -1.041750587116929E-1   -1.123499467972053E-2   -3.372258595020828E-2   -1.193767509810783E-2   -3.348100211413713E-2    4.563602353579164E-1   -2.216691389754666E-1
 6.529650918750000E9     5.505795203307527E-1   -1.048875442761006E-1   -1.140243848302330E-2   -3.384731823494431E-2   -1.204079552495316E-2   -3.362915893276923E-2    4.558540769531367E-1   -2.224426974463430E-1
 6.529660098875000E9     5.503131390064607E-1   -1.055398637235149E-1   -1.134988436233474E-2   -3.407384473977494E-2   -1.229106038290441E-2   -3.382513931720200E-2    4.554191586410909E-1   -2.232431587143105E-1
 6.529669279000000E9     5.503102942744580E-1   -1.065134324310800E-1   -1.150320601309399E-2   -3.412558385576586E-2   -1.235612631870449E-2   -3.401143519655816E-2    4.552109898969054E-1   -2.240923092570360E-1
 6.529678459125000E9     5.500151531042037E-1   -1.071378710556404E-1   -1.161554173578663E-2   -3.423047409930744E-2   -1.248431692526240E-2   -3.407381762726226E-2    4.545712651341788E-1   -2.248333293377926E-1
 6.529687639250000E9     5.499406384707305E-1   -1.080066914239770E-1   -1.175709707971644E-2   -3.438925897787189E-2   -1.262359971445168E-2   -3.420804153267191E-2    4.543267077754193E-1   -2.257300426841329E-1
 6.529696819375000E9     5.497010338563093E-1   -1.086150073268238E-1   -1.184044255137766E-2   -3.456268349432187E-2   -1.270105773712548E-2   -3.442382895562482E-2    4.537824463037063E-1   -2.264655962949791E-1
 6.529705999500000E9     5.495312048818205E-1   -1.094732506054762E-1   -1.207612263897808E-2   -3.472651974990901E-2   -1.278285117144925E-2   -3.452053935098814E-2    4.532229773808546E-1   -2.272239223034309E-1
 6.529715179625000E9     5.493810169760411E-1   -1.101420492870653E-1   -1.208611000604229E-2   -3.501774708940106E-2   -1.296576639817762E-2   -3.472795578573266E-2    4.529144619240277E-1   -2.281485582040707E-1
 6.529724359750000E9     5.492028862693228E-1   -1.109247628233089E-1   -1.229196239031962E-2   -3.513317555044753E-2   -1.304823862209560E-2   -3.485495837527933E-2    4.524919013775496E-1   -2.289318831014843E-1
 6.529733539875000E9     5.491287520386098E-1   -1.117666078716881E-1   -1.244104420999210E-2   -3.546672014257825E-2   -1.330725845468026E-2   -3.500222497914322E-2    4.520305350154275E-1   -2.296129041351640E-1
 6.529742720000000E9     5.489748524930462E-1   -1.123900750624435E-1   -1.246520528634735E-2   -3.554301198999422E-2   -1.341564433063841E-2   -3.520268982980404E-2    4.516480169123730E-1   -2.305770649995811E-1
 6.529751900125000E9     5.487381857321684E-1   -1.131943516127938E-1   -1.271927374735348E-2   -3.564711170591939E-2   -1.332914655801645E-2   -3.531320007445633E-2    4.510974733042434E-1   -2.314622373993200E-1
 6.529761080250000E9     5.485859746351597E-1   -1.139933932675289E-1   -1.279667713024716E-2   -3.567385810159927E-2   -1.362678370257731E-2   -3.551787385303602E-2    4.505739601709382E-1   -2.323426982445859E-1
 6.529770260375000E9     5.482989203681441E-1   -1.149162307447970E-1   -1.298131638450641E-2   -3.598399937859621E-2   -1.371685660229913E-2   -3.570897586810576E-2    4.501935624931594E-1   -2.330184880425970E-1
 6.529779440500000E9     5.482380357089895E-1   -1.155072058283911E-1   -1.326972006535649E-2   -3.603021425720046E-2   -1.393356738931421E-2   -3.587107358019925E-2    4.497525595244920E-1   -2.339360231660837E-1
 6.529788620625000E9     5.479607864144820E-1   -1.163344411366238E-1   -1.323483109959541E-2   -3.629442293118870E-2   -1.410439045373991E-2   -3.602486299958724E-2    4.493602308188975E-1   -2.346804144033077E-1
 6.529797800750000E9     5.478551269478793E-1   -1.169898713416530E-1   -1.322442422115440E-2   -3.648611181443932E-2   -1.423411403509521E-2   -3.622026303152297E-2    4.486501033094202E-1   -2.354672403116498E-1
 6.529806980875000E9     5.477746771019578E-1   -1.176797234413818E-1   -1.330350631195903E-2   -3.658568827802351E-2   -1.434438354408479E-2   -3.634864576741750E-2    4.483336825059593E-1   -2.363264399175972E-1
 6.529816161000000E9     5.475715385994032E-1   -1.185003296083587E-1   -1.361618185118950E-2   -3.688945001430659E-2   -1.436359466922011E-2   -3.651700749180234E-2    4.476114174637359E-1   -2.371632966702973E-1
 6.529825341125000E9     5.472608333546886E-1   -1.193528555873603E-1   -1.377553475857176E-2   -3.699833772745015E-2   -1.466890133498006E-2   -3.670728072938564E-2    4.473696119799068E-1   -2.379442599959171E-1
 6.529834521250000E9     5.471785701132794E-1   -1.200709682384714E-1   -1.385929602276221E-2   -3.721199146132136E-2   -1.483534935048797E-2   -3.687210253891082E-2    4.468923193860723E-1   -2.389135433423484E-1
 6.529843701375000E9     5.470013023853915E-1   -1.207847853769004E-1   -1.395207721970283E-2   -3.734036870573709E-2   -1.483483930659559E-2   -3.705708366223376E-2    4.464368982667574E-1   -2.398203206115525E-1
 6.529852881500000E9     5.468340509657621E-1   -1.214930576498292E-1   -1.426028094270315E-2   -3.764417858801433E-2   -1.505673378773578E-2   -3.730357071426870E-2    4.458574066641559E-1   -2.405445862125867E-1
 6.529862061625000E9     5.466376961405522E-1   -1.224007119893493E-1   -1.435224368257908E-2   -3.769537318948490E-2   -1.514109102546138E-2   -3.737639518630539E-2    4.453955604253157E-1   -2.413944053259799E-1
 6.529871241750000E9     5.462737914485305E-1   -1.231319276868835E-1   -1.442305744810689E-2   -3.790938577056776E-2   -1.536439581947646E-2   -3.767780469106667E-2    4.447367513661532E-1   -2.422702046433247E-1
 6.529880421875000E9     5.462431791013530E-1   -1.239923735712754E-1   -1.457216671152966E-2   -3.829714474735924E-2   -1.550158353960438E-2   -3.776312060177049E-2    4.443971063146263E-1   -2.429014394414857E-1
 6.529889602000000E9     5.460751994918400E-1   -1.247695128456255E-1   -1.476968542476730E-2   -3.825598186830363E-2   -1.573026955323504E-2   -3.797456546698218E-2    4.437406511690484E-1   -2.440229548014958E-1
 6.529898782125000E9     5.458715774391314E-1   -1.254331415387203E-1   -1.486118059475222E-2   -3.845211161811937E-2   -1.584690195536760E-2   -3.819141174253329E-2    4.432988854379213E-1   -2.448250925162589E-1
 6.529907962250000E9     5.456193744331309E-1   -1.262272025713097E-1   -1.519088483401741E-2   -3.860582076289342E-2   -1.596205126007466E-2   -3.841587886920397E-2    4.427200566760878E-1   -2.456089722282119E-1
 6.529917142375000E9     5.453571719463056E-1   -1.270044531185382E-1   -1.519647699709225E-2   -3.886755677208362E-2   -1.613834423713853E-2   -3.869093445406038E-2    4.423096061509842E-1   -2.464050900948226E-1
 6.529926322500000E9     5.452638181544464E-1   -1.276962128181302E-1   -1.518043647629617E-2   -3.910944488934686E-2   -1.636203537430588E-2   -3.884417723234126E-2    4.417305129762850E-1   -2.474137255661178E-1
 6.529935502625000E9     5.450515472083897E-1   -1.285803028381505E-1   -1.553628024613104E-2   -3.935160781178995E-2   -1.658557203111037E-2   -3.894041324275904E-2    4.412190389565274E-1   -2.482251163312476E-1
 6.529944682750000E9     5.449258277167081E-1   -1.293528764974989E-1   -1.590075785214306E-2   -3.955264708370648E-2   -1.673195501662155E-2   -3.920373821002841E-2    4.405881846663793E-1   -2.490970207082437E-1
 6.529953862875000E9     5.446871541012102E-1   -1.302124998381765E-1   -1.594000474102562E-2   -3.980648747809545E-2   -1.688152058059479E-2   -3.935400659786652E-2    4.401343111259263E-1   -2.501224093421227E-1
 6.529963043000000E9     5.444291117394370E-1   -1.309608282781823E-1   -1.605032255643321E-2   -4.001835382794945E-2   -1.716690549025607E-2   -3.954201613325363E-2    4.395226901827253E-1   -2.508829616456320E-1
 6.529972223125000E9     5.440993857992410E-1   -1.317012060627903E-1   -1.614866362276159E-2   -4.021524538602933E-2   -1.723936108890971E-2   -3.983898144029878E-2    4.389531246729819E-1   -2.516540953666502E-1
 6.529981403250000E9     5.439407573664866E-1   -1.324725401255557E-1   -1.649906264699925E-2   -4.018894091929865E-2   -1.746941212094329E-2   -3.998539436066038E-2    4.384008430473915E-1   -2.526622327998176E-1
 6.529990583375000E9     5.437642071347807E-1   -1.333543124499209E-1   -1.649864670174502E-2   -4.064703495381809E-2   -1.751153459423959E-2   -4.024803885007389E-2    4.377198256475295E-1   -2.534127242103094E-1
 6.529999763500000E9     5.437066004035629E-1   -1.340601308467296E-1   -1.674534137619591E-2   -4.077727772897191E-2   -1.779694559041030E-2   -4.051943098571602E-2    4.371785643255334E-1   -2.545529370382554E-1
 6.530008943625000E9     5.433396194809160E-1   -1.348235269934982E-1   -1.695602141220165E-2   -4.104497844801873E-2   -1.794181185306353E-2   -4.068112047390612E-2    4.365510608580656E-1   -2.554047092008906E-1
 6.530018123750000E9     5.430653418615372E-1   -1.356076186522967E-1   -1.723212524150028E-2   -4.121564183705670E-2   -1.813206311310601E-2   -4.080146803732410E-2    4.359551128999591E-1   -2.563032182619935E-1
 6.530027303875000E9     5.429167140557328E-1   -1.364557154325889E-1   -1.725193424488615E-2   -4.153657543484733E-2   -1.837533291929015E-2   -4.115990889444162E-2    4.354490661732520E-1   -2.572152537896911E-1
 6.530036484000000E9     5.427569551120588E-1   -1.371589238592446E-1   -1.751459684969564E-2   -4.170490958380440E-2   -1.851951402409363E-2   -4.140795865984545E-2    4.349442864472103E-1   -2.580609027868281E-1
 6.530045664125000E9     5.424075705789312E-1   -1.380378974331050E-1   -1.783447161056194E-2   -4.197998005508916E-2   -1.876547611922174E-2   -4.169021272031922E-2    4.341613890986829E-1   -2.591275749716143E-1
 6.530054844250000E9     5.421861197777385E-1   -1.388726443879874E-1   -1.790182487671522E-2   -4.215973335470383E-2   -1.903818882119193E-2   -4.173677498576989E-2    4.336687599560705E-1   -2.598802301008808E-1
 6.530064024375000E9     5.420661779491340E-1   -1.396277564602401E-1   -1.819971596577069E-2   -4.247339329223762E-2   -1.921889728641209E-2   -4.196762834269559E-2    4.330328079977951E-1   -2.609082052435173E-1
 6.530073204500000E9     5.418754296425360E-1   -1.404120866603200E-1   -1.833623489398905E-2   -4.282391790741271E-2   -1.946414150287881E-2   -4.225222076797091E-2    4.323620484547813E-1   -2.617671854686705E-1
 6.530082384625000E9     5.415409039419471E-1   -1.412806187694312E-1   -1.853151909186667E-2   -4.301961296044333E-2   -1.963429206586410E-2   -4.241591518334970E-2    4.317087529712419E-1   -2.625828022377221E-1
 6.530091564750000E9     5.413093533859424E-1   -1.420606220805305E-1   -1.888368142744315E-2   -4.308963904067457E-2   -1.982147531632203E-2   -4.284685099017366E-2    4.309573877813747E-1   -2.635870860818054E-1
 6.530100744875000E9     5.410772519524177E-1   -1.428988015687311E-1   -1.904429040783346E-2   -4.336439800818516E-2   -2.007372752353728E-2   -4.304664440995699E-2    4.304235002705248E-1   -2.644825150587479E-1
 6.530109925000000E9     5.407565375397158E-1   -1.436862958119589E-1   -1.931010078890726E-2   -4.365827053456423E-2   -2.025938096117792E-2   -4.320088523323300E-2    4.297015845577622E-1   -2.656444109733493E-1
 6.530119105125000E9     5.405367319795531E-1   -1.444480263181577E-1   -1.939834926741145E-2   -4.386550073091022E-2   -2.055629055658605E-2   -4.350975243397403E-2    4.290818524447466E-1   -2.663684557348843E-1
 6.530128285250000E9     5.402457951694049E-1   -1.451919738644182E-1   -1.960523777932138E-2   -4.414194252081580E-2   -2.078513385231000E-2   -4.370764193711316E-2    4.284696699778273E-1   -2.673503238435992E-1
 6.530137465375000E9     5.401428645592964E-1   -1.460598606387808E-1   -1.983989303220282E-2   -4.452147440385684E-2   -2.099219685245571E-2   -4.396113954706665E-2    4.276099669019235E-1   -2.682932394033402E-1
 6.530146645500000E9     5.397775622228542E-1   -1.469082574064463E-1   -2.007774092165144E-2   -4.471670905861313E-2   -2.119171307663440E-2   -4.421606182879925E-2    4.271558500110547E-1   -2.692797336427804E-1
 6.530155825625000E9     5.394713792582219E-1   -1.477270940912205E-1   -2.028759858000866E-2   -4.501007336612235E-2   -2.153172780120700E-2   -4.455661834709779E-2    4.263884726451228E-1   -2.703548647985556E-1
 6.530165005750000E9     5.392960168069034E-1   -1.485951987146146E-1   -2.045327384551094E-2   -4.526088200404998E-2   -2.175136568161132E-2   -4.483119068371716E-2    4.256098804803200E-1   -2.712888876956666E-1
 6.530174185875000E9     5.390518238583941E-1   -1.493901602513909E-1   -2.081233177229034E-2   -4.556703771470542E-2   -2.198882214303721E-2   -4.505433147912039E-2    4.248537605826231E-1   -2.722792632837986E-1
 6.530183366000000E9     5.387181441358065E-1   -1.501621597623801E-1   -2.104569266614849E-2   -4.580791942215893E-2   -2.223147625451861E-2   -4.532761257933352E-2    4.241892152339589E-1   -2.731618855848273E-1
 6.530192546125000E9     5.384079196077339E-1   -1.510177832104554E-1   -2.126228136382415E-2   -4.611976412715547E-2   -2.241191411505107E-2   -4.552312161596074E-2    4.234610217712035E-1   -2.741976322443521E-1
 6.530201726250000E9     5.381663983375112E-1   -1.517687061595924E-1   -2.155318132296623E-2   -4.628977551210827E-2   -2.271658061661515E-2   -4.577679119593764E-2    4.227751956408765E-1   -2.751824445447918E-1
 6.530210906375000E9     5.377950559243705E-1   -1.526320843364160E-1   -2.171927128808776E-2   -4.669343370389183E-2   -2.296335608966599E-2   -4.619821454395309E-2    4.221121633095829E-1   -2.761607970159974E-1
 6.530220086500000E9     5.376273775311530E-1   -1.535100270357710E-1   -2.200106426126720E-2   -4.695358279608001E-2   -2.332220173425353E-2   -4.642870336107399E-2    4.213004209414355E-1   -2.772913079769004E-1
 6.530229266625000E9     5.373114132488517E-1   -1.542033555482503E-1   -2.255798724499756E-2   -4.720822478039383E-2   -2.358723187905983E-2   -4.667425661729176E-2    4.204056659562436E-1   -2.782046196219131E-1
 6.530238446750000E9     5.370397157135918E-1   -1.552161980118312E-1   -2.265938639129416E-2   -4.755809667418489E-2   -2.390231071341478E-2   -4.705696599804515E-2    4.198390074482979E-1   -2.792268568279484E-1
 6.530247626875000E9     5.366710564168901E-1   -1.559852104010705E-1   -2.293554447811634E-2   -4.779380661035258E-2   -2.412067654273264E-2   -4.734356871151969E-2    4.189329130524827E-1   -2.802855579429404E-1
 6.530256807000000E9     5.364214154527305E-1   -1.568675776824396E-1   -2.321760536097471E-2   -4.822681523501361E-2   -2.441555008522752E-2   -4.760455205326841E-2    4.181313915198762E-1   -2.811326337060502E-1
 6.530265987125000E9     5.362042068921558E-1   -1.577105372139784E-1   -2.344797868446783E-2   -4.833950576788579E-2   -2.476412139658710E-2   -4.784795363630965E-2    4.173646302518817E-1   -2.821693051772090E-1
 6.530275167250000E9     5.359561999411042E-1   -1.585062991818208E-1   -2.367421900799035E-2   -4.868766943853344E-2   -2.507201026993435E-2   -4.823390519028965E-2    4.164637498300258E-1   -2.832798936486037E-1
 6.530284347375000E9     5.354769488519697E-1   -1.593878427603211E-1   -2.423146533813409E-2   -4.912638087110938E-2   -2.532025242674071E-2   -4.850104070775955E-2    4.157674727285192E-1   -2.841879552029423E-1
 6.530293527500000E9     5.352271753202100E-1   -1.602466924228812E-1   -2.439622816388298E-2   -4.934490566063066E-2   -2.568717869814686E-2   -4.876912358621965E-2    4.147982881243130E-1   -2.854637118230158E-1
 6.530302707625000E9     5.348961593865248E-1   -1.611842048842822E-1   -2.467968635947758E-2   -4.983751919454303E-2   -2.591722975780654E-2   -4.925797607316929E-2    4.140858515677928E-1   -2.863648572105630E-1
 6.530311887750000E9     5.345539207186543E-1   -1.619318994525122E-1   -2.496519615112749E-2   -5.005960344112134E-2   -2.633147739718755E-2   -4.952919611372619E-2    4.131960190853926E-1   -2.873589103559961E-1
 6.530321067875000E9     5.341550747630081E-1   -1.627600591965636E-1   -2.536629843068941E-2   -5.033645491391562E-2   -2.669757834273976E-2   -4.979965202329548E-2    4.123351196492386E-1   -2.883471090714839E-1
 6.530330248000000E9     5.339923791817126E-1   -1.636917531369591E-1   -2.578804539583243E-2   -5.083174902914443E-2   -2.692392438740484E-2   -5.022846078329804E-2    4.113040276956799E-1   -2.896455294520283E-1
 6.530339428125000E9     5.337162240630918E-1   -1.645516840001139E-1   -2.599219226148896E-2   -5.103698150283546E-2   -2.733266524992973E-2   -5.044183215068087E-2    4.105674934325376E-1   -2.906366452831964E-1
 6.530348608250000E9     5.333077344494896E-1   -1.654307887218840E-1   -2.629695821497159E-2   -5.149131721635186E-2   -2.776709022470868E-2   -5.084108500071182E-2    4.095831896915449E-1   -2.916414533536705E-1
 6.530357788375000E9     5.328967670280114E-1   -1.663756743441870E-1   -2.672494546995276E-2   -5.188097295847969E-2   -2.800268688561567E-2   -5.124613172864038E-2    4.087399629803114E-1   -2.927491236151643E-1
 6.530366968500000E9     5.326102922606342E-1   -1.671725529832558E-1   -2.705477601529925E-2   -5.214152152627977E-2   -2.841752248046515E-2   -5.149713879549662E-2    4.076570137206694E-1   -2.937004619972391E-1
 6.530376148625000E9     5.322867733445161E-1   -1.681151841823522E-1   -2.733657656920646E-2   -5.263168083577702E-2   -2.871207629810859E-2   -5.187641815885509E-2    4.068108407207278E-1   -2.949363090282137E-1
 6.530385328750000E9     5.318930134907648E-1   -1.689182354811997E-1   -2.766601119041626E-2   -5.295885514774359E-2   -2.912239709198049E-2   -5.214174027212993E-2    4.058379159733735E-1   -2.959872464827811E-1
 6.530394508875000E9     5.314924194077579E-1   -1.699077019438525E-1   -2.806738116733406E-2   -5.322479300063231E-2   -2.960342094541078E-2   -5.266521307619489E-2    4.048628180703672E-1   -2.971639329732406E-1
 6.530403689000000E9     5.312205531991999E-1   -1.706980386440774E-1   -2.848640120044395E-2   -5.363123543428044E-2   -3.006953227143035E-2   -5.297627231713963E-2    4.037613602110795E-1   -2.984712559605723E-1
 6.530412869125000E9     5.309097434627175E-1   -1.716027783901329E-1   -2.887832517841250E-2   -5.403991346396513E-2   -3.033062165635798E-2   -5.327187667282945E-2    4.028976501746729E-1   -2.993952744923846E-1
 6.530422049250000E9     5.305884387078253E-1   -1.724800122055314E-1   -2.937381255195583E-2   -5.440064306664724E-2   -3.078114084581046E-2   -5.375508109263864E-2    4.018745039315054E-1   -3.006010361809751E-1
