#  HZ   S   RI   R     50.00 
! Rohde & Schwarz Vector Network Analyzer 
! Rohde-Schwarz,ZNB20-2Port,1311601062101988,3.16
! Created: UTC 3/21/2024, 1:20:04 AM
! freq[Hz]                re:S11                  im:S11                  re:S21                  im:S21                  re:S12                  im:S12                  re:S22                  im:S22
 6.529601842000000E9     5.512547802035879E-1   -1.008143813347724E-1   -1.069057669151808E-2   -3.311233810788198E-2   -1.141229957862121E-2   -3.280039989289411E-2    4.581859494156379E-1   -2.181097804618408E-1
 6.529611005900000E9     5.510727042046160E-1   -1.015698996579787E-1   -1.082271260923290E-2   -3.314899017376369E-2   -1.156917782842837E-2   -3.294643792911436E-2    4.577060954035254E-1   -2.188538978286509E-1
 6.529620169800000E9     5.509756371124145E-1   -1.024274320606731E-1   -1.092264200258084E-2   -3.327587241011593E-2   -1.174824643122493E-2   -3.306406886764942E-2    4.572767098036415E-1   -2.195857757257599E-1
 6.529629333700000E9     5.508156552363899E-1   -1.029837093835731E-1   -1.105400637460194E-2   -3.357050962818103E-2   -1.184517976862250E-2   -3.330386510861825E-2    4.568568994307969E-1   -2.203908959684275E-1
 6.529638497600000E9     5.507238918633648E-1   -1.037652697295975E-1   -1.111141281684812E-2   -3.360541449107669E-2   -1.190912454801949E-2   -3.334823822948143E-2    4.563990932653291E-1   -2.210282534508226E-1
 6.529647661500000E9     5.505114477863781E-1   -1.044763710767141E-1   -1.120458983009573E-2   -3.382152201120352E-2   -1.199143870335671E-2   -3.346402021204426E-2    4.561202353779901E-1   -2.220321360596872E-1
 6.529656825400000E9     5.504238695247977E-1   -1.053223559856455E-1   -1.146272269877642E-2   -3.395152703022899E-2   -1.208218199675225E-2   -3.371418865535069E-2    4.556922934894618E-1   -2.229398703620387E-1
 6.529665989300000E9     5.502822639370402E-1   -1.061136931019588E-1   -1.160914321909819E-2   -3.407947693641843E-2   -1.225954723130525E-2   -3.380809901732752E-2    4.552899180121940E-1   -2.234564879928291E-1
 6.529675153200000E9     5.500747282337365E-1   -1.068500906063342E-1   -1.160709987043578E-2   -3.425390511910192E-2   -1.235947536427551E-2   -3.397674929905111E-2    4.549256499634665E-1   -2.243231126218980E-1
 6.529684317100000E9     5.500263092154881E-1   -1.076116182443344E-1   -1.183638638624518E-2   -3.429444662019780E-2   -1.245489091378520E-2   -3.414487012470630E-2    4.543654640968260E-1   -2.251146373600717E-1
 6.529693481000000E9     5.498220142220013E-1   -1.083066907379229E-1   -1.184952695474739E-2   -3.459528826325568E-2   -1.264804211384496E-2   -3.433613334785956E-2    4.539412168820784E-1   -2.260708172451593E-1
 6.529702644900000E9     5.495488431405062E-1   -1.091780843468192E-1   -1.202095698447240E-2   -3.452818692575569E-2   -1.282986425111611E-2   -3.448327684307080E-2    4.536314029023700E-1   -2.267769429498258E-1
 6.529711808800000E9     5.494707670597808E-1   -1.098603134718952E-1   -1.216965120305875E-2   -3.502405869865210E-2   -1.279654905734326E-2   -3.466632049842168E-2    4.530507186498010E-1   -2.274603222948801E-1
 6.529720972700000E9     5.493259487209214E-1   -1.105071605021381E-1   -1.225585495464511E-2   -3.500260661339948E-2   -1.303005560889035E-2   -3.471578688758917E-2    4.527386758901126E-1   -2.283748462161445E-1
 6.529730136600000E9     5.491032129648248E-1   -1.113010578155951E-1   -1.232616578159286E-2   -3.519497448334405E-2   -1.305963261716179E-2   -3.498097094550032E-2    4.521288537688395E-1   -2.290865414801236E-1
 6.529739300500000E9     5.490081417169730E-1   -1.120898467938312E-1   -1.238828023216223E-2   -3.512645185722484E-2   -1.317123009706493E-2   -3.512646344574599E-2    4.518771514847674E-1   -2.301528223667514E-1
 6.529748464400000E9     5.487410407409774E-1   -1.127150008908064E-1   -1.265491611580476E-2   -3.553656021597758E-2   -1.341388792858766E-2   -3.521353294756598E-2    4.513660893453219E-1   -2.308642489644850E-1
 6.529757628300000E9     5.486676621858891E-1   -1.136386807361806E-1   -1.269202049737221E-2   -3.575138400774101E-2   -1.355296865872615E-2   -3.542040032234638E-2    4.507875424511867E-1   -2.317525671578672E-1
 6.529766792200000E9     5.483971358706931E-1   -1.143762467738374E-1   -1.272452566774348E-2   -3.596416599704752E-2   -1.369955741201966E-2   -3.572905262996168E-2    4.504141595196213E-1   -2.324583429474363E-1
 6.529775956100000E9     5.483464310124407E-1   -1.151040556593532E-1   -1.291590666133232E-2   -3.587211749446736E-2   -1.372570002847649E-2   -3.568582384050569E-2    4.499913058279090E-1   -2.332276565453999E-1
 6.529785120000000E9     5.481097691336851E-1   -1.158904801456760E-1   -1.316994296864136E-2   -3.624594012045508E-2   -1.398416081383004E-2   -3.597708243955656E-2    4.495170330263950E-1   -2.340181573807894E-1
 6.529794283900000E9     5.479888474320846E-1   -1.165848029997028E-1   -1.316697459373563E-2   -3.636718555515787E-2   -1.415146440834281E-2   -3.608352800116041E-2    4.490123407087087E-1   -2.349145682364441E-1
 6.529803447800000E9     5.478549034887628E-1   -1.174950683615998E-1   -1.323576243117179E-2   -3.657695003639651E-2   -1.427666686941632E-2   -3.625179309162142E-2    4.486548144239634E-1   -2.357612977209109E-1
 6.529812611700000E9     5.475959433229292E-1   -1.180747285758400E-1   -1.356687243335374E-2   -3.670389447076962E-2   -1.435585280607761E-2   -3.647036116949948E-2    4.481087946032489E-1   -2.365791810509127E-1
 6.529821775600000E9     5.474015868780349E-1   -1.189519031210372E-1   -1.360490214560539E-2   -3.694568258828047E-2   -1.444385180860580E-2   -3.662434588325499E-2    4.474948482506198E-1   -2.374407752247643E-1
 6.529830939500000E9     5.472010061766291E-1   -1.196102085174160E-1   -1.381610939383835E-2   -3.714615256497688E-2   -1.471598107138503E-2   -3.680996521923750E-2    4.471908314102409E-1   -2.381946059699160E-1
 6.529840103400000E9     5.469339731038746E-1   -1.204401410635306E-1   -1.377632522287583E-2   -3.733409775207002E-2   -1.479480698023562E-2   -3.695073217580183E-2    4.465759672058845E-1   -2.391074231753355E-1
 6.529849267300000E9     5.468091802146414E-1   -1.212209389281005E-1   -1.424223697149013E-2   -3.747720209414027E-2   -1.488336235505324E-2   -3.720307255590503E-2    4.461812109481219E-1   -2.399600815359212E-1
 6.529858431200000E9     5.466359426029486E-1   -1.220934941041344E-1   -1.411809548139242E-2   -3.761251474180864E-2   -1.510246796529437E-2   -3.736593123842553E-2    4.456824571031490E-1   -2.406825609248527E-1
 6.529867595100000E9     5.465250668577999E-1   -1.226711173118486E-1   -1.435914289391778E-2   -3.780764433942730E-2   -1.528953472696586E-2   -3.739168390891533E-2    4.451109745280628E-1   -2.415542237723245E-1
 6.529876759000000E9     5.463883083994110E-1   -1.235487646837923E-1   -1.443940066843078E-2   -3.793095476631217E-2   -1.542903831288349E-2   -3.776470356017229E-2    4.447344388508138E-1   -2.423886241914507E-1
 6.529885922900000E9     5.460432112098381E-1   -1.243215507053356E-1   -1.461077459502615E-2   -3.809703682710411E-2   -1.560376830931116E-2   -3.796086817549257E-2    4.440943833289490E-1   -2.432236884136767E-1
 6.529895086800000E9     5.459066681397813E-1   -1.250339824321900E-1   -1.490426785507082E-2   -3.839309280421416E-2   -1.575661968030517E-2   -3.800546110132522E-2    4.434551650632597E-1   -2.442985398258080E-1
 6.529904250700000E9     5.458084294130839E-1   -1.258096188909841E-1   -1.491624868441624E-2   -3.861124827532932E-2   -1.585143288292009E-2   -3.828175384109958E-2    4.429862975081837E-1   -2.450427571769907E-1
 6.529913414600000E9     5.456342533021467E-1   -1.266323247984482E-1   -1.501817823621679E-2   -3.875767801907923E-2   -1.595198312081383E-2   -3.853173779428142E-2    4.427332170938118E-1   -2.459536720037578E-1
 6.529922578500000E9     5.452510900376401E-1   -1.274352821178081E-1   -1.520840949680153E-2   -3.898118308330566E-2   -1.626382622425325E-2   -3.865343179063203E-2    4.420521734828064E-1   -2.467572645663623E-1
 6.529931742400000E9     5.450842276610195E-1   -1.282205305923791E-1   -1.536627848981639E-2   -3.912250607514798E-2   -1.637974666590734E-2   -3.889640490706656E-2    4.415584214238821E-1   -2.475494997451648E-1
 6.529940906300000E9     5.450089304948855E-1   -1.290193217187823E-1   -1.557453539831031E-2   -3.953461324874968E-2   -1.661647029793721E-2   -3.899391819963215E-2    4.410003586225218E-1   -2.485251291327797E-1
 6.529950070200000E9     5.446511558733671E-1   -1.297722349015751E-1   -1.573926505624706E-2   -3.950314048708162E-2   -1.675581637116800E-2   -3.932714143953221E-2    4.403606614078726E-1   -2.493662269240579E-1
 6.529959234100000E9     5.445823524442867E-1   -1.305033202935558E-1   -1.597950891384822E-2   -3.983709690039050E-2   -1.693139448041690E-2   -3.936359326386676E-2    4.396643666244212E-1   -2.502081492108706E-1
 6.529968398000000E9     5.443132177568312E-1   -1.313043996882603E-1   -1.608881050353208E-2   -4.004335018993646E-2   -1.710344925786653E-2   -3.965593653610573E-2    4.393928664455726E-1   -2.512040479022474E-1
 6.529977561900000E9     5.440635169229687E-1   -1.320866437027806E-1   -1.628338238420837E-2   -4.006481447024859E-2   -1.730422369817436E-2   -4.002051024590502E-2    4.388639727426430E-1   -2.520484476195320E-1
 6.529986725800000E9     5.437793836174463E-1   -1.329068139038893E-1   -1.647095688910208E-2   -4.037643163714852E-2   -1.741814846245664E-2   -4.011230180152365E-2    4.380421059663755E-1   -2.528818593663335E-1
 6.529995889700000E9     5.436037432678958E-1   -1.336126371810593E-1   -1.655040897321269E-2   -4.057056721625574E-2   -1.767700271493900E-2   -4.033107261685433E-2    4.375311381424075E-1   -2.539138617166331E-1
 6.530005053600000E9     5.434794780640604E-1   -1.343770857965142E-1   -1.672815090490663E-2   -4.089503987798140E-2   -1.789584977211907E-2   -4.055744026515398E-2    4.370778474796391E-1   -2.547575467881752E-1
 6.530014217500000E9     5.431744356512922E-1   -1.351677976992226E-1   -1.698949187313720E-2   -4.105659373731341E-2   -1.798363129219132E-2   -4.067141057532692E-2    4.365939770462302E-1   -2.555640478738215E-1
 6.530023381400000E9     5.429250480190535E-1   -1.359556608674245E-1   -1.733690487772742E-2   -4.129054180769730E-2   -1.827664289328854E-2   -4.093277840297141E-2    4.358566337137736E-1   -2.563640963152135E-1
 6.530032545300000E9     5.427895216216799E-1   -1.369262382960774E-1   -1.733745619571144E-2   -4.150948768310557E-2   -1.844256239972763E-2   -4.115701108873668E-2    4.351809824441253E-1   -2.574799518711656E-1
 6.530041709200000E9     5.426658612441726E-1   -1.376033090878429E-1   -1.760636554392055E-2   -4.166399276606089E-2   -1.866093053430857E-2   -4.138097164933924E-2    4.345628021893465E-1   -2.582716658311489E-1
 6.530050873100000E9     5.421986311900509E-1   -1.383508261927583E-1   -1.784576612871160E-2   -4.209364013630948E-2   -1.882508194360495E-2   -4.154281707627096E-2    4.340955910303890E-1   -2.592223927890780E-1
 6.530060037000000E9     5.421365886704140E-1   -1.392076799905884E-1   -1.797274698566784E-2   -4.230185776874187E-2   -1.893728527135809E-2   -4.191429887020437E-2    4.332888818713231E-1   -2.601003606577744E-1
 6.530069200900000E9     5.419499950781776E-1   -1.399226891067956E-1   -1.832594275291584E-2   -4.248689086497296E-2   -1.920840051304277E-2   -4.205095351247434E-2    4.329049393450748E-1   -2.609719884187024E-1
 6.530078364800000E9     5.415844484905566E-1   -1.408103571413631E-1   -1.837451742803658E-2   -4.271206072178316E-2   -1.946061201776430E-2   -4.229615383102417E-2    4.321816107296365E-1   -2.619704388867922E-1
 6.530087528700000E9     5.413454773152901E-1   -1.416239634809074E-1   -1.859086594930973E-2   -4.291422582741691E-2   -1.962085637784744E-2   -4.254639953010280E-2    4.314576353748525E-1   -2.629738035800124E-1
 6.530096692600000E9     5.412023991935810E-1   -1.423189144153888E-1   -1.865012070508735E-2   -4.326208372819557E-2   -1.992973458036277E-2   -4.279681072168091E-2    4.308287923864588E-1   -2.638940358254715E-1
 6.530105856500000E9     5.409635333629148E-1   -1.431976041105986E-1   -1.894618089270907E-2   -4.341916453375174E-2   -2.009388886847809E-2   -4.309607692837805E-2    4.302634221902213E-1   -2.649377811748032E-1
 6.530115020400000E9     5.405749311438636E-1   -1.439602482714775E-1   -1.916368612370158E-2   -4.372989393185973E-2   -2.026200424798994E-2   -4.326424825363055E-2    4.295743072023856E-1   -2.657637252768318E-1
 6.530124184300000E9     5.404151569159700E-1   -1.447707581432271E-1   -1.953977357573444E-2   -4.403707494833201E-2   -2.052362545914888E-2   -4.354761693710856E-2    4.288458221811483E-1   -2.666070169893202E-1
 6.530133348200000E9     5.401379033251817E-1   -1.456551826082625E-1   -1.980310301244074E-2   -4.414909290386872E-2   -2.069571076179841E-2   -4.377784791372143E-2    4.282345085704999E-1   -2.676018535264809E-1
 6.530142512100000E9     5.399461918287547E-1   -1.465082975195106E-1   -1.989228296254473E-2   -4.446934662155470E-2   -2.104955735792600E-2   -4.400052504655322E-2    4.275375181743071E-1   -2.686483289624487E-1
 6.530151676000000E9     5.396677328948056E-1   -1.472803284978505E-1   -2.021482539008096E-2   -4.479937233237091E-2   -2.136066531833788E-2   -4.431153066280696E-2    4.268165685626546E-1   -2.695589051826500E-1
 6.530160839900000E9     5.393699580958906E-1   -1.481210633147134E-1   -2.035616520371649E-2   -4.500587648943308E-2   -2.152615536528059E-2   -4.452279202740568E-2    4.259767064930112E-1   -2.704922197103060E-1
 6.530170003800000E9     5.390818244654161E-1   -1.488803522127020E-1   -2.046669207868173E-2   -4.529980272044195E-2   -2.184943913559691E-2   -4.478528174410974E-2    4.254094412363827E-1   -2.715639873030808E-1
 6.530179167700000E9     5.387534071982879E-1   -1.497204806575655E-1   -2.084839237593860E-2   -4.556999638433485E-2   -2.204280511801549E-2   -4.510255919269967E-2    4.247478986562014E-1   -2.723740027172242E-1
 6.530188331600000E9     5.385569968089586E-1   -1.505665267091755E-1   -2.110539016663180E-2   -4.593622738525957E-2   -2.230701627047536E-2   -4.537461157221893E-2    4.239472867835391E-1   -2.733867446676075E-1
 6.530197495500000E9     5.383717698327205E-1   -1.514536026031323E-1   -2.144563084380507E-2   -4.617907981111923E-2   -2.253322783527353E-2   -4.559700420112837E-2    4.233506950730526E-1   -2.743718358830955E-1
 6.530206659400000E9     5.381695930797975E-1   -1.522935882188909E-1   -2.165364089677281E-2   -4.644845349142183E-2   -2.288179599168745E-2   -4.588392420229366E-2    4.224425995285247E-1   -2.753876756383338E-1
 6.530215823300000E9     5.377443113891562E-1   -1.530012283986842E-1   -2.190871277901411E-2   -4.659589628223400E-2   -2.305707112819747E-2   -4.619984847289978E-2    4.218617276459755E-1   -2.764194392637292E-1
 6.530224987200000E9     5.374023218634384E-1   -1.540052734350235E-1   -2.208466659679810E-2   -4.699901848134527E-2   -2.338744894143016E-2   -4.649526611929597E-2    4.210636869574876E-1   -2.773516156132234E-1
 6.530234151100000E9     5.372012405655366E-1   -1.547770418370316E-1   -2.259329335378055E-2   -4.728524503303577E-2   -2.370063346604290E-2   -4.666947536796687E-2    4.202951572907178E-1   -2.784537401142383E-1
 6.530243315000000E9     5.369467508181467E-1   -1.555025204286473E-1   -2.280701677644755E-2   -4.754014918405295E-2   -2.392722668824241E-2   -4.707418162974086E-2    4.195640475887371E-1   -2.793630573627423E-1
 6.530252478900000E9     5.365601987158165E-1   -1.564938133622677E-1   -2.289825981434140E-2   -4.798057825788048E-2   -2.428017175395342E-2   -4.733379902101578E-2    4.187279157914050E-1   -2.802639924457330E-1
 6.530261642800000E9     5.363216961065288E-1   -1.570463544076971E-1   -2.327757296558072E-2   -4.822771517855209E-2   -2.450004781824970E-2   -4.765265666566068E-2    4.181021899709987E-1   -2.814807540382048E-1
 6.530270806700000E9     5.360433896472125E-1   -1.580487899570433E-1   -2.353853523319489E-2   -4.854905308821859E-2   -2.466131854469689E-2   -4.799620243071017E-2    4.171574655623984E-1   -2.824069988523322E-1
 6.530279970600000E9     5.357079900481353E-1   -1.588633773629257E-1   -2.386027529233537E-2   -4.892501096825437E-2   -2.511872734844602E-2   -4.823996356323776E-2    4.162595672267624E-1   -2.834277446009270E-1
 6.530289134500000E9     5.354236714874552E-1   -1.597830071667396E-1   -2.416962045658849E-2   -4.910421506618892E-2   -2.536107755556523E-2   -4.857618041257077E-2    4.154344654443640E-1   -2.845225467927310E-1
 6.530298298400000E9     5.350660230046019E-1   -1.605850787203926E-1   -2.453190107755744E-2   -4.953195282799466E-2   -2.565578824104985E-2   -4.879699787616242E-2    4.146310581473219E-1   -2.854993399845511E-1
 6.530307462300000E9     5.347774402566482E-1   -1.613399068547005E-1   -2.465551735641719E-2   -4.986578365345154E-2   -2.599657378563908E-2   -4.928094681826405E-2    4.136909320252120E-1   -2.865353476580781E-1
 6.530316626200000E9     5.344057784829950E-1   -1.622176155224641E-1   -2.514021697881068E-2   -5.005628883514102E-2   -2.640416727999613E-2   -4.953786797878089E-2    4.129255685463502E-1   -2.876761658342998E-1
 6.530325790100000E9     5.342752634361910E-1   -1.631329345475935E-1   -2.529565449349839E-2   -5.043814369627073E-2   -2.672415237392328E-2   -4.984126294090187E-2    4.120263098949235E-1   -2.887725763633756E-1
 6.530334954000000E9     5.338278968066572E-1   -1.640746516331399E-1   -2.569132802779006E-2   -5.079290039066060E-2   -2.702907314354683E-2   -5.011154822974424E-2    4.111399848169578E-1   -2.898424571906690E-1
 6.530344117900000E9     5.335903821043781E-1   -1.649463657265623E-1   -2.605750677736612E-2   -5.117351319333385E-2   -2.738856228046440E-2   -5.058735695772407E-2    4.103063892464592E-1   -2.907774271322905E-1
 6.530353281800000E9     5.332087598525098E-1   -1.657170298967458E-1   -2.641679900653163E-2   -5.147320308056551E-2   -2.773677813610992E-2   -5.087743812475549E-2    4.093926452615547E-1   -2.920598472043986E-1
 6.530362445700000E9     5.327900544974477E-1   -1.666145852656776E-1   -2.672932203141117E-2   -5.177189804456570E-2   -2.813281900554862E-2   -5.118099223127637E-2    4.086040470129912E-1   -2.929355763537548E-1
 6.530371609600000E9     5.324072843547989E-1   -1.674390948674213E-1   -2.715147991075962E-2   -5.228311828250017E-2   -2.842230609912540E-2   -5.154656462500104E-2    4.075725875929734E-1   -2.941381070865525E-1
 6.530380773500000E9     5.321333388882510E-1   -1.684008124990982E-1   -2.744303808362970E-2   -5.258441656886272E-2   -2.888946585327800E-2   -5.184916745388170E-2    4.065283096048262E-1   -2.950887729028075E-1
 6.530389937400000E9     5.317692630069403E-1   -1.693867731600032E-1   -2.786847844314629E-2   -5.291538306086578E-2   -2.923624801534518E-2   -5.223169853645970E-2    4.056909952080752E-1   -2.962831323819044E-1
 6.530399101300000E9     5.313555528515939E-1   -1.700880847186161E-1   -2.823716467761318E-2   -5.337911823676360E-2   -2.970086569068522E-2   -5.261760734153399E-2    4.045899858697442E-1   -2.974907785196994E-1
 6.530408265200000E9     5.310334275659269E-1   -1.711449237491184E-1   -2.860282625064180E-2   -5.367464214370594E-2   -2.995498537568879E-2   -5.303914112573364E-2    4.036185592833068E-1   -2.986224591006076E-1
 6.530417429100000E9     5.306762377059884E-1   -1.719319974353407E-1   -2.898657401502120E-2   -5.403884295180149E-2   -3.034203921101230E-2   -5.340811780183841E-2    4.025004321141997E-1   -2.995947142814182E-1
 6.530426593000000E9     5.304261083083887E-1   -1.728528800187127E-1   -2.928456922359711E-2   -5.453861130319204E-2   -3.080572850354909E-2   -5.371794998471304E-2    4.014803470772911E-1   -3.007869507918510E-1
