#  HZ   S   RI   R     50.00 
! Rohde & Schwarz Vector Network Analyzer 
! Rohde-Schwarz,ZNB20-2Port,1311601062101988,3.16
! Created: UTC 3/21/2024, 1:20:29 AM
! freq[Hz]                re:S11                  im:S11                  re:S21                  im:S21                  re:S12                  im:S12                  re:S22                  im:S22
 6.529619312000000E9     5.511209298832462E-1   -1.020186475784249E-1   -1.075054599375546E-2   -3.302516925111357E-2   -1.147547138735018E-2   -3.275906949007243E-2    4.577966123154031E-1   -2.191801025722621E-1
 6.529628466150000E9     5.508918769220946E-1   -1.027843312888390E-1   -1.089808236955084E-2   -3.326594878023350E-2   -1.172177109888521E-2   -3.297494999670084E-2    4.572876458454965E-1   -2.200729104883847E-1
 6.529637620300000E9     5.507607269349398E-1   -1.035035122265970E-1   -1.097099645245739E-2   -3.324996930064439E-2   -1.168727665089862E-2   -3.310965456668776E-2    4.569546964750010E-1   -2.207712124262265E-1
 6.529646774450000E9     5.506732727816958E-1   -1.042581654767623E-1   -1.117204018461666E-2   -3.350756255092951E-2   -1.190227736521138E-2   -3.322750009174397E-2    4.562489791471845E-1   -2.215998092381777E-1
 6.529655928600000E9     5.504725354390706E-1   -1.048425814248210E-1   -1.119943855750738E-2   -3.371221778697552E-2   -1.196979971243429E-2   -3.334611226203649E-2    4.558259744028225E-1   -2.222855714937104E-1
 6.529665082750000E9     5.503629990586387E-1   -1.057182613901354E-1   -1.134637192938147E-2   -3.373178808321878E-2   -1.206335844890712E-2   -3.347673418619222E-2    4.556614624868414E-1   -2.230171615117220E-1
 6.529674236900000E9     5.500936563921409E-1   -1.063886700853647E-1   -1.147087649642616E-2   -3.384144694774861E-2   -1.225373397431381E-2   -3.361779819059733E-2    4.551294971809807E-1   -2.240342797474211E-1
 6.529683391050000E9     5.500489317312049E-1   -1.072178667818287E-1   -1.156212922772328E-2   -3.411370996236021E-2   -1.237813521197127E-2   -3.376726229021168E-2    4.547984086052568E-1   -2.245090045352382E-1
 6.529692545200000E9     5.498426685635218E-1   -1.079351402375977E-1   -1.165858343805142E-2   -3.405591641949024E-2   -1.240869443548937E-2   -3.394431064493724E-2    4.542629399159078E-1   -2.254718793924747E-1
 6.529701699350000E9     5.497611009365444E-1   -1.086008156290476E-1   -1.174358775839261E-2   -3.428899588261743E-2   -1.252522503858832E-2   -3.416384430344488E-2    4.538002812858538E-1   -2.261833178224871E-1
 6.529710853500000E9     5.495582379798892E-1   -1.093208571185695E-1   -1.193648459599806E-2   -3.451176494325562E-2   -1.272685468610635E-2   -3.429185946194961E-2    4.533004363112484E-1   -2.271131899873957E-1
 6.529720007650000E9     5.493095809219701E-1   -1.100992408799306E-1   -1.203165826581970E-2   -3.474993164159620E-2   -1.284787731351626E-2   -3.433242411809269E-2    4.529525992587097E-1   -2.279493058597702E-1
 6.529729161800000E9     5.491518639648998E-1   -1.108880258118035E-1   -1.211364265686249E-2   -3.479761706478612E-2   -1.296520992444460E-2   -3.464137323799712E-2    4.527076084609943E-1   -2.285333252553400E-1
 6.529738315950000E9     5.490185526650452E-1   -1.116519273546568E-1   -1.221745722412349E-2   -3.504894147203710E-2   -1.306526046997338E-2   -3.483478855021759E-2    4.522979050160465E-1   -2.295207366956016E-1
 6.529747470100000E9     5.488129646476445E-1   -1.123908844987138E-1   -1.235317487292263E-2   -3.515292737489832E-2   -1.309180526134360E-2   -3.486832605884479E-2    4.517570754481372E-1   -2.302729555140231E-1
 6.529756624250000E9     5.487636835785562E-1   -1.131265439203435E-1   -1.245600865734716E-2   -3.539301886370221E-2   -1.338080195445074E-2   -3.514442809393303E-2    4.513213707946112E-1   -2.309475475144007E-1
 6.529765778400000E9     5.485839110688548E-1   -1.139590715581335E-1   -1.269621328409511E-2   -3.557733240744130E-2   -1.344519109553874E-2   -3.522900866523618E-2    4.506831390843175E-1   -2.318531321674843E-1
 6.529774932550000E9     5.483542946051566E-1   -1.147807173131275E-1   -1.277597221364917E-2   -3.568654801029215E-2   -1.359880642895578E-2   -3.541108016484504E-2    4.503263912592475E-1   -2.328112817246609E-1
 6.529784086700000E9     5.482707320527493E-1   -1.154369089824012E-1   -1.290547097338960E-2   -3.574132517989010E-2   -1.373742262559473E-2   -3.561918429774091E-2    4.498993082894509E-1   -2.335955794399916E-1
 6.529793240850000E9     5.481405991835124E-1   -1.161718385663759E-1   -1.308109976387907E-2   -3.612138930681300E-2   -1.393397269005543E-2   -3.572149856568076E-2    4.494149210346925E-1   -2.344115396712895E-1
 6.529802395000000E9     5.480176244381754E-1   -1.169393222653036E-1   -1.308797271070492E-2   -3.625155989771432E-2   -1.406094072706544E-2   -3.589275379194469E-2    4.490270971323437E-1   -2.352521828498901E-1
 6.529811549150000E9     5.476523758564311E-1   -1.176125950247227E-1   -1.331049741030649E-2   -3.631006553970746E-2   -1.418156334279505E-2   -3.608297005036755E-2    4.485445994963094E-1   -2.360666028913028E-1
 6.529820703300000E9     5.475137884707157E-1   -1.183769857221529E-1   -1.340405275705217E-2   -3.646120136128850E-2   -1.431220549998676E-2   -3.630830407801555E-2    4.479629051776206E-1   -2.369152050120512E-1
 6.529829857450000E9     5.474456930464201E-1   -1.192672062117688E-1   -1.360642184860345E-2   -3.673070612511507E-2   -1.442931272810564E-2   -3.648359148964545E-2    4.476436726836820E-1   -2.377045651940365E-1
 6.529839011600000E9     5.472033777374794E-1   -1.200135523231757E-1   -1.367997409112972E-2   -3.699237140235218E-2   -1.465190729927359E-2   -3.661879062051190E-2    4.469295530641664E-1   -2.385710461911543E-1
 6.529848165750000E9     5.468993005008672E-1   -1.207705488523296E-1   -1.390131792841409E-2   -3.702692662408875E-2   -1.467330522089158E-2   -3.675598531035490E-2    4.465637143726851E-1   -2.393235675275577E-1
 6.529857319900000E9     5.468658847133693E-1   -1.215228706656733E-1   -1.408155694889506E-2   -3.728760614857853E-2   -1.478659659262041E-2   -3.703801669124862E-2    4.462210461836570E-1   -2.401509449798358E-1
 6.529866474050000E9     5.467576423695127E-1   -1.222361078243489E-1   -1.409150637366145E-2   -3.742756554009316E-2   -1.505479733202814E-2   -3.713640615940057E-2    4.454000329001705E-1   -2.408971351235139E-1
 6.529875628200000E9     5.464481464878250E-1   -1.230465565224006E-1   -1.418347275606452E-2   -3.769418220709139E-2   -1.518542195604039E-2   -3.726795930329032E-2    4.450134377464703E-1   -2.419483213445296E-1
 6.529884782350000E9     5.463480228315721E-1   -1.238619732454168E-1   -1.445082239173554E-2   -3.785310413525340E-2   -1.530370611210574E-2   -3.755630419934219E-2    4.444977962347840E-1   -2.425695583294182E-1
 6.529893936500000E9     5.460238722594757E-1   -1.246130078714934E-1   -1.447681905515387E-2   -3.810371470155212E-2   -1.550353562366081E-2   -3.774347956626017E-2    4.441352359673450E-1   -2.434668227067169E-1
 6.529903090650000E9     5.459120942057977E-1   -1.254328227705544E-1   -1.485313806021071E-2   -3.827877687887630E-2   -1.562107811433482E-2   -3.788118334809387E-2    4.436349323011056E-1   -2.443935492882701E-1
 6.529912244800000E9     5.456991673149251E-1   -1.262437805312189E-1   -1.496042514655070E-2   -3.833602257196667E-2   -1.585644772372087E-2   -3.810078508667535E-2    4.429821653102969E-1   -2.451489486475026E-1
 6.529921398950000E9     5.454727744683689E-1   -1.269271935019972E-1   -1.514551246943730E-2   -3.861244546863193E-2   -1.598259081441602E-2   -3.819507457442527E-2    4.425653330765600E-1   -2.460885745153685E-1
 6.529930553100000E9     5.453443228616557E-1   -1.275884559998198E-1   -1.526693188739842E-2   -3.881485989145957E-2   -1.608030175162667E-2   -3.847214975006571E-2    4.419614095620968E-1   -2.469956189986424E-1
 6.529939707250000E9     5.450761247516623E-1   -1.284593005073241E-1   -1.545484954805545E-2   -3.895962231717061E-2   -1.623312497875437E-2   -3.870835858233831E-2    4.414660439463669E-1   -2.478917412666755E-1
 6.529948861400000E9     5.448818562227606E-1   -1.292680381722175E-1   -1.565669272599586E-2   -3.913243878852909E-2   -1.646044997031287E-2   -3.880110850783918E-2    4.409080128855358E-1   -2.486533661168376E-1
 6.529958015550000E9     5.446580906594672E-1   -1.299697823532727E-1   -1.570224920942948E-2   -3.942968343446582E-2   -1.652891309794773E-2   -3.905624509977725E-2    4.402877247086730E-1   -2.496171120144199E-1
 6.529967169700000E9     5.445034147272924E-1   -1.308232062153996E-1   -1.587672946160680E-2   -3.964284638172749E-2   -1.673364582642345E-2   -3.925901894405909E-2    4.399492681182414E-1   -2.505940827910412E-1
 6.529976323850000E9     5.442970968684367E-1   -1.315621031210802E-1   -1.582833441776735E-2   -3.980822873805608E-2   -1.696871624216882E-2   -3.933659324873466E-2    4.391048905032185E-1   -2.513425341761705E-1
 6.529985478000000E9     5.441014295715784E-1   -1.322847855794100E-1   -1.624672808125543E-2   -3.991872567688341E-2   -1.713931917450704E-2   -3.968004367155149E-2    4.386821940263664E-1   -2.522802544557469E-1
 6.529994632150000E9     5.438513711511556E-1   -1.331602043333014E-1   -1.640651175806450E-2   -4.029746802007773E-2   -1.738706707578218E-2   -3.987849098928622E-2    4.381571383446387E-1   -2.532452298446791E-1
 6.530003786300000E9     5.435689833548347E-1   -1.339266243700677E-1   -1.655320623013906E-2   -4.036365734763097E-2   -1.741747824291041E-2   -4.010446067812336E-2    4.374987817300169E-1   -2.541152558745460E-1
 6.530012940450000E9     5.435561613982129E-1   -1.346934089885954E-1   -1.673823181001364E-2   -4.061085377657219E-2   -1.775740917011759E-2   -4.026977650910078E-2    4.370791821521368E-1   -2.549239989804025E-1
 6.530022094600000E9     5.431222648079893E-1   -1.353744627723569E-1   -1.693691782704525E-2   -4.077610070890891E-2   -1.793285544148581E-2   -4.049926837126504E-2    4.364520043129142E-1   -2.558160849745453E-1
 6.530031248750000E9     5.430535519789269E-1   -1.361986679982899E-1   -1.727333239495098E-2   -4.106902054886706E-2   -1.814700036012201E-2   -4.071542900336628E-2    4.358089922254819E-1   -2.565768802640580E-1
 6.530040402900000E9     5.427475076564577E-1   -1.370055963612264E-1   -1.720695367234376E-2   -4.138866801423929E-2   -1.831849211512309E-2   -4.091058048838821E-2    4.352495065492329E-1   -2.574977581496796E-1
 6.530049557050000E9     5.425011922957392E-1   -1.379099353881062E-1   -1.754341166295162E-2   -4.167054061802551E-2   -1.847538290854469E-2   -4.114332657819331E-2    4.346372365914705E-1   -2.584726726749003E-1
 6.530058711200000E9     5.422893996983963E-1   -1.387101012398527E-1   -1.747482983037680E-2   -4.177209804845479E-2   -1.874079073635870E-2   -4.133364666882887E-2    4.339660772128948E-1   -2.592813373757463E-1
 6.530067865350000E9     5.419510586095292E-1   -1.395138972395611E-1   -1.792534968592069E-2   -4.211650863029683E-2   -1.881392935924900E-2   -4.162040151721745E-2    4.333205250950229E-1   -2.603084296664694E-1
 6.530077019500000E9     5.418986729708006E-1   -1.402580870326752E-1   -1.811297862301569E-2   -4.214113135219816E-2   -1.915292640583195E-2   -4.182476126965928E-2    4.329950912051188E-1   -2.611926980817749E-1
 6.530086173650000E9     5.415855399686154E-1   -1.409812895491108E-1   -1.829726393271835E-2   -4.238640553546669E-2   -1.938301864442575E-2   -4.216084238634787E-2    4.321802696112183E-1   -2.620345434070213E-1
 6.530095327800000E9     5.413384871473487E-1   -1.419034389542071E-1   -1.846231039817749E-2   -4.281029954666395E-2   -1.960202786903796E-2   -4.226187443187002E-2    4.316305475183266E-1   -2.631010703154977E-1
 6.530104481950000E9     5.411367216573157E-1   -1.426261714855676E-1   -1.874448590208240E-2   -4.305984143873005E-2   -1.974002196693307E-2   -4.256965452096306E-2    4.307694827083707E-1   -2.640158681098271E-1
 6.530113636100000E9     5.409125951216248E-1   -1.434547005751749E-1   -1.885097987107675E-2   -4.316364611297457E-2   -1.983931733124574E-2   -4.282318492264712E-2    4.302385224684360E-1   -2.649132624684903E-1
 6.530122790250000E9     5.406351935882028E-1   -1.442040033192468E-1   -1.905428691786541E-2   -4.344946890733770E-2   -2.022282386335198E-2   -4.302163018873384E-2    4.296616383939323E-1   -2.658513373915174E-1
 6.530131944400000E9     5.403597251425163E-1   -1.450353879809430E-1   -1.945909378273512E-2   -4.377104258907044E-2   -2.035162545043542E-2   -4.331902826932385E-2    4.290451318055012E-1   -2.668330232621470E-1
 6.530141098550000E9     5.402164762189616E-1   -1.458918318094028E-1   -1.955277144217619E-2   -4.404513110062807E-2   -2.070852649104859E-2   -4.352164933473216E-2    4.281962190443653E-1   -2.676384276529063E-1
 6.530150252700000E9     5.398509530930817E-1   -1.466802282004421E-1   -1.974875588192328E-2   -4.427331468915085E-2   -2.090020306407785E-2   -4.379668242138540E-2    4.276565666956496E-1   -2.685519386003593E-1
 6.530159406850000E9     5.396175923965524E-1   -1.476341568220162E-1   -1.993673965777760E-2   -4.438864522201112E-2   -2.111567561640660E-2   -4.402053435498155E-2    4.268371912157373E-1   -2.697843775206353E-1
 6.530168561000000E9     5.393797591157828E-1   -1.483219619142010E-1   -2.025069844908546E-2   -4.477384049786240E-2   -2.138888334690530E-2   -4.427869076230172E-2    4.262947550867101E-1   -2.705693821483944E-1
 6.530177715150000E9     5.390598074786185E-1   -1.491346678122851E-1   -2.050749371300044E-2   -4.502050127227606E-2   -2.163588972467776E-2   -4.459733197794137E-2    4.254995398991931E-1   -2.715498046319179E-1
 6.530186869300000E9     5.388503343757447E-1   -1.499358728137944E-1   -2.065352646534187E-2   -4.540901693668506E-2   -2.181746571442562E-2   -4.480914389526031E-2    4.248821271165970E-1   -2.725597201698046E-1
 6.530196023450000E9     5.386560406670474E-1   -1.508311919949374E-1   -2.086083947906998E-2   -4.557465003809569E-2   -2.218751350798785E-2   -4.503811772067765E-2    4.241278175538292E-1   -2.734140904377851E-1
 6.530205177600000E9     5.382582191599929E-1   -1.515235292777433E-1   -2.107541196863225E-2   -4.587654675885212E-2   -2.242556439009209E-2   -4.541968720647072E-2    4.236083811064333E-1   -2.743601387805072E-1
 6.530214331750000E9     5.380796159230617E-1   -1.523681206112945E-1   -2.137288194917746E-2   -4.630051226948138E-2   -2.252657375444952E-2   -4.559161855172872E-2    4.227547697319998E-1   -2.753588281321047E-1
 6.530223485900000E9     5.377725415802448E-1   -1.531476212720127E-1   -2.175422541650580E-2   -4.646484604387432E-2   -2.290184109436694E-2   -4.595545796222440E-2    4.219961644316507E-1   -2.764502537180336E-1
 6.530232640050000E9     5.374782824202955E-1   -1.540638074995411E-1   -2.205135384191290E-2   -4.675181380598555E-2   -2.313702617269010E-2   -4.622262589464331E-2    4.212935067727616E-1   -2.773999924539340E-1
 6.530241794200000E9     5.372522823590881E-1   -1.548097999163699E-1   -2.221053169550751E-2   -4.690202773253761E-2   -2.353024382522573E-2   -4.655672882056518E-2    4.205208321376265E-1   -2.785151023806817E-1
 6.530250948350000E9     5.368077420019218E-1   -1.557762001920402E-1   -2.259880504487134E-2   -4.722170965597695E-2   -2.369211730852872E-2   -4.673933295962110E-2    4.196614494280239E-1   -2.793884761005077E-1
 6.530260102500000E9     5.365427923678338E-1   -1.566355261158776E-1   -2.276643947245797E-2   -4.764287664735924E-2   -2.402232428777092E-2   -4.711672560296873E-2    4.189876637898270E-1   -2.803181305663663E-1
 6.530269256650000E9     5.363429779173853E-1   -1.573849512903497E-1   -2.295756387728608E-2   -4.800105198744568E-2   -2.431530280784224E-2   -4.746504564615055E-2    4.179764019614900E-1   -2.812982458652300E-1
 6.530278410800000E9     5.359523111280468E-1   -1.582303346210120E-1   -2.334545223048994E-2   -4.812544037337879E-2   -2.462396946311051E-2   -4.771462596146124E-2    4.172759744846912E-1   -2.825472529064613E-1
 6.530287564950000E9     5.357140091669321E-1   -1.591912540354242E-1   -2.369781663674407E-2   -4.861377052289018E-2   -2.493984725416027E-2   -4.791770085233044E-2    4.165164792465979E-1   -2.834067646092571E-1
 6.530296719100000E9     5.353335152306800E-1   -1.598926243548013E-1   -2.400299029829889E-2   -4.896494927135955E-2   -2.532461437800392E-2   -4.824879772873945E-2    4.156224854440310E-1   -2.844264819915601E-1
 6.530305873250000E9     5.350743671635814E-1   -1.608108087090932E-1   -2.414227456796009E-2   -4.915796066377204E-2   -2.559256434838238E-2   -4.860724570184844E-2    4.148383003018570E-1   -2.855397463328903E-1
 6.530315027400000E9     5.347851278798856E-1   -1.616362888396185E-1   -2.453885384852636E-2   -4.954820294185441E-2   -2.578627019877127E-2   -4.899495915411865E-2    4.138930853527485E-1   -2.866721996470774E-1
 6.530324181550000E9     5.344125935377412E-1   -1.624680798355623E-1   -2.493279003276721E-2   -4.988961778574097E-2   -2.614647034929126E-2   -4.914838650182846E-2    4.131836077890660E-1   -2.874951178289419E-1
 6.530333335700000E9     5.342486891068042E-1   -1.632578839837860E-1   -2.516136930335203E-2   -5.011776497901540E-2   -2.640339612729847E-2   -4.962999927522082E-2    4.123221990201894E-1   -2.886440682065386E-1
 6.530342489850000E9     5.337895758222464E-1   -1.641946130362401E-1   -2.542156639276482E-2   -5.045041289845579E-2   -2.683139916327709E-2   -4.985133843528303E-2    4.115974092560553E-1   -2.897674186627253E-1
 6.530351644000000E9     5.334761250822583E-1   -1.650865313728019E-1   -2.585741010651866E-2   -5.089292918794151E-2   -2.713227850754377E-2   -5.015683070841058E-2    4.104834094630372E-1   -2.908078578357630E-1
 6.530360798150000E9     5.331681632362505E-1   -1.658682870076761E-1   -2.620814404054188E-2   -5.119185813196230E-2   -2.749648133032890E-2   -5.054948557535370E-2    4.096364565648936E-1   -2.917766400445180E-1
 6.530369952300000E9     5.328036947115330E-1   -1.667334468420724E-1   -2.645373520169178E-2   -5.134810371580977E-2   -2.784617190752794E-2   -5.091000608487066E-2    4.087923771950511E-1   -2.928512945140987E-1
 6.530379106450000E9     5.324574750200601E-1   -1.677523673077491E-1   -2.681625982927072E-2   -5.183941074881632E-2   -2.814165043704683E-2   -5.120803796045252E-2    4.080406388178432E-1   -2.940218676468601E-1
 6.530388260600000E9     5.321619073756899E-1   -1.684839387621617E-1   -2.727798306642567E-2   -5.214559260815712E-2   -2.861969328879661E-2   -5.156401603630940E-2    4.067487182699772E-1   -2.951041168060373E-1
 6.530397414750000E9     5.317744022372691E-1   -1.694146702137377E-1   -2.750737077217253E-2   -5.247366853104025E-2   -2.900216738110394E-2   -5.199322016815259E-2    4.058325005449644E-1   -2.963435517591734E-1
 6.530406568900000E9     5.314315425186095E-1   -1.703818768615118E-1   -2.798224914371434E-2   -5.297455000793731E-2   -2.931979833075470E-2   -5.226127345715809E-2    4.049663269491363E-1   -2.972319695269108E-1
 6.530415723050000E9     5.310580102084128E-1   -1.712184421538263E-1   -2.846793780375138E-2   -5.322184713129492E-2   -2.970758685154408E-2   -5.265909190370689E-2    4.040619192706847E-1   -2.984795279236194E-1
 6.530424877200000E9     5.307902276942837E-1   -1.721622789631927E-1   -2.877729645087627E-2   -5.363555523674592E-2   -3.014089717106254E-2   -5.299175005744779E-2    4.028969617372984E-1   -2.995370359167696E-1
 6.530434031350000E9     5.303097800016905E-1   -1.729891981658591E-1   -2.908454644184582E-2   -5.419986689133034E-2   -3.052459212903193E-2   -5.343834654182081E-2    4.018962075652234E-1   -3.006485897414005E-1
 6.530443185500000E9     5.299685112873295E-1   -1.737552112333368E-1   -2.946117613593630E-2   -5.451219703376738E-2   -3.100640281285124E-2   -5.374945150012445E-2    4.008198558464915E-1   -3.017309161275347E-1
