#  HZ   S   RI   R     50.00 
! Rohde & Schwarz Vector Network Analyzer 
! Rohde-Schwarz,ZNB20-2Port,1311601062101988,3.16
! Created: UTC 3/21/2024, 12:53:14 AM
! freq[Hz]                re:S11                  im:S11                  re:S21                  im:S21                  re:S12                  im:S12                  re:S22                  im:S22
 6.528819816000000E9     5.607561355526088E-1   -5.743921750412121E-2   -8.227255222240987E-3   -3.308377721872751E-2   -8.872357408955329E-3   -3.298571556821243E-2    4.816420401113499E-1   -1.882622886162056E-1
 6.528829206300000E9     5.606613889497476E-1   -5.820069986898554E-2   -8.263102573896459E-3   -3.340643415962869E-2   -9.043270974554636E-3   -3.311871238207509E-2    4.813383713175159E-1   -1.889424579480853E-1
 6.528838596600000E9     5.606789813579376E-1   -5.905261999886351E-2   -8.400643263055511E-3   -3.335900594949026E-2   -9.073839030016299E-3   -3.330275753103730E-2    4.810187218937984E-1   -1.897179625510646E-1
 6.528847986900000E9     5.605039113787029E-1   -5.963841646252879E-2   -8.676427348899587E-3   -3.362936949794851E-2   -9.233532531584923E-3   -3.343351152705937E-2    4.805478637374875E-1   -1.907142630638684E-1
 6.528857377200000E9     5.604084367116030E-1   -6.070182107508543E-2   -8.474350425542534E-3   -3.373405800890647E-2   -9.303608952311616E-3   -3.366444897729443E-2    4.802874056860301E-1   -1.916087739512429E-1
 6.528866767500000E9     5.603581249210302E-1   -6.132737211229226E-2   -8.708414513461504E-3   -3.396612401286959E-2   -9.395855992084498E-3   -3.370734329159995E-2    4.798833992602858E-1   -1.923129936070974E-1
 6.528876157800000E9     5.602033235851160E-1   -6.218669251028987E-2   -8.744152158233565E-3   -3.391741605589757E-2   -9.659911048116837E-3   -3.400149075292367E-2    4.796318952487634E-1   -1.932600875378400E-1
 6.528885548100000E9     5.601143455226237E-1   -6.278867194018081E-2   -8.895756053009135E-3   -3.405838552398505E-2   -9.591715983378067E-3   -3.403241899061563E-2    4.792340913173583E-1   -1.940376365779814E-1
 6.528894938400000E9     5.600621343011293E-1   -6.359033720185436E-2   -8.985599982081080E-3   -3.424243561429938E-2   -9.699422902225384E-3   -3.427957160027723E-2    4.788925057134527E-1   -1.948125399937927E-1
 6.528904328700000E9     5.599500975819238E-1   -6.445012572391727E-2   -9.063319070250065E-3   -3.441493944472314E-2   -9.802867070752948E-3   -3.433643288475089E-2    4.784596686026879E-1   -1.955143313965847E-1
 6.528913719000000E9     5.598916220971335E-1   -6.521938117236162E-2   -9.098980420959470E-3   -3.453373510337056E-2   -1.007877970379287E-2   -3.446347967593844E-2    4.780715596856501E-1   -1.966044687974957E-1
 6.528923109300000E9     5.598232927014023E-1   -6.607701673401657E-2   -9.289685594808998E-3   -3.488097247770726E-2   -9.949578348418524E-3   -3.473945554621852E-2    4.777016412056175E-1   -1.973696398258213E-1
 6.528932499600000E9     5.596762726181757E-1   -6.675127796309395E-2   -9.431786333732534E-3   -3.502638160745073E-2   -1.013091119916218E-2   -3.482342895000873E-2    4.772966824071209E-1   -1.980808166387401E-1
 6.528941889900000E9     5.594541674146090E-1   -6.754951592355937E-2   -9.504449460263180E-3   -3.513110754182615E-2   -1.025227920411931E-2   -3.505170249769551E-2    4.768803570176254E-1   -1.991421825193343E-1
 6.528951280200000E9     5.594434513102905E-1   -6.812815326699628E-2   -9.529198696126338E-3   -3.535537881772952E-2   -1.039537106795018E-2   -3.509409065487667E-2    4.766050854431166E-1   -2.000346390383342E-1
 6.528960670500000E9     5.592657441523191E-1   -6.898460253455860E-2   -9.662258357354205E-3   -3.555970807720766E-2   -1.052437825172159E-2   -3.543898715950415E-2    4.761441751730292E-1   -2.009788462277402E-1
 6.528970060800000E9     5.592661936627611E-1   -6.990408598685610E-2   -9.831145619552529E-3   -3.578219418622079E-2   -1.069262063484552E-2   -3.551250697231530E-2    4.757200463418580E-1   -2.015400946881691E-1
 6.528979451100000E9     5.590848992500260E-1   -7.062706022808124E-2   -1.005002220198842E-2   -3.579290659534318E-2   -1.077228288729283E-2   -3.560915642007471E-2    4.753938542578668E-1   -2.025330703987429E-1
 6.528988841400000E9     5.590694857720385E-1   -7.149654354860362E-2   -1.011757430251679E-2   -3.592558409112673E-2   -1.092408919926235E-2   -3.585995233355514E-2    4.748718885906907E-1   -2.034696035510651E-1
 6.528998231700000E9     5.589070120974056E-1   -7.217173602371182E-2   -1.025721128977297E-2   -3.618631212214252E-2   -1.100464098703807E-2   -3.599506813179196E-2    4.743643637586704E-1   -2.043821183950275E-1
 6.529007622000000E9     5.586748046956956E-1   -7.295169874211446E-2   -1.022472304524004E-2   -3.639319372823463E-2   -1.120373722361696E-2   -3.621493508922410E-2    4.740581887200849E-1   -2.049469691599826E-1
 6.529017012300000E9     5.587678802030860E-1   -7.377097535137939E-2   -1.043477920935807E-2   -3.657842779144662E-2   -1.115889265953869E-2   -3.637141052700750E-2    4.733761512212372E-1   -2.059858792901186E-1
 6.529026402600000E9     5.585812028510897E-1   -7.462861329390104E-2   -1.054166794606145E-2   -3.677435544416655E-2   -1.132590529369645E-2   -3.646400048086718E-2    4.732106486763772E-1   -2.072154271593662E-1
 6.529035792900000E9     5.583698259454464E-1   -7.531273126320830E-2   -1.072019914259173E-2   -3.684226923834967E-2   -1.155978214636177E-2   -3.669137980462406E-2    4.728696400396748E-1   -2.078635336613520E-1
 6.529045183200000E9     5.583736183106067E-1   -7.609083089232778E-2   -1.079090749418612E-2   -3.716018767742314E-2   -1.175985515027361E-2   -3.691555826149185E-2    4.723309134379377E-1   -2.087157099943940E-1
 6.529054573500000E9     5.581583828743097E-1   -7.685012044752401E-2   -1.083322678162240E-2   -3.730246082416038E-2   -1.175199321238380E-2   -3.716262260628704E-2    4.719236065529416E-1   -2.095185264663665E-1
 6.529063963800000E9     5.580605254930209E-1   -7.784159391815035E-2   -1.103889916805365E-2   -3.749139202407249E-2   -1.196818822415086E-2   -3.727955112111133E-2    4.715396025757750E-1   -2.105649794279145E-1
 6.529073354100000E9     5.579523831487689E-1   -7.858686765329956E-2   -1.123927829225007E-2   -3.770682026407379E-2   -1.213179776331901E-2   -3.744810837657169E-2    4.710532515956195E-1   -2.113110472379426E-1
 6.529082744400000E9     5.578680713009516E-1   -7.933489440012442E-2   -1.130699579468478E-2   -3.789807179979262E-2   -1.222202136536116E-2   -3.764866416095369E-2    4.705452172045601E-1   -2.122305226118484E-1
 6.529092134700000E9     5.577110425621167E-1   -8.014631665832192E-2   -1.152676953415117E-2   -3.793082262993042E-2   -1.231371329117406E-2   -3.779469445480294E-2    4.701285808909544E-1   -2.130759651964671E-1
 6.529101525000000E9     5.577014346365835E-1   -8.087663011292673E-2   -1.151623938109082E-2   -3.833276228212553E-2   -1.246910514498780E-2   -3.815049201375531E-2    4.697533779826847E-1   -2.142201277678092E-1
 6.529110915300000E9     5.574321110736911E-1   -8.176239501159632E-2   -1.185818163539957E-2   -3.850569360441122E-2   -1.258567565837138E-2   -3.820595597906123E-2    4.693626406386430E-1   -2.149610749752784E-1
 6.529120305600000E9     5.573717603256277E-1   -8.253316108025345E-2   -1.183064030906397E-2   -3.871812462242491E-2   -1.276083253589117E-2   -3.840380123211840E-2    4.688704054713745E-1   -2.159907991942446E-1
 6.529129695900000E9     5.571335018091922E-1   -8.331667847982405E-2   -1.203114295004490E-2   -3.872602071486381E-2   -1.293986784330741E-2   -3.875217510215699E-2    4.682717305746835E-1   -2.168164802528806E-1
 6.529139086200000E9     5.570810110426970E-1   -8.405714743717707E-2   -1.218889417196134E-2   -3.898625267029028E-2   -1.303534081648383E-2   -3.885737487515246E-2    4.679897910111600E-1   -2.177253034719372E-1
 6.529148476500000E9     5.567555258907585E-1   -8.501308609437726E-2   -1.227172350588274E-2   -3.913894513183121E-2   -1.316204418541556E-2   -3.900982028022378E-2    4.673715881832112E-1   -2.186151520437324E-1
 6.529157866800000E9     5.567714910502241E-1   -8.575472814647261E-2   -1.231812812539822E-2   -3.942418992830168E-2   -1.332636460523602E-2   -3.929443363696242E-2    4.669879357878328E-1   -2.196045130134986E-1
 6.529167257100000E9     5.565399915628596E-1   -8.661576036623966E-2   -1.270310473353530E-2   -3.965201874892639E-2   -1.353335344164821E-2   -3.949730580978958E-2    4.663816757431714E-1   -2.203213076575042E-1
 6.529176647400000E9     5.564661798634692E-1   -8.730820899640010E-2   -1.278283126902442E-2   -3.975866410242435E-2   -1.377163850675906E-2   -3.964254131720108E-2    4.660093052100058E-1   -2.213492559447623E-1
 6.529186037700000E9     5.563469941241572E-1   -8.824642310405104E-2   -1.301555978688291E-2   -4.009774794449483E-2   -1.379625195444334E-2   -3.988742946761076E-2    4.654673650478016E-1   -2.225364303950442E-1
 6.529195428000000E9     5.562227386275395E-1   -8.900443540983394E-2   -1.304817033277377E-2   -4.032363892258057E-2   -1.405740545266659E-2   -4.005925568017219E-2    4.649278247618788E-1   -2.233097215281823E-1
 6.529204818300000E9     5.560434492029696E-1   -8.973698838457807E-2   -1.303676459759183E-2   -4.048540577133584E-2   -1.413093735380276E-2   -4.020764678875387E-2    4.644135821477407E-1   -2.243100059119437E-1
 6.529214208600000E9     5.559010423041632E-1   -9.071872597041639E-2   -1.329787532629659E-2   -4.064769556080055E-2   -1.432478277813202E-2   -4.047478777065910E-2    4.640035714788064E-1   -2.251755513404214E-1
 6.529223598900000E9     5.556878316232654E-1   -9.139025820686746E-2   -1.353128216124506E-2   -4.117876664466471E-2   -1.443562539127012E-2   -4.071483830167796E-2    4.634092766215940E-1   -2.261518026014145E-1
 6.529232989200000E9     5.554710327867183E-1   -9.218696076619748E-2   -1.372501251128272E-2   -4.107329084406220E-2   -1.464053785353990E-2   -4.098410760861011E-2    4.628477323164207E-1   -2.268919785914644E-1
 6.529242379500000E9     5.554298480520096E-1   -9.319360791792392E-2   -1.389975140752485E-2   -4.133527336126225E-2   -1.481248602187069E-2   -4.120126677219118E-2    4.622880059346781E-1   -2.280054813869979E-1
 6.529251769800000E9     5.552117783304997E-1   -9.392746767999714E-2   -1.401696655836253E-2   -4.164895554222613E-2   -1.491862715046118E-2   -4.139343325947815E-2    4.618076531610147E-1   -2.289994803685694E-1
 6.529261160100000E9     5.550528376967928E-1   -9.472622853078068E-2   -1.431324586060993E-2   -4.183942850519003E-2   -1.520185082353335E-2   -4.156068866860543E-2    4.613404201598796E-1   -2.299920061285094E-1
 6.529270550400000E9     5.549523649445689E-1   -9.555904175260369E-2   -1.436496476049294E-2   -4.209649531806968E-2   -1.544829142278594E-2   -4.191910034577587E-2    4.607581533185622E-1   -2.308971991482572E-1
 6.529279940700000E9     5.546789889373519E-1   -9.634433088856798E-2   -1.454387656872639E-2   -4.247767173019271E-2   -1.556307203169500E-2   -4.202553030292019E-2    4.601870983842121E-1   -2.319162070195187E-1
 6.529289331000000E9     5.546516739377650E-1   -9.724592940431769E-2   -1.480376113034842E-2   -4.259859761453817E-2   -1.572811322212218E-2   -4.243379473693326E-2    4.596723289976256E-1   -2.329246569613645E-1
 6.529298721300000E9     5.543591755896474E-1   -9.813622286778809E-2   -1.503164778575919E-2   -4.283873695908880E-2   -1.592312402377039E-2   -4.260405790949819E-2    4.591516997378568E-1   -2.338209684260805E-1
 6.529308111600000E9     5.542580880718996E-1   -9.894696433954604E-2   -1.509765952462529E-2   -4.309508066109358E-2   -1.617084722585560E-2   -4.275692533052420E-2    4.584748789471045E-1   -2.348088271394376E-1
 6.529317501900000E9     5.541092432389217E-1   -9.968712165465134E-2   -1.525828436723268E-2   -4.340425112994076E-2   -1.627026489821698E-2   -4.315608629000405E-2    4.580222483670413E-1   -2.358197005074354E-1
 6.529326892200000E9     5.537947978458048E-1   -1.005109494935838E-1   -1.538853227600191E-2   -4.369695114146314E-2   -1.652953432785777E-2   -4.332067589902548E-2    4.573251618573948E-1   -2.367008563983441E-1
 6.529336282500000E9     5.536606610306700E-1   -1.013942975820407E-1   -1.572237582985559E-2   -4.381486721343125E-2   -1.661801031214618E-2   -4.355120324776211E-2    4.566880854805384E-1   -2.379549521880595E-1
 6.529345672800000E9     5.534469945627055E-1   -1.022259918512146E-1   -1.595235309197799E-2   -4.423511948066051E-2   -1.696613600416109E-2   -4.375118173065456E-2    4.561551834493737E-1   -2.388038160584783E-1
 6.529355063100000E9     5.532902843857186E-1   -1.030594127271689E-1   -1.615941167280151E-2   -4.442652356508610E-2   -1.714886818349693E-2   -4.408513487550830E-2    4.555853332659959E-1   -2.398087662334989E-1
 6.529364453400000E9     5.531819486385960E-1   -1.039999157338141E-1   -1.628624546260021E-2   -4.472315891155811E-2   -1.725100653575532E-2   -4.432935749466294E-2    4.550100017766647E-1   -2.408555012602595E-1
 6.529373843700000E9     5.528410226091839E-1   -1.047120329965612E-1   -1.642501444168558E-2   -4.486965104750598E-2   -1.749373606270041E-2   -4.465892343002094E-2    4.542177925470552E-1   -2.417319951373055E-1
 6.529383234000000E9     5.527018306167317E-1   -1.055694991573130E-1   -1.680904082813149E-2   -4.517969106732479E-2   -1.773670003119742E-2   -4.492535175779965E-2    4.536279571745341E-1   -2.428307647236095E-1
 6.529392624300000E9     5.525837641603516E-1   -1.063499355306271E-1   -1.694232268207984E-2   -4.558703344132677E-2   -1.796486402181638E-2   -4.513335884945475E-2    4.530233964186734E-1   -2.439801303827062E-1
 6.529402014600000E9     5.523420598505917E-1   -1.072535771703401E-1   -1.705542871002343E-2   -4.583599739753191E-2   -1.814479352062245E-2   -4.543820931185387E-2    4.523248535447297E-1   -2.449788470230178E-1
 6.529411404900000E9     5.521668751685676E-1   -1.081406635904059E-1   -1.727803457339166E-2   -4.619286843295527E-2   -1.849896102396562E-2   -4.578726457967588E-2    4.518776938206039E-1   -2.458645287660696E-1
 6.529420795200000E9     5.519647977058845E-1   -1.090793997196439E-1   -1.757553423166004E-2   -4.636569555345746E-2   -1.867060942098745E-2   -4.606139077905139E-2    4.512044249754403E-1   -2.470148655676735E-1
 6.529430185500000E9     5.517038867796165E-1   -1.099565275527265E-1   -1.780954278073310E-2   -4.677034744237783E-2   -1.892732921251258E-2   -4.628298414862212E-2    4.505133679497829E-1   -2.480634205838667E-1
 6.529439575800000E9     5.515808693957202E-1   -1.107163121504072E-1   -1.818340493741706E-2   -4.698235401220308E-2   -1.921158168633182E-2   -4.655357005828531E-2    4.497829564228239E-1   -2.491227000142377E-1
 6.529448966100000E9     5.513497841809702E-1   -1.115883523337229E-1   -1.837859559325781E-2   -4.725990261679440E-2   -1.942743273218745E-2   -4.689028677923154E-2    4.491076991568402E-1   -2.502403372318839E-1
 6.529458356400000E9     5.512652073147087E-1   -1.125053601574561E-1   -1.849536142099150E-2   -4.774023658331131E-2   -1.963633534919731E-2   -4.720843565608442E-2    4.484235348649911E-1   -2.512567201522314E-1
 6.529467746700000E9     5.509977082456113E-1   -1.133826728987350E-1   -1.881796046249045E-2   -4.786146693962769E-2   -1.984851139531798E-2   -4.749390188405044E-2    4.476567127829906E-1   -2.524649574941761E-1
 6.529477137000000E9     5.506506656397272E-1   -1.142453256198553E-1   -1.911536792611096E-2   -4.813055299242504E-2   -2.020154421793190E-2   -4.775833339852465E-2    4.468795678713714E-1   -2.534595596447054E-1
 6.529486527300000E9     5.504228118466186E-1   -1.151470146380333E-1   -1.932476695268862E-2   -4.853954862325396E-2   -2.038733140486710E-2   -4.808353899348988E-2    4.462931835948811E-1   -2.545719998062724E-1
 6.529495917600000E9     5.502339716619266E-1   -1.159309827533580E-1   -1.958353165910951E-2   -4.889326067580953E-2   -2.076105174757720E-2   -4.839094047086860E-2    4.456252412701123E-1   -2.555681956191785E-1
 6.529505307900000E9     5.500682285739710E-1   -1.168959037568640E-1   -1.971192763819071E-2   -4.904158328143078E-2   -2.101071757175410E-2   -4.870826243985718E-2    4.450101453061788E-1   -2.566083877402001E-1
 6.529514698200000E9     5.497238648298018E-1   -1.177505879467918E-1   -2.011309991445884E-2   -4.941365939827631E-2   -2.130061791876552E-2   -4.907446950917300E-2    4.441297572490533E-1   -2.577794522136972E-1
 6.529524088500000E9     5.495096815327891E-1   -1.185176239587844E-1   -2.033540153390865E-2   -4.981330377741201E-2   -2.163950869221644E-2   -4.926815013629751E-2    4.433203832167881E-1   -2.587878070602596E-1
 6.529533478800000E9     5.492211367539532E-1   -1.195333208697702E-1   -2.068008564604483E-2   -5.020519738277682E-2   -2.178458141764262E-2   -4.973855422223353E-2    4.424965505974679E-1   -2.600005241946658E-1
 6.529542869100000E9     5.488833901781364E-1   -1.203765000957003E-1   -2.094492663380505E-2   -5.041987150178588E-2   -2.220579963491370E-2   -5.001754159889805E-2    4.417749491659682E-1   -2.611387282254577E-1
 6.529552259400000E9     5.487002583355981E-1   -1.211679337616797E-1   -2.117339848033331E-2   -5.086631126265588E-2   -2.246187585764157E-2   -5.028659127874865E-2    4.409250780104639E-1   -2.621941176297913E-1
 6.529561649700000E9     5.483961331525310E-1   -1.221960595762496E-1   -2.142346160015959E-2   -5.121380563974771E-2   -2.275095121315298E-2   -5.070274930846141E-2    4.401727360629668E-1   -2.632083292188524E-1
 6.529571040000000E9     5.481640072690286E-1   -1.230067754334708E-1   -2.178516629439516E-2   -5.157820143277718E-2   -2.305748408860740E-2   -5.116681464320303E-2    4.393207261232308E-1   -2.643833571299591E-1
 6.529580430300000E9     5.479402284995213E-1   -1.239962913562154E-1   -2.208338240364017E-2   -5.194509828297895E-2   -2.344771960134523E-2   -5.137115364627243E-2    4.384713719231476E-1   -2.655754989969788E-1
 6.529589820600000E9     5.476909675226986E-1   -1.247417649330283E-1   -2.244922152133139E-2   -5.224751789747481E-2   -2.370081246788936E-2   -5.170752037246236E-2    4.377134723258665E-1   -2.668174893998232E-1
 6.529599210900000E9     5.474036513851109E-1   -1.258212814445241E-1   -2.252709138798928E-2   -5.266158273391972E-2   -2.405279435735871E-2   -5.219687098384081E-2    4.368430052171073E-1   -2.680469317200587E-1
 6.529608601200000E9     5.471352936903791E-1   -1.266197758968639E-1   -2.305640274728413E-2   -5.294215108830758E-2   -2.441413729116068E-2   -5.241648265330894E-2    4.358654726564039E-1   -2.689780703174096E-1
 6.529617991500000E9     5.469227910405522E-1   -1.275948043686526E-1   -2.342121595814210E-2   -5.330732870739176E-2   -2.472664454413872E-2   -5.283063457678545E-2    4.351318154916593E-1   -2.702798103022555E-1
 6.529627381800000E9     5.464880955950574E-1   -1.285752254271322E-1   -2.360915899364891E-2   -5.372046664737795E-2   -2.513488104625204E-2   -5.333642789320555E-2    4.341815817640622E-1   -2.714053749776437E-1
 6.529636772100000E9     5.462841713033176E-1   -1.294368285658475E-1   -2.405278803079103E-2   -5.407436752125568E-2   -2.542010161968852E-2   -5.363347403281130E-2    4.333107857221732E-1   -2.726155602420773E-1
 6.529646162400000E9     5.459576221510097E-1   -1.304481691966801E-1   -2.446446905523855E-2   -5.464096065710938E-2   -2.580163780113986E-2   -5.400405127250774E-2    4.323058214201295E-1   -2.736959363523986E-1
 6.529655552700000E9     5.456623286700306E-1   -1.312864420272806E-1   -2.493822456950623E-2   -5.492274226823383E-2   -2.613172799683012E-2   -5.442678082192389E-2    4.314406602132659E-1   -2.751191756232051E-1
 6.529664943000000E9     5.453902479355762E-1   -1.322324974653406E-1   -2.517453720231561E-2   -5.551899642362886E-2   -2.649092004917884E-2   -5.488565557704835E-2    4.304233880971117E-1   -2.762688577995173E-1
