#  HZ   S   RI   R     50.00 
! Rohde & Schwarz Vector Network Analyzer 
! Rohde-Schwarz,ZNB20-2Port,1311601062101988,3.16
! Created: UTC 3/21/2024, 1:21:06 AM
! freq[Hz]                re:S11                  im:S11                  re:S21                  im:S21                  re:S12                  im:S12                  re:S22                  im:S22
 6.529646198000000E9     5.506348036659076E-1   -1.036961702895539E-1   -1.101998453639327E-2   -3.322018270813013E-2   -1.170056592906392E-2   -3.307563410720982E-2    4.573532332432900E-1   -2.232680820660482E-1
 6.529655320350000E9     5.504761732894919E-1   -1.044743238982826E-1   -1.110827688758151E-2   -3.324204237858454E-2   -1.185161287578745E-2   -3.315147501253375E-2    4.570219181789882E-1   -2.240325295543416E-1
 6.529664442700000E9     5.503260108716257E-1   -1.052111016069597E-1   -1.118048060932024E-2   -3.349213713660432E-2   -1.194378207176716E-2   -3.324807105883279E-2    4.566246785456777E-1   -2.248740805807252E-1
 6.529673565050000E9     5.502028617911389E-1   -1.059916016521281E-1   -1.124105273858927E-2   -3.359492498468384E-2   -1.213833339328791E-2   -3.334400309328422E-2    4.560801012317900E-1   -2.257185843766741E-1
 6.529682687400000E9     5.499523778548840E-1   -1.067782877824111E-1   -1.152619441292714E-2   -3.366936173072992E-2   -1.235244318357033E-2   -3.357626337112658E-2    4.557900423902316E-1   -2.263267927437453E-1
 6.529691809750000E9     5.500315153506682E-1   -1.073756625738106E-1   -1.160349299327792E-2   -3.396396790242422E-2   -1.228915847575452E-2   -3.375893059709755E-2    4.554827565522211E-1   -2.272150504031231E-1
 6.529700932100000E9     5.497590238038860E-1   -1.081445565182253E-1   -1.167286054543040E-2   -3.413227377978497E-2   -1.247010430343499E-2   -3.386878168535640E-2    4.548845190801301E-1   -2.280741511659302E-1
 6.529710054450000E9     5.496889128388625E-1   -1.088458504777641E-1   -1.175732191347915E-2   -3.416042684160974E-2   -1.253520003430500E-2   -3.395745859896965E-2    4.544486647184668E-1   -2.287527755476435E-1
 6.529719176800000E9     5.494130773121739E-1   -1.096129920644990E-1   -1.183652953892098E-2   -3.434105898941580E-2   -1.268313922272299E-2   -3.413236939759474E-2    4.542169054500880E-1   -2.295872343684701E-1
 6.529728299150000E9     5.492781364858853E-1   -1.104048644055566E-1   -1.210003919806768E-2   -3.450523733323200E-2   -1.288717321658214E-2   -3.425773372650492E-2    4.536389748374621E-1   -2.305075883821241E-1
 6.529737421500000E9     5.491221683263658E-1   -1.111982570193570E-1   -1.215307947857569E-2   -3.474596183642369E-2   -1.293142540773580E-2   -3.445997347677286E-2    4.531734007193438E-1   -2.312352973030720E-1
 6.529746543850000E9     5.490504393649231E-1   -1.119464648981556E-1   -1.222438588234136E-2   -3.498676732164518E-2   -1.311241832519424E-2   -3.461215769650526E-2    4.528505676377115E-1   -2.319513610443579E-1
 6.529755666200000E9     5.486685106123296E-1   -1.127320786099018E-1   -1.235837918089880E-2   -3.504748550632723E-2   -1.322014345020943E-2   -3.472620325989319E-2    4.523826120494169E-1   -2.327728726303958E-1
 6.529764788550000E9     5.486158296956961E-1   -1.133842210867623E-1   -1.255308503202320E-2   -3.516314241224084E-2   -1.336810787796075E-2   -3.487383149868856E-2    4.518743564837572E-1   -2.337709407633045E-1
 6.529773910900000E9     5.484630685241741E-1   -1.140757889349307E-1   -1.252000212885651E-2   -3.522365299625334E-2   -1.348854376293146E-2   -3.509885254074142E-2    4.514018517015905E-1   -2.344275297458848E-1
 6.529783033250000E9     5.484258299529845E-1   -1.149242873122122E-1   -1.279519271739426E-2   -3.557247563090293E-2   -1.358486726722477E-2   -3.526319011466274E-2    4.508348001226682E-1   -2.352610697557321E-1
 6.529792155600000E9     5.480859126535259E-1   -1.155490093058442E-1   -1.290464394904033E-2   -3.563964793141855E-2   -1.377283148756574E-2   -3.542571113368958E-2    4.505654594232935E-1   -2.360243915246681E-1
 6.529801277950000E9     5.480880515703780E-1   -1.164208406529124E-1   -1.305477578145592E-2   -3.578016050930094E-2   -1.381064046165576E-2   -3.562491897465167E-2    4.501917836392601E-1   -2.368489089489831E-1
 6.529810400300000E9     5.477821754746413E-1   -1.172383280726819E-1   -1.315833649708338E-2   -3.579723358290791E-2   -1.394941436872750E-2   -3.572486396482585E-2    4.497422401515486E-1   -2.376354461640786E-1
 6.529819522650000E9     5.476838296123770E-1   -1.179752055228146E-1   -1.313260137009195E-2   -3.606776730387420E-2   -1.416845980399888E-2   -3.588456091227873E-2    4.492256211141011E-1   -2.384354884013480E-1
 6.529828645000000E9     5.474060988285228E-1   -1.187063116589394E-1   -1.341815586712689E-2   -3.628802424045107E-2   -1.428414931723505E-2   -3.602388588904863E-2    4.486689281962856E-1   -2.393240297572103E-1
 6.529837767350000E9     5.472692510930962E-1   -1.195349883158894E-1   -1.348529039100704E-2   -3.644455061100987E-2   -1.448448766356778E-2   -3.634540334108165E-2    4.481672281005061E-1   -2.402806395078804E-1
 6.529846889700000E9     5.469432929980921E-1   -1.202408351000485E-1   -1.375196671745756E-2   -3.660901002362734E-2   -1.460788342601141E-2   -3.646867430062600E-2    4.477467821277807E-1   -2.409182179981438E-1
 6.529856012050000E9     5.469606706225605E-1   -1.210443300012931E-1   -1.384195074410125E-2   -3.685458850737974E-2   -1.462929294044443E-2   -3.662248370995135E-2    4.472233043709323E-1   -2.417417867629276E-1
 6.529865134400000E9     5.466913433977887E-1   -1.217232011976496E-1   -1.404497207496166E-2   -3.701842752649703E-2   -1.489377292451880E-2   -3.673692382291309E-2    4.466235591847584E-1   -2.426126901895492E-1
 6.529874256750000E9     5.466139580562480E-1   -1.224826316901684E-1   -1.399902808935890E-2   -3.728631232843962E-2   -1.500293219230886E-2   -3.683447248324678E-2    4.462421990623629E-1   -2.434986019865068E-1
 6.529883379100000E9     5.463981707517084E-1   -1.232075927530560E-1   -1.421677244972030E-2   -3.743811630184938E-2   -1.509200867416339E-2   -3.709940454341479E-2    4.457549601263920E-1   -2.442101825106067E-1
 6.529892501450000E9     5.461303580811790E-1   -1.240321235387799E-1   -1.445197354572515E-2   -3.753714080605981E-2   -1.527746494841930E-2   -3.723410541586596E-2    4.452366495588328E-1   -2.450616520024741E-1
 6.529901623800000E9     5.459234688216742E-1   -1.247572465688523E-1   -1.455932270748047E-2   -3.776797894896714E-2   -1.544582893951871E-2   -3.748983301900830E-2    4.446285381669354E-1   -2.459529962576809E-1
 6.529910746150000E9     5.457195841916741E-1   -1.255794420075377E-1   -1.456043734329775E-2   -3.803872621430654E-2   -1.561854243440849E-2   -3.758346462883743E-2    4.442667836608402E-1   -2.468187990943957E-1
 6.529919868500000E9     5.456175285318808E-1   -1.263914423333715E-1   -1.481655444536907E-2   -3.823179170858827E-2   -1.569953754062606E-2   -3.786446006684403E-2    4.437110330426113E-1   -2.477173281247728E-1
 6.529928990850000E9     5.454459335739090E-1   -1.270807585717179E-1   -1.507538204017664E-2   -3.828916515317173E-2   -1.597053401571096E-2   -3.796611417654260E-2    4.431850716363793E-1   -2.485438283042222E-1
 6.529938113200000E9     5.451362318184663E-1   -1.277868344665932E-1   -1.522608735005822E-2   -3.844702177877175E-2   -1.606911695113260E-2   -3.826783536828126E-2    4.427682747796892E-1   -2.493473240654418E-1
 6.529947235550000E9     5.451059640815149E-1   -1.286540227178983E-1   -1.530003716646872E-2   -3.865757562486306E-2   -1.632995616060987E-2   -3.840002618111865E-2    4.419301576819770E-1   -2.502431003240557E-1
 6.529956357900000E9     5.448446457930591E-1   -1.294303884332747E-1   -1.543295129759950E-2   -3.880855106114833E-2   -1.635364470273058E-2   -3.862060413015380E-2    4.414968361950092E-1   -2.509369271950190E-1
 6.529965480250000E9     5.446501646783332E-1   -1.300519968274037E-1   -1.568131761613454E-2   -3.905511138455361E-2   -1.663218454666948E-2   -3.879127778707740E-2    4.410509698409528E-1   -2.520010076876935E-1
 6.529974602600000E9     5.444103635573411E-1   -1.309794637284299E-1   -1.578485681696760E-2   -3.932144866448706E-2   -1.672182296830201E-2   -3.900618864499332E-2    4.404485639669940E-1   -2.528275112486769E-1
 6.529983724950000E9     5.442044737232288E-1   -1.317622877730742E-1   -1.601046938547004E-2   -3.958072371027932E-2   -1.698702817048279E-2   -3.926765282144000E-2    4.400237542013847E-1   -2.536308122031625E-1
 6.529992847300000E9     5.440287359404000E-1   -1.324835212435019E-1   -1.615535670557236E-2   -3.977378284456942E-2   -1.708660158409101E-2   -3.931867559284316E-2    4.392868186344390E-1   -2.545749941722049E-1
 6.530001969650000E9     5.438584490332876E-1   -1.331824495784811E-1   -1.622257373361845E-2   -3.989413775965531E-2   -1.728205012945833E-2   -3.963271850141339E-2    4.387875720025239E-1   -2.554151896094156E-1
 6.530011092000000E9     5.435095824820154E-1   -1.339861948875347E-1   -1.649727494668046E-2   -4.013205449045486E-2   -1.737153279079077E-2   -3.971992514082924E-2    4.381986857864721E-1   -2.561853311612347E-1
 6.530020214350000E9     5.433735053631762E-1   -1.348222970631489E-1   -1.663636726450460E-2   -4.036135636660962E-2   -1.774424309050180E-2   -4.001472083846321E-2    4.377161119703956E-1   -2.574069551024544E-1
 6.530029336700000E9     5.431445130850827E-1   -1.355988281333686E-1   -1.684522218574144E-2   -4.053576738687942E-2   -1.779483073173515E-2   -4.021764137627754E-2    4.371532927738853E-1   -2.581132269153948E-1
 6.530038459050000E9     5.429207883163129E-1   -1.363089150750149E-1   -1.705926609500802E-2   -4.084805725454885E-2   -1.800814999331364E-2   -4.043843655010647E-2    4.366536485802133E-1   -2.589707106944127E-1
 6.530047581400000E9     5.426725236188974E-1   -1.371830975950278E-1   -1.722969694366472E-2   -4.102188269543631E-2   -1.828235022718214E-2   -4.065206279268653E-2    4.360525991177344E-1   -2.599375660619961E-1
 6.530056703750000E9     5.425118253615260E-1   -1.379018364583199E-1   -1.736840956635033E-2   -4.122041151614465E-2   -1.831619189829722E-2   -4.089181722938114E-2    4.351964042420377E-1   -2.607551481850230E-1
 6.530065826100000E9     5.422555783264966E-1   -1.386740577287750E-1   -1.760573676471756E-2   -4.150355734749933E-2   -1.864954520862643E-2   -4.115797777576232E-2    4.346533002397647E-1   -2.616105160506789E-1
 6.530074948450000E9     5.419971175004967E-1   -1.395600091319006E-1   -1.779937954759473E-2   -4.152981053273260E-2   -1.883425474959408E-2   -4.126876787577748E-2    4.340247252365111E-1   -2.625388182409300E-1
 6.530084070800000E9     5.418433381786268E-1   -1.403770389130248E-1   -1.797784059021590E-2   -4.177604035091920E-2   -1.905322241352207E-2   -4.164237999044124E-2    4.336516924380195E-1   -2.635207283657741E-1
 6.530093193150000E9     5.415638156952516E-1   -1.410381741271989E-1   -1.828266750841123E-2   -4.209924866380944E-2   -1.931339143839850E-2   -4.179727826973920E-2    4.328291070624620E-1   -2.643667104668276E-1
 6.530102315500000E9     5.413373747575529E-1   -1.419107039204637E-1   -1.836524853422795E-2   -4.236107458530804E-2   -1.945590660397523E-2   -4.207172228635462E-2    4.321435251236016E-1   -2.654200726974943E-1
 6.530111437850000E9     5.411041116576460E-1   -1.427593105296945E-1   -1.847425675266991E-2   -4.254074790712298E-2   -1.962636518347798E-2   -4.223710480623168E-2    4.315970633491865E-1   -2.663810088361116E-1
 6.530120560200000E9     5.408207886749244E-1   -1.435252881295066E-1   -1.884330881272481E-2   -4.291717441373813E-2   -1.994617504062050E-2   -4.252953591071196E-2    4.309886995524653E-1   -2.671475544225793E-1
 6.530129682550000E9     5.405969826364856E-1   -1.443640182794259E-1   -1.901073273095478E-2   -4.306739250259105E-2   -2.015217653682711E-2   -4.273485201127410E-2    4.302983821347428E-1   -2.680343567619738E-1
 6.530138804900000E9     5.403574717309511E-1   -1.451091986582658E-1   -1.915629363524961E-2   -4.339947280654511E-2   -2.026689137843926E-2   -4.292212655848365E-2    4.296633402590636E-1   -2.689626297561162E-1
 6.530147927250000E9     5.401391824265545E-1   -1.458274511706490E-1   -1.939372311113496E-2   -4.367162361772570E-2   -2.047800807450906E-2   -4.320154235256855E-2    4.290272193282005E-1   -2.698652356447545E-1
 6.530157049600000E9     5.397955408709276E-1   -1.467890913104709E-1   -1.963310484113080E-2   -4.385202329125128E-2   -2.081994641444914E-2   -4.346127951617011E-2    4.283386847580208E-1   -2.707923518395436E-1
 6.530166171950000E9     5.394785212472716E-1   -1.475970164689769E-1   -1.987414659732342E-2   -4.417913322740519E-2   -2.097942162731877E-2   -4.372304061685717E-2    4.276571435147588E-1   -2.717946555714772E-1
 6.530175294300000E9     5.392632808670673E-1   -1.482671106447971E-1   -2.010884808073548E-2   -4.426068764568861E-2   -2.126096415156180E-2   -4.400446253520511E-2    4.270276425547044E-1   -2.727756302444602E-1
 6.530184416650000E9     5.390655047966431E-1   -1.491565904392408E-1   -2.029087078856050E-2   -4.467649541352495E-2   -2.142596202241971E-2   -4.418619746308804E-2    4.262336181814257E-1   -2.738216437186313E-1
 6.530193539000000E9     5.387961464806518E-1   -1.500473228071049E-1   -2.055727610433282E-2   -4.499295112464667E-2   -2.170170576603133E-2   -4.449186891354112E-2    4.257055263813986E-1   -2.745523581024680E-1
 6.530202661350000E9     5.385416294131827E-1   -1.507669272057243E-1   -2.082548573345173E-2   -4.520945616058771E-2   -2.197196647088565E-2   -4.489060852229197E-2    4.249278941325253E-1   -2.754199580143794E-1
 6.530211783700000E9     5.383311898074609E-1   -1.514860187450071E-1   -2.113066851304165E-2   -4.528928258999305E-2   -2.222956782904190E-2   -4.509835268743925E-2    4.242168311151985E-1   -2.764162934076539E-1
 6.530220906050000E9     5.380528274029450E-1   -1.523753831547605E-1   -2.124972146034255E-2   -4.587626519402047E-2   -2.243730025182329E-2   -4.526524311710470E-2    4.234915374991399E-1   -2.775333637135730E-1
 6.530230028400000E9     5.376704131681167E-1   -1.532382346104423E-1   -2.152462350741430E-2   -4.608541697300087E-2   -2.279436405596074E-2   -4.551647782112966E-2    4.227368364877518E-1   -2.785555634237042E-1
 6.530239150750000E9     5.374372686581833E-1   -1.539552984011683E-1   -2.183479750760187E-2   -4.627004457146711E-2   -2.301484758017050E-2   -4.576234495119550E-2    4.219675035911322E-1   -2.795187017660105E-1
 6.530248273100000E9     5.371031625767280E-1   -1.548457710571867E-1   -2.201728492712674E-2   -4.651694173631855E-2   -2.320490285709792E-2   -4.609629547689813E-2    4.211445325384575E-1   -2.804811996899558E-1
 6.530257395450000E9     5.368603684457646E-1   -1.556542259742600E-1   -2.240185113089475E-2   -4.682624563066209E-2   -2.353734768466800E-2   -4.639880879382204E-2    4.204404380594058E-1   -2.815139689651626E-1
 6.530266517800000E9     5.365967208806527E-1   -1.565445226494675E-1   -2.254395850976051E-2   -4.717277414012465E-2   -2.383532005302448E-2   -4.674243044914107E-2    4.196980333005356E-1   -2.824849084859209E-1
 6.530275640150000E9     5.364012770632294E-1   -1.574026413070997E-1   -2.285715885589331E-2   -4.738123188118813E-2   -2.405694291342505E-2   -4.691201140418057E-2    4.190492626539900E-1   -2.833920149426160E-1
 6.530284762500000E9     5.359464300417774E-1   -1.582088231271107E-1   -2.303898588049439E-2   -4.773101125399840E-2   -2.438510889789114E-2   -4.718824233552397E-2    4.181829699437575E-1   -2.845024024614518E-1
 6.530293884850000E9     5.357428230454286E-1   -1.589961083381176E-1   -2.334802561427874E-2   -4.809383954942317E-2   -2.465943568948114E-2   -4.752083727371195E-2    4.171875105818172E-1   -2.855103609338600E-1
 6.530303007200000E9     5.355374754376849E-1   -1.598163995510464E-1   -2.369534634393029E-2   -4.838207148630777E-2   -2.500408397563638E-2   -4.788918497408120E-2    4.163768909852414E-1   -2.865886001327721E-1
 6.530312129550000E9     5.349665646379319E-1   -1.606915472209603E-1   -2.392439417635762E-2   -4.871865878000489E-2   -2.528066433592058E-2   -4.808713037336926E-2    4.157745395180051E-1   -2.876319222165233E-1
 6.530321251900000E9     5.348067466279696E-1   -1.616248867968288E-1   -2.427650391478552E-2   -4.900905403395354E-2   -2.557549383332055E-2   -4.842465936817307E-2    4.148429272925924E-1   -2.884473969397885E-1
 6.530330374250000E9     5.344961459371024E-1   -1.624144785569793E-1   -2.475776796260079E-2   -4.929415926515411E-2   -2.590313421569528E-2   -4.875721337602463E-2    4.140139969458184E-1   -2.895421257609776E-1
 6.530339496600000E9     5.342423653718031E-1   -1.632850185362733E-1   -2.487765008071402E-2   -4.957860041748824E-2   -2.628109890903928E-2   -4.905590032789681E-2    4.131062182148426E-1   -2.906548894705894E-1
 6.530348618950000E9     5.339171144664463E-1   -1.639902309357240E-1   -2.523039741721525E-2   -5.004656900181157E-2   -2.651630710434440E-2   -4.945146572913225E-2    4.122506704492108E-1   -2.916911000895855E-1
 6.530357741300000E9     5.335936623352433E-1   -1.649504227708157E-1   -2.563249186183431E-2   -5.040887001740584E-2   -2.692270297308716E-2   -4.974597463656590E-2    4.115806457706005E-1   -2.925327018356007E-1
 6.530366863650000E9     5.333530659826745E-1   -1.657901547855593E-1   -2.592886936053636E-2   -5.073794468486478E-2   -2.720754380000975E-2   -5.007510086035236E-2    4.106202812454622E-1   -2.938030282575583E-1
 6.530375986000000E9     5.328618959828036E-1   -1.666249746950553E-1   -2.612870323011227E-2   -5.100434785385926E-2   -2.748131486887441E-2   -5.043362994973209E-2    4.097467425281210E-1   -2.947446368702414E-1
 6.530385108350000E9     5.326097553705956E-1   -1.675258972728605E-1   -2.656329968600578E-2   -5.141292315106107E-2   -2.791385840506285E-2   -5.076088391149397E-2    4.088950075616348E-1   -2.957954159388422E-1
 6.530394230700000E9     5.321978149149685E-1   -1.683002649983646E-1   -2.702022324460263E-2   -5.181764596726877E-2   -2.819307092160055E-2   -5.118248973666188E-2    4.078261287376518E-1   -2.970679563873326E-1
 6.530403353050000E9     5.318698776751991E-1   -1.692124414007871E-1   -2.732117422277379E-2   -5.201790282353071E-2   -2.869908213955284E-2   -5.154041229982190E-2    4.066976229898829E-1   -2.981863477341820E-1
 6.530412475400000E9     5.315827664118845E-1   -1.701431047610260E-1   -2.765418017833017E-2   -5.237257267649737E-2   -2.899966239173988E-2   -5.184609796765411E-2    4.057543142871438E-1   -2.990491319676558E-1
 6.530421597750000E9     5.312284671843188E-1   -1.709752809489216E-1   -2.787357979291094E-2   -5.262358835359177E-2   -2.947792308969064E-2   -5.213879306771012E-2    4.048646448435705E-1   -3.003591986475125E-1
 6.530430720100000E9     5.308056074781725E-1   -1.718699209091907E-1   -2.830776330692122E-2   -5.307910867061891E-2   -2.980593615569479E-2   -5.249104609905052E-2    4.039545505197765E-1   -3.014986850704330E-1
 6.530439842450000E9     5.304419667549539E-1   -1.727545190094668E-1   -2.862646786849328E-2   -5.364871514290638E-2   -3.021591945781346E-2   -5.281901595946648E-2    4.029547158432736E-1   -3.024819254510884E-1
 6.530448964800000E9     5.301121357451917E-1   -1.737104187167498E-1   -2.918733132250911E-2   -5.390633872813455E-2   -3.063871803625752E-2   -5.327931515624316E-2    4.019932287649382E-1   -3.036930302079368E-1
 6.530458087150000E9     5.296428018546185E-1   -1.745856057339905E-1   -2.970227866550756E-2   -5.431493118217157E-2   -3.098564031034287E-2   -5.353833464550774E-2    4.008846852353886E-1   -3.046162039842736E-1
 6.530467209500000E9     5.293322472481312E-1   -1.754049544101554E-1   -2.983677829027592E-2   -5.476919677819461E-2   -3.149103672294778E-2   -5.397822442768250E-2    3.998093077913433E-1   -3.059161221946269E-1
