#  HZ   S   RI   R     50.00 
! Rohde & Schwarz Vector Network Analyzer 
! Rohde-Schwarz,ZNB20-2Port,1311601062101988,3.16
! Created: UTC 3/21/2024, 1:21:13 AM
! freq[Hz]                re:S11                  im:S11                  re:S21                  im:S21                  re:S12                  im:S12                  re:S22                  im:S22
 6.529639775000000E9     5.506748429703384E-1   -1.032552934647500E-1   -1.115040584910819E-2   -3.311963433790076E-2   -1.156157572128353E-2   -3.284304240278778E-2    4.577086061523223E-1   -2.227301472797067E-1
 6.529648925350000E9     5.504236029132571E-1   -1.039515158214479E-1   -1.103795211293456E-2   -3.312435387244202E-2   -1.182134040509715E-2   -3.299258867298831E-2    4.572248587104911E-1   -2.235282504915204E-1
 6.529658075700000E9     5.504331807361231E-1   -1.045896078790397E-1   -1.125340638632219E-2   -3.324371171471836E-2   -1.191985190314867E-2   -3.306119675583198E-2    4.569676057854100E-1   -2.242509967549137E-1
 6.529667226050000E9     5.502600333016014E-1   -1.054292726616128E-1   -1.115407317326776E-2   -3.354780817127601E-2   -1.213054140583740E-2   -3.329441012468205E-2    4.566425050279208E-1   -2.251072493280680E-1
 6.529676376400000E9     5.502489575661732E-1   -1.061126057161380E-1   -1.139520510360097E-2   -3.365129776757819E-2   -1.211624715363853E-2   -3.342301010078941E-2    4.561539912780765E-1   -2.257220506787446E-1
 6.529685526750000E9     5.499767440897241E-1   -1.068145479977446E-1   -1.140778588474935E-2   -3.389528327618385E-2   -1.231134604340014E-2   -3.356176287966518E-2    4.556537668663846E-1   -2.266310011870371E-1
 6.529694677100000E9     5.497686818306076E-1   -1.077124173906966E-1   -1.169421742928384E-2   -3.398549396891039E-2   -1.242749302393607E-2   -3.370086766803724E-2    4.552526398270493E-1   -2.275546023645402E-1
 6.529703827450000E9     5.496757940836425E-1   -1.083283548063259E-1   -1.162765730400993E-2   -3.411005083565454E-2   -1.254471682468855E-2   -3.384096934217058E-2    4.548498149156275E-1   -2.283080116702144E-1
 6.529712977800000E9     5.493574731093580E-1   -1.092183483579920E-1   -1.177692063695021E-2   -3.428180905075610E-2   -1.264355074101853E-2   -3.405550281108727E-2    4.544088252417752E-1   -2.291035427347685E-1
 6.529722128150000E9     5.494438444023940E-1   -1.100010963032089E-1   -1.200460266449581E-2   -3.431907471246572E-2   -1.273511789412915E-2   -3.421775813397658E-2    4.539941545914867E-1   -2.298319990391413E-1
 6.529731278500000E9     5.492525831423458E-1   -1.107269857833412E-1   -1.200592277578417E-2   -3.453805461397392E-2   -1.280215757157534E-2   -3.431987378306760E-2    4.534204868449744E-1   -2.307059628588209E-1
 6.529740428850000E9     5.491868326905621E-1   -1.114081742123661E-1   -1.215857958175917E-2   -3.483670380721504E-2   -1.302837404925968E-2   -3.446583994709872E-2    4.530330944558886E-1   -2.315239450889175E-1
 6.529749579200000E9     5.489200906265355E-1   -1.122850573782757E-1   -1.235387776584514E-2   -3.490076190971997E-2   -1.309714804086946E-2   -3.467738419249066E-2    4.524637813646324E-1   -2.321980254794304E-1
 6.529758729550000E9     5.487728824482866E-1   -1.130116292104551E-1   -1.242182658282052E-2   -3.510085714139462E-2   -1.327268814910674E-2   -3.488289079178927E-2    4.521404207098844E-1   -2.331331920297439E-1
 6.529767879900000E9     5.485246527946186E-1   -1.136543475555900E-1   -1.262185535427671E-2   -3.526449757533681E-2   -1.332180290572436E-2   -3.505326450101261E-2    4.517616147590770E-1   -2.338665486805185E-1
 6.529777030250000E9     5.484081658409141E-1   -1.144767083906776E-1   -1.269141752879565E-2   -3.533345457035286E-2   -1.349842074694209E-2   -3.513910542026432E-2    4.511694467616718E-1   -2.347315717206661E-1
 6.529786180600000E9     5.481029835575331E-1   -1.153335673525912E-1   -1.286022339428193E-2   -3.549931943792575E-2   -1.365425895796150E-2   -3.528892728237051E-2    4.507944265327284E-1   -2.355909386904063E-1
 6.529795330950000E9     5.479108316333435E-1   -1.159694511256581E-1   -1.306374954084312E-2   -3.566869856746637E-2   -1.378478444365027E-2   -3.545954457732824E-2    4.503514320933322E-1   -2.363495725475121E-1
 6.529804481300000E9     5.478274140334745E-1   -1.167166397208930E-1   -1.321998343176395E-2   -3.573931296647046E-2   -1.390556946638257E-2   -3.565844378159052E-2    4.498339097061539E-1   -2.371794111049499E-1
 6.529813631650000E9     5.476613007933225E-1   -1.174211294116738E-1   -1.331033259145629E-2   -3.598745778009614E-2   -1.410136512976958E-2   -3.584260953548812E-2    4.492704071972370E-1   -2.381208424783079E-1
 6.529822782000000E9     5.475345266551149E-1   -1.181607968914003E-1   -1.325022622348383E-2   -3.630249707203548E-2   -1.414570021427210E-2   -3.604110831835805E-2    4.489437923285958E-1   -2.387816709328033E-1
 6.529831932350000E9     5.473769838322314E-1   -1.189820612974598E-1   -1.351061534940667E-2   -3.645348543852447E-2   -1.442736286024186E-2   -3.611931828970585E-2    4.485051665844610E-1   -2.395857190102289E-1
 6.529841082700000E9     5.472122442051071E-1   -1.196921735318937E-1   -1.363346686539874E-2   -3.660344040006327E-2   -1.445746387219615E-2   -3.635270714249232E-2    4.478593275860366E-1   -2.404843005119279E-1
 6.529850233050000E9     5.468792061364717E-1   -1.205532060534419E-1   -1.387288514018706E-2   -3.686951879922557E-2   -1.464323070989763E-2   -3.642319427272479E-2    4.475324238683488E-1   -2.411874361421096E-1
 6.529859383400000E9     5.468374465975642E-1   -1.212332472050990E-1   -1.384580272493223E-2   -3.681574598877287E-2   -1.467741058578982E-2   -3.673755227582902E-2    4.470555562981486E-1   -2.421102315206275E-1
 6.529868533750000E9     5.466362859504332E-1   -1.220540232942632E-1   -1.418009597041927E-2   -3.707420064830626E-2   -1.499037796674725E-2   -3.682644308395752E-2    4.463668927246362E-1   -2.428942917629015E-1
 6.529877684100000E9     5.464719679067501E-1   -1.227712498367723E-1   -1.415448613155813E-2   -3.730008154602155E-2   -1.503963602051756E-2   -3.700674690163418E-2    4.460990916810952E-1   -2.436574328134501E-1
 6.529886834450000E9     5.462109480435080E-1   -1.235735072944233E-1   -1.423421733444970E-2   -3.747721064241217E-2   -1.523870233458011E-2   -3.721492376891173E-2    4.454109572876833E-1   -2.446467131023633E-1
 6.529895984800000E9     5.461674191947994E-1   -1.242325744813107E-1   -1.452513783060565E-2   -3.761389699160229E-2   -1.530414565913868E-2   -3.738401320496229E-2    4.449100185733672E-1   -2.454298436979425E-1
 6.529905135150000E9     5.459036448345882E-1   -1.250409007924534E-1   -1.456711365847784E-2   -3.780008143524128E-2   -1.552941520673585E-2   -3.755648343123390E-2    4.443615227386916E-1   -2.462209603735429E-1
 6.529914285500000E9     5.456383208540088E-1   -1.257823474694767E-1   -1.456702054224923E-2   -3.803270099983964E-2   -1.580134731871618E-2   -3.771645888252626E-2    4.440644405951480E-1   -2.472169992428312E-1
 6.529923435850000E9     5.453957794992002E-1   -1.265177144579118E-1   -1.491390035244069E-2   -3.827464500411173E-2   -1.581831189630836E-2   -3.796467890776397E-2    4.433905783958576E-1   -2.479401216218911E-1
 6.529932586200000E9     5.452496071941298E-1   -1.273040959471745E-1   -1.497556871198987E-2   -3.841952274627878E-2   -1.604345177178648E-2   -3.807616129010868E-2    4.428310268186522E-1   -2.488750867617608E-1
 6.529941736550000E9     5.449913216841354E-1   -1.282186978941708E-1   -1.520679878566398E-2   -3.853607923034635E-2   -1.610671966203859E-2   -3.836824625479900E-2    4.424292375006402E-1   -2.495983286006791E-1
 6.529950886900000E9     5.449690949306437E-1   -1.289867175775619E-1   -1.534854058262641E-2   -3.878666970666377E-2   -1.628428017382492E-2   -3.850518889047708E-2    4.418299964944910E-1   -2.505632084640748E-1
 6.529960037250000E9     5.447416200284100E-1   -1.297891684848945E-1   -1.542243246767351E-2   -3.907578453668726E-2   -1.652538782884130E-2   -3.870512924530508E-2    4.412298280826001E-1   -2.514802198504588E-1
 6.529969187600000E9     5.446253955882181E-1   -1.304280490846911E-1   -1.564719107579546E-2   -3.919115887295363E-2   -1.660990419675485E-2   -3.896875202665243E-2    4.407035748547987E-1   -2.522611645654995E-1
 6.529978337950000E9     5.443016522852654E-1   -1.312702582324830E-1   -1.590662997401076E-2   -3.948343422310469E-2   -1.687720426890829E-2   -3.912076261191320E-2    4.400764494060371E-1   -2.531013638971240E-1
 6.529987488300000E9     5.440413856345344E-1   -1.321171652063079E-1   -1.599249837749366E-2   -3.968426742787717E-2   -1.706689299679578E-2   -3.936354390011450E-2    4.395577100134851E-1   -2.539436408758274E-1
 6.529996638650000E9     5.438361969750077E-1   -1.327982259641613E-1   -1.619499030690801E-2   -3.979014453126303E-2   -1.718243402533550E-2   -3.952548397729430E-2    4.392074567444535E-1   -2.548408718829613E-1
 6.530005789000000E9     5.437074724127414E-1   -1.336849046603689E-1   -1.657352537793892E-2   -3.995531568498751E-2   -1.734312810592994E-2   -3.971813415213088E-2    4.383980370705086E-1   -2.558363248503601E-1
 6.530014939350000E9     5.433765235473774E-1   -1.343764518943081E-1   -1.661171963495993E-2   -4.016543479187601E-2   -1.749298304882236E-2   -3.991990758458274E-2    4.381309941486605E-1   -2.566289896911395E-1
 6.530024089700000E9     5.432635728456896E-1   -1.352277351847263E-1   -1.672718653599084E-2   -4.039648054380204E-2   -1.769283806728401E-2   -4.013587029094239E-2    4.375493447750470E-1   -2.576033005702810E-1
 6.530033240050000E9     5.429725856167389E-1   -1.358541727532290E-1   -1.686929403195828E-2   -4.068988825321967E-2   -1.796431976356704E-2   -4.034507285386903E-2    4.367857653364055E-1   -2.584957115734628E-1
 6.530042390400000E9     5.427295060321411E-1   -1.368345620883395E-1   -1.709089030100542E-2   -4.105340063751554E-2   -1.821581616675495E-2   -4.061981540611678E-2    4.361838912997995E-1   -2.593986608637229E-1
 6.530051540750000E9     5.425395342974018E-1   -1.375185296594211E-1   -1.729697246785346E-2   -4.106070715701895E-2   -1.831741265349170E-2   -4.077590065211358E-2    4.355709980477313E-1   -2.603320965223452E-1
 6.530060691100000E9     5.422723640894239E-1   -1.382480287657678E-1   -1.755681200622416E-2   -4.130307781072776E-2   -1.857559119391011E-2   -4.104777619698042E-2    4.351489028048509E-1   -2.611102297091930E-1
 6.530069841450000E9     5.421471877715088E-1   -1.391404255873588E-1   -1.778414971780415E-2   -4.168379274661024E-2   -1.867840079799475E-2   -4.124501658967258E-2    4.343626725979907E-1   -2.621740050364746E-1
 6.530078991800000E9     5.419371347406498E-1   -1.399043560130513E-1   -1.789120062094011E-2   -4.172336592956700E-2   -1.908583174659752E-2   -4.145276869098589E-2    4.336984602080426E-1   -2.630951096591575E-1
 6.530088142150000E9     5.416118387038849E-1   -1.406226320125736E-1   -1.815979104149331E-2   -4.214766694597476E-2   -1.916031338253565E-2   -4.175214668111971E-2    4.331912131351036E-1   -2.638400851430129E-1
 6.530097292500000E9     5.414372447421465E-1   -1.414818276716296E-1   -1.830919179781317E-2   -4.223189612257636E-2   -1.933984832060772E-2   -4.195530624786571E-2    4.326075248468621E-1   -2.647852664515564E-1
 6.530106442850000E9     5.412352442137925E-1   -1.422631822597811E-1   -1.841729042892857E-2   -4.245988788084253E-2   -1.960439613824206E-2   -4.217569277190266E-2    4.318285886884138E-1   -2.656965956918504E-1
 6.530115593200000E9     5.410206031346693E-1   -1.430828536797611E-1   -1.872346032080351E-2   -4.272959960053692E-2   -1.977678522835549E-2   -4.237716343297309E-2    4.313182792293891E-1   -2.666347739024694E-1
 6.530124743550000E9     5.406773527028342E-1   -1.438308429459047E-1   -1.895627956591868E-2   -4.300899201453538E-2   -2.000767525531474E-2   -4.260371227993308E-2    4.305503114393739E-1   -2.673847811065265E-1
 6.530133893900000E9     5.405537598700523E-1   -1.446618298526401E-1   -1.905908135161808E-2   -4.327151899158906E-2   -2.018648248941578E-2   -4.281431555983668E-2    4.299159967378724E-1   -2.685989262748049E-1
 6.530143044250000E9     5.401986211358182E-1   -1.455074552255203E-1   -1.934002186757455E-2   -4.344450644847425E-2   -2.044889812271632E-2   -4.312184943704982E-2    4.293840426201569E-1   -2.695661993287249E-1
 6.530152194600000E9     5.398726075662809E-1   -1.462403361329805E-1   -1.959774981047958E-2   -4.377991198519144E-2   -2.065476021410596E-2   -4.335710315208552E-2    4.286770461576867E-1   -2.703392675361123E-1
 6.530161344950000E9     5.397512966117870E-1   -1.471187203748606E-1   -1.979705664386447E-2   -4.403926717036002E-2   -2.097749406895421E-2   -4.356774697739641E-2    4.280634882121382E-1   -2.712656195098959E-1
 6.530170495300000E9     5.394869632583487E-1   -1.478752338874614E-1   -2.006455011631968E-2   -4.440207898353340E-2   -2.117953293544256E-2   -4.384043695691349E-2    4.275643437779372E-1   -2.723661335752405E-1
 6.530179645650000E9     5.390783392483413E-1   -1.486491555391058E-1   -2.031311948086587E-2   -4.471671628411820E-2   -2.138758457704115E-2   -4.406612441597255E-2    4.265521841715978E-1   -2.732344969759685E-1
 6.530188796000000E9     5.387809274875707E-1   -1.494195333939990E-1   -2.049110978591301E-2   -4.477175612795257E-2   -2.171348161583313E-2   -4.442637188368148E-2    4.258489714115826E-1   -2.741146859033302E-1
 6.530197946350000E9     5.386082354953382E-1   -1.503224983114864E-1   -2.079773927858740E-2   -4.510139637172687E-2   -2.182441138579051E-2   -4.458680182458679E-2    4.252315024028341E-1   -2.751236928006172E-1
 6.530207096700000E9     5.383652020558043E-1   -1.511056831444130E-1   -2.093102237953360E-2   -4.554672528772258E-2   -2.207065023607245E-2   -4.489555479000300E-2    4.243673570011994E-1   -2.760821242316716E-1
 6.530216247050000E9     5.380984453627384E-1   -1.520007788795009E-1   -2.127557127177626E-2   -4.567682846523025E-2   -2.254119713162519E-2   -4.521714749516004E-2    4.237209423061097E-1   -2.771375702535092E-1
 6.530225397400000E9     5.378212880976314E-1   -1.527916316991589E-1   -2.144642830251640E-2   -4.591905071736283E-2   -2.263885713764338E-2   -4.539907943863900E-2    4.230973940090560E-1   -2.779839660767949E-1
 6.530234547750000E9     5.375987921043262E-1   -1.535384381244026E-1   -2.175029986513309E-2   -4.620242025689655E-2   -2.282743569760270E-2   -4.568474685247310E-2    4.222220299350713E-1   -2.790998583198542E-1
 6.530243698100000E9     5.373127801553509E-1   -1.544393215745996E-1   -2.211795182806670E-2   -4.648287199030494E-2   -2.319364217697842E-2   -4.597967768700319E-2    4.215119386472225E-1   -2.798801535066383E-1
 6.530252848450000E9     5.369992978322147E-1   -1.552654851141136E-1   -2.227496287411344E-2   -4.668833019695465E-2   -2.343173981697682E-2   -4.624715481816238E-2    4.208364319354203E-1   -2.809447893380468E-1
 6.530261998800000E9     5.366884528412744E-1   -1.560600101318426E-1   -2.255730611608051E-2   -4.705245939929647E-2   -2.370234271608896E-2   -4.651115182541062E-2    4.199831144772583E-1   -2.820068462900773E-1
 6.530271149150000E9     5.364745736570398E-1   -1.568936223269700E-1   -2.283990870177539E-2   -4.733725814194283E-2   -2.405548172223194E-2   -4.672610601488609E-2    4.190552456111168E-1   -2.830205624740583E-1
 6.530280299500000E9     5.361568135937606E-1   -1.577577574890838E-1   -2.299393741043791E-2   -4.754143506721077E-2   -2.428020309752593E-2   -4.713204003067442E-2    4.184710886099836E-1   -2.839979944828380E-1
 6.530289449850000E9     5.357694797336806E-1   -1.586346598198111E-1   -2.339293662049163E-2   -4.793259890768886E-2   -2.457661392009654E-2   -4.739133586665011E-2    4.175245648074081E-1   -2.849645701103198E-1
 6.530298600200000E9     5.355395010598206E-1   -1.594877200185069E-1   -2.362278827972800E-2   -4.830803775155305E-2   -2.485684102105483E-2   -4.788551864780629E-2    4.170265835772292E-1   -2.860039120678241E-1
 6.530307750550000E9     5.353371235659757E-1   -1.603000331937084E-1   -2.388223222050382E-2   -4.850343306194963E-2   -2.511997883131080E-2   -4.795060176056300E-2    4.159886118689600E-1   -2.870063827305879E-1
 6.530316900900000E9     5.350244873020310E-1   -1.611485485641748E-1   -2.430269989950050E-2   -4.890787216121011E-2   -2.547210689396740E-2   -4.832904987227710E-2    4.154050290485462E-1   -2.880643410427187E-1
 6.530326051250000E9     5.346747988315578E-1   -1.619534835495867E-1   -2.447363539344619E-2   -4.917592231237886E-2   -2.578641158672758E-2   -4.861014408779901E-2    4.141792049618358E-1   -2.891513407983221E-1
 6.530335201600000E9     5.343910636299547E-1   -1.628888669577930E-1   -2.481261657695922E-2   -4.957554187895302E-2   -2.607651542671075E-2   -4.892435659765045E-2    4.133407424160094E-1   -2.901536592250875E-1
 6.530344351950000E9     5.340188038296846E-1   -1.638243943104836E-1   -2.502831625731195E-2   -4.985730989827410E-2   -2.646669587712234E-2   -4.935136022796228E-2    4.125691960153531E-1   -2.912344056151858E-1
 6.530353502300000E9     5.337293413587962E-1   -1.645416712726721E-1   -2.546090634761793E-2   -5.023781860201133E-2   -2.678749403342020E-2   -4.954157612895459E-2    4.116457299486580E-1   -2.923191553535376E-1
 6.530362652650000E9     5.334025744186821E-1   -1.653756800728887E-1   -2.590308343790892E-2   -5.063027949178569E-2   -2.707495991886823E-2   -5.000254308457208E-2    4.110226457160832E-1   -2.933197491641632E-1
 6.530371803000000E9     5.330566768677117E-1   -1.662622144140950E-1   -2.616475061460802E-2   -5.081688691327644E-2   -2.743736039637198E-2   -5.028427513604095E-2    4.100040476917458E-1   -2.943619488229011E-1
 6.530380953350000E9     5.326955905539298E-1   -1.670536109532956E-1   -2.642920300216649E-2   -5.127284731915117E-2   -2.777444975574070E-2   -5.068605120674482E-2    4.090432745737924E-1   -2.955470292579970E-1
 6.530390103700000E9     5.323034386460651E-1   -1.679419615043740E-1   -2.683954759857020E-2   -5.157256840302317E-2   -2.825181287784619E-2   -5.100780752409288E-2    4.080848875941959E-1   -2.965035545508902E-1
 6.530399254050000E9     5.319124039246920E-1   -1.689680363365209E-1   -2.715127648899187E-2   -5.199366430861964E-2   -2.839032297271423E-2   -5.125924572572915E-2    4.071629078576496E-1   -2.975604097258510E-1
 6.530408404400000E9     5.316299978681681E-1   -1.698532732057049E-1   -2.756869378289619E-2   -5.228843135600568E-2   -2.890494503054119E-2   -5.162099249705861E-2    4.062507452124967E-1   -2.986596906601394E-1
 6.530417554750000E9     5.312997629095744E-1   -1.705844513202733E-1   -2.798183695068580E-2   -5.268040321138136E-2   -2.919579586142874E-2   -5.198902463168532E-2    4.053010176666583E-1   -2.996340832544723E-1
 6.530426705100000E9     5.309307235532295E-1   -1.715092122777741E-1   -2.825013694866426E-2   -5.298832411923023E-2   -2.973907279927031E-2   -5.238572529528634E-2    4.042162677727502E-1   -3.008408935825015E-1
 6.530435855450000E9     5.306830301321542E-1   -1.724086843267975E-1   -2.857948973484915E-2   -5.334031014833181E-2   -2.995001657127528E-2   -5.268343343651070E-2    4.031702582502109E-1   -3.019450069204951E-1
 6.530445005800000E9     5.301977079390615E-1   -1.732665703665729E-1   -2.902911196476021E-2   -5.368446306479074E-2   -3.041896747358360E-2   -5.306010997328763E-2    4.023370293536024E-1   -3.031359871145786E-1
 6.530454156150000E9     5.298327455295113E-1   -1.740644104459530E-1   -2.954309885175873E-2   -5.416909637324914E-2   -3.091901604437467E-2   -5.350983997273914E-2    4.012288852616461E-1   -3.042679510241378E-1
 6.530463306500000E9     5.294608911897994E-1   -1.749741204314128E-1   -2.973977305635381E-2   -5.446395248626436E-2   -3.130280940240204E-2   -5.385595574962896E-2    4.001224300080727E-1   -3.053771764279452E-1
