#  HZ   S   RI   R     50.00 
! Rohde & Schwarz Vector Network Analyzer 
! Rohde-Schwarz,ZNB20-2Port,1311601062101988,3.16
! Created: UTC 3/21/2024, 1:21:18 AM
! freq[Hz]                re:S11                  im:S11                  re:S21                  im:S21                  re:S12                  im:S12                  re:S22                  im:S22
 6.529639228000000E9     5.508183682381541E-1   -1.031502862956054E-1   -1.098134331364949E-2   -3.313193556469347E-2   -1.171516876099023E-2   -3.292247889408912E-2    4.575945761135201E-1   -2.226535919864956E-1
 6.529648375825000E9     5.505850430716899E-1   -1.039387687745988E-1   -1.109630296687766E-2   -3.307934876481240E-2   -1.176999430498189E-2   -3.303890199496515E-2    4.574043882624114E-1   -2.234481513768949E-1
 6.529657523650000E9     5.505311330671591E-1   -1.045506453650932E-1   -1.123318524621372E-2   -3.341659784570017E-2   -1.193966498143174E-2   -3.315325781095958E-2    4.570152565748505E-1   -2.242727098372632E-1
 6.529666671475000E9     5.503413549573654E-1   -1.053527003105372E-1   -1.130102380269345E-2   -3.361105965173476E-2   -1.202369846236846E-2   -3.330744272616698E-2    4.564924567297491E-1   -2.250004256966810E-1
 6.529675819300000E9     5.500990275997873E-1   -1.060709587307039E-1   -1.146449395233606E-2   -3.372192342525356E-2   -1.211929378755532E-2   -3.346921788564573E-2    4.560396099576653E-1   -2.258504532020067E-1
 6.529684967125000E9     5.499543452260144E-1   -1.068615051258244E-1   -1.138149556058086E-2   -3.376023820310034E-2   -1.230879179198146E-2   -3.359195696591908E-2    4.557216138653821E-1   -2.265425784372740E-1
 6.529694114950000E9     5.497896477732017E-1   -1.076413753857633E-1   -1.174560316362007E-2   -3.384983739499049E-2   -1.243192655721866E-2   -3.375940536158562E-2    4.552138845704012E-1   -2.273620796014472E-1
 6.529703262775000E9     5.496911177190207E-1   -1.084156583286937E-1   -1.171299600570157E-2   -3.410045594154616E-2   -1.256077702801716E-2   -3.383437086111183E-2    4.548540551868318E-1   -2.281349315431252E-1
 6.529712410600000E9     5.495474459717705E-1   -1.090889467540575E-1   -1.179918509779606E-2   -3.431486344006858E-2   -1.264737882043704E-2   -3.400046445877244E-2    4.543874104996248E-1   -2.290350241686415E-1
 6.529721558425000E9     5.492377990926858E-1   -1.098311194123912E-1   -1.195262733965868E-2   -3.433394844534500E-2   -1.274230059358452E-2   -3.415036277630035E-2    4.539531371786852E-1   -2.298808793637687E-1
 6.529730706250000E9     5.492917459488593E-1   -1.105778449539511E-1   -1.202221545041921E-2   -3.456815692196095E-2   -1.287335654986763E-2   -3.437341607019898E-2    4.535393403541851E-1   -2.304468721485077E-1
 6.529739854075000E9     5.491513123609699E-1   -1.114471491188594E-1   -1.199523406679072E-2   -3.482677361051250E-2   -1.294474122198605E-2   -3.453521804805838E-2    4.529365782882176E-1   -2.312417617957930E-1
 6.529749001900000E9     5.489079885874394E-1   -1.121912396306598E-1   -1.236694418987414E-2   -3.489336276719528E-2   -1.321318037619565E-2   -3.466376040041254E-2    4.525145679787455E-1   -2.322635527552049E-1
 6.529758149725000E9     5.487523951303208E-1   -1.128123820602900E-1   -1.255608434147006E-2   -3.512881288402615E-2   -1.321003145068964E-2   -3.486729065069460E-2    4.521403659804313E-1   -2.329915914063744E-1
 6.529767297550000E9     5.485165937715185E-1   -1.137764747270808E-1   -1.242515305921101E-2   -3.519300530427941E-2   -1.345428906769737E-2   -3.496550891491138E-2    4.516970688810233E-1   -2.337772038888609E-1
 6.529776445375000E9     5.483703278602681E-1   -1.143290138759062E-1   -1.262298981033117E-2   -3.529975932792570E-2   -1.351662733356788E-2   -3.512914254168812E-2    4.512202249747489E-1   -2.345985853625030E-1
 6.529785593200000E9     5.483730575822875E-1   -1.150596179220696E-1   -1.284047419886784E-2   -3.557379061416376E-2   -1.359883397922471E-2   -3.533529293914896E-2    4.508190706037647E-1   -2.354062183527833E-1
 6.529794741025000E9     5.479701520777216E-1   -1.158177769423150E-1   -1.304597950060555E-2   -3.567993119065475E-2   -1.376558893465102E-2   -3.547459372857636E-2    4.503706581551048E-1   -2.361594934294192E-1
 6.529803888850000E9     5.478710593884936E-1   -1.165975658132926E-1   -1.315887774947100E-2   -3.589951707226612E-2   -1.387806089363017E-2   -3.569116147126189E-2    4.498237541645883E-1   -2.371886777098730E-1
 6.529813036675000E9     5.475847770669592E-1   -1.174013573596163E-1   -1.310685439533610E-2   -3.601848997257647E-2   -1.407143979105713E-2   -3.574671898562318E-2    4.495972451405100E-1   -2.379761384542185E-1
 6.529822184500000E9     5.475806426106854E-1   -1.181479463459158E-1   -1.327564016596331E-2   -3.616008752924941E-2   -1.417874818837833E-2   -3.599815119851443E-2    4.489302630982590E-1   -2.388214388774606E-1
 6.529831332325000E9     5.473747006518300E-1   -1.188526797195561E-1   -1.347403749570774E-2   -3.643148676730748E-2   -1.428693469874213E-2   -3.616077602868813E-2    4.484776119479381E-1   -2.395679557046761E-1
 6.529840480150000E9     5.472308790486390E-1   -1.195672808114062E-1   -1.364755104993173E-2   -3.664965929920600E-2   -1.453159073465856E-2   -3.633377344211551E-2    4.481254537236804E-1   -2.405526649747561E-1
 6.529849627975000E9     5.470605802034455E-1   -1.203844308590046E-1   -1.357719424396456E-2   -3.666025907887821E-2   -1.457096384825635E-2   -3.652041638397981E-2    4.473410004205264E-1   -2.411752801204196E-1
 6.529858775800000E9     5.467621323567065E-1   -1.211331957730582E-1   -1.384453628151594E-2   -3.689677746240271E-2   -1.473232923260420E-2   -3.663763892077400E-2    4.470559010458887E-1   -2.421374940642851E-1
 6.529867923625000E9     5.466561230582433E-1   -1.218792242602744E-1   -1.391179885281647E-2   -3.722214961169868E-2   -1.494338507468482E-2   -3.682097240594916E-2    4.464381183983277E-1   -2.429058018071386E-1
 6.529877071450000E9     5.464218480751004E-1   -1.226645091239046E-1   -1.409977088864546E-2   -3.733960207654365E-2   -1.517125090111543E-2   -3.697028090550111E-2    4.458345718561503E-1   -2.437013324522879E-1
 6.529886219275000E9     5.463260014479473E-1   -1.235037896503685E-1   -1.426656340876994E-2   -3.745334884354935E-2   -1.523304841364906E-2   -3.727464692823817E-2    4.454662230590561E-1   -2.445546379091525E-1
 6.529895367100000E9     5.461742861158179E-1   -1.242838447750537E-1   -1.445463890540142E-2   -3.776265929929810E-2   -1.528963041682053E-2   -3.732776575301688E-2    4.448842841801163E-1   -2.456079321906840E-1
 6.529904514925000E9     5.458042845074479E-1   -1.250655381213871E-1   -1.462349223498895E-2   -3.785599755463252E-2   -1.561494719481618E-2   -3.755015213190534E-2    4.444894339639719E-1   -2.461267765594204E-1
 6.529913662750000E9     5.457288341137450E-1   -1.258473479010322E-1   -1.473373037725872E-2   -3.809543910305555E-2   -1.567497567196814E-2   -3.775879883571456E-2    4.440294495896778E-1   -2.470820040929949E-1
 6.529922810575000E9     5.455876162323752E-1   -1.265694885380330E-1   -1.496473383816521E-2   -3.832497414069842E-2   -1.585229378806309E-2   -3.796092380494964E-2    4.433494852085046E-1   -2.478503880399083E-1
 6.529931958400000E9     5.452140721131391E-1   -1.272967561375986E-1   -1.507453357892147E-2   -3.843735490544754E-2   -1.588543956884911E-2   -3.821414322040469E-2    4.430250950274255E-1   -2.487569752598008E-1
 6.529941106225000E9     5.451349574619128E-1   -1.280273825365690E-1   -1.526294257853810E-2   -3.873357124863266E-2   -1.609480355388369E-2   -3.840380321350458E-2    4.423967512107445E-1   -2.496325540903616E-1
 6.529950254050000E9     5.448566336026424E-1   -1.287854819742208E-1   -1.531732468634012E-2   -3.879892339807583E-2   -1.642663490491049E-2   -3.845304507942397E-2    4.418082937790430E-1   -2.507088575817727E-1
 6.529959401875000E9     5.447036288253292E-1   -1.296620142933518E-1   -1.565695143337669E-2   -3.908941100371104E-2   -1.658345265652966E-2   -3.879341790974952E-2    4.412463038573021E-1   -2.513191040395726E-1
 6.529968549700000E9     5.444050729795255E-1   -1.303390150308931E-1   -1.565433550584329E-2   -3.933691601738898E-2   -1.667635330849552E-2   -3.893037209048455E-2    4.407238921002897E-1   -2.521613933611190E-1
 6.529977697525000E9     5.442332005021515E-1   -1.312231989819364E-1   -1.584778326258916E-2   -3.946041442453414E-2   -1.695153226766471E-2   -3.910947735052215E-2    4.402080593418112E-1   -2.530839523894917E-1
 6.529986845350000E9     5.440097237395241E-1   -1.319953204365000E-1   -1.591748799888918E-2   -3.969048267242193E-2   -1.699993790751353E-2   -3.926368128421047E-2    4.397002595707143E-1   -2.538223164755841E-1
 6.529995993175000E9     5.438859251315447E-1   -1.327470072975032E-1   -1.627455724903688E-2   -3.987040164117837E-2   -1.726701412949248E-2   -3.952768340930990E-2    4.391480819664288E-1   -2.547356983384702E-1
 6.530005141000000E9     5.437303440168563E-1   -1.335546871194728E-1   -1.653249070374320E-2   -3.999247962114243E-2   -1.732082355180314E-2   -3.970667768616451E-2    4.386322272979055E-1   -2.557406866201237E-1
 6.530014288825000E9     5.435178402450423E-1   -1.342998021407222E-1   -1.668207340520547E-2   -4.036386449315224E-2   -1.758041050590664E-2   -4.001765495199961E-2    4.380375054850225E-1   -2.564683289683950E-1
 6.530023436650000E9     5.432627472874321E-1   -1.350791835173741E-1   -1.685352940601021E-2   -4.042789726965348E-2   -1.783252600040115E-2   -4.008891950827410E-2    4.373244092321771E-1   -2.575309258645772E-1
 6.530032584475000E9     5.429846197856982E-1   -1.357523715775482E-1   -1.703326212801450E-2   -4.063285220404317E-2   -1.792708048202797E-2   -4.042554705053790E-2    4.369006360266025E-1   -2.582659605558351E-1
 6.530041732300000E9     5.427554871436773E-1   -1.366669141644126E-1   -1.724664961156840E-2   -4.103591943893607E-2   -1.811223379544551E-2   -4.061879209573693E-2    4.362430907629145E-1   -2.593914111101583E-1
 6.530050880125000E9     5.425993934489440E-1   -1.374817132813422E-1   -1.749449331426818E-2   -4.109923642250930E-2   -1.828281866635447E-2   -4.087202139669757E-2    4.356591587949839E-1   -2.600736804649549E-1
 6.530060027950000E9     5.423533894418858E-1   -1.381712333158333E-1   -1.750024135346565E-2   -4.144458938755298E-2   -1.845309445702086E-2   -4.108800925374644E-2    4.350769714731191E-1   -2.611014614933351E-1
 6.530069175775000E9     5.420874083744417E-1   -1.389178673267172E-1   -1.766406821207840E-2   -4.160145427679311E-2   -1.877845472212988E-2   -4.118507873295996E-2    4.343808823064689E-1   -2.619461617702969E-1
 6.530078323600000E9     5.419215781358883E-1   -1.398107731496575E-1   -1.789443628794155E-2   -4.184408285273102E-2   -1.884996858336958E-2   -4.149160688470150E-2    4.337022956971808E-1   -2.629032820276866E-1
 6.530087471425000E9     5.416593535702003E-1   -1.406579867149506E-1   -1.801315757717568E-2   -4.207699311387847E-2   -1.911725879907595E-2   -4.163654860053175E-2    4.331017767736965E-1   -2.638540857336898E-1
 6.530096619250000E9     5.414993953662922E-1   -1.414660137993511E-1   -1.822502719724184E-2   -4.237309329657158E-2   -1.940427415411725E-2   -4.195563154835509E-2    4.327149018710233E-1   -2.646045142959294E-1
 6.530105767075000E9     5.411179820419111E-1   -1.422004224246438E-1   -1.852628118234401E-2   -4.251494403708370E-2   -1.952179075088948E-2   -4.215554306959104E-2    4.320726431436044E-1   -2.656485989778885E-1
 6.530114914900000E9     5.409185103123769E-1   -1.429293386698941E-1   -1.881044562450340E-2   -4.274861659528234E-2   -1.981042018165379E-2   -4.243473373464185E-2    4.312895336515002E-1   -2.665766829149992E-1
 6.530124062725000E9     5.407669030996047E-1   -1.437520310940454E-1   -1.892794332776396E-2   -4.307217987566458E-2   -1.996291066523419E-2   -4.261336848501854E-2    4.305272891515253E-1   -2.675097517765123E-1
 6.530133210550000E9     5.404584826697396E-1   -1.445736836546231E-1   -1.914918443009472E-2   -4.316566207192048E-2   -2.017350056261768E-2   -4.293217856878892E-2    4.299867600276129E-1   -2.684817843039407E-1
 6.530142358375000E9     5.402234311411335E-1   -1.453909667081182E-1   -1.921849899672800E-2   -4.343754804015634E-2   -2.037699719230092E-2   -4.309793090125780E-2    4.294078172405021E-1   -2.693450914711739E-1
 6.530151506200000E9     5.399088104186570E-1   -1.461601315497405E-1   -1.963882021636783E-2   -4.382807154316786E-2   -2.072200012743461E-2   -4.346338152696749E-2    4.287508682057409E-1   -2.702859992621890E-1
 6.530160654025000E9     5.397583589952383E-1   -1.469597478226659E-1   -1.992162440279911E-2   -4.403677041507929E-2   -2.095187997357639E-2   -4.359631882757790E-2    4.280021847662836E-1   -2.712302162658469E-1
 6.530169801850000E9     5.395158349538296E-1   -1.478325365576739E-1   -2.012585984782825E-2   -4.433564296368692E-2   -2.113878989520572E-2   -4.385001370596411E-2    4.273321922491135E-1   -2.723523995735043E-1
 6.530178949675000E9     5.392410883052389E-1   -1.485809231747859E-1   -2.021259562852847E-2   -4.440545509481476E-2   -2.137151817303375E-2   -4.412034211329161E-2    4.265337947125566E-1   -2.730102545690950E-1
 6.530188097500000E9     5.389523521969484E-1   -1.494321888814953E-1   -2.052097172495230E-2   -4.490394539578615E-2   -2.159482979648988E-2   -4.434904018065938E-2    4.260682695699645E-1   -2.739716786238631E-1
 6.530197245325000E9     5.385329278923884E-1   -1.502480718215132E-1   -2.076463278994778E-2   -4.510124455399801E-2   -2.188387490373540E-2   -4.468035743322844E-2    4.251228090800624E-1   -2.749602717867565E-1
 6.530206393150000E9     5.383948279416398E-1   -1.511697985680410E-1   -2.095235081977362E-2   -4.520518458493891E-2   -2.212469673927694E-2   -4.498079656169383E-2    4.245467380880303E-1   -2.760166762325743E-1
 6.530215540975000E9     5.381325162737300E-1   -1.518977077583213E-1   -2.123605448379580E-2   -4.566244365345801E-2   -2.233287221249813E-2   -4.515111745185194E-2    4.238649041580389E-1   -2.770390968820772E-1
 6.530224688800000E9     5.379520177045138E-1   -1.526854339538058E-1   -2.147301785442744E-2   -4.595619042316248E-2   -2.264981901101521E-2   -4.547913920265511E-2    4.229655678113415E-1   -2.778742762921428E-1
 6.530233836625000E9     5.375417323127101E-1   -1.535486511380615E-1   -2.159844722264025E-2   -4.628747945070367E-2   -2.290829760052209E-2   -4.575798917461527E-2    4.222349964493687E-1   -2.790384021845745E-1
 6.530242984450000E9     5.374060660585493E-1   -1.543665267923184E-1   -2.199881072806887E-2   -4.648696229905547E-2   -2.324604186234349E-2   -4.602794597291241E-2    4.216058570369018E-1   -2.799120389566874E-1
 6.530252132275000E9     5.369696601390399E-1   -1.551818466219787E-1   -2.223965364406099E-2   -4.671822692491776E-2   -2.350092414215140E-2   -4.626114384910587E-2    4.208214653719239E-1   -2.808636042236805E-1
 6.530261280100000E9     5.367726965371983E-1   -1.559683152475208E-1   -2.250617804164787E-2   -4.698324391668145E-2   -2.371300668415204E-2   -4.660806303507786E-2    4.201025894431241E-1   -2.818654443160126E-1
 6.530270427925000E9     5.364548084978767E-1   -1.567794127693957E-1   -2.280038471350266E-2   -4.726887831673319E-2   -2.402147590724251E-2   -4.684626001618895E-2    4.192461419835135E-1   -2.829195276707244E-1
 6.530279575750000E9     5.361057777148791E-1   -1.576672062201359E-1   -2.304167519664420E-2   -4.765625373070972E-2   -2.428501278162190E-2   -4.717003867112066E-2    4.186179090762214E-1   -2.839892824806726E-1
 6.530288723575000E9     5.358259033450750E-1   -1.586118570958816E-1   -2.346618693329661E-2   -4.792273899614401E-2   -2.450008916045037E-2   -4.749088933487929E-2    4.177120694329537E-1   -2.848488166828467E-1
 6.530297871400000E9     5.356290178744781E-1   -1.593613078086418E-1   -2.369601368823325E-2   -4.832060170671341E-2   -2.486057093811449E-2   -4.770094161451126E-2    4.168346305814676E-1   -2.857777400664915E-1
 6.530307019225000E9     5.352199191818353E-1   -1.602581308065097E-1   -2.391794653198348E-2   -4.855503959457088E-2   -2.531040417912291E-2   -4.802657387875638E-2    4.159633140202793E-1   -2.869194683212783E-1
 6.530316167050000E9     5.349189671791463E-1   -1.610133098742537E-1   -2.425939382129653E-2   -4.885107863358797E-2   -2.550900711453488E-2   -4.834470461004495E-2    4.151418617596365E-1   -2.881143411419298E-1
 6.530325314875000E9     5.346106708400973E-1   -1.619314583799350E-1   -2.451917336053266E-2   -4.925619149155788E-2   -2.569049113083244E-2   -4.854512049716905E-2    4.143856675688649E-1   -2.889812819725411E-1
 6.530334462700000E9     5.343950865032860E-1   -1.627746664601587E-1   -2.485698289700973E-2   -4.935446142196093E-2   -2.608319812515551E-2   -4.901430518583372E-2    4.136080656475328E-1   -2.899500838118956E-1
 6.530343610525000E9     5.340341871059258E-1   -1.636454711156613E-1   -2.524273161933718E-2   -4.984137124560691E-2   -2.645858260820017E-2   -4.932745311266250E-2    4.126247053238194E-1   -2.909828033271392E-1
 6.530352758350000E9     5.336972732705305E-1   -1.644051451655523E-1   -2.550412093230433E-2   -5.028767077255336E-2   -2.681834400066642E-2   -4.966259026839313E-2    4.117761092224059E-1   -2.922854271242169E-1
 6.530361906175000E9     5.333438914151551E-1   -1.652328614739653E-1   -2.585409826649562E-2   -5.050147968839287E-2   -2.705541349795707E-2   -4.989477040653290E-2    4.108496478739141E-1   -2.932336731155497E-1
 6.530371054000000E9     5.330067771521759E-1   -1.662325117061285E-1   -2.625258700200696E-2   -5.078614779183005E-2   -2.745008268962687E-2   -5.023788910367961E-2    4.100580520745868E-1   -2.942376925626071E-1
 6.530380201825000E9     5.327090735030076E-1   -1.671606565041764E-1   -2.648987262447106E-2   -5.129305585977918E-2   -2.782197716331104E-2   -5.060847445423803E-2    4.091062539909831E-1   -2.954199520696627E-1
 6.530389349650000E9     5.324699091431816E-1   -1.679192781665837E-1   -2.678566954762036E-2   -5.155123968894737E-2   -2.818135252414579E-2   -5.092558217793199E-2    4.082018162310272E-1   -2.964651844393560E-1
 6.530398497475000E9     5.320112051027596E-1   -1.687934764132691E-1   -2.722995005949586E-2   -5.188940005006263E-2   -2.855957881682205E-2   -5.134175249755686E-2    4.070966135758128E-1   -2.975455493548370E-1
 6.530407645300000E9     5.317467896252838E-1   -1.696952980909950E-1   -2.744807097463980E-2   -5.232343052198577E-2   -2.892968238183638E-2   -5.162161592691979E-2    4.062186398679637E-1   -2.986226345022672E-1
 6.530416793125000E9     5.314100757286684E-1   -1.704966284459820E-1   -2.801531968596611E-2   -5.266845633824106E-2   -2.925229867806000E-2   -5.199500827977330E-2    4.052484816316049E-1   -2.998095635696009E-1
 6.530425940950000E9     5.310327470053918E-1   -1.713587979185166E-1   -2.829716370924117E-2   -5.302033997843906E-2   -2.967910556410873E-2   -5.236523239945168E-2    4.041858026509248E-1   -3.008938919453267E-1
 6.530435088775000E9     5.305978754395549E-1   -1.722947346159201E-1   -2.864440795332409E-2   -5.329169478853098E-2   -2.998210637576134E-2   -5.276690845234581E-2    4.033723672017582E-1   -3.019366597634578E-1
 6.530444236600000E9     5.302400523540768E-1   -1.731338354775584E-1   -2.894512383144176E-2   -5.374383409092291E-2   -3.048764586759300E-2   -5.305275575622860E-2    4.021810326852485E-1   -3.029928034757907E-1
 6.530453384425000E9     5.298851778383025E-1   -1.741474675065702E-1   -2.936067763337361E-2   -5.415379172856747E-2   -3.098199274672064E-2   -5.344226884032041E-2    4.013543497678522E-1   -3.043093027425884E-1
 6.530462532250000E9     5.295835240261668E-1   -1.749747853095970E-1   -2.985479997500047E-2   -5.448312949390570E-2   -3.132754967784660E-2   -5.385094244780760E-2    4.002057891563237E-1   -3.053343061349289E-1
