#  HZ   S   RI   R     50.00 
! Rohde & Schwarz Vector Network Analyzer 
! Rohde-Schwarz,ZNB20-2Port,1311601062101988,3.16
! Created: UTC 3/21/2024, 12:53:19 AM
! freq[Hz]                re:S11                  im:S11                  re:S21                  im:S21                  re:S12                  im:S12                  re:S22                  im:S22
 6.528819256000000E9     5.608512940740383E-1   -5.734617645834469E-2   -8.099000132853293E-3   -3.303648297229114E-2   -8.937660335842916E-3   -3.289248558214382E-2    4.815231579701648E-1   -1.880391298753865E-1
 6.528828660900000E9     5.606349479334455E-1   -5.805310743328362E-2   -8.408253022708289E-3   -3.313536688403376E-2   -8.940857272023806E-3   -3.307132526075328E-2    4.813997161690559E-1   -1.888097987431329E-1
 6.528838065800000E9     5.605678657456457E-1   -5.884249779285529E-2   -8.384214223890836E-3   -3.336029049102503E-2   -9.181845613266111E-3   -3.327662918839824E-2    4.810115200331255E-1   -1.897018551802704E-1
 6.528847470700000E9     5.604743630231533E-1   -5.970465207892613E-2   -8.377317129778402E-3   -3.347099039484171E-2   -9.191362899301204E-3   -3.348891129034349E-2    4.805701460767337E-1   -1.906340374273942E-1
 6.528856875600000E9     5.605247779025470E-1   -6.043394233787791E-2   -8.542329821710099E-3   -3.366986553444554E-2   -9.343433734746521E-3   -3.360330430608070E-2    4.802377520330068E-1   -1.913403588992921E-1
 6.528866280500000E9     5.602539823429931E-1   -6.122653513587491E-2   -8.712907587384376E-3   -3.381175581320094E-2   -9.304031319885435E-3   -3.371192665885785E-2    4.798564837204619E-1   -1.922654730080310E-1
 6.528875685400000E9     5.602052032788313E-1   -6.201983119299194E-2   -8.758529769090102E-3   -3.397025040989573E-2   -9.550461545427366E-3   -3.387139220884228E-2    4.795560762069102E-1   -1.929364652890584E-1
 6.528885090300000E9     5.601351677358134E-1   -6.282210852992448E-2   -8.795360848305244E-3   -3.415846019210662E-2   -9.576605429847816E-3   -3.404099051157240E-2    4.792062848184117E-1   -1.938848575820691E-1
 6.528894495200000E9     5.601018930339687E-1   -6.346891152556522E-2   -8.926126717113585E-3   -3.434084256484219E-2   -9.711708291577340E-3   -3.415322845665945E-2    4.787891146944885E-1   -1.947484700483667E-1
 6.528903900100000E9     5.599799275810348E-1   -6.435866765962051E-2   -9.061194446077043E-3   -3.446247538165196E-2   -9.700257958607891E-3   -3.434417020222756E-2    4.784673428099277E-1   -1.955530810524032E-1
 6.528913305000000E9     5.597697029614469E-1   -6.508232355449704E-2   -9.150789717018942E-3   -3.467874482007102E-2   -1.002891913074814E-2   -3.449898606959524E-2    4.780331366362879E-1   -1.965312500742681E-1
 6.528922709900000E9     5.597416020464747E-1   -6.593114984691231E-2   -9.341160276167999E-3   -3.470514835419224E-2   -1.008751182793595E-2   -3.459687274436311E-2    4.777121220279555E-1   -1.973351633042450E-1
 6.528932114800000E9     5.595776007941429E-1   -6.662871408214550E-2   -9.315653649088216E-3   -3.490135015073118E-2   -1.024333975527801E-2   -3.476501928185249E-2    4.772071212786368E-1   -1.981221041036609E-1
 6.528941519700000E9     5.595510951076860E-1   -6.750883030158476E-2   -9.589503891992928E-3   -3.511652890630921E-2   -1.029309318922731E-2   -3.494844537077937E-2    4.768766368584192E-1   -1.990224397540782E-1
 6.528950924600000E9     5.595238808735153E-1   -6.822664298400394E-2   -9.637336596435564E-3   -3.529619910027781E-2   -1.033799627819609E-2   -3.504562512022967E-2    4.764094332489933E-1   -1.997888638665446E-1
 6.528960329500000E9     5.592738617200099E-1   -6.897834931230036E-2   -9.766543258666606E-3   -3.544101061799455E-2   -1.054563020533305E-2   -3.524859725166891E-2    4.761503280793514E-1   -2.007054473570016E-1
 6.528969734400000E9     5.591774564313918E-1   -6.986579474745343E-2   -9.801539651644729E-3   -3.555056620736240E-2   -1.071689344868993E-2   -3.537216856466694E-2    4.756667365582032E-1   -2.016955587372872E-1
 6.528979139300000E9     5.592415480304559E-1   -7.057029319096710E-2   -9.902116682401251E-3   -3.578897872340406E-2   -1.068978181726514E-2   -3.559889954733033E-2    4.753663505787316E-1   -2.025139774940867E-1
 6.528988544200000E9     5.590573218566484E-1   -7.131892338025925E-2   -9.942372800105671E-3   -3.605181291515618E-2   -1.102850236293173E-2   -3.582239868998127E-2    4.749211737769896E-1   -2.032510088594118E-1
 6.528997949100000E9     5.588665057612200E-1   -7.207481719672108E-2   -1.030893771908420E-2   -3.620771134632557E-2   -1.089180988192861E-2   -3.595003669400548E-2    4.744435550909811E-1   -2.042018513371539E-1
 6.529007354000000E9     5.586886008123816E-1   -7.287222749138299E-2   -1.035271347426448E-2   -3.642617880491021E-2   -1.099976500929077E-2   -3.613064089722274E-2    4.739825183697013E-1   -2.050662458902972E-1
 6.529016758900000E9     5.586075320376745E-1   -7.374576243479679E-2   -1.043869142916475E-2   -3.653095981302884E-2   -1.121368852696105E-2   -3.634186599203867E-2    4.736891089706350E-1   -2.057925052561198E-1
 6.529026163800000E9     5.584905500154203E-1   -7.450236393295524E-2   -1.050370961643689E-2   -3.661201721339492E-2   -1.130919962026520E-2   -3.646184987419315E-2    4.732450929093631E-1   -2.067858376428341E-1
 6.529035568700000E9     5.585445969650642E-1   -7.530151137005529E-2   -1.062169824309157E-2   -3.690965389989321E-2   -1.148990412004146E-2   -3.668156951438446E-2    4.727301889731400E-1   -2.078908793897285E-1
 6.529044973600000E9     5.582923622946174E-1   -7.602890682122700E-2   -1.082917365680160E-2   -3.713023488314176E-2   -1.160056605327092E-2   -3.691849667828417E-2    4.723991096314460E-1   -2.086733561907921E-1
 6.529054378500000E9     5.581759060959963E-1   -7.684675510462410E-2   -1.084112379710758E-2   -3.716811386782330E-2   -1.172860307154646E-2   -3.704973721835142E-2    4.720209412492539E-1   -2.094482457366825E-1
 6.529063783400000E9     5.579976819312940E-1   -7.767069427499974E-2   -1.107517820879700E-2   -3.749720819713463E-2   -1.184195144561195E-2   -3.726832702601379E-2    4.715106272587034E-1   -2.104437162732254E-1
 6.529073188300000E9     5.578203610690644E-1   -7.838445628342733E-2   -1.114078793749382E-2   -3.755413662951086E-2   -1.205452503137151E-2   -3.744584839148003E-2    4.710831232777534E-1   -2.113706002545452E-1
 6.529082593200000E9     5.578429550088374E-1   -7.924091622991682E-2   -1.123921794993426E-2   -3.778872092984219E-2   -1.212216894898868E-2   -3.764852048855732E-2    4.706160092472511E-1   -2.122269488139675E-1
 6.529091998100000E9     5.575440764894726E-1   -8.008700178603109E-2   -1.151418614049312E-2   -3.793245033595456E-2   -1.215981445642862E-2   -3.785325540258377E-2    4.700171573653470E-1   -2.129775764874648E-1
 6.529101403000000E9     5.576467877513400E-1   -8.084911983739160E-2   -1.154279653992296E-2   -3.825793018124863E-2   -1.250522915152927E-2   -3.786227903901562E-2    4.695230560273453E-1   -2.139143738527970E-1
 6.529110807900000E9     5.573306005292493E-1   -8.167691012865015E-2   -1.174249410914886E-2   -3.837748926599985E-2   -1.257127306261826E-2   -3.819490073119389E-2    4.693516602696225E-1   -2.148983327314992E-1
 6.529120212800000E9     5.572799700797795E-1   -8.238408762563648E-2   -1.174808263730183E-2   -3.852970941124199E-2   -1.278598551535514E-2   -3.839521295780552E-2    4.686712191908268E-1   -2.157729620261239E-1
 6.529129617700000E9     5.571050845664833E-1   -8.333234643137238E-2   -1.192490580707170E-2   -3.868260160152200E-2   -1.288078010038779E-2   -3.849693751561357E-2    4.682436262133152E-1   -2.165950994986928E-1
 6.529139022600000E9     5.570432846808886E-1   -8.395105038454341E-2   -1.219177461426045E-2   -3.888996917313772E-2   -1.298982632553896E-2   -3.867393424897063E-2    4.679494900287192E-1   -2.175645737794968E-1
 6.529148427500000E9     5.567344310746746E-1   -8.482652324590993E-2   -1.230397555385011E-2   -3.912718131435905E-2   -1.319576489590818E-2   -3.902664243514252E-2    4.673437770068150E-1   -2.184809048315231E-1
 6.529157832400000E9     5.567653570971759E-1   -8.566081998918934E-2   -1.240556898163318E-2   -3.929807884236247E-2   -1.326589059336852E-2   -3.908449193904433E-2    4.668275332643391E-1   -2.194002418956998E-1
 6.529167237300000E9     5.565803404534612E-1   -8.649289558717344E-2   -1.253018433014600E-2   -3.953581778866300E-2   -1.359069028787937E-2   -3.939887017313722E-2    4.663898343109234E-1   -2.203856469572478E-1
 6.529176642200000E9     5.565033028466254E-1   -8.728391872148644E-2   -1.261648319715320E-2   -3.978767647259759E-2   -1.364160247917522E-2   -3.958252585291824E-2    4.659031296154134E-1   -2.213307863189921E-1
 6.529186047100000E9     5.562414771259407E-1   -8.807808074106575E-2   -1.292710580825486E-2   -3.986505979547653E-2   -1.378684500252619E-2   -3.980110898263724E-2    4.653935900735995E-1   -2.222783831879403E-1
 6.529195452000000E9     5.561719227776083E-1   -8.891399980592916E-2   -1.299130225276906E-2   -4.028026469966910E-2   -1.401734463209481E-2   -3.995997219482395E-2    4.648151785436300E-1   -2.230876576152810E-1
 6.529204856900000E9     5.558903083113252E-1   -8.980814999451084E-2   -1.303443474550815E-2   -4.050230345806302E-2   -1.405743683064428E-2   -4.022257295238118E-2    4.643646755985868E-1   -2.241151706363344E-1
 6.529214261800000E9     5.558803711192529E-1   -9.051153422939354E-2   -1.331651964964150E-2   -4.072405027832932E-2   -1.423798209159440E-2   -4.045746042880272E-2    4.639354132172090E-1   -2.249853024865339E-1
 6.529223666700000E9     5.556453587599351E-1   -9.142493919078858E-2   -1.355559014070414E-2   -4.091446453500018E-2   -1.445019511811542E-2   -4.064345004556471E-2    4.635028518953399E-1   -2.260957173116884E-1
 6.529233071600000E9     5.555107155848247E-1   -9.231181994279206E-2   -1.371209840105176E-2   -4.118717459679967E-2   -1.460451681808368E-2   -4.089477490423499E-2    4.630083483773828E-1   -2.269149950558298E-1
 6.529242476500000E9     5.554227386208295E-1   -9.301557574239155E-2   -1.396734970341455E-2   -4.144887364435514E-2   -1.476893036659021E-2   -4.103168549219932E-2    4.623581775296943E-1   -2.278637782284950E-1
 6.529251881400000E9     5.551164859086752E-1   -9.381731273496442E-2   -1.396919486270194E-2   -4.156468997987122E-2   -1.507786913934512E-2   -4.141892848815536E-2    4.616784022536147E-1   -2.288556564564150E-1
 6.529261286300000E9     5.550279947504136E-1   -9.466692065396970E-2   -1.415975696490816E-2   -4.181467506073742E-2   -1.508407470486806E-2   -4.152649650155188E-2    4.612349088733690E-1   -2.297682933508086E-1
 6.529270691200000E9     5.549459232377116E-1   -9.555153957221305E-2   -1.447665683262754E-2   -4.214529566697012E-2   -1.539877931098426E-2   -4.181422938935336E-2    4.607467065326503E-1   -2.308708656272309E-1
 6.529280096100000E9     5.548133076291490E-1   -9.629125724726412E-2   -1.458149440250919E-2   -4.236751894285260E-2   -1.543560962774591E-2   -4.215174565907218E-2    4.602750867594296E-1   -2.317177127921561E-1
 6.529289501000000E9     5.544970725066725E-1   -9.713768251065538E-2   -1.463832531979741E-2   -4.259127376548408E-2   -1.575433453238164E-2   -4.234030082419298E-2    4.594845609713371E-1   -2.327234875367171E-1
 6.529298905900000E9     5.544546291299081E-1   -9.799784363689265E-2   -1.500911685244229E-2   -4.279558944943609E-2   -1.586630690138981E-2   -4.251010116670709E-2    4.590522397395315E-1   -2.337999548480748E-1
 6.529308310800000E9     5.541784155654904E-1   -9.884793339783464E-2   -1.504613460851900E-2   -4.314476410590431E-2   -1.609417303139134E-2   -4.281357097960491E-2    4.584515561611013E-1   -2.346158015675693E-1
 6.529317715700000E9     5.539029356645095E-1   -9.965989478787754E-2   -1.528152860411357E-2   -4.323165381044806E-2   -1.628970378767787E-2   -4.304149711845524E-2    4.579620635784997E-1   -2.355881779598728E-1
 6.529327120600000E9     5.538602753119714E-1   -1.004450951762319E-1   -1.542194084778976E-2   -4.349665328685950E-2   -1.655288081552201E-2   -4.328739425837412E-2    4.573410854234027E-1   -2.366754487118463E-1
 6.529336525500000E9     5.536312914927265E-1   -1.013289866611771E-1   -1.570275227583353E-2   -4.385293938105436E-2   -1.666467292628562E-2   -4.356070278959042E-2    4.566803968804590E-1   -2.377320085611778E-1
 6.529345930400000E9     5.534886959287786E-1   -1.021180055263842E-1   -1.591177027235130E-2   -4.402009371324938E-2   -1.696928509327057E-2   -4.381623761172111E-2    4.560154023736069E-1   -2.389127356688983E-1
 6.529355335300000E9     5.532979717560994E-1   -1.030168245981073E-1   -1.598385347290412E-2   -4.440741218939633E-2   -1.711399920450360E-2   -4.402709669989504E-2    4.555801341798836E-1   -2.398249985615545E-1
 6.529364740200000E9     5.531117260772119E-1   -1.038384802674932E-1   -1.625695486996552E-2   -4.459010279090828E-2   -1.738751182939260E-2   -4.424654769942324E-2    4.549122613759402E-1   -2.406559220536866E-1
 6.529374145100000E9     5.528418885211673E-1   -1.047047181867138E-1   -1.643009913448021E-2   -4.486924769728609E-2   -1.751913986168940E-2   -4.448849025580563E-2    4.542851305524601E-1   -2.415766821568714E-1
 6.529383550000000E9     5.526396740349443E-1   -1.056082775096619E-1   -1.671778201704704E-2   -4.513530015363629E-2   -1.778668282128601E-2   -4.489436526161745E-2    4.537444192716173E-1   -2.426122435867190E-1
 6.529392954900000E9     5.525544142048949E-1   -1.064273909638193E-1   -1.675473981141187E-2   -4.546610785619703E-2   -1.800612815311433E-2   -4.504039124415017E-2    4.529676182718596E-1   -2.437499085420826E-1
 6.529402359800000E9     5.523812456487274E-1   -1.072440317474882E-1   -1.692498922622542E-2   -4.567703816373118E-2   -1.828721882803267E-2   -4.541003658904865E-2    4.524019691959620E-1   -2.448891279971803E-1
 6.529411764700000E9     5.520913793903887E-1   -1.081109956101058E-1   -1.731734979014831E-2   -4.588747120532936E-2   -1.849852513860609E-2   -4.567611248025438E-2    4.517223837442290E-1   -2.457602280326016E-1
 6.529421169600000E9     5.520101986979301E-1   -1.090531324281563E-1   -1.747879165349871E-2   -4.623548873132495E-2   -1.858461143089402E-2   -4.599714824194656E-2    4.511820632398368E-1   -2.469225749443303E-1
 6.529430574500000E9     5.516923781935139E-1   -1.099162137040736E-1   -1.783097038508778E-2   -4.659032901912338E-2   -1.894651011050964E-2   -4.619081860327814E-2    4.506240248086039E-1   -2.479862872785031E-1
 6.529439979400000E9     5.514363934755472E-1   -1.106056136141082E-1   -1.803525905315375E-2   -4.681227109500119E-2   -1.914272014634104E-2   -4.654052515310644E-2    4.497585137191374E-1   -2.489627840246549E-1
 6.529449384300000E9     5.511910304205694E-1   -1.116143428559019E-1   -1.822243231593863E-2   -4.715024403700029E-2   -1.942074213460519E-2   -4.683681335481104E-2    4.491293408085780E-1   -2.500424367035958E-1
 6.529458789200000E9     5.511249593301724E-1   -1.123734475133370E-1   -1.840978307150412E-2   -4.745697453900894E-2   -1.974214197419880E-2   -4.716049441908017E-2    4.484013437710992E-1   -2.511892666939540E-1
 6.529468194100000E9     5.507579021093510E-1   -1.132321779646708E-1   -1.881271197979008E-2   -4.789543451377802E-2   -1.993190684632060E-2   -4.744248130611386E-2    4.475558633460238E-1   -2.521338352544732E-1
 6.529477599000000E9     5.505833822230201E-1   -1.142402100195054E-1   -1.895077612447069E-2   -4.812059163660098E-2   -2.017428774083384E-2   -4.778234730342728E-2    4.469388490495129E-1   -2.532520626319817E-1
 6.529487003900000E9     5.503066212803752E-1   -1.150620528905717E-1   -1.927975057885165E-2   -4.845951450181923E-2   -2.046877612352254E-2   -4.804290842213458E-2    4.464242656804140E-1   -2.542697056154867E-1
 6.529496408800000E9     5.502574646894601E-1   -1.159630641721541E-1   -1.948796153159630E-2   -4.897148996304929E-2   -2.071663099626985E-2   -4.830863175987477E-2    4.455433765213896E-1   -2.553840019034873E-1
 6.529505813700000E9     5.499404757068745E-1   -1.168237377945959E-1   -1.977784226430197E-2   -4.909365811507979E-2   -2.105326460189235E-2   -4.864584705305764E-2    4.447556734626943E-1   -2.563859580450906E-1
 6.529515218600000E9     5.497457370344100E-1   -1.176669572970353E-1   -1.998344980737964E-2   -4.939239556348660E-2   -2.126231574654757E-2   -4.894992916622371E-2    4.438655174622549E-1   -2.575163194550810E-1
 6.529524623500000E9     5.495388413497282E-1   -1.185259260602926E-1   -2.023622890301439E-2   -4.982543596012740E-2   -2.152484253478878E-2   -4.934265271821857E-2    4.431868231825600E-1   -2.585848318841563E-1
 6.529534028400000E9     5.491997496364055E-1   -1.194595628191628E-1   -2.044949668770037E-2   -4.999647598583400E-2   -2.187497772837102E-2   -4.963929499669920E-2    4.425291106239458E-1   -2.597130478875490E-1
 6.529543433300000E9     5.489776770803454E-1   -1.203603385380734E-1   -2.085180763104056E-2   -5.033288786153451E-2   -2.213969615794800E-2   -5.001472704369474E-2    4.417256252635933E-1   -2.611002659166353E-1
 6.529552838200000E9     5.487277822813583E-1   -1.212009930874248E-1   -2.108601369397660E-2   -5.076395137583550E-2   -2.251614953468782E-2   -5.042572698966171E-2    4.409988955449697E-1   -2.621237896986212E-1
 6.529562243100000E9     5.484549279779235E-1   -1.221680187573344E-1   -2.145930717033593E-2   -5.099634147432981E-2   -2.275853180388195E-2   -5.069666709249809E-2    4.400545416611605E-1   -2.631026972288946E-1
 6.529571648000000E9     5.481865945762493E-1   -1.230379305997401E-1   -2.168045246288159E-2   -5.149891434133428E-2   -2.300178051548448E-2   -5.100748703441622E-2    4.392187041269487E-1   -2.643794062801986E-1
 6.529581052900000E9     5.479289804772295E-1   -1.239880817834971E-1   -2.205244260055867E-2   -5.182703138837757E-2   -2.334203879209586E-2   -5.140453329761142E-2    4.386216714799248E-1   -2.654555260144046E-1
 6.529590457800000E9     5.476341579719260E-1   -1.247900203998270E-1   -2.239260017297731E-2   -5.225454828517111E-2   -2.367174488303384E-2   -5.176794963954669E-2    4.375509863440222E-1   -2.666055932266568E-1
 6.529599862700000E9     5.472070263821214E-1   -1.257467680550929E-1   -2.253593451036919E-2   -5.264160842962372E-2   -2.404450347390819E-2   -5.208976550671633E-2    4.367739283327063E-1   -2.677592801982225E-1
 6.529609267600000E9     5.471581275276763E-1   -1.267027564528811E-1   -2.297850760253655E-2   -5.290766965730392E-2   -2.440423792085853E-2   -5.232424109674592E-2    4.359740278805597E-1   -2.690470422029369E-1
 6.529618672500000E9     5.468049832232372E-1   -1.275691873181282E-1   -2.338738535907782E-2   -5.327647299355283E-2   -2.479101429274862E-2   -5.281877404145829E-2    4.351742782495467E-1   -2.701436305955986E-1
 6.529628077400000E9     5.464897657571017E-1   -1.286027359401424E-1   -2.372421531393925E-2   -5.374494735442518E-2   -2.496212201015008E-2   -5.317099348471311E-2    4.341586527789820E-1   -2.712282112702574E-1
 6.529637482300000E9     5.462939345771269E-1   -1.293404098844852E-1   -2.400284279448895E-2   -5.401478448422835E-2   -2.547148127753797E-2   -5.357553040012007E-2    4.332036136687866E-1   -2.725610624498870E-1
 6.529646887200000E9     5.459812572786801E-1   -1.304011945197465E-1   -2.442377130557448E-2   -5.449811194122261E-2   -2.584083869365397E-2   -5.395281621428601E-2    4.323321246403935E-1   -2.739268199302225E-1
 6.529656292100000E9     5.456590828389631E-1   -1.313194042859965E-1   -2.461861396286604E-2   -5.491002124698850E-2   -2.609892454693590E-2   -5.444130085982426E-2    4.313909421871434E-1   -2.749858630340571E-1
 6.529665697000000E9     5.453526505894524E-1   -1.322440380408349E-1   -2.517073842005403E-2   -5.525619771756073E-2   -2.650317526424651E-2   -5.479153901516717E-2    4.305133166350535E-1   -2.760465548149423E-1
