#  HZ   S   RI   R     50.00 
! Rohde & Schwarz Vector Network Analyzer 
! Rohde-Schwarz,ZNB20-2Port,1311601062101988,3.16
! Created: UTC 3/21/2024, 1:21:46 AM
! freq[Hz]                re:S11                  im:S11                  re:S21                  im:S21                  re:S12                  im:S12                  re:S22                  im:S22
 6.529616840000000E9     5.511216679996918E-1   -1.011993843562129E-1   -1.075595937700895E-2   -3.279059335228022E-2   -1.154412908465165E-2   -3.268739581369229E-2    4.586439708772330E-1   -2.205910592846770E-1
 6.529626082575000E9     5.508854517544469E-1   -1.019109350671085E-1   -1.085517783673040E-2   -3.300650069550621E-2   -1.164246444439096E-2   -3.270969397182497E-2    4.581768715036193E-1   -2.211955795027390E-1
 6.529635325150000E9     5.506744590019645E-1   -1.026369571016541E-1   -1.097149812981297E-2   -3.309552245703284E-2   -1.180652655593002E-2   -3.292160730144659E-2    4.578975087930278E-1   -2.221487844751115E-1
 6.529644567725000E9     5.505605503998965E-1   -1.034168835055530E-1   -1.115655461908068E-2   -3.315645785323670E-2   -1.175731340576669E-2   -3.311805708367016E-2    4.575549883465785E-1   -2.231524455343329E-1
 6.529653810300000E9     5.504880623563007E-1   -1.041970933191457E-1   -1.118072358364012E-2   -3.330131059128492E-2   -1.192935709386479E-2   -3.312723450236457E-2    4.570179407799064E-1   -2.238191861669462E-1
 6.529663052875000E9     5.503203594979487E-1   -1.048573966936172E-1   -1.142024515909647E-2   -3.350170185857479E-2   -1.199474798950665E-2   -3.330218596419812E-2    4.566189540833643E-1   -2.244710012293502E-1
 6.529672295450000E9     5.501373947577980E-1   -1.054725116507072E-1   -1.131983961218663E-2   -3.364963497419686E-2   -1.220530705762896E-2   -3.342761029710735E-2    4.561710941489556E-1   -2.255470844033033E-1
 6.529681538025000E9     5.500537326946263E-1   -1.063829598563969E-1   -1.138557499797536E-2   -3.379970929339234E-2   -1.224587704588654E-2   -3.363693642326653E-2    4.557502578516964E-1   -2.261446620342213E-1
 6.529690780600000E9     5.498831687851136E-1   -1.071475045744200E-1   -1.151357016305191E-2   -3.413487954102572E-2   -1.242063587038093E-2   -3.373333960286062E-2    4.552238829258220E-1   -2.268265344688943E-1
 6.529700023175000E9     5.497795365899073E-1   -1.080358840629152E-1   -1.161591410003051E-2   -3.402381501928390E-2   -1.247815276931143E-2   -3.387136272010720E-2    4.548395310203575E-1   -2.278406434720225E-1
 6.529709265750000E9     5.495222625162708E-1   -1.087326150228787E-1   -1.182197532329093E-2   -3.436744173268606E-2   -1.264792574206186E-2   -3.408217279561320E-2    4.545308232895619E-1   -2.286772911275306E-1
 6.529718508325000E9     5.493262275377333E-1   -1.094868589930492E-1   -1.202717264116667E-2   -3.442064833908092E-2   -1.284933023053268E-2   -3.420291161563300E-2    4.539124381818401E-1   -2.293502693532020E-1
 6.529727750900000E9     5.491694233492468E-1   -1.102269829320206E-1   -1.193587913291689E-2   -3.467182011774765E-2   -1.296156339270628E-2   -3.425282202879256E-2    4.536108417224877E-1   -2.301478037866054E-1
 6.529736993475000E9     5.490965477824474E-1   -1.108196311108988E-1   -1.209845194838676E-2   -3.481602993279477E-2   -1.300040903143719E-2   -3.449150525795842E-2    4.532001140573855E-1   -2.310673444600828E-1
 6.529746236050000E9     5.489212429925094E-1   -1.116947822843797E-1   -1.243358899551512E-2   -3.493709889251761E-2   -1.319548251581473E-2   -3.475311504941921E-2    4.526892299271824E-1   -2.316607026461425E-1
 6.529755478625000E9     5.487249693099383E-1   -1.125797057325513E-1   -1.230750070889021E-2   -3.511416624351561E-2   -1.331930273107280E-2   -3.477177880023706E-2    4.523006166287460E-1   -2.327456144074958E-1
 6.529764721200000E9     5.485340850620878E-1   -1.131129605942563E-1   -1.261224620420651E-2   -3.515700262206845E-2   -1.334500697246642E-2   -3.507064315877523E-2    4.517051093779350E-1   -2.333648004244205E-1
 6.529773963775000E9     5.484074500655297E-1   -1.140377243403764E-1   -1.277060884539349E-2   -3.542193083071356E-2   -1.357277631490433E-2   -3.515920886801607E-2    4.511907795057735E-1   -2.341755010001086E-1
 6.529783206350000E9     5.482888178924694E-1   -1.147744320142066E-1   -1.298748962303228E-2   -3.550562863052325E-2   -1.364302502413535E-2   -3.527532846262855E-2    4.507756018001575E-1   -2.348772373933129E-1
 6.529792448925000E9     5.480587808412457E-1   -1.154962400131535E-1   -1.294460448392966E-2   -3.567933368250320E-2   -1.385571969701751E-2   -3.538900554209472E-2    4.503530661158097E-1   -2.359160038641537E-1
 6.529801691500000E9     5.479415573804332E-1   -1.162925534251634E-1   -1.327635194868616E-2   -3.587697306469484E-2   -1.390173662805324E-2   -3.562596167335809E-2    4.500899471584516E-1   -2.367997277589406E-1
 6.529810934075000E9     5.476608915048060E-1   -1.170720248514921E-1   -1.320366516092914E-2   -3.609858716123465E-2   -1.403949596130295E-2   -3.585128643079293E-2    4.494169235991429E-1   -2.374195525812531E-1
 6.529820176650000E9     5.475438861729580E-1   -1.177593263598939E-1   -1.338178024825797E-2   -3.633256308051741E-2   -1.426566790878831E-2   -3.607088327546149E-2    4.491136374789569E-1   -2.383966932777936E-1
 6.529829419225000E9     5.473193603770009E-1   -1.186551645795611E-1   -1.357821375446855E-2   -3.642321889501136E-2   -1.444653275667455E-2   -3.614166182742070E-2    4.484245539837642E-1   -2.392071835789201E-1
 6.529838661800000E9     5.471113412552541E-1   -1.194577887904964E-1   -1.368910482211724E-2   -3.655289369654578E-2   -1.449559156336699E-2   -3.634669709552471E-2    4.479623065166414E-1   -2.400430504357537E-1
 6.529847904375000E9     5.470147091675963E-1   -1.201024791172989E-1   -1.380336419240992E-2   -3.681245784030629E-2   -1.467132863799290E-2   -3.648921889495718E-2    4.473655591861805E-1   -2.408908167533799E-1
 6.529857146950000E9     5.467962392970408E-1   -1.208070168867230E-1   -1.390000474755787E-2   -3.698247102696145E-2   -1.472712949795039E-2   -3.668707586993337E-2    4.469174872184290E-1   -2.416749017212174E-1
 6.529866389525000E9     5.465931644415324E-1   -1.217318180948417E-1   -1.400756754214831E-2   -3.717304018757078E-2   -1.490198377356918E-2   -3.681840075402754E-2    4.465692405553889E-1   -2.425152286834481E-1
 6.529875632100000E9     5.463661512123074E-1   -1.224174224664683E-1   -1.416144681882490E-2   -3.739758881117150E-2   -1.501508666019718E-2   -3.709248930834242E-2    4.460279226486355E-1   -2.434570239709949E-1
 6.529884874675000E9     5.461945729026108E-1   -1.232134379079484E-1   -1.438759869726343E-2   -3.742123738638971E-2   -1.531276330379825E-2   -3.722546455499236E-2    4.455025451368353E-1   -2.442651196062302E-1
 6.529894117250000E9     5.460310863270487E-1   -1.241395966923034E-1   -1.457253981470213E-2   -3.759582639032016E-2   -1.530806107183381E-2   -3.744558910245958E-2    4.448597916662246E-1   -2.452015557419185E-1
 6.529903359825000E9     5.457543310712444E-1   -1.247211925200924E-1   -1.454978579748440E-2   -3.784211496733270E-2   -1.553244495663048E-2   -3.757888024903749E-2    4.443875885873525E-1   -2.460157751346535E-1
 6.529912602400000E9     5.455511092186236E-1   -1.256057388712209E-1   -1.470527819434426E-2   -3.807390507457683E-2   -1.586886510890253E-2   -3.772071798620108E-2    4.439304910100514E-1   -2.467352793601784E-1
 6.529921844975000E9     5.455862388192211E-1   -1.262872903283863E-1   -1.497823840664087E-2   -3.838503750544613E-2   -1.578140960269154E-2   -3.797065275709439E-2    4.433485803917370E-1   -2.477278162681337E-1
 6.529931087550000E9     5.452769388702617E-1   -1.270564564222109E-1   -1.509189259636954E-2   -3.829549269861943E-2   -1.610852861098886E-2   -3.813773049948714E-2    4.428598965736648E-1   -2.485863077826089E-1
 6.529940330125000E9     5.451213628427133E-1   -1.277879468281856E-1   -1.513753657837085E-2   -3.863759608344761E-2   -1.616121291517505E-2   -3.833925378743695E-2    4.423163212753302E-1   -2.494298430288478E-1
 6.529949572700000E9     5.447966440103540E-1   -1.285994111615853E-1   -1.544697774016679E-2   -3.875058594719154E-2   -1.642519615813529E-2   -3.861475705224599E-2    4.417497042302965E-1   -2.502262637040089E-1
 6.529958815275000E9     5.446394816865942E-1   -1.294995088466236E-1   -1.562195905995756E-2   -3.906921418317595E-2   -1.656819941180603E-2   -3.872887035787906E-2    4.412596356535253E-1   -2.511454906247074E-1
 6.529968057850000E9     5.445434665739904E-1   -1.300911583774737E-1   -1.574644044268257E-2   -3.919666107844154E-2   -1.665183773344622E-2   -3.889465941342832E-2    4.406334899791898E-1   -2.520933510223555E-1
 6.529977300425000E9     5.442112128859179E-1   -1.309849400672953E-1   -1.603692835938467E-2   -3.943125848130166E-2   -1.694259650180913E-2   -3.912201978614462E-2    4.402544163151463E-1   -2.528836018951762E-1
 6.529986543000000E9     5.440063421601995E-1   -1.318254994531686E-1   -1.610518493947146E-2   -3.965845837880699E-2   -1.714083320175712E-2   -3.938741518508093E-2    4.396372059848112E-1   -2.538173527126504E-1
 6.529995785575000E9     5.438750879473878E-1   -1.325861146869873E-1   -1.616614379442015E-2   -3.992152129912568E-2   -1.724648634830650E-2   -3.948128392442214E-2    4.389875921153951E-1   -2.545429830803891E-1
 6.530005028150000E9     5.437446797428921E-1   -1.334627075474297E-1   -1.660712861063445E-2   -4.007346967558507E-2   -1.747725395290312E-2   -3.974655821082861E-2    4.384242581650531E-1   -2.555157996530894E-1
 6.530014270725000E9     5.433372424529828E-1   -1.341418800271366E-1   -1.662116211714568E-2   -4.025183758274591E-2   -1.763970693359548E-2   -3.993079972647017E-2    4.378521300193457E-1   -2.564649716683359E-1
 6.530023513300000E9     5.431639083466281E-1   -1.349354677391785E-1   -1.693527290636551E-2   -4.048406249397933E-2   -1.785969690027372E-2   -4.022404660753094E-2    4.373637029306280E-1   -2.572805470127653E-1
 6.530032755875000E9     5.428792305476253E-1   -1.356199991852264E-1   -1.702224997504782E-2   -4.078029810160406E-2   -1.803167612507703E-2   -4.043312648002231E-2    4.366369634875051E-1   -2.583228124903810E-1
 6.530041998450000E9     5.426864325246548E-1   -1.364799270673029E-1   -1.722818114861831E-2   -4.098492889824062E-2   -1.824908147567759E-2   -4.065265970470529E-2    4.360887505756502E-1   -2.591543447127017E-1
 6.530051241025000E9     5.425416754765573E-1   -1.373449552803078E-1   -1.734304004338513E-2   -4.112929026518264E-2   -1.839730871856975E-2   -4.093245530730882E-2    4.355643190018313E-1   -2.600912226826506E-1
 6.530060483600000E9     5.422374030783766E-1   -1.381143912157225E-1   -1.761930477905858E-2   -4.146616938897785E-2   -1.849806349799390E-2   -4.098331745437538E-2    4.349092243235709E-1   -2.609640698081545E-1
 6.530069726175000E9     5.420061075682984E-1   -1.388708809636027E-1   -1.782950769996789E-2   -4.166970690596646E-2   -1.875346880587258E-2   -4.134485048148253E-2    4.342057475573454E-1   -2.618017244602659E-1
 6.530078968750000E9     5.419391858050575E-1   -1.397607887035138E-1   -1.798281914285889E-2   -4.194434888362904E-2   -1.899357727310769E-2   -4.141626982021943E-2    4.335402695288976E-1   -2.627250551321085E-1
 6.530088211325000E9     5.415041647652789E-1   -1.403994912648082E-1   -1.821051223067726E-2   -4.206108343805270E-2   -1.923722212768144E-2   -4.171494687388758E-2    4.331426565779553E-1   -2.636561009123488E-1
 6.530097453900000E9     5.413431247944259E-1   -1.413409152000838E-1   -1.839538536803675E-2   -4.242914235625219E-2   -1.938319747120036E-2   -4.197315784195594E-2    4.325458509804421E-1   -2.645595075299003E-1
 6.530106696475000E9     5.410706922652874E-1   -1.422050976349413E-1   -1.855123885620695E-2   -4.259964254726071E-2   -1.973799638139519E-2   -4.225656875669428E-2    4.319093088917775E-1   -2.654941624206583E-1
 6.530115939050000E9     5.409066216840995E-1   -1.429288662585368E-1   -1.888395453666510E-2   -4.277345267955505E-2   -1.989957302741007E-2   -4.241585379043569E-2    4.311925850360484E-1   -2.664526638813428E-1
 6.530125181625000E9     5.405109622619937E-1   -1.437153661981707E-1   -1.902420607849979E-2   -4.304963783006112E-2   -2.016011144470595E-2   -4.279680543895413E-2    4.303955676285199E-1   -2.674729906671884E-1
 6.530134424200000E9     5.403232726996980E-1   -1.445769805787627E-1   -1.924145412341408E-2   -4.338891185916575E-2   -2.034406810767202E-2   -4.292558599122747E-2    4.297967372946412E-1   -2.683818374843396E-1
 6.530143666775000E9     5.401636993343717E-1   -1.453422537793670E-1   -1.937521121452487E-2   -4.356043921510674E-2   -2.056030852907933E-2   -4.329446091211734E-2    4.290951386654225E-1   -2.694004282631409E-1
 6.530152909350000E9     5.399065483204004E-1   -1.462806802159303E-1   -1.974604793574769E-2   -4.390262758678038E-2   -2.083998795364530E-2   -4.339302198763715E-2    4.284473588406248E-1   -2.702869094068657E-1
 6.530162151925000E9     5.395502347432093E-1   -1.469227700493401E-1   -1.991775178435791E-2   -4.432480719877936E-2   -2.107253264434264E-2   -4.373659244932041E-2    4.277320050979165E-1   -2.713617221150698E-1
 6.530171394500000E9     5.394285290415733E-1   -1.478688893775427E-1   -2.021619801008547E-2   -4.445746212217825E-2   -2.124658543158304E-2   -4.395903500473639E-2    4.268992708505082E-1   -2.723771200698042E-1
 6.530180637075000E9     5.391467032765431E-1   -1.486275652257772E-1   -2.056748561014253E-2   -4.460286565489589E-2   -2.150367309870102E-2   -4.422346257745707E-2    4.264194912987798E-1   -2.731377355705865E-1
 6.530189879650000E9     5.388826280306750E-1   -1.494755725747468E-1   -2.065279780090664E-2   -4.495268427500667E-2   -2.174812388129726E-2   -4.448983034700112E-2    4.254751673503842E-1   -2.741408654093141E-1
 6.530199122225000E9     5.385343630855348E-1   -1.502358499726135E-1   -2.084081999312268E-2   -4.505418355256098E-2   -2.205158620258654E-2   -4.472496549979229E-2    4.247182563515426E-1   -2.751137045098342E-1
 6.530208364800000E9     5.382527669018100E-1   -1.510832141937189E-1   -2.113765139127328E-2   -4.540856709751542E-2   -2.232890298730679E-2   -4.499621475968429E-2    4.242243588006819E-1   -2.762529531310615E-1
 6.530217607375000E9     5.380762520374199E-1   -1.519306018911154E-1   -2.129088291182684E-2   -4.571486475935536E-2   -2.267622224524183E-2   -4.525028445474710E-2    4.234759033594565E-1   -2.770619639138423E-1
 6.530226849950000E9     5.376260560982128E-1   -1.527376077796921E-1   -2.165463115476446E-2   -4.612147746957870E-2   -2.285700074224329E-2   -4.553159597885840E-2    4.226660084236183E-1   -2.780550143375521E-1
 6.530236092525000E9     5.373703826527333E-1   -1.536140032115016E-1   -2.194414517440072E-2   -4.631530479632942E-2   -2.310272207721446E-2   -4.583616081416248E-2    4.218695504087336E-1   -2.789163261911513E-1
 6.530245335100000E9     5.372720062095350E-1   -1.544795678880627E-1   -2.211917180399331E-2   -4.658900612256580E-2   -2.334122340785047E-2   -4.616386693317057E-2    4.212550218469858E-1   -2.801050568454722E-1
 6.530254577675000E9     5.368758927504846E-1   -1.552212834637277E-1   -2.240334155980135E-2   -4.687150896149795E-2   -2.363928038308083E-2   -4.642122492596180E-2    4.203943567410094E-1   -2.810959471156022E-1
 6.530263820250000E9     5.366312735762504E-1   -1.562101373157950E-1   -2.268261037526380E-2   -4.730343436854308E-2   -2.387650264051900E-2   -4.667605573760209E-2    4.195681932749545E-1   -2.820483066060571E-1
 6.530273062825000E9     5.362793500007857E-1   -1.569941514000140E-1   -2.313570009997452E-2   -4.748147302840787E-2   -2.422122354927452E-2   -4.697329163048910E-2    4.187988962643580E-1   -2.830788875410022E-1
 6.530282305400000E9     5.360484958299354E-1   -1.577661458222246E-1   -2.324016510637514E-2   -4.776706893991376E-2   -2.445965977168261E-2   -4.723125023375060E-2    4.181096311136346E-1   -2.840225953849027E-1
 6.530291547975000E9     5.356723556238454E-1   -1.586682440703344E-1   -2.356725304295478E-2   -4.804692929150817E-2   -2.478852603489456E-2   -4.757552368281970E-2    4.172143455770670E-1   -2.851254646533474E-1
 6.530300790550000E9     5.354461447118156E-1   -1.595282294012955E-1   -2.382171601424049E-2   -4.841207000601769E-2   -2.514731666332655E-2   -4.792447041941165E-2    4.164036773922548E-1   -2.860274782380136E-1
 6.530310033125000E9     5.350321390655993E-1   -1.602152940917507E-1   -2.410302847787740E-2   -4.879175532013923E-2   -2.544211118566553E-2   -4.816706585750003E-2    4.156136370912661E-1   -2.872208987691697E-1
 6.530319275700000E9     5.348051440703490E-1   -1.611999378906450E-1   -2.453741564443736E-2   -4.900659517066104E-2   -2.576029723951908E-2   -4.850514177702570E-2    4.145401443989321E-1   -2.883060759477544E-1
 6.530328518275000E9     5.344563327572686E-1   -1.620298396597327E-1   -2.462408774776665E-2   -4.947105806137547E-2   -2.604936443287632E-2   -4.882163483701662E-2    4.138841745981612E-1   -2.893329571815595E-1
 6.530337760850000E9     5.341964925249021E-1   -1.628675939866186E-1   -2.502261285415932E-2   -4.978677388778543E-2   -2.628695941514902E-2   -4.921251588298461E-2    4.131053384303227E-1   -2.903664053416193E-1
 6.530347003425000E9     5.338373332984560E-1   -1.636953994807400E-1   -2.526711981586490E-2   -5.003801029919638E-2   -2.671831908753553E-2   -4.957693242608445E-2    4.121857226540908E-1   -2.913449354960226E-1
 6.530356246000000E9     5.334150525956418E-1   -1.645625825290820E-1   -2.580076945929310E-2   -5.043105969362326E-2   -2.697602747661974E-2   -4.982446375704313E-2    4.111439090977437E-1   -2.922987702231479E-1
 6.530365488575000E9     5.332752070069202E-1   -1.654556866066327E-1   -2.608433706511582E-2   -5.084128394171338E-2   -2.734856199003684E-2   -5.010609781368777E-2    4.102881121137738E-1   -2.936330191346515E-1
 6.530374731150000E9     5.327237177044761E-1   -1.662906983991028E-1   -2.638684735448842E-2   -5.114601062648955E-2   -2.777053069357770E-2   -5.046162012558315E-2    4.094012230881250E-1   -2.946883161729354E-1
 6.530383973725000E9     5.325262461621023E-1   -1.672732971192170E-1   -2.688771795747811E-2   -5.138719272814723E-2   -2.814484675638441E-2   -5.078825171830090E-2    4.084164018947818E-1   -2.958364480911689E-1
 6.530393216300000E9     5.321092330340519E-1   -1.681833490870759E-1   -2.720766164869621E-2   -5.182141359501048E-2   -2.845030531180291E-2   -5.107240026764242E-2    4.075579612904521E-1   -2.967427621406126E-1
 6.530402458875000E9     5.318160705682408E-1   -1.690359189457742E-1   -2.756379284444469E-2   -5.211602337672508E-2   -2.888140063691600E-2   -5.156044626806479E-2    4.065354811232194E-1   -2.979162577592901E-1
 6.530411701450000E9     5.315021537191033E-1   -1.699240766764105E-1   -2.790626143440505E-2   -5.251490993157417E-2   -2.925883622864628E-2   -5.182107514581089E-2    4.055526079367388E-1   -2.991154422397947E-1
 6.530420944025000E9     5.312094604082012E-1   -1.707680588847076E-1   -2.809063323704502E-2   -5.293530173945939E-2   -2.958843579037771E-2   -5.224986737259205E-2    4.047044260791018E-1   -3.000639866857025E-1
 6.530430186600000E9     5.306910349745103E-1   -1.717471809705194E-1   -2.865921442499890E-2   -5.327739964309200E-2   -3.007599728536324E-2   -5.259631441225861E-2    4.036769878671388E-1   -3.011594555198462E-1
 6.530439429175000E9     5.303559046535518E-1   -1.726526034525260E-1   -2.902033113821687E-2   -5.378579650765655E-2   -3.049779856582640E-2   -5.281069632286967E-2    4.024900531607883E-1   -3.021373215540934E-1
 6.530448671750000E9     5.299518855973626E-1   -1.735166235653939E-1   -2.933161265388015E-2   -5.400683102252609E-2   -3.087134344628425E-2   -5.340684893957923E-2    4.014783768357499E-1   -3.035110995302860E-1
