#  HZ   S   RI   R     50.00 
! Rohde & Schwarz Vector Network Analyzer 
! Rohde-Schwarz,ZNB20-2Port,1311601062101988,3.16
! Created: UTC 3/21/2024, 1:21:53 AM
! freq[Hz]                re:S11                  im:S11                  re:S21                  im:S21                  re:S12                  im:S12                  re:S22                  im:S22
 6.529616291000000E9     5.510965568526703E-1   -1.010440107697119E-1   -1.070875951773824E-2   -3.264824472086666E-2   -1.146369157642974E-2   -3.253536579461611E-2    4.586977802771353E-1   -2.204053529046801E-1
 6.529625543100000E9     5.509941241188603E-1   -1.018160097735931E-1   -1.076282442011995E-2   -3.287015596960961E-2   -1.155541799773553E-2   -3.270561078567381E-2    4.584093327551748E-1   -2.212804275069571E-1
 6.529634795200000E9     5.509475096884440E-1   -1.025418956345444E-1   -1.094562117339704E-2   -3.298030716339723E-2   -1.165461239708229E-2   -3.282321588756809E-2    4.579537156294294E-1   -2.221089781165988E-1
 6.529644047300000E9     5.506293673508373E-1   -1.033271951015919E-1   -1.118744862486507E-2   -3.316834723589095E-2   -1.180801145614321E-2   -3.287294087106655E-2    4.575749559609703E-1   -2.228238851957484E-1
 6.529653299400000E9     5.504449317213397E-1   -1.040536284103443E-1   -1.101686188695661E-2   -3.337209873697546E-2   -1.182775286146904E-2   -3.310943796781064E-2    4.570741030404856E-1   -2.236184875043212E-1
 6.529662551500000E9     5.502487498539460E-1   -1.048539378525247E-1   -1.120857859046717E-2   -3.339177051605057E-2   -1.203501577942959E-2   -3.318749381534375E-2    4.567411204692952E-1   -2.243708057940715E-1
 6.529671803600000E9     5.501629802659566E-1   -1.055240169274350E-1   -1.125500423398729E-2   -3.368602727987458E-2   -1.211118935665416E-2   -3.340962649257269E-2    4.562724864205402E-1   -2.251599205776244E-1
 6.529681055700000E9     5.500508895635965E-1   -1.062612080208573E-1   -1.155278911566316E-2   -3.382743670659080E-2   -1.227622914821262E-2   -3.349123932911603E-2    4.557781724221940E-1   -2.259006341370767E-1
 6.529690307800000E9     5.497413417539504E-1   -1.071658965004329E-1   -1.153097621326057E-2   -3.396962506075162E-2   -1.228838392041218E-2   -3.359556836358583E-2    4.554905548298192E-1   -2.267768476261079E-1
 6.529699559900000E9     5.497470872390279E-1   -1.077673195706522E-1   -1.175732560681040E-2   -3.397707037760177E-2   -1.247356291679127E-2   -3.375891619712396E-2    4.548847752656659E-1   -2.277473759060686E-1
 6.529708812000000E9     5.494776136527101E-1   -1.085171761252355E-1   -1.189150229402047E-2   -3.416873957384525E-2   -1.255188310274723E-2   -3.401054599307850E-2    4.546679025964149E-1   -2.284212066018045E-1
 6.529718064100000E9     5.492953391044855E-1   -1.092425345911002E-1   -1.176890723651312E-2   -3.433195655707930E-2   -1.270621649538210E-2   -3.410114220753077E-2    4.541408349108776E-1   -2.292222618724418E-1
 6.529727316200000E9     5.492226545649891E-1   -1.101026502618768E-1   -1.206922952458454E-2   -3.443240938189567E-2   -1.279729145030593E-2   -3.429725737868376E-2    4.537817863854361E-1   -2.301116490319975E-1
 6.529736568300000E9     5.491025448213424E-1   -1.109318629704822E-1   -1.218352397656370E-2   -3.457734270147349E-2   -1.287604335418181E-2   -3.449698907461214E-2    4.532131900374650E-1   -2.308016882006784E-1
 6.529745820400000E9     5.488746493749469E-1   -1.116347673434103E-1   -1.238854847646152E-2   -3.474953207038196E-2   -1.315369610479874E-2   -3.454090750731435E-2    4.528391029703347E-1   -2.317103673751560E-1
 6.529755072500000E9     5.487629300360917E-1   -1.124263586354071E-1   -1.232251585210536E-2   -3.500221490448178E-2   -1.312745140896420E-2   -3.469725098043373E-2    4.524068850491375E-1   -2.325389730624961E-1
 6.529764324600000E9     5.486750329193639E-1   -1.131960584406394E-1   -1.258846139996648E-2   -3.505063794338065E-2   -1.343130717293756E-2   -3.499264879831406E-2    4.519283600270834E-1   -2.332099602639399E-1
 6.529773576700000E9     5.483891574156015E-1   -1.139652941039811E-1   -1.264387570529078E-2   -3.521903445022205E-2   -1.344307729159175E-2   -3.507677274606037E-2    4.514227497727297E-1   -2.340685691657739E-1
 6.529782828800000E9     5.482959856774996E-1   -1.146484204888435E-1   -1.291404200784920E-2   -3.550771020324638E-2   -1.358617213318497E-2   -3.522553992973338E-2    4.509924004194866E-1   -2.348342982872385E-1
 6.529792080900000E9     5.481299366160963E-1   -1.155170792073801E-1   -1.303951399023910E-2   -3.570065115294563E-2   -1.380667446077066E-2   -3.541928903797876E-2    4.504870888979212E-1   -2.359420713048615E-1
 6.529801333000000E9     5.478123465194898E-1   -1.160981079245517E-1   -1.312928323777562E-2   -3.594493398684408E-2   -1.397603110966903E-2   -3.551332426897356E-2    4.499396059328947E-1   -2.364279086755795E-1
 6.529810585100000E9     5.478515600493261E-1   -1.168607233346459E-1   -1.310137196608992E-2   -3.599786661311742E-2   -1.407758056537025E-2   -3.571786450948894E-2    4.495369322774855E-1   -2.374347844543859E-1
 6.529819837200000E9     5.475192587459227E-1   -1.177292959332956E-1   -1.335668228989081E-2   -3.622815088173570E-2   -1.412026387328280E-2   -3.591991827676576E-2    4.491436331303478E-1   -2.383545727665565E-1
 6.529829089300000E9     5.474379941985879E-1   -1.184612934737003E-1   -1.352271888805699E-2   -3.633684795070694E-2   -1.433739272244944E-2   -3.626021613004465E-2    4.485181718793890E-1   -2.391467057223501E-1
 6.529838341400000E9     5.471224182565499E-1   -1.192951536132531E-1   -1.360877576505242E-2   -3.649940451394322E-2   -1.451518216394523E-2   -3.624626954872695E-2    4.480033332766638E-1   -2.400013695842838E-1
 6.529847593500000E9     5.469242850739141E-1   -1.201568083615253E-1   -1.374116543254095E-2   -3.681664999981322E-2   -1.458949739327742E-2   -3.644681506769447E-2    4.475847681249554E-1   -2.406959036214834E-1
 6.529856845600000E9     5.468188007216593E-1   -1.208092446051621E-1   -1.386850002048114E-2   -3.685898456182058E-2   -1.471428900612383E-2   -3.652112701454192E-2    4.471996052324552E-1   -2.415171351402954E-1
 6.529866097700000E9     5.466440622390679E-1   -1.215978263659253E-1   -1.410973236448267E-2   -3.699230464675617E-2   -1.492618569295243E-2   -3.669010692713333E-2    4.465068663428978E-1   -2.424701849430597E-1
 6.529875349800000E9     5.464531903876534E-1   -1.222110971901726E-1   -1.418988673183680E-2   -3.733977949654670E-2   -1.515478700444006E-2   -3.700478131977328E-2    4.461295209714636E-1   -2.431840768849116E-1
 6.529884601900000E9     5.463283241969416E-1   -1.230396232823208E-1   -1.436937191354655E-2   -3.725008590662289E-2   -1.514711742483768E-2   -3.710133602517851E-2    4.454288565044502E-1   -2.442002573636894E-1
 6.529893854000000E9     5.460559823477547E-1   -1.239499692045367E-1   -1.438501382526482E-2   -3.757900805236876E-2   -1.541036682931639E-2   -3.738030940439412E-2    4.452192259929627E-1   -2.448308001590179E-1
 6.529903106100000E9     5.459716526979004E-1   -1.246056911483870E-1   -1.454063680055481E-2   -3.777847184146334E-2   -1.560243587692131E-2   -3.752164323743912E-2    4.445962218691141E-1   -2.457388210839070E-1
 6.529912358200000E9     5.457122756780119E-1   -1.254641931857527E-1   -1.473179399826659E-2   -3.796265903868445E-2   -1.569872723618602E-2   -3.767557827363500E-2    4.441830309370051E-1   -2.466956138699873E-1
 6.529921610300000E9     5.454773167790977E-1   -1.261933259650647E-1   -1.494489697765110E-2   -3.819870012354709E-2   -1.584993373403697E-2   -3.788901631895468E-2    4.437554202561478E-1   -2.475309280915337E-1
 6.529930862400000E9     5.453789945353784E-1   -1.269703931622821E-1   -1.506209196587852E-2   -3.850430958022470E-2   -1.598703622498282E-2   -3.810298488125733E-2    4.429717284547835E-1   -2.484003312817800E-1
 6.529940114500000E9     5.450602949387051E-1   -1.278149786747896E-1   -1.527378077901676E-2   -3.862540056809131E-2   -1.627082695317723E-2   -3.824166150093119E-2    4.425206910441482E-1   -2.492228807233816E-1
 6.529949366600000E9     5.449430929863645E-1   -1.285362842289653E-1   -1.545520241007793E-2   -3.887613104725796E-2   -1.634833783491330E-2   -3.845960574767741E-2    4.419299212336809E-1   -2.501895149534253E-1
 6.529958618700000E9     5.446886181987277E-1   -1.293012025849900E-1   -1.556797982388737E-2   -3.902306669186352E-2   -1.646730912417092E-2   -3.868497569646786E-2    4.413874340348263E-1   -2.510456681021621E-1
 6.529967870800000E9     5.445085593595503E-1   -1.300686821418115E-1   -1.571715648624940E-2   -3.918889923526945E-2   -1.663252141969657E-2   -3.876061141444774E-2    4.407907690948263E-1   -2.517938882704809E-1
 6.529977122900000E9     5.442986278695550E-1   -1.309082632226534E-1   -1.601610117576480E-2   -3.939133910942619E-2   -1.682039388054429E-2   -3.908134513909058E-2    4.402105890516084E-1   -2.527504283830896E-1
 6.529986375000000E9     5.440637832402613E-1   -1.317529396275173E-1   -1.599310790339480E-2   -3.964737728252157E-2   -1.690552915387663E-2   -3.929037898589804E-2    4.396724287356857E-1   -2.535943947254826E-1
 6.529995627100000E9     5.438566076684535E-1   -1.324633037584690E-1   -1.626855508931386E-2   -3.989548145213675E-2   -1.730056632238795E-2   -3.957292541182090E-2    4.392044751882362E-1   -2.545461350043509E-1
 6.530004879200000E9     5.436300663303905E-1   -1.331272173971826E-1   -1.642649638549048E-2   -4.010001670298185E-2   -1.735569303499601E-2   -3.965682765508681E-2    4.385614649607428E-1   -2.554281118599070E-1
 6.530014131300000E9     5.434010872377929E-1   -1.340279156532249E-1   -1.655547945257131E-2   -4.022271025248127E-2   -1.756492016135169E-2   -3.994501329378780E-2    4.381269992609549E-1   -2.563424173628328E-1
 6.530023383400000E9     5.432522930130664E-1   -1.348751857930761E-1   -1.691931660717129E-2   -4.043743733895824E-2   -1.783010768788189E-2   -4.023169723077138E-2    4.373040434478617E-1   -2.571291195468413E-1
 6.530032635500000E9     5.428991173232978E-1   -1.356694014201338E-1   -1.702883589303305E-2   -4.070904684473709E-2   -1.804391594077090E-2   -4.034880686632317E-2    4.367345247566470E-1   -2.580747779664999E-1
 6.530041887600000E9     5.428101135922048E-1   -1.365800191295768E-1   -1.712859855232117E-2   -4.090122931266380E-2   -1.814490718578295E-2   -4.058612804787950E-2    4.363715896684715E-1   -2.590203783502681E-1
 6.530051139700000E9     5.424256609286486E-1   -1.372384377578776E-1   -1.743664012155716E-2   -4.106950115946733E-2   -1.840795377776396E-2   -4.076350108161239E-2    4.356749327100150E-1   -2.600261253484528E-1
 6.530060391800000E9     5.422161221072769E-1   -1.380044121610090E-1   -1.749328680192344E-2   -4.136408648258669E-2   -1.859086461222867E-2   -4.101208021616316E-2    4.350057058485494E-1   -2.607932703963295E-1
 6.530069643900000E9     5.421290303186390E-1   -1.388260830432069E-1   -1.768283139670134E-2   -4.164668987986386E-2   -1.879137668083098E-2   -4.114697237388334E-2    4.344044248008353E-1   -2.615260367767891E-1
 6.530078896000000E9     5.417823192508973E-1   -1.396898397263880E-1   -1.792534691563579E-2   -4.188979863625544E-2   -1.903912908906335E-2   -4.150294380558728E-2    4.337190386614390E-1   -2.627047869046720E-1
 6.530088148100000E9     5.414644606439672E-1   -1.403795693183045E-1   -1.801969011940233E-2   -4.198991812901023E-2   -1.911812971906345E-2   -4.163082636544993E-2    4.330491706868104E-1   -2.636223714627711E-1
 6.530097400200000E9     5.413289668807530E-1   -1.412479949926935E-1   -1.822890176325743E-2   -4.233351148747115E-2   -1.932043875869762E-2   -4.190544887349321E-2    4.324422743745148E-1   -2.643610727030289E-1
 6.530106652300000E9     5.410798427538334E-1   -1.420871897504964E-1   -1.848835284090064E-2   -4.256917555351806E-2   -1.968429864664399E-2   -4.221586920282101E-2    4.320365378344006E-1   -2.653982432952555E-1
 6.530115904400000E9     5.408205798309651E-1   -1.428380039845269E-1   -1.870671646044324E-2   -4.279830178475618E-2   -1.993014311980790E-2   -4.238777505042941E-2    4.312582951135236E-1   -2.663701271198168E-1
 6.530125156500000E9     5.406124395366255E-1   -1.435501869273499E-1   -1.897961445844614E-2   -4.308660245467933E-2   -2.003295208051164E-2   -4.263949796157851E-2    4.305364446770831E-1   -2.672494480594047E-1
 6.530134408600000E9     5.403955259536024E-1   -1.445065945915197E-1   -1.919041703339871E-2   -4.334345040833642E-2   -2.032889433697951E-2   -4.284893192129396E-2    4.298205381343835E-1   -2.681618998740726E-1
 6.530143660700000E9     5.401986290674043E-1   -1.453026932578571E-1   -1.939273442977902E-2   -4.356341537641412E-2   -2.050525131451243E-2   -4.305588986605058E-2    4.292148822054140E-1   -2.693004131313576E-1
 6.530152912800000E9     5.399076604743459E-1   -1.461826744244686E-1   -1.955055841581146E-2   -4.380613316411649E-2   -2.080332495333086E-2   -4.335571461673809E-2    4.285269784881992E-1   -2.700891304617373E-1
 6.530162164900000E9     5.395864023512401E-1   -1.469327131308147E-1   -1.977440887511310E-2   -4.399387070066518E-2   -2.092875405427356E-2   -4.354933335321613E-2    4.278535431095375E-1   -2.710948560773667E-1
 6.530171417000000E9     5.394897313202521E-1   -1.478127777325321E-1   -1.999266546398354E-2   -4.429866653734114E-2   -2.114301577276044E-2   -4.383569318488361E-2    4.272517477713112E-1   -2.720337127204582E-1
 6.530180669100000E9     5.391946784845055E-1   -1.484564179794796E-1   -2.028710402243035E-2   -4.455268104990531E-2   -2.138774066189927E-2   -4.413352210797070E-2    4.264339722678994E-1   -2.729399102746335E-1
 6.530189921200000E9     5.388621260949729E-1   -1.493795463135495E-1   -2.067441878066088E-2   -4.482707109839386E-2   -2.178039317639315E-2   -4.438391393915014E-2    4.256641818662411E-1   -2.740027184569240E-1
 6.530199173300000E9     5.385866635098613E-1   -1.502003285075828E-1   -2.083262896756121E-2   -4.513886448881419E-2   -2.197627437398137E-2   -4.469223136407600E-2    4.249835098790825E-1   -2.749932368032728E-1
 6.530208425400000E9     5.383734524560093E-1   -1.509897187591531E-1   -2.113141763717130E-2   -4.538998336317406E-2   -2.232337905470423E-2   -4.493296492443201E-2    4.243348668208927E-1   -2.758225663219606E-1
 6.530217677500000E9     5.380903772108441E-1   -1.518624329108062E-1   -2.129381360363839E-2   -4.566900900129793E-2   -2.243772665021488E-2   -4.520606052962913E-2    4.235550080340279E-1   -2.768249641014421E-1
 6.530226929600000E9     5.378860466621879E-1   -1.525583161440547E-1   -2.161047503797219E-2   -4.585803607558431E-2   -2.277147387404407E-2   -4.548237016900423E-2    4.230013810635626E-1   -2.778459232344686E-1
 6.530236181700000E9     5.375537657704321E-1   -1.535218677708575E-1   -2.188156937540448E-2   -4.630767523174528E-2   -2.304418842110726E-2   -4.569259073125539E-2    4.221519713574947E-1   -2.790183885234879E-1
 6.530245433800000E9     5.372358263117177E-1   -1.542966062562611E-1   -2.198990062947313E-2   -4.663758714031387E-2   -2.316801731899923E-2   -4.594440161543955E-2    4.214073696275116E-1   -2.799700402574818E-1
 6.530254685900000E9     5.369199939251431E-1   -1.551515096598804E-1   -2.240804551721357E-2   -4.678125358192146E-2   -2.355337583280063E-2   -4.638786841706535E-2    4.205725592354769E-1   -2.808557227215318E-1
 6.530263938000000E9     5.367677517694691E-1   -1.561387253337442E-1   -2.263795387769442E-2   -4.718657417235893E-2   -2.384505813072142E-2   -4.661063908283088E-2    4.198774688819856E-1   -2.817536841921082E-1
 6.530273190100000E9     5.362792916286189E-1   -1.569638433147956E-1   -2.290597434151390E-2   -4.754065269800063E-2   -2.411901175831237E-2   -4.692786368270230E-2    4.190018860664589E-1   -2.829520043171132E-1
 6.530282442200000E9     5.361397220379093E-1   -1.577618216106662E-1   -2.320284674706858E-2   -4.768625709489214E-2   -2.435526610993343E-2   -4.727394293459768E-2    4.182828701676126E-1   -2.839627520622809E-1
 6.530291694300000E9     5.357021604276796E-1   -1.585661461033951E-1   -2.350481211326614E-2   -4.804779387464142E-2   -2.466983603026016E-2   -4.748041249645098E-2    4.173314765911310E-1   -2.849540283319340E-1
 6.530300946400000E9     5.354033987558996E-1   -1.595478808071061E-1   -2.376473950212513E-2   -4.828878891444233E-2   -2.498768641447347E-2   -4.777543744995962E-2    4.166159276036903E-1   -2.861129853569989E-1
 6.530310198500000E9     5.351824916043032E-1   -1.602394582819359E-1   -2.413533514498833E-2   -4.863476842015906E-2   -2.527886435469685E-2   -4.812044558277863E-2    4.157276081751937E-1   -2.870865055302280E-1
 6.530319450600000E9     5.347713193254413E-1   -1.610443607058154E-1   -2.442997237001446E-2   -4.891289504321737E-2   -2.563457134622686E-2   -4.844630560081048E-2    4.148935576738475E-1   -2.880979502826099E-1
 6.530328702700000E9     5.344478377181736E-1   -1.620336192889776E-1   -2.465175463934924E-2   -4.930684289459335E-2   -2.595492044098343E-2   -4.865826033176894E-2    4.140109221466001E-1   -2.891019713079725E-1
 6.530337954800000E9     5.341384768556683E-1   -1.628563198499199E-1   -2.517237734142828E-2   -4.962003804242897E-2   -2.631051935794536E-2   -4.898083064661212E-2    4.132176391233616E-1   -2.900411122886510E-1
 6.530347206900000E9     5.339613302284437E-1   -1.636926783871932E-1   -2.545762657913674E-2   -5.004662402922139E-2   -2.666335452264706E-2   -4.939633664027671E-2    4.124479480520904E-1   -2.913178172730350E-1
 6.530356459000000E9     5.335981658517600E-1   -1.645959606504470E-1   -2.567944571248894E-2   -5.033829248738495E-2   -2.696612303891152E-2   -4.960492877462675E-2    4.113033529090225E-1   -2.923113815130751E-1
 6.530365711100000E9     5.332639704898660E-1   -1.653569235759546E-1   -2.599731556182840E-2   -5.060645269056918E-2   -2.723196531406847E-2   -5.008229274461793E-2    4.103710197618244E-1   -2.933750282514355E-1
 6.530374963200000E9     5.329038158616443E-1   -1.662361702543960E-1   -2.636601015437760E-2   -5.087820032777819E-2   -2.767913518510347E-2   -5.035997902466424E-2    4.097776271214883E-1   -2.945045345340226E-1
 6.530384215300000E9     5.325172502924891E-1   -1.671975866627467E-1   -2.652871470466247E-2   -5.143889162690879E-2   -2.801362167115793E-2   -5.053330359879656E-2    4.088123407932995E-1   -2.955986137033268E-1
 6.530393467400000E9     5.321805732184327E-1   -1.680709266405728E-1   -2.711635767185142E-2   -5.181756117267248E-2   -2.840727223057720E-2   -5.096025394717299E-2    4.079245125162207E-1   -2.965132120713544E-1
 6.530402719500000E9     5.319331576607783E-1   -1.690328530150149E-1   -2.745448216464140E-2   -5.212714845024149E-2   -2.882585523280798E-2   -5.143696400132662E-2    4.065777711826128E-1   -2.976868757070263E-1
 6.530411971600000E9     5.315497986113241E-1   -1.698232515636112E-1   -2.775920200256188E-2   -5.242036844595430E-2   -2.913988543002827E-2   -5.179203707599106E-2    4.057955503339608E-1   -2.987983304250163E-1
 6.530421223700000E9     5.312158758309021E-1   -1.706925690602357E-1   -2.804840894905298E-2   -5.271086975883760E-2   -2.952128859231561E-2   -5.207606839499258E-2    4.047730937782408E-1   -2.998147649008090E-1
 6.530430475800000E9     5.308764368731501E-1   -1.716128446045937E-1   -2.847812427193255E-2   -5.309342944286802E-2   -2.989973730258171E-2   -5.248330591302663E-2    4.039070044190388E-1   -3.009527430192449E-1
 6.530439727900000E9     5.303928245901165E-1   -1.725118644990442E-1   -2.894247590858683E-2   -5.357681092573664E-2   -3.034118064132622E-2   -5.292231643884297E-2    4.028444126126783E-1   -3.021255068209025E-1
 6.530448980000000E9     5.301433762093708E-1   -1.733973574776153E-1   -2.918822692911557E-2   -5.393396518311594E-2   -3.065871115798789E-2   -5.334189776577011E-2    4.018563691611736E-1   -3.032036142588012E-1
