#  HZ   S   RI   R     50.00 
! Rohde & Schwarz Vector Network Analyzer 
! Rohde-Schwarz,ZNB20-2Port,1311601062101988,3.16
! Created: UTC 3/21/2024, 1:21:58 AM
! freq[Hz]                re:S11                  im:S11                  re:S21                  im:S21                  re:S12                  im:S12                  re:S22                  im:S22
 6.529622326000000E9     5.510336491694586E-1   -1.015482809429404E-1   -1.082270538600020E-2   -3.273695359865228E-2   -1.146247022930940E-2   -3.247838644245937E-2    4.585632735404389E-1   -2.209434509558454E-1
 6.529631560850000E9     5.507981381947257E-1   -1.022452808238288E-1   -1.083216283469838E-2   -3.300114023446016E-2   -1.161943102775402E-2   -3.271016121505998E-2    4.582805882204861E-1   -2.216263747507617E-1
 6.529640795700000E9     5.507415934633993E-1   -1.029128043228911E-1   -1.095265849925958E-2   -3.303645172327160E-2   -1.175052099148646E-2   -3.283608721645942E-2    4.578784065124089E-1   -2.224520789216439E-1
 6.529650030550000E9     5.505615605624611E-1   -1.036962636825369E-1   -1.112121756398494E-2   -3.317487722809165E-2   -1.186261729387109E-2   -3.303304406896274E-2    4.572482412006814E-1   -2.232277363911722E-1
 6.529659265400000E9     5.502445902513450E-1   -1.044277986531954E-1   -1.103990478488682E-2   -3.332484097851744E-2   -1.187780899538253E-2   -3.303692299847876E-2    4.569233934306166E-1   -2.239620082371062E-1
 6.529668500250000E9     5.502863207512442E-1   -1.052393171692019E-1   -1.130432083902760E-2   -3.345640295518035E-2   -1.205900109079531E-2   -3.331655838084719E-2    4.565169694392039E-1   -2.247304583260133E-1
 6.529677735100000E9     5.500431312069924E-1   -1.060544118372083E-1   -1.143993757805528E-2   -3.370605270075369E-2   -1.217105197112868E-2   -3.345849114670912E-2    4.561699130092957E-1   -2.255194690341678E-1
 6.529686969950000E9     5.500377589525743E-1   -1.067358238513201E-1   -1.140772002726593E-2   -3.382260919439024E-2   -1.223685132306540E-2   -3.361695832232538E-2    4.556305831958446E-1   -2.263850597977967E-1
 6.529696204800000E9     5.498493009475508E-1   -1.073900427285748E-1   -1.156972199551940E-2   -3.386513358381375E-2   -1.240079970316542E-2   -3.372286887683738E-2    4.551406206124398E-1   -2.271525526133875E-1
 6.529705439650000E9     5.496202982689907E-1   -1.082420859767873E-1   -1.166416119367168E-2   -3.421440727406714E-2   -1.255599912483193E-2   -3.381090606166769E-2    4.548389794070478E-1   -2.279211666794697E-1
 6.529714674500000E9     5.495860774164880E-1   -1.089778068594520E-1   -1.187924187283558E-2   -3.413020056303169E-2   -1.259902058344110E-2   -3.404952601995667E-2    4.543763386562777E-1   -2.287518279924711E-1
 6.529723909350000E9     5.493743498476849E-1   -1.097545160405589E-1   -1.189933355457403E-2   -3.446689936767535E-2   -1.285242844510264E-2   -3.420550778001573E-2    4.539087120761509E-1   -2.296938538614808E-1
 6.529733144200000E9     5.491619668121153E-1   -1.104983608803089E-1   -1.191853191739479E-2   -3.447749556860287E-2   -1.285781082155684E-2   -3.446255116439578E-2    4.533442207075305E-1   -2.304945145982721E-1
 6.529742379050000E9     5.489388572181014E-1   -1.111840380589304E-1   -1.226586280646547E-2   -3.475358331888704E-2   -1.303767347259332E-2   -3.448446323800373E-2    4.530651580265902E-1   -2.312686926479754E-1
 6.529751613900000E9     5.487802186873466E-1   -1.120022463563374E-1   -1.242952358355162E-2   -3.486883844978336E-2   -1.314997767702910E-2   -3.462459672487623E-2    4.526816304988314E-1   -2.320033745229208E-1
 6.529760848750000E9     5.486650270225296E-1   -1.127608997113718E-1   -1.246518173372625E-2   -3.506649324403433E-2   -1.325363393632679E-2   -3.476261039820774E-2    4.521611166995665E-1   -2.328614143791654E-1
 6.529770083600000E9     5.486126156281685E-1   -1.135561693509633E-1   -1.254595284746151E-2   -3.522184954071772E-2   -1.340472495656978E-2   -3.506141972017522E-2    4.517552203661023E-1   -2.338257988210979E-1
 6.529779318450000E9     5.482518051432544E-1   -1.142822312099920E-1   -1.270788855215936E-2   -3.533067855084029E-2   -1.345195265962178E-2   -3.510081414493247E-2    4.512994213061755E-1   -2.345141754541181E-1
 6.529788553300000E9     5.481289446126845E-1   -1.149621321405957E-1   -1.296547619105399E-2   -3.546530814777748E-2   -1.371286895907063E-2   -3.538556310249700E-2    4.506487972489115E-1   -2.351906936737956E-1
 6.529797788150000E9     5.480136039159303E-1   -1.158076845104865E-1   -1.290577588787277E-2   -3.568615840959283E-2   -1.375251634694142E-2   -3.539933764735713E-2    4.502990077280807E-1   -2.361563036899803E-1
 6.529807023000000E9     5.477457792645855E-1   -1.165676541558289E-1   -1.305315441530575E-2   -3.583943446318306E-2   -1.398281466124108E-2   -3.562346497783759E-2    4.498341763326448E-1   -2.369426618987749E-1
 6.529816257850000E9     5.475212555201894E-1   -1.172062416095556E-1   -1.323830360600804E-2   -3.613037930729311E-2   -1.403293280331641E-2   -3.578708270626861E-2    4.494201583513330E-1   -2.377528619850078E-1
 6.529825492700000E9     5.475795546870664E-1   -1.180299762271631E-1   -1.338681593338480E-2   -3.624906102041182E-2   -1.429094638092561E-2   -3.600473727317227E-2    4.489505077092700E-1   -2.386116820008046E-1
 6.529834727550000E9     5.472898671015066E-1   -1.189183686593005E-1   -1.348176103559889E-2   -3.633040534320257E-2   -1.436967755901591E-2   -3.609488811248545E-2    4.485344185738059E-1   -2.394866517487625E-1
 6.529843962400000E9     5.471419820794642E-1   -1.197055207910317E-1   -1.355460233021000E-2   -3.650687359815077E-2   -1.448105945369570E-2   -3.639012209428637E-2    4.478926006981818E-1   -2.401363356953890E-1
 6.529853197250000E9     5.469760284526808E-1   -1.203965084450680E-1   -1.386821349841805E-2   -3.680931489243547E-2   -1.463248978915191E-2   -3.658495464963916E-2    4.473586668206841E-1   -2.410813971522585E-1
 6.529862432100000E9     5.468093721302251E-1   -1.210742678074933E-1   -1.393246180677183E-2   -3.696758204045177E-2   -1.484725748389666E-2   -3.670896208584664E-2    4.468823381012562E-1   -2.420941579866109E-1
 6.529871666950000E9     5.464631363287423E-1   -1.220051709756305E-1   -1.411397589735021E-2   -3.726271117329590E-2   -1.496778307367866E-2   -3.682996031708304E-2    4.462108791969353E-1   -2.428358127590082E-1
 6.529880901800000E9     5.463712779105766E-1   -1.227893905555984E-1   -1.426065547069764E-2   -3.733056677172315E-2   -1.518970715371089E-2   -3.697824168948031E-2    4.459707956039476E-1   -2.436358238845116E-1
 6.529890136650000E9     5.462540724561413E-1   -1.234119347315092E-1   -1.446163689224331E-2   -3.763261071127626E-2   -1.517801919034182E-2   -3.713576283859800E-2    4.454975399245293E-1   -2.444708413051270E-1
 6.529899371500000E9     5.460672141374667E-1   -1.242807964557502E-1   -1.463885464698423E-2   -3.777288834623337E-2   -1.545123540202539E-2   -3.733149238266021E-2    4.448349754605833E-1   -2.452870624108884E-1
 6.529908606350000E9     5.458381165956115E-1   -1.249956781984395E-1   -1.455361093623490E-2   -3.791501676548770E-2   -1.558055062749313E-2   -3.754069589901791E-2    4.442283774599901E-1   -2.461763333035806E-1
 6.529917841200000E9     5.454761071527855E-1   -1.258593415828309E-1   -1.487285560150627E-2   -3.800030801894314E-2   -1.574057755048779E-2   -3.779507769344885E-2    4.438326499546608E-1   -2.471575464927004E-1
 6.529927076050000E9     5.454402644221109E-1   -1.265952081719744E-1   -1.510859234582888E-2   -3.813261065922633E-2   -1.589261798277540E-2   -3.796007503119907E-2    4.435334815690556E-1   -2.479039640012088E-1
 6.529936310900000E9     5.452000700788096E-1   -1.273893524784175E-1   -1.519728559364247E-2   -3.851883779862197E-2   -1.600267281390995E-2   -3.809482578229489E-2    4.428446256927215E-1   -2.489285442425246E-1
 6.529945545750000E9     5.450539974563143E-1   -1.282057077638532E-1   -1.534128784969875E-2   -3.857816904506350E-2   -1.624359430873227E-2   -3.826116635549550E-2    4.422467816493469E-1   -2.494048456978800E-1
 6.529954780600000E9     5.448519308005970E-1   -1.290658379867872E-1   -1.543083839636613E-2   -3.892876607292774E-2   -1.639710568304356E-2   -3.856972784182341E-2    4.416326869432687E-1   -2.506062975504920E-1
 6.529964015450000E9     5.445117979397740E-1   -1.297336197907351E-1   -1.564598689320008E-2   -3.911708507893250E-2   -1.659860144688340E-2   -3.879478042748571E-2    4.411003712511066E-1   -2.515126599681055E-1
 6.529973250300000E9     5.444461093765116E-1   -1.304920323749061E-1   -1.578189426735732E-2   -3.939737366265816E-2   -1.680079880575331E-2   -3.901137946214452E-2    4.406465942665573E-1   -2.523163542856274E-1
 6.529982485150000E9     5.442003256453311E-1   -1.312791080413354E-1   -1.592185206238731E-2   -3.947253957720474E-2   -1.686380050393468E-2   -3.917360697056881E-2    4.399932957967236E-1   -2.532466233098725E-1
 6.529991720000000E9     5.439146046765524E-1   -1.320377481730915E-1   -1.595911231988849E-2   -3.958676308086627E-2   -1.707785720882240E-2   -3.933022117912399E-2    4.394777973338336E-1   -2.541572823788206E-1
 6.530000954850000E9     5.436990159167098E-1   -1.328683434375719E-1   -1.622189610310840E-2   -3.977553313032856E-2   -1.729926684733925E-2   -3.960527922028338E-2    4.388454227469958E-1   -2.549665010259271E-1
 6.530010189700000E9     5.436424625112243E-1   -1.336914604805421E-1   -1.644211826659349E-2   -4.009035038094353E-2   -1.748488953235255E-2   -3.975802315663579E-2    4.381791481767475E-1   -2.559086968597145E-1
 6.530019424550000E9     5.432877717274118E-1   -1.345252580363062E-1   -1.665734566418641E-2   -4.031172957795761E-2   -1.767826985331782E-2   -4.000970682667114E-2    4.377467975669356E-1   -2.566837967295217E-1
 6.530028659400000E9     5.431408695711095E-1   -1.351684815811177E-1   -1.677652197777710E-2   -4.050049664746668E-2   -1.787579772373086E-2   -4.021675924615729E-2    4.371324644779660E-1   -2.574843505690649E-1
 6.530037894250000E9     5.429651105010825E-1   -1.360523176672327E-1   -1.684735598016448E-2   -4.062584260668483E-2   -1.801576522914740E-2   -4.043068596013492E-2    4.365577446565165E-1   -2.584596456740293E-1
 6.530047129100000E9     5.425291714166082E-1   -1.368702971282656E-1   -1.723873252539587E-2   -4.097949417448936E-2   -1.830668066672008E-2   -4.068798178366916E-2    4.359793533712319E-1   -2.594007962179021E-1
 6.530056363950000E9     5.424218033449362E-1   -1.376286807113464E-1   -1.749181750154560E-2   -4.112809281224930E-2   -1.847867672099907E-2   -4.080051844044332E-2    4.354308452045976E-1   -2.601805236960620E-1
 6.530065598800000E9     5.422074994147524E-1   -1.383721890480364E-1   -1.750206496485014E-2   -4.138716840739751E-2   -1.866575680544392E-2   -4.105133026943965E-2    4.348200428737216E-1   -2.611910027526857E-1
 6.530074833650000E9     5.420289407753305E-1   -1.392752287316811E-1   -1.778310174479210E-2   -4.159547941896970E-2   -1.880428991021221E-2   -4.134680221492845E-2    4.341426687495425E-1   -2.620231370696371E-1
 6.530084068500000E9     5.417073537764490E-1   -1.400403742358183E-1   -1.810073951975206E-2   -4.184187059953019E-2   -1.898618864144996E-2   -4.148197654925950E-2    4.336296689658051E-1   -2.629109105198421E-1
 6.530093303350000E9     5.414430964761778E-1   -1.408315594245534E-1   -1.825586783381642E-2   -4.224587840065383E-2   -1.920833205432318E-2   -4.170348321042582E-2    4.328740471882722E-1   -2.639309441162399E-1
 6.530102538200000E9     5.412943004003082E-1   -1.415507951503193E-1   -1.848715823186529E-2   -4.233978841275006E-2   -1.936651008151738E-2   -4.194213527029405E-2    4.323105329432425E-1   -2.648718202887141E-1
 6.530111773050000E9     5.410035211561381E-1   -1.424354067915999E-1   -1.858109759489716E-2   -4.255532166494182E-2   -1.962038667960067E-2   -4.218047958381035E-2    4.317367791925041E-1   -2.657697198334687E-1
 6.530121007900000E9     5.406921084586711E-1   -1.431572207558852E-1   -1.883443401563110E-2   -4.277264249018341E-2   -1.982606128320267E-2   -4.235664857808557E-2    4.310000948038741E-1   -2.668467212182273E-1
 6.530130242750000E9     5.405676420454718E-1   -1.441030641232195E-1   -1.911204789036289E-2   -4.310935323884078E-2   -2.019714784969953E-2   -4.272706975052695E-2    4.303227952409911E-1   -2.677078713343992E-1
 6.530139477600000E9     5.402293826425830E-1   -1.448085025874029E-1   -1.928721707076532E-2   -4.347093677011984E-2   -2.037368611458014E-2   -4.280054683599538E-2    4.295511126934550E-1   -2.687496020524137E-1
 6.530148712450000E9     5.399704793769031E-1   -1.457147714759158E-1   -1.953734829723444E-2   -4.348930294699452E-2   -2.055091546077902E-2   -4.326393240533297E-2    4.290757494991927E-1   -2.695575042408435E-1
 6.530157947300000E9     5.397707270774020E-1   -1.465723086615903E-1   -1.968638989310255E-2   -4.377282656287446E-2   -2.080193201817303E-2   -4.342499668902852E-2    4.283794637245665E-1   -2.704907413868035E-1
 6.530167182150000E9     5.395217152342413E-1   -1.472208770895899E-1   -1.997538466249781E-2   -4.405477136719835E-2   -2.097502198048519E-2   -4.362516524005779E-2    4.275707646639032E-1   -2.714869932093069E-1
 6.530176417000000E9     5.393394692309218E-1   -1.480417761177192E-1   -2.021134038426791E-2   -4.436263168871404E-2   -2.117971939950457E-2   -4.400612819288212E-2    4.269352193213925E-1   -2.723370119255498E-1
 6.530185651850000E9     5.390103864987350E-1   -1.489517561269508E-1   -2.030281723989722E-2   -4.470567079899320E-2   -2.147839094784383E-2   -4.420219952016078E-2    4.262204673339284E-1   -2.733235389195015E-1
 6.530194886700000E9     5.387731263993137E-1   -1.497539287610360E-1   -2.054718777375013E-2   -4.501909432399277E-2   -2.170209724736577E-2   -4.443359660875910E-2    4.256141367092914E-1   -2.742338558281358E-1
 6.530204121550000E9     5.385226099941293E-1   -1.505888430022950E-1   -2.091512439209288E-2   -4.511602762016854E-2   -2.210538765504984E-2   -4.464734490744588E-2    4.248286998931298E-1   -2.753211443473700E-1
 6.530213356400000E9     5.382073213076793E-1   -1.513871315307326E-1   -2.118228280948056E-2   -4.543212780785368E-2   -2.226019438507408E-2   -4.503140166070416E-2    4.241094030518736E-1   -2.764164508475001E-1
 6.530222591250000E9     5.379813529039738E-1   -1.523048426793341E-1   -2.146696997430004E-2   -4.566070847393332E-2   -2.255996784420517E-2   -4.519453488063085E-2    4.234548945417257E-1   -2.773904135166655E-1
 6.530231826100000E9     5.377604803174363E-1   -1.531065016566173E-1   -2.170474349438663E-2   -4.606693896845269E-2   -2.276495794586058E-2   -4.552413629598143E-2    4.225263887528217E-1   -2.782911476788196E-1
 6.530241060950000E9     5.373076607738442E-1   -1.537504719903230E-1   -2.178344901233976E-2   -4.620655670676353E-2   -2.314207642594692E-2   -4.584219531610927E-2    4.219390300896819E-1   -2.792888225662228E-1
 6.530250295800000E9     5.370682558187790E-1   -1.547736511120514E-1   -2.217757159075444E-2   -4.658032411521502E-2   -2.336267293830676E-2   -4.612429486721310E-2    4.211793181004626E-1   -2.800824554363419E-1
 6.530259530650000E9     5.367439039961803E-1   -1.555110742064277E-1   -2.239553591414514E-2   -4.686316126584256E-2   -2.363112431738006E-2   -4.641270304482890E-2    4.203578486941563E-1   -2.812221279184702E-1
 6.530268765500000E9     5.365404626303260E-1   -1.563452444523242E-1   -2.275354135313509E-2   -4.725457738907751E-2   -2.396503806012321E-2   -4.674826215697520E-2    4.196337005820874E-1   -2.823942848665595E-1
 6.530278000350000E9     5.363350702798925E-1   -1.571839482787277E-1   -2.293761941857907E-2   -4.750418648493662E-2   -2.437373155778986E-2   -4.691973122761357E-2    4.186534144671816E-1   -2.831706419561268E-1
 6.530287235200000E9     5.359447839752460E-1   -1.581906156031876E-1   -2.331144112373624E-2   -4.780868169489688E-2   -2.445203940885835E-2   -4.717730237747818E-2    4.179985291756841E-1   -2.842774749226719E-1
 6.530296470050000E9     5.356774643126754E-1   -1.589325236216385E-1   -2.349088647825174E-2   -4.825125504418039E-2   -2.484097607666946E-2   -4.756258548561169E-2    4.171726121425839E-1   -2.853203816895957E-1
 6.530305704900000E9     5.353533814175885E-1   -1.597241195444410E-1   -2.390565580866162E-2   -4.834486098587518E-2   -2.503228684764502E-2   -4.786416577862590E-2    4.163451653499515E-1   -2.864283580797027E-1
 6.530314939750000E9     5.349041890070271E-1   -1.606184695609995E-1   -2.405056750837834E-2   -4.873868745195376E-2   -2.545855272154469E-2   -4.815593214309866E-2    4.155149874780926E-1   -2.875017909678785E-1
 6.530324174600000E9     5.347564340566331E-1   -1.614873996129092E-1   -2.448508272168323E-2   -4.909405879325793E-2   -2.567488492224073E-2   -4.850901156962309E-2    4.148557903884421E-1   -2.883428912002193E-1
 6.530333409450000E9     5.343465401184206E-1   -1.622920826350243E-1   -2.469417111031506E-2   -4.948525391819708E-2   -2.610713312178147E-2   -4.876251912423958E-2    4.137214662351277E-1   -2.894683571917676E-1
 6.530342644300000E9     5.340863238937075E-1   -1.631739919833509E-1   -2.512827912548050E-2   -4.968321528001770E-2   -2.639597522192921E-2   -4.913464914779756E-2    4.128452702925657E-1   -2.903500387369403E-1
 6.530351879150000E9     5.337730638652343E-1   -1.641686755340680E-1   -2.540346306544146E-2   -5.000921733949960E-2   -2.671245779760370E-2   -4.948044494292118E-2    4.120337546616450E-1   -2.917257434193873E-1
 6.530361114000000E9     5.333518100563959E-1   -1.650138814316795E-1   -2.564601228180598E-2   -5.041827786157500E-2   -2.707750120936652E-2   -4.980957924844769E-2    4.110583692691782E-1   -2.925575284731116E-1
 6.530370348850000E9     5.331569507648934E-1   -1.658153272927604E-1   -2.603466511703823E-2   -5.074671653989750E-2   -2.744470002356346E-2   -5.018441954074779E-2    4.102928195134216E-1   -2.937737225634613E-1
 6.530379583700000E9     5.328189121528369E-1   -1.667451898070910E-1   -2.643033246704343E-2   -5.110589229905608E-2   -2.775114953702207E-2   -5.036822209086521E-2    4.093252316437163E-1   -2.948464543779537E-1
 6.530388818550000E9     5.324193328312798E-1   -1.674921738603535E-1   -2.678299768249067E-2   -5.139632344294412E-2   -2.811669017768124E-2   -5.082207490327501E-2    4.082466879480346E-1   -2.958075651539338E-1
 6.530398053400000E9     5.320424244743361E-1   -1.683446623764721E-1   -2.721889138769385E-2   -5.156987724908492E-2   -2.839904954479880E-2   -5.113691088543956E-2    4.073080934664635E-1   -2.969891748850670E-1
 6.530407288250000E9     5.317096387312841E-1   -1.693688277297095E-1   -2.749806690721877E-2   -5.206696523395631E-2   -2.891279392000371E-2   -5.154332659681318E-2    4.064328381472471E-1   -2.979693794174327E-1
 6.530416523100000E9     5.313624851931017E-1   -1.701337966710436E-1   -2.790490800319199E-2   -5.242325555106936E-2   -2.929173475727290E-2   -5.188230913799458E-2    4.055317046970095E-1   -2.992135616276171E-1
 6.530425757950000E9     5.311019291297093E-1   -1.711314989530553E-1   -2.836716610640962E-2   -5.294469322295704E-2   -2.963513041776844E-2   -5.212956456594506E-2    4.044941740705096E-1   -3.003368648659990E-1
 6.530434992800000E9     5.305577416684950E-1   -1.719809652149707E-1   -2.861375733676541E-2   -5.322939766580004E-2   -3.003649672443688E-2   -5.245814971808716E-2    4.034820068769129E-1   -3.013693360537399E-1
 6.530444227650000E9     5.302835507179974E-1   -1.727780548488704E-1   -2.905992069525414E-2   -5.358876117783717E-2   -3.043222210352371E-2   -5.290231874901166E-2    4.025297776483232E-1   -3.024998566467540E-1
 6.530453462500000E9     5.299020692690830E-1   -1.737314465117892E-1   -2.943370583386148E-2   -5.398452496951191E-2   -3.080425156237083E-2   -5.335316220119646E-2    4.014859489914084E-1   -3.036747320100193E-1
