#  HZ   S   RI   R     50.00 
! Rohde & Schwarz Vector Network Analyzer 
! Rohde-Schwarz,ZNB20-2Port,1311601062101988,3.16
! Created: UTC 3/21/2024, 1:22:00 AM
! freq[Hz]                re:S11                  im:S11                  re:S21                  im:S21                  re:S12                  im:S12                  re:S22                  im:S22
 6.529625779000000E9     5.509399968650687E-1   -1.017285484891142E-1   -1.089047846389983E-2   -3.285452509534172E-2   -1.151020110822208E-2   -3.260328227574399E-2    4.584198509949290E-1   -2.211453081965052E-1
 6.529635004800000E9     5.508575404680965E-1   -1.025642950004902E-1   -1.095277103861999E-2   -3.310532618312431E-2   -1.160778270710759E-2   -3.279624505570019E-2    4.581054458836625E-1   -2.219403970871122E-1
 6.529644230600000E9     5.506067483861372E-1   -1.031726240946548E-1   -1.103083544442234E-2   -3.311483460213587E-2   -1.175216355041974E-2   -3.286544779427539E-2    4.575528813364304E-1   -2.225477131641878E-1
 6.529653456400000E9     5.505162742272203E-1   -1.041085542025759E-1   -1.112343715402140E-2   -3.325120676861117E-2   -1.182951616202930E-2   -3.312933956590384E-2    4.573351513108268E-1   -2.233563370887592E-1
 6.529662682200000E9     5.503412178827991E-1   -1.046928320261746E-1   -1.110584115834604E-2   -3.337546217411938E-2   -1.197485692309965E-2   -3.317878853817093E-2    4.568266170027556E-1   -2.242315683833786E-1
 6.529671908000000E9     5.501320893488869E-1   -1.053672161889866E-1   -1.115064901167192E-2   -3.354901064473493E-2   -1.197773498831577E-2   -3.324343492970248E-2    4.564610084096729E-1   -2.250171458529786E-1
 6.529681133800000E9     5.500637923682301E-1   -1.062729505521374E-1   -1.138535319664146E-2   -3.354160921215347E-2   -1.208806007340918E-2   -3.351559670079002E-2    4.559973117290195E-1   -2.259176440272214E-1
 6.529690359600000E9     5.498962984027067E-1   -1.069059546338774E-1   -1.152931687621059E-2   -3.390166419235626E-2   -1.231496236173281E-2   -3.351676726288255E-2    4.554341834534232E-1   -2.265540334691779E-1
 6.529699585400000E9     5.498170772371341E-1   -1.077571547821316E-1   -1.160678487038126E-2   -3.406154412760821E-2   -1.241514376626671E-2   -3.385256264503356E-2    4.552326113914606E-1   -2.274643631936373E-1
 6.529708811200000E9     5.496265695940582E-1   -1.084417705002700E-1   -1.171722378718634E-2   -3.405896896885779E-2   -1.253568169144000E-2   -3.389571420976258E-2    4.547775036289864E-1   -2.282377697037902E-1
 6.529718037000000E9     5.494687904387958E-1   -1.092112900923199E-1   -1.189951648887664E-2   -3.438627066888327E-2   -1.273787277975232E-2   -3.395226243035935E-2    4.542493345421266E-1   -2.290540023873569E-1
 6.529727262800000E9     5.493570861353919E-1   -1.101531918559828E-1   -1.206976482896542E-2   -3.439263362086764E-2   -1.276981899540190E-2   -3.427394207786181E-2    4.538711518702807E-1   -2.298705053546229E-1
 6.529736488600000E9     5.491223661553341E-1   -1.108051460865826E-1   -1.202371341200077E-2   -3.452914219820938E-2   -1.286229860238002E-2   -3.431911886194244E-2    4.535635400550326E-1   -2.306590498867781E-1
 6.529745714400000E9     5.489137194101728E-1   -1.114511696744575E-1   -1.230627367833531E-2   -3.483665189541298E-2   -1.316799383176272E-2   -3.449753960788299E-2    4.529692015124301E-1   -2.315618104620568E-1
 6.529754940200000E9     5.487422084051351E-1   -1.122484933287059E-1   -1.236573301455242E-2   -3.501207275104779E-2   -1.307844412177806E-2   -3.466945982352825E-2    4.525224573218127E-1   -2.322778281664114E-1
 6.529764166000000E9     5.486471180342193E-1   -1.130915765581468E-1   -1.242067377529708E-2   -3.503441180684078E-2   -1.328675491198320E-2   -3.479448786004281E-2    4.521020371409348E-1   -2.331195165184120E-1
 6.529773391800000E9     5.483924338517360E-1   -1.137425401851456E-1   -1.266405630915049E-2   -3.532788517461678E-2   -1.341547703136419E-2   -3.504159822582127E-2    4.515487978954351E-1   -2.338781358117460E-1
 6.529782617600000E9     5.483140445968222E-1   -1.145008405577754E-1   -1.268864450067904E-2   -3.545901798678189E-2   -1.352993553420837E-2   -3.519636489785751E-2    4.510379325876814E-1   -2.346399148455418E-1
 6.529791843400000E9     5.480574096180197E-1   -1.153394449893728E-1   -1.286337865794854E-2   -3.558190603040189E-2   -1.368616328253422E-2   -3.527270432593053E-2    4.505310181774042E-1   -2.356359829512103E-1
 6.529801069200000E9     5.478610376648249E-1   -1.161100160566648E-1   -1.309333221392023E-2   -3.573437903379358E-2   -1.378584358726437E-2   -3.554584203022259E-2    4.500497666430385E-1   -2.364806046544042E-1
 6.529810295000000E9     5.478195788241199E-1   -1.168461186532836E-1   -1.305565284781986E-2   -3.579695654249910E-2   -1.399973875788354E-2   -3.568057395272225E-2    4.497143300775270E-1   -2.371570742649194E-1
 6.529819520800000E9     5.475495671704689E-1   -1.176315209319967E-1   -1.316098556704441E-2   -3.601697127076187E-2   -1.403776556687963E-2   -3.575103173394917E-2    4.491130469927641E-1   -2.380315936841891E-1
 6.529828746600000E9     5.474883193941306E-1   -1.183556069645248E-1   -1.339081480599214E-2   -3.624756204026824E-2   -1.423056189029960E-2   -3.602559080193943E-2    4.488019377877899E-1   -2.388251486521751E-1
 6.529837972400000E9     5.472813158328185E-1   -1.191287508432237E-1   -1.352043914324338E-2   -3.648866678114784E-2   -1.437316483144555E-2   -3.627328512344221E-2    4.482486351070518E-1   -2.396667965272117E-1
 6.529847198200000E9     5.470118855861539E-1   -1.198514825898675E-1   -1.366442313833082E-2   -3.667877992076650E-2   -1.459499101046785E-2   -3.633226117828247E-2    4.476858391684371E-1   -2.405580447171265E-1
 6.529856424000000E9     5.469661983510187E-1   -1.206620116279063E-1   -1.372319771687200E-2   -3.682246569692550E-2   -1.457617979041042E-2   -3.645975298698685E-2    4.474825900795661E-1   -2.413727226283726E-1
 6.529865649800000E9     5.466493011840586E-1   -1.213702894614974E-1   -1.393902536224145E-2   -3.687773199565017E-2   -1.490832870970466E-2   -3.670954679632223E-2    4.468511173309114E-1   -2.421973905774374E-1
 6.529874875600000E9     5.465464468281648E-1   -1.220776428372793E-1   -1.403631354186931E-2   -3.707276313958764E-2   -1.498836840165099E-2   -3.688840796048978E-2    4.463370639168200E-1   -2.431177317693420E-1
 6.529884101400000E9     5.464088379202967E-1   -1.228982095827639E-1   -1.434340709456918E-2   -3.727752054245752E-2   -1.515562974456827E-2   -3.717635102792875E-2    4.458037606481058E-1   -2.439325097882226E-1
 6.529893327200000E9     5.461782750019680E-1   -1.238060537972122E-1   -1.437741096151997E-2   -3.754613368997590E-2   -1.525779673768520E-2   -3.722264478323749E-2    4.451714641115131E-1   -2.446329692102268E-1
 6.529902553000000E9     5.458476389557019E-1   -1.244380000943853E-1   -1.449534939596996E-2   -3.766959128400566E-2   -1.546133440649582E-2   -3.738840990165537E-2    4.447999434015311E-1   -2.456404463103181E-1
 6.529911778800000E9     5.457402492428041E-1   -1.252948771918736E-1   -1.469725588825085E-2   -3.787777077785703E-2   -1.562705736963563E-2   -3.751058501714331E-2    4.442390519194562E-1   -2.464046639994568E-1
 6.529921004600000E9     5.454992507300903E-1   -1.260382515609649E-1   -1.482659078344840E-2   -3.814286211605083E-2   -1.575502507689721E-2   -3.777310296336500E-2    4.436636410226504E-1   -2.473880744243457E-1
 6.529930230400000E9     5.453161415753581E-1   -1.269473761197262E-1   -1.493351487730966E-2   -3.830859051507850E-2   -1.594587675308418E-2   -3.802826083964850E-2    4.431922469985141E-1   -2.481385764304088E-1
 6.529939456200000E9     5.450937164727352E-1   -1.276436145861324E-1   -1.510767010748774E-2   -3.843442023329083E-2   -1.609904869780512E-2   -3.817282677659904E-2    4.426791970480585E-1   -2.490183639401689E-1
 6.529948682000000E9     5.449449556009288E-1   -1.284323697275960E-1   -1.548055655203449E-2   -3.887696511217443E-2   -1.622010408413395E-2   -3.831247552412514E-2    4.420390406368643E-1   -2.498674620884876E-1
 6.529957907800000E9     5.447156057904352E-1   -1.291067601530838E-1   -1.545258080555986E-2   -3.881046460599481E-2   -1.635779854652241E-2   -3.848244751914820E-2    4.416191203472890E-1   -2.507649103934533E-1
 6.529967133600000E9     5.445664273520835E-1   -1.299383489486181E-1   -1.568234689831462E-2   -3.911605093003136E-2   -1.662596435970526E-2   -3.876208632531401E-2    4.410088239596811E-1   -2.514780476780393E-1
 6.529976359400000E9     5.443188250866051E-1   -1.307419806086953E-1   -1.586174836945208E-2   -3.934764179767145E-2   -1.671153253885605E-2   -3.894239237211042E-2    4.404267722625522E-1   -2.523807041974354E-1
 6.529985585200000E9     5.441049223104218E-1   -1.313939350478281E-1   -1.603017714172789E-2   -3.959606153292258E-2   -1.687889900512751E-2   -3.920123639753626E-2    4.399749953281445E-1   -2.533983819168918E-1
 6.529994811000000E9     5.438719704034672E-1   -1.322311253230167E-1   -1.618100352898863E-2   -3.971952955704620E-2   -1.706371282814528E-2   -3.946077328530013E-2    4.394667579097447E-1   -2.541794300502717E-1
 6.530004036800000E9     5.437457910845659E-1   -1.330636358392337E-1   -1.631088636373255E-2   -3.990700407761148E-2   -1.735956027692664E-2   -3.949342773719149E-2    4.388567930958038E-1   -2.552339638863625E-1
 6.530013262600000E9     5.434418206512774E-1   -1.339296963788623E-1   -1.650958722303829E-2   -4.026998757821825E-2   -1.751863845647163E-2   -3.968924686422101E-2    4.382883066403004E-1   -2.561079494619695E-1
 6.530022488400000E9     5.432992763415445E-1   -1.346639895285126E-1   -1.665671090562808E-2   -4.040658913943023E-2   -1.764405471852593E-2   -3.993214773169898E-2    4.375434848707163E-1   -2.568221607796757E-1
 6.530031714200000E9     5.431204298315645E-1   -1.354065880996833E-1   -1.683841767375174E-2   -4.053185284521449E-2   -1.790476914788960E-2   -4.028652344152302E-2    4.370651017835053E-1   -2.578431149066031E-1
 6.530040940000000E9     5.427826823718186E-1   -1.362574258580529E-1   -1.710370167060788E-2   -4.078766920398728E-2   -1.806323912770386E-2   -4.043479431687429E-2    4.365033381513799E-1   -2.587944369039543E-1
 6.530050165800000E9     5.425790635204469E-1   -1.369868485052557E-1   -1.727998250824183E-2   -4.101746497372719E-2   -1.827371664731421E-2   -4.058166021971833E-2    4.357779615300822E-1   -2.595296603654635E-1
 6.530059391600000E9     5.423253574183758E-1   -1.378707167569552E-1   -1.741789268718875E-2   -4.113474293666261E-2   -1.840500850146157E-2   -4.087881915998001E-2    4.353382065197491E-1   -2.604412820912999E-1
 6.530068617400000E9     5.421569372393780E-1   -1.386462523045757E-1   -1.766690817278737E-2   -4.145616922627169E-2   -1.874968867748679E-2   -4.103592166595511E-2    4.347579856275921E-1   -2.614661020123971E-1
 6.530077843200000E9     5.419575025626756E-1   -1.394533927824063E-1   -1.779887482077128E-2   -4.172013022383352E-2   -1.877167920103369E-2   -4.125431849488929E-2    4.340175608299600E-1   -2.622224328261627E-1
 6.530087069000000E9     5.416049131158822E-1   -1.402798618672615E-1   -1.802671382945675E-2   -4.193386628352100E-2   -1.902439318812525E-2   -4.156761196523327E-2    4.333868449779890E-1   -2.632510951135288E-1
 6.530096294800000E9     5.414831258041731E-1   -1.410282346577695E-1   -1.824019067332122E-2   -4.201319445238567E-2   -1.928333258436660E-2   -4.177731719250501E-2    4.327644505649598E-1   -2.641273915147345E-1
 6.530105520600000E9     5.412556824963211E-1   -1.418125793381336E-1   -1.857107470166381E-2   -4.252724931344892E-2   -1.949353506342429E-2   -4.196028641326910E-2    4.320744112572908E-1   -2.650538424467547E-1
 6.530114746400000E9     5.411193093041290E-1   -1.426698596306388E-1   -1.867888300459413E-2   -4.257599485244921E-2   -1.967476803330598E-2   -4.229310015774152E-2    4.316208115173033E-1   -2.660502897031529E-1
 6.530123972200000E9     5.407046945652642E-1   -1.433670222767645E-1   -1.891716489068788E-2   -4.277818883525895E-2   -1.994316042502052E-2   -4.250090872735313E-2    4.308911579040811E-1   -2.670112156911721E-1
 6.530133198000000E9     5.403703551133229E-1   -1.443020688162112E-1   -1.908280994982006E-2   -4.305114151095703E-2   -2.012073130289981E-2   -4.274618458153965E-2    4.302486169993803E-1   -2.679094010645990E-1
 6.530142423800000E9     5.402152318431999E-1   -1.450786176658118E-1   -1.932092255854046E-2   -4.341702097428431E-2   -2.038693197951369E-2   -4.287758573362209E-2    4.295340299412551E-1   -2.688698130582926E-1
 6.530151649600000E9     5.400280941955226E-1   -1.459234189675684E-1   -1.950625580969258E-2   -4.376812799052904E-2   -2.060744104300649E-2   -4.322605102968460E-2    4.288210557336412E-1   -2.697320127712478E-1
 6.530160875400000E9     5.397991214267653E-1   -1.467317911751669E-1   -1.969032776979157E-2   -4.389178603335309E-2   -2.083923317938987E-2   -4.346497624643143E-2    4.283383394226385E-1   -2.706847631751294E-1
 6.530170101200000E9     5.395518589292486E-1   -1.474805404122995E-1   -2.006603069520471E-2   -4.402349380721926E-2   -2.114117928771999E-2   -4.366959700788624E-2    4.276087280435059E-1   -2.716934992744047E-1
 6.530179327000000E9     5.392303910371105E-1   -1.482504279179098E-1   -2.031029404553030E-2   -4.438150354144393E-2   -2.130626566864181E-2   -4.396340340825899E-2    4.267440040997940E-1   -2.726438016424247E-1
 6.530188552800000E9     5.389988736390778E-1   -1.490502726489982E-1   -2.047746243564825E-2   -4.471120415879112E-2   -2.152184193051025E-2   -4.423813764896281E-2    4.262637040347377E-1   -2.735307986088584E-1
 6.530197778600000E9     5.386910062821766E-1   -1.499089381693438E-1   -2.067452896390630E-2   -4.502424289246716E-2   -2.179445424315134E-2   -4.456556751334963E-2    4.254853691993459E-1   -2.744991419505147E-1
 6.530207004400000E9     5.384035737027977E-1   -1.507288421590912E-1   -2.082635639591977E-2   -4.532759016945204E-2   -2.207118530088389E-2   -4.475685822025267E-2    4.247185703191923E-1   -2.754842129726879E-1
 6.530216230200000E9     5.381693587566015E-1   -1.515630731204834E-1   -2.113234461896510E-2   -4.558711011646773E-2   -2.229453233346819E-2   -4.506344670866314E-2    4.240331329287789E-1   -2.766323822505165E-1
 6.530225456000000E9     5.378731018138040E-1   -1.524741589789309E-1   -2.151605267620762E-2   -4.585336328459914E-2   -2.254951404973163E-2   -4.530349661625617E-2    4.233575845933569E-1   -2.774523606282776E-1
 6.530234681800000E9     5.375205137890937E-1   -1.532948014228480E-1   -2.169371961283974E-2   -4.608331711168416E-2   -2.276144716612309E-2   -4.562785276236060E-2    4.224941214832281E-1   -2.785541044968256E-1
 6.530243907600000E9     5.373941408441177E-1   -1.540690344173682E-1   -2.188002096055258E-2   -4.640490860635884E-2   -2.305895597991701E-2   -4.594238795277436E-2    4.217530140097098E-1   -2.794642988121975E-1
 6.530253133400000E9     5.369887302379939E-1   -1.549250690032310E-1   -2.221468449200540E-2   -4.661072568907672E-2   -2.339386607016881E-2   -4.605586575393718E-2    4.209497830902107E-1   -2.805499679730744E-1
 6.530262359200000E9     5.367023237352546E-1   -1.557327550348247E-1   -2.250220153066879E-2   -4.691014821262728E-2   -2.356641403937782E-2   -4.637601021450892E-2    4.202873269942150E-1   -2.814592420960306E-1
 6.530271585000000E9     5.364698410091867E-1   -1.565949966997922E-1   -2.274963603504018E-2   -4.717248553799731E-2   -2.392864435200392E-2   -4.680208569839214E-2    4.194073727488260E-1   -2.824175977426246E-1
 6.530280810800000E9     5.361279333772387E-1   -1.573253202735486E-1   -2.305912662631653E-2   -4.754904530146956E-2   -2.426265492990392E-2   -4.705312109896667E-2    4.185560370907614E-1   -2.834612827564768E-1
 6.530290036600000E9     5.358023832437601E-1   -1.582344657003282E-1   -2.328182702569922E-2   -4.780596208314435E-2   -2.441718745152373E-2   -4.729334907852246E-2    4.179120398780081E-1   -2.843497826221231E-1
 6.530299262400000E9     5.356002861891874E-1   -1.591329373326780E-1   -2.354346974254274E-2   -4.814071442983258E-2   -2.483998635860981E-2   -4.762351779205558E-2    4.170223052980697E-1   -2.854123923462071E-1
 6.530308488200000E9     5.351819941031243E-1   -1.599989516575010E-1   -2.387442577315945E-2   -4.834880125832554E-2   -2.509529646584084E-2   -4.790901382376966E-2    4.161774949139860E-1   -2.866205613635242E-1
 6.530317714000000E9     5.349336839805526E-1   -1.608848218761073E-1   -2.419983464709296E-2   -4.867462801392343E-2   -2.546909528725155E-2   -4.816464759379756E-2    4.153695408625014E-1   -2.875310213330393E-1
 6.530326939800000E9     5.347274239889279E-1   -1.616811106712218E-1   -2.461956532989759E-2   -4.909919654146222E-2   -2.575966748550130E-2   -4.853943147125870E-2    4.144175983161653E-1   -2.886393271115701E-1
 6.530336165600000E9     5.342472868400709E-1   -1.624773893075177E-1   -2.483533027239137E-2   -4.936571111497723E-2   -2.606395356976433E-2   -4.873460055441623E-2    4.135535178539581E-1   -2.896212968219561E-1
 6.530345391400000E9     5.339741423547405E-1   -1.633419967480319E-1   -2.515606650796325E-2   -4.963438659364362E-2   -2.631304844728261E-2   -4.913312932595563E-2    4.127987476734521E-1   -2.905784971321366E-1
 6.530354617200000E9     5.337122579447131E-1   -1.641941610249442E-1   -2.552122464234131E-2   -5.009427393293301E-2   -2.685682445266564E-2   -4.939788256432802E-2    4.118932057785570E-1   -2.919003392463696E-1
 6.530363843000000E9     5.333899485949245E-1   -1.650301655952389E-1   -2.593384236314730E-2   -5.039167110992331E-2   -2.707520827938334E-2   -4.982963032210597E-2    4.109818341666345E-1   -2.926798561179998E-1
 6.530373068800000E9     5.330945793158899E-1   -1.658659936017714E-1   -2.613546257222588E-2   -5.070787886417946E-2   -2.747318321891987E-2   -5.014314616780359E-2    4.100872639202851E-1   -2.939263164676280E-1
 6.530382294600000E9     5.326866960794573E-1   -1.669405028901394E-1   -2.652486881913308E-2   -5.103388128439739E-2   -2.776124188268205E-2   -5.046198480453890E-2    4.092676871323765E-1   -2.949894498156710E-1
 6.530391520400000E9     5.323933718325404E-1   -1.677547154608255E-1   -2.688287040148444E-2   -5.146711114691564E-2   -2.821136162868573E-2   -5.081529952150509E-2    4.083576468084831E-1   -2.960962415975331E-1
 6.530400746200000E9     5.319809194631188E-1   -1.686002883678565E-1   -2.720050822209042E-2   -5.190837026552089E-2   -2.857523563206780E-2   -5.113668045620943E-2    4.073088384243391E-1   -2.972744319357713E-1
 6.530409972000000E9     5.315474287574952E-1   -1.693126635030064E-1   -2.740721631773010E-2   -5.223541377740589E-2   -2.883792656804609E-2   -5.145632834275976E-2    4.064027714516191E-1   -2.983869104586997E-1
 6.530419197800000E9     5.312802648474044E-1   -1.703070946553901E-1   -2.789862677039029E-2   -5.254405097220673E-2   -2.934200764171268E-2   -5.192952469133637E-2    4.054003204111370E-1   -2.993740954552899E-1
 6.530428423600000E9     5.309481657635166E-1   -1.712725776401076E-1   -2.829030181216298E-2   -5.281721908209143E-2   -2.963329332589372E-2   -5.220617034759283E-2    4.044577080364289E-1   -3.003748129042306E-1
 6.530437649400000E9     5.305472507499968E-1   -1.721367132663194E-1   -2.852889037524164E-2   -5.328939534836031E-2   -2.997211994652306E-2   -5.263247479303899E-2    4.033720752127380E-1   -3.016805401320746E-1
 6.530446875200000E9     5.301991168545573E-1   -1.731098363809216E-1   -2.912252110696131E-2   -5.358963588795302E-2   -3.047749945805932E-2   -5.303584062307489E-2    4.023553325654071E-1   -3.027584109664126E-1
 6.530456101000000E9     5.299425446827288E-1   -1.739790234287716E-1   -2.941951402522521E-2   -5.414405534156128E-2   -3.083217412515132E-2   -5.332503769618151E-2    4.011486374084781E-1   -3.039186315102597E-1
