#  HZ   S   RI   R     50.00 
! Rohde & Schwarz Vector Network Analyzer 
! Rohde-Schwarz,ZNB20-2Port,1311601062101988,3.16
! Created: UTC 3/21/2024, 1:22:38 AM
! freq[Hz]                re:S11                  im:S11                  re:S21                  im:S21                  re:S12                  im:S12                  re:S22                  im:S22
 6.529666196000000E9     5.501779628700066E-1   -1.045249621441232E-1   -1.094510035905904E-2   -3.291124733502082E-2   -1.163339310125513E-2   -3.271440245304334E-2    4.565598080070409E-1   -2.225596221626740E-1
 6.529675369950000E9     5.501114441745258E-1   -1.052562325562178E-1   -1.111972097084363E-2   -3.300733022393981E-2   -1.172109888795959E-2   -3.284758321314859E-2    4.563996213589451E-1   -2.233509288758752E-1
 6.529684543900000E9     5.501068848792020E-1   -1.059312669302042E-1   -1.120293330842504E-2   -3.317412611751087E-2   -1.186230233804426E-2   -3.294780530469106E-2    4.558976368957927E-1   -2.242178683400564E-1
 6.529693717850000E9     5.497960799626445E-1   -1.067078633343284E-1   -1.123389967318499E-2   -3.325435628454303E-2   -1.196773400162668E-2   -3.310644747562348E-2    4.553198622594405E-1   -2.249213852272076E-1
 6.529702891800000E9     5.496342095705581E-1   -1.075000903501662E-1   -1.142684504076228E-2   -3.341693940963379E-2   -1.216291532517792E-2   -3.318499901035477E-2    4.551329159074430E-1   -2.254634894342639E-1
 6.529712065750000E9     5.495741956227109E-1   -1.082398642322315E-1   -1.148672923823028E-2   -3.364533230553036E-2   -1.227326209301394E-2   -3.336580356960912E-2    4.545964968483737E-1   -2.264208787545995E-1
 6.529721239700000E9     5.493751052954934E-1   -1.089607106354590E-1   -1.168924926240380E-2   -3.377633266824748E-2   -1.239685057100198E-2   -3.345459791894623E-2    4.541892104389731E-1   -2.271661818123474E-1
 6.529730413650000E9     5.491831486157609E-1   -1.097013520618881E-1   -1.148219983203959E-2   -3.383842509798338E-2   -1.246266435646946E-2   -3.354270537488550E-2    4.537619687795859E-1   -2.281377195103874E-1
 6.529739587600000E9     5.490877171729560E-1   -1.103859238996238E-1   -1.184568636259768E-2   -3.409268416145526E-2   -1.273805796899959E-2   -3.390452283561547E-2    4.532897914616563E-1   -2.288376219481912E-1
 6.529748761550000E9     5.489424809746015E-1   -1.112921753700524E-1   -1.190973680542189E-2   -3.418059911792792E-2   -1.271827395013907E-2   -3.396772285169867E-2    4.528526615852743E-1   -2.296516776111784E-1
 6.529757935500000E9     5.488462026966406E-1   -1.118419044476579E-1   -1.202480844185979E-2   -3.449575537561195E-2   -1.288657754449371E-2   -3.420783968260453E-2    4.523136649969313E-1   -2.304779565709977E-1
 6.529767109450000E9     5.485646113856695E-1   -1.126456228908567E-1   -1.221889253288415E-2   -3.458195107551324E-2   -1.305975480335651E-2   -3.435179653092538E-2    4.519536540147154E-1   -2.313264104857865E-1
 6.529776283400000E9     5.483851755772166E-1   -1.133702550832337E-1   -1.231027905850182E-2   -3.461933873262781E-2   -1.314169745479925E-2   -3.440153249301699E-2    4.514753383427185E-1   -2.320875289132293E-1
 6.529785457350000E9     5.482757395476880E-1   -1.141123676773893E-1   -1.253532967718045E-2   -3.482008508058932E-2   -1.322157739490317E-2   -3.458779367375125E-2    4.512364619566019E-1   -2.328361486365824E-1
 6.529794631300000E9     5.480495265663744E-1   -1.149905856657780E-1   -1.256457976422341E-2   -3.504855032332371E-2   -1.331286675836318E-2   -3.473450811018455E-2    4.506264490578418E-1   -2.337377957962169E-1
 6.529803805250000E9     5.478667122070874E-1   -1.156603738391739E-1   -1.276359734220379E-2   -3.520614672271861E-2   -1.346285947025657E-2   -3.491079950825177E-2    4.502067068745856E-1   -2.343355364277079E-1
 6.529812979200000E9     5.477244487782145E-1   -1.163474684501610E-1   -1.278820178475305E-2   -3.534644315601443E-2   -1.367821543948348E-2   -3.522332857787850E-2    4.496973728865057E-1   -2.353013870306789E-1
 6.529822153150000E9     5.476486049275526E-1   -1.170914499510795E-1   -1.298082793283237E-2   -3.555945447004914E-2   -1.380064593577108E-2   -3.534953201236648E-2    4.491355132208272E-1   -2.361507503021344E-1
 6.529831327100000E9     5.474596054194488E-1   -1.179002710885690E-1   -1.301678214995221E-2   -3.574886670430887E-2   -1.393447307374865E-2   -3.537077219163235E-2    4.488317897875065E-1   -2.368398274927190E-1
 6.529840501050000E9     5.471374260890507E-1   -1.186978258385819E-1   -1.307898602120607E-2   -3.574213966699637E-2   -1.403669540365258E-2   -3.560112254387560E-2    4.481671792508578E-1   -2.376805866174938E-1
 6.529849675000000E9     5.470792132331629E-1   -1.194497541152647E-1   -1.325784809556461E-2   -3.603084621605582E-2   -1.427247043149697E-2   -3.568777696270289E-2    4.477639414197917E-1   -2.385705720998067E-1
 6.529858848950000E9     5.467866418943905E-1   -1.201346232384196E-1   -1.352500780626377E-2   -3.624937105142538E-2   -1.439805405064161E-2   -3.594716420722150E-2    4.471961691160423E-1   -2.394309997397077E-1
 6.529868022900000E9     5.467770283671302E-1   -1.210254133308501E-1   -1.358599883925465E-2   -3.643522898475618E-2   -1.443466596749970E-2   -3.607570530706559E-2    4.470076027576141E-1   -2.401894830276579E-1
 6.529877196850000E9     5.465774955585145E-1   -1.217630230067465E-1   -1.383704288677299E-2   -3.665119875948766E-2   -1.464055142001572E-2   -3.631721466818216E-2    4.463506148063461E-1   -2.410816230471835E-1
 6.529886370800000E9     5.464338378371232E-1   -1.225649748740604E-1   -1.391771935689241E-2   -3.673252470084934E-2   -1.479387808150777E-2   -3.643035643116595E-2    4.460004055856684E-1   -2.418235386116019E-1
 6.529895544750000E9     5.461179627950203E-1   -1.232508671054224E-1   -1.411468679875572E-2   -3.684330462063606E-2   -1.480865026176753E-2   -3.663941792713300E-2    4.452715701876481E-1   -2.426905187153590E-1
 6.529904718700000E9     5.459895958255728E-1   -1.240779483128349E-1   -1.405484948998291E-2   -3.705763435560225E-2   -1.522337094033714E-2   -3.690234148709020E-2    4.449686717424550E-1   -2.435359316043357E-1
 6.529913892650000E9     5.458638078692740E-1   -1.247406299567753E-1   -1.427127532211910E-2   -3.729570625989733E-2   -1.513736755934397E-2   -3.686927983995494E-2    4.442949283195889E-1   -2.443236029547922E-1
 6.529923066600000E9     5.455639564929357E-1   -1.255649372260760E-1   -1.446566212964594E-2   -3.742240195981861E-2   -1.536970516780582E-2   -3.711267287244521E-2    4.439982523569650E-1   -2.452455058327377E-1
 6.529932240550000E9     5.454355577292261E-1   -1.262774814302060E-1   -1.468628582677330E-2   -3.754002976812738E-2   -1.554127110315713E-2   -3.744873707288721E-2    4.435440859347630E-1   -2.459180170115892E-1
 6.529941414500000E9     5.451459653505910E-1   -1.270537418940427E-1   -1.464249538032742E-2   -3.792993116469594E-2   -1.565670739985745E-2   -3.759215981217309E-2    4.429514154708590E-1   -2.469384458364423E-1
 6.529950588450000E9     5.449987257893327E-1   -1.278110795039542E-1   -1.498982998660565E-2   -3.805248313874231E-2   -1.589363403521289E-2   -3.774600477136145E-2    4.422555062595813E-1   -2.478265035536597E-1
 6.529959762400000E9     5.447856748195381E-1   -1.286261633994849E-1   -1.512810254672199E-2   -3.829009607304175E-2   -1.595291989849787E-2   -3.783160240444664E-2    4.419983757336459E-1   -2.485365863240564E-1
 6.529968936350000E9     5.446214216982211E-1   -1.293480558668353E-1   -1.516726359648278E-2   -3.832250804248823E-2   -1.609028830323481E-2   -3.808957392419993E-2    4.413196223204419E-1   -2.496118636423049E-1
 6.529978110300000E9     5.444589534135668E-1   -1.301357955932425E-1   -1.546648628161671E-2   -3.863002233651158E-2   -1.624996938967402E-2   -3.826949168570454E-2    4.407627659663980E-1   -2.503250782855737E-1
 6.529987284250000E9     5.442764258019883E-1   -1.309032356643345E-1   -1.553171958001814E-2   -3.873181698464300E-2   -1.649123313265655E-2   -3.846678672098407E-2    4.402718394891324E-1   -2.511806757514505E-1
 6.529996458200000E9     5.439354872396819E-1   -1.317340218457485E-1   -1.573880046807437E-2   -3.888104305261265E-2   -1.657072681880692E-2   -3.868368008431258E-2    4.398466675026970E-1   -2.520377543773351E-1
 6.530005632150000E9     5.437727250669504E-1   -1.323520894660095E-1   -1.590955648572906E-2   -3.902157985804157E-2   -1.676517806725501E-2   -3.884144503772029E-2    4.391797166623875E-1   -2.529635540738304E-1
 6.530014806100000E9     5.435665954726288E-1   -1.333010916140213E-1   -1.597461104824615E-2   -3.933210784824373E-2   -1.701444255468751E-2   -3.904911872049609E-2    4.386011474048423E-1   -2.538903579147250E-1
 6.530023980050000E9     5.433290465302310E-1   -1.339588306527837E-1   -1.600667799693745E-2   -3.973963227037378E-2   -1.718100223906369E-2   -3.928214584700687E-2    4.379917566936014E-1   -2.545474514475242E-1
 6.530033154000000E9     5.430456261023137E-1   -1.348202479104396E-1   -1.640332522497876E-2   -3.988117423865106E-2   -1.734364395935282E-2   -3.956720166443205E-2    4.375634821124342E-1   -2.554462400484024E-1
 6.530042327950000E9     5.429967306591689E-1   -1.356153802671443E-1   -1.674529868315307E-2   -4.004420730856950E-2   -1.754498553324967E-2   -3.974150592442539E-2    4.369347855783324E-1   -2.563506180771075E-1
 6.530051501900000E9     5.428094946786428E-1   -1.364341934347830E-1   -1.682512743052107E-2   -4.018741315928184E-2   -1.782395182788693E-2   -3.979181888289701E-2    4.363707457700322E-1   -2.573640164575141E-1
 6.530060675850000E9     5.423974755018202E-1   -1.371048565274342E-1   -1.697869315666830E-2   -4.051020219901199E-2   -1.792208578562516E-2   -4.006459828250332E-2    4.356972233867058E-1   -2.581506044638773E-1
 6.530069849800000E9     5.422890486268176E-1   -1.379346945406710E-1   -1.704791506322018E-2   -4.079766742693398E-2   -1.816293373158502E-2   -4.036075831296100E-2    4.350912179763336E-1   -2.590442608649331E-1
 6.530079023750000E9     5.420990537876985E-1   -1.387332355994326E-1   -1.738828202347583E-2   -4.090596212065465E-2   -1.834979505478113E-2   -4.046501804465454E-2    4.345796709797179E-1   -2.599005834221857E-1
 6.530088197700000E9     5.418437965681855E-1   -1.395579451731334E-1   -1.756216832234430E-2   -4.106011859751593E-2   -1.846376060904636E-2   -4.082632217444260E-2    4.338090394565972E-1   -2.607231324827793E-1
 6.530097371650000E9     5.415807626237776E-1   -1.403943559091994E-1   -1.774168299534428E-2   -4.126514160574301E-2   -1.860042823481380E-2   -4.100209181797591E-2    4.333112251396186E-1   -2.617145329202435E-1
 6.530106545600000E9     5.413974175851843E-1   -1.411200311589289E-1   -1.781986882889753E-2   -4.150138989079626E-2   -1.887361030319742E-2   -4.112703831280291E-2    4.327014048529966E-1   -2.625431395422020E-1
 6.530115719550000E9     5.410717972030755E-1   -1.418796894695255E-1   -1.810662979308788E-2   -4.177924433075661E-2   -1.920372018695398E-2   -4.143285667155287E-2    4.322839510638901E-1   -2.636280854958562E-1
 6.530124893500000E9     5.409058894687003E-1   -1.427198089401783E-1   -1.810251724706224E-2   -4.204156306035812E-2   -1.931333003412134E-2   -4.170682447254802E-2    4.316019522381744E-1   -2.643962671406844E-1
 6.530134067450000E9     5.406107100516512E-1   -1.434632528410880E-1   -1.838807660535683E-2   -4.231495161569978E-2   -1.950812474532088E-2   -4.188159467313007E-2    4.307649708584069E-1   -2.654938867095730E-1
 6.530143241400000E9     5.403701429970500E-1   -1.442770005196091E-1   -1.872492698643103E-2   -4.261532465226102E-2   -1.978017007927140E-2   -4.204997102166966E-2    4.302457644429291E-1   -2.663758506795513E-1
 6.530152415350000E9     5.401411599688913E-1   -1.452521532197871E-1   -1.890228467997899E-2   -4.284388499017387E-2   -1.998352241152341E-2   -4.240837131892967E-2    4.296502859996766E-1   -2.671873821342799E-1
 6.530161589300000E9     5.399826704102894E-1   -1.457592202485763E-1   -1.917073318292121E-2   -4.304173249007798E-2   -2.012176784219678E-2   -4.267694339489243E-2    4.290287182209706E-1   -2.682473029058762E-1
 6.530170763250000E9     5.396224721852945E-1   -1.468253291165841E-1   -1.937371012863606E-2   -4.332643529372283E-2   -2.040954099200849E-2   -4.288270939694391E-2    4.284460195094409E-1   -2.690761694268504E-1
 6.530179937200000E9     5.393695438586854E-1   -1.475507629136234E-1   -1.967821656248194E-2   -4.356114146607078E-2   -2.061191350267958E-2   -4.306419868356406E-2    4.276176782205894E-1   -2.699511695694577E-1
 6.530189111150000E9     5.391830442511018E-1   -1.483636142064814E-1   -1.972296406477000E-2   -4.377645033886517E-2   -2.082817756820049E-2   -4.328870047008478E-2    4.268690334584769E-1   -2.710065346956382E-1
 6.530198285100000E9     5.389041983686472E-1   -1.492562385310566E-1   -1.997534177992375E-2   -4.395791320157143E-2   -2.106545416553996E-2   -4.356056462181490E-2    4.264647738671255E-1   -2.718116070416898E-1
 6.530207459050000E9     5.387673956555357E-1   -1.499987139471924E-1   -2.031809270721665E-2   -4.414885210263220E-2   -2.128209380511191E-2   -4.384893333760239E-2    4.255974773018351E-1   -2.728317689990948E-1
 6.530216633000000E9     5.384214592378349E-1   -1.508013592851537E-1   -2.043293394694174E-2   -4.460970662261657E-2   -2.151013474281449E-2   -4.412323497543985E-2    4.250217662083896E-1   -2.738776168223898E-1
 6.530225806950000E9     5.381452850534326E-1   -1.516386836719893E-1   -2.082654097276245E-2   -4.488878255927495E-2   -2.181807736609062E-2   -4.432029121634027E-2    4.243311222477824E-1   -2.748334764213025E-1
 6.530234980900000E9     5.378988723328098E-1   -1.524716667808665E-1   -2.090884659169428E-2   -4.519733491253421E-2   -2.203081144469192E-2   -4.462540262984655E-2    4.233598876404500E-1   -2.755670437297187E-1
 6.530244154850000E9     5.375750230633302E-1   -1.531950306604491E-1   -2.106021685768123E-2   -4.540839469476340E-2   -2.230500614222499E-2   -4.488446944951375E-2    4.228176530983225E-1   -2.766799894564317E-1
 6.530253328800000E9     5.372558481083491E-1   -1.539723062708331E-1   -2.139056907221796E-2   -4.554143710695186E-2   -2.265647692103310E-2   -4.522981705123830E-2    4.219692254831737E-1   -2.776671504074545E-1
 6.530262502750000E9     5.370855049066091E-1   -1.548470337003984E-1   -2.170222581130557E-2   -4.595149978537304E-2   -2.284995500136100E-2   -4.547897030861298E-2    4.213806623526777E-1   -2.786597435827006E-1
 6.530271676700000E9     5.368738309289059E-1   -1.556498245553747E-1   -2.197447208193812E-2   -4.608073472471508E-2   -2.310407989008778E-2   -4.573030060677880E-2    4.205106637472379E-1   -2.794556282071163E-1
 6.530280850650000E9     5.365768022037453E-1   -1.565290303456974E-1   -2.227709182089677E-2   -4.640705706000400E-2   -2.339316542346996E-2   -4.602373106169647E-2    4.198576935540021E-1   -2.805823910169675E-1
 6.530290024600000E9     5.362076922195370E-1   -1.572257809007519E-1   -2.253460209625049E-2   -4.666052250830264E-2   -2.364474932554399E-2   -4.634724898381976E-2    4.190391117616280E-1   -2.815193216146506E-1
 6.530299198550000E9     5.359449534830315E-1   -1.582038865503234E-1   -2.284590043720168E-2   -4.710850259987582E-2   -2.393063732802003E-2   -4.653403382065333E-2    4.182082130697992E-1   -2.824607294425525E-1
 6.530308372500000E9     5.356348221934135E-1   -1.588927997467403E-1   -2.297017731403674E-2   -4.737607198029277E-2   -2.429862116316557E-2   -4.685306398766358E-2    4.173880504684609E-1   -2.838189437875708E-1
 6.530317546450000E9     5.353103829664971E-1   -1.598266941908159E-1   -2.327599463467660E-2   -4.769168814744285E-2   -2.456094350009914E-2   -4.721496177154703E-2    4.167665753065458E-1   -2.846518327903738E-1
 6.530326720400000E9     5.350205565322115E-1   -1.606832594253605E-1   -2.370820502514916E-2   -4.793056604420351E-2   -2.480602625495569E-2   -4.741200380459593E-2    4.158617866034229E-1   -2.856927885907491E-1
 6.530335894350000E9     5.346476583782095E-1   -1.615031415896769E-1   -2.396721486479449E-2   -4.833776266036008E-2   -2.509491888657376E-2   -4.781828651592246E-2    4.151771588822114E-1   -2.865523348301690E-1
 6.530345068300000E9     5.343858171846430E-1   -1.624076091601918E-1   -2.428959173869965E-2   -4.853250691248216E-2   -2.542506400316558E-2   -4.806222786084598E-2    4.141307852359787E-1   -2.877006087862434E-1
 6.530354242250000E9     5.340922931428463E-1   -1.632589666657628E-1   -2.450862916987695E-2   -4.895577509386428E-2   -2.568082740269225E-2   -4.834923816045025E-2    4.133382987408942E-1   -2.886885496665154E-1
 6.530363416200000E9     5.338093643152811E-1   -1.641403527154767E-1   -2.487751401376019E-2   -4.917762394685540E-2   -2.608076557265841E-2   -4.863394853136476E-2    4.125954172652798E-1   -2.896395849753707E-1
 6.530372590150000E9     5.335162782507895E-1   -1.648582024935498E-1   -2.516681186745330E-2   -4.943169263590921E-2   -2.637723006414492E-2   -4.899572766014430E-2    4.115976653218363E-1   -2.907656435500505E-1
 6.530381764100000E9     5.331687686822719E-1   -1.656761626733587E-1   -2.543256801615087E-2   -4.989348958828758E-2   -2.669564462843776E-2   -4.929302042273957E-2    4.108927609655682E-1   -2.918518116345181E-1
 6.530390938050000E9     5.327665990625683E-1   -1.665899950339517E-1   -2.571753443350181E-2   -5.022080036296444E-2   -2.705734035165375E-2   -4.961644362467908E-2    4.099306142632952E-1   -2.929554811705419E-1
 6.530400112000000E9     5.325479222435258E-1   -1.674495254358363E-1   -2.617361581452493E-2   -5.047508541544179E-2   -2.743609210724335E-2   -4.985794752976488E-2    4.091459635693391E-1   -2.939799738429812E-1
 6.530409285950000E9     5.320889644802549E-1   -1.684365438361650E-1   -2.638325593626676E-2   -5.077677100407774E-2   -2.772732793913952E-2   -5.026884655859142E-2    4.080387142081214E-1   -2.949381071208518E-1
 6.530418459900000E9     5.318155863971340E-1   -1.692101624125928E-1   -2.673750171638967E-2   -5.111502777599718E-2   -2.806712495185426E-2   -5.059334862622174E-2    4.072611874726805E-1   -2.962667607483702E-1
 6.530427633850000E9     5.315689703707053E-1   -1.700495456070583E-1   -2.703076888901710E-2   -5.151721032512799E-2   -2.838717416966158E-2   -5.098043280267558E-2    4.062463288944145E-1   -2.969509775651077E-1
 6.530436807800000E9     5.310577528540716E-1   -1.709728357106399E-1   -2.746265293194218E-2   -5.191454101032780E-2   -2.886812373461520E-2   -5.134199043070829E-2    4.052497784938868E-1   -2.981802727176501E-1
 6.530445981750000E9     5.308059934311750E-1   -1.718135939926636E-1   -2.785678986527885E-2   -5.223784429867030E-2   -2.910355276613239E-2   -5.169918713390037E-2    4.043132694536355E-1   -2.993063238453016E-1
 6.530455155700000E9     5.304937343457180E-1   -1.727236017406368E-1   -2.821580751040426E-2   -5.267956190064840E-2   -2.954867304613831E-2   -5.201296467456477E-2    4.033197357405720E-1   -3.003363287687137E-1
 6.530464329650000E9     5.300618361826028E-1   -1.735237779462243E-1   -2.846759898108982E-2   -5.308471736860065E-2   -2.997369411184010E-2   -5.239645870785221E-2    4.023620572478536E-1   -3.015602642188843E-1
 6.530473503600000E9     5.296806292496218E-1   -1.744937680552887E-1   -2.900165723288834E-2   -5.348506046008918E-2   -3.031175805187137E-2   -5.275682772570224E-2    4.012985995361326E-1   -3.026875574096038E-1
 6.530482677550000E9     5.292838371263882E-1   -1.753467088331381E-1   -2.932102225504513E-2   -5.370867458494446E-2   -3.067652078002935E-2   -5.314966410459421E-2    4.002817553077858E-1   -3.038730805624212E-1
 6.530491851500000E9     5.289374784441387E-1   -1.761992702281773E-1   -2.983454463441369E-2   -5.416133345654524E-2   -3.122096155107991E-2   -5.354962844458327E-2    3.993250026283779E-1   -3.048004155058320E-1
