#  HZ   S   RI   R     50.00 
! Rohde & Schwarz Vector Network Analyzer 
! Rohde-Schwarz,ZNB20-2Port,1311601062101988,3.16
! Created: UTC 3/21/2024, 1:22:40 AM
! freq[Hz]                re:S11                  im:S11                  re:S21                  im:S21                  re:S12                  im:S12                  re:S22                  im:S22
 6.529672494000000E9     5.503071146079661E-1   -1.049426616648491E-1   -1.109782568673160E-2   -3.289186284249684E-2   -1.165881736416946E-2   -3.281355691481106E-2    4.564918041328624E-1   -2.230719684007761E-1
 6.529681647450000E9     5.502025202297226E-1   -1.054879312829037E-1   -1.105911477091347E-2   -3.316361856481257E-2   -1.187589204053429E-2   -3.289724419978921E-2    4.560855841576245E-1   -2.237431559453433E-1
 6.529690800900000E9     5.500158007158882E-1   -1.063162035931470E-1   -1.119189551735626E-2   -3.331293736193252E-2   -1.196992947015232E-2   -3.302823174444842E-2    4.556509198396784E-1   -2.244999244315960E-1
 6.529699954350000E9     5.498477076933539E-1   -1.070465673258321E-1   -1.136116479251291E-2   -3.346592474834000E-2   -1.212565519310066E-2   -3.321198283278120E-2    4.551593071872580E-1   -2.251523387561447E-1
 6.529709107800000E9     5.497221559962810E-1   -1.077236259414480E-1   -1.142944907828081E-2   -3.351882669817886E-2   -1.211545852408190E-2   -3.329452649373960E-2    4.547642716214879E-1   -2.261707700246806E-1
 6.529718261250000E9     5.496033032745371E-1   -1.085021096055975E-1   -1.156035559312511E-2   -3.373398077462780E-2   -1.236162999920389E-2   -3.351401365805042E-2    4.544184631007303E-1   -2.267815480071434E-1
 6.529727414700000E9     5.493976051499276E-1   -1.092838404508884E-1   -1.168426412994740E-2   -3.380018175142796E-2   -1.256739533494982E-2   -3.361331172531479E-2    4.541023458316463E-1   -2.276716732856661E-1
 6.529736568150000E9     5.491537692513671E-1   -1.101130016123194E-1   -1.164973043126602E-2   -3.410874158882551E-2   -1.246086485710338E-2   -3.384299878678970E-2    4.534837263648787E-1   -2.284327774879603E-1
 6.529745721600000E9     5.490669791375837E-1   -1.107380814986674E-1   -1.176247101210707E-2   -3.412365960907644E-2   -1.273222469121397E-2   -3.387429985255709E-2    4.530787523056817E-1   -2.290126697770481E-1
 6.529754875050000E9     5.489057411233658E-1   -1.115607328039663E-1   -1.193976372270794E-2   -3.440392935270747E-2   -1.280006782373161E-2   -3.408345841653891E-2    4.525764233016862E-1   -2.299496278745359E-1
 6.529764028500000E9     5.487730893234265E-1   -1.122995954880676E-1   -1.206257098935456E-2   -3.438294993842098E-2   -1.298349913191344E-2   -3.418172921047565E-2    4.521219800242675E-1   -2.308573845314509E-1
 6.529773181950000E9     5.486127139153499E-1   -1.130093849611273E-1   -1.224153674504149E-2   -3.444973399102452E-2   -1.306481080293578E-2   -3.446183390734268E-2    4.517208422845799E-1   -2.317321210740201E-1
 6.529782335400000E9     5.484154464581934E-1   -1.139017650891351E-1   -1.237371649700278E-2   -3.467900855366157E-2   -1.313974538553742E-2   -3.459833606055921E-2    4.514112865946922E-1   -2.324464969978672E-1
 6.529791488850000E9     5.482926561096978E-1   -1.145911406469052E-1   -1.254797718031448E-2   -3.499124259763640E-2   -1.335054805285314E-2   -3.470998517007314E-2    4.507124653166544E-1   -2.332142148239533E-1
 6.529800642300000E9     5.481811509964737E-1   -1.152601452564285E-1   -1.254177279368363E-2   -3.506933387748618E-2   -1.341298598478925E-2   -3.488271220751989E-2    4.504494029696793E-1   -2.341100810464542E-1
 6.529809795750000E9     5.479696509813744E-1   -1.160720545338038E-1   -1.267193256583270E-2   -3.509455334790039E-2   -1.359844345212321E-2   -3.498780611971361E-2    4.498999428177284E-1   -2.348345938345117E-1
 6.529818949200000E9     5.477748675463232E-1   -1.168949993024073E-1   -1.286701737474329E-2   -3.543443272981641E-2   -1.369811928886200E-2   -3.512151141688659E-2    4.495023049107263E-1   -2.356036123745096E-1
 6.529828102650000E9     5.475973993997799E-1   -1.175513087397076E-1   -1.299735380353581E-2   -3.551539537371786E-2   -1.386235437550969E-2   -3.528962065576891E-2    4.490507154872230E-1   -2.364386632184132E-1
 6.529837256100000E9     5.473758915580915E-1   -1.183092252285246E-1   -1.316920929348934E-2   -3.572993747693694E-2   -1.398495938501681E-2   -3.557884435620994E-2    4.486784210211234E-1   -2.371589863325673E-1
 6.529846409550000E9     5.472226841819823E-1   -1.191244415903184E-1   -1.324410362516932E-2   -3.607029799304546E-2   -1.408922610780096E-2   -3.567391185264839E-2    4.481773534249436E-1   -2.381307410971716E-1
 6.529855563000000E9     5.470362111080816E-1   -1.197698579910952E-1   -1.343877452531982E-2   -3.609420021034612E-2   -1.431088806112423E-2   -3.584341103456382E-2    4.475774171347238E-1   -2.388314544370767E-1
 6.529864716450000E9     5.468449726656096E-1   -1.206018362022158E-1   -1.344002726833734E-2   -3.633760557627250E-2   -1.437616023987874E-2   -3.600042462781706E-2    4.472458304603563E-1   -2.398412965972918E-1
 6.529873869900000E9     5.467445149466635E-1   -1.212667414535045E-1   -1.364875044059108E-2   -3.633931788511215E-2   -1.452165001589011E-2   -3.621905280214940E-2    4.466705800811613E-1   -2.405914781002368E-1
 6.529883023350000E9     5.465462627313167E-1   -1.221370930572971E-1   -1.382154431766334E-2   -3.659330841644147E-2   -1.464094007508411E-2   -3.632777623987228E-2    4.461614805745213E-1   -2.414588999941654E-1
 6.529892176800000E9     5.463434356838980E-1   -1.228795453110043E-1   -1.394402966794282E-2   -3.679286981828159E-2   -1.481674184831093E-2   -3.657401731765921E-2    4.456878078159376E-1   -2.424444375396858E-1
 6.529901330250000E9     5.462435749335296E-1   -1.236092451790291E-1   -1.406933424391860E-2   -3.698500973698924E-2   -1.497434485547264E-2   -3.669867456570386E-2    4.451377446206239E-1   -2.429391737078363E-1
 6.529910483700000E9     5.458795018492908E-1   -1.243381703194147E-1   -1.419570573421975E-2   -3.721733706896517E-2   -1.515751878623734E-2   -3.683546443236481E-2    4.445392411114664E-1   -2.439797094677010E-1
 6.529919637150000E9     5.458485474958296E-1   -1.251331672912410E-1   -1.435226117789993E-2   -3.740612354050190E-2   -1.524119981025969E-2   -3.709206845744565E-2    4.442049950919129E-1   -2.447359444933547E-1
 6.529928790600000E9     5.456492800812547E-1   -1.259558995882428E-1   -1.444736034766666E-2   -3.754037403167976E-2   -1.544039508325323E-2   -3.720390801669057E-2    4.436093073881145E-1   -2.455143759203066E-1
 6.529937944050000E9     5.453168067951163E-1   -1.266949258388171E-1   -1.458048657299951E-2   -3.774255948020422E-2   -1.556449106706069E-2   -3.732016224431600E-2    4.431838004357165E-1   -2.464449382639704E-1
 6.529947097500000E9     5.451023666189903E-1   -1.273776798454538E-1   -1.480983970649875E-2   -3.798298201898481E-2   -1.571124763913899E-2   -3.763560066037791E-2    4.426450637054682E-1   -2.472521035383854E-1
 6.529956250950000E9     5.449276726107165E-1   -1.282025902913203E-1   -1.498851262423305E-2   -3.821849500216989E-2   -1.588496392670203E-2   -3.786559974348711E-2    4.420538889609931E-1   -2.481606864323093E-1
 6.529965404400000E9     5.447763173994415E-1   -1.290202664232602E-1   -1.509068770511237E-2   -3.829013054997178E-2   -1.605538630547501E-2   -3.801611407059780E-2    4.415722937366244E-1   -2.490131635533746E-1
 6.529974557850000E9     5.446550262142599E-1   -1.296837066555059E-1   -1.539676837104063E-2   -3.843789618037918E-2   -1.630897972631242E-2   -3.827686888802646E-2    4.410494751728238E-1   -2.497791701902798E-1
 6.529983711300000E9     5.443450849576554E-1   -1.305659623624311E-1   -1.545506612429173E-2   -3.878582798817889E-2   -1.636549781543727E-2   -3.833786375592802E-2    4.404264681822680E-1   -2.507501324650710E-1
 6.529992864750000E9     5.442819432288485E-1   -1.312637713273950E-1   -1.547780982599537E-2   -3.891298095722722E-2   -1.653865960801789E-2   -3.857830802558918E-2    4.400632044055585E-1   -2.516577485503045E-1
 6.530002018200000E9     5.440551495712901E-1   -1.321612801825384E-1   -1.572051253352392E-2   -3.898946768879034E-2   -1.666991913542376E-2   -3.872244665346978E-2    4.395094427409373E-1   -2.523922005633673E-1
 6.530011171650000E9     5.437449579765367E-1   -1.327812280077263E-1   -1.596426430849077E-2   -3.931543981164769E-2   -1.688582378499445E-2   -3.903924225380041E-2    4.388835361048634E-1   -2.531407005088250E-1
 6.530020325100000E9     5.435437184303237E-1   -1.335033702384330E-1   -1.616209234320361E-2   -3.943478435711043E-2   -1.709435547077252E-2   -3.912434147194760E-2    4.384714608547116E-1   -2.541509586633087E-1
 6.530029478550000E9     5.432881762586792E-1   -1.344419187659995E-1   -1.632693849297159E-2   -3.959729788193591E-2   -1.727022195005879E-2   -3.929707174978679E-2    4.378184209293993E-1   -2.549206116842986E-1
 6.530038632000000E9     5.431999993870559E-1   -1.351943407365414E-1   -1.646600728533011E-2   -3.981273543048564E-2   -1.742830614679448E-2   -3.952831092391825E-2    4.371185671143950E-1   -2.558191540549858E-1
 6.530047785450000E9     5.428892098964749E-1   -1.359487063374059E-1   -1.668988977601941E-2   -4.015543017216592E-2   -1.752092537645524E-2   -3.974041227914319E-2    4.365988946956244E-1   -2.566933982317485E-1
 6.530056938900000E9     5.426944128427564E-1   -1.366846411232366E-1   -1.685807714818114E-2   -4.027470974686555E-2   -1.778193660770318E-2   -3.999873055037983E-2    4.360195111051393E-1   -2.575548381573776E-1
 6.530066092350000E9     5.424925690813253E-1   -1.375632768715655E-1   -1.706087529398930E-2   -4.047049594097363E-2   -1.790708698040544E-2   -4.024607557908393E-2    4.356434988234563E-1   -2.584280782522722E-1
 6.530075245800000E9     5.422478980572208E-1   -1.383418439073452E-1   -1.721915955297843E-2   -4.076478424333086E-2   -1.822194583868548E-2   -4.042549328767329E-2    4.348385192727076E-1   -2.594421068706387E-1
 6.530084399250000E9     5.421127057519961E-1   -1.390969061843766E-1   -1.753480636364823E-2   -4.108290943984984E-2   -1.836072080913951E-2   -4.054691426130787E-2    4.342137329866423E-1   -2.602345888581652E-1
 6.530093552700000E9     5.417642797721255E-1   -1.399472265475154E-1   -1.762815661929493E-2   -4.122209518693393E-2   -1.860784908090842E-2   -4.080351620075814E-2    4.338443476873774E-1   -2.611117068479302E-1
 6.530102706150000E9     5.415148890445722E-1   -1.405145379307304E-1   -1.767763461143707E-2   -4.147372191225454E-2   -1.879501658408570E-2   -4.106401155643560E-2    4.331215320951349E-1   -2.620640878589294E-1
 6.530111859600000E9     5.414059209420978E-1   -1.416132920095845E-1   -1.791930140426921E-2   -4.160430980713900E-2   -1.898663830247025E-2   -4.131638076758992E-2    4.325556887827766E-1   -2.629402709501586E-1
 6.530121013050000E9     5.411289883653535E-1   -1.422242809920159E-1   -1.822649690053146E-2   -4.194593323038613E-2   -1.914545612344129E-2   -4.160422679849316E-2    4.319593540781749E-1   -2.638730885018793E-1
 6.530130166500000E9     5.408250501854176E-1   -1.431115781273103E-1   -1.831582162788208E-2   -4.212948745164014E-2   -1.941586074845940E-2   -4.169613469650951E-2    4.312652817598148E-1   -2.649970839140474E-1
 6.530139319950000E9     5.406914713511058E-1   -1.439154272674157E-1   -1.864066940852859E-2   -4.244194866129525E-2   -1.962062534213498E-2   -4.196396456114463E-2    4.306817955992105E-1   -2.657199599293851E-1
 6.530148473400000E9     5.403895921526802E-1   -1.447563035165030E-1   -1.872045998626282E-2   -4.256642563230935E-2   -1.985304288491176E-2   -4.226880421721966E-2    4.300519151616258E-1   -2.664827120447967E-1
 6.530157626850000E9     5.402055705236486E-1   -1.453783424915602E-1   -1.886292546544866E-2   -4.290990926002675E-2   -2.010854785800276E-2   -4.247020220372612E-2    4.293232518683714E-1   -2.675454043397398E-1
 6.530166780300000E9     5.398858283379740E-1   -1.462754362007893E-1   -1.916819029830349E-2   -4.317281699793589E-2   -2.014205942687640E-2   -4.259471257447286E-2    4.285973646864760E-1   -2.684407886007666E-1
 6.530175933750000E9     5.397494486875500E-1   -1.470226269135383E-1   -1.951336014312031E-2   -4.326152933248094E-2   -2.045268790918030E-2   -4.300191305983694E-2    4.281204530858428E-1   -2.693797685224918E-1
 6.530185087200000E9     5.394663674141189E-1   -1.478583199558423E-1   -1.966443361246558E-2   -4.370140876499768E-2   -2.078172991437816E-2   -4.317693172156033E-2    4.274203168494989E-1   -2.703038743580680E-1
 6.530194240650000E9     5.390640879407618E-1   -1.487268036262382E-1   -1.988257811884831E-2   -4.387143807201632E-2   -2.092210723370260E-2   -4.339367648122079E-2    4.266290414411834E-1   -2.713180678920067E-1
 6.530203394100000E9     5.389443798582813E-1   -1.494511883006144E-1   -1.998811100295227E-2   -4.421585238389644E-2   -2.120841241575180E-2   -4.361477290013405E-2    4.259501413933913E-1   -2.723403918100265E-1
 6.530212547550000E9     5.386531807474070E-1   -1.502473163700644E-1   -2.040538229948998E-2   -4.433345389289452E-2   -2.128945849730297E-2   -4.393269117466359E-2    4.253588021431072E-1   -2.732250342852208E-1
 6.530221701000000E9     5.384119304309902E-1   -1.510971874601938E-1   -2.068122301064607E-2   -4.453594076747559E-2   -2.164319567695462E-2   -4.418140411984892E-2    4.246887424742336E-1   -2.742405892336235E-1
 6.530230854450000E9     5.381396120406939E-1   -1.518826879271933E-1   -2.066411263837170E-2   -4.499849783546035E-2   -2.185786313965151E-2   -4.443999789510859E-2    4.239860110294209E-1   -2.750015157030373E-1
 6.530240007900000E9     5.378733945014105E-1   -1.527933624011938E-1   -2.105328712884269E-2   -4.514622422540522E-2   -2.215964888012582E-2   -4.472107105142715E-2    4.232961436655541E-1   -2.761060868456292E-1
 6.530249161350000E9     5.375932065734385E-1   -1.534280298237821E-1   -2.120679422593999E-2   -4.549363098796821E-2   -2.234002479317992E-2   -4.498010739094510E-2    4.225517096947781E-1   -2.771577823479326E-1
 6.530258314800000E9     5.372771957187231E-1   -1.543198125536880E-1   -2.140488267890103E-2   -4.571099557521208E-2   -2.266007607324076E-2   -4.528806996851060E-2    4.218409606512182E-1   -2.780930866577079E-1
 6.530267468250000E9     5.370655712888674E-1   -1.551456337701275E-1   -2.187431074581283E-2   -4.599352781997331E-2   -2.294349419297968E-2   -4.547110312138977E-2    4.210599639405524E-1   -2.789114765470359E-1
 6.530276621700000E9     5.367596363671409E-1   -1.559161863332277E-1   -2.192800434321880E-2   -4.620373951968292E-2   -2.310789450754601E-2   -4.577541752343627E-2    4.201840653726477E-1   -2.800441531572012E-1
 6.530285775150000E9     5.364303168208608E-1   -1.568233130947977E-1   -2.225776694316774E-2   -4.664158871364962E-2   -2.343498775009465E-2   -4.611115419650322E-2    4.194466648289322E-1   -2.810312112932148E-1
 6.530294928600000E9     5.361038402057585E-1   -1.576517102940108E-1   -2.248218466715149E-2   -4.695011884339071E-2   -2.379155603767658E-2   -4.626614178148266E-2    4.187533450547729E-1   -2.819480352099923E-1
 6.530304082050000E9     5.359197165196389E-1   -1.584741648281781E-1   -2.282062721750750E-2   -4.724159738869472E-2   -2.404434917183663E-2   -4.670786546473930E-2    4.179337349125328E-1   -2.829477123047289E-1
 6.530313235500000E9     5.355445866924148E-1   -1.592647306695366E-1   -2.296098551569519E-2   -4.747323832982551E-2   -2.431806706942588E-2   -4.677495622061455E-2    4.173273910028165E-1   -2.839341352302184E-1
 6.530322388950000E9     5.351898135558394E-1   -1.601442114030494E-1   -2.343238441140959E-2   -4.775298711578733E-2   -2.463888217395697E-2   -4.717672544692691E-2    4.163986086563590E-1   -2.849829834519627E-1
 6.530331542400000E9     5.349358971140534E-1   -1.610721081425254E-1   -2.367362115986184E-2   -4.801897240011913E-2   -2.489319952454721E-2   -4.749897472528069E-2    4.156754047852881E-1   -2.857907003373535E-1
 6.530340695850000E9     5.347496866074292E-1   -1.618087001115018E-1   -2.400313350728428E-2   -4.830270405017385E-2   -2.518820419491124E-2   -4.781117507299772E-2    4.147139642948111E-1   -2.871378743784579E-1
 6.530349849300000E9     5.343352143159592E-1   -1.626610079566913E-1   -2.419345827514983E-2   -4.876058692965010E-2   -2.549532086852166E-2   -4.820892150893601E-2    4.140690946509020E-1   -2.880724669279989E-1
 6.530359002750000E9     5.340537018724409E-1   -1.635067524400677E-1   -2.446486498822778E-2   -4.909691524888428E-2   -2.579525303841951E-2   -4.837036901137043E-2    4.129405952583771E-1   -2.888941978114120E-1
 6.530368156200000E9     5.338500131124397E-1   -1.643031408024529E-1   -2.487418484608478E-2   -4.941581148376074E-2   -2.610196442215801E-2   -4.874836806150830E-2    4.123592081148438E-1   -2.899142235119494E-1
 6.530377309650000E9     5.333858620758208E-1   -1.652162436291125E-1   -2.526964527434401E-2   -4.971764979300086E-2   -2.644626580887055E-2   -4.905273552503922E-2    4.114362624491819E-1   -2.910059204655800E-1
 6.530386463100000E9     5.331238861892347E-1   -1.660948353865686E-1   -2.545271019515030E-2   -4.987725568424021E-2   -2.676231184450508E-2   -4.936409387271438E-2    4.104691032971357E-1   -2.920520556521634E-1
 6.530395616550000E9     5.328505636212760E-1   -1.670032657917558E-1   -2.589798647035127E-2   -5.026733504327337E-2   -2.708912099593032E-2   -4.972183833813225E-2    4.096190506871135E-1   -2.929937254139062E-1
 6.530404770000000E9     5.324236897653362E-1   -1.677982974387434E-1   -2.609252164318433E-2   -5.072163992105211E-2   -2.748442149563630E-2   -5.000845565145951E-2    4.087934342917381E-1   -2.942541543957419E-1
 6.530413923450000E9     5.320817809406895E-1   -1.686285821764882E-1   -2.661782044416789E-2   -5.115321503642002E-2   -2.781437861979402E-2   -5.036870835712264E-2    4.077864303803760E-1   -2.953760788436652E-1
 6.530423076900000E9     5.317801725052640E-1   -1.694457662015728E-1   -2.672931886609980E-2   -5.140290954713556E-2   -2.817062660427253E-2   -5.062892549730748E-2    4.069144341600360E-1   -2.964027129689308E-1
 6.530432230350000E9     5.314696190468718E-1   -1.704432159410371E-1   -2.709336419430067E-2   -5.178709494977599E-2   -2.853439854773153E-2   -5.090454395753881E-2    4.060226332802099E-1   -2.975217635001811E-1
 6.530441383800000E9     5.311136609181052E-1   -1.711818792156163E-1   -2.759936780196909E-2   -5.212339608746722E-2   -2.876685407928007E-2   -5.146333427200699E-2    4.050529849325242E-1   -2.984541192735586E-1
 6.530450537250000E9     5.306997816256023E-1   -1.722084054477360E-1   -2.786120074796047E-2   -5.246082891734778E-2   -2.927656262216484E-2   -5.169809305135044E-2    4.040518437076045E-1   -2.996704020269224E-1
 6.530459690700000E9     5.303350418282898E-1   -1.730150011824187E-1   -2.816922327122796E-2   -5.283074477040373E-2   -2.959058609260269E-2   -5.204287755489075E-2    4.031498574583802E-1   -3.007601402773027E-1
 6.530468844150000E9     5.300874444975551E-1   -1.737906476080479E-1   -2.864731509708550E-2   -5.311291299917037E-2   -3.009203814033253E-2   -5.237420996316620E-2    4.019903770806932E-1   -3.019106164699515E-1
 6.530477997600000E9     5.294811845816699E-1   -1.747830783624927E-1   -2.898985965277326E-2   -5.345921708767813E-2   -3.049194651712968E-2   -5.281661057690275E-2    4.010878052924053E-1   -3.029917579807170E-1
 6.530487151050000E9     5.292729593020852E-1   -1.757225997878535E-1   -2.933029269068466E-2   -5.378623645813441E-2   -3.088873072615418E-2   -5.319493582416240E-2    3.999728471452217E-1   -3.040091306859863E-1
 6.530496304500000E9     5.289053573798911E-1   -1.764946348773032E-1   -2.987049111229544E-2   -5.431010227833270E-2   -3.125197304724899E-2   -5.358051310081955E-2    3.989340944173645E-1   -3.052167753638773E-1
