#  HZ   S   RI   R     50.00 
! Rohde & Schwarz Vector Network Analyzer 
! Rohde-Schwarz,ZNB20-2Port,1311601062101988,3.16
! Created: UTC 3/21/2024, 1:23:02 AM
! freq[Hz]                re:S11                  im:S11                  re:S21                  im:S21                  re:S12                  im:S12                  re:S22                  im:S22
 6.529690254000000E9     5.500397102264163E-1   -1.059477387639430E-1   -1.108382739142772E-2   -3.310731904577062E-2   -1.191592758278958E-2   -3.293750345911697E-2    4.558723567566269E-1   -2.242557225098475E-1
 6.529699372800000E9     5.499477732345570E-1   -1.068924681613434E-1   -1.141677972804684E-2   -3.336156995618546E-2   -1.192637358829565E-2   -3.307263503653612E-2    4.556412074877492E-1   -2.248612608126843E-1
 6.529708491600000E9     5.497241162198793E-1   -1.074984530558217E-1   -1.133327064506089E-2   -3.345485803946601E-2   -1.205689263736401E-2   -3.315825350255912E-2    4.551324423611474E-1   -2.258228476232430E-1
 6.529717610400000E9     5.495063627972169E-1   -1.082241673405561E-1   -1.144997427674210E-2   -3.366040740624512E-2   -1.230864600187461E-2   -3.333970317463873E-2    4.548335307005271E-1   -2.265907920056382E-1
 6.529726729200000E9     5.493856104771945E-1   -1.089543593765750E-1   -1.162621495429212E-2   -3.373476066664148E-2   -1.230848525557718E-2   -3.348716662457301E-2    4.543048037873433E-1   -2.273179608115594E-1
 6.529735848000000E9     5.492288180661449E-1   -1.097159994308418E-1   -1.164613640792812E-2   -3.379142289417238E-2   -1.238239744237752E-2   -3.365940346887467E-2    4.538945027322886E-1   -2.281210149402972E-1
 6.529744966800000E9     5.490462721537618E-1   -1.104013418911150E-1   -1.181658010232755E-2   -3.403487039703612E-2   -1.256946124273413E-2   -3.375282357823053E-2    4.534559730447191E-1   -2.289949019803323E-1
 6.529754085600000E9     5.490115905708530E-1   -1.111664669681785E-1   -1.179212245553431E-2   -3.403092583420354E-2   -1.272169469619626E-2   -3.403834489980260E-2    4.529411796444932E-1   -2.297792934932299E-1
 6.529763204400000E9     5.487910135174691E-1   -1.119127099362790E-1   -1.193265714873023E-2   -3.422725063969993E-2   -1.286141843527844E-2   -3.409465951654047E-2    4.524765844470742E-1   -2.304122351208306E-1
 6.529772323200000E9     5.486507900519956E-1   -1.126612642538815E-1   -1.210756640672992E-2   -3.449698659809888E-2   -1.288010666292025E-2   -3.428897143391056E-2    4.521688979157742E-1   -2.311433338063514E-1
 6.529781442000000E9     5.483596866086772E-1   -1.135301890455942E-1   -1.229976608925457E-2   -3.457133902109133E-2   -1.302889574463086E-2   -3.435471226730383E-2    4.516244072391329E-1   -2.320528522748459E-1
 6.529790560800000E9     5.482894439009273E-1   -1.142435839602529E-1   -1.240948341885310E-2   -3.471723267344266E-2   -1.313073410707562E-2   -3.458769130011097E-2    4.515097793538364E-1   -2.328148184409117E-1
 6.529799679600000E9     5.482325400879612E-1   -1.149433488676323E-1   -1.238518082061999E-2   -3.498635924524913E-2   -1.334939578992826E-2   -3.470027260049918E-2    4.507113323387478E-1   -2.336623880247943E-1
 6.529808798400000E9     5.479417811189832E-1   -1.156929791770356E-1   -1.267928386694909E-2   -3.504775211353238E-2   -1.341759560080528E-2   -3.486393901464688E-2    4.502946602282693E-1   -2.343897739473674E-1
 6.529817917200000E9     5.477690062486219E-1   -1.163342296754579E-1   -1.286012338185512E-2   -3.525570862906683E-2   -1.353710903134837E-2   -3.504980493193530E-2    4.499391598432375E-1   -2.353357049101894E-1
 6.529827036000000E9     5.476531227743791E-1   -1.173126469135386E-1   -1.295180513161504E-2   -3.553153653996357E-2   -1.373366724849141E-2   -3.525532436508399E-2    4.494238133048225E-1   -2.360165008144603E-1
 6.529836154800000E9     5.474354463553680E-1   -1.178332740427844E-1   -1.290378847191084E-2   -3.552187415844713E-2   -1.370919792950207E-2   -3.536211944827074E-2    4.489605156148954E-1   -2.367455340592258E-1
 6.529845273600000E9     5.472671158013515E-1   -1.187231098660052E-1   -1.308745228734616E-2   -3.569011153851941E-2   -1.398733126984481E-2   -3.548054708926563E-2    4.485034739252358E-1   -2.374682895017723E-1
 6.529854392400000E9     5.471356645670054E-1   -1.194376109565709E-1   -1.323699696851935E-2   -3.593377113575368E-2   -1.405319010592127E-2   -3.565612599212249E-2    4.481213356233243E-1   -2.383927942647663E-1
 6.529863511200000E9     5.469914962457459E-1   -1.201978022273534E-1   -1.332551589114621E-2   -3.608253849890387E-2   -1.426775820081093E-2   -3.586738933130412E-2    4.476577551671722E-1   -2.392159533362101E-1
 6.529872630000000E9     5.467361598242129E-1   -1.208038646655905E-1   -1.352083295101979E-2   -3.618603051743574E-2   -1.420574468507814E-2   -3.595939227879923E-2    4.472363682033347E-1   -2.402143795558352E-1
 6.529881748800000E9     5.465825784011004E-1   -1.217380929704623E-1   -1.380086021978160E-2   -3.641181604478114E-2   -1.453819974572419E-2   -3.609592191880311E-2    4.466384485314083E-1   -2.409819061103165E-1
 6.529890867600000E9     5.463464077001812E-1   -1.225512282326928E-1   -1.383691701071541E-2   -3.660258682791663E-2   -1.465317758701458E-2   -3.622917147497638E-2    4.460487387300479E-1   -2.417192572848822E-1
 6.529899986400000E9     5.462585015864573E-1   -1.232277721165429E-1   -1.395296857392140E-2   -3.678656564385462E-2   -1.484320930187099E-2   -3.648639002795544E-2    4.457113703798117E-1   -2.426296760234532E-1
 6.529909105200000E9     5.460265979890272E-1   -1.239630535841216E-1   -1.406607602847814E-2   -3.700479835733966E-2   -1.497811081388423E-2   -3.672566239627082E-2    4.450643661676835E-1   -2.433418646794555E-1
 6.529918224000000E9     5.458744339237089E-1   -1.247424879839969E-1   -1.420846861732501E-2   -3.717988231945286E-2   -1.512791605975579E-2   -3.675446355428072E-2    4.445300057701103E-1   -2.442836391971819E-1
 6.529927342800000E9     5.456361128123193E-1   -1.254722535213653E-1   -1.434027755448858E-2   -3.726525352611554E-2   -1.521370116851167E-2   -3.708911120851510E-2    4.439532304744652E-1   -2.451295992091540E-1
 6.529936461600000E9     5.455482292342412E-1   -1.262700622544266E-1   -1.451831169231011E-2   -3.738672430506154E-2   -1.551116551692487E-2   -3.713407312355723E-2    4.437132883303012E-1   -2.458857218164305E-1
 6.529945580400000E9     5.452366497380269E-1   -1.270347918892080E-1   -1.472735612979005E-2   -3.772655292711376E-2   -1.563136684843129E-2   -3.740659122072915E-2    4.432343321767389E-1   -2.466762084141820E-1
 6.529954699200000E9     5.450146899764173E-1   -1.277437950494090E-1   -1.482505775697264E-2   -3.789233792597672E-2   -1.576641409565722E-2   -3.751227055647966E-2    4.426416922214816E-1   -2.476555883245786E-1
 6.529963818000000E9     5.448759702199685E-1   -1.284962071557468E-1   -1.500043403124998E-2   -3.808499039254135E-2   -1.591439985453650E-2   -3.772708175195347E-2    4.421279962661434E-1   -2.484530041600826E-1
 6.529972936800000E9     5.446792717905851E-1   -1.292405871536987E-1   -1.513829040914729E-2   -3.825238906497795E-2   -1.599013565462333E-2   -3.798121293348983E-2    4.415832418409353E-1   -2.493203852654299E-1
 6.529982055600000E9     5.444662885402261E-1   -1.300342335163596E-1   -1.532170068881103E-2   -3.839343429014846E-2   -1.615679953634813E-2   -3.806065371840911E-2    4.410158324244842E-1   -2.501947730791999E-1
 6.529991174400000E9     5.442312064106984E-1   -1.308700237445783E-1   -1.553006534312546E-2   -3.850624795389176E-2   -1.633036192988294E-2   -3.835231280358155E-2    4.404695750031530E-1   -2.510309005254124E-1
 6.530000293200000E9     5.440634464970836E-1   -1.316869740402790E-1   -1.557151472638878E-2   -3.889270511830627E-2   -1.660504775264317E-2   -3.854820606837956E-2    4.399672139900343E-1   -2.519194455194657E-1
 6.530009412000000E9     5.438251345533408E-1   -1.323965060853697E-1   -1.575564264370288E-2   -3.896410028548430E-2   -1.670464077319038E-2   -3.878920029472961E-2    4.395211228920102E-1   -2.527449501137460E-1
 6.530018530800000E9     5.436874833139128E-1   -1.331868785054963E-1   -1.602559563791376E-2   -3.920552607283634E-2   -1.694316501113656E-2   -3.896710548322187E-2    4.390170790448690E-1   -2.535998863985037E-1
 6.530027649600000E9     5.433825643878597E-1   -1.339349824425318E-1   -1.612484613937714E-2   -3.951385493292887E-2   -1.709167837912254E-2   -3.918038862453760E-2    4.385561554639771E-1   -2.545532704209872E-1
 6.530036768400000E9     5.432268754634059E-1   -1.347099218371558E-1   -1.634477787050069E-2   -3.962242780895567E-2   -1.724386139223485E-2   -3.925901733492329E-2    4.378964903746187E-1   -2.552694378166431E-1
 6.530045887200000E9     5.429253353048438E-1   -1.355114237235019E-1   -1.658171105148069E-2   -3.991877472218926E-2   -1.738725431509223E-2   -3.955402169319110E-2    4.371822249798313E-1   -2.562638263388672E-1
 6.530055006000000E9     5.427929122624350E-1   -1.362492007255154E-1   -1.675021003678580E-2   -4.009359557865908E-2   -1.759980061591668E-2   -3.972826345034922E-2    4.365756044883059E-1   -2.570559086454751E-1
 6.530064124800000E9     5.425513657344933E-1   -1.369879806520208E-1   -1.677245756559363E-2   -4.029802671239237E-2   -1.782500720487997E-2   -4.000271997455727E-2    4.362469604408863E-1   -2.578112409804902E-1
 6.530073243600000E9     5.423578301443807E-1   -1.377759045291126E-1   -1.707884476154115E-2   -4.057633787739968E-2   -1.797313018904341E-2   -4.014795567256550E-2    4.354869972436963E-1   -2.589869861960134E-1
 6.530082362400000E9     5.421695011834664E-1   -1.386578928803575E-1   -1.714616943544800E-2   -4.055745234728673E-2   -1.811866894474435E-2   -4.035862979199176E-2    4.349744244245889E-1   -2.597167732592038E-1
 6.530091481200000E9     5.419062373025800E-1   -1.393556823746097E-1   -1.733042055344517E-2   -4.094939507741627E-2   -1.828062034429649E-2   -4.052513314607738E-2    4.343341528860990E-1   -2.605280865304670E-1
 6.530100600000000E9     5.417750473719593E-1   -1.402269161701891E-1   -1.747038031141607E-2   -4.122294163939311E-2   -1.858566263284682E-2   -4.077578579998013E-2    4.335877170943838E-1   -2.615246740291872E-1
 6.530109718800000E9     5.414598177607098E-1   -1.409728542215068E-1   -1.762210165412555E-2   -4.141165482561527E-2   -1.876085923268025E-2   -4.102327689942149E-2    4.332396675783834E-1   -2.622507404929318E-1
 6.530118837600000E9     5.412984186545325E-1   -1.417790509377391E-1   -1.798260765798923E-2   -4.167162655602276E-2   -1.902729864580948E-2   -4.127052861745795E-2    4.326400483795624E-1   -2.632627527785370E-1
 6.530127956400000E9     5.409551678755220E-1   -1.425448057373684E-1   -1.821089703763422E-2   -4.178520430165007E-2   -1.915379932412175E-2   -4.145245749435196E-2    4.320181465413347E-1   -2.641748778525134E-1
 6.530137075200000E9     5.407798154983362E-1   -1.432336138860766E-1   -1.832845800546270E-2   -4.211394883662371E-2   -1.938429614170059E-2   -4.171027180834999E-2    4.313447344948257E-1   -2.650583633799380E-1
 6.530146194000000E9     5.404664439030343E-1   -1.440718385680275E-1   -1.849969342406306E-2   -4.236648649767214E-2   -1.952291148013575E-2   -4.191211587585984E-2    4.305681935569593E-1   -2.660212771000230E-1
 6.530155312800000E9     5.402638629437765E-1   -1.449441248408896E-1   -1.880887338272826E-2   -4.246692693842646E-2   -1.976560677972693E-2   -4.225624792668743E-2    4.299704465642915E-1   -2.668649346799450E-1
 6.530164431600000E9     5.399218487843421E-1   -1.457717191095240E-1   -1.893621974387805E-2   -4.286138958352440E-2   -2.003646805098738E-2   -4.228694175703197E-2    4.292850037291639E-1   -2.678811893020914E-1
 6.530173550400000E9     5.398002225188313E-1   -1.464743048122123E-1   -1.908926203906200E-2   -4.314310726617872E-2   -2.022758002936685E-2   -4.264460832611876E-2    4.286587955872002E-1   -2.687730680020801E-1
 6.530182669200000E9     5.394990375233539E-1   -1.472858257179630E-1   -1.934334795409985E-2   -4.329661367621428E-2   -2.047233348174135E-2   -4.294402713835095E-2    4.281028906300443E-1   -2.696696399552625E-1
 6.530191788000000E9     5.393310508512793E-1   -1.480715951503997E-1   -1.949117300568994E-2   -4.363648637432523E-2   -2.062214645013676E-2   -4.317342882662566E-2    4.273745583628934E-1   -2.705736287147165E-1
 6.530200906800000E9     5.390484295616881E-1   -1.489712757279486E-1   -1.976947770057510E-2   -4.393997535579405E-2   -2.090610420459180E-2   -4.343126694367128E-2    4.268532681114229E-1   -2.715675013917372E-1
 6.530210025600000E9     5.388698677870867E-1   -1.497215765611957E-1   -1.999473267625591E-2   -4.399647321962969E-2   -2.118269386990940E-2   -4.356593049970865E-2    4.260107256097531E-1   -2.724672092676992E-1
 6.530219144400000E9     5.385511150651979E-1   -1.506787083009951E-1   -2.022406868369301E-2   -4.426827453134862E-2   -2.135360471908867E-2   -4.385768131551154E-2    4.253792924704847E-1   -2.734043145417193E-1
 6.530228263200000E9     5.382044417845188E-1   -1.514026325712965E-1   -2.050737489856472E-2   -4.453633073654703E-2   -2.159932154216395E-2   -4.404348103760739E-2    4.246444953861271E-1   -2.742750728931660E-1
 6.530237382000000E9     5.379109197903221E-1   -1.522266460552496E-1   -2.076419903915176E-2   -4.472035175144116E-2   -2.179707825952419E-2   -4.436153034330137E-2    4.239737595440920E-1   -2.752535324671339E-1
 6.530246500800000E9     5.376985170487864E-1   -1.529332587683503E-1   -2.095095133553055E-2   -4.510929358297826E-2   -2.206196256648989E-2   -4.467046601297060E-2    4.232830327579345E-1   -2.763527878272607E-1
 6.530255619600000E9     5.375101864865212E-1   -1.538202600695951E-1   -2.124632741185072E-2   -4.524608407921650E-2   -2.235735522224615E-2   -4.497252682293518E-2    4.224858974066671E-1   -2.772067431086759E-1
 6.530264738400000E9     5.372377355664679E-1   -1.545795053531374E-1   -2.144244826200030E-2   -4.569662993111635E-2   -2.266869414977521E-2   -4.515531065617216E-2    4.217506861667957E-1   -2.782654220659674E-1
 6.530273857200000E9     5.369589891706024E-1   -1.553816844040889E-1   -2.186168403048620E-2   -4.584898139945316E-2   -2.288860041358393E-2   -4.553227541707756E-2    4.211526976968725E-1   -2.792604157886878E-1
 6.530282976000000E9     5.366530124180466E-1   -1.562974960962454E-1   -2.216680335018737E-2   -4.631547518741827E-2   -2.326365057341398E-2   -4.582154732239818E-2    4.204826208133324E-1   -2.803335609845473E-1
 6.530292094800000E9     5.362884372855193E-1   -1.569444792097613E-1   -2.219806951751287E-2   -4.647774913578365E-2   -2.347220243123500E-2   -4.607233028388320E-2    4.195800808694751E-1   -2.809676979430050E-1
 6.530301213600000E9     5.359165135620751E-1   -1.578597583083680E-1   -2.249251472706741E-2   -4.679719869876205E-2   -2.371952292826582E-2   -4.632544418380486E-2    4.186843078176884E-1   -2.821336872613576E-1
 6.530310332400000E9     5.356512967316069E-1   -1.586829675006169E-1   -2.287352079443023E-2   -4.705126170970032E-2   -2.395020339883980E-2   -4.655790671109560E-2    4.179900776746245E-1   -2.829985241559482E-1
 6.530319451200000E9     5.354991736400937E-1   -1.595893403898368E-1   -2.306706979868466E-2   -4.748734743526846E-2   -2.429956424081885E-2   -4.696494407869824E-2    4.171960292050853E-1   -2.840351585025695E-1
 6.530328570000000E9     5.351215242720565E-1   -1.602385767776250E-1   -2.328249101314811E-2   -4.767973736464238E-2   -2.458932498869814E-2   -4.707865336316680E-2    4.165827126193158E-1   -2.849286969894706E-1
 6.530337688800000E9     5.349211003154359E-1   -1.612530325786631E-1   -2.368379406125894E-2   -4.796310741128366E-2   -2.481146427913365E-2   -4.738221720124126E-2    4.157706897050578E-1   -2.861356234127497E-1
 6.530346807600000E9     5.345995454309681E-1   -1.619676400441839E-1   -2.382199956555118E-2   -4.816406050971848E-2   -2.521074767249715E-2   -4.775102113109101E-2    4.148729200393660E-1   -2.870681507804220E-1
 6.530355926400000E9     5.342664548774744E-1   -1.628875206124385E-1   -2.424042180782042E-2   -4.867333377165001E-2   -2.551742662354579E-2   -4.800699307457097E-2    4.139759547356001E-1   -2.882160406782899E-1
 6.530365045200000E9     5.339501941913976E-1   -1.636743157916082E-1   -2.443979149177791E-2   -4.898885318792769E-2   -2.581646153763753E-2   -4.838483147945550E-2    4.132133279787427E-1   -2.891710202689469E-1
 6.530374164000000E9     5.335752054246531E-1   -1.644556071942262E-1   -2.478851152814470E-2   -4.929308967116127E-2   -2.609646018684295E-2   -4.866571828788961E-2    4.124384534853699E-1   -2.901545071973883E-1
 6.530383282800000E9     5.333048062582429E-1   -1.654309809455393E-1   -2.508908281282996E-2   -4.950040983148935E-2   -2.637807578981206E-2   -4.901120233346423E-2    4.115384383202747E-1   -2.912610525301298E-1
 6.530392401600000E9     5.329551895595001E-1   -1.661307968586229E-1   -2.534665503377954E-2   -4.987484103092316E-2   -2.673899049470561E-2   -4.932692550863058E-2    4.105209384930916E-1   -2.922638279662776E-1
 6.530401520400000E9     5.327661844851106E-1   -1.671845196151744E-1   -2.571592748404978E-2   -5.007490836544389E-2   -2.702999378868701E-2   -4.949559536040027E-2    4.098109115178070E-1   -2.931825593411317E-1
 6.530410639200000E9     5.323932219396877E-1   -1.680271137758917E-1   -2.619572819420417E-2   -5.062888169706885E-2   -2.741487246591700E-2   -4.990251556903450E-2    4.088885600066724E-1   -2.942716392553577E-1
 6.530419758000000E9     5.319577296991144E-1   -1.687572528065253E-1   -2.637337736487612E-2   -5.090976449988881E-2   -2.774299813173615E-2   -5.030798708581735E-2    4.079332465113066E-1   -2.954530137378588E-1
 6.530428876800000E9     5.317329857746188E-1   -1.696532638442077E-1   -2.680987829512648E-2   -5.128174659688337E-2   -2.809062474468283E-2   -5.049870548950489E-2    4.069320901936599E-1   -2.964698976624127E-1
 6.530437995600000E9     5.313765162710791E-1   -1.705219333878333E-1   -2.708684259515266E-2   -5.156625763157293E-2   -2.847360563830620E-2   -5.088265808104468E-2    4.059874990425000E-1   -2.974907487845159E-1
 6.530447114400000E9     5.309058977696052E-1   -1.713382730979529E-1   -2.736754883722685E-2   -5.192441231335342E-2   -2.884576032627669E-2   -5.137980285618745E-2    4.050100407644456E-1   -2.987263451954222E-1
 6.530456233200000E9     5.305925307377357E-1   -1.722843388988792E-1   -2.780423091257478E-2   -5.234323187745929E-2   -2.922853176909780E-2   -5.173357696023879E-2    4.043209836988567E-1   -2.997190282873852E-1
 6.530465352000000E9     5.302620875296525E-1   -1.731519256208715E-1   -2.818858402135283E-2   -5.269501194817357E-2   -2.956744579020520E-2   -5.204532019093419E-2    4.033212381057247E-1   -3.007181298203073E-1
 6.530474470800000E9     5.298639080683157E-1   -1.739842749919879E-1   -2.859222473738336E-2   -5.293391083996041E-2   -3.000384107340163E-2   -5.226369307775554E-2    4.020463787496231E-1   -3.017240819533326E-1
 6.530483589600000E9     5.295458339995026E-1   -1.749120230190272E-1   -2.889519264511364E-2   -5.337767745752701E-2   -3.047209436555512E-2   -5.271768343788802E-2    4.011971714635096E-1   -3.030912803173249E-1
 6.530492708400000E9     5.290686006013577E-1   -1.758216454595294E-1   -2.930090036661191E-2   -5.378259781298574E-2   -3.085313714332428E-2   -5.311736019323515E-2    4.001909809989970E-1   -3.043732676988893E-1
 6.530501827200000E9     5.288887745195940E-1   -1.766460972849924E-1   -2.967337245448958E-2   -5.423579163978228E-2   -3.120384968426036E-2   -5.342940641211982E-2    3.990672749336166E-1   -3.053175141203078E-1
 6.530510946000000E9     5.284140576122164E-1   -1.776044438273153E-1   -3.018427478004850E-2   -5.448922126715780E-2   -3.161368695912899E-2   -5.380446998484403E-2    3.980999714799895E-1   -3.065065692041049E-1
