#  HZ   S   RI   R     50.00 
! Rohde & Schwarz Vector Network Analyzer 
! Rohde-Schwarz,ZNB20-2Port,1311601062101988,3.16
! Created: UTC 3/21/2024, 1:23:12 AM
! freq[Hz]                re:S11                  im:S11                  re:S21                  im:S21                  re:S12                  im:S12                  re:S22                  im:S22
 6.529680360000000E9     5.501361048945941E-1   -1.051452123627299E-1   -1.104035490318719E-2   -3.297548730441392E-2   -1.178729750653068E-2   -3.275265431896310E-2    4.563601119680000E-1   -2.233922525537566E-1
 6.529689513925000E9     5.500898175858990E-1   -1.059611809599941E-1   -1.116094018758688E-2   -3.322885046285971E-2   -1.186704156878049E-2   -3.285158576587539E-2    4.560298652293009E-1   -2.240517355912908E-1
 6.529698667850000E9     5.499136777412541E-1   -1.066733025795712E-1   -1.123389383962405E-2   -3.338308347151797E-2   -1.202320994625991E-2   -3.296442007710507E-2    4.555414592020023E-1   -2.248044739628190E-1
 6.529707821775000E9     5.498152190845020E-1   -1.073798781099696E-1   -1.140253542167967E-2   -3.338259339440965E-2   -1.207972984414793E-2   -3.320288937857187E-2    4.552977830293212E-1   -2.257485585449123E-1
 6.529716975700000E9     5.495284299817055E-1   -1.081666654255085E-1   -1.150122061248895E-2   -3.359772565841473E-2   -1.231062084181284E-2   -3.335612839789573E-2    4.549617452952608E-1   -2.264802176789435E-1
 6.529726129625000E9     5.494743608087805E-1   -1.088816413489942E-1   -1.158811876253961E-2   -3.378940048296350E-2   -1.233161797218411E-2   -3.346635214394678E-2    4.542012945350035E-1   -2.272338877369784E-1
 6.529735283550000E9     5.494050075962632E-1   -1.096288249221771E-1   -1.160324649333723E-2   -3.384852255319710E-2   -1.245739599560926E-2   -3.361760156590917E-2    4.538315394638127E-1   -2.279798449651232E-1
 6.529744437475000E9     5.491149820716177E-1   -1.104702662511683E-1   -1.172097153433646E-2   -3.416389732967583E-2   -1.250329377320709E-2   -3.373355937983943E-2    4.533309592027657E-1   -2.287790638677905E-1
 6.529753591400000E9     5.489652389107196E-1   -1.110529378647952E-1   -1.191687833248648E-2   -3.414086455912916E-2   -1.274410951637361E-2   -3.391885658691482E-2    4.529730984228716E-1   -2.295523341908638E-1
 6.529762745325000E9     5.488406680768682E-1   -1.118322876696845E-1   -1.205383140529052E-2   -3.439274895140067E-2   -1.282711877738172E-2   -3.409974498994157E-2    4.526751240233390E-1   -2.304157962418120E-1
 6.529771899250000E9     5.486643406004375E-1   -1.125198965203172E-1   -1.207791769985881E-2   -3.442226843344112E-2   -1.298740407380173E-2   -3.429667494205395E-2    4.521693652917923E-1   -2.311514934862714E-1
 6.529781053175000E9     5.484211463081713E-1   -1.134279576438206E-1   -1.233391435455109E-2   -3.454233313844421E-2   -1.316175854991486E-2   -3.431775494454375E-2    4.517635828885331E-1   -2.319438120903646E-1
 6.529790207100000E9     5.483197792548397E-1   -1.141710749268812E-1   -1.238966935777632E-2   -3.481184870700280E-2   -1.319863745708032E-2   -3.451960513652753E-2    4.513456546010104E-1   -2.327635193627159E-1
 6.529799361025000E9     5.480995015477388E-1   -1.148954309970497E-1   -1.255358905647755E-2   -3.491949907238487E-2   -1.336590606029434E-2   -3.466174325569783E-2    4.507933550728215E-1   -2.337719020819055E-1
 6.529808514950000E9     5.480490289374212E-1   -1.157003938078234E-1   -1.263921295653673E-2   -3.498010377890379E-2   -1.353269787377216E-2   -3.486256098157185E-2    4.501880075546100E-1   -2.344701602741144E-1
 6.529817668875000E9     5.478044153378939E-1   -1.163961396574494E-1   -1.277134996659487E-2   -3.517846303150694E-2   -1.355746196720658E-2   -3.507435882533687E-2    4.499222558219089E-1   -2.352343564890974E-1
 6.529826822800000E9     5.475935603451739E-1   -1.171868819918979E-1   -1.288104803313283E-2   -3.544446703550907E-2   -1.368617436345355E-2   -3.524310949304574E-2    4.495395316918577E-1   -2.360975049766061E-1
 6.529835976725000E9     5.474840629737578E-1   -1.178177451551254E-1   -1.288808471767702E-2   -3.565077854036627E-2   -1.382163273215753E-2   -3.543666755315178E-2    4.489567344519050E-1   -2.367890612810287E-1
 6.529845130650000E9     5.472158840736712E-1   -1.186124717214646E-1   -1.321519002604541E-2   -3.571230956877992E-2   -1.398068703298564E-2   -3.556143240666037E-2    4.485038387595644E-1   -2.376863103074491E-1
 6.529854284575000E9     5.471668534724370E-1   -1.193960336665634E-1   -1.330947778073335E-2   -3.593827235161296E-2   -1.412327113563775E-2   -3.566897571503565E-2    4.479470104830269E-1   -2.384123968382861E-1
 6.529863438500000E9     5.470242149436829E-1   -1.201226755424107E-1   -1.333996002834902E-2   -3.618118295812547E-2   -1.426067651839682E-2   -3.587400781985375E-2    4.475624750858576E-1   -2.392282685167186E-1
 6.529872592425000E9     5.467871357269638E-1   -1.208292324101408E-1   -1.346479669854219E-2   -3.625403004128310E-2   -1.453016056447491E-2   -3.609674964905455E-2    4.470148444406404E-1   -2.401208871514408E-1
 6.529881746350000E9     5.465726596034339E-1   -1.217956981408157E-1   -1.353064819414165E-2   -3.640395305487138E-2   -1.453740388747870E-2   -3.629284654942246E-2    4.464941878148755E-1   -2.409904965394072E-1
 6.529890900275000E9     5.463565438933307E-1   -1.224506636078454E-1   -1.379536372626366E-2   -3.675103788846299E-2   -1.461331682367483E-2   -3.630311550104452E-2    4.460379265799150E-1   -2.418148794469549E-1
 6.529900054200000E9     5.462374111784244E-1   -1.232643804778072E-1   -1.403843090401208E-2   -3.685051437455699E-2   -1.483948909363674E-2   -3.657415265633382E-2    4.456220210593443E-1   -2.426717272862481E-1
 6.529909208125000E9     5.460572636231293E-1   -1.240037200588067E-1   -1.418571118330187E-2   -3.705565493008759E-2   -1.500386789562231E-2   -3.671635769447719E-2    4.450895044657281E-1   -2.434141463742751E-1
 6.529918362050000E9     5.458523795012381E-1   -1.247318658948630E-1   -1.435381996898657E-2   -3.717254291976372E-2   -1.516986528070689E-2   -3.687791444648231E-2    4.446299648590696E-1   -2.443389549011938E-1
 6.529927515975000E9     5.456690987510067E-1   -1.254405272991795E-1   -1.454002776553896E-2   -3.739378181423506E-2   -1.526939707676620E-2   -3.706472708503465E-2    4.439746676829062E-1   -2.449941737993283E-1
 6.529936669900000E9     5.454881456502937E-1   -1.262874511816329E-1   -1.450492474986139E-2   -3.747649875731785E-2   -1.539899784216912E-2   -3.735670926796592E-2    4.435376106973579E-1   -2.456834060052365E-1
 6.529945823825000E9     5.453466238735016E-1   -1.270000312335897E-1   -1.470741050711350E-2   -3.769648220317578E-2   -1.563689293911788E-2   -3.744687504371550E-2    4.430713668906916E-1   -2.468477543801263E-1
 6.529954977750000E9     5.450501118474951E-1   -1.277623596405987E-1   -1.494876917850431E-2   -3.794791601898333E-2   -1.580058987332168E-2   -3.764925447884706E-2    4.426091048595684E-1   -2.475605638453772E-1
 6.529964131675000E9     5.448353441762521E-1   -1.285482420843813E-1   -1.505376051664719E-2   -3.823299254127271E-2   -1.588486376658880E-2   -3.781006217915250E-2    4.421042717700112E-1   -2.484680861647505E-1
 6.529973285600000E9     5.446467910046472E-1   -1.293705434271046E-1   -1.515467074075783E-2   -3.828826126265944E-2   -1.610389413126029E-2   -3.803429038176068E-2    4.415597878113199E-1   -2.493278423806374E-1
 6.529982439525000E9     5.443725038612458E-1   -1.300834781900499E-1   -1.531378448801902E-2   -3.835304170812948E-2   -1.630571928540599E-2   -3.820405955588875E-2    4.409385568058110E-1   -2.500640254962417E-1
 6.529991593450000E9     5.443540074879890E-1   -1.308879703493236E-1   -1.552516000442208E-2   -3.874409267643152E-2   -1.633352316486865E-2   -3.844687134820166E-2    4.403647031046465E-1   -2.510738349135776E-1
 6.530000747375000E9     5.441159704358366E-1   -1.316440143793814E-1   -1.573619534189700E-2   -3.903914304096591E-2   -1.665852561784819E-2   -3.860978027743429E-2    4.398715859796563E-1   -2.519965254836138E-1
 6.530009901300000E9     5.438222967409546E-1   -1.323348403995228E-1   -1.581112767770997E-2   -3.916171813210566E-2   -1.672660261898995E-2   -3.879344814269972E-2    4.394685243800419E-1   -2.526870767464243E-1
 6.530019055225000E9     5.436345748497619E-1   -1.330158086428435E-1   -1.592415555764424E-2   -3.943163070193197E-2   -1.701403400196311E-2   -3.900375100426740E-2    4.390032007065198E-1   -2.537187261891188E-1
 6.530028209150000E9     5.434066326865346E-1   -1.340262711661863E-1   -1.623881501637440E-2   -3.959439749332479E-2   -1.711809187776807E-2   -3.915949304709148E-2    4.381805185154079E-1   -2.543760887055410E-1
 6.530037363075000E9     5.432197950606943E-1   -1.347883695699550E-1   -1.626223076351606E-2   -3.974292212304965E-2   -1.729974625988190E-2   -3.937954693876315E-2    4.377372336550893E-1   -2.554664826620729E-1
 6.530046517000000E9     5.430202272294332E-1   -1.354554140288396E-1   -1.652722879630358E-2   -3.988916513122661E-2   -1.747411427910692E-2   -3.954484290946121E-2    4.370358822768586E-1   -2.562913424202612E-1
 6.530055670925000E9     5.428140614174438E-1   -1.363730632612027E-1   -1.677119876472104E-2   -4.018196867870071E-2   -1.765071267830250E-2   -3.987345677058932E-2    4.365025418818744E-1   -2.572142984176982E-1
 6.530064824850000E9     5.426477499841597E-1   -1.371924357407449E-1   -1.692231366376277E-2   -4.029013999531297E-2   -1.772698035675569E-2   -4.002166730179887E-2    4.359535756572399E-1   -2.579442448964307E-1
 6.530073978775000E9     5.423986524571203E-1   -1.379540201852955E-1   -1.697352596758254E-2   -4.057561319377085E-2   -1.815853390461392E-2   -4.017633889992097E-2    4.354084686971950E-1   -2.589244059436798E-1
 6.530083132700000E9     5.421092197265225E-1   -1.386202433255786E-1   -1.729742173539702E-2   -4.089792167152691E-2   -1.829735863630725E-2   -4.050700585929535E-2    4.347643021088191E-1   -2.598315319352233E-1
 6.530092286625000E9     5.418930103083376E-1   -1.395261846408739E-1   -1.732646253940843E-2   -4.113403072789815E-2   -1.845195010802463E-2   -4.067262118641223E-2    4.340893538525015E-1   -2.607475585381003E-1
 6.530101440550000E9     5.416521223427642E-1   -1.401881477136189E-1   -1.752766224041224E-2   -4.118869854172599E-2   -1.857491315890177E-2   -4.082020331650967E-2    4.335212666062791E-1   -2.616136008058801E-1
 6.530110594475000E9     5.414013432733654E-1   -1.410528155041652E-1   -1.789190324102159E-2   -4.148476630071596E-2   -1.882365717792868E-2   -4.118017153138986E-2    4.329378500916300E-1   -2.623640673974924E-1
 6.530119748400000E9     5.411468684679261E-1   -1.417248254742062E-1   -1.800948436066584E-2   -4.165641806986189E-2   -1.906727495172818E-2   -4.132179472928151E-2    4.322790089222525E-1   -2.632753152175029E-1
 6.530128902325000E9     5.409954816312454E-1   -1.426314006057940E-1   -1.811761542062764E-2   -4.198238253672046E-2   -1.920036222433306E-2   -4.158620749761580E-2    4.318550652053018E-1   -2.643438592757636E-1
 6.530138056250000E9     5.407041907518897E-1   -1.434835837345984E-1   -1.840229170206570E-2   -4.224243876814831E-2   -1.942967135858576E-2   -4.183347672094457E-2    4.311929048666960E-1   -2.653366394049152E-1
 6.530147210175000E9     5.404869807681336E-1   -1.441348340843641E-1   -1.873003666412312E-2   -4.248293808031064E-2   -1.960135923146265E-2   -4.216312258402468E-2    4.304452785426650E-1   -2.662642775632224E-1
 6.530156364100000E9     5.401555984150811E-1   -1.450786162363125E-1   -1.873118137148528E-2   -4.272534310212918E-2   -1.989896471616616E-2   -4.232816919313408E-2    4.298983498879146E-1   -2.670457393316263E-1
 6.530165518025000E9     5.399795566424836E-1   -1.458527775318675E-1   -1.902129451876425E-2   -4.294271810353632E-2   -2.007820454338319E-2   -4.245835267170436E-2    4.291576953218688E-1   -2.679773425927860E-1
 6.530174671950000E9     5.398115686725263E-1   -1.466447897553678E-1   -1.916909940774152E-2   -4.319916408571276E-2   -2.017564425866571E-2   -4.278802329215837E-2    4.286630392321227E-1   -2.689407202877633E-1
 6.530183825875000E9     5.395709037354171E-1   -1.474728747925535E-1   -1.950829050096974E-2   -4.330544543908361E-2   -2.051860855325620E-2   -4.302265862668832E-2    4.278241425878947E-1   -2.697077056428663E-1
 6.530192979800000E9     5.392968585115274E-1   -1.483014661793645E-1   -1.975105681769921E-2   -4.362665299689620E-2   -2.069166083935523E-2   -4.323049531530843E-2    4.271539712940297E-1   -2.709113939754375E-1
 6.530202133725000E9     5.390258918854481E-1   -1.489788290925082E-1   -1.979037634492265E-2   -4.395327835428575E-2   -2.096864096072540E-2   -4.348402276291892E-2    4.265491700130992E-1   -2.718541063170383E-1
 6.530211287650000E9     5.386980135555143E-1   -1.498883673429142E-1   -2.015901347433097E-2   -4.409157624106115E-2   -2.129388337297775E-2   -4.370021126649171E-2    4.258831144846859E-1   -2.727962012251536E-1
 6.530220441575000E9     5.385190162897522E-1   -1.506259530609049E-1   -2.040399233482962E-2   -4.435559178387508E-2   -2.152927482847587E-2   -4.408218921509818E-2    4.251652632574185E-1   -2.734486721174246E-1
 6.530229595500000E9     5.381557461771491E-1   -1.514171305670969E-1   -2.058721765562240E-2   -4.469348729822743E-2   -2.181969957499807E-2   -4.430596209521228E-2    4.244835315357505E-1   -2.744852655789446E-1
 6.530238749425000E9     5.379508947046091E-1   -1.521828158190922E-1   -2.071476915667696E-2   -4.496694925080469E-2   -2.206904312826910E-2   -4.443136064412828E-2    4.238546587631008E-1   -2.755892087690774E-1
 6.530247903350000E9     5.376858224595092E-1   -1.530847769343183E-1   -2.102318955080094E-2   -4.516690494322139E-2   -2.216420863512725E-2   -4.478197857192014E-2    4.230223208524196E-1   -2.766008478993479E-1
 6.530257057275000E9     5.373144763434879E-1   -1.538846751482876E-1   -2.126243006517052E-2   -4.561538092086305E-2   -2.257453698316650E-2   -4.509582385046174E-2    4.224420262422087E-1   -2.777227374646362E-1
 6.530266211200000E9     5.370441424135998E-1   -1.547023000621026E-1   -2.168707463143296E-2   -4.565523374096943E-2   -2.270763845274533E-2   -4.533800555766330E-2    4.215968023930624E-1   -2.785170839599592E-1
 6.530275365125000E9     5.368735332208570E-1   -1.555222525681428E-1   -2.181560394774967E-2   -4.613018245355607E-2   -2.296039889458210E-2   -4.557789795215977E-2    4.207903538559409E-1   -2.793721664382916E-1
 6.530284519050000E9     5.364879505846966E-1   -1.562812750154900E-1   -2.217172075963708E-2   -4.632698784053076E-2   -2.325446702064844E-2   -4.601604719574599E-2    4.200300436708398E-1   -2.804793588272382E-1
 6.530293672975000E9     5.363144954586135E-1   -1.572275856588941E-1   -2.261545332469703E-2   -4.660971954973735E-2   -2.352634283418881E-2   -4.615899557001717E-2    4.194151192089934E-1   -2.813898099132067E-1
 6.530302826900000E9     5.359120274424589E-1   -1.579745434695846E-1   -2.252845104539239E-2   -4.683654119985025E-2   -2.389722736097411E-2   -4.649614359943474E-2    4.186106060610439E-1   -2.823109021592040E-1
 6.530311980825000E9     5.357471897527644E-1   -1.589063769099555E-1   -2.279851479611089E-2   -4.716022335109356E-2   -2.415089928790738E-2   -4.675745622306363E-2    4.177236322542970E-1   -2.833036493715818E-1
 6.530321134750000E9     5.353506263331960E-1   -1.596735583239017E-1   -2.313240229857762E-2   -4.763498296741002E-2   -2.446423018643051E-2   -4.694094051185453E-2    4.170945128327390E-1   -2.842804411366713E-1
 6.530330288675000E9     5.351157356991098E-1   -1.604008127852629E-1   -2.356914631464756E-2   -4.779411687048703E-2   -2.472225911632215E-2   -4.724428923738387E-2    4.161808026557144E-1   -2.852750548792329E-1
 6.530339442600000E9     5.347965597654719E-1   -1.613574440873599E-1   -2.382034257420036E-2   -4.808039297977542E-2   -2.502496504115087E-2   -4.757857901349175E-2    4.153802755735158E-1   -2.865755808397741E-1
 6.530348596525000E9     5.344245611375733E-1   -1.622884820136734E-1   -2.399767929649486E-2   -4.843277454716217E-2   -2.523742354394620E-2   -4.805895868417075E-2    4.145338164782856E-1   -2.874243071747796E-1
 6.530357750450000E9     5.341948930997249E-1   -1.629948487798132E-1   -2.451469212443537E-2   -4.871678166090440E-2   -2.565980944012691E-2   -4.821000030067835E-2    4.138153909924202E-1   -2.885433235130336E-1
 6.530366904375000E9     5.338754753202337E-1   -1.639705838356358E-1   -2.456382556910310E-2   -4.904417751314322E-2   -2.597769629771079E-2   -4.851034582785246E-2    4.129033825878622E-1   -2.894280149880266E-1
 6.530376058300000E9     5.335836409553681E-1   -1.648427224999269E-1   -2.494930887215557E-2   -4.952551579615180E-2   -2.631519600650394E-2   -4.885081147537977E-2    4.120251338720574E-1   -2.905187088909437E-1
 6.530385212225000E9     5.333295957241663E-1   -1.655443835210291E-1   -2.537196108029327E-2   -4.967461775430792E-2   -2.655846942599843E-2   -4.914613918668229E-2    4.109374557093766E-1   -2.915347890293370E-1
 6.530394366150000E9     5.328720959689578E-1   -1.664366286898463E-1   -2.560002293074561E-2   -5.003049303850502E-2   -2.690144256155909E-2   -4.949904571679500E-2    4.102712922927928E-1   -2.925131259747980E-1
 6.530403520075000E9     5.326414167463487E-1   -1.673001143940200E-1   -2.613187464046054E-2   -5.041419560980016E-2   -2.725598951423292E-2   -4.974488221757090E-2    4.094544091622111E-1   -2.938067396014662E-1
 6.530412674000000E9     5.321456719294493E-1   -1.681282719505591E-1   -2.632723328445465E-2   -5.064598504038816E-2   -2.760715082458133E-2   -5.015119451659430E-2    4.083799015175491E-1   -2.946316529819542E-1
 6.530421827925000E9     5.320241193079548E-1   -1.689197579303660E-1   -2.662211019762124E-2   -5.103532374642828E-2   -2.797063334011470E-2   -5.041966978068440E-2    4.075507747172868E-1   -2.958618361778511E-1
 6.530430981850000E9     5.316032333614097E-1   -1.699429804561363E-1   -2.684726775300611E-2   -5.129186076467759E-2   -2.828825706628291E-2   -5.080086509969920E-2    4.065841028591592E-1   -2.967605279455977E-1
 6.530440135775000E9     5.312435803389993E-1   -1.707942598138132E-1   -2.726551900834565E-2   -5.177437093285996E-2   -2.860426397599685E-2   -5.118023232219373E-2    4.056934825345124E-1   -2.978530946519851E-1
 6.530449289700000E9     5.308325588872359E-1   -1.715789128596892E-1   -2.765058280299004E-2   -5.216888661753177E-2   -2.913443551299267E-2   -5.147403646105196E-2    4.047683777979922E-1   -2.990913195429571E-1
 6.530458443625000E9     5.305072903426373E-1   -1.724761792670485E-1   -2.806063675285508E-2   -5.241289235886597E-2   -2.945037733502797E-2   -5.189735494639319E-2    4.038205853852302E-1   -3.002829876036964E-1
 6.530467597550000E9     5.300785535480447E-1   -1.734054855009518E-1   -2.838956595013320E-2   -5.286779067722196E-2   -2.980405158608400E-2   -5.214547552451982E-2    4.026072994611091E-1   -3.012816434534519E-1
 6.530476751475000E9     5.297932702685686E-1   -1.743565448489170E-1   -2.877848766129902E-2   -5.324731722351083E-2   -3.017200163703833E-2   -5.246553556598753E-2    4.018797292659178E-1   -3.023757886746042E-1
 6.530485905400000E9     5.294428494028734E-1   -1.751325314643320E-1   -2.933791083542186E-2   -5.365770163103827E-2   -3.061740974224827E-2   -5.291497181677972E-2    4.007278096261848E-1   -3.033745496993085E-1
 6.530495059325000E9     5.290319916808237E-1   -1.760441584222409E-1   -2.958390179500354E-2   -5.400898296939560E-2   -3.095991010948539E-2   -5.323772825577538E-2    3.997726106640630E-1   -3.046144617984045E-1
 6.530504213250000E9     5.286840073306563E-1   -1.769209289618135E-1   -2.992525694073585E-2   -5.441823489968999E-2   -3.138252949123012E-2   -5.365764605805492E-2    3.986051430687096E-1   -3.056851677513102E-1
