#  HZ   S   RI   R     50.00 
! Rohde & Schwarz Vector Network Analyzer 
! Rohde-Schwarz,ZNB20-2Port,1311601062101988,3.16
! Created: UTC 3/21/2024, 12:53:28 AM
! freq[Hz]                re:S11                  im:S11                  re:S21                  im:S21                  re:S12                  im:S12                  re:S22                  im:S22
 6.528818420000000E9     5.607425696730010E-1   -5.715908910861139E-2   -8.221706552423816E-3   -3.307645766642659E-2   -8.792034135653149E-3   -3.283579758169324E-2    4.815521232651671E-1   -1.876403461350258E-1
 6.528827850525000E9     5.607144023833127E-1   -5.802679737117727E-2   -8.351538674406619E-3   -3.308845785511139E-2   -8.920852948091520E-3   -3.298966893636657E-2    4.812056653036939E-1   -1.884633439613278E-1
 6.528837281050000E9     5.605574516610659E-1   -5.866398191760998E-2   -8.314162783806695E-3   -3.324250615469198E-2   -9.072396383383209E-3   -3.316501674560587E-2    4.808532963487764E-1   -1.893121345323648E-1
 6.528846711575000E9     5.604489261225222E-1   -5.930516575587051E-2   -8.377008904202940E-3   -3.341209836906672E-2   -9.198860741298194E-3   -3.334664926503685E-2    4.805498289730729E-1   -1.902425761627233E-1
 6.528856142100000E9     5.603626938376833E-1   -6.015699028077986E-2   -8.444414260488517E-3   -3.361230605774729E-2   -9.285001126233965E-3   -3.348423256657093E-2    4.800985904160148E-1   -1.909354181129118E-1
 6.528865572625000E9     5.602893407269763E-1   -6.102762773956011E-2   -8.663072032050113E-3   -3.372219624925109E-2   -9.367091721262429E-3   -3.361292211843174E-2    4.798091250018007E-1   -1.920107520254841E-1
 6.528875003150000E9     5.601380941918825E-1   -6.182087187950223E-2   -8.809836789890613E-3   -3.383075322275429E-2   -9.436439411000780E-3   -3.373698455570492E-2    4.791939330856905E-1   -1.927534345519764E-1
 6.528884433675000E9     5.601689737919467E-1   -6.249730712093132E-2   -8.786926727026943E-3   -3.404603678686399E-2   -9.609533745195487E-3   -3.387260919299703E-2    4.789739953602664E-1   -1.935468928703667E-1
 6.528893864200000E9     5.599948431052966E-1   -6.336793303910362E-2   -8.912924412458926E-3   -3.429679347923304E-2   -9.750937553699822E-3   -3.405621311202500E-2    4.786276213609639E-1   -1.946290217072963E-1
 6.528903294725000E9     5.600361475481864E-1   -6.399362860820890E-2   -9.131818605803551E-3   -3.429050672377087E-2   -9.794177648957302E-3   -3.422065203465843E-2    4.783810499340709E-1   -1.951430409028668E-1
 6.528912725250000E9     5.599195931338534E-1   -6.486562325507994E-2   -9.209535749111153E-3   -3.462843971555555E-2   -9.940897287496444E-3   -3.435749700612396E-2    4.778943513314477E-1   -1.960910900400793E-1
 6.528922155775000E9     5.597682045987751E-1   -6.571186338360406E-2   -9.275930535217266E-3   -3.466999658181080E-2   -1.001597996902496E-2   -3.455353411817768E-2    4.774962096677157E-1   -1.969170082969163E-1
 6.528931586300000E9     5.597112311861385E-1   -6.638454612776558E-2   -9.330964731169431E-3   -3.480025457291202E-2   -1.012758743256076E-2   -3.476862775160575E-2    4.771721719329263E-1   -1.977024652508227E-1
 6.528941016825000E9     5.594213531110479E-1   -6.728595851972378E-2   -9.561353617759257E-3   -3.506213336702202E-2   -1.022559674100081E-2   -3.489112234285510E-2    4.766662186707361E-1   -1.987774293393491E-1
 6.528950447350000E9     5.593930919449770E-1   -6.791348797996405E-2   -9.491237270384421E-3   -3.516142525547353E-2   -1.047475237676397E-2   -3.502144621616852E-2    4.764780884987465E-1   -1.994910594912699E-1
 6.528959877875000E9     5.593244595850799E-1   -6.872671994170793E-2   -9.869011023609360E-3   -3.542176860107230E-2   -1.047006382099091E-2   -3.517286745301380E-2    4.759255790142687E-1   -2.004673745808533E-1
 6.528969308400000E9     5.591713159487673E-1   -6.963072211724559E-2   -9.788302425069194E-3   -3.537106305810393E-2   -1.056198633506978E-2   -3.533284518430169E-2    4.755715624244958E-1   -2.013062421448961E-1
 6.528978738925000E9     5.591506580320035E-1   -7.036536541459874E-2   -9.968519429069931E-3   -3.573042991601016E-2   -1.077885033552359E-2   -3.546008212997999E-2    4.750770895611854E-1   -2.021767343516889E-1
 6.528988169450000E9     5.590203926595390E-1   -7.116150610736761E-2   -9.977515442157440E-3   -3.575709805033301E-2   -1.083269087390859E-2   -3.568051358978298E-2    4.748981399923367E-1   -2.029294933733017E-1
 6.528997599975000E9     5.588754196683444E-1   -7.182849302008028E-2   -1.015416810511221E-2   -3.614001467552174E-2   -1.092288871459225E-2   -3.582725387032949E-2    4.742771184055054E-1   -2.039283816447093E-1
 6.529007030500000E9     5.588199808137394E-1   -7.279265496099424E-2   -1.018672590353208E-2   -3.612926960189905E-2   -1.099610858608413E-2   -3.605481798565297E-2    4.738731294409347E-1   -2.047800383980663E-1
 6.529016461025000E9     5.585660279742130E-1   -7.349534327776779E-2   -1.025321829905463E-2   -3.636416796397492E-2   -1.123955106968736E-2   -3.621409379660337E-2    4.734712020272197E-1   -2.055880459472573E-1
 6.529025891550000E9     5.585678960970755E-1   -7.438280860322302E-2   -1.061956285923813E-2   -3.652669828043766E-2   -1.133278030324277E-2   -3.637728922841257E-2    4.730857635003131E-1   -2.065080322706528E-1
 6.529035322075000E9     5.585313894511701E-1   -7.509331904090469E-2   -1.071803433984589E-2   -3.673389968496815E-2   -1.146525687418033E-2   -3.655281494723444E-2    4.727672065695400E-1   -2.074963143422689E-1
 6.529044752600000E9     5.584720114178264E-1   -7.591900190501846E-2   -1.074983215856544E-2   -3.696860338835337E-2   -1.150978474466163E-2   -3.671195667513893E-2    4.722601958518380E-1   -2.083226621170084E-1
 6.529054183125000E9     5.582274316597670E-1   -7.668992432203627E-2   -1.102294249410595E-2   -3.718273543478658E-2   -1.157162522292185E-2   -3.690246302217690E-2    4.718327385932556E-1   -2.091008090160563E-1
 6.529063613650000E9     5.580860595400309E-1   -7.753601716445251E-2   -1.100579135319768E-2   -3.724504188577886E-2   -1.182270730309096E-2   -3.709976265578439E-2    4.714317512699988E-1   -2.099994704306717E-1
 6.529073044175000E9     5.579039972518131E-1   -7.839474241263474E-2   -1.120615306585666E-2   -3.754704872457872E-2   -1.197553315837449E-2   -3.719064263022798E-2    4.708981070672571E-1   -2.109168888710052E-1
 6.529082474700000E9     5.578659002622407E-1   -7.918246405855718E-2   -1.119086097749706E-2   -3.770930401893526E-2   -1.211729286793860E-2   -3.749390345905654E-2    4.705730262921942E-1   -2.117919556668018E-1
 6.529091905225000E9     5.575916241288208E-1   -7.997531156694226E-2   -1.144640301082474E-2   -3.789130674772102E-2   -1.225037576694584E-2   -3.759597456226308E-2    4.701209472486589E-1   -2.129194671622828E-1
 6.529101335750000E9     5.575304150527890E-1   -8.067226914365014E-2   -1.157342824090128E-2   -3.798150315068378E-2   -1.244211339514389E-2   -3.778521895118421E-2    4.695650170014862E-1   -2.137365263010058E-1
 6.529110766275000E9     5.573631188714682E-1   -8.147284926412043E-2   -1.174662732741174E-2   -3.824580129012922E-2   -1.261347089649761E-2   -3.803265476110500E-2    4.691215359712412E-1   -2.146335868115828E-1
 6.529120196800000E9     5.572310783206570E-1   -8.232395490563614E-2   -1.168131421088232E-2   -3.843542523240577E-2   -1.266939614453480E-2   -3.827129186578688E-2    4.687258014846384E-1   -2.154824016343219E-1
 6.529129627325000E9     5.571336937141094E-1   -8.313049083612001E-2   -1.214181789010831E-2   -3.849213960231614E-2   -1.289797057190826E-2   -3.856554511104697E-2    4.682339169779767E-1   -2.163847061274655E-1
 6.529139057850000E9     5.571094396160023E-1   -8.379607696655379E-2   -1.216492908554245E-2   -3.871800755240821E-2   -1.297031107011264E-2   -3.867768035590646E-2    4.677406445345298E-1   -2.173611780945854E-1
 6.529148488375000E9     5.570148486305685E-1   -8.464642259402780E-2   -1.226953648123671E-2   -3.918422866053039E-2   -1.313913640916903E-2   -3.887677653099975E-2    4.671460723535267E-1   -2.182510284650120E-1
 6.529157918900000E9     5.567149894465148E-1   -8.559502990299432E-2   -1.231312202470658E-2   -3.928860157022611E-2   -1.324752528393441E-2   -3.898188546033153E-2    4.668029476071432E-1   -2.191518792165222E-1
 6.529167349425000E9     5.565916084233807E-1   -8.638333269839626E-2   -1.240399990248724E-2   -3.933879793644363E-2   -1.346041460723815E-2   -3.928242923164371E-2    4.661875647736682E-1   -2.202363874008880E-1
 6.529176779950000E9     5.563566348457942E-1   -8.713878470461986E-2   -1.271296832724736E-2   -3.966902877115554E-2   -1.364554150152283E-2   -3.945867329177676E-2    4.657147142741266E-1   -2.210296910630380E-1
 6.529186210475000E9     5.563248011039859E-1   -8.809373623505001E-2   -1.279913666693328E-2   -3.997069510895060E-2   -1.369916373239858E-2   -3.971536589906166E-2    4.654830280805982E-1   -2.219533180583444E-1
 6.529195641000000E9     5.560952073264511E-1   -8.870747685436468E-2   -1.291334472443518E-2   -4.009567167649283E-2   -1.390762528147192E-2   -3.993407557152624E-2    4.649669560418347E-1   -2.229817649909039E-1
 6.529205071525000E9     5.559584553837734E-1   -8.959403983882880E-2   -1.310463255035544E-2   -4.031397435431035E-2   -1.404669357359909E-2   -4.008497791651858E-2    4.643242723275127E-1   -2.239405893590436E-1
 6.529214502050000E9     5.557503173964256E-1   -9.042356948833420E-2   -1.334058900285423E-2   -4.042268303254864E-2   -1.429072035704652E-2   -4.032018989256795E-2    4.639649529998932E-1   -2.247588551833064E-1
 6.529223932575000E9     5.557049032595245E-1   -9.126965105024508E-2   -1.343713165778130E-2   -4.082754217801950E-2   -1.433105070427114E-2   -4.057977001500199E-2    4.632643825862930E-1   -2.257556316479045E-1
 6.529233363100000E9     5.554720461652823E-1   -9.206023992958963E-2   -1.355871614243583E-2   -4.107044840923852E-2   -1.455200803923353E-2   -4.076912471921348E-2    4.627917378391551E-1   -2.265224337489476E-1
 6.529242793625000E9     5.553819618823013E-1   -9.293777030718044E-2   -1.390758202390985E-2   -4.135637428438151E-2   -1.463734097658728E-2   -4.106572229026170E-2    4.622531619955394E-1   -2.276694760292092E-1
 6.529252224150000E9     5.551934692846568E-1   -9.377709014481807E-2   -1.390502757485397E-2   -4.152158828774972E-2   -1.485683768602709E-2   -4.129358525589040E-2    4.616145261802966E-1   -2.285069497259858E-1
 6.529261654675000E9     5.550289099408919E-1   -9.452059906341420E-2   -1.411302675178034E-2   -4.177803012924637E-2   -1.510782396278442E-2   -4.149691245188024E-2    4.611366427324757E-1   -2.295782818981228E-1
 6.529271085200000E9     5.548801431471984E-1   -9.541571563161394E-2   -1.429196776827964E-2   -4.190216630700979E-2   -1.530528263338149E-2   -4.167411429644366E-2    4.606587189625683E-1   -2.304164326412950E-1
 6.529280515725000E9     5.547053113922198E-1   -9.622356238554741E-2   -1.459445133729185E-2   -4.212403925206399E-2   -1.553409695225218E-2   -4.187295584883287E-2    4.601263780809575E-1   -2.315831688631824E-1
 6.529289946250000E9     5.545229858286972E-1   -9.713458580226875E-2   -1.466074487078643E-2   -4.233758286091564E-2   -1.574154876604782E-2   -4.214968820398036E-2    4.594826883355550E-1   -2.325373230088017E-1
 6.529299376775000E9     5.543417904942198E-1   -9.784729878314852E-2   -1.483356424465518E-2   -4.258454562230872E-2   -1.596430903187825E-2   -4.242327776015855E-2    4.590968572728313E-1   -2.332462269111808E-1
 6.529308807300000E9     5.541968220941691E-1   -9.870712540537863E-2   -1.512994498655579E-2   -4.289532918665805E-2   -1.604512644739438E-2   -4.262222922799982E-2    4.583674742909336E-1   -2.343874176050356E-1
 6.529318237825000E9     5.539824598731108E-1   -9.948932955448481E-2   -1.521892904619876E-2   -4.319600346268841E-2   -1.623340221205785E-2   -4.292642994340284E-2    4.578587168142468E-1   -2.354049711036995E-1
 6.529327668350000E9     5.537951086649732E-1   -1.003893095755815E-1   -1.541617272650209E-2   -4.346591177390688E-2   -1.640205837231606E-2   -4.322225465234942E-2    4.573543583920247E-1   -2.363525280805753E-1
 6.529337098875000E9     5.535483342217868E-1   -1.012499719135505E-1   -1.562959168981441E-2   -4.368663179198558E-2   -1.662805032852882E-2   -4.338440925584873E-2    4.566515563733300E-1   -2.374150089560550E-1
 6.529346529400000E9     5.534466076302552E-1   -1.021900235248705E-1   -1.579323697777124E-2   -4.401168342831131E-2   -1.676330550097061E-2   -4.368693983219696E-2    4.561258585955184E-1   -2.384211112042101E-1
 6.529355959925000E9     5.532873643055084E-1   -1.029037105810457E-1   -1.608361692613546E-2   -4.419101185208637E-2   -1.700314398787657E-2   -4.395194065227016E-2    4.554923728849502E-1   -2.393248348606674E-1
 6.529365390450000E9     5.529583644161771E-1   -1.037916712694300E-1   -1.610146589302328E-2   -4.445738512514265E-2   -1.728098979030804E-2   -4.416956091974843E-2    4.549006868424011E-1   -2.403050132105268E-1
 6.529374820975000E9     5.528422730827142E-1   -1.045822840175005E-1   -1.627272731362738E-2   -4.476232846920053E-2   -1.737376510196550E-2   -4.448367469618096E-2    4.541465370115386E-1   -2.414914696576508E-1
 6.529384251500000E9     5.526727400599150E-1   -1.054304012465161E-1   -1.661439897673947E-2   -4.497816448096274E-2   -1.767771295479298E-2   -4.470003533280246E-2    4.535534424261964E-1   -2.424139125711007E-1
 6.529393682025000E9     5.525880617705179E-1   -1.062306370372021E-1   -1.687215696180949E-2   -4.542730875160780E-2   -1.790718971816290E-2   -4.497891099273869E-2    4.529230456973520E-1   -2.434333683510572E-1
 6.529403112550000E9     5.522745554015133E-1   -1.071969232524633E-1   -1.711612457811783E-2   -4.556087247818744E-2   -1.813987422766431E-2   -4.529070143089859E-2    4.524492477657061E-1   -2.445147525560047E-1
 6.529412543075000E9     5.521954551707333E-1   -1.079291369731546E-1   -1.720673786657104E-2   -4.589436992695454E-2   -1.839046917547939E-2   -4.556379094082151E-2    4.517568884344097E-1   -2.454588617833385E-1
 6.529421973600000E9     5.519238582671075E-1   -1.089060766995543E-1   -1.757920477966425E-2   -4.620649161361529E-2   -1.856472713288214E-2   -4.586420470644404E-2    4.510483162575196E-1   -2.465410280608206E-1
 6.529431404125000E9     5.516504168232894E-1   -1.096660319100507E-1   -1.761641307874378E-2   -4.648588669676407E-2   -1.887702807478772E-2   -4.613055804850645E-2    4.502287928613337E-1   -2.475486868005380E-1
 6.529440834650000E9     5.514356834637846E-1   -1.106498997857458E-1   -1.795533949504939E-2   -4.661282207197129E-2   -1.908578422015400E-2   -4.635050615093358E-2    4.498201451941568E-1   -2.486398788686087E-1
 6.529450265175000E9     5.512809274483756E-1   -1.113891126107201E-1   -1.816043768591516E-2   -4.707931521395581E-2   -1.933492380346870E-2   -4.667583073680675E-2    4.489123151836226E-1   -2.497698747979960E-1
 6.529459695700000E9     5.510354156853962E-1   -1.123140025086358E-1   -1.841313396857523E-2   -4.725038014791367E-2   -1.958161800901942E-2   -4.694501260640797E-2    4.483143969693653E-1   -2.507010182705658E-1
 6.529469126225000E9     5.508943162864895E-1   -1.131422223461296E-1   -1.874167837195044E-2   -4.767284529608357E-2   -1.990115619265037E-2   -4.725347070966476E-2    4.474903015278398E-1   -2.519143095803422E-1
 6.529478556750000E9     5.505255942106150E-1   -1.139985725229629E-1   -1.900834653420444E-2   -4.794638136863189E-2   -2.015568422055817E-2   -4.763922530610987E-2    4.469032670377936E-1   -2.528806770537471E-1
 6.529487987275000E9     5.503491524080629E-1   -1.150549241214826E-1   -1.916507716372114E-2   -4.828530207388009E-2   -2.033583983448660E-2   -4.785137339818255E-2    4.461539182028738E-1   -2.540242839598141E-1
 6.529497417800000E9     5.501525768293378E-1   -1.156869952416916E-1   -1.943573424832602E-2   -4.869416639786234E-2   -2.070988201127054E-2   -4.823480394885094E-2    4.453466640441130E-1   -2.551539247857820E-1
 6.529506848325000E9     5.498849037160093E-1   -1.168090194246215E-1   -1.968816132579821E-2   -4.912434560041159E-2   -2.090687841431359E-2   -4.851777758499077E-2    4.447546743221813E-1   -2.562440959347789E-1
 6.529516278850000E9     5.496716005947768E-1   -1.175450797254605E-1   -2.001575891267128E-2   -4.926950876773737E-2   -2.106543507563950E-2   -4.880924448620085E-2    4.438876571324391E-1   -2.572852271538866E-1
 6.529525709375000E9     5.493894412004016E-1   -1.184742681892925E-1   -2.014874149063943E-2   -4.959576956577745E-2   -2.145881758944962E-2   -4.911362996308951E-2    4.433065876301558E-1   -2.583091127435361E-1
 6.529535139900000E9     5.491924330128409E-1   -1.193631882846084E-1   -2.053461871198837E-2   -4.991868499148179E-2   -2.178420251984491E-2   -4.939234906505420E-2    4.424716745344677E-1   -2.595826638953251E-1
 6.529544570425000E9     5.490084621123076E-1   -1.202346683600444E-1   -2.070048687610462E-2   -5.015803942659428E-2   -2.201519700570151E-2   -4.984533218276279E-2    4.417340675209460E-1   -2.605766897801546E-1
 6.529554000950000E9     5.485792601725639E-1   -1.211041721778382E-1   -2.115188200251676E-2   -5.059243893709828E-2   -2.243574079519995E-2   -5.019221847881298E-2    4.407698247084588E-1   -2.616627139302631E-1
 6.529563431475000E9     5.484604296422027E-1   -1.220740857495232E-1   -2.142725267182847E-2   -5.099556783634374E-2   -2.263188298929329E-2   -5.056506291833462E-2    4.400816177852484E-1   -2.627811039551309E-1
 6.529572862000000E9     5.481840282819266E-1   -1.230946356960372E-1   -2.169396742540163E-2   -5.128462669939819E-2   -2.296626453583788E-2   -5.089888841475140E-2    4.393198687543021E-1   -2.640713857468973E-1
 6.529582292525000E9     5.478696486892954E-1   -1.238433727440112E-1   -2.206365672077073E-2   -5.161545596154656E-2   -2.326771071324227E-2   -5.122353032560406E-2    4.382523532915122E-1   -2.650417339723171E-1
 6.529591723050000E9     5.476043605323887E-1   -1.248463791905800E-1   -2.228738396109150E-2   -5.193663359549296E-2   -2.364614705389154E-2   -5.151557563105473E-2    4.376314058193036E-1   -2.663423800510751E-1
 6.529601153575000E9     5.473151949219152E-1   -1.256999992188413E-1   -2.258565202228469E-2   -5.236860380496507E-2   -2.406953246500949E-2   -5.184856546702000E-2    4.366460839609069E-1   -2.676037879996583E-1
 6.529610584100000E9     5.471085168054831E-1   -1.265719644202521E-1   -2.307903019288665E-2   -5.290406003734829E-2   -2.430298371811868E-2   -5.224248674272367E-2    4.356394244716319E-1   -2.685899655321634E-1
 6.529620014625000E9     5.468070036510758E-1   -1.274858495396751E-1   -2.320253819354007E-2   -5.311303085138263E-2   -2.471549843796262E-2   -5.265884121550129E-2    4.350477654690340E-1   -2.697758772172416E-1
 6.529629445150000E9     5.464542908091170E-1   -1.284281677696239E-1   -2.363518790295818E-2   -5.350063308107145E-2   -2.500404932551261E-2   -5.302053644855566E-2    4.341430566836446E-1   -2.711047826756345E-1
 6.529638875675000E9     5.462595150554209E-1   -1.293204547266661E-1   -2.402245017231053E-2   -5.388838862977940E-2   -2.528301471848580E-2   -5.345737557991975E-2    4.331683760614222E-1   -2.722147647780156E-1
 6.529648306200000E9     5.458681419417394E-1   -1.303614706441918E-1   -2.414296519076263E-2   -5.433626571332014E-2   -2.574466956356297E-2   -5.375781193146690E-2    4.320948606696292E-1   -2.733927864387897E-1
 6.529657736725000E9     5.456576399314280E-1   -1.311515584822842E-1   -2.478668784303538E-2   -5.466895579754790E-2   -2.603987464351777E-2   -5.423730928480180E-2    4.313030894993657E-1   -2.746086934741654E-1
 6.529667167250000E9     5.453050850085012E-1   -1.321460695226087E-1   -2.511216048925506E-2   -5.506130797804365E-2   -2.637993655741418E-2   -5.453075455065821E-2    4.303589063070820E-1   -2.756760313658185E-1
