#  HZ   S   RI   R     50.00 
! Rohde & Schwarz Vector Network Analyzer 
! Rohde-Schwarz,ZNB20-2Port,1311601062101988,3.16
! Created: UTC 3/21/2024, 1:24:04 AM
! freq[Hz]                re:S11                  im:S11                  re:S21                  im:S21                  re:S12                  im:S12                  re:S22                  im:S22
 6.529708264000000E9     5.498211666401529E-1   -1.066863419694302E-1   -1.109138629834338E-2   -3.304591368597938E-2   -1.193061385270078E-2   -3.270205853813059E-2    4.561760308519784E-1   -2.264613485773336E-1
 6.529717406950000E9     5.496710166820364E-1   -1.074659148904690E-1   -1.124773157285703E-2   -3.305934087271409E-2   -1.198502683567348E-2   -3.293214834676961E-2    4.556683908253954E-1   -2.272578957098335E-1
 6.529726549900000E9     5.495100198224054E-1   -1.082329205394953E-1   -1.142083051545376E-2   -3.333041407260288E-2   -1.212465357490349E-2   -3.302774289239460E-2    4.552773066862328E-1   -2.280406658213645E-1
 6.529735692850000E9     5.493543226969553E-1   -1.089559831978118E-1   -1.156263023977180E-2   -3.349274498993381E-2   -1.227376199224920E-2   -3.325607858051252E-2    4.549221409467729E-1   -2.288133524109952E-1
 6.529744835800000E9     5.491581768670118E-1   -1.097962412795471E-1   -1.161558803976842E-2   -3.365340081793788E-2   -1.237000388566570E-2   -3.335855517825534E-2    4.544980162052688E-1   -2.296172732917466E-1
 6.529753978750000E9     5.490919876893671E-1   -1.104390564103878E-1   -1.166976143424044E-2   -3.373823478926009E-2   -1.252012923878227E-2   -3.356169845692845E-2    4.539630888252477E-1   -2.302082666597261E-1
 6.529763121700000E9     5.490121186901962E-1   -1.112814550549670E-1   -1.194797438528273E-2   -3.383544121173628E-2   -1.258554127520868E-2   -3.362848960166050E-2    4.535767197996864E-1   -2.310887932368581E-1
 6.529772264650000E9     5.488450097302883E-1   -1.119604199068161E-1   -1.202209207785399E-2   -3.402931481192879E-2   -1.279843682963450E-2   -3.383937181427187E-2    4.530615455663181E-1   -2.320485418346959E-1
 6.529781407600000E9     5.485934877967348E-1   -1.127864782964790E-1   -1.208697904851126E-2   -3.434676216955145E-2   -1.279353251657929E-2   -3.384963349316460E-2    4.526333734537137E-1   -2.325637793878736E-1
 6.529790550550000E9     5.484490887348620E-1   -1.134519676085742E-1   -1.203103903781562E-2   -3.425639453280164E-2   -1.303380045449274E-2   -3.413421260660218E-2    4.522260083621755E-1   -2.336203187724169E-1
 6.529799693500000E9     5.482058429395004E-1   -1.142074850436808E-1   -1.229783572687906E-2   -3.447754012145740E-2   -1.309447417306259E-2   -3.433198199590648E-2    4.519029185108335E-1   -2.343121993729601E-1
 6.529808836450000E9     5.479755411952703E-1   -1.149834645572289E-1   -1.249702670614220E-2   -3.463154362410536E-2   -1.318616250488012E-2   -3.440257132149611E-2    4.514449109454596E-1   -2.350906027835953E-1
 6.529817979400000E9     5.479751647626510E-1   -1.156904934204427E-1   -1.261305266636513E-2   -3.485849979409174E-2   -1.334857183213490E-2   -3.464506128486600E-2    4.509691749107212E-1   -2.360282260692745E-1
 6.529827122350000E9     5.478040274503854E-1   -1.165366049831417E-1   -1.266910162819634E-2   -3.486462392265983E-2   -1.349912506869790E-2   -3.471297907959674E-2    4.506161248068039E-1   -2.367548218520391E-1
 6.529836265300000E9     5.475560458525278E-1   -1.172465827641001E-1   -1.286127607656648E-2   -3.509044704274723E-2   -1.354343936242100E-2   -3.495956998119954E-2    4.499644869743890E-1   -2.374912249618013E-1
 6.529845408250000E9     5.474238882760916E-1   -1.179231372568433E-1   -1.277625223903066E-2   -3.516327338751587E-2   -1.373133368554267E-2   -3.501662388951741E-2    4.494293931316238E-1   -2.384044312224997E-1
 6.529854551200000E9     5.473132198967726E-1   -1.187377307654722E-1   -1.296205515934666E-2   -3.541630093897477E-2   -1.391090562536808E-2   -3.517214524418821E-2    4.490042477599243E-1   -2.392221783793856E-1
 6.529863694150000E9     5.470781540770482E-1   -1.195220060900565E-1   -1.316508128156802E-2   -3.558323107730046E-2   -1.393064885927024E-2   -3.528206635763798E-2    4.486489564347499E-1   -2.400638781989587E-1
 6.529872837100000E9     5.468336722371836E-1   -1.202161096631007E-1   -1.324973572939719E-2   -3.578816810381143E-2   -1.418672878216163E-2   -3.552461971743696E-2    4.481451809322593E-1   -2.407779485727004E-1
 6.529881980050000E9     5.468122521968880E-1   -1.210714529842796E-1   -1.343481917217314E-2   -3.596300993486899E-2   -1.422122387392248E-2   -3.573331328388545E-2    4.477997953835205E-1   -2.416124907776117E-1
 6.529891123000000E9     5.464881324994646E-1   -1.216662268042222E-1   -1.355044004910427E-2   -3.612839321545133E-2   -1.444909135850227E-2   -3.585379132922378E-2    4.473693436007716E-1   -2.424575485086321E-1
 6.529900265950000E9     5.462728793601109E-1   -1.224532102867547E-1   -1.367575604157712E-2   -3.624181187213775E-2   -1.457838305608634E-2   -3.612806896114133E-2    4.466945358272082E-1   -2.432763764985579E-1
 6.529909408900000E9     5.462685073236030E-1   -1.232494951324106E-1   -1.381976626790868E-2   -3.649032115686526E-2   -1.473028450458786E-2   -3.622443352850949E-2    4.461417092605838E-1   -2.440348660323353E-1
 6.529918551850000E9     5.459830337624376E-1   -1.240657204460887E-1   -1.412152769505816E-2   -3.664444520684954E-2   -1.479485716838691E-2   -3.640626948490641E-2    4.456619032571728E-1   -2.448607161158265E-1
 6.529927694800000E9     5.458760056710965E-1   -1.246919639969197E-1   -1.411319281887083E-2   -3.689029704655365E-2   -1.490027955548621E-2   -3.650768989124658E-2    4.452922819830423E-1   -2.457932118425970E-1
 6.529936837750000E9     5.454808582419238E-1   -1.254693879229309E-1   -1.427229906026367E-2   -3.692435989647462E-2   -1.511345404994928E-2   -3.663601082459854E-2    4.448981150514197E-1   -2.466678325166662E-1
 6.529945980700000E9     5.454652181621720E-1   -1.262994197755287E-1   -1.452017816726639E-2   -3.709149240453192E-2   -1.536758482401435E-2   -3.684892104402644E-2    4.441670463010802E-1   -2.473912582204799E-1
 6.529955123650000E9     5.452357468513509E-1   -1.270603987953309E-1   -1.457788172106674E-2   -3.737348390560209E-2   -1.547078036151096E-2   -3.708435124955533E-2    4.438092986639525E-1   -2.482695219484560E-1
 6.529964266600000E9     5.449542792918184E-1   -1.279103101698549E-1   -1.475982548471151E-2   -3.754342095539390E-2   -1.556216733016712E-2   -3.717266439786691E-2    4.432340823314579E-1   -2.489761098536153E-1
 6.529973409550000E9     5.448104402114111E-1   -1.286379240305999E-1   -1.499668693372332E-2   -3.756109139745279E-2   -1.576926339037236E-2   -3.741210973440729E-2    4.425430221880392E-1   -2.498080658464066E-1
 6.529982552500000E9     5.446389291346748E-1   -1.292439570770093E-1   -1.505410721870304E-2   -3.799177380068339E-2   -1.595327929502602E-2   -3.763654214092980E-2    4.423943010676748E-1   -2.507475468102525E-1
 6.529991695450000E9     5.444826517898944E-1   -1.302464436798088E-1   -1.521008327678188E-2   -3.805183086163771E-2   -1.608713739839043E-2   -3.789277327646389E-2    4.414948174471577E-1   -2.516496259608619E-1
 6.530000838400000E9     5.442560849280292E-1   -1.308863796456163E-1   -1.528072765914511E-2   -3.833678575518707E-2   -1.626197346996799E-2   -3.791471847673156E-2    4.410723783755676E-1   -2.522425147896183E-1
 6.530009981350000E9     5.441393347019050E-1   -1.316180978967993E-1   -1.547556130212741E-2   -3.856741749002565E-2   -1.645828848746993E-2   -3.821826267314701E-2    4.407811827880018E-1   -2.532733799443153E-1
 6.530019124300000E9     5.438842108313092E-1   -1.323934114949007E-1   -1.568921770558383E-2   -3.868640086206122E-2   -1.657850011272743E-2   -3.831210402293461E-2    4.399786966068862E-1   -2.540990801499761E-1
 6.530028267250000E9     5.436096215075537E-1   -1.332914071673593E-1   -1.580739796834119E-2   -3.893562498646009E-2   -1.669762513405950E-2   -3.850375311346110E-2    4.395257442141054E-1   -2.550457096748900E-1
 6.530037410200000E9     5.433912154515971E-1   -1.338481808159379E-1   -1.587037248113786E-2   -3.908478522815353E-2   -1.688788592589444E-2   -3.880086033719737E-2    4.388607081543049E-1   -2.559886220861075E-1
 6.530046553150000E9     5.431587451404091E-1   -1.346644573264260E-1   -1.604995840028452E-2   -3.926641202665602E-2   -1.719446469071460E-2   -3.899344457336255E-2    4.384097808542315E-1   -2.568650978388920E-1
 6.530055696100000E9     5.429588508481837E-1   -1.354826980992042E-1   -1.625701664699832E-2   -3.945691600495744E-2   -1.729609420480365E-2   -3.910967179064179E-2    4.377360355820605E-1   -2.576165009151264E-1
 6.530064839050000E9     5.428397505976209E-1   -1.362455466412294E-1   -1.643359328903239E-2   -3.967444608385012E-2   -1.742459994799116E-2   -3.936033623743289E-2    4.373399525186992E-1   -2.584682695601749E-1
 6.530073982000000E9     5.425047775248745E-1   -1.370551463147771E-1   -1.667669659670167E-2   -3.990926935137557E-2   -1.767396273088032E-2   -3.958056503092885E-2    4.368408913289428E-1   -2.594172085388068E-1
 6.530083124950000E9     5.422887974679332E-1   -1.377497321883709E-1   -1.685888765773785E-2   -4.005495785025079E-2   -1.786647144209103E-2   -3.979526514020522E-2    4.362321209434071E-1   -2.602680468232282E-1
 6.530092267900000E9     5.421320716790364E-1   -1.386835417911340E-1   -1.711952219781310E-2   -4.032116050134959E-2   -1.804224863028468E-2   -4.004697737993363E-2    4.354047758349395E-1   -2.609755884865987E-1
 6.530101410850000E9     5.419648811824083E-1   -1.394871383088326E-1   -1.715730200094033E-2   -4.061674102794250E-2   -1.819804474104278E-2   -4.019203524707243E-2    4.351067522237776E-1   -2.621107927925398E-1
 6.530110553800000E9     5.417371538950910E-1   -1.402012057051929E-1   -1.749096752511184E-2   -4.080890440479189E-2   -1.837653429642345E-2   -4.046350117308958E-2    4.344093789269524E-1   -2.629236256650522E-1
 6.530119696750000E9     5.414557426175830E-1   -1.409161737173588E-1   -1.748074265712485E-2   -4.101219506836347E-2   -1.862278399567067E-2   -4.065977006058152E-2    4.335985866563973E-1   -2.636955027308196E-1
 6.530128839700000E9     5.412281256167246E-1   -1.417275397827970E-1   -1.774726319861823E-2   -4.114414631748642E-2   -1.875414074265257E-2   -4.084186612844002E-2    4.331305502838033E-1   -2.645601423516528E-1
 6.530137982650000E9     5.409295676942200E-1   -1.426033463431406E-1   -1.793658816538676E-2   -4.148618219461084E-2   -1.896032342520454E-2   -4.100274596404965E-2    4.324831594050537E-1   -2.655976568722236E-1
 6.530147125600000E9     5.406962454069127E-1   -1.432937877167312E-1   -1.820271999625296E-2   -4.170104401126370E-2   -1.917145354399789E-2   -4.129773462671250E-2    4.321778556884995E-1   -2.664737713791074E-1
 6.530156268550000E9     5.405677402675526E-1   -1.441292143556225E-1   -1.825040483329970E-2   -4.190509432291135E-2   -1.943373105299297E-2   -4.156191030811138E-2    4.313266304753086E-1   -2.673759632726517E-1
 6.530165411500000E9     5.401879198054108E-1   -1.448727623596628E-1   -1.855825331888048E-2   -4.224351521579993E-2   -1.951331148488043E-2   -4.176795232477432E-2    4.307723650819670E-1   -2.683000513432027E-1
 6.530174554450000E9     5.399687678901495E-1   -1.458671751957689E-1   -1.873031727796073E-2   -4.233441363938258E-2   -1.976420749706341E-2   -4.198625445370675E-2    4.301661876614728E-1   -2.692378720213942E-1
 6.530183697400000E9     5.397323182350309E-1   -1.463586927022921E-1   -1.898278990016512E-2   -4.252889614333429E-2   -2.004623500167141E-2   -4.220791422254302E-2    4.293753908502445E-1   -2.701167506483187E-1
 6.530192840350000E9     5.395201182597146E-1   -1.472553183111791E-1   -1.905094829143446E-2   -4.285863466301194E-2   -2.033634247181547E-2   -4.241629216132786E-2    4.286877681061024E-1   -2.710882186611159E-1
 6.530201983300000E9     5.393905865023457E-1   -1.481280473193231E-1   -1.940916546247969E-2   -4.309850025255902E-2   -2.044502642654701E-2   -4.268054117714341E-2    4.280354014714939E-1   -2.719340097337467E-1
 6.530211126250000E9     5.389931043387515E-1   -1.489179374550393E-1   -1.953936349787308E-2   -4.335938465931845E-2   -2.076393939340266E-2   -4.283493602686072E-2    4.274845908845946E-1   -2.729638934569283E-1
 6.530220269200000E9     5.387095675480928E-1   -1.496921654652332E-1   -1.981301963818229E-2   -4.358947143915862E-2   -2.097481372971806E-2   -4.312940142450076E-2    4.267780130143463E-1   -2.738502807619350E-1
 6.530229412150000E9     5.385894992561191E-1   -1.506790729864622E-1   -2.001233462873923E-2   -4.374164834514792E-2   -2.116736626245040E-2   -4.333439163373386E-2    4.260204848607448E-1   -2.749453913092768E-1
 6.530238555100000E9     5.383525371771591E-1   -1.512167292455022E-1   -2.036907918705934E-2   -4.409169606391972E-2   -2.123328738286976E-2   -4.361614313560032E-2    4.254156216869057E-1   -2.758735752211336E-1
 6.530247698050000E9     5.381017656323727E-1   -1.521929961609869E-1   -2.057074652648848E-2   -4.434820877161996E-2   -2.162242065933197E-2   -4.389101450223678E-2    4.247602424491989E-1   -2.766151208256233E-1
 6.530256841000000E9     5.377376082789563E-1   -1.529083170090891E-1   -2.086204087329531E-2   -4.475887428526583E-2   -2.191598891917161E-2   -4.411356842619634E-2    4.239088458622648E-1   -2.775151486968241E-1
 6.530265983950000E9     5.374341728302037E-1   -1.537295112374724E-1   -2.092473970206434E-2   -4.491976390226209E-2   -2.220211604678272E-2   -4.448851203420848E-2    4.233106740985428E-1   -2.785825671769064E-1
 6.530275126900000E9     5.372484919252879E-1   -1.545881661856143E-1   -2.121169074172656E-2   -4.531381267157147E-2   -2.245833817940663E-2   -4.476103672958277E-2    4.224212656939345E-1   -2.794945358278703E-1
 6.530284269850000E9     5.369828068793121E-1   -1.553974130854419E-1   -2.150558379977571E-2   -4.548957999649405E-2   -2.268686327364606E-2   -4.495074206462678E-2    4.218059563827856E-1   -2.804584706956014E-1
 6.530293412800000E9     5.366093984974158E-1   -1.561579331387264E-1   -2.173394612101460E-2   -4.574943414626363E-2   -2.287566017429598E-2   -4.527682382916060E-2    4.211148484135738E-1   -2.813383068853535E-1
 6.530302555750000E9     5.364222753296092E-1   -1.570336252111663E-1   -2.200553244299474E-2   -4.591729887791329E-2   -2.313240949412973E-2   -4.552398471337845E-2    4.202971956453952E-1   -2.825068009479452E-1
 6.530311698700000E9     5.360454943202183E-1   -1.577745974346959E-1   -2.223028834131807E-2   -4.625723366706630E-2   -2.346481916483399E-2   -4.583527919232816E-2    4.195713655790989E-1   -2.833652890157302E-1
 6.530320841650000E9     5.358816673034571E-1   -1.586939435578573E-1   -2.248541412085935E-2   -4.653059465520295E-2   -2.368038924904573E-2   -4.609706781248135E-2    4.187478981020881E-1   -2.843165961719012E-1
 6.530329984600000E9     5.355198329263932E-1   -1.595086584436963E-1   -2.286697104754687E-2   -4.697459169141772E-2   -2.390114061146872E-2   -4.631020418001251E-2    4.178889358617464E-1   -2.854261318680520E-1
 6.530339127550000E9     5.352077561485471E-1   -1.603777038461121E-1   -2.301477840804970E-2   -4.713644429146104E-2   -2.422566657110405E-2   -4.669322815721420E-2    4.172639791473000E-1   -2.862888353306708E-1
 6.530348270500000E9     5.349855663584707E-1   -1.611334076554402E-1   -2.330681140682073E-2   -4.752979966485776E-2   -2.448812757952381E-2   -4.697255576472486E-2    4.165105995179941E-1   -2.873480725465997E-1
 6.530357413450000E9     5.347028944789769E-1   -1.619256856922056E-1   -2.364517053707557E-2   -4.774801889318347E-2   -2.484813135892232E-2   -4.724968427916405E-2    4.155518112371446E-1   -2.882850627945450E-1
 6.530366556400000E9     5.343121667667582E-1   -1.628465618359996E-1   -2.391681576049859E-2   -4.809026495055780E-2   -2.514990921390832E-2   -4.743872517763657E-2    4.149060744247842E-1   -2.893460355752629E-1
 6.530375699350000E9     5.340793672850530E-1   -1.637318725106744E-1   -2.419457295221952E-2   -4.842247033160833E-2   -2.540941560884987E-2   -4.776544452039919E-2    4.140070852565900E-1   -2.902831624918349E-1
 6.530384842300000E9     5.337608665328041E-1   -1.644688840173742E-1   -2.445239623247604E-2   -4.886461589118936E-2   -2.576963945804935E-2   -4.810980623847760E-2    4.132824931831828E-1   -2.914204562948541E-1
 6.530393985250000E9     5.333719517423470E-1   -1.653801293601022E-1   -2.474949517881587E-2   -4.906409107204273E-2   -2.615082031249973E-2   -4.846617668290555E-2    4.123555509946202E-1   -2.923607266843330E-1
 6.530403128200000E9     5.331203358002508E-1   -1.662320347573757E-1   -2.506844007306953E-2   -4.928791731312074E-2   -2.642888634424668E-2   -4.866931309037562E-2    4.114713082378683E-1   -2.934126342548583E-1
 6.530412271150000E9     5.327669231115234E-1   -1.670333860746648E-1   -2.541549984445380E-2   -4.961750963009224E-2   -2.665096832480004E-2   -4.904586434577030E-2    4.107035530565875E-1   -2.944770124780699E-1
 6.530421414100000E9     5.325320506680893E-1   -1.678277643302211E-1   -2.575096031845758E-2   -4.988573139636435E-2   -2.707822626984573E-2   -4.942674623688998E-2    4.097305726299086E-1   -2.954230609691909E-1
 6.530430557050000E9     5.321135781422065E-1   -1.688737806525099E-1   -2.614901972783490E-2   -5.030482987028929E-2   -2.746132888503351E-2   -4.962932469599698E-2    4.086593887454773E-1   -2.967275164351693E-1
 6.530439700000000E9     5.318600527111421E-1   -1.696824389626627E-1   -2.647439739163987E-2   -5.066107694017268E-2   -2.767487817825040E-2   -5.004844639846025E-2    4.077734760707171E-1   -2.974402658817786E-1
 6.530448842950000E9     5.315255555520789E-1   -1.704101067701711E-1   -2.672165755849120E-2   -5.091267930413070E-2   -2.801666413780611E-2   -5.043603850724954E-2    4.069656118426864E-1   -2.986680061396573E-1
 6.530457985900000E9     5.311146925477751E-1   -1.713198006026491E-1   -2.716756005627534E-2   -5.127570236956008E-2   -2.851852161996245E-2   -5.072456549995742E-2    4.059429586309302E-1   -2.998261141019012E-1
 6.530467128850000E9     5.307278733766549E-1   -1.721771362998645E-1   -2.738297854643428E-2   -5.165321478371986E-2   -2.884476939936054E-2   -5.104502302643620E-2    4.049634338931719E-1   -3.008403225013539E-1
 6.530476271800000E9     5.304003861962966E-1   -1.730222312050869E-1   -2.792945437695085E-2   -5.210875450175321E-2   -2.923549724826318E-2   -5.139828565675666E-2    4.043345080859975E-1   -3.020700287550651E-1
 6.530485414750000E9     5.300803821513892E-1   -1.740387952399006E-1   -2.803941524356919E-2   -5.247829795850138E-2   -2.947301333439645E-2   -5.169229441514819E-2    4.032883869533421E-1   -3.032167299532700E-1
 6.530494557700000E9     5.296641875111217E-1   -1.748536678558076E-1   -2.857526004085739E-2   -5.284003548980527E-2   -3.001482461677694E-2   -5.210984696850598E-2    4.022652250754977E-1   -3.040688489400358E-1
 6.530503700650000E9     5.293633932017623E-1   -1.757987767044607E-1   -2.892641568180267E-2   -5.311182130929482E-2   -3.035851725728069E-2   -5.231956348034403E-2    4.012010548254193E-1   -3.052285818400930E-1
 6.530512843600000E9     5.288909098959401E-1   -1.765916705035506E-1   -2.935331496927110E-2   -5.364368382659492E-2   -3.076143819167605E-2   -5.291164607886737E-2    4.001464758369705E-1   -3.064036596475841E-1
 6.530521986550000E9     5.285130012353721E-1   -1.775018888581447E-1   -2.971202625555960E-2   -5.402229103916140E-2   -3.108256598222404E-2   -5.316603576816775E-2    3.990583184797671E-1   -3.074055365835188E-1
 6.530531129500000E9     5.280882870080125E-1   -1.784067569355672E-1   -3.008555753127448E-2   -5.425764058595280E-2   -3.156057618259032E-2   -5.357108408681064E-2    3.981563090659643E-1   -3.085437369000024E-1
