#  HZ   S   RI   R     50.00 
! Rohde & Schwarz Vector Network Analyzer 
! Rohde-Schwarz,ZNB20-2Port,1311601062101988,3.16
! Created: UTC 3/21/2024, 1:24:06 AM
! freq[Hz]                re:S11                  im:S11                  re:S21                  im:S21                  re:S12                  im:S12                  re:S22                  im:S22
 6.529712398000000E9     5.497678757030171E-1   -1.071367241312266E-1   -1.121324890230740E-2   -3.312681506359076E-2   -1.187136045505479E-2   -3.282334753860650E-2    4.560249695060855E-1   -2.266544163068664E-1
 6.529721530550000E9     5.495848051520749E-1   -1.078161385503987E-1   -1.124084847201221E-2   -3.317949909034100E-2   -1.213822387715699E-2   -3.293274948726857E-2    4.557033331877355E-1   -2.274586075915792E-1
 6.529730663100000E9     5.493870668603399E-1   -1.084891531385789E-1   -1.139754886069651E-2   -3.324159584779935E-2   -1.217217981665171E-2   -3.310922798671247E-2    4.551474097172131E-1   -2.282441952082655E-1
 6.529739795650000E9     5.491958921685508E-1   -1.093916172161204E-1   -1.145383866095851E-2   -3.347916767171413E-2   -1.227905068005403E-2   -3.325456819802983E-2    4.545813147687570E-1   -2.291106538397569E-1
 6.529748928200000E9     5.492141212464756E-1   -1.100034829518171E-1   -1.174652282781163E-2   -3.360468784011354E-2   -1.239954935632915E-2   -3.336191727888076E-2    4.542813337543963E-1   -2.298845568368417E-1
 6.529758060750000E9     5.490248802528395E-1   -1.107643395658808E-1   -1.194112515476660E-2   -3.385809800796449E-2   -1.251744058190403E-2   -3.352949146544212E-2    4.538101735064687E-1   -2.306128819437934E-1
 6.529767193300000E9     5.488854288117900E-1   -1.115872068826280E-1   -1.195477449558739E-2   -3.383527428923465E-2   -1.265765729591116E-2   -3.375939762191359E-2    4.535412021797486E-1   -2.314570909914804E-1
 6.529776325850000E9     5.487329478311519E-1   -1.122554150699830E-1   -1.192473128807120E-2   -3.420410174660379E-2   -1.284887475332258E-2   -3.387318807778885E-2    4.531108646094627E-1   -2.322285825722080E-1
 6.529785458400000E9     5.484845747810533E-1   -1.128843663731654E-1   -1.207070651707193E-2   -3.419632680272990E-2   -1.286957726732147E-2   -3.402399701032573E-2    4.526068397215633E-1   -2.329616551528470E-1
 6.529794590950000E9     5.483407741490351E-1   -1.137521604362418E-1   -1.226907184575029E-2   -3.450622802629229E-2   -1.305364977699478E-2   -3.410317746352055E-2    4.521020460365821E-1   -2.337869502170238E-1
 6.529803723500000E9     5.482648442239071E-1   -1.144775305752886E-1   -1.242485843279565E-2   -3.448542818739509E-2   -1.319008998243509E-2   -3.432904276688516E-2    4.518099083729957E-1   -2.345826235267551E-1
 6.529812856050000E9     5.479313843961446E-1   -1.152532044560388E-1   -1.238082840663082E-2   -3.462561451677203E-2   -1.328032536762219E-2   -3.442087214244929E-2    4.512014164449233E-1   -2.354664609598252E-1
 6.529821988600000E9     5.478110073042569E-1   -1.160031321059978E-1   -1.247259987643850E-2   -3.479944512174131E-2   -1.332777357053559E-2   -3.461398932162441E-2    4.509391836615647E-1   -2.360494965368368E-1
 6.529831121150000E9     5.476720140303403E-1   -1.167777262387671E-1   -1.259985562122997E-2   -3.498743439242707E-2   -1.345595478311960E-2   -3.478331039451124E-2    4.503668980256752E-1   -2.368340071632986E-1
 6.529840253700000E9     5.474582870079353E-1   -1.175235282037514E-1   -1.284512826119171E-2   -3.517526619427990E-2   -1.373000424279881E-2   -3.491668772321410E-2    4.499939478623280E-1   -2.377158891103493E-1
 6.529849386250000E9     5.474155156777504E-1   -1.181910042117746E-1   -1.290044417171740E-2   -3.541967265452405E-2   -1.380647088643980E-2   -3.506895463019397E-2    4.494654886914420E-1   -2.385410552365224E-1
 6.529858518800000E9     5.471048280033306E-1   -1.189847274176253E-1   -1.319972266459784E-2   -3.558057020720632E-2   -1.384654887354544E-2   -3.515032062640241E-2    4.490943451416967E-1   -2.393902718431065E-1
 6.529867651350000E9     5.469678537308198E-1   -1.197163295394113E-1   -1.330846535507795E-2   -3.562108090200380E-2   -1.407365019787716E-2   -3.533197080191570E-2    4.485005701475901E-1   -2.402094767239934E-1
 6.529876783900000E9     5.468156396628329E-1   -1.204320802358338E-1   -1.330625907187684E-2   -3.589309910873698E-2   -1.417822135418070E-2   -3.555002156073649E-2    4.480531841179936E-1   -2.409293707320073E-1
 6.529885916450000E9     5.466401375748836E-1   -1.213263343677330E-1   -1.340686066367617E-2   -3.594807202983240E-2   -1.422613701374823E-2   -3.570864935369360E-2    4.475414884057552E-1   -2.416969922627421E-1
 6.529895049000000E9     5.465609479408259E-1   -1.219828538170017E-1   -1.337975291017470E-2   -3.608092863283079E-2   -1.449943745283308E-2   -3.586818335122607E-2    4.468927085802127E-1   -2.426665491021695E-1
 6.529904181550000E9     5.461856020015124E-1   -1.227703984976842E-1   -1.370065187821343E-2   -3.642935115064053E-2   -1.460228152166569E-2   -3.607384872276199E-2    4.466491099200452E-1   -2.433491182185543E-1
 6.529913314100000E9     5.461729119826150E-1   -1.234773400302207E-1   -1.386012479300571E-2   -3.648832420647149E-2   -1.485302341014459E-2   -3.622806513599779E-2    4.462665205094583E-1   -2.443186197905160E-1
 6.529922446650000E9     5.459020548245161E-1   -1.241979408215779E-1   -1.401233287170372E-2   -3.667606756553982E-2   -1.493032191931628E-2   -3.649306165928479E-2    4.458573640631044E-1   -2.451395741026808E-1
 6.529931579200000E9     5.457396014899861E-1   -1.250022850412678E-1   -1.422042268450159E-2   -3.678534472686601E-2   -1.500197149077977E-2   -3.662651938235333E-2    4.451479454958831E-1   -2.459833055022364E-1
 6.529940711750000E9     5.454955605097251E-1   -1.258138896658524E-1   -1.420073836929441E-2   -3.709001769043162E-2   -1.524497992432620E-2   -3.683252960103092E-2    4.445399554397952E-1   -2.471899053634425E-1
 6.529949844300000E9     5.454638666343437E-1   -1.265125940483355E-1   -1.433132125397642E-2   -3.730907826210583E-2   -1.533588383240782E-2   -3.691938149505323E-2    4.440316311598262E-1   -2.476177909769386E-1
 6.529958976850000E9     5.451960864408878E-1   -1.272589662849812E-1   -1.451627276339454E-2   -3.733704410146730E-2   -1.548392970603048E-2   -3.718380794102964E-2    4.436341990175457E-1   -2.485329476107718E-1
 6.529968109400000E9     5.448980556906785E-1   -1.281389444451074E-1   -1.477867263047218E-2   -3.762798364982493E-2   -1.566792238925481E-2   -3.736706749687545E-2    4.431011239027045E-1   -2.493234924456869E-1
 6.529977241950000E9     5.447491937032598E-1   -1.288547937248021E-1   -1.485383835291326E-2   -3.783391860334789E-2   -1.587404213869356E-2   -3.751919410276724E-2    4.425242380420409E-1   -2.500411869957218E-1
 6.529986374500000E9     5.444608709528515E-1   -1.296062326895795E-1   -1.508107198850218E-2   -3.804286478063866E-2   -1.607029858698159E-2   -3.767644613687373E-2    4.421870048152996E-1   -2.508504049489048E-1
 6.529995507050000E9     5.443363742128731E-1   -1.303218742317188E-1   -1.522031611749712E-2   -3.824158132337605E-2   -1.614446717392135E-2   -3.778994747050820E-2    4.414105971696471E-1   -2.520203208641042E-1
 6.530004639600000E9     5.442415392888899E-1   -1.312288223403311E-1   -1.535854075309970E-2   -3.838495211010415E-2   -1.627377571998912E-2   -3.812248114061017E-2    4.410397057160891E-1   -2.526512680722031E-1
 6.530013772150000E9     5.439130467313851E-1   -1.318245463800070E-1   -1.569966665309628E-2   -3.850173925020108E-2   -1.647677084006635E-2   -3.825626262316774E-2    4.405252110462559E-1   -2.536631733034055E-1
 6.530022904700000E9     5.437526796933807E-1   -1.326762094623077E-1   -1.571706814608126E-2   -3.874698006597924E-2   -1.674375424337736E-2   -3.851321824582051E-2    4.399258350816728E-1   -2.545212250417304E-1
 6.530032037250000E9     5.435637336588125E-1   -1.334425078350156E-1   -1.598484588775482E-2   -3.894053604824761E-2   -1.675696731027121E-2   -3.856707855223334E-2    4.394362120553565E-1   -2.551151521580975E-1
 6.530041169800000E9     5.433210854245460E-1   -1.343088352318242E-1   -1.616998584168480E-2   -3.920351278070200E-2   -1.697746045720730E-2   -3.877215529673011E-2    4.388962852556154E-1   -2.560245980528885E-1
 6.530050302350000E9     5.431594945726169E-1   -1.351276739970291E-1   -1.624779370511418E-2   -3.941350775317828E-2   -1.714865607881534E-2   -3.897601257702639E-2    4.381918424358110E-1   -2.570046714561880E-1
 6.530059434900000E9     5.430119423730113E-1   -1.357959640197085E-1   -1.642694506296722E-2   -3.948051688846026E-2   -1.738104905753912E-2   -3.918958213661592E-2    4.377596437270436E-1   -2.578050685327175E-1
 6.530068567450000E9     5.426809079510373E-1   -1.365228214489948E-1   -1.659825067013114E-2   -3.990168058811339E-2   -1.746571705107176E-2   -3.942606119984695E-2    4.372260248547381E-1   -2.589311174152737E-1
 6.530077700000000E9     5.425597099067208E-1   -1.372320529421812E-1   -1.680884841305504E-2   -4.004409505216920E-2   -1.759588711883928E-2   -3.970995160351932E-2    4.365833626788451E-1   -2.595949190161886E-1
 6.530086832550000E9     5.422543890344131E-1   -1.380615693997803E-1   -1.695506201367163E-2   -4.013315143735055E-2   -1.783252224671905E-2   -3.979672992862282E-2    4.359663371618049E-1   -2.604983003843260E-1
 6.530095965100000E9     5.420610222602442E-1   -1.388680362740130E-1   -1.714770097645960E-2   -4.042466418262018E-2   -1.795591979587918E-2   -4.001210051055890E-2    4.353023859203835E-1   -2.614753055817680E-1
 6.530105097650000E9     5.417427662957703E-1   -1.395322540844645E-1   -1.725517731805840E-2   -4.063608426853514E-2   -1.824474323781405E-2   -4.025499055107519E-2    4.347144556824606E-1   -2.623025126085498E-1
 6.530114230200000E9     5.415511099169236E-1   -1.405348659632848E-1   -1.738573528125307E-2   -4.094129044691304E-2   -1.839697486455429E-2   -4.041177652112635E-2    4.342280345769584E-1   -2.630242657269706E-1
 6.530123362750000E9     5.414356113769836E-1   -1.411885705696029E-1   -1.768251337943608E-2   -4.108971524750484E-2   -1.864466702702623E-2   -4.066706145263419E-2    4.335443359961095E-1   -2.639386429532744E-1
 6.530132495300000E9     5.410729543256528E-1   -1.419798490158675E-1   -1.774444943722806E-2   -4.134403076436924E-2   -1.881514249024851E-2   -4.103939536592552E-2    4.329322586900797E-1   -2.649196460290253E-1
 6.530141627850000E9     5.407956001579944E-1   -1.427728309351979E-1   -1.807393873729812E-2   -4.147057388887243E-2   -1.906188505151910E-2   -4.110375643258712E-2    4.323391394955238E-1   -2.657109264387912E-1
 6.530150760400000E9     5.406376545199276E-1   -1.435390168489882E-1   -1.801820305527483E-2   -4.177241500172439E-2   -1.919207582817295E-2   -4.130680335770916E-2    4.318369653423340E-1   -2.666681238741035E-1
 6.530159892950000E9     5.404521535456239E-1   -1.442772758423355E-1   -1.844132267469733E-2   -4.184427814594455E-2   -1.943801508149158E-2   -4.161800222963371E-2    4.311226868140233E-1   -2.675786719482866E-1
 6.530169025500000E9     5.402361491611508E-1   -1.451623930904553E-1   -1.862384487496399E-2   -4.233041356375976E-2   -1.965614756419510E-2   -4.179646809465912E-2    4.305587520882321E-1   -2.686465890791814E-1
 6.530178158050000E9     5.400052120061739E-1   -1.459733996410336E-1   -1.877570939863408E-2   -4.227981879238768E-2   -1.977949893923894E-2   -4.200145841896201E-2    4.298958257257934E-1   -2.693565039120059E-1
 6.530187290600000E9     5.397453041596673E-1   -1.467555728684823E-1   -1.886199322694984E-2   -4.277171539273607E-2   -2.013356311178651E-2   -4.214047620942558E-2    4.292967235441931E-1   -2.703556395402404E-1
 6.530196423150000E9     5.395790911651098E-1   -1.475730351790109E-1   -1.909052606387380E-2   -4.282932236287903E-2   -2.030067365080013E-2   -4.252835287649791E-2    4.285409100623179E-1   -2.712992100607163E-1
 6.530205555700000E9     5.391343019543889E-1   -1.483435233352837E-1   -1.941596104019476E-2   -4.328077595200594E-2   -2.056190608973046E-2   -4.274399254038012E-2    4.279479677796143E-1   -2.722231765788558E-1
 6.530214688250000E9     5.389021586421774E-1   -1.491425773270466E-1   -1.974396696875410E-2   -4.345225852970515E-2   -2.071781737047529E-2   -4.297104945513664E-2    4.272355492825245E-1   -2.730817928962416E-1
 6.530223820800000E9     5.388972084224033E-1   -1.500691061553646E-1   -1.984022868411009E-2   -4.375763240739894E-2   -2.101071998507783E-2   -4.325879334968468E-2    4.266249578677694E-1   -2.741422688500510E-1
 6.530232953350000E9     5.384429050127059E-1   -1.507490395005205E-1   -2.018470465982945E-2   -4.398826940628269E-2   -2.130186362043046E-2   -4.350458051818867E-2    4.258866940120116E-1   -2.750646873577772E-1
 6.530242085900000E9     5.382285627440082E-1   -1.515728103844652E-1   -2.031538078288813E-2   -4.409221524417326E-2   -2.147164590454425E-2   -4.372895254549460E-2    4.249705749100250E-1   -2.760665388653912E-1
 6.530251218450000E9     5.379970507547656E-1   -1.523628886424665E-1   -2.043519892128375E-2   -4.445680677392009E-2   -2.180253104441673E-2   -4.401360611892018E-2    4.245087885277038E-1   -2.768924478677802E-1
 6.530260351000000E9     5.377135523150267E-1   -1.532036954315413E-1   -2.091838159598115E-2   -4.478661634422047E-2   -2.193831017489025E-2   -4.425801596562003E-2    4.238193422219677E-1   -2.777344311760557E-1
 6.530269483550000E9     5.374718331729513E-1   -1.540383643841823E-1   -2.101329102946371E-2   -4.499658259094103E-2   -2.219891249992760E-2   -4.443605551833948E-2    4.230256009041936E-1   -2.788185485395535E-1
 6.530278616100000E9     5.371872492801032E-1   -1.547898553446856E-1   -2.147969530267039E-2   -4.523544925202265E-2   -2.244221848787572E-2   -4.479560938694598E-2    4.222529972188520E-1   -2.796299413832944E-1
 6.530287748650000E9     5.368922058570944E-1   -1.556406787776463E-1   -2.152459516423645E-2   -4.550721453427296E-2   -2.268734848143139E-2   -4.513888696910384E-2    4.215842518996520E-1   -2.806730865255853E-1
 6.530296881200000E9     5.366030590016838E-1   -1.563114053354746E-1   -2.177980045533204E-2   -4.588163985299654E-2   -2.294868186833440E-2   -4.535696428806516E-2    4.208941664772844E-1   -2.816841018326192E-1
 6.530306013750000E9     5.364207025861845E-1   -1.572865118088516E-1   -2.211025199823792E-2   -4.601977986890826E-2   -2.319118596308774E-2   -4.563539346472531E-2    4.202088813536294E-1   -2.825457781391818E-1
 6.530315146300000E9     5.358891047446805E-1   -1.581240826903874E-1   -2.243639421830772E-2   -4.626570140466928E-2   -2.350327177724764E-2   -4.585335575146297E-2    4.193871194280330E-1   -2.835256739280161E-1
 6.530324278850000E9     5.357879855547013E-1   -1.588739072913093E-1   -2.254684285999470E-2   -4.667752698609937E-2   -2.384369543869180E-2   -4.617662958536787E-2    4.186497722810099E-1   -2.846229350829506E-1
 6.530333411400000E9     5.354484438372512E-1   -1.597729824213417E-1   -2.291478919441440E-2   -4.697696417185481E-2   -2.399545215989269E-2   -4.644836544269630E-2    4.179327350078035E-1   -2.855090236129254E-1
 6.530342543950000E9     5.352286133221767E-1   -1.606598904980223E-1   -2.314502088257695E-2   -4.718506560588763E-2   -2.440011660809335E-2   -4.660575927863074E-2    4.170699637995210E-1   -2.865124509815021E-1
 6.530351676500000E9     5.347928100012095E-1   -1.614583385826109E-1   -2.345238713684211E-2   -4.747418040245161E-2   -2.457744714338590E-2   -4.702681608557409E-2    4.163444955029020E-1   -2.875938202009188E-1
 6.530360809050000E9     5.345434178383123E-1   -1.622554241274293E-1   -2.364755575664443E-2   -4.787677135112819E-2   -2.495405291812626E-2   -4.723914940136487E-2    4.153624524033119E-1   -2.885974438797288E-1
 6.530369941600000E9     5.342759933881707E-1   -1.631514585097166E-1   -2.406504803944791E-2   -4.815533295074894E-2   -2.517333640961779E-2   -4.750545069104570E-2    4.146549089561787E-1   -2.895762086886344E-1
 6.530379074150000E9     5.339864910354597E-1   -1.639191665517683E-1   -2.422592653339609E-2   -4.838828770361744E-2   -2.551881332511760E-2   -4.786375422362298E-2    4.138581545423349E-1   -2.906767525001077E-1
 6.530388206700000E9     5.335547414075721E-1   -1.647756972505893E-1   -2.453397729079072E-2   -4.870882838414604E-2   -2.587865556339247E-2   -4.816485715526046E-2    4.130912432458522E-1   -2.917651998412310E-1
 6.530397339250000E9     5.332455067827743E-1   -1.655457049539086E-1   -2.494663524816279E-2   -4.909022519482584E-2   -2.614882381046223E-2   -4.851150317489688E-2    4.122048810163284E-1   -2.925759569895781E-1
 6.530406471800000E9     5.330300176716189E-1   -1.665318099817873E-1   -2.520967782757617E-2   -4.943027734927781E-2   -2.645575771187247E-2   -4.877052626037331E-2    4.112721959050608E-1   -2.935668558312794E-1
 6.530415604350000E9     5.326303329741452E-1   -1.672665786222419E-1   -2.555951276794433E-2   -4.981239268834545E-2   -2.677336220766710E-2   -4.916714741065677E-2    4.104987876292417E-1   -2.947786155994108E-1
 6.530424736900000E9     5.322710946930623E-1   -1.681694797563699E-1   -2.587337760599973E-2   -5.000632652509684E-2   -2.710815191843597E-2   -4.933763767586771E-2    4.094860581449805E-1   -2.957032567868870E-1
 6.530433869450000E9     5.319995512986299E-1   -1.689882718560443E-1   -2.625759727715778E-2   -5.049483895277583E-2   -2.747100805793523E-2   -4.983258305285339E-2    4.087811380909034E-1   -2.968630091288263E-1
 6.530443002000000E9     5.314873908347136E-1   -1.700346800384532E-1   -2.643789261948143E-2   -5.075550644714737E-2   -2.789397108213474E-2   -5.012743799847260E-2    4.075456035480115E-1   -2.980029257522003E-1
 6.530452134550000E9     5.313068832454618E-1   -1.706746098165355E-1   -2.689187767468776E-2   -5.115300679692113E-2   -2.819673248301529E-2   -5.038319317398361E-2    4.066427476234923E-1   -2.989485517323190E-1
 6.530461267100000E9     5.309921326611577E-1   -1.714896690432432E-1   -2.708177435681143E-2   -5.142230549593760E-2   -2.851970782445909E-2   -5.083178809935072E-2    4.058655093880080E-1   -2.999878486121951E-1
 6.530470399650000E9     5.306473305785054E-1   -1.724650256702262E-1   -2.741958162362146E-2   -5.179083044528236E-2   -2.879792004816392E-2   -5.103183451801909E-2    4.048160842765155E-1   -3.010150381036981E-1
 6.530479532200000E9     5.303155619193675E-1   -1.733104095275332E-1   -2.793484451044361E-2   -5.222054706937879E-2   -2.928170568551801E-2   -5.147091130969061E-2    4.039664047132407E-1   -3.021941769131063E-1
 6.530488664750000E9     5.299765574384635E-1   -1.740770251882890E-1   -2.816876350212301E-2   -5.248664769352282E-2   -2.963202596499341E-2   -5.174691461560645E-2    4.029331594002066E-1   -3.033116233352614E-1
 6.530497797300000E9     5.296540371374377E-1   -1.751154237638363E-1   -2.857839229707600E-2   -5.282626877123990E-2   -3.005716111363381E-2   -5.216622023439108E-2    4.020467675008093E-1   -3.043859714932513E-1
 6.530506929850000E9     5.292130146752186E-1   -1.760028866114949E-1   -2.887231947082479E-2   -5.324056040799697E-2   -3.046994849383596E-2   -5.252906718925215E-2    4.010260220551011E-1   -3.055326589491835E-1
 6.530516062400000E9     5.287840004381685E-1   -1.768055726042653E-1   -2.954024323224058E-2   -5.350714145371992E-2   -3.089887196376617E-2   -5.287432003787020E-2    4.000783341449401E-1   -3.065876184998673E-1
 6.530525194950000E9     5.284784766442449E-1   -1.776398673722838E-1   -2.989310852643003E-2   -5.396530112417662E-2   -3.119498196346307E-2   -5.328226417424748E-2    3.990542244515453E-1   -3.077465530982847E-1
 6.530534327500000E9     5.280499367361973E-1   -1.785764681338158E-1   -3.037333624042062E-2   -5.421161109468652E-2   -3.170013443210212E-2   -5.357229013631126E-2    3.979151699420390E-1   -3.087836658067536E-1
