#  HZ   S   RI   R     50.00 
! Rohde & Schwarz Vector Network Analyzer 
! Rohde-Schwarz,ZNB20-2Port,1311601062101988,3.16
! Created: UTC 3/21/2024, 12:53:41 AM
! freq[Hz]                re:S11                  im:S11                  re:S21                  im:S21                  re:S12                  im:S12                  re:S22                  im:S22
 6.528818127000000E9     5.607463571569378E-1   -5.686400960452600E-2   -8.130436611205780E-3   -3.270294135250200E-2   -8.830080476364644E-3   -3.265514460554811E-2    4.812116378463891E-1   -1.868673543266250E-1
 6.528827588300000E9     5.605963076756492E-1   -5.761828551276082E-2   -8.225052634636793E-3   -3.310498649198435E-2   -8.811146177492513E-3   -3.277836162743130E-2    4.808685412502978E-1   -1.876081106914469E-1
 6.528837049600000E9     5.605347943092757E-1   -5.843085703799693E-2   -8.449106671560716E-3   -3.322645940075204E-2   -9.048939054573395E-3   -3.299110897925387E-2    4.806462276168372E-1   -1.884202952050203E-1
 6.528846510900000E9     5.604609708165070E-1   -5.917156876503941E-2   -8.324038030495627E-3   -3.322646078329670E-2   -9.064960314435931E-3   -3.313797590015144E-2    4.801941705800593E-1   -1.892292428256041E-1
 6.528855972200000E9     5.603381988196395E-1   -6.008290835366745E-2   -8.488712255199456E-3   -3.345890290975016E-2   -9.253483761214125E-3   -3.333674520313668E-2    4.798574302336365E-1   -1.902492084154648E-1
 6.528865433500000E9     5.601857947404134E-1   -6.071375367605500E-2   -8.496284882388183E-3   -3.361440843945479E-2   -9.299765703032184E-3   -3.344989424346282E-2    4.794376795520630E-1   -1.910791964602128E-1
 6.528874894800000E9     5.602964832959708E-1   -6.146138719348885E-2   -8.727520038092584E-3   -3.366771488745628E-2   -9.447815011064434E-3   -3.364994213701914E-2    4.790041141776192E-1   -1.918611332600854E-1
 6.528884356100000E9     5.600900729230986E-1   -6.225527610813888E-2   -8.792246723593390E-3   -3.393725050135855E-2   -9.537765663016163E-3   -3.378391049897133E-2    4.787153394307727E-1   -1.927381800936905E-1
 6.528893817400000E9     5.598773786768652E-1   -6.318480785965402E-2   -8.999778643057663E-3   -3.402287607064321E-2   -9.642736615624497E-3   -3.385099388241248E-2    4.784405245449219E-1   -1.935472000063888E-1
 6.528903278700000E9     5.598766126334500E-1   -6.392464390293069E-2   -9.064249818750080E-3   -3.414063693540521E-2   -9.688506822365920E-3   -3.403401206617945E-2    4.778913869816577E-1   -1.945458638261012E-1
 6.528912740000000E9     5.598157487020514E-1   -6.473647642416332E-2   -9.097583149025095E-3   -3.436181951975212E-2   -9.914983875396265E-3   -3.421219433770779E-2    4.776058165159563E-1   -1.952554663711080E-1
 6.528922201300000E9     5.596865355159110E-1   -6.551217132952640E-2   -9.167707834781784E-3   -3.458119583732454E-2   -9.904552717474518E-3   -3.440220339464797E-2    4.771916463910211E-1   -1.962503174053695E-1
 6.528931662600000E9     5.597034380927693E-1   -6.625194510047014E-2   -9.350004310283102E-3   -3.473748641210822E-2   -1.011380931598530E-2   -3.452113511583832E-2    4.767142382119955E-1   -1.970224713161585E-1
 6.528941123900000E9     5.595396225486666E-1   -6.704303285870800E-2   -9.430485368500762E-3   -3.479806723426804E-2   -1.017158579861193E-2   -3.472323207025950E-2    4.763461543650265E-1   -1.976491739638722E-1
 6.528950585200000E9     5.594637618311521E-1   -6.766504786405116E-2   -9.580511250199156E-3   -3.505357954115874E-2   -1.028590693848067E-2   -3.492254593143015E-2    4.761304188601586E-1   -1.988007217875437E-1
 6.528960046500000E9     5.593240214210373E-1   -6.862136878081680E-2   -9.563629220979383E-3   -3.518648806820120E-2   -1.044701242166090E-2   -3.508923690589352E-2    4.756918918834337E-1   -1.995514933863476E-1
 6.528969507800000E9     5.592219776083910E-1   -6.931554790814982E-2   -9.778315366849175E-3   -3.532498830932058E-2   -1.065815365860586E-2   -3.522781158088458E-2    4.753210947336939E-1   -2.004402585211967E-1
 6.528978969100000E9     5.590648380468363E-1   -7.023329773582783E-2   -9.782486536324120E-3   -3.548101618033961E-2   -1.061933217599890E-2   -3.538388010564594E-2    4.748581977740762E-1   -2.013498229335439E-1
 6.528988430400000E9     5.589595733143415E-1   -7.104049867332324E-2   -1.000342410878914E-2   -3.565833561203420E-2   -1.084076458107240E-2   -3.558814048609148E-2    4.744526056325062E-1   -2.021538564108054E-1
 6.528997891700000E9     5.588782307678243E-1   -7.173181102496792E-2   -1.020490070706300E-2   -3.583648876046369E-2   -1.088177636475622E-2   -3.574840781892735E-2    4.741684970425105E-1   -2.031048825636367E-1
 6.529007353000000E9     5.586275197852045E-1   -7.255406857245772E-2   -1.026660340549696E-2   -3.601440038389819E-2   -1.100552660506948E-2   -3.589156721385337E-2    4.736407082660177E-1   -2.038177758789684E-1
 6.529016814300000E9     5.586610080353775E-1   -7.325535149109673E-2   -1.031591690822004E-2   -3.638479184148724E-2   -1.115327457667630E-2   -3.608301518196038E-2    4.730471432569406E-1   -2.047239370950696E-1
 6.529026275600000E9     5.584548932381206E-1   -7.419655220521749E-2   -1.042771650254673E-2   -3.650869141471198E-2   -1.123647742924097E-2   -3.622824924120706E-2    4.728763308544511E-1   -2.055136216957312E-1
 6.529035736900000E9     5.584727064498358E-1   -7.489694190045175E-2   -1.054189721100189E-2   -3.653930721265330E-2   -1.137532329761875E-2   -3.638704326284158E-2    4.722957784992129E-1   -2.065314648123366E-1
 6.529045198200000E9     5.583636396633996E-1   -7.571509800970214E-2   -1.065235082507559E-2   -3.687355067412483E-2   -1.159221271501677E-2   -3.667013848084812E-2    4.718804260215195E-1   -2.074801699511629E-1
 6.529054659500000E9     5.582062275264297E-1   -7.647464594630650E-2   -1.089604116337776E-2   -3.695382407540900E-2   -1.169996670364343E-2   -3.685063929067123E-2    4.715957144563849E-1   -2.082972167347847E-1
 6.529064120800000E9     5.578936052460512E-1   -7.735463526055794E-2   -1.105025409553817E-2   -3.723342586026094E-2   -1.181923773553228E-2   -3.697323147505920E-2    4.709759540354936E-1   -2.092082602403547E-1
 6.529073582100000E9     5.578767295731319E-1   -7.816394849380588E-2   -1.109530175596350E-2   -3.738771184999330E-2   -1.192015045374321E-2   -3.706335699850356E-2    4.705417836814768E-1   -2.102058084133572E-1
 6.529083043400000E9     5.577860503993993E-1   -7.892825631613759E-2   -1.117898592337655E-2   -3.745754536153689E-2   -1.210257522747086E-2   -3.733924745024592E-2    4.703465241918584E-1   -2.110996577122667E-1
 6.529092504700000E9     5.575697453874551E-1   -7.971895815906049E-2   -1.140273089402831E-2   -3.780199890659589E-2   -1.222373418611424E-2   -3.757442923032534E-2    4.695268587419483E-1   -2.120243995607223E-1
 6.529101966000000E9     5.575301995603537E-1   -8.057113674370572E-2   -1.152242926551729E-2   -3.780465853656590E-2   -1.238444165870057E-2   -3.771296911801540E-2    4.692387044622002E-1   -2.127971932632231E-1
 6.529111427300000E9     5.573901962677777E-1   -8.135167406610389E-2   -1.166559454844657E-2   -3.797657812963834E-2   -1.257717851699270E-2   -3.792611853174812E-2    4.687523412841562E-1   -2.137195898974771E-1
 6.529120888600000E9     5.571735242200051E-1   -8.225707332406036E-2   -1.175899454371758E-2   -3.831996266549298E-2   -1.260386144693951E-2   -3.811379797908343E-2    4.682698505264344E-1   -2.145935462153281E-1
 6.529130349900000E9     5.572079598684287E-1   -8.307338160266792E-2   -1.185195594486800E-2   -3.867692201294707E-2   -1.278164164536719E-2   -3.833133238599699E-2    4.678801342088209E-1   -2.155234276996070E-1
 6.529139811200000E9     5.571160011864525E-1   -8.382574414760034E-2   -1.217209614602372E-2   -3.856693053663975E-2   -1.291983780327813E-2   -3.856929695938638E-2    4.673532385385753E-1   -2.164335587231300E-1
 6.529149272500000E9     5.568494628594828E-1   -8.458631086321022E-2   -1.233279085601968E-2   -3.903207498973563E-2   -1.311938015822240E-2   -3.872234862868216E-2    4.669388552088653E-1   -2.172262036496010E-1
 6.529158733800000E9     5.567912225203636E-1   -8.541218859650548E-2   -1.231963356203088E-2   -3.918379855122127E-2   -1.317359349762948E-2   -3.891969704446421E-2    4.664946828214811E-1   -2.181597351568218E-1
 6.529168195100000E9     5.566406850534138E-1   -8.617531890539817E-2   -1.245301490647320E-2   -3.929415247558590E-2   -1.333690617921942E-2   -3.915923829801390E-2    4.661275358961265E-1   -2.193316942114670E-1
 6.529177656400000E9     5.565079622199742E-1   -8.698241790895647E-2   -1.277438553619893E-2   -3.959375862389991E-2   -1.363519460648824E-2   -3.928911275895935E-2    4.654562317395303E-1   -2.200433498248870E-1
 6.529187117700000E9     5.562295530441914E-1   -8.784170157531181E-2   -1.283377612406335E-2   -3.983074551801342E-2   -1.365633604205497E-2   -3.955152708359901E-2    4.651576033440553E-1   -2.211785266365145E-1
 6.529196579000000E9     5.560433824128997E-1   -8.872701984141275E-2   -1.305622999982974E-2   -3.999282570098209E-2   -1.383808899501504E-2   -3.982262999593963E-2    4.645829888809830E-1   -2.220585115776109E-1
 6.529206040300000E9     5.559239042933620E-1   -8.951222602162985E-2   -1.295515719899268E-2   -4.021835893982866E-2   -1.400268563379737E-2   -4.006596769672768E-2    4.640181922679321E-1   -2.229152150434795E-1
 6.529215501600000E9     5.558152204538942E-1   -9.036992030804336E-2   -1.320345839893613E-2   -4.045284619596819E-2   -1.419782349782070E-2   -4.024989546886654E-2    4.636226367570437E-1   -2.239342866017170E-1
 6.529224962900000E9     5.556543238423898E-1   -9.113935048812001E-2   -1.338042421436765E-2   -4.067319559048766E-2   -1.437590583503811E-2   -4.043249111846688E-2    4.629913063791521E-1   -2.250443963725794E-1
 6.529234424200000E9     5.555083417407212E-1   -9.191848850282454E-2   -1.369062133908344E-2   -4.071819337084737E-2   -1.447540518446670E-2   -4.064655920823936E-2    4.624553552555069E-1   -2.257350342380082E-1
 6.529243885500000E9     5.553984966394113E-1   -9.273906950466160E-2   -1.367661493803233E-2   -4.102335194512325E-2   -1.465948636956961E-2   -4.082972374557748E-2    4.619179349982669E-1   -2.267387374399548E-1
 6.529253346800000E9     5.551633268559140E-1   -9.350439581652692E-2   -1.394789857760666E-2   -4.128585940693193E-2   -1.485845057043908E-2   -4.114977968798952E-2    4.614589207499540E-1   -2.277748841710446E-1
 6.529262808100000E9     5.550132921919302E-1   -9.439029399585534E-2   -1.413717399741044E-2   -4.165095474688298E-2   -1.502349275952042E-2   -4.131339260335708E-2    4.609799264014716E-1   -2.286189754811968E-1
 6.529272269400000E9     5.547607954667597E-1   -9.525421904118635E-2   -1.431887944733759E-2   -4.173212333922106E-2   -1.521393429276777E-2   -4.141680672169570E-2    4.603571157557345E-1   -2.296504941709478E-1
 6.529281730700000E9     5.547134141376802E-1   -9.598101477351996E-2   -1.448932313397226E-2   -4.209563104251560E-2   -1.541737265488106E-2   -4.187169060433733E-2    4.597246730532463E-1   -2.306760553959269E-1
 6.529291192000000E9     5.545701594866319E-1   -9.698643240703968E-2   -1.465279436333666E-2   -4.231341487930234E-2   -1.574548969808597E-2   -4.200364645440112E-2    4.591678956199282E-1   -2.316657427417758E-1
 6.529300653300000E9     5.542960143608971E-1   -9.774323963817681E-2   -1.467143036069362E-2   -4.251233759249478E-2   -1.576401854361844E-2   -4.223852133561321E-2    4.586205272572106E-1   -2.326208137772866E-1
 6.529310114600000E9     5.542748514368302E-1   -9.860570662713984E-2   -1.491751183324949E-2   -4.281613064671336E-2   -1.597661882530006E-2   -4.246510584508353E-2    4.580558474238678E-1   -2.335869602576084E-1
 6.529319575900000E9     5.540940810591518E-1   -9.941745589942322E-2   -1.515825193165828E-2   -4.295053050520271E-2   -1.620909749886586E-2   -4.271269540130777E-2    4.575589348029323E-1   -2.345699766594460E-1
 6.529329037200000E9     5.537393444112014E-1   -1.002999656123600E-1   -1.533969079489494E-2   -4.326509190613943E-2   -1.641586429912912E-2   -4.307547765547688E-2    4.569133444589180E-1   -2.356773499172558E-1
 6.529338498500000E9     5.535898426754935E-1   -1.010455592401580E-1   -1.560566411780996E-2   -4.350572403094721E-2   -1.655756395312688E-2   -4.326712118998062E-2    4.562964497207917E-1   -2.365890515184343E-1
 6.529347959800000E9     5.533622143174732E-1   -1.019437836754627E-1   -1.581491169243467E-2   -4.382329846780252E-2   -1.680288715757648E-2   -4.344766115219183E-2    4.558060286908400E-1   -2.375092653410625E-1
 6.529357421100000E9     5.531247348987380E-1   -1.027965414829036E-1   -1.591973916966787E-2   -4.412041958063536E-2   -1.697320892246142E-2   -4.369158945952926E-2    4.550292599210013E-1   -2.385527038017244E-1
 6.529366882400000E9     5.531469478051299E-1   -1.036802403875743E-1   -1.619568683253542E-2   -4.439408979711258E-2   -1.715405111740067E-2   -4.403670549246534E-2    4.545006868863145E-1   -2.396166113364643E-1
 6.529376343700000E9     5.528737456953896E-1   -1.045693774216540E-1   -1.637357889480487E-2   -4.462125649119923E-2   -1.743154835046095E-2   -4.419177785024409E-2    4.537880767539637E-1   -2.405799816029461E-1
 6.529385805000000E9     5.527455632150692E-1   -1.052853230074256E-1   -1.651632590612271E-2   -4.498047499678424E-2   -1.764946000608425E-2   -4.454409412405414E-2    4.532486126877713E-1   -2.414770208290338E-1
 6.529395266300000E9     5.524500188030526E-1   -1.061387422955101E-1   -1.676682883510899E-2   -4.507472544450902E-2   -1.790318976209915E-2   -4.474812560905093E-2    4.527580529174542E-1   -2.427361826691008E-1
 6.529404727600000E9     5.522749840873060E-1   -1.070840887103691E-1   -1.693945156115489E-2   -4.541236878430745E-2   -1.815519847972635E-2   -4.514434038924155E-2    4.519186198244139E-1   -2.436346471768972E-1
 6.529414188900000E9     5.520008802840793E-1   -1.078799194769771E-1   -1.734756579250792E-2   -4.583234866504473E-2   -1.832616556974024E-2   -4.539936992091642E-2    4.513130516533460E-1   -2.445941772685221E-1
 6.529423650200000E9     5.518911685409460E-1   -1.087201844656475E-1   -1.740179329448529E-2   -4.602259164036682E-2   -1.852282525137328E-2   -4.569323184682859E-2    4.508289969767528E-1   -2.458862418789081E-1
 6.529433111500000E9     5.516545802983002E-1   -1.096837161911657E-1   -1.769306051483217E-2   -4.635518255967751E-2   -1.870221473750557E-2   -4.591009399231426E-2    4.498982604191000E-1   -2.466890533460146E-1
 6.529442572800000E9     5.514458639055771E-1   -1.104519677160019E-1   -1.792422229864463E-2   -4.658406954713712E-2   -1.903725722800557E-2   -4.619957257620997E-2    4.494195238525168E-1   -2.478007595152489E-1
 6.529452034100000E9     5.511250499981103E-1   -1.113821868812051E-1   -1.808051547746117E-2   -4.673704579764990E-2   -1.926624572849450E-2   -4.651470552331828E-2    4.487258604339451E-1   -2.489472166520380E-1
 6.529461495400000E9     5.509787719309638E-1   -1.122740437523992E-1   -1.843246961932194E-2   -4.713965088146786E-2   -1.947985421385209E-2   -4.673383698379785E-2    4.479452626242018E-1   -2.499125463614372E-1
 6.529470956700000E9     5.507849810279878E-1   -1.129878953641211E-1   -1.868988731276248E-2   -4.745602487599494E-2   -1.981666753348351E-2   -4.707874446895608E-2    4.472821000846605E-1   -2.509958102121537E-1
 6.529480418000000E9     5.505018655571838E-1   -1.140131856749700E-1   -1.890253305865213E-2   -4.778400837748612E-2   -2.005793263249570E-2   -4.738572064862814E-2    4.465367632681826E-1   -2.521665170922072E-1
 6.529489879300000E9     5.504036870535840E-1   -1.148820040584027E-1   -1.913993941475279E-2   -4.812686208143150E-2   -2.024052343747664E-2   -4.765416382069355E-2    4.458478959000756E-1   -2.531608141450823E-1
 6.529499340600000E9     5.501118849236216E-1   -1.157274835371011E-1   -1.948110394988405E-2   -4.835479771336729E-2   -2.048769060131021E-2   -4.795275703811807E-2    4.451790701034455E-1   -2.540941260301541E-1
 6.529508801900000E9     5.498079797561016E-1   -1.166490153836172E-1   -1.959051716096620E-2   -4.859765133059348E-2   -2.076258388889730E-2   -4.834136989880551E-2    4.445398130774386E-1   -2.551989838980112E-1
 6.529518263200000E9     5.496204096910625E-1   -1.174562972981476E-1   -1.984494742439672E-2   -4.909012953725986E-2   -2.109079135715769E-2   -4.869684032882244E-2    4.436287021394072E-1   -2.563811539204459E-1
 6.529527724500000E9     5.494303286944823E-1   -1.184051247864280E-1   -2.008435803690302E-2   -4.937090798244118E-2   -2.139684562836873E-2   -4.892118877182414E-2    4.429801083017370E-1   -2.576118724669604E-1
 6.529537185800000E9     5.490886862356414E-1   -1.192744359213334E-1   -2.017583763516523E-2   -4.978844537555477E-2   -2.177713323940100E-2   -4.935148687344560E-2    4.422976774539705E-1   -2.587041443510339E-1
 6.529546647100000E9     5.489047194250254E-1   -1.201381969764101E-1   -2.064218233982419E-2   -5.010874716443849E-2   -2.200720164179853E-2   -4.963461612093742E-2    4.414765164891542E-1   -2.597147869667323E-1
 6.529556108400000E9     5.486761587086537E-1   -1.211099379105111E-1   -2.093679188282955E-2   -5.041852032402259E-2   -2.229984896664395E-2   -4.994264294153394E-2    4.405851074281211E-1   -2.609675582441379E-1
 6.529565569700000E9     5.483162130143144E-1   -1.219231358294399E-1   -2.124922673773524E-2   -5.072590684520963E-2   -2.256153925164732E-2   -5.036370574975821E-2    4.398217943642876E-1   -2.620587384655717E-1
 6.529575031000000E9     5.480807648455269E-1   -1.229478770135009E-1   -2.157659767987663E-2   -5.117763066353207E-2   -2.284608058678980E-2   -5.060123227559668E-2    4.391322388307052E-1   -2.631062471130857E-1
 6.529584492300000E9     5.478489198842321E-1   -1.237669901028861E-1   -2.185814196984425E-2   -5.159818478037331E-2   -2.315397346492553E-2   -5.109130483280811E-2    4.381296096733241E-1   -2.643436076647698E-1
 6.529593953600000E9     5.475446487612580E-1   -1.246998289286092E-1   -2.224204297098567E-2   -5.206747044289493E-2   -2.354446740677203E-2   -5.131398137536591E-2    4.372930431237330E-1   -2.654470708373144E-1
 6.529603414900000E9     5.473821786872833E-1   -1.255094168614775E-1   -2.249230363613951E-2   -5.239201182565854E-2   -2.389553840651773E-2   -5.169102264074030E-2    4.365110052741317E-1   -2.666000397613932E-1
 6.529612876200000E9     5.470075944009178E-1   -1.265190871748889E-1   -2.286053746832981E-2   -5.263977661605566E-2   -2.417488858970495E-2   -5.208441133582015E-2    4.355724614061554E-1   -2.678272680689078E-1
 6.529622337500000E9     5.467941379782519E-1   -1.274145096299467E-1   -2.322670357789094E-2   -5.301121899023759E-2   -2.462923165480467E-2   -5.245208718322618E-2    4.348242960802876E-1   -2.689702151346866E-1
 6.529631798800000E9     5.464949823486457E-1   -1.283157696015039E-1   -2.349638387070896E-2   -5.334196487470604E-2   -2.490643640266226E-2   -5.276032644801054E-2    4.338738406457646E-1   -2.700954182551396E-1
 6.529641260100000E9     5.462697933754441E-1   -1.292948981844205E-1   -2.387422101342632E-2   -5.381281630016663E-2   -2.525460400993978E-2   -5.319113714709840E-2    4.330271613264127E-1   -2.714309335664317E-1
 6.529650721400000E9     5.459603420952238E-1   -1.302673620057354E-1   -2.424943924143879E-2   -5.412326105601103E-2   -2.560582461833913E-2   -5.368031948572806E-2    4.321045919018145E-1   -2.724669095047584E-1
 6.529660182700000E9     5.456782421969704E-1   -1.310689092562925E-1   -2.452486947697362E-2   -5.458525375503818E-2   -2.594406185547218E-2   -5.406521083780797E-2    4.310403465711450E-1   -2.736560010757334E-1
 6.529669644000000E9     5.453224369763375E-1   -1.320404545816591E-1   -2.496209255168964E-2   -5.485476014038976E-2   -2.625961949124791E-2   -5.439731962554260E-2    4.301377669618202E-1   -2.750623753140996E-1
