#  HZ   S   RI   R     50.00 
! Rohde & Schwarz Vector Network Analyzer 
! Rohde-Schwarz,ZNB20-2Port,1311601062101988,3.16
! Created: UTC 3/21/2024, 12:54:13 AM
! freq[Hz]                re:S11                  im:S11                  re:S21                  im:S21                  re:S12                  im:S12                  re:S22                  im:S22
 6.528810534000000E9     5.608325573497063E-1   -5.586560630611525E-2   -7.937981140079859E-3   -3.254265484192206E-2   -8.712628463447825E-3   -3.248824117993105E-2    4.811849323756452E-1   -1.855974995558325E-1
 6.528820101300000E9     5.606785309756743E-1   -5.668346111643871E-2   -7.971376592959600E-3   -3.271512720739149E-2   -8.751193508913754E-3   -3.249714131167156E-2    4.806598889091357E-1   -1.864976096267856E-1
 6.528829668600000E9     5.605473705607957E-1   -5.746049269044950E-2   -8.150109336785111E-3   -3.282229834766179E-2   -8.864271742036611E-3   -3.267468118916675E-2    4.804732107605125E-1   -1.872995365475623E-1
 6.528839235900000E9     5.605352053363248E-1   -5.830406187258724E-2   -8.205531965615047E-3   -3.289238677155007E-2   -9.025815587506302E-3   -3.280589608223385E-2    4.801785903455318E-1   -1.880633011184947E-1
 6.528848803200000E9     5.604100793162013E-1   -5.901358035507085E-2   -8.260365429975393E-3   -3.298377907130005E-2   -9.042764018550158E-3   -3.294914244134892E-2    4.796138978593856E-1   -1.890526287691080E-1
 6.528858370500000E9     5.601877176195434E-1   -5.969660759168936E-2   -8.290869171392863E-3   -3.324724451679347E-2   -9.208400929433060E-3   -3.312784373014276E-2    4.793446267624232E-1   -1.899049334978029E-1
 6.528867937800000E9     5.602922176363937E-1   -6.055093172985362E-2   -8.602299408186463E-3   -3.340322895378935E-2   -9.314094241280838E-3   -3.323441519419697E-2    4.788782012214572E-1   -1.907604503839823E-1
 6.528877505100000E9     5.600910571349415E-1   -6.137629813132141E-2   -8.638199044987032E-3   -3.364491307284172E-2   -9.404673600725427E-3   -3.346892217011056E-2    4.785056108751142E-1   -1.915009266371711E-1
 6.528887072400000E9     5.599998432250773E-1   -6.208387746335743E-2   -8.819766630307606E-3   -3.364705327893331E-2   -9.386931498378199E-3   -3.358491790055539E-2    4.781828561664784E-1   -1.923985646364108E-1
 6.528896639700000E9     5.600188971430168E-1   -6.290558254916190E-2   -8.755481936924396E-3   -3.390850976364804E-2   -9.549057056469600E-3   -3.375453447312724E-2    4.778134953595653E-1   -1.933885384023319E-1
 6.528906207000000E9     5.598108208758524E-1   -6.370262639108480E-2   -8.988616231081607E-3   -3.407508126268539E-2   -9.616652567876988E-3   -3.388258811684856E-2    4.775620497388429E-1   -1.940109309630990E-1
 6.528915774300000E9     5.598101177994963E-1   -6.444576745211278E-2   -8.982387966669760E-3   -3.413835844920411E-2   -9.836271943060228E-3   -3.395549565069540E-2    4.770479564230778E-1   -1.949586331305508E-1
 6.528925341600000E9     5.596066354020982E-1   -6.523232999182998E-2   -9.088762742158168E-3   -3.437913293398574E-2   -9.757474652204379E-3   -3.411925950600671E-2    4.767679568183509E-1   -1.957150557346892E-1
 6.528934908900000E9     5.596438470268220E-1   -6.604487289466289E-2   -9.158265991092675E-3   -3.455331812178418E-2   -1.010417031711878E-2   -3.443539185798539E-2    4.763315363942264E-1   -1.966050442562480E-1
 6.528944476200000E9     5.595082472069625E-1   -6.687863619167117E-2   -9.431181333667358E-3   -3.461201140579685E-2   -1.013735343528710E-2   -3.446672094832302E-2    4.758922983395953E-1   -1.974888760772236E-1
 6.528954043500000E9     5.591866445514778E-1   -6.763963780643426E-2   -9.446557564754179E-3   -3.473612358967106E-2   -1.024539006954734E-2   -3.458984975726002E-2    4.754696635852340E-1   -1.983451601198734E-1
 6.528963610800000E9     5.592519016609033E-1   -6.846558202346680E-2   -9.591282597740869E-3   -3.488619027422644E-2   -1.047192459738769E-2   -3.475343095714346E-2    4.750312448856349E-1   -1.992822744818325E-1
 6.528973178100000E9     5.590511469889239E-1   -6.930018176832063E-2   -9.647642620140236E-3   -3.511415634905906E-2   -1.044715899786000E-2   -3.510257772865372E-2    4.747655351145071E-1   -2.001646621241371E-1
 6.528982745400000E9     5.589418505621545E-1   -6.999798957391699E-2   -9.952077433250491E-3   -3.528530810807463E-2   -1.066837353844221E-2   -3.514383716802230E-2    4.743176679689510E-1   -2.010201728288881E-1
 6.528992312700000E9     5.589039350745851E-1   -7.084964981545618E-2   -9.824795033829039E-3   -3.549324169193895E-2   -1.077816761954025E-2   -3.532298079458134E-2    4.739336294472599E-1   -2.017960356110427E-1
 6.529001880000000E9     5.587492079729273E-1   -7.169639176286706E-2   -1.008444543797339E-2   -3.573206362476625E-2   -1.085212838232773E-2   -3.546391670521677E-2    4.734697955409937E-1   -2.027169497982063E-1
 6.529011447300000E9     5.586460735341583E-1   -7.253678580954567E-2   -1.014878821276124E-2   -3.586320080313241E-2   -1.095175820476439E-2   -3.560724464690840E-2    4.732060187506910E-1   -2.035732917288545E-1
 6.529021014600000E9     5.585148271003293E-1   -7.332453348492166E-2   -1.027961292243400E-2   -3.609539611788399E-2   -1.113216555852368E-2   -3.591912804485658E-2    4.726469031435099E-1   -2.044302453907844E-1
 6.529030581900000E9     5.585281286874606E-1   -7.404019566797668E-2   -1.052124683142565E-2   -3.617484974978071E-2   -1.126208574979759E-2   -3.599523669563746E-2    4.722369591883186E-1   -2.053457814094749E-1
 6.529040149200000E9     5.582176473540027E-1   -7.495990019009086E-2   -1.033455172606274E-2   -3.638223894590298E-2   -1.139897423021684E-2   -3.620526795046999E-2    4.718983525688900E-1   -2.062230451570330E-1
 6.529049716500000E9     5.582117682094733E-1   -7.565956701867223E-2   -1.084623810341267E-2   -3.653675139227480E-2   -1.150798413025128E-2   -3.633505436985365E-2    4.716058614627046E-1   -2.073085133578004E-1
 6.529059283800000E9     5.580602034305642E-1   -7.645074435547321E-2   -1.079914539626386E-2   -3.677833921659344E-2   -1.154981565679565E-2   -3.664616548019946E-2    4.711109369435736E-1   -2.080817928138644E-1
 6.529068851100000E9     5.579633254900086E-1   -7.742557764294604E-2   -1.093173001084398E-2   -3.699592277497368E-2   -1.175879022813768E-2   -3.675373433894260E-2    4.706565853301814E-1   -2.089271087458900E-1
 6.529078418400000E9     5.577301253374241E-1   -7.800476238820513E-2   -1.114094261289199E-2   -3.711776867836259E-2   -1.192256130168931E-2   -3.693511320636524E-2    4.701847723035738E-1   -2.099198356220164E-1
 6.529087985700000E9     5.577335216742833E-1   -7.887265090069281E-2   -1.122596889473875E-2   -3.736680584187215E-2   -1.201640015128308E-2   -3.708681506606888E-2    4.697191333106925E-1   -2.106857142816464E-1
 6.529097553000000E9     5.575097033675975E-1   -7.970381731701533E-2   -1.117466633816003E-2   -3.745935795711815E-2   -1.223543378967479E-2   -3.724971860688712E-2    4.692067937408058E-1   -2.117803288347128E-1
 6.529107120300000E9     5.573278748443244E-1   -8.059140509475825E-2   -1.150638589743845E-2   -3.766148847169822E-2   -1.225564823417710E-2   -3.740676673652825E-2    4.688055664894613E-1   -2.125409303249104E-1
 6.529116687600000E9     5.573287793526308E-1   -8.134258827802152E-2   -1.168421473785382E-2   -3.791143592339259E-2   -1.235256031175717E-2   -3.772835570991848E-2    4.682433769825719E-1   -2.135629818193019E-1
 6.529126254900000E9     5.571187282697480E-1   -8.210681881186314E-2   -1.169092845854862E-2   -3.801147469632447E-2   -1.253365733729135E-2   -3.791838929158155E-2    4.679043596648821E-1   -2.144170832340020E-1
 6.529135822200000E9     5.570192181254379E-1   -8.293320505577939E-2   -1.193660319691360E-2   -3.824413239454948E-2   -1.275549005055219E-2   -3.814773016075241E-2    4.672040171890862E-1   -2.153943547418300E-1
 6.529145389500000E9     5.569139845763140E-1   -8.381166927580647E-2   -1.217690002391195E-2   -3.849998211004787E-2   -1.289014177793352E-2   -3.830711150117042E-2    4.667867744095713E-1   -2.161961054318484E-1
 6.529154956800000E9     5.567262945133485E-1   -8.463186027023731E-2   -1.199307443874993E-2   -3.854710469728371E-2   -1.304884814897236E-2   -3.853485986824527E-2    4.664605767227611E-1   -2.172282765225621E-1
 6.529164524100000E9     5.565742781260916E-1   -8.537346007670767E-2   -1.236780435964208E-2   -3.885119765488979E-2   -1.312032256759367E-2   -3.867997650802305E-2    4.659748236385753E-1   -2.181307928348838E-1
 6.529174091400000E9     5.564781909308345E-1   -8.618328201665038E-2   -1.234202930206008E-2   -3.912996788975370E-2   -1.327354653305275E-2   -3.891806308574183E-2    4.654471038234074E-1   -2.190263527548132E-1
 6.529183658700000E9     5.563994494958638E-1   -8.700925313142076E-2   -1.269622618368922E-2   -3.937265631277397E-2   -1.355104734875745E-2   -3.925864682211928E-2    4.650524033087349E-1   -2.200457109307344E-1
 6.529193226000000E9     5.560879767260805E-1   -8.778062406570079E-2   -1.278200099113150E-2   -3.954247042278160E-2   -1.359126086262526E-2   -3.930436165964829E-2    4.642471380633013E-1   -2.209854211482757E-1
 6.529202793300000E9     5.559807756007831E-1   -8.875557083048261E-2   -1.282529530460089E-2   -3.990743315417825E-2   -1.381135338580011E-2   -3.966962525533090E-2    4.639744739701988E-1   -2.219433444398885E-1
 6.529212360600000E9     5.557957554936435E-1   -8.945521309656213E-2   -1.306932078227669E-2   -3.994549647833803E-2   -1.400378335911248E-2   -3.975317936349619E-2    4.634237093781178E-1   -2.229254484454777E-1
 6.529221927900000E9     5.557065815488229E-1   -9.044769847016654E-2   -1.331210884240847E-2   -4.019825364033385E-2   -1.422958636639630E-2   -3.994235787219728E-2    4.629977461883918E-1   -2.237177915561823E-1
 6.529231495200000E9     5.555505043934963E-1   -9.117219613538335E-2   -1.338806060422911E-2   -4.048639876217087E-2   -1.424583626961542E-2   -4.015285339059157E-2    4.624905394514608E-1   -2.245123212061127E-1
 6.529241062500000E9     5.552804010337302E-1   -9.199600276589159E-2   -1.344785417904704E-2   -4.056537063576757E-2   -1.455569887915167E-2   -4.041471711644199E-2    4.618909191118268E-1   -2.257292912974015E-1
 6.529250629800000E9     5.552806110156522E-1   -9.288838594413838E-2   -1.380670379627677E-2   -4.080517996512288E-2   -1.461125608782340E-2   -4.058535549399134E-2    4.613116894569859E-1   -2.265919301841963E-1
 6.529260197100000E9     5.550284710423889E-1   -9.368330058186949E-2   -1.393673226177253E-2   -4.110996079923861E-2   -1.485532225084898E-2   -4.081062616483604E-2    4.608830691358490E-1   -2.276294586266050E-1
 6.529269764400000E9     5.548558376798270E-1   -9.447603902034417E-2   -1.409859731004084E-2   -4.125202921493792E-2   -1.505129347496182E-2   -4.112811745019678E-2    4.603725403632188E-1   -2.285806061016526E-1
 6.529279331700000E9     5.548090263022414E-1   -9.530254704322827E-2   -1.422019791635938E-2   -4.147003460087136E-2   -1.523570302945718E-2   -4.139827708035929E-2    4.596829064269249E-1   -2.294152667320758E-1
 6.529288899000000E9     5.545816749606999E-1   -9.618740585417859E-2   -1.437798483449649E-2   -4.175886607643202E-2   -1.536375667923467E-2   -4.157189188994163E-2    4.593622759782074E-1   -2.305378263065579E-1
 6.529298466300000E9     5.543689114779671E-1   -9.705963299867723E-2   -1.462848005034791E-2   -4.224051680601081E-2   -1.572666326000627E-2   -4.174329404824647E-2    4.585027738952543E-1   -2.313940304736337E-1
 6.529308033600000E9     5.542518639443685E-1   -9.778579106692120E-2   -1.469344763207492E-2   -4.221470209068214E-2   -1.578823286306395E-2   -4.210444664764407E-2    4.581700080967509E-1   -2.325003617778688E-1
 6.529317600900000E9     5.540790810978852E-1   -9.867898420405870E-2   -1.496661785957737E-2   -4.257306673790784E-2   -1.599302841746168E-2   -4.220568987700898E-2    4.572607892544013E-1   -2.334135274118208E-1
 6.529327168200000E9     5.538533054375812E-1   -9.964307262010144E-2   -1.508351602059041E-2   -4.267379166752915E-2   -1.614947456854005E-2   -4.253615539210617E-2    4.569437107032059E-1   -2.345762095902535E-1
 6.529336735500000E9     5.536929657554446E-1   -1.004326143002468E-1   -1.530640146032593E-2   -4.286299371941775E-2   -1.637003146080050E-2   -4.274151274888140E-2    4.563439856637080E-1   -2.353720664516855E-1
 6.529346302800000E9     5.534651327930664E-1   -1.013291080584863E-1   -1.554452592013153E-2   -4.343259424528357E-2   -1.655536216967687E-2   -4.309742012378219E-2    4.557532109762058E-1   -2.366447569817976E-1
 6.529355870100000E9     5.532712569951544E-1   -1.021450157058621E-1   -1.577961680367987E-2   -4.357790462096525E-2   -1.674100837362788E-2   -4.327413763318786E-2    4.551840497112555E-1   -2.374658415656980E-1
 6.529365437400000E9     5.531955913270201E-1   -1.028910178212793E-1   -1.604802483370305E-2   -4.369989228592113E-2   -1.692159870655181E-2   -4.354865336757614E-2    4.545840828399629E-1   -2.384364127993515E-1
 6.529375004700000E9     5.529413877544515E-1   -1.037826915921447E-1   -1.627750847507638E-2   -4.416456920065834E-2   -1.714190819088414E-2   -4.371328809761673E-2    4.538113383525793E-1   -2.393131278965444E-1
 6.529384572000000E9     5.527335711569008E-1   -1.046248808571037E-1   -1.629232372537814E-2   -4.430898513165421E-2   -1.733962114688693E-2   -4.401550763248134E-2    4.532741774547283E-1   -2.405937306921886E-1
 6.529394139300000E9     5.525403307679818E-1   -1.054987689009022E-1   -1.651449865643767E-2   -4.463243157323915E-2   -1.768798937758920E-2   -4.432045334459559E-2    4.525888179269898E-1   -2.414584671679856E-1
 6.529403706600000E9     5.522832050926301E-1   -1.064349599323431E-1   -1.677498526457732E-2   -4.481318581114405E-2   -1.791574604898003E-2   -4.458474095089998E-2    4.522633443010052E-1   -2.426388232366694E-1
 6.529413273900000E9     5.521847116928628E-1   -1.072141297736300E-1   -1.707357904123946E-2   -4.511415882525036E-2   -1.812711199356891E-2   -4.487983905134790E-2    4.514895225946093E-1   -2.435204968146644E-1
 6.529422841200000E9     5.519863239328693E-1   -1.081121549866916E-1   -1.718958675433220E-2   -4.554940287626774E-2   -1.829524859650629E-2   -4.515373400109209E-2    4.507271117741660E-1   -2.446856060498933E-1
 6.529432408500000E9     5.517742849474927E-1   -1.089518626684557E-1   -1.736701696220458E-2   -4.569784060653656E-2   -1.849107403157872E-2   -4.551049952430047E-2    4.501139376716528E-1   -2.455658064576391E-1
 6.529441975800000E9     5.515389245053682E-1   -1.098244373894564E-1   -1.770445746251216E-2   -4.605877835843937E-2   -1.870063919213987E-2   -4.580373548481829E-2    4.495917878019684E-1   -2.465752341246094E-1
 6.529451543100000E9     5.512447453515401E-1   -1.106668942749357E-1   -1.796105227948553E-2   -4.654334992023202E-2   -1.901367421654801E-2   -4.596349152875756E-2    4.487573936253601E-1   -2.477281386668113E-1
 6.529461110400000E9     5.510618611342285E-1   -1.115911182871589E-1   -1.806781229476823E-2   -4.670242136981973E-2   -1.927700242003756E-2   -4.636961217882142E-2    4.480573970522851E-1   -2.488660106184248E-1
 6.529470677700000E9     5.509262351216520E-1   -1.125309871400647E-1   -1.843321020969137E-2   -4.698723476438238E-2   -1.950576283356432E-2   -4.656864976322262E-2    4.473842875246216E-1   -2.500557498707311E-1
 6.529480245000000E9     5.506499636229734E-1   -1.134128701885823E-1   -1.863892923197549E-2   -4.732197881593541E-2   -1.980929075835919E-2   -4.695700958959130E-2    4.465540187694577E-1   -2.509064040547352E-1
 6.529489812300000E9     5.503477797758138E-1   -1.142127256648102E-1   -1.887201907605641E-2   -4.757851908982472E-2   -2.002830396429910E-2   -4.714993241769112E-2    4.459244734196909E-1   -2.519851051784774E-1
 6.529499379600000E9     5.502566618139347E-1   -1.151308906648913E-1   -1.906000174430723E-2   -4.792578577208931E-2   -2.028844851661153E-2   -4.749393652828107E-2    4.451739229600922E-1   -2.532116368646137E-1
 6.529508946900000E9     5.499252311120114E-1   -1.159885961449799E-1   -1.923036384110125E-2   -4.816100139678760E-2   -2.056334551841945E-2   -4.783034274371974E-2    4.445116526216173E-1   -2.542900289575244E-1
 6.529518514200000E9     5.497477517305749E-1   -1.169229647718626E-1   -1.975631596008479E-2   -4.858057325108344E-2   -2.083098817952821E-2   -4.809947853247278E-2    4.438095219429699E-1   -2.552922545125629E-1
 6.529528081500000E9     5.495062622011964E-1   -1.177797276437337E-1   -1.989545629933153E-2   -4.880740238609277E-2   -2.113811201386953E-2   -4.848091319154122E-2    4.430925282256688E-1   -2.562898492203216E-1
 6.529537648800000E9     5.491983311913760E-1   -1.186637210273005E-1   -2.018095201567686E-2   -4.910899196945860E-2   -2.147906444141218E-2   -4.878572172426872E-2    4.423613993805976E-1   -2.574834195776617E-1
 6.529547216100000E9     5.490003776229565E-1   -1.195725491552353E-1   -2.042335027357497E-2   -4.936452639597135E-2   -2.167101641063150E-2   -4.917435238626253E-2    4.415051042483686E-1   -2.586217611221735E-1
 6.529556783400000E9     5.487800138690148E-1   -1.205173489226934E-1   -2.084118689412276E-2   -4.990302353814940E-2   -2.207872154906479E-2   -4.949380936463231E-2    4.407066686636602E-1   -2.598034731792783E-1
 6.529566350700000E9     5.484515052389336E-1   -1.214522905644096E-1   -2.097437907313178E-2   -5.020023506410891E-2   -2.235798677647951E-2   -4.980060318889766E-2    4.398790568390778E-1   -2.608559309881865E-1
 6.529575918000000E9     5.481259114802276E-1   -1.222544114153546E-1   -2.146644019455147E-2   -5.053369958313867E-2   -2.254142257570166E-2   -5.006557473247154E-2    4.391136168542911E-1   -2.620711536343204E-1
 6.529585485300000E9     5.480276733534353E-1   -1.231829598497178E-1   -2.160586719422143E-2   -5.086938871001766E-2   -2.296097994339399E-2   -5.043696658911140E-2    4.382373878431754E-1   -2.631650096252102E-1
 6.529595052600000E9     5.476896659440893E-1   -1.241468366243411E-1   -2.195286270252491E-2   -5.121916631948512E-2   -2.324365597717333E-2   -5.085609028705101E-2    4.374501666537864E-1   -2.643075612058489E-1
 6.529604619900000E9     5.474332864490227E-1   -1.250567058218144E-1   -2.225503648370318E-2   -5.159177551100902E-2   -2.358210358097546E-2   -5.117107494947880E-2    4.366907947278544E-1   -2.655498746943425E-1
 6.529614187200000E9     5.471169136943050E-1   -1.258706898355787E-1   -2.271858490029527E-2   -5.192250768074753E-2   -2.384000368695592E-2   -5.144023289798110E-2    4.357696950533019E-1   -2.666012598075235E-1
 6.529623754500000E9     5.468965322279837E-1   -1.268597642719226E-1   -2.292524782775089E-2   -5.235071007842146E-2   -2.432801617200122E-2   -5.189799879743139E-2    4.348186588075064E-1   -2.678464398421899E-1
 6.529633321800000E9     5.465594092675387E-1   -1.278068320706421E-1   -2.337710703210314E-2   -5.276125192483690E-2   -2.451386574828240E-2   -5.225265467109831E-2    4.337995699524953E-1   -2.691358730771120E-1
 6.529642889100000E9     5.462947819669942E-1   -1.287610225728225E-1   -2.358029920648682E-2   -5.314211809339530E-2   -2.501434591684967E-2   -5.261125336746950E-2    4.330060215262000E-1   -2.702098896854007E-1
 6.529652456400000E9     5.458999026497746E-1   -1.296745857317007E-1   -2.408398262659772E-2   -5.351875857533461E-2   -2.534101951402704E-2   -5.298393030904454E-2    4.321409045607094E-1   -2.713953060073917E-1
 6.529662023700000E9     5.457114899520037E-1   -1.306951612347900E-1   -2.411840273998761E-2   -5.384324306900867E-2   -2.573392494197345E-2   -5.336406119646312E-2    4.311783198807094E-1   -2.725781353943977E-1
 6.529671591000000E9     5.453607932840343E-1   -1.314960629967918E-1   -2.479414823017350E-2   -5.423088441518632E-2   -2.601102958721167E-2   -5.382265613148303E-2    4.301992110963955E-1   -2.737821028414717E-1
