#  HZ   S   RI   R     50.00 
! Rohde & Schwarz Vector Network Analyzer 
! Rohde-Schwarz,ZNB20-2Port,1311601062101988,3.16
! Created: UTC 3/21/2024, 12:50:39 AM
! freq[Hz]                re:S11                  im:S11                  re:S21                  im:S21                  re:S12                  im:S12                  re:S22                  im:S22
 6.528786953000000E9     5.612821403480875E-1   -5.735815026609705E-2   -8.434131474023172E-3   -3.429379035864884E-2   -9.238339555672515E-3   -3.415510187634156E-2    4.829053943720826E-1   -1.907791831009899E-1
 6.528796035300000E9     5.611519937263924E-1   -5.811686009621470E-2   -8.475920815109231E-3   -3.432675956204907E-2   -9.274023835148552E-3   -3.432014365954358E-2    4.825773459775463E-1   -1.917194146441905E-1
 6.528805117600000E9     5.610483651762938E-1   -5.881752096838210E-2   -8.714644959646720E-3   -3.455950122567086E-2   -9.442898787330642E-3   -3.453881609161590E-2    4.822427417342300E-1   -1.925472653244172E-1
 6.528814199900000E9     5.608973019562702E-1   -5.956951767938744E-2   -8.759509649200010E-3   -3.479379158134296E-2   -9.524744900472486E-3   -3.468844724801150E-2    4.820266586545157E-1   -1.934553226262438E-1
 6.528823282200000E9     5.608989785533877E-1   -6.029204977657775E-2   -8.854950644298410E-3   -3.482936146056614E-2   -9.598068073762492E-3   -3.487028687346386E-2    4.815026126959261E-1   -1.941979278349257E-1
 6.528832364500000E9     5.607522601101865E-1   -6.100721432110177E-2   -8.895789737888436E-3   -3.508440900860930E-2   -9.639668086603199E-3   -3.491820175824503E-2    4.811679785187539E-1   -1.949243574559591E-1
 6.528841446800000E9     5.606321273900249E-1   -6.185104263456619E-2   -9.109657459362059E-3   -3.515127156478837E-2   -9.811982440982123E-3   -3.514015331292342E-2    4.808315276238152E-1   -1.958216042311541E-1
 6.528850529100000E9     5.605672403343142E-1   -6.260741004447497E-2   -9.090812286757706E-3   -3.524582506355475E-2   -1.005692581643618E-2   -3.535750971622592E-2    4.803034803103053E-1   -1.966776847583895E-1
 6.528859611400000E9     5.604773370541452E-1   -6.333566585641261E-2   -9.224478477345550E-3   -3.551964601233015E-2   -1.005275668080523E-2   -3.543769363219294E-2    4.799700451972911E-1   -1.974059545559639E-1
 6.528868693700000E9     5.604259692252103E-1   -6.404299515692104E-2   -9.396376738033495E-3   -3.568665855359097E-2   -1.022124321657172E-2   -3.562601766286300E-2    4.797557621183492E-1   -1.984236565293337E-1
 6.528877776000000E9     5.603411355489423E-1   -6.477504800540847E-2   -9.454796491797146E-3   -3.595888634470411E-2   -1.027060353855325E-2   -3.584353901234571E-2    4.791808497354575E-1   -1.991304004567045E-1
 6.528886858300000E9     5.602826762064609E-1   -6.567694672735609E-2   -9.535312947782001E-3   -3.609601421432861E-2   -1.038106722761020E-2   -3.593628792527091E-2    4.788232797226071E-1   -2.000890284638672E-1
 6.528895940600000E9     5.600836238311101E-1   -6.640486552483696E-2   -9.826605444209909E-3   -3.616635756152815E-2   -1.046217779538090E-2   -3.608454167737294E-2    4.786124104721728E-1   -2.008231925495349E-1
 6.528905022900000E9     5.598923675659212E-1   -6.709739855061586E-2   -9.807798604113387E-3   -3.640383904583370E-2   -1.060271025338913E-2   -3.622660992459898E-2    4.782293173269892E-1   -2.018487688198020E-1
 6.528914105200000E9     5.599014254531439E-1   -6.785643083531070E-2   -9.948419763196343E-3   -3.657501812650015E-2   -1.081763838999861E-2   -3.643473287596939E-2    4.777487678090408E-1   -2.026194486169565E-1
 6.528923187500000E9     5.597522976994793E-1   -6.862699857384479E-2   -1.010156736121042E-2   -3.676615340383033E-2   -1.086604656450836E-2   -3.667200070320314E-2    4.771872052143074E-1   -2.033096271227330E-1
 6.528932269800000E9     5.596028758539486E-1   -6.946867731012303E-2   -1.012408481554553E-2   -3.690559378459073E-2   -1.101659529954802E-2   -3.675433861055417E-2    4.770108776359130E-1   -2.043001195002592E-1
 6.528941352100000E9     5.596199393099824E-1   -7.024830101755539E-2   -1.026169682518562E-2   -3.705358927466974E-2   -1.110896672024971E-2   -3.700166413553857E-2    4.765325233107752E-1   -2.051496712239907E-1
 6.528950434400000E9     5.594350521854839E-1   -7.093530215586394E-2   -1.038300741422677E-2   -3.723376208137529E-2   -1.125601179647886E-2   -3.718401588714296E-2    4.760688504210387E-1   -2.062451345702085E-1
 6.528959516700000E9     5.593064408041125E-1   -7.182413160045593E-2   -1.042110383793526E-2   -3.743783918128694E-2   -1.137200625844559E-2   -3.732328170069985E-2    4.757887057538134E-1   -2.068516127353926E-1
 6.528968599000000E9     5.593151342159353E-1   -7.250209956220408E-2   -1.066499040074491E-2   -3.769986461868958E-2   -1.148833380824643E-2   -3.761452867952664E-2    4.753866495866975E-1   -2.078932418580634E-1
 6.528977681300000E9     5.590818578815548E-1   -7.326658893015846E-2   -1.073232615863741E-2   -3.784199886304199E-2   -1.157943355811669E-2   -3.772289020254013E-2    4.749487472137250E-1   -2.086540638171286E-1
 6.528986763600000E9     5.590441228569464E-1   -7.397000150755328E-2   -1.086507226657968E-2   -3.804844740360385E-2   -1.179827116302301E-2   -3.791265291448929E-2    4.743110999604628E-1   -2.096006764627726E-1
 6.528995845900000E9     5.588754775548469E-1   -7.479736557286333E-2   -1.096092662683586E-2   -3.827546526892049E-2   -1.198076968013592E-2   -3.805352970486373E-2    4.740600426731999E-1   -2.104520447885918E-1
 6.529004928200000E9     5.587530311588872E-1   -7.578332151265231E-2   -1.104400069884225E-2   -3.842722142952462E-2   -1.203029421869038E-2   -3.824560035016463E-2    4.736756845054340E-1   -2.113058335150931E-1
 6.529014010500000E9     5.587079162936066E-1   -7.637595153446113E-2   -1.111443737042400E-2   -3.857734866567308E-2   -1.220900466634049E-2   -3.839453672118870E-2    4.731932536760831E-1   -2.122435753431371E-1
 6.529023092800000E9     5.585798778039961E-1   -7.717231421735214E-2   -1.143029651792509E-2   -3.873321809274278E-2   -1.228538728945868E-2   -3.860308078850851E-2    4.727478458990861E-1   -2.131149398717174E-1
 6.529032175100000E9     5.584527317512847E-1   -7.799605255795342E-2   -1.158468376014416E-2   -3.893914223851045E-2   -1.240760662351697E-2   -3.881663315883867E-2    4.723011371553403E-1   -2.139805358257366E-1
 6.529041257400000E9     5.581533179976294E-1   -7.869511327980008E-2   -1.168978574680756E-2   -3.919022874233327E-2   -1.255983038444622E-2   -3.899188752650472E-2    4.717611666930005E-1   -2.148659315839521E-1
 6.529050339700000E9     5.581318240249626E-1   -7.951797473678344E-2   -1.167869489214608E-2   -3.942639721727357E-2   -1.266068711780549E-2   -3.919236403353098E-2    4.713449525778472E-1   -2.157213836182464E-1
 6.529059422000000E9     5.580678164224301E-1   -8.035574422140961E-2   -1.199433151494631E-2   -3.964136020969729E-2   -1.275814635051061E-2   -3.935225468298729E-2    4.709979250187992E-1   -2.168654610049258E-1
 6.529068504300000E9     5.580293473038191E-1   -8.108060691358991E-2   -1.202829192753928E-2   -3.982474587350825E-2   -1.288308771346445E-2   -3.966692629851329E-2    4.705695098452693E-1   -2.175417028130123E-1
 6.529077586600000E9     5.578232396029194E-1   -8.188309676018386E-2   -1.209710957261461E-2   -4.001722103626344E-2   -1.310617839574073E-2   -3.972492187098828E-2    4.700154685278546E-1   -2.185081273382062E-1
 6.529086668900000E9     5.576212903698157E-1   -8.270448669130519E-2   -1.236991198988513E-2   -4.027221650495911E-2   -1.329276709751465E-2   -4.001167214090588E-2    4.695315874163124E-1   -2.192783090034582E-1
 6.529095751200000E9     5.575626304414247E-1   -8.346972080940142E-2   -1.259069419349272E-2   -4.040837447356482E-2   -1.338902221375619E-2   -4.026300807156360E-2    4.689814383384446E-1   -2.203419218285312E-1
 6.529104833500000E9     5.573916315651622E-1   -8.422601234940136E-2   -1.267614464436893E-2   -4.058148037325068E-2   -1.350390389234037E-2   -4.051036258561299E-2    4.686531850819320E-1   -2.210835356345335E-1
 6.529113915800000E9     5.572281151974194E-1   -8.502931253585344E-2   -1.279671090122704E-2   -4.089137768447007E-2   -1.376612506673922E-2   -4.071853843016800E-2    4.681954215724466E-1   -2.221599206084282E-1
 6.529122998100000E9     5.571589866871708E-1   -8.586590160824770E-2   -1.287632624839125E-2   -4.114384857263960E-2   -1.390780805821518E-2   -4.086616426061503E-2    4.675856248838072E-1   -2.229521705838796E-1
 6.529132080400000E9     5.570838146811499E-1   -8.669547383945857E-2   -1.289284223165372E-2   -4.131133531132231E-2   -1.395930994160110E-2   -4.100111184017652E-2    4.672116893821857E-1   -2.239671030415984E-1
 6.529141162700000E9     5.567472334771641E-1   -8.743899026987537E-2   -1.323868497042481E-2   -4.162981712938831E-2   -1.422469414237226E-2   -4.138343446407441E-2    4.666470094101267E-1   -2.250524637487863E-1
 6.529150245000000E9     5.566675692877373E-1   -8.826623010395687E-2   -1.335788874932938E-2   -4.183048630192467E-2   -1.432268143749876E-2   -4.154672181405782E-2    4.661187699408172E-1   -2.259916640594115E-1
 6.529159327300000E9     5.564636129025861E-1   -8.903085565483562E-2   -1.354675635255783E-2   -4.203238437649248E-2   -1.458783133215959E-2   -4.179208474520233E-2    4.658229958290007E-1   -2.267093127630656E-1
 6.529168409600000E9     5.563596144010968E-1   -8.980305459861948E-2   -1.390452121104791E-2   -4.232920141176457E-2   -1.476590872741697E-2   -4.192403489493379E-2    4.651822074711176E-1   -2.277580445201046E-1
 6.529177491900000E9     5.561762688724783E-1   -9.065430939935284E-2   -1.388896365175614E-2   -4.255831769413167E-2   -1.488983654126618E-2   -4.219611525298717E-2    4.646149779531689E-1   -2.286886475858051E-1
 6.529186574200000E9     5.560808614968796E-1   -9.146324598428719E-2   -1.413988602772367E-2   -4.263645651736020E-2   -1.513369078883533E-2   -4.247121445258896E-2    4.640610938813833E-1   -2.297096199192639E-1
 6.529195656500000E9     5.559622275294277E-1   -9.208131440340914E-2   -1.422058631152066E-2   -4.300758893132697E-2   -1.528769401957946E-2   -4.270755400654422E-2    4.634952104233331E-1   -2.306363969660278E-1
 6.529204738800000E9     5.557419601184733E-1   -9.301455437358391E-2   -1.450551432616051E-2   -4.320463134805139E-2   -1.551980859866189E-2   -4.295578407129558E-2    4.629086008452061E-1   -2.316089540017804E-1
 6.529213821100000E9     5.556289311740440E-1   -9.383211047241974E-2   -1.470474286259950E-2   -4.353822421532871E-2   -1.562608836850185E-2   -4.317949860806815E-2    4.623876559985013E-1   -2.325445280663537E-1
 6.529222903400000E9     5.554108676518311E-1   -9.466171076069031E-2   -1.477828592007402E-2   -4.388248144914830E-2   -1.575171668178623E-2   -4.351095469402343E-2    4.619166702969534E-1   -2.334517490792550E-1
 6.529231985700000E9     5.552245298164074E-1   -9.556634465827658E-2   -1.492545714206283E-2   -4.395224090644913E-2   -1.600332882716248E-2   -4.370584861393516E-2    4.613468156956876E-1   -2.345517142893830E-1
 6.529241068000000E9     5.550803111387983E-1   -9.633829523850439E-2   -1.512977953827014E-2   -4.416232758809223E-2   -1.612086114630725E-2   -4.381414270058662E-2    4.608954342222169E-1   -2.355534381643656E-1
 6.529250150300000E9     5.548987301490994E-1   -9.702679786644401E-2   -1.550634562203954E-2   -4.430581993289868E-2   -1.644994329941291E-2   -4.415273863567767E-2    4.603207747151191E-1   -2.364707787065883E-1
 6.529259232600000E9     5.547009737421480E-1   -9.800836477449204E-2   -1.561012416836916E-2   -4.467641339451250E-2   -1.672234461658236E-2   -4.437885612384346E-2    4.596994655370336E-1   -2.372645553948901E-1
 6.529268314900000E9     5.544880656488820E-1   -9.870705247083128E-2   -1.571408696191583E-2   -4.492664320685331E-2   -1.680201258116148E-2   -4.471700731974285E-2    4.591845883923722E-1   -2.383788366734432E-1
 6.529277397200000E9     5.544099499807906E-1   -9.956207162057140E-2   -1.598854030189309E-2   -4.528639549450642E-2   -1.705310363349146E-2   -4.482140517303618E-2    4.585396390436129E-1   -2.393034267627360E-1
 6.529286479500000E9     5.541800831789557E-1   -1.003924603161818E-1   -1.617465903234691E-2   -4.565004604925248E-2   -1.723905022183183E-2   -4.531982703558052E-2    4.579811990512495E-1   -2.402869352867749E-1
 6.529295561800000E9     5.539985853419411E-1   -1.011602191454324E-1   -1.634878169671879E-2   -4.579979948726377E-2   -1.736611042503045E-2   -4.545607738181285E-2    4.574806233358843E-1   -2.414758266799227E-1
 6.529304644100000E9     5.538374219038981E-1   -1.019974240412116E-1   -1.637873602302628E-2   -4.610800391363351E-2   -1.762914904127725E-2   -4.577171591680775E-2    4.568190738978296E-1   -2.422927068252356E-1
 6.529313726400000E9     5.536909681592587E-1   -1.028152047197313E-1   -1.681687222226212E-2   -4.634733173385616E-2   -1.789375979222198E-2   -4.595677064740768E-2    4.561846491456246E-1   -2.434486281342223E-1
 6.529322808700000E9     5.535967467434942E-1   -1.036096784603432E-1   -1.696283751968300E-2   -4.668198480527587E-2   -1.798735722634785E-2   -4.633358682094244E-2    4.554969242141568E-1   -2.444307783777705E-1
 6.529331891000000E9     5.532359832753366E-1   -1.045053453613632E-1   -1.703153458213967E-2   -4.701071445827523E-2   -1.828344385913172E-2   -4.660963045911940E-2    4.549714768529725E-1   -2.455455657142294E-1
 6.529340973300000E9     5.531221104777896E-1   -1.052687357149570E-1   -1.724870748250201E-2   -4.708227124995924E-2   -1.855550293003840E-2   -4.685659060114700E-2    4.543045696386797E-1   -2.465163060691578E-1
 6.529350055600000E9     5.528999387454775E-1   -1.060856594280668E-1   -1.767986815481425E-2   -4.747390023336951E-2   -1.876735082920753E-2   -4.712702568362049E-2    4.536151984628061E-1   -2.474365124558233E-1
 6.529359137900000E9     5.527261448535302E-1   -1.070618400612704E-1   -1.780402472517308E-2   -4.781615682536736E-2   -1.898093904852638E-2   -4.749571361618491E-2    4.528958498219151E-1   -2.486045518870659E-1
 6.529368220200000E9     5.525929647134925E-1   -1.078767387811529E-1   -1.809523961551150E-2   -4.804929232336887E-2   -1.927574623339416E-2   -4.780049277819259E-2    4.522421926765210E-1   -2.495704414519903E-1
 6.529377302500000E9     5.523328171669721E-1   -1.087420011413437E-1   -1.816646199829963E-2   -4.826894620131711E-2   -1.950247952502744E-2   -4.810860885441035E-2    4.516787750159287E-1   -2.507988276932697E-1
 6.529386384800000E9     5.519809101812186E-1   -1.095630353217701E-1   -1.853092906543135E-2   -4.869152887085932E-2   -1.975509001262461E-2   -4.825919848881625E-2    4.509565532866171E-1   -2.517460221986748E-1
 6.529395467100000E9     5.519086453746068E-1   -1.104760508760860E-1   -1.866791886728397E-2   -4.907820712184278E-2   -1.980762353476670E-2   -4.867922564530962E-2    4.501952901626716E-1   -2.527708283518205E-1
 6.529404549400000E9     5.516526776895075E-1   -1.112581220480558E-1   -1.909815516238631E-2   -4.942839995638820E-2   -2.026662360319176E-2   -4.897520000246801E-2    4.495514885005379E-1   -2.538550785091075E-1
 6.529413631700000E9     5.515235923973293E-1   -1.121119310456028E-1   -1.935048046188785E-2   -4.960763105199251E-2   -2.050214390234345E-2   -4.924312816219582E-2    4.488108820960468E-1   -2.549976241797610E-1
 6.529422714000000E9     5.512304381123269E-1   -1.129368356597776E-1   -1.961715617347764E-2   -5.003288413435652E-2   -2.081375690239010E-2   -4.965837974292988E-2    4.481536848130573E-1   -2.560421865002865E-1
 6.529431796300000E9     5.510158514116931E-1   -1.138384366393426E-1   -1.981449695444946E-2   -5.029336558162851E-2   -2.096640496509785E-2   -4.998721679608750E-2    4.474836635218185E-1   -2.573344638530929E-1
 6.529440878600000E9     5.508221975924676E-1   -1.146406550507272E-1   -1.998771589981502E-2   -5.076270029263432E-2   -2.127685099490131E-2   -5.016773210439204E-2    4.466331946579897E-1   -2.581560137865958E-1
 6.529449960900000E9     5.504285166604670E-1   -1.156325501447560E-1   -2.039531159955555E-2   -5.091461500784932E-2   -2.162608432431166E-2   -5.058950570019607E-2    4.460147373883171E-1   -2.591890375345761E-1
 6.529459043200000E9     5.503973226737729E-1   -1.163491495652118E-1   -2.063866444333884E-2   -5.128243060260390E-2   -2.187728005883902E-2   -5.094010815224648E-2    4.451233818200884E-1   -2.602791419574432E-1
 6.529468125500000E9     5.501672694671927E-1   -1.172023114162387E-1   -2.086209189968668E-2   -5.156396137440351E-2   -2.223515291366017E-2   -5.121733633859360E-2    4.442927561979598E-1   -2.614727838063020E-1
 6.529477207800000E9     5.497633926187532E-1   -1.181306584671183E-1   -2.130033804674856E-2   -5.207869091826046E-2   -2.235034328953408E-2   -5.162807548293981E-2    4.436259128582070E-1   -2.625559192470551E-1
 6.529486290100000E9     5.495787143408782E-1   -1.191525345722455E-1   -2.147542432873475E-2   -5.234169515994084E-2   -2.280953345593729E-2   -5.198647898042914E-2    4.428465937506737E-1   -2.637638561353514E-1
 6.529495372400000E9     5.492615108571963E-1   -1.199832006048881E-1   -2.176871018051618E-2   -5.272026685910548E-2   -2.300493546726320E-2   -5.228795224756690E-2    4.420339648070811E-1   -2.648380949784543E-1
 6.529504454700000E9     5.490268566399608E-1   -1.207790767098775E-1   -2.193385031182111E-2   -5.306737842904560E-2   -2.338974822220760E-2   -5.261526084556651E-2    4.412722382046696E-1   -2.658900722268045E-1
 6.529513537000000E9     5.489319907467122E-1   -1.217465739023970E-1   -2.229161182181151E-2   -5.349438731958367E-2   -2.377042053938184E-2   -5.303802729616042E-2    4.403770790663472E-1   -2.671495895355263E-1
 6.529522619300000E9     5.485559942844761E-1   -1.225561184467910E-1   -2.271933298658525E-2   -5.390523479263735E-2   -2.390264099048382E-2   -5.345557500498386E-2    4.393562437463995E-1   -2.683108022555877E-1
 6.529531701600000E9     5.484251452260862E-1   -1.235076390042296E-1   -2.292929887274878E-2   -5.428479619137833E-2   -2.433113630393836E-2   -5.378508602368357E-2    4.384778466259138E-1   -2.693503156122726E-1
 6.529540783900000E9     5.480132001448452E-1   -1.244039635422873E-1   -2.336036399986480E-2   -5.459260844075299E-2   -2.457152089140387E-2   -5.412592100138874E-2    4.377648074533580E-1   -2.705374412536685E-1
 6.529549866200000E9     5.477852546952906E-1   -1.253547019206883E-1   -2.364991920845184E-2   -5.502990610840291E-2   -2.513586625419810E-2   -5.449488978205891E-2    4.369289975325448E-1   -2.717974129894046E-1
 6.529558948500000E9     5.474670158185736E-1   -1.261599634270238E-1   -2.402364835453243E-2   -5.531249592439018E-2   -2.547076282344465E-2   -5.491898098657672E-2    4.360002328075058E-1   -2.731116078701615E-1
 6.529568030800000E9     5.471084097290644E-1   -1.270845865196052E-1   -2.436694424000219E-2   -5.576853032891606E-2   -2.573357558913663E-2   -5.526380969292975E-2    4.351932835883981E-1   -2.741966089622923E-1
 6.529577113100000E9     5.469586305978937E-1   -1.279665017589999E-1   -2.469014226561044E-2   -5.615942865056505E-2   -2.611551817310456E-2   -5.561404228044264E-2    4.341528312564000E-1   -2.754307662013548E-1
 6.529586195400000E9     5.467073450029922E-1   -1.289478551095772E-1   -2.502067023233082E-2   -5.672860768648740E-2   -2.654890453168551E-2   -5.603363986939152E-2    4.330536653320489E-1   -2.765974444568846E-1
 6.529595277700000E9     5.463709139367484E-1   -1.298321519615194E-1   -2.525674664312566E-2   -5.705324389345491E-2   -2.683656229006581E-2   -5.651505035868890E-2    4.322616976504182E-1   -2.779217731392278E-1
 6.529604360000000E9     5.459430473255880E-1   -1.308064245546256E-1   -2.571333451286684E-2   -5.760863551207805E-2   -2.726445052866285E-2   -5.684297595257113E-2    4.313330408144365E-1   -2.790909284474233E-1
