#  HZ   S   RI   R     50.00 
! Rohde & Schwarz Vector Network Analyzer 
! Rohde-Schwarz,ZNB20-2Port,1311601062101988,3.16
! Created: UTC 3/21/2024, 12:54:15 AM
! freq[Hz]                re:S11                  im:S11                  re:S21                  im:S21                  re:S12                  im:S12                  re:S22                  im:S22
 6.528810410000000E9     5.607506857606078E-1   -5.590862454784894E-2   -7.968021994796300E-3   -3.256704456330944E-2   -8.646672282844001E-3   -3.238324528179765E-2    4.809878661930714E-1   -1.854516354474328E-1
 6.528819982675000E9     5.606812594695229E-1   -5.664174424621388E-2   -8.192832309337122E-3   -3.254636820640334E-2   -8.786397393455653E-3   -3.247412933675668E-2    4.807464167089910E-1   -1.862798344251458E-1
 6.528829555350000E9     5.606157339945782E-1   -5.740488262646772E-2   -8.140402557250513E-3   -3.276332997771873E-2   -8.895081436510275E-3   -3.264562999619566E-2    4.804085298325351E-1   -1.871987149582291E-1
 6.528839128025000E9     5.603857178669558E-1   -5.809550985141101E-2   -8.292370877353808E-3   -3.290496058066913E-2   -8.947588669361331E-3   -3.269282525968034E-2    4.799615953794657E-1   -1.881329591276696E-1
 6.528848700700000E9     5.604228416938408E-1   -5.893552153410859E-2   -8.229608029943708E-3   -3.301214039171677E-2   -8.994661683522354E-3   -3.288079660312651E-2    4.797561739849748E-1   -1.889225031692082E-1
 6.528858273375000E9     5.604265257588230E-1   -5.970444790285448E-2   -8.416359825751526E-3   -3.320239881571778E-2   -9.124103616254913E-3   -3.306706678676836E-2    4.792561762196940E-1   -1.896108497073296E-1
 6.528867846050000E9     5.601508854075458E-1   -6.047451516899911E-2   -8.585090348410596E-3   -3.329788664693489E-2   -9.265116535790496E-3   -3.323467573626867E-2    4.788607743899308E-1   -1.907103446962045E-1
 6.528877418725000E9     5.601005200934185E-1   -6.133960461394599E-2   -8.655871056734184E-3   -3.351442951459373E-2   -9.333236460095243E-3   -3.344324218484983E-2    4.786791102837973E-1   -1.914022767196428E-1
 6.528886991400000E9     5.599472945190838E-1   -6.205801669150990E-2   -8.798970237703324E-3   -3.358823049587824E-2   -9.465993402290788E-3   -3.358692118681122E-2    4.781524632954268E-1   -1.921684053467299E-1
 6.528896564075000E9     5.598776143686313E-1   -6.293566111005407E-2   -8.870246370966249E-3   -3.393111018747466E-2   -9.589200950346594E-3   -3.376686852989651E-2    4.777952475912866E-1   -1.930487967418235E-1
 6.528906136750000E9     5.598155329757349E-1   -6.372461256599614E-2   -8.923785443429047E-3   -3.399056792384585E-2   -9.677401001961804E-3   -3.387830764998939E-2    4.774214039214069E-1   -1.940972834845711E-1
 6.528915709425000E9     5.597078833404159E-1   -6.438967977772497E-2   -8.954463653539144E-3   -3.414654292377881E-2   -9.776012172670694E-3   -3.393058312208606E-2    4.771264495027420E-1   -1.947751902495686E-1
 6.528925282100000E9     5.596421219487265E-1   -6.527098199025747E-2   -9.153939698118287E-3   -3.420110346567520E-2   -9.902943708809885E-3   -3.422737095141486E-2    4.766385846905495E-1   -1.957316975939616E-1
 6.528934854775000E9     5.595240229663618E-1   -6.610037867374526E-2   -9.290779368282326E-3   -3.455971460904220E-2   -1.002928196231833E-2   -3.430950362121578E-2    4.763059303694223E-1   -1.965282289660870E-1
 6.528944427450000E9     5.593848881824313E-1   -6.682683672799068E-2   -9.236310800033610E-3   -3.463888360449460E-2   -1.014158126971101E-2   -3.453183216836474E-2    4.757908926227986E-1   -1.975047893899768E-1
 6.528954000125000E9     5.592784720797037E-1   -6.763944516654255E-2   -9.494528535745580E-3   -3.481432449546568E-2   -1.026872187726044E-2   -3.476994125162765E-2    4.754903373880120E-1   -1.981675558892450E-1
 6.528963572800000E9     5.592453351988895E-1   -6.840290849945510E-2   -9.493826577131959E-3   -3.499574966206828E-2   -1.039389723774868E-2   -3.480032108060521E-2    4.751499176831531E-1   -1.992026382852270E-1
 6.528973145475000E9     5.590801260791549E-1   -6.929265915672576E-2   -9.678672884232430E-3   -3.513757626371145E-2   -1.053169474569099E-2   -3.497522859263523E-2    4.746334417670590E-1   -2.000858367017948E-1
 6.528982718150000E9     5.590167492933255E-1   -7.001002846054509E-2   -9.809038221528834E-3   -3.534780589745686E-2   -1.051302202121720E-2   -3.512957182571097E-2    4.742902358824000E-1   -2.008566915000482E-1
 6.528992290825000E9     5.589410592468598E-1   -7.095990102223772E-2   -9.963580901690122E-3   -3.547734941804082E-2   -1.069385994914458E-2   -3.527020911696056E-2    4.738972503281046E-1   -2.019260434115819E-1
 6.529001863500000E9     5.588463250557597E-1   -7.158272958029889E-2   -1.000911474341488E-2   -3.564525129031584E-2   -1.085982946576413E-2   -3.553705316825714E-2    4.735452760556210E-1   -2.026995152389801E-1
 6.529011436175000E9     5.586323189654371E-1   -7.245055325942518E-2   -1.016432862647536E-2   -3.580002347391267E-2   -1.093499662844330E-2   -3.557697482422643E-2    4.730492044143057E-1   -2.036686430514456E-1
 6.529021008850000E9     5.585580754794450E-1   -7.318734987357089E-2   -1.039656127299069E-2   -3.603352567653264E-2   -1.103412242300257E-2   -3.578887420186856E-2    4.726053208686024E-1   -2.046232546559273E-1
 6.529030581525000E9     5.583970141100265E-1   -7.412482777323312E-2   -1.049200843478530E-2   -3.624941956527766E-2   -1.118660186597355E-2   -3.597342141836063E-2    4.723187892765135E-1   -2.053974856767924E-1
 6.529040154200000E9     5.583151132702766E-1   -7.483032691209500E-2   -1.053940364622301E-2   -3.646980655933701E-2   -1.139683349919483E-2   -3.624935051886204E-2    4.718130327734489E-1   -2.062128956889568E-1
 6.529049726875000E9     5.582282617869679E-1   -7.580345516320811E-2   -1.063691573389805E-2   -3.655747929476909E-2   -1.144634653537208E-2   -3.639590028027812E-2    4.713965300148583E-1   -2.070679544152130E-1
 6.529059299550000E9     5.579817907939286E-1   -7.651274359097247E-2   -1.080641293416552E-2   -3.676089775721719E-2   -1.164857424186351E-2   -3.659250894900204E-2    4.709150663451787E-1   -2.080770562965122E-1
 6.529068872225000E9     5.580280327385870E-1   -7.726604688280303E-2   -1.083912247319305E-2   -3.692445603592374E-2   -1.174204605211677E-2   -3.671621123160111E-2    4.706634229168463E-1   -2.089481288465364E-1
 6.529078444900000E9     5.578486739105686E-1   -7.815274571971045E-2   -1.108646761659598E-2   -3.718817949039418E-2   -1.184973511509116E-2   -3.694180941165057E-2    4.700960030349413E-1   -2.096849905184430E-1
 6.529088017575000E9     5.577948769791609E-1   -7.885536948673007E-2   -1.129972448589819E-2   -3.730522796507730E-2   -1.203067096212548E-2   -3.708959118801021E-2    4.695611277691186E-1   -2.107618215945233E-1
 6.529097590250000E9     5.575441397214774E-1   -7.972583794488824E-2   -1.132843605056874E-2   -3.740149476121222E-2   -1.209041818795179E-2   -3.720007233555438E-2    4.691675141255198E-1   -2.115119584007313E-1
 6.529107162925000E9     5.574828151997416E-1   -8.045941168469940E-2   -1.144004483662436E-2   -3.768839476708726E-2   -1.235209659331463E-2   -3.747457821765522E-2    4.687752896110697E-1   -2.123913654445172E-1
 6.529116735600000E9     5.571807359546354E-1   -8.119924474385115E-2   -1.156237053260293E-2   -3.788194462626009E-2   -1.243361074846935E-2   -3.764470507818415E-2    4.682815351649830E-1   -2.134547624833812E-1
 6.529126308275000E9     5.571276449982659E-1   -8.206735339673137E-2   -1.178619173205656E-2   -3.803833306863716E-2   -1.258467147600555E-2   -3.788070016683446E-2    4.679274858556587E-1   -2.142911776927002E-1
 6.529135880950000E9     5.569282363396375E-1   -8.296388209275403E-2   -1.191964752272516E-2   -3.817054090323267E-2   -1.276338443147441E-2   -3.801810166378463E-2    4.672949219216391E-1   -2.152721878606013E-1
 6.529145453625000E9     5.568708412013219E-1   -8.380555580047916E-2   -1.216812283511621E-2   -3.854858682151528E-2   -1.291726010848532E-2   -3.825949410987925E-2    4.668075174372812E-1   -2.161423238568220E-1
 6.529155026300000E9     5.567208171117077E-1   -8.457528051026020E-2   -1.224755368356033E-2   -3.859241748736177E-2   -1.305177813042415E-2   -3.854145810259216E-2    4.663703992999682E-1   -2.169398194103105E-1
 6.529164598975000E9     5.565141479998934E-1   -8.533268785046137E-2   -1.226274455121767E-2   -3.888354569135617E-2   -1.326236647973204E-2   -3.867050712944408E-2    4.659693806367990E-1   -2.181761018981438E-1
 6.529174171650000E9     5.564578696758387E-1   -8.613789725493425E-2   -1.230881998577820E-2   -3.906187336476785E-2   -1.338363161230320E-2   -3.886196201075032E-2    4.655009009979951E-1   -2.190216617185642E-1
 6.529183744325000E9     5.563200136122803E-1   -8.705250809867865E-2   -1.246625153971446E-2   -3.933343867054889E-2   -1.349014789753358E-2   -3.899835907046821E-2    4.649769627972930E-1   -2.198036295462657E-1
 6.529193317000000E9     5.561630091904753E-1   -8.781680501186256E-2   -1.277917647911690E-2   -3.949747949992996E-2   -1.368425943689528E-2   -3.926388457944614E-2    4.644320763638290E-1   -2.207728843183808E-1
 6.529202889675000E9     5.559892040642102E-1   -8.867774028165910E-2   -1.298251924345190E-2   -3.983955431558583E-2   -1.385980667710110E-2   -3.951933995100933E-2    4.639597029550536E-1   -2.218559709779598E-1
 6.529212462350000E9     5.558675723839953E-1   -8.946434979085691E-2   -1.311862693071149E-2   -3.992258991616822E-2   -1.406657250188803E-2   -3.982172375477520E-2    4.634425157391457E-1   -2.227739329270743E-1
 6.529222035025000E9     5.555896234985415E-1   -9.030470676733059E-2   -1.317155638896766E-2   -4.015723381434296E-2   -1.407639962450439E-2   -3.992890610651167E-2    4.631311940838145E-1   -2.236543604302264E-1
 6.529231607700000E9     5.556150568725914E-1   -9.114601556972199E-2   -1.337088429422782E-2   -4.044696573182006E-2   -1.433489572695608E-2   -4.013681247306811E-2    4.623888330988369E-1   -2.244887346885657E-1
 6.529241180375000E9     5.554466271542272E-1   -9.211265341085735E-2   -1.346690227709583E-2   -4.072222742801856E-2   -1.449241690762580E-2   -4.039193998813906E-2    4.618454492215111E-1   -2.256401965065390E-1
 6.529250753050000E9     5.553152141241450E-1   -9.293962795786019E-2   -1.355742072555269E-2   -4.084053355232354E-2   -1.472780642773203E-2   -4.063216253209997E-2    4.614225770279355E-1   -2.265993019876231E-1
 6.529260325725000E9     5.549751845364914E-1   -9.374075376040782E-2   -1.396662349033181E-2   -4.111962952398060E-2   -1.477036840544942E-2   -4.077711631255031E-2    4.606914784145595E-1   -2.276017688111412E-1
 6.529269898400000E9     5.547638010307201E-1   -9.452341231385086E-2   -1.405151976595570E-2   -4.133838645863452E-2   -1.501212160101756E-2   -4.100414713029620E-2    4.604828033944022E-1   -2.284401587260437E-1
 6.529279471075000E9     5.547483045963512E-1   -9.539213980854237E-2   -1.419662122931608E-2   -4.155208296521142E-2   -1.517793121454284E-2   -4.137508000708211E-2    4.597662771376910E-1   -2.293967112829137E-1
 6.529289043750000E9     5.545750376537213E-1   -9.613300617408511E-2   -1.445051309192230E-2   -4.185449461184688E-2   -1.542095297541844E-2   -4.150518436913794E-2    4.591675517239616E-1   -2.304291682692846E-1
 6.529298616425000E9     5.544005865764796E-1   -9.699985833358402E-2   -1.465124314566895E-2   -4.201226471248841E-2   -1.557253261069111E-2   -4.174839561887270E-2    4.586764559610098E-1   -2.314060050024333E-1
 6.529308189100000E9     5.542618603681538E-1   -9.791473052347563E-2   -1.469245443257669E-2   -4.230284337179559E-2   -1.579262702305282E-2   -4.194072440105981E-2    4.579247161076440E-1   -2.323632932381137E-1
 6.529317761775000E9     5.541430346869812E-1   -9.857424196274001E-2   -1.493778441886716E-2   -4.258810526310244E-2   -1.589303409869083E-2   -4.224338510805425E-2    4.573196099986679E-1   -2.334141976765828E-1
 6.529327334450000E9     5.538543090962066E-1   -9.945960881756150E-2   -1.503867941027158E-2   -4.277995186871484E-2   -1.622170749846815E-2   -4.255812848876327E-2    4.568045669390106E-1   -2.343235880948438E-1
 6.529336907125000E9     5.538364473074456E-1   -1.004192045016065E-1   -1.535029627019190E-2   -4.299375846659390E-2   -1.642669427963504E-2   -4.273181269183422E-2    4.562502691039798E-1   -2.352729270800114E-1
 6.529346479800000E9     5.535141106319106E-1   -1.012317558046945E-1   -1.556828896441373E-2   -4.327078920996844E-2   -1.659230276810143E-2   -4.295594428223321E-2    4.557826437265524E-1   -2.363735292007350E-1
 6.529356052475000E9     5.532948403814631E-1   -1.020979739972413E-1   -1.571282697191064E-2   -4.358285868748264E-2   -1.679669930138174E-2   -4.321069979494987E-2    4.550816752517935E-1   -2.372756477512633E-1
 6.529365625150000E9     5.530880775260346E-1   -1.029043384118404E-1   -1.592090237767558E-2   -4.375534756012041E-2   -1.698243252329465E-2   -4.353278699070955E-2    4.545796208361068E-1   -2.385066357189957E-1
 6.529375197825000E9     5.529514095604435E-1   -1.037775511160155E-1   -1.595769906088086E-2   -4.406254562544590E-2   -1.713297313752644E-2   -4.372284984256147E-2    4.538516501019999E-1   -2.394689461660104E-1
 6.529384770500000E9     5.527229103320312E-1   -1.045132394490998E-1   -1.639098288148094E-2   -4.429478275923950E-2   -1.743600804913433E-2   -4.411477323889231E-2    4.534753055835362E-1   -2.404470683045419E-1
 6.529394343175000E9     5.525340256565978E-1   -1.055495301209559E-1   -1.670099164217117E-2   -4.459593015380599E-2   -1.764954160904591E-2   -4.432331602049950E-2    4.526666580857813E-1   -2.414867035017650E-1
 6.529403915850000E9     5.523515988969225E-1   -1.063725286636543E-1   -1.682582624009715E-2   -4.487955788959369E-2   -1.794433368701433E-2   -4.460598382205126E-2    4.519024557030080E-1   -2.424831309961363E-1
 6.529413488525000E9     5.521769582123033E-1   -1.073142698223751E-1   -1.702178935252113E-2   -4.524026946140127E-2   -1.805918170388378E-2   -4.476478634056530E-2    4.513305501731060E-1   -2.435847429350965E-1
 6.529423061200000E9     5.519151148078226E-1   -1.080956691405482E-1   -1.711191188328655E-2   -4.543946194160123E-2   -1.833247891674294E-2   -4.524600499773260E-2    4.506588300297121E-1   -2.445249241966266E-1
 6.529432633875000E9     5.517473527649552E-1   -1.089763849349991E-1   -1.737513956521408E-2   -4.578207537316378E-2   -1.844245651633278E-2   -4.546723740704606E-2    4.501082140105954E-1   -2.456516076305305E-1
 6.529442206550000E9     5.514430190852749E-1   -1.098559350038868E-1   -1.776089725341183E-2   -4.603164519478330E-2   -1.879270844944153E-2   -4.572555780540844E-2    4.494852928937225E-1   -2.466720938852184E-1
 6.529451779225000E9     5.513176480334638E-1   -1.106662267523251E-1   -1.787699091427569E-2   -4.642635488467544E-2   -1.904935936145958E-2   -4.599120019058685E-2    4.486070555179446E-1   -2.477197546489950E-1
 6.529461351900000E9     5.511229680994263E-1   -1.115268457338103E-1   -1.822898532537465E-2   -4.667502618302070E-2   -1.928419123211071E-2   -4.635023618645916E-2    4.478675684569678E-1   -2.488492501456830E-1
 6.529470924575000E9     5.508637751583919E-1   -1.124286883083647E-1   -1.835058605284566E-2   -4.691642861830433E-2   -1.951129214841529E-2   -4.645763280236980E-2    4.473766141796355E-1   -2.497628574922145E-1
 6.529480497250000E9     5.506454645896209E-1   -1.133221097136615E-1   -1.861231704618925E-2   -4.713114052082629E-2   -1.980833979233938E-2   -4.684157184577439E-2    4.466105124966361E-1   -2.509139405281776E-1
 6.529490069925000E9     5.504688971048134E-1   -1.142568477905114E-1   -1.882663332830702E-2   -4.760184582480209E-2   -2.005859656677850E-2   -4.717450157368518E-2    4.459985344695521E-1   -2.518152165792772E-1
 6.529499642600000E9     5.502191080295401E-1   -1.150826937278662E-1   -1.904460366160115E-2   -4.792496628302856E-2   -2.025441580807383E-2   -4.744970817662291E-2    4.451491957073158E-1   -2.530260859066036E-1
 6.529509215275000E9     5.499017815496473E-1   -1.159263267976145E-1   -1.947222556923876E-2   -4.814895539851763E-2   -2.061306395397940E-2   -4.776832073420161E-2    4.444863443549734E-1   -2.541233531451545E-1
 6.529518787950000E9     5.497989796551183E-1   -1.169139384746195E-1   -1.955100165178569E-2   -4.848095649784653E-2   -2.077592263529303E-2   -4.809641513501860E-2    4.436955580938535E-1   -2.553799134540476E-1
 6.529528360625000E9     5.494820282747365E-1   -1.178471266515333E-1   -2.000118961399035E-2   -4.878299582690992E-2   -2.108755772267826E-2   -4.835393798131403E-2    4.430399955863998E-1   -2.562310360991001E-1
 6.529537933300000E9     5.492462383203952E-1   -1.187148611109434E-1   -2.022283753127320E-2   -4.913597979164384E-2   -2.143913053966364E-2   -4.868247231862946E-2    4.422552472792246E-1   -2.576357658482600E-1
 6.529547505975000E9     5.489130678406215E-1   -1.194781213672294E-1   -2.049042253557598E-2   -4.928385588873788E-2   -2.168843733930731E-2   -4.903054879481501E-2    4.415906187861839E-1   -2.586527559694685E-1
 6.529557078650000E9     5.487954129097270E-1   -1.204208459599880E-1   -2.090868094124145E-2   -4.984344341115289E-2   -2.198336486294876E-2   -4.939067433289181E-2    4.405426440508777E-1   -2.596630369203579E-1
 6.529566651325000E9     5.485196689223631E-1   -1.213796355730090E-1   -2.109831018064135E-2   -5.009702731270236E-2   -2.238650200591888E-2   -4.972750876128433E-2    4.398026368886233E-1   -2.608721817602641E-1
 6.529576224000000E9     5.482295207629202E-1   -1.222363718446982E-1   -2.147545022156360E-2   -5.053761606972163E-2   -2.258832800946276E-2   -5.010097368134289E-2    4.389546214886160E-1   -2.620347617122781E-1
 6.529585796675000E9     5.478906494435636E-1   -1.232095471344620E-1   -2.174720513538477E-2   -5.081874221629789E-2   -2.291652593441114E-2   -5.036146660866922E-2    4.381544126304791E-1   -2.630688138513222E-1
 6.529595369350000E9     5.477638686307407E-1   -1.240766891092737E-1   -2.198027961948970E-2   -5.122674183418884E-2   -2.328938142627093E-2   -5.079693124003691E-2    4.374806713389981E-1   -2.643990475946211E-1
 6.529604942025000E9     5.474531892483503E-1   -1.251037351000152E-1   -2.218223787187115E-2   -5.151361128255730E-2   -2.362041992580096E-2   -5.118395351465999E-2    4.365007027649681E-1   -2.654613374299817E-1
 6.529614514700000E9     5.471416923148003E-1   -1.259561295879137E-1   -2.252253567841591E-2   -5.189355383020239E-2   -2.380740945015408E-2   -5.153233306443906E-2    4.358166163184953E-1   -2.667395679313532E-1
 6.529624087375000E9     5.469561441004169E-1   -1.268013671376530E-1   -2.295135678187582E-2   -5.231766721007248E-2   -2.411753806059459E-2   -5.193622402863922E-2    4.349140680659208E-1   -2.677248063450457E-1
 6.529633660050000E9     5.467029809606433E-1   -1.276932718250163E-1   -2.321087964263815E-2   -5.264030220565031E-2   -2.451889247616195E-2   -5.226217192507941E-2    4.340310385108517E-1   -2.689819471620287E-1
 6.529643232725000E9     5.462762816532428E-1   -1.287138181020210E-1   -2.349550318221309E-2   -5.301576019905048E-2   -2.498070430064612E-2   -5.261820453079011E-2    4.331264532671289E-1   -2.702602957785032E-1
 6.529652805400000E9     5.460647945028188E-1   -1.295687784677980E-1   -2.391459032913305E-2   -5.356699763931475E-2   -2.531970358486086E-2   -5.304365450401961E-2    4.321047480582429E-1   -2.714313821598498E-1
 6.529662378075000E9     5.457549528202570E-1   -1.305754530136274E-1   -2.427821986002981E-2   -5.398637576316625E-2   -2.562616252528925E-2   -5.338832399609847E-2    4.312477321062410E-1   -2.726141545236154E-1
 6.529671950750000E9     5.454729724134967E-1   -1.314746820134854E-1   -2.448275970843859E-2   -5.433589797502888E-2   -2.598876269959951E-2   -5.373259172032444E-2    4.303142051452440E-1   -2.736979736345349E-1
