#  HZ   S   RI   R     50.00 
! Rohde & Schwarz Vector Network Analyzer 
! Rohde-Schwarz,ZNB20-2Port,1311601062101988,3.16
! Created: UTC 3/21/2024, 12:54:23 AM
! freq[Hz]                re:S11                  im:S11                  re:S21                  im:S21                  re:S12                  im:S12                  re:S22                  im:S22
 6.528810404000000E9     5.607477745857481E-1   -5.575502422919668E-2   -7.904707541155877E-3   -3.249187100526217E-2   -8.616853280459736E-3   -3.228573534485422E-2    4.809432110129581E-1   -1.854917836014112E-1
 6.528819993325000E9     5.606187339844715E-1   -5.648738777504168E-2   -8.133634334251055E-3   -3.258769549362744E-2   -8.830696436817970E-3   -3.243843435701418E-2    4.805219299139081E-1   -1.861548624485382E-1
 6.528829582650000E9     5.604952572663421E-1   -5.729751825168207E-2   -8.307486445143548E-3   -3.281583803216638E-2   -8.827442450866653E-3   -3.260842275842666E-2    4.801659122864785E-1   -1.870634295684916E-1
 6.528839171975000E9     5.604096595758395E-1   -5.799642067059738E-2   -8.351558962176677E-3   -3.298340128304445E-2   -8.910443619425607E-3   -3.275444795569255E-2    4.799342770143570E-1   -1.879265557466875E-1
 6.528848761300000E9     5.604552994787745E-1   -5.886052643268445E-2   -8.385034516200363E-3   -3.309831746016751E-2   -9.089084693754248E-3   -3.293976609439044E-2    4.796001264154164E-1   -1.884708117416854E-1
 6.528858350625000E9     5.601640706171238E-1   -5.964588693737781E-2   -8.524353712976782E-3   -3.317276634369692E-2   -9.137836737145362E-3   -3.303956950205087E-2    4.792453966707291E-1   -1.897396979564480E-1
 6.528867939950000E9     5.602228223071849E-1   -6.046862542193924E-2   -8.546064922539552E-3   -3.318355545097484E-2   -9.233234924469995E-3   -3.308380764334514E-2    4.789444677786620E-1   -1.903680921375870E-1
 6.528877529275000E9     5.600578058872792E-1   -6.125043953064542E-2   -8.514876107994267E-3   -3.344942316342869E-2   -9.386338966935324E-3   -3.340230936289403E-2    4.785733193480131E-1   -1.912700729992280E-1
 6.528887118600000E9     5.600473664463409E-1   -6.196274150854022E-2   -8.658578307991171E-3   -3.363354304385843E-2   -9.456781227809248E-3   -3.351949744094968E-2    4.781605452668535E-1   -1.921389183131227E-1
 6.528896707925000E9     5.599321633805602E-1   -6.270883783862351E-2   -8.817168651275142E-3   -3.368410513027507E-2   -9.561315488112560E-3   -3.364618467680339E-2    4.776232080903496E-1   -1.930084364063114E-1
 6.528906297250000E9     5.598288465421767E-1   -6.358400339801479E-2   -8.946837305042445E-3   -3.402424362559617E-2   -9.705923823720165E-3   -3.378555818397905E-2    4.774225500824542E-1   -1.938128295983322E-1
 6.528915886575000E9     5.597347267971748E-1   -6.434644691690702E-2   -9.106474051609831E-3   -3.419287713260909E-2   -9.771184670511992E-3   -3.399684537378304E-2    4.769007624887266E-1   -1.946465972322066E-1
 6.528925475900000E9     5.595419958350882E-1   -6.519396296371943E-2   -9.232423950616221E-3   -3.431497098609687E-2   -9.971668773811754E-3   -3.412342984840240E-2    4.765412000750244E-1   -1.955948507297306E-1
 6.528935065225000E9     5.594907054890775E-1   -6.588586522247597E-2   -9.298771990406953E-3   -3.436163276951806E-2   -1.005601033962991E-2   -3.419977304151769E-2    4.761374917800134E-1   -1.963720089163972E-1
 6.528944654550000E9     5.593207805456152E-1   -6.670430071445128E-2   -9.285472040188293E-3   -3.452133085273780E-2   -1.015008200800186E-2   -3.438342880329795E-2    4.756680534925025E-1   -1.973281762424570E-1
 6.528954243875000E9     5.592788703828020E-1   -6.756044963856413E-2   -9.504742780152776E-3   -3.472903118084318E-2   -1.029754577857441E-2   -3.471457703705396E-2    4.754271414840473E-1   -1.980970560108869E-1
 6.528963833200000E9     5.592686136282244E-1   -6.836834566424548E-2   -9.576910482907252E-3   -3.476791921797667E-2   -1.039102241441477E-2   -3.474167811080292E-2    4.750611766565229E-1   -1.989807341919319E-1
 6.528973422525000E9     5.590291268412564E-1   -6.913499566864449E-2   -9.810398966977307E-3   -3.514874081612560E-2   -1.048851961440485E-2   -3.495584195381793E-2    4.746966117958820E-1   -1.997536694455784E-1
 6.528983011850000E9     5.589225813730747E-1   -6.990665910842009E-2   -9.862721051705011E-3   -3.535345700915286E-2   -1.056756661892482E-2   -3.506207667817861E-2    4.741812384662360E-1   -2.007617962363598E-1
 6.528992601175000E9     5.589791736329818E-1   -7.083092456498875E-2   -9.762159766739810E-3   -3.537551286067308E-2   -1.065277560072730E-2   -3.520874013867625E-2    4.736880119024455E-1   -2.016818992244563E-1
 6.529002190500000E9     5.586948448920017E-1   -7.145640312075979E-2   -9.917691180368005E-3   -3.566622587458285E-2   -1.083526544465129E-2   -3.547366111369127E-2    4.733249974770201E-1   -2.025616246895453E-1
 6.529011779825000E9     5.585579091202565E-1   -7.239039204351042E-2   -1.016073982905548E-2   -3.561586868029814E-2   -1.107300235391073E-2   -3.561042287945636E-2    4.730642424772557E-1   -2.034886350575821E-1
 6.529021369150000E9     5.585058092930414E-1   -7.322694614567192E-2   -1.037931750985558E-2   -3.591697896531897E-2   -1.107643575910881E-2   -3.565909001811483E-2    4.724407266774061E-1   -2.043948929956840E-1
 6.529030958475000E9     5.582935484062935E-1   -7.409083354273995E-2   -1.043733872232404E-2   -3.612888248700068E-2   -1.128148583748714E-2   -3.603881764557865E-2    4.720726167783412E-1   -2.051420025641714E-1
 6.529040547800000E9     5.581716724893140E-1   -7.469190431995917E-2   -1.042622166196193E-2   -3.636721608294846E-2   -1.134578101673344E-2   -3.614875326200113E-2    4.716123873545234E-1   -2.060558401338751E-1
 6.529050137125000E9     5.581179689993776E-1   -7.557580589539452E-2   -1.058251405644945E-2   -3.640929597650523E-2   -1.143423252681618E-2   -3.625611275700315E-2    4.713155749049667E-1   -2.070511907494051E-1
 6.529059726450000E9     5.580479172373893E-1   -7.635277808003761E-2   -1.080475753786801E-2   -3.690013079071545E-2   -1.165360398963531E-2   -3.651204120432585E-2    4.708647726274419E-1   -2.079514221234029E-1
 6.529069315775000E9     5.579130759038983E-1   -7.713031304417814E-2   -1.088410441217214E-2   -3.691910845358429E-2   -1.177103288063483E-2   -3.664118886330345E-2    4.703079637541603E-1   -2.087676643683029E-1
 6.529078905100000E9     5.578051344810607E-1   -7.792753967650372E-2   -1.094097909453732E-2   -3.715563543136857E-2   -1.187058203523985E-2   -3.689860610022984E-2    4.699726730747953E-1   -2.095137927943674E-1
 6.529088494425000E9     5.577335380545370E-1   -7.871664557143707E-2   -1.126348568902102E-2   -3.704666068446066E-2   -1.204679966858683E-2   -3.699054972388914E-2    4.693860340680502E-1   -2.105743334174781E-1
 6.529098083750000E9     5.575339524681926E-1   -7.951189463923573E-2   -1.129044455083783E-2   -3.738327920279651E-2   -1.213423390033097E-2   -3.719457117136919E-2    4.691311152941579E-1   -2.115237590593741E-1
 6.529107673075000E9     5.574831061286954E-1   -8.029431844963635E-2   -1.145245633101214E-2   -3.764744155338971E-2   -1.228047533412590E-2   -3.748056354682774E-2    4.686802072944547E-1   -2.123760478263931E-1
 6.529117262400000E9     5.571961874998967E-1   -8.120342532270300E-2   -1.159042911980551E-2   -3.781919292684381E-2   -1.240662724691577E-2   -3.764894207269135E-2    4.681543231573048E-1   -2.131925004489402E-1
 6.529126851725000E9     5.570402784132066E-1   -8.195274969555701E-2   -1.162879765795026E-2   -3.808461509975428E-2   -1.260868729949060E-2   -3.783565560924832E-2    4.675500626613628E-1   -2.141886493926203E-1
 6.529136441050000E9     5.570025467091158E-1   -8.286652666786841E-2   -1.188198177368784E-2   -3.810499080360118E-2   -1.275474362240930E-2   -3.809425534663914E-2    4.671017406777769E-1   -2.151136673778538E-1
 6.529146030375000E9     5.567964752365722E-1   -8.360357547399216E-2   -1.195404196799684E-2   -3.840183583664587E-2   -1.292821862496584E-2   -3.821501540021707E-2    4.666819894313908E-1   -2.159475046322775E-1
 6.529155619700000E9     5.567135909888272E-1   -8.454119638415848E-2   -1.205395910301042E-2   -3.852854274981642E-2   -1.295830499501321E-2   -3.839338148893164E-2    4.661873186943083E-1   -2.169637305947051E-1
 6.529165209025000E9     5.567238467372658E-1   -8.530790071764888E-2   -1.221415320417723E-2   -3.875790349191835E-2   -1.318128463939061E-2   -3.857366387077817E-2    4.657475427699737E-1   -2.179200895646107E-1
 6.529174798350000E9     5.563744212736824E-1   -8.618825207709604E-2   -1.257498833160882E-2   -3.906192978983383E-2   -1.320472880474025E-2   -3.883725089694635E-2    4.653793508413643E-1   -2.187389568230385E-1
 6.529184387675000E9     5.561915034105936E-1   -8.697452877631567E-2   -1.257796492734161E-2   -3.918784265908851E-2   -1.341968501078126E-2   -3.900980834813846E-2    4.649062340509164E-1   -2.196544013165948E-1
 6.529193977000000E9     5.561950899877264E-1   -8.773354166978706E-2   -1.267039578609934E-2   -3.957343828725482E-2   -1.359923216874714E-2   -3.926535661114763E-2    4.642076389867552E-1   -2.205539867683732E-1
 6.529203566325000E9     5.561010508509553E-1   -8.852988479785569E-2   -1.288822442965264E-2   -3.974043085030039E-2   -1.382484672472995E-2   -3.952579165603733E-2    4.637372598113241E-1   -2.216520077234408E-1
 6.529213155650000E9     5.558458095990830E-1   -8.940184022291124E-2   -1.298130460949891E-2   -3.994807940573702E-2   -1.397607729391428E-2   -3.960452279967860E-2    4.633324251351894E-1   -2.226447628831852E-1
 6.529222744975000E9     5.556812657436259E-1   -9.022541842351200E-2   -1.310927892456291E-2   -4.029001330656806E-2   -1.416232410449002E-2   -3.986815249071464E-2    4.628452404823949E-1   -2.234333162290886E-1
 6.529232334300000E9     5.555262796554374E-1   -9.114674186174844E-2   -1.342384104406675E-2   -4.031400599737948E-2   -1.434429256257293E-2   -4.003590600738537E-2    4.622697518884702E-1   -2.246511077880808E-1
 6.529241923625000E9     5.554269786447171E-1   -9.185362498187953E-2   -1.350588041939173E-2   -4.044993746230486E-2   -1.447301820499468E-2   -4.019542495379119E-2    4.617945781585621E-1   -2.255655565884412E-1
 6.529251512950000E9     5.552061702856521E-1   -9.284522478828015E-2   -1.368675190517715E-2   -4.067619418903368E-2   -1.462060744308434E-2   -4.056605778096192E-2    4.611239657564403E-1   -2.263715144403864E-1
 6.529261102275000E9     5.549903108881920E-1   -9.371024840432068E-2   -1.383442887897245E-2   -4.101457478773519E-2   -1.485428583633554E-2   -4.071271073048332E-2    4.607616952114929E-1   -2.273486160176139E-1
 6.529270691600000E9     5.548672411991564E-1   -9.445941767049661E-2   -1.401292190794273E-2   -4.127796759403781E-2   -1.512533995599531E-2   -4.106625069563894E-2    4.602616709394919E-1   -2.282167857502858E-1
 6.529280280925000E9     5.545943891033012E-1   -9.523914994532383E-2   -1.410881339809596E-2   -4.142099739783781E-2   -1.522089654248205E-2   -4.117275826853441E-2    4.595670242770462E-1   -2.292180365404143E-1
 6.529289870250000E9     5.546820499573075E-1   -9.606627753333659E-2   -1.437800467131964E-2   -4.168250369559739E-2   -1.539466848127506E-2   -4.145025138149507E-2    4.589662976825127E-1   -2.302464058124200E-1
 6.529299459575000E9     5.543594357134530E-1   -9.689307844684587E-2   -1.454532023799446E-2   -4.203284092081515E-2   -1.554991939138083E-2   -4.171731027273240E-2    4.584547999200881E-1   -2.312925446885365E-1
 6.529309048900000E9     5.542034408605450E-1   -9.774677374873329E-2   -1.479614272604146E-2   -4.204675504367454E-2   -1.579955593907724E-2   -4.196582912808576E-2    4.578091290255660E-1   -2.322309522714243E-1
 6.529318638225000E9     5.540268341812569E-1   -9.857312538042165E-2   -1.488495701772572E-2   -4.259635063867568E-2   -1.595722638666900E-2   -4.216675280955925E-2    4.572662241219145E-1   -2.332916952467180E-1
 6.529328227550000E9     5.538049208386262E-1   -9.943766493039237E-2   -1.513567474319069E-2   -4.265038346361090E-2   -1.622087104235588E-2   -4.234420149300336E-2    4.568053715188337E-1   -2.343319719068658E-1
 6.529337816875000E9     5.537201510433695E-1   -1.002911536054608E-1   -1.539249397608515E-2   -4.292030863056349E-2   -1.631768692363003E-2   -4.270002719714562E-2    4.562639364618579E-1   -2.353858830763428E-1
 6.529347406200000E9     5.535897850993230E-1   -1.011389744717129E-1   -1.571108390477162E-2   -4.330542975227938E-2   -1.648320827730368E-2   -4.294327639612563E-2    4.555063221612928E-1   -2.362436743187300E-1
 6.529356995525000E9     5.533462413530865E-1   -1.020228469302812E-1   -1.580805148943179E-2   -4.350527915138609E-2   -1.665068515234774E-2   -4.313402085332149E-2    4.549669546118912E-1   -2.373125691117639E-1
 6.529366584850000E9     5.531269641325658E-1   -1.028228891619851E-1   -1.585810856897057E-2   -4.382430028478475E-2   -1.694149353106778E-2   -4.343501691648199E-2    4.543288006567994E-1   -2.381933599986513E-1
 6.529376174175000E9     5.529369397197273E-1   -1.038374136758380E-1   -1.614349296585953E-2   -4.395881147111741E-2   -1.720426739563053E-2   -4.375060293955875E-2    4.537343949089948E-1   -2.392447451992910E-1
 6.529385763500000E9     5.526490499795228E-1   -1.045459615186881E-1   -1.634167937473208E-2   -4.418825332672958E-2   -1.736464306473314E-2   -4.396694839040631E-2    4.532751098254399E-1   -2.402874748765302E-1
 6.529395352825000E9     5.524581021957820E-1   -1.054822642797673E-1   -1.657579618965352E-2   -4.451135042061619E-2   -1.754603008921198E-2   -4.422525040474312E-2    4.525323623026644E-1   -2.413109529816462E-1
 6.529404942150000E9     5.522462689271886E-1   -1.062316986573600E-1   -1.668157861946800E-2   -4.476913269163520E-2   -1.776074907543873E-2   -4.453849641974277E-2    4.518342182350053E-1   -2.424816001808593E-1
 6.529414531475000E9     5.521180286220785E-1   -1.071334824564067E-1   -1.702643044462341E-2   -4.508426753529923E-2   -1.811293681119613E-2   -4.486349801287355E-2    4.512402374272978E-1   -2.432563284562594E-1
 6.529424120800000E9     5.519317162479811E-1   -1.080912114022920E-1   -1.716675994601206E-2   -4.545251835542993E-2   -1.828028223448981E-2   -4.498125331913991E-2    4.506341886617130E-1   -2.444794307014961E-1
 6.529433710125000E9     5.516230170723110E-1   -1.089853014269750E-1   -1.738699433946310E-2   -4.567475229401960E-2   -1.848167815006311E-2   -4.542164427101250E-2    4.500551245184586E-1   -2.454326069689791E-1
 6.529443299450000E9     5.514964835218201E-1   -1.097547379070796E-1   -1.765092542153045E-2   -4.606600382043047E-2   -1.875401890556218E-2   -4.560856718536704E-2    4.494127624796254E-1   -2.464747544535110E-1
 6.529452888775000E9     5.513031495858099E-1   -1.106373682232880E-1   -1.786900533013469E-2   -4.606768987756037E-2   -1.898610488710856E-2   -4.585553033663458E-2    4.484674941279210E-1   -2.476068523706626E-1
 6.529462478100000E9     5.510623586843219E-1   -1.115311878798131E-1   -1.809473615513379E-2   -4.645108351499657E-2   -1.924299020258340E-2   -4.623754918761830E-2    4.478847433759431E-1   -2.485738285122493E-1
 6.529472067425000E9     5.508818400942607E-1   -1.125054657172295E-1   -1.835536304800010E-2   -4.680293143063628E-2   -1.954527415658466E-2   -4.658454744834727E-2    4.471132188156868E-1   -2.496445061829874E-1
 6.529481656750000E9     5.506142589649138E-1   -1.132467279935567E-1   -1.851281429883879E-2   -4.717595533277132E-2   -1.976435798749023E-2   -4.676681412554749E-2    4.465011643888769E-1   -2.507336318755341E-1
 6.529491246075000E9     5.503457692256342E-1   -1.142386422311813E-1   -1.882730490036483E-2   -4.746802528016036E-2   -2.001565604784022E-2   -4.711506018450033E-2    4.458778089916585E-1   -2.518437592564741E-1
 6.529500835400000E9     5.502116766245140E-1   -1.151078338136901E-1   -1.920481431589204E-2   -4.779275711568229E-2   -2.030724766569866E-2   -4.733488030757457E-2    4.449992909897009E-1   -2.530095851701686E-1
 6.529510424725000E9     5.497823983798201E-1   -1.159992504884631E-1   -1.933458344841429E-2   -4.809283335125922E-2   -2.059708635423402E-2   -4.768241365860146E-2    4.444628609661712E-1   -2.539771774685212E-1
 6.529520014050000E9     5.496298113820296E-1   -1.167393215987180E-1   -1.968139034331496E-2   -4.844310155882624E-2   -2.072197427697477E-2   -4.792523174683097E-2    4.433895217219088E-1   -2.550785968675439E-1
 6.529529603375000E9     5.494883313848610E-1   -1.177427999919710E-1   -1.991148358084482E-2   -4.865548499996004E-2   -2.108999132939850E-2   -4.837349137091911E-2    4.427269357203027E-1   -2.562345827896945E-1
 6.529539192700000E9     5.491454538470611E-1   -1.186197148732679E-1   -2.018642396291242E-2   -4.898037695543532E-2   -2.141118059226634E-2   -4.861943132318219E-2    4.418861513394496E-1   -2.573286579413859E-1
 6.529548782025000E9     5.490156486388211E-1   -1.194290832866178E-1   -2.043637442445366E-2   -4.944701540780433E-2   -2.162643615883848E-2   -4.893136658081437E-2    4.413391466903794E-1   -2.584363158963907E-1
 6.529558371350000E9     5.486406650525559E-1   -1.204495734260575E-1   -2.080797049387329E-2   -4.969565802572368E-2   -2.197858805486310E-2   -4.934866826140679E-2    4.404527952651523E-1   -2.594232561793493E-1
 6.529567960675000E9     5.484285224256696E-1   -1.213380933995111E-1   -2.097806781870885E-2   -5.003690050822621E-2   -2.235937332479777E-2   -4.957343755131605E-2    4.397341254720175E-1   -2.605701722847563E-1
 6.529577550000000E9     5.481681797251030E-1   -1.222814602805719E-1   -2.121551677954943E-2   -5.036883553161561E-2   -2.258048688532537E-2   -5.004435860836056E-2    4.389310273403588E-1   -2.618373165578327E-1
 6.529587139325000E9     5.479035738690530E-1   -1.232062730708674E-1   -2.170054715269867E-2   -5.090727709738737E-2   -2.286163661103988E-2   -5.026260252964606E-2    4.380922742645453E-1   -2.630675019282965E-1
 6.529596728650000E9     5.476758786247327E-1   -1.240675753231709E-1   -2.203271908156188E-2   -5.112650534684338E-2   -2.320629668517965E-2   -5.060524078697842E-2    4.371729849008053E-1   -2.641362696358188E-1
 6.529606317975000E9     5.473419631170662E-1   -1.248704938087608E-1   -2.221978297204585E-2   -5.139273821053515E-2   -2.352888790159847E-2   -5.101512711769497E-2    4.363734530653939E-1   -2.653458647771442E-1
 6.529615907300000E9     5.472117940351982E-1   -1.259581635412832E-1   -2.252997825224479E-2   -5.189412579837784E-2   -2.381257234293573E-2   -5.131164443530500E-2    4.356385626697807E-1   -2.665243840504695E-1
 6.529625496625000E9     5.469039216799140E-1   -1.267536639707730E-1   -2.291659890042594E-2   -5.227091501806037E-2   -2.416978690095013E-2   -5.173880879938436E-2    4.346099167243205E-1   -2.676771442695628E-1
 6.529635085950000E9     5.465258199441709E-1   -1.277885268036347E-1   -2.319936921785130E-2   -5.271700860485034E-2   -2.449155885081957E-2   -5.209757346848341E-2    4.336964222221715E-1   -2.688122074241274E-1
 6.529644675275000E9     5.462437273518228E-1   -1.286305571341266E-1   -2.346164510109845E-2   -5.294546598675424E-2   -2.490439543097537E-2   -5.247256452995554E-2    4.328851747745543E-1   -2.700051734928652E-1
 6.529654264600000E9     5.460067968509594E-1   -1.296430595231582E-1   -2.397040655998993E-2   -5.338246110181260E-2   -2.526191384311707E-2   -5.292799100792903E-2    4.320949307875666E-1   -2.712547110843143E-1
 6.529663853925000E9     5.456336729422377E-1   -1.304350730593359E-1   -2.413972278966803E-2   -5.374706411052885E-2   -2.568165764175514E-2   -5.329955796107238E-2    4.311415600130436E-1   -2.724866752417722E-1
 6.529673443250000E9     5.453260709478557E-1   -1.315617729248385E-1   -2.455730652690210E-2   -5.414057809323268E-2   -2.594585395257529E-2   -5.351443860567835E-2    4.300081076701212E-1   -2.735106860232593E-1
