#  HZ   S   RI   R     50.00 
! Rohde & Schwarz Vector Network Analyzer 
! Rohde-Schwarz,ZNB20-2Port,1311601062101988,3.16
! Created: UTC 3/21/2024, 12:54:27 AM
! freq[Hz]                re:S11                  im:S11                  re:S21                  im:S21                  re:S12                  im:S12                  re:S22                  im:S22
 6.528809252000000E9     5.607978602397296E-1   -5.566428097709972E-2   -7.973319816558867E-3   -3.231478429768995E-2   -8.683519986744055E-3   -3.228723922801965E-2    4.808153198418106E-1   -1.852302418502189E-1
 6.528818856925000E9     5.605941840093567E-1   -5.636077719166842E-2   -7.977361919268513E-3   -3.241778243989942E-2   -8.705259317204034E-3   -3.245893145149434E-2    4.805019791872988E-1   -1.860566224777097E-1
 6.528828461850000E9     5.605192785264937E-1   -5.712686355634180E-2   -8.074915590132847E-3   -3.267631845249357E-2   -8.838777589373356E-3   -3.252633535868226E-2    4.803414924944923E-1   -1.867198074181894E-1
 6.528838066775000E9     5.603440108023263E-1   -5.786655540076417E-2   -8.252798517470811E-3   -3.284446533270938E-2   -8.928346086784443E-3   -3.270254997767375E-2    4.798716966047152E-1   -1.876606727422488E-1
 6.528847671700000E9     5.604442340116004E-1   -5.877703044684578E-2   -8.249411818067503E-3   -3.303705328276702E-2   -9.075706578681333E-3   -3.275790303718755E-2    4.795024238001573E-1   -1.883658863663691E-1
 6.528857276625000E9     5.601875925233153E-1   -5.933383610002168E-2   -8.301283863113077E-3   -3.309522994488925E-2   -9.088906220293982E-3   -3.298717917181248E-2    4.790692671839031E-1   -1.894008837992609E-1
 6.528866881550000E9     5.602448303729382E-1   -6.019661516550891E-2   -8.658927729085247E-3   -3.317168837133785E-2   -9.195404690504510E-3   -3.309149056814854E-2    4.787151800127604E-1   -1.901615110345924E-1
 6.528876486475000E9     5.601336328086314E-1   -6.106848461219331E-2   -8.613950607331434E-3   -3.344749011913017E-2   -9.366300588643335E-3   -3.333569412230733E-2    4.783715707086165E-1   -1.911702337242458E-1
 6.528886091400000E9     5.599742865767081E-1   -6.187607006416448E-2   -8.649575046996417E-3   -3.360215277449290E-2   -9.364820491796084E-3   -3.341264759105000E-2    4.780565050698574E-1   -1.919513196013294E-1
 6.528895696325000E9     5.599188598996341E-1   -6.249427447321849E-2   -8.859504859479684E-3   -3.356155215399946E-2   -9.588098707046277E-3   -3.359646829749165E-2    4.775888964817311E-1   -1.928656396378335E-1
 6.528905301250000E9     5.598452559355716E-1   -6.348776709230379E-2   -8.894187317602121E-3   -3.384247255233372E-2   -9.611812067577354E-3   -3.383595273184830E-2    4.773508726626273E-1   -1.935905696997283E-1
 6.528914906175000E9     5.597110186604040E-1   -6.428201231878319E-2   -8.998929715829027E-3   -3.402888647795158E-2   -9.784119813151609E-3   -3.387614276410567E-2    4.769217495450661E-1   -1.944946147292987E-1
 6.528924511100000E9     5.597303148172642E-1   -6.492964121372211E-2   -9.258011678727418E-3   -3.394537177138476E-2   -9.927865125826800E-3   -3.397883344169547E-2    4.765836832284389E-1   -1.954193444950642E-1
 6.528934116025000E9     5.595192518270147E-1   -6.573839724369147E-2   -9.186852810944550E-3   -3.437910850116941E-2   -1.003985731858566E-2   -3.419365363165782E-2    4.762304956977800E-1   -1.962614599302417E-1
 6.528943720950000E9     5.594900844852476E-1   -6.658340517866349E-2   -9.275847525554926E-3   -3.456439356035252E-2   -1.004085219654289E-2   -3.433106322117297E-2    4.756893846511991E-1   -1.969786727163038E-1
 6.528953325875000E9     5.593130143150312E-1   -6.750344318336776E-2   -9.538078104548849E-3   -3.466484917189209E-2   -1.025292480218775E-2   -3.452498671527632E-2    4.752615863345903E-1   -1.979364857098574E-1
 6.528962930800000E9     5.591698376936195E-1   -6.815050349648161E-2   -9.576342765830853E-3   -3.489883735276117E-2   -1.025806513131765E-2   -3.470515288419420E-2    4.749741150315823E-1   -1.988037443664240E-1
 6.528972535725000E9     5.591631976956624E-1   -6.906375337614468E-2   -9.640823707032585E-3   -3.487935453143465E-2   -1.047481552969640E-2   -3.491250249361500E-2    4.746390127408556E-1   -1.997856864103289E-1
 6.528982140650000E9     5.589044765679191E-1   -6.977978304007938E-2   -9.842034916875398E-3   -3.515735189481153E-2   -1.056356909449693E-2   -3.506089095949691E-2    4.741458175683771E-1   -2.005271503984168E-1
 6.528991745575000E9     5.588330211045059E-1   -7.071733872337570E-2   -9.906385872922124E-3   -3.531596489024877E-2   -1.072838123711319E-2   -3.515613267493548E-2    4.736960052222196E-1   -2.016194994705769E-1
 6.529001350500000E9     5.587977066326472E-1   -7.130618760232139E-2   -9.963970715737592E-3   -3.566641449777844E-2   -1.085672628826608E-2   -3.536903736720931E-2    4.732638385901164E-1   -2.023179331569463E-1
 6.529010955425000E9     5.586003416297775E-1   -7.221660248309816E-2   -1.013951485462549E-2   -3.584077432768031E-2   -1.095224614481486E-2   -3.563456962282019E-2    4.728424943388536E-1   -2.031095564287833E-1
 6.529020560350000E9     5.585419565070168E-1   -7.301603658173220E-2   -1.033991987407149E-2   -3.601850201281383E-2   -1.104839402893513E-2   -3.566558981037171E-2    4.724715088162362E-1   -2.039045215846562E-1
 6.529030165275000E9     5.583894223401068E-1   -7.376048547997298E-2   -1.039241262656373E-2   -3.608267103207859E-2   -1.114074556131809E-2   -3.585646732752103E-2    4.721161577216597E-1   -2.049425685665630E-1
 6.529039770200000E9     5.583864686826983E-1   -7.460796833098755E-2   -1.052618038983189E-2   -3.615218697029481E-2   -1.125458507333949E-2   -3.608550166510431E-2    4.717156658774575E-1   -2.057676812059467E-1
 6.529049375125000E9     5.582433189163306E-1   -7.533617355480450E-2   -1.051539263469714E-2   -3.640735013629436E-2   -1.144929132705831E-2   -3.630054162533566E-2    4.712190585597430E-1   -2.068259141187149E-1
 6.529058980050000E9     5.580844195695991E-1   -7.618962896618695E-2   -1.075422416166703E-2   -3.653805833150382E-2   -1.155284398091543E-2   -3.645279899564017E-2    4.708761592924569E-1   -2.075847392871086E-1
 6.529068584975000E9     5.579830864034325E-1   -7.704769692131085E-2   -1.088598694397894E-2   -3.680653712576449E-2   -1.163793402875549E-2   -3.663208698980798E-2    4.703339429422337E-1   -2.085545083161999E-1
 6.529078189900000E9     5.577666682116054E-1   -7.785576151167455E-2   -1.097305784506527E-2   -3.700730334144648E-2   -1.179903160963745E-2   -3.685402432138377E-2    4.699443730691148E-1   -2.095341805218573E-1
 6.529087794825000E9     5.576307473973349E-1   -7.858411000054365E-2   -1.110862132577169E-2   -3.726529372705139E-2   -1.193299935611022E-2   -3.704158492896104E-2    4.695295463256015E-1   -2.102970636895637E-1
 6.529097399750000E9     5.575083551157234E-1   -7.945909988600913E-2   -1.126847685581584E-2   -3.735210626621778E-2   -1.204732238714972E-2   -3.714047111162581E-2    4.689736657491952E-1   -2.110699249967252E-1
 6.529107004675000E9     5.573797717161753E-1   -8.029998204745091E-2   -1.143737895851528E-2   -3.756412898973372E-2   -1.229281507118135E-2   -3.743156579600890E-2    4.686798376872413E-1   -2.122354904737845E-1
 6.529116609600000E9     5.573493269609405E-1   -8.099299637766819E-2   -1.152930234402117E-2   -3.780172805620848E-2   -1.241185364688115E-2   -3.748305817614565E-2    4.681193084018176E-1   -2.131276708215155E-1
 6.529126214525000E9     5.572316968618896E-1   -8.189583502175332E-2   -1.173446765622843E-2   -3.782338846324861E-2   -1.249047933620099E-2   -3.769055276417406E-2    4.676807985238745E-1   -2.139371320117752E-1
 6.529135819450000E9     5.569889862381473E-1   -8.266938047346677E-2   -1.190294989157840E-2   -3.806789452247530E-2   -1.268332565060127E-2   -3.792028478587713E-2    4.671622678533573E-1   -2.148411778995532E-1
 6.529145424375000E9     5.568083400376145E-1   -8.358259287830268E-2   -1.204408460719896E-2   -3.835763051800175E-2   -1.286388690599063E-2   -3.808331388020123E-2    4.667999660325203E-1   -2.158877328780022E-1
 6.529155029300000E9     5.567574840783823E-1   -8.439861719622473E-2   -1.218043670273370E-2   -3.855482166765906E-2   -1.296096497809366E-2   -3.833222095363070E-2    4.661596270863215E-1   -2.167811473294871E-1
 6.529164634225000E9     5.565735802895631E-1   -8.524594194294118E-2   -1.216030342901317E-2   -3.882779593009546E-2   -1.313373629681555E-2   -3.861028400116609E-2    4.657114739285648E-1   -2.176842392252241E-1
 6.529174239150000E9     5.565129314781733E-1   -8.602607208550318E-2   -1.252734814640998E-2   -3.903504319837969E-2   -1.333716037573699E-2   -3.877798422129793E-2    4.653707468696961E-1   -2.186353156588730E-1
 6.529183844075000E9     5.562807333765737E-1   -8.689278543036370E-2   -1.257342989533423E-2   -3.927548490196024E-2   -1.338316812928692E-2   -3.886178345679284E-2    4.648932484382069E-1   -2.195806693652877E-1
 6.529193449000000E9     5.561177910448263E-1   -8.771538164476349E-2   -1.266150700594925E-2   -3.939819387451171E-2   -1.367743674919911E-2   -3.911032682712162E-2    4.643487895289038E-1   -2.204220998134339E-1
 6.529203053925000E9     5.560135345931490E-1   -8.838290094106975E-2   -1.293158401226303E-2   -3.955834411798586E-2   -1.375687169391413E-2   -3.941647218004706E-2    4.638136269870105E-1   -2.213815506586784E-1
 6.529212658850000E9     5.558612242911989E-1   -8.938464054355903E-2   -1.288916332034678E-2   -3.984339908470421E-2   -1.406874632235886E-2   -3.950557621374003E-2    4.632765660486979E-1   -2.222240884649772E-1
 6.529222263775000E9     5.556282249162975E-1   -9.009051887717394E-2   -1.319945489244435E-2   -3.997849463984410E-2   -1.411559465715920E-2   -3.974645603728644E-2    4.627999819650495E-1   -2.232160257721898E-1
 6.529231868700000E9     5.556047657035839E-1   -9.093021543600092E-2   -1.339828144104616E-2   -4.034911416114519E-2   -1.426878763692803E-2   -3.994616367955341E-2    4.622796226643655E-1   -2.243709626796950E-1
 6.529241473625000E9     5.553640148822191E-1   -9.168910927657491E-2   -1.358612980920934E-2   -4.052605921377726E-2   -1.446969401452938E-2   -4.026261332002597E-2    4.617754855449246E-1   -2.251727127227435E-1
 6.529251078550000E9     5.552214226242590E-1   -9.264211159240451E-2   -1.360771317965672E-2   -4.065641464581584E-2   -1.460904785234088E-2   -4.055068219273417E-2    4.610956520776916E-1   -2.260950642012571E-1
 6.529260683475000E9     5.549985085394458E-1   -9.348260164635450E-2   -1.389217509612639E-2   -4.082173370856324E-2   -1.475872444309182E-2   -4.071763243215085E-2    4.606125162910066E-1   -2.270795288456348E-1
 6.529270288400000E9     5.548831023551610E-1   -9.433720175079885E-2   -1.396275050786499E-2   -4.118777137976251E-2   -1.499514313396745E-2   -4.093900659042406E-2    4.602127028408785E-1   -2.281802524140557E-1
 6.529279893325000E9     5.547640330775634E-1   -9.520000838108482E-2   -1.414020872433557E-2   -4.138556571735150E-2   -1.517225467165158E-2   -4.107279661268391E-2    4.595954610229416E-1   -2.290882393262545E-1
 6.529289498250000E9     5.546727547869129E-1   -9.595519224414337E-2   -1.433942972719008E-2   -4.163824754835379E-2   -1.532316418303764E-2   -4.130137407185609E-2    4.590452542733193E-1   -2.300082509890178E-1
 6.529299103175000E9     5.544194164447801E-1   -9.688265020124191E-2   -1.454835595714227E-2   -4.192030905099115E-2   -1.554994563659421E-2   -4.158590699112982E-2    4.586044759584693E-1   -2.311531271067080E-1
 6.529308708100000E9     5.541667488677927E-1   -9.768450977359010E-2   -1.473548135224384E-2   -4.225772464202129E-2   -1.581453321323164E-2   -4.188842292593377E-2    4.578251669349265E-1   -2.320845558139112E-1
 6.529318313025000E9     5.540591492751235E-1   -9.861298968431353E-2   -1.495611286136176E-2   -4.241173211821853E-2   -1.580647251959915E-2   -4.206385785860576E-2    4.571657519573471E-1   -2.329612357129392E-1
 6.529327917950000E9     5.538087245015438E-1   -9.939328477357315E-2   -1.508506777844326E-2   -4.259929194211073E-2   -1.608898525447173E-2   -4.225707809204196E-2    4.567695498220674E-1   -2.340594239316918E-1
 6.529337522875000E9     5.537177081975875E-1   -1.001743482541503E-1   -1.527539197638952E-2   -4.286154102019608E-2   -1.626994760467837E-2   -4.262108913742863E-2    4.564202464749771E-1   -2.349119691459320E-1
 6.529347127800000E9     5.534905104530278E-1   -1.010572587474347E-1   -1.557507857827340E-2   -4.315786451521116E-2   -1.651737136819914E-2   -4.280921971016976E-2    4.555747962123076E-1   -2.359068209338732E-1
 6.529356732725000E9     5.534600746114391E-1   -1.019006357753074E-1   -1.560531975602501E-2   -4.337747400440244E-2   -1.676027934345255E-2   -4.307067004774894E-2    4.550121560818164E-1   -2.369742654396144E-1
 6.529366337650000E9     5.530447277739340E-1   -1.027935930450517E-1   -1.594825360061009E-2   -4.356612947562043E-2   -1.695292555220235E-2   -4.341602844446656E-2    4.545307415058080E-1   -2.380941444212304E-1
 6.529375942575000E9     5.529055355173401E-1   -1.037576829556425E-1   -1.612329829073755E-2   -4.388916977670231E-2   -1.706892689591900E-2   -4.361585188260150E-2    4.537319863551172E-1   -2.390233191566584E-1
 6.529385547500000E9     5.527220972185146E-1   -1.045191383776891E-1   -1.624741573570871E-2   -4.422147107981303E-2   -1.744009582308718E-2   -4.395565156371337E-2    4.530479130388177E-1   -2.401562588650598E-1
 6.529395152425000E9     5.524932115498370E-1   -1.055063934365074E-1   -1.658660306425732E-2   -4.450791142669602E-2   -1.759403440553689E-2   -4.412770523333863E-2    4.524513592349474E-1   -2.410620279940535E-1
 6.529404757350000E9     5.524418774950496E-1   -1.061803869377376E-1   -1.676497423987933E-2   -4.462420355234892E-2   -1.782302852549917E-2   -4.436251680251165E-2    4.519447632457891E-1   -2.420147427427852E-1
 6.529414362275000E9     5.520887387396382E-1   -1.071040371004663E-1   -1.699722260483172E-2   -4.501241882581046E-2   -1.808198401034231E-2   -4.483129750608776E-2    4.512932170270185E-1   -2.432070195970242E-1
 6.529423967200000E9     5.519211132300179E-1   -1.079364683911987E-1   -1.716993486901712E-2   -4.535920126095675E-2   -1.824811170893003E-2   -4.497522463959250E-2    4.507573229156054E-1   -2.442346151875467E-1
 6.529433572125000E9     5.517025131886518E-1   -1.088523070249887E-1   -1.747993344945034E-2   -4.566224081308592E-2   -1.844510567222390E-2   -4.527489916841258E-2    4.498651665244758E-1   -2.453004765117998E-1
 6.529443177050000E9     5.515083929546042E-1   -1.097255338362498E-1   -1.754887856531612E-2   -4.590623582377071E-2   -1.872704905823678E-2   -4.545287762353586E-2    4.492707008271343E-1   -2.462224624061750E-1
 6.529452781975000E9     5.512560691900662E-1   -1.105437780002918E-1   -1.798677889285467E-2   -4.619125056404818E-2   -1.896301986352547E-2   -4.581652698739213E-2    4.484696339541556E-1   -2.475074009181097E-1
 6.529462386900000E9     5.511405989174782E-1   -1.114409775682799E-1   -1.813495217756553E-2   -4.642104506100457E-2   -1.921821827255128E-2   -4.614446661327755E-2    4.479245446975610E-1   -2.484294302903355E-1
 6.529471991825000E9     5.508741127766011E-1   -1.124228825947339E-1   -1.810389967738821E-2   -4.668552401764609E-2   -1.947246247239492E-2   -4.635488620803700E-2    4.471389602730552E-1   -2.493678453497723E-1
 6.529481596750000E9     5.506618570380766E-1   -1.132254821508519E-1   -1.854058315624451E-2   -4.709899931742528E-2   -1.976401722351774E-2   -4.668516929828379E-2    4.465031505209192E-1   -2.507209409302774E-1
 6.529491201675000E9     5.503619250572501E-1   -1.140790128987038E-1   -1.888979722703405E-2   -4.743361733505754E-2   -1.996424281995671E-2   -4.689512503127082E-2    4.456822942152230E-1   -2.516327066167385E-1
 6.529500806600000E9     5.502178463179791E-1   -1.149669691615500E-1   -1.892442588166748E-2   -4.779537604983678E-2   -2.025904773990713E-2   -4.726775853210999E-2    4.450043612148923E-1   -2.528289878482735E-1
 6.529510411525000E9     5.499993696326655E-1   -1.159377216090637E-1   -1.930463616037873E-2   -4.796302099844538E-2   -2.051309588174436E-2   -4.758139491048895E-2    4.443590369734380E-1   -2.538951760760725E-1
 6.529520016450000E9     5.495879280119120E-1   -1.167020297771536E-1   -1.963449114239264E-2   -4.835590985224737E-2   -2.068022760904079E-2   -4.790168171128585E-2    4.436507377919864E-1   -2.548469526993485E-1
 6.529529621375000E9     5.494046433667751E-1   -1.176895584070114E-1   -1.986030717754415E-2   -4.872280985489912E-2   -2.108123628232976E-2   -4.824592049655157E-2    4.427618343837150E-1   -2.560105068171789E-1
 6.529539226300000E9     5.491627654607978E-1   -1.185753426434362E-1   -2.017858870285180E-2   -4.902115917005829E-2   -2.133587771092140E-2   -4.864075223643924E-2    4.421033926070551E-1   -2.573612395871608E-1
 6.529548831225000E9     5.490004390497522E-1   -1.194703152374582E-1   -2.036776228829323E-2   -4.927435107603335E-2   -2.158502028458611E-2   -4.895056784729224E-2    4.412022275713578E-1   -2.583633131767233E-1
 6.529558436150000E9     5.487236979540708E-1   -1.203181961131038E-1   -2.068310444017929E-2   -4.972260415791688E-2   -2.191373448486808E-2   -4.933632418463343E-2    4.405978985178721E-1   -2.593215590952371E-1
 6.529568041075000E9     5.484733177470902E-1   -1.212060391304235E-1   -2.098928539466834E-2   -5.009126763176183E-2   -2.224503789284014E-2   -4.951074738778563E-2    4.398951857655132E-1   -2.604209754307500E-1
 6.529577646000000E9     5.482687980062730E-1   -1.221645273768230E-1   -2.132022007016436E-2   -5.046395805394165E-2   -2.256162266054841E-2   -4.994852394289157E-2    4.389815898119080E-1   -2.615144339304444E-1
 6.529587250925000E9     5.478308061921396E-1   -1.231450384945643E-1   -2.156905200333693E-2   -5.069889812539691E-2   -2.279404452493201E-2   -5.029277887618977E-2    4.380857186620563E-1   -2.626648823822929E-1
 6.529596855850000E9     5.476663584285115E-1   -1.239530383929943E-1   -2.190142006579672E-2   -5.100990399738101E-2   -2.318664786421886E-2   -5.045801457837248E-2    4.373171689344678E-1   -2.638883086518116E-1
 6.529606460775000E9     5.474066258287564E-1   -1.249207976676244E-1   -2.225372156483395E-2   -5.137289879479216E-2   -2.356007103534613E-2   -5.098660647654169E-2    4.362115842434746E-1   -2.650355063668513E-1
 6.529616065700000E9     5.472329513132246E-1   -1.257630503516538E-1   -2.256783641058645E-2   -5.173711692564580E-2   -2.382056364391858E-2   -5.121879058539981E-2    4.356024749036256E-1   -2.660641783351061E-1
 6.529625670625000E9     5.468902785047556E-1   -1.266688505043288E-1   -2.276051968057187E-2   -5.209386253832152E-2   -2.411339894773372E-2   -5.178009350642069E-2    4.347596840590089E-1   -2.674632564928134E-1
 6.529635275550000E9     5.465305122260534E-1   -1.276737642116136E-1   -2.314500751667854E-2   -5.249803101514545E-2   -2.446446558630230E-2   -5.204669185772936E-2    4.338490786726236E-1   -2.685733239485512E-1
 6.529644880475000E9     5.463610578283430E-1   -1.286238485801998E-1   -2.340401631320032E-2   -5.290990612210188E-2   -2.478867529587736E-2   -5.237414332876706E-2    4.328663862712454E-1   -2.697388204725655E-1
 6.529654485400000E9     5.459945364046188E-1   -1.295487407220559E-1   -2.396174208356711E-2   -5.326156190252419E-2   -2.519771905348179E-2   -5.270167587665227E-2    4.319431059419508E-1   -2.710252878053917E-1
 6.529664090325000E9     5.456145153393834E-1   -1.305208402164513E-1   -2.415522935131003E-2   -5.372645239513426E-2   -2.559659823653080E-2   -5.317832960662623E-2    4.311214102598709E-1   -2.721178467256662E-1
 6.529673695250000E9     5.454470839524826E-1   -1.314296801805176E-1   -2.451520307784765E-2   -5.400210440714221E-2   -2.600001562897830E-2   -5.347268867751852E-2    4.300506524866897E-1   -2.734525717181353E-1
