#  HZ   S   RI   R     50.00 
! Rohde & Schwarz Vector Network Analyzer 
! Rohde-Schwarz,ZNB20-2Port,1311601062101988,3.16
! Created: UTC 3/20/2024, 11:41:02 AM
! freq[Hz]                re:S11                  im:S11                  re:S21                  im:S21                  re:S12                  im:S12                  re:S22                  im:S22
 8.117160697000000E9     5.049623994035021E-1   -2.959372638800103E-2    9.989780926217061E-4    3.866905826897087E-3    1.084970153541639E-3    3.946974275490296E-3    4.135504429552425E-1   -1.800998927340479E-1
 8.117163379150000E9     5.049842908210083E-1   -2.987498296294078E-2    9.930172989175512E-4    3.878882686825576E-3    1.060402967231400E-3    3.931008644815764E-3    4.135986361818803E-1   -1.803538713884863E-1
 8.117166061300000E9     5.050040686989137E-1   -3.016547306636466E-2    1.011178549097833E-3    3.872206428755993E-3    1.083212695034775E-3    3.929091149896487E-3    4.135463684665088E-1   -1.805073766516760E-1
 8.117168743450000E9     5.049709062576607E-1   -3.032848635600851E-2    9.903006480581054E-4    3.876039957444872E-3    1.046547204090305E-3    3.957670893806986E-3    4.134877863215110E-1   -1.808055760312275E-1
 8.117171425600000E9     5.049705479992387E-1   -3.056295204155881E-2    9.965578300459188E-4    3.903915138665212E-3    1.072801955471802E-3    3.955283560199272E-3    4.134108668909164E-1   -1.808656879171470E-1
 8.117174107750000E9     5.049537934595454E-1   -3.077023165532164E-2    9.914416363224926E-4    3.908167647875972E-3    1.041002539533038E-3    3.937613928871865E-3    4.132843846606525E-1   -1.810816111511715E-1
 8.117176789900000E9     5.049047629820750E-1   -3.087507342898988E-2    1.035893578421344E-3    3.902637685804584E-3    1.080684152724921E-3    3.953604884405841E-3    4.133603350322433E-1   -1.813494339243832E-1
 8.117179472050000E9     5.049175913817855E-1   -3.118110790143202E-2    1.005842733207820E-3    3.870108310366826E-3    1.088180500394917E-3    3.971586463484578E-3    4.131833612769844E-1   -1.813050485538370E-1
 8.117182154200000E9     5.047624694721392E-1   -3.133005190329426E-2    1.025065677786677E-3    3.920570080189582E-3    1.055687703016563E-3    3.939423517521728E-3    4.130813373508619E-1   -1.814858504819674E-1
 8.117184836350000E9     5.047751741081300E-1   -3.169529028050309E-2    1.011504468474329E-3    3.910947960218505E-3    1.089680496316022E-3    3.964267206168114E-3    4.130191719264624E-1   -1.815751269183120E-1
 8.117187518500000E9     5.047455737646085E-1   -3.194778114508894E-2    9.937669290635183E-4    3.897550224809832E-3    1.101685048730648E-3    3.977150256723514E-3    4.129506779157294E-1   -1.819411343000648E-1
 8.117190200650000E9     5.047563404502345E-1   -3.209702487782554E-2    1.032236977499504E-3    3.909564390514430E-3    1.086741647311646E-3    3.976631432653724E-3    4.129605601002927E-1   -1.822138659012509E-1
 8.117192882800000E9     5.046966866078068E-1   -3.229987621466364E-2    1.029575463017667E-3    3.924739070265281E-3    1.091431883734581E-3    3.982295655462089E-3    4.128598736463284E-1   -1.823532804303131E-1
 8.117195564950000E9     5.046924997403842E-1   -3.252824310995282E-2    1.038653926846878E-3    3.897593739646490E-3    1.083729451070003E-3    4.000291011062949E-3    4.127915776652257E-1   -1.825673803946226E-1
 8.117198247100000E9     5.048421149893820E-1   -3.280896696045765E-2    1.056692825955022E-3    3.932958702119223E-3    1.131757821634814E-3    4.011062725411730E-3    4.125422053911716E-1   -1.826647735907589E-1
 8.117200929250000E9     5.045552970568163E-1   -3.290895265403023E-2    1.021848506787180E-3    3.938681777923315E-3    1.089128325525739E-3    3.961301825921808E-3    4.126287939905977E-1   -1.828507738418985E-1
 8.117203611400000E9     5.046727713921479E-1   -3.318282497348968E-2    1.026511389440441E-3    3.921610339560015E-3    1.103050970798910E-3    4.023938862337215E-3    4.125514663767059E-1   -1.829613814094863E-1
 8.117206293550000E9     5.046504331191094E-1   -3.342086717213730E-2    1.046013555295267E-3    3.942540073890774E-3    1.108051057821128E-3    3.960507243517368E-3    4.124243972985850E-1   -1.830848657562600E-1
 8.117208975700000E9     5.046621241457474E-1   -3.352689543489603E-2    1.062798432100689E-3    3.916367395748599E-3    1.112042286471446E-3    3.975797864860455E-3    4.123796061608700E-1   -1.834001732751817E-1
 8.117211657850000E9     5.046163180354549E-1   -3.381976030960825E-2    1.049911796597329E-3    3.932630291341270E-3    1.063203381177601E-3    3.987495629002171E-3    4.124018487912244E-1   -1.834582081760088E-1
 8.117214340000000E9     5.045404247329437E-1   -3.409476259397619E-2    1.073336269319810E-3    3.934946780240958E-3    1.128340556505947E-3    4.000906013485094E-3    4.122437880145213E-1   -1.836128674565648E-1
 8.117217022150000E9     5.045821923335936E-1   -3.425849422781394E-2    1.055970686964473E-3    3.968251626191910E-3    1.098919263523830E-3    4.013968443442450E-3    4.121164420410737E-1   -1.838816867827595E-1
 8.117219704300000E9     5.046168387254937E-1   -3.448988506704267E-2    1.047973594511317E-3    3.938000678277048E-3    1.114424260282382E-3    4.020678654243767E-3    4.122519440020037E-1   -1.839553703335551E-1
 8.117222386450000E9     5.045809772327331E-1   -3.478256268437977E-2    1.074431183480580E-3    3.952709308691250E-3    1.127902639323077E-3    4.034789885152607E-3    4.121577154969570E-1   -1.841474697026839E-1
 8.117225068600000E9     5.044959513386202E-1   -3.494868863576735E-2    1.064800630481582E-3    3.951127108180371E-3    1.136477802590099E-3    3.977646221433690E-3    4.120590003190075E-1   -1.844759424285753E-1
 8.117227750750000E9     5.045264626996198E-1   -3.518628339782751E-2    1.078096203556129E-3    3.967400893966702E-3    1.131633015886037E-3    4.055963787772518E-3    4.120310295492756E-1   -1.844299725866774E-1
 8.117230432900000E9     5.044215412401342E-1   -3.547927407001000E-2    1.083510506021439E-3    3.947573616958171E-3    1.119927538188230E-3    4.054441256347225E-3    4.118231241937633E-1   -1.846761361426792E-1
 8.117233115050000E9     5.043426699106872E-1   -3.570065965902472E-2    1.092852149033624E-3    3.964950494163733E-3    1.150028371400776E-3    4.011371396953403E-3    4.117973795113504E-1   -1.847711322471200E-1
 8.117235797200000E9     5.044117096104392E-1   -3.575282219083639E-2    1.084546330641543E-3    3.984269274127833E-3    1.121979857521613E-3    4.027737137745371E-3    4.116456663866374E-1   -1.851106510834230E-1
 8.117238479350000E9     5.042784373131511E-1   -3.609503146664372E-2    1.088827406671697E-3    3.965629572455199E-3    1.140929639768805E-3    4.027352057646842E-3    4.115763824712352E-1   -1.851673699742764E-1
 8.117241161500000E9     5.044045464258710E-1   -3.621689027558829E-2    1.080708283159622E-3    3.988400305269068E-3    1.176100724954560E-3    4.057987216679746E-3    4.116226098151735E-1   -1.852678551737866E-1
 8.117243843650000E9     5.043314661395963E-1   -3.645107796574656E-2    1.101516588309492E-3    3.985914204338576E-3    1.174259575848804E-3    4.044541656410414E-3    4.114690014921906E-1   -1.856892791875527E-1
 8.117246525800000E9     5.042448829046752E-1   -3.666182147766191E-2    1.100228489285305E-3    3.990928045245473E-3    1.162195038748157E-3    4.064883926460601E-3    4.114952560162731E-1   -1.857883869792224E-1
 8.117249207950000E9     5.043091738466503E-1   -3.693696989103103E-2    1.100241495006827E-3    4.024718944373690E-3    1.184221870490096E-3    4.061719765287047E-3    4.112593315700346E-1   -1.858587974292279E-1
 8.117251890100000E9     5.042046966230711E-1   -3.719166602499740E-2    1.125337955945819E-3    4.000138051839876E-3    1.190236975162948E-3    4.047061656161945E-3    4.113800682241512E-1   -1.862216867379917E-1
 8.117254572250000E9     5.042381661143984E-1   -3.742360507538239E-2    1.103101727854175E-3    3.994310141678864E-3    1.197903913016019E-3    4.042190759213763E-3    4.110922338834220E-1   -1.863497341856390E-1
 8.117257254400000E9     5.042779871646099E-1   -3.767880633308204E-2    1.120639517178363E-3    3.994795631524446E-3    1.171674082802387E-3    4.071650645395305E-3    4.111252238469844E-1   -1.864712805103929E-1
 8.117259936550000E9     5.041199972195749E-1   -3.795370533276109E-2    1.129833405660212E-3    4.005954832504507E-3    1.213816790377884E-3    4.055230745371285E-3    4.110896477061666E-1   -1.867062482582731E-1
 8.117262618700000E9     5.041835909157675E-1   -3.802129391686791E-2    1.122873141886671E-3    4.024222345418445E-3    1.184251130450346E-3    4.074664906008980E-3    4.110155755648346E-1   -1.867983361495692E-1
 8.117265300850000E9     5.041461123671733E-1   -3.816222887823018E-2    1.126216973901859E-3    4.012636003197854E-3    1.244504836939564E-3    4.093977403021499E-3    4.110295665835527E-1   -1.869598586941564E-1
 8.117267983000000E9     5.042030640934776E-1   -3.850672886746644E-2    1.144015420823562E-3    4.034589737360047E-3    1.194257627942166E-3    4.063653668930310E-3    4.109869019392468E-1   -1.871435133524049E-1
 8.117270665150000E9     5.040887977270402E-1   -3.880504989393344E-2    1.149073609875809E-3    4.035878206707133E-3    1.193584361420858E-3    4.124473013425400E-3    4.108625173127985E-1   -1.872895462599719E-1
 8.117273347300000E9     5.039997674263677E-1   -3.892908399071577E-2    1.157945989386514E-3    4.021710094233748E-3    1.234603443582839E-3    4.101825246806889E-3    4.107770423739786E-1   -1.874280519872178E-1
 8.117276029450000E9     5.039694803197693E-1   -3.917217846158317E-2    1.133102155394026E-3    4.019438891883331E-3    1.235524489673300E-3    4.081160297892824E-3    4.107081054554129E-1   -1.876754725190805E-1
 8.117278711600000E9     5.039506900587889E-1   -3.932091106197934E-2    1.156712572875598E-3    4.058437109308866E-3    1.225372686519088E-3    4.087135460061767E-3    4.105158800695537E-1   -1.877256824330730E-1
 8.117281393750000E9     5.040049399199910E-1   -3.958210174096884E-2    1.163478619077167E-3    4.075801891610253E-3    1.225578278253496E-3    4.109143141564201E-3    4.105321264521776E-1   -1.879818794092822E-1
 8.117284075900000E9     5.040386928678393E-1   -3.992594730998926E-2    1.181275041874956E-3    4.051137056293823E-3    1.232651296580568E-3    4.098421192266968E-3    4.104372351199562E-1   -1.882020615346079E-1
 8.117286758050000E9     5.037922949074702E-1   -4.006661754422330E-2    1.165393612563074E-3    4.057795686121675E-3    1.211256723965956E-3    4.080627246520644E-3    4.103741855205523E-1   -1.883522600375962E-1
 8.117289440200000E9     5.039176578354649E-1   -4.042098899166996E-2    1.178637727292066E-3    4.055001011670086E-3    1.260582586568096E-3    4.133630461672182E-3    4.104440877913310E-1   -1.884623131754813E-1
 8.117292122350000E9     5.038323218832839E-1   -4.057673906808228E-2    1.162328723486825E-3    4.063705017338821E-3    1.253985302304707E-3    4.104289522533602E-3    4.102521043911735E-1   -1.886315134556558E-1
 8.117294804500000E9     5.038937607348123E-1   -4.077172631404462E-2    1.163224235445606E-3    4.092178492833575E-3    1.243400901774601E-3    4.113868168896908E-3    4.102032983177645E-1   -1.888617420872388E-1
 8.117297486650000E9     5.036873645177257E-1   -4.102785358731039E-2    1.180854243939978E-3    4.078430380422746E-3    1.250818968152742E-3    4.128644051398211E-3    4.100803934193681E-1   -1.890252263970846E-1
 8.117300168800000E9     5.036905013268929E-1   -4.114342474182776E-2    1.148570525336196E-3    4.069519936109781E-3    1.232164259094022E-3    4.139399009029797E-3    4.100244083969399E-1   -1.892693200750801E-1
 8.117302850950000E9     5.037409722027973E-1   -4.139979749905795E-2    1.188474302088847E-3    4.079943993678327E-3    1.284549777248271E-3    4.161908559226394E-3    4.099092899468611E-1   -1.893863011668309E-1
 8.117305533100000E9     5.036680084915215E-1   -4.169179555193064E-2    1.207059155869944E-3    4.082681669814341E-3    1.248606083794794E-3    4.131777327714838E-3    4.099271892233753E-1   -1.895088740977986E-1
 8.117308215250000E9     5.036694553567662E-1   -4.179017289770857E-2    1.207716370467075E-3    4.097051547030139E-3    1.247518273265446E-3    4.185078672673298E-3    4.096688602373124E-1   -1.897030459300501E-1
 8.117310897400000E9     5.036362011366784E-1   -4.209229855849700E-2    1.214062093530927E-3    4.103797380568295E-3    1.292599211479633E-3    4.137366350279625E-3    4.097695386467757E-1   -1.899470505964042E-1
 8.117313579550000E9     5.036815062203437E-1   -4.240691301844035E-2    1.214170887586252E-3    4.104775089993963E-3    1.295517910093929E-3    4.193748656733685E-3    4.097979647293196E-1   -1.901277268877183E-1
 8.117316261700000E9     5.036905643098754E-1   -4.252522935222073E-2    1.213760301246601E-3    4.119836610791585E-3    1.293392405675420E-3    4.206813730238312E-3    4.096339868304483E-1   -1.900839519764559E-1
 8.117318943850000E9     5.035309787673413E-1   -4.279751731301814E-2    1.227230579198593E-3    4.114658385900127E-3    1.280210931879409E-3    4.174944365706269E-3    4.094970798955442E-1   -1.904216347449453E-1
 8.117321626000000E9     5.035227180837638E-1   -4.291176545670193E-2    1.208861240356624E-3    4.130375610771558E-3    1.277755172389395E-3    4.179947933932415E-3    4.094903144259769E-1   -1.906153002623758E-1
 8.117324308150000E9     5.034635808758362E-1   -4.321693656874202E-2    1.230739882068102E-3    4.168706934794345E-3    1.289943533571538E-3    4.235452026087208E-3    4.092402780592544E-1   -1.907824447030664E-1
 8.117326990300000E9     5.035162910834411E-1   -4.344652775673809E-2    1.222175999400922E-3    4.148611116893618E-3    1.287936223494468E-3    4.175037271652403E-3    4.092142535669528E-1   -1.910096779918898E-1
 8.117329672450000E9     5.034615224329108E-1   -4.356984836968524E-2    1.243751042116157E-3    4.155575960580271E-3    1.300220284086669E-3    4.231707552816084E-3    4.092483040015901E-1   -1.911724833979408E-1
 8.117332354600000E9     5.035607279770203E-1   -4.399217391957926E-2    1.236923005499628E-3    4.152932108155773E-3    1.317364254632267E-3    4.223249568404037E-3    4.091582644292209E-1   -1.912852760473285E-1
 8.117335036750000E9     5.033511759155220E-1   -4.418880365710322E-2    1.247597247666216E-3    4.149106506906470E-3    1.317629154047196E-3    4.220572659142115E-3    4.089958638604773E-1   -1.914964002759199E-1
 8.117337718900000E9     5.034051117617492E-1   -4.436891089630180E-2    1.264460493453191E-3    4.187792899848710E-3    1.327233159719978E-3    4.249122311722433E-3    4.091217825677960E-1   -1.915453025254570E-1
 8.117340401050000E9     5.032811593521718E-1   -4.455591741047750E-2    1.274336827442733E-3    4.202482827365737E-3    1.342971988106864E-3    4.245873766975541E-3    4.089389302791971E-1   -1.919041608219937E-1
 8.117343083200000E9     5.031872907274375E-1   -4.485445330485532E-2    1.276828971892196E-3    4.193642181982969E-3    1.327692342702483E-3    4.266036907423098E-3    4.087838945597069E-1   -1.921245056302064E-1
 8.117345765350000E9     5.032791728111344E-1   -4.509732039819143E-2    1.265051714185780E-3    4.193939913044795E-3    1.364461593784301E-3    4.256866564028488E-3    4.087693791594653E-1   -1.922234709446860E-1
 8.117348447500000E9     5.032498541087738E-1   -4.539632946039455E-2    1.291606564800724E-3    4.179640300587717E-3    1.312024943588256E-3    4.247124402542888E-3    4.088180322269944E-1   -1.921932572388081E-1
 8.117351129650000E9     5.031688955192811E-1   -4.565538749059710E-2    1.282889809743329E-3    4.208220286405024E-3    1.380028157815549E-3    4.248666434626946E-3    4.086724500631678E-1   -1.925246424704649E-1
 8.117353811800000E9     5.031907179949057E-1   -4.580882632552431E-2    1.286629523284421E-3    4.205024924327138E-3    1.348241136422929E-3    4.261184849450886E-3    4.086067124545830E-1   -1.926842501173459E-1
 8.117356493950000E9     5.030871112985106E-1   -4.619912034706905E-2    1.308712281152058E-3    4.208424936670125E-3    1.360870458458783E-3    4.290212588482286E-3    4.085247956518937E-1   -1.927931520511013E-1
 8.117359176100000E9     5.030725501861908E-1   -4.628345905503085E-2    1.313466799420918E-3    4.237844371063258E-3    1.397655203210952E-3    4.293303659971591E-3    4.083904390004756E-1   -1.930349348574847E-1
 8.117361858250000E9     5.029994192982816E-1   -4.645434667542210E-2    1.307799700106302E-3    4.228772645699199E-3    1.380920673635203E-3    4.321733198583129E-3    4.083508486270398E-1   -1.931262592202847E-1
 8.117364540400000E9     5.030851884524169E-1   -4.679199350242858E-2    1.332967497290518E-3    4.243671667574692E-3    1.376363740325253E-3    4.301624225671498E-3    4.083206036715084E-1   -1.934387014018727E-1
 8.117367222550000E9     5.029627780182310E-1   -4.690653240812025E-2    1.302950827665629E-3    4.274154563396765E-3    1.399608525649003E-3    4.290456147213260E-3    4.082521133456424E-1   -1.934753388672504E-1
 8.117369904700000E9     5.029549598487737E-1   -4.723036689608287E-2    1.315488943837270E-3    4.247073434852008E-3    1.400486158739952E-3    4.357328524341520E-3    4.081768870927189E-1   -1.937859605553659E-1
 8.117372586850000E9     5.028625307417752E-1   -4.741399471125952E-2    1.324870345321377E-3    4.290976632528554E-3    1.404716660556332E-3    4.341401182460827E-3    4.079932728117044E-1   -1.939325426418369E-1
 8.117375269000000E9     5.027758138555749E-1   -4.781697694319394E-2    1.329481382563601E-3    4.235788690413019E-3    1.438430576256917E-3    4.352264449216882E-3    4.079623359004318E-1   -1.940559507303626E-1
 8.117377951150000E9     5.028102341431547E-1   -4.799803384987495E-2    1.338642169048444E-3    4.300395373590216E-3    1.439680470321887E-3    4.365559433189211E-3    4.078707956044266E-1   -1.943031210840268E-1
 8.117380633300000E9     5.027367932298819E-1   -4.816274178082312E-2    1.385278046316623E-3    4.274070930205686E-3    1.423464298958785E-3    4.364037830623516E-3    4.077317338809949E-1   -1.943384209675658E-1
 8.117383315450000E9     5.026334025322207E-1   -4.843048108797578E-2    1.363754633113522E-3    4.304985062952798E-3    1.464735149954455E-3    4.366356474124450E-3    4.076518030570702E-1   -1.946324096932924E-1
 8.117385997600000E9     5.025765740206957E-1   -4.870763570827081E-2    1.364370584442512E-3    4.343099509223724E-3    1.434223428335025E-3    4.366921794402960E-3    4.076622535220701E-1   -1.947126158056567E-1
 8.117388679750000E9     5.026349055014172E-1   -4.882274321514086E-2    1.377104263505887E-3    4.306731174174950E-3    1.463528477003036E-3    4.378006416526965E-3    4.077257632920131E-1   -1.949448291894243E-1
 8.117391361900000E9     5.026455769586227E-1   -4.903384119080308E-2    1.354412618197978E-3    4.321905485896980E-3    1.443099036155814E-3    4.385609764815573E-3    4.075923215037001E-1   -1.951734549815884E-1
 8.117394044050000E9     5.025696005215148E-1   -4.939014225542370E-2    1.401728653754733E-3    4.333709396560258E-3    1.463899196619445E-3    4.389922175799088E-3    4.074422640827754E-1   -1.954704154135379E-1
 8.117396726200000E9     5.025933549940466E-1   -4.957574560724103E-2    1.426779519038299E-3    4.328898162850722E-3    1.470605939359701E-3    4.396044453045726E-3    4.073347853546708E-1   -1.954394262577119E-1
 8.117399408350000E9     5.024815058478259E-1   -4.983053367675026E-2    1.412842890470384E-3    4.346392823496295E-3    1.500531922215282E-3    4.377583402975037E-3    4.072239781315948E-1   -1.956741277379985E-1
 8.117402090500000E9     5.025053773503193E-1   -5.003480482258658E-2    1.433590703077996E-3    4.371992323041981E-3    1.488916996291760E-3    4.439766847643640E-3    4.072661287750487E-1   -1.958212361616102E-1
