#  HZ   S   RI   R     50.00 
! Rohde & Schwarz Vector Network Analyzer 
! Rohde-Schwarz,ZNB20-2Port,1311601062101988,3.16
! Created: UTC 3/20/2024, 11:41:19 AM
! freq[Hz]                re:S11                  im:S11                  re:S21                  im:S21                  re:S12                  im:S12                  re:S22                  im:S22
 8.117148727000000E9     5.051301880747399E-1   -2.857559097870766E-2    9.668979271027471E-4    3.886430211368425E-3    1.044427894537154E-3    3.894734075042928E-3    4.140172247239987E-1   -1.791614425220235E-1
 8.117151436900000E9     5.051499900489125E-1   -2.874751181602679E-2    9.713646059347429E-4    3.871041061518496E-3    1.053488018040071E-3    3.925993274407212E-3    4.138836625390316E-1   -1.794787814455396E-1
 8.117154146800000E9     5.051292896862992E-1   -2.908918440524307E-2    9.755348889505095E-4    3.878945526928699E-3    1.034238787000799E-3    3.939025440353947E-3    4.138293438136081E-1   -1.796247583269218E-1
 8.117156856700000E9     5.051266540812247E-1   -2.929208941169253E-2    1.005387757901185E-3    3.874118680168640E-3    1.028447499136531E-3    3.937792653183549E-3    4.138146404383102E-1   -1.799735724899796E-1
 8.117159566600000E9     5.049529391634003E-1   -2.950425501616757E-2    9.846664488823091E-4    3.873709810393544E-3    1.068473788499219E-3    3.938562707976365E-3    4.135681966300390E-1   -1.799111583129403E-1
 8.117162276500000E9     5.049999138509704E-1   -2.965258322705042E-2    9.847494309776078E-4    3.871265999525828E-3    1.071996338665287E-3    3.937090351688884E-3    4.135284373211470E-1   -1.803127994481727E-1
 8.117164986400000E9     5.049483098944194E-1   -3.005159597166242E-2    1.021292440309053E-3    3.878961825149106E-3    1.060311286567479E-3    3.896056389739950E-3    4.135109893710586E-1   -1.804088632650367E-1
 8.117167696300000E9     5.049544898181118E-1   -3.027054684254748E-2    1.004740502748327E-3    3.885979215551694E-3    1.056326470428603E-3    3.917151843433041E-3    4.134794022975283E-1   -1.805133650105098E-1
 8.117170406200000E9     5.048727053048297E-1   -3.049720923527770E-2    1.010538869892267E-3    3.879760957047173E-3    1.096933623632890E-3    3.890625545755400E-3    4.134866587266388E-1   -1.806932001938092E-1
 8.117173116100000E9     5.048436927182121E-1   -3.083212021047789E-2    1.036317490142404E-3    3.895178010964777E-3    1.067764626387126E-3    3.951955778016281E-3    4.133509564222083E-1   -1.809222556484190E-1
 8.117175826000000E9     5.050328762243780E-1   -3.096994714757575E-2    1.031699272862448E-3    3.911654337072165E-3    1.073332922746850E-3    3.955319055399140E-3    4.132580006153015E-1   -1.811775328549966E-1
 8.117178535900000E9     5.049576441578922E-1   -3.115315068683729E-2    1.019057897039695E-3    3.888293991904458E-3    1.078115162925289E-3    3.929735702441120E-3    4.133311566374671E-1   -1.814375120432463E-1
 8.117181245800000E9     5.048900967152483E-1   -3.132099804499668E-2    1.015025405623657E-3    3.899638857787893E-3    1.113463839074693E-3    3.981917907635919E-3    4.131330658279228E-1   -1.814713837930565E-1
 8.117183955700000E9     5.049593762007843E-1   -3.155509374703933E-2    1.034315748529433E-3    3.932679144229876E-3    1.106270432145163E-3    3.979731994950667E-3    4.129697524754749E-1   -1.817809936459530E-1
 8.117186665600000E9     5.048729169050760E-1   -3.183775227815176E-2    1.025662480432946E-3    3.893433903307437E-3    1.096694269212112E-3    3.954657122398651E-3    4.129885819606056E-1   -1.818564085605969E-1
 8.117189375500000E9     5.048346264045417E-1   -3.198130907772971E-2    1.034869879919041E-3    3.905955218696968E-3    1.118578233193637E-3    3.974294003387938E-3    4.128691843535431E-1   -1.820552260119147E-1
 8.117192085400000E9     5.048404739734030E-1   -3.217675378405191E-2    1.024778110292800E-3    3.931915837112440E-3    1.092831771981232E-3    3.982838037927686E-3    4.128051220744179E-1   -1.821742035161344E-1
 8.117194795300000E9     5.047701035471023E-1   -3.241953808537306E-2    1.022003108078155E-3    3.917241367991667E-3    1.113932586563613E-3    3.949739482955980E-3    4.128182852653239E-1   -1.824093931809718E-1
 8.117197505200000E9     5.048024144806621E-1   -3.275663571350141E-2    1.043458498824192E-3    3.918264054168961E-3    1.115026012650012E-3    3.969150749393201E-3    4.128441699003848E-1   -1.825157500901957E-1
 8.117200215100000E9     5.047623284204472E-1   -3.284717168384246E-2    1.034998105078757E-3    3.924470748051452E-3    1.102517073066662E-3    3.993821835364730E-3    4.127681487702109E-1   -1.827641580042446E-1
 8.117202925000000E9     5.046970619969384E-1   -3.306334029806059E-2    1.047751725500095E-3    3.934560908222180E-3    1.135752464186728E-3    4.001003659288758E-3    4.125093974578808E-1   -1.827139516766506E-1
 8.117205634900000E9     5.046272311606600E-1   -3.337977367247659E-2    1.049131472142998E-3    3.917750121786057E-3    1.102510070711396E-3    3.988506524920306E-3    4.124293935260498E-1   -1.830565916025949E-1
 8.117208344800000E9     5.046813454325617E-1   -3.355285399186170E-2    1.062716779608331E-3    3.935395901480096E-3    1.116118194164192E-3    3.998878602316843E-3    4.123566554539038E-1   -1.832747113945914E-1
 8.117211054700000E9     5.047141732561211E-1   -3.369809108067916E-2    1.074295423605939E-3    3.938970026106061E-3    1.088542727230378E-3    3.988219211227024E-3    4.122322608075013E-1   -1.835029496727425E-1
 8.117213764600000E9     5.045355451354715E-1   -3.403276491759042E-2    1.064017569601183E-3    3.939688113153621E-3    1.147708013615155E-3    4.015104946375842E-3    4.123019463516520E-1   -1.836728264303016E-1
 8.117216474500000E9     5.046600566393789E-1   -3.412214501183203E-2    1.060634362906845E-3    3.951346290267358E-3    1.152705941257950E-3    3.998203112650731E-3    4.122789077486907E-1   -1.837030465918878E-1
 8.117219184400000E9     5.045437650650425E-1   -3.437989382873200E-2    1.078880414978094E-3    3.955130070546179E-3    1.159400543915484E-3    3.994891050174169E-3    4.121074881232211E-1   -1.839433964421290E-1
 8.117221894300000E9     5.046143075222639E-1   -3.463527957773932E-2    1.085108614043883E-3    3.977668133517988E-3    1.134668229827484E-3    4.015694252295097E-3    4.121830292106705E-1   -1.840644150893218E-1
 8.117224604200000E9     5.045726335872234E-1   -3.498919788274437E-2    1.072681573090350E-3    3.953385041305986E-3    1.137382478770144E-3    4.024512850690441E-3    4.118728172540685E-1   -1.843213934473070E-1
 8.117227314100000E9     5.045156340143068E-1   -3.510333293101202E-2    1.093344410357138E-3    3.963288714745278E-3    1.154956595755706E-3    4.034169885616672E-3    4.119933155978326E-1   -1.844377318378638E-1
 8.117230024000000E9     5.046554419336836E-1   -3.534267140949606E-2    1.093297670687747E-3    3.955131186097385E-3    1.164192320813434E-3    4.007155484220702E-3    4.119795763102725E-1   -1.845954246236489E-1
 8.117232733900000E9     5.044569722204127E-1   -3.552543063625109E-2    1.074736983895232E-3    3.978262001184423E-3    1.138639882010632E-3    3.987226253776698E-3    4.118154448639011E-1   -1.848088440674701E-1
 8.117235443800000E9     5.044161399469429E-1   -3.578938538156847E-2    1.104884110736466E-3    3.967439128712481E-3    1.134655963506449E-3    4.025676249057366E-3    4.117293108251329E-1   -1.849269525210622E-1
 8.117238153700000E9     5.043724413224668E-1   -3.594952511062963E-2    1.089246148634933E-3    3.993595228839110E-3    1.152058625801213E-3    4.019856127798851E-3    4.116780044569631E-1   -1.851601507243548E-1
 8.117240863600000E9     5.043962134894427E-1   -3.623057601282657E-2    1.114140462927612E-3    3.979541180999360E-3    1.199893553957307E-3    4.077111282487953E-3    4.115322645253431E-1   -1.854590536523163E-1
 8.117243573500000E9     5.043578356940810E-1   -3.632760817320718E-2    1.117535549582811E-3    3.987126065092463E-3    1.180852556846260E-3    4.011855696848793E-3    4.115312924544361E-1   -1.855375923232253E-1
 8.117246283400000E9     5.043849841885992E-1   -3.663618627205381E-2    1.121562827755376E-3    3.971924332653392E-3    1.170867962073571E-3    4.043326144065198E-3    4.115002434158097E-1   -1.857339157925365E-1
 8.117248993300000E9     5.042675156282991E-1   -3.688891765568613E-2    1.099288810164102E-3    4.014504120994338E-3    1.180325300983547E-3    4.085881096594956E-3    4.114125948346338E-1   -1.859149464794210E-1
 8.117251703200000E9     5.043103157396277E-1   -3.716570537040661E-2    1.115960787133414E-3    4.002617276430046E-3    1.173794949209181E-3    4.074564194675249E-3    4.114121891621720E-1   -1.860393524514060E-1
 8.117254413100000E9     5.042918198443640E-1   -3.728932248295622E-2    1.108912323870918E-3    4.009830936113019E-3    1.228338297757696E-3    4.062628990434129E-3    4.112406892678307E-1   -1.861029833816511E-1
 8.117257123000000E9     5.042912876984640E-1   -3.761509571061458E-2    1.136613505763576E-3    4.029536576570620E-3    1.184487791537346E-3    4.103341472204976E-3    4.110781213285684E-1   -1.862924064481815E-1
 8.117259832900000E9     5.042861518541950E-1   -3.774285153834342E-2    1.141219580405034E-3    4.035834342032482E-3    1.194334156542596E-3    4.054624914082077E-3    4.109635440521714E-1   -1.865389074560511E-1
 8.117262542800000E9     5.041665087480681E-1   -3.789537445680490E-2    1.140889021949918E-3    4.026406394858057E-3    1.196452104126256E-3    4.076526418786685E-3    4.110500456568640E-1   -1.865543307651164E-1
 8.117265252700000E9     5.042054223413859E-1   -3.828187029138292E-2    1.157210233918504E-3    4.040238190879861E-3    1.247426407766651E-3    4.086413961565292E-3    4.109255774234259E-1   -1.868878122295425E-1
 8.117267962600000E9     5.040722250739871E-1   -3.848192129889921E-2    1.157080974587141E-3    4.031325749571229E-3    1.166526812104525E-3    4.067398062471346E-3    4.110023750292303E-1   -1.870528850647146E-1
 8.117270672500000E9     5.041390686445334E-1   -3.867672853667035E-2    1.155344169141975E-3    4.041277444957064E-3    1.217519193176988E-3    4.100642931208430E-3    4.109476242681888E-1   -1.872174890640660E-1
 8.117273382400000E9     5.040081824211252E-1   -3.891989364351699E-2    1.134341456174125E-3    4.035897024200090E-3    1.209653352130209E-3    4.087307612198800E-3    4.107757936698460E-1   -1.874590909870275E-1
 8.117276092300000E9     5.040957684573389E-1   -3.911971405300955E-2    1.179293465363532E-3    4.053912163809912E-3    1.211310541334341E-3    4.105004890633359E-3    4.107029855668859E-1   -1.875300120541689E-1
 8.117278802200000E9     5.040650303391871E-1   -3.937760044113898E-2    1.153278583841640E-3    4.055021874203587E-3    1.243683398830216E-3    4.116417090760321E-3    4.106096204867421E-1   -1.876582158093451E-1
 8.117281512100000E9     5.039435380018848E-1   -3.961507693578484E-2    1.174004197392743E-3    4.079467265429361E-3    1.231198429668917E-3    4.130909631467224E-3    4.105941081311161E-1   -1.879587318128791E-1
 8.117284222000000E9     5.040028383317140E-1   -3.987399115199816E-2    1.172538514554594E-3    4.084778489460527E-3    1.259924633344395E-3    4.127124154073085E-3    4.104378144606098E-1   -1.881706674257954E-1
 8.117286931900000E9     5.039447624643796E-1   -4.002863148116950E-2    1.187346994959904E-3    4.082152697446447E-3    1.263877440302810E-3    4.126251494104054E-3    4.104072489832064E-1   -1.885028961385869E-1
 8.117289641800000E9     5.038488139420337E-1   -4.025988154521899E-2    1.173597049754797E-3    4.111431030479924E-3    1.254673164782821E-3    4.151126793679820E-3    4.103190344482533E-1   -1.885360427235597E-1
 8.117292351700000E9     5.039764879640327E-1   -4.061555776471045E-2    1.200445638462096E-3    4.060060926283573E-3    1.257933759944432E-3    4.135428151008245E-3    4.102251455934864E-1   -1.887284953109221E-1
 8.117295061600000E9     5.039410812668270E-1   -4.072188555391325E-2    1.179054877658082E-3    4.087645239166835E-3    1.236323235595158E-3    4.142571344028880E-3    4.101201310902968E-1   -1.888662698910585E-1
 8.117297771500000E9     5.038234427859040E-1   -4.100028846391894E-2    1.215643308513067E-3    4.068747768719398E-3    1.252444533455898E-3    4.139592778720293E-3    4.101150809240520E-1   -1.891170162837738E-1
 8.117300481400000E9     5.037406035976710E-1   -4.102466675846508E-2    1.195706365293334E-3    4.104407754460031E-3    1.268234023082964E-3    4.179615774069186E-3    4.099608331915304E-1   -1.892458649537850E-1
 8.117303191300000E9     5.037685334264288E-1   -4.148029863127805E-2    1.195310172507594E-3    4.105431521582894E-3    1.299203182184023E-3    4.161094519815603E-3    4.099209512031060E-1   -1.892974478203134E-1
 8.117305901200000E9     5.038553485681265E-1   -4.177802230462962E-2    1.224784192078353E-3    4.097164692877887E-3    1.275977415745483E-3    4.184046974860432E-3    4.099584533601867E-1   -1.894895945858758E-1
 8.117308611100000E9     5.037669205596859E-1   -4.198033194984349E-2    1.219388448508148E-3    4.098553450908014E-3    1.236605503601333E-3    4.170490826351536E-3    4.097089776908308E-1   -1.896669556290577E-1
 8.117311321000000E9     5.037516266130478E-1   -4.213221192194300E-2    1.229612512532101E-3    4.121466620443616E-3    1.276829982878430E-3    4.199552588957833E-3    4.096778199747035E-1   -1.899296368013752E-1
 8.117314030900000E9     5.036568169960414E-1   -4.228153420371682E-2    1.224672496162130E-3    4.125635455064028E-3    1.287906343608201E-3    4.196987357517913E-3    4.094755883988571E-1   -1.900726178258987E-1
 8.117316740800000E9     5.036962106610348E-1   -4.270340626997863E-2    1.226042519064708E-3    4.113515570883510E-3    1.283360055876048E-3    4.215454196243661E-3    4.095894405369526E-1   -1.901006620525306E-1
 8.117319450700000E9     5.035002287358077E-1   -4.275545422310822E-2    1.214270928168837E-3    4.137996272243730E-3    1.281452330048260E-3    4.184313691303918E-3    4.095027187589367E-1   -1.904197339967756E-1
 8.117322160600000E9     5.035864895386220E-1   -4.303808088369909E-2    1.252272592119570E-3    4.141342006514136E-3    1.327098961587819E-3    4.232602622248178E-3    4.095310985375465E-1   -1.906512297594883E-1
 8.117324870500000E9     5.035632768614474E-1   -4.330209632031660E-2    1.240604350880008E-3    4.154416475638925E-3    1.327697131782248E-3    4.218469841011167E-3    4.092944717854254E-1   -1.908633294807720E-1
 8.117327580400000E9     5.034723030254064E-1   -4.347484063249816E-2    1.241705654249442E-3    4.155660935096775E-3    1.286939171717334E-3    4.187018942288865E-3    4.091773239221134E-1   -1.909276638741868E-1
 8.117330290300000E9     5.035425103889805E-1   -4.375571211990168E-2    1.236146266507671E-3    4.181425194930245E-3    1.310627183055030E-3    4.212873035577259E-3    4.090972083591306E-1   -1.910149668323055E-1
 8.117333000200000E9     5.034480071359410E-1   -4.402434622944521E-2    1.263563547953203E-3    4.178400446592016E-3    1.319049094996756E-3    4.247193854697874E-3    4.090131036740471E-1   -1.911981236081269E-1
 8.117335710100000E9     5.033859346711812E-1   -4.425046137942177E-2    1.256540097893893E-3    4.155397577960103E-3    1.337069765754678E-3    4.258075868462427E-3    4.091557195852702E-1   -1.916052116867601E-1
 8.117338420000000E9     5.033660953126026E-1   -4.443088089452656E-2    1.242657580465111E-3    4.178238987468665E-3    1.361081006482235E-3    4.278429991027849E-3    4.089021785206377E-1   -1.915700388537162E-1
 8.117341129900000E9     5.033053002802084E-1   -4.475536652042039E-2    1.286738066607930E-3    4.195587622020146E-3    1.321203247273602E-3    4.257078158351932E-3    4.089116630117796E-1   -1.916937069631300E-1
 8.117343839800000E9     5.033994322438979E-1   -4.491790695903659E-2    1.267009102479818E-3    4.233825843703531E-3    1.340886294730099E-3    4.256743868113964E-3    4.087079632313314E-1   -1.921076013366728E-1
 8.117346549700000E9     5.031934429113261E-1   -4.519250112527220E-2    1.298692875131000E-3    4.207595433240154E-3    1.350491874995731E-3    4.248026389077452E-3    4.087433752685923E-1   -1.921634954649728E-1
 8.117349259600000E9     5.031501968256469E-1   -4.547727732959884E-2    1.277246531269929E-3    4.247689976945235E-3    1.342995755346136E-3    4.262475728931080E-3    4.086967421563875E-1   -1.923368892163836E-1
 8.117351969500000E9     5.031906005394471E-1   -4.571549094593597E-2    1.341007492431986E-3    4.239550211992618E-3    1.372783148294416E-3    4.264016595404879E-3    4.085396793977794E-1   -1.925168280950320E-1
 8.117354679400000E9     5.032844196270805E-1   -4.581760059426893E-2    1.289221684690742E-3    4.231980302202122E-3    1.375576309333787E-3    4.308886153576950E-3    4.085668490804759E-1   -1.927765996205984E-1
 8.117357389300000E9     5.031552217002088E-1   -4.610617487878958E-2    1.314518038871297E-3    4.231388760080008E-3    1.421023374161825E-3    4.301812535483725E-3    4.084489613594566E-1   -1.928797438575489E-1
 8.117360099200000E9     5.031648583757690E-1   -4.631637009084089E-2    1.292350347784442E-3    4.239783652835105E-3    1.406946360471446E-3    4.294363925640273E-3    4.084503818026537E-1   -1.930702142892985E-1
 8.117362809100000E9     5.032368859043130E-1   -4.663099707397960E-2    1.336585671154907E-3    4.247810508848236E-3    1.386675145768095E-3    4.328821568120848E-3    4.082683761701485E-1   -1.931754978323010E-1
 8.117365519000000E9     5.030363091278348E-1   -4.689273372908475E-2    1.352125983897594E-3    4.253256589864530E-3    1.411101363750265E-3    4.326402980154644E-3    4.082274258220440E-1   -1.932656860694171E-1
 8.117368228900000E9     5.029219012708568E-1   -4.705383011173383E-2    1.327162342047806E-3    4.264875127024522E-3    1.397406685368262E-3    4.359929083279816E-3    4.082226741956582E-1   -1.936212531075847E-1
 8.117370938800000E9     5.029945877764647E-1   -4.740601670740682E-2    1.343113021706896E-3    4.306958972517867E-3    1.427197387800439E-3    4.363657329442940E-3    4.082442658696209E-1   -1.937451183469103E-1
 8.117373648700000E9     5.029249566291956E-1   -4.761720663665275E-2    1.353603319787146E-3    4.267064053500824E-3    1.415800934538208E-3    4.338651095410164E-3    4.080569117912142E-1   -1.940898061895085E-1
 8.117376358600000E9     5.029224781852274E-1   -4.780498461065707E-2    1.341113535095714E-3    4.274026267684172E-3    1.404149307951265E-3    4.378670233820493E-3    4.080705853445182E-1   -1.941063603208265E-1
 8.117379068500000E9     5.028241445901178E-1   -4.812168722458789E-2    1.375408110921952E-3    4.290436873015162E-3    1.439017654485644E-3    4.366235115845836E-3    4.078126870396021E-1   -1.942983189715433E-1
 8.117381778400000E9     5.027928683878968E-1   -4.834561751489553E-2    1.383247670397145E-3    4.310059122278875E-3    1.444930459007422E-3    4.362881910278669E-3    4.076660482599979E-1   -1.943886432738202E-1
 8.117384488300000E9     5.026997828129488E-1   -4.859647579395150E-2    1.377217838368234E-3    4.338755916105990E-3    1.457452295832543E-3    4.352830191658661E-3    4.077474665750788E-1   -1.946530632885604E-1
 8.117387198200000E9     5.027133484523847E-1   -4.874358583779367E-2    1.386195928301441E-3    4.354850205784481E-3    1.459663039592522E-3    4.356158445597742E-3    4.077316015346120E-1   -1.948815728288850E-1
 8.117389908100000E9     5.025373609581577E-1   -4.892312156862565E-2    1.393780949220294E-3    4.340032836824542E-3    1.451258111036319E-3    4.374930602539037E-3    4.075650415647139E-1   -1.949258089008826E-1
 8.117392618000000E9     5.025894156726541E-1   -4.931950866168440E-2    1.416469181881990E-3    4.333213701044704E-3    1.523215155860347E-3    4.417191569969356E-3    4.073714960021864E-1   -1.952486883795230E-1
