#  HZ   S   RI   R     50.00 
! Rohde & Schwarz Vector Network Analyzer 
! Rohde-Schwarz,ZNB20-2Port,1311601062101988,3.16
! Created: UTC 3/20/2024, 11:41:22 AM
! freq[Hz]                re:S11                  im:S11                  re:S21                  im:S21                  re:S12                  im:S12                  re:S22                  im:S22
 8.117133054000000E9     5.052170845988165E-1   -2.732465803399275E-2    9.900336977558362E-4    3.833110941055304E-3    1.039355788273060E-3    3.919928307254514E-3    4.143799199557596E-1   -1.783921664169737E-1
 8.117135830650000E9     5.051422521780189E-1   -2.753340316146984E-2    9.750569962145958E-4    3.849401092369031E-3    1.028291188989386E-3    3.902785619633892E-3    4.141350753331403E-1   -1.784792941062311E-1
 8.117138607300000E9     5.052252370966805E-1   -2.785426920563370E-2    9.706439696900493E-4    3.867370973677365E-3    1.018974024818695E-3    3.910965891352590E-3    4.142787537939204E-1   -1.786785640206655E-1
 8.117141383950000E9     5.052020641302187E-1   -2.803497875566383E-2    9.758321444339942E-4    3.843788459227816E-3    1.059946119869477E-3    3.934801553148897E-3    4.141583835843994E-1   -1.789348471462427E-1
 8.117144160600000E9     5.052447655619970E-1   -2.827691421687674E-2    9.600391009060038E-4    3.881504243636751E-3    1.076961905264419E-3    3.907783709317296E-3    4.140607117623330E-1   -1.790390348535386E-1
 8.117146937250000E9     5.050924571181461E-1   -2.847841411816130E-2    9.596806911250121E-4    3.866951261339285E-3    1.045124878718241E-3    3.939126597124196E-3    4.139560997027754E-1   -1.792592509373823E-1
 8.117149713900000E9     5.051133734667462E-1   -2.884321368815823E-2    1.003581720477610E-3    3.832552570769868E-3    1.057787163308221E-3    3.925884027505873E-3    4.139096722451734E-1   -1.792279234659247E-1
 8.117152490550000E9     5.051320795927083E-1   -2.902542921600039E-2    9.808335393902622E-4    3.881088865619782E-3    1.003864818343215E-3    3.926017808337638E-3    4.138156169146840E-1   -1.796398232469682E-1
 8.117155267200000E9     5.051204200205350E-1   -2.930623841337840E-2    1.006743204111054E-3    3.871659253443709E-3    1.066623857934444E-3    3.903914983471911E-3    4.136677461284204E-1   -1.796783556447521E-1
 8.117158043850000E9     5.050245649268149E-1   -2.936419201845105E-2    1.000407153326169E-3    3.882446119501600E-3    1.044469507039198E-3    3.936535814591072E-3    4.138242059789040E-1   -1.800553609956861E-1
 8.117160820500000E9     5.050539153392756E-1   -2.976051820345275E-2    9.951945054424228E-4    3.880422523979386E-3    1.035453249667113E-3    3.956957491841189E-3    4.136092385150873E-1   -1.800656661210885E-1
 8.117163597150000E9     5.050660775511789E-1   -2.997724847947374E-2    1.018883490501976E-3    3.883143416875452E-3    1.040124530002666E-3    3.930511788287173E-3    4.136434221499920E-1   -1.803319210018521E-1
 8.117166373800000E9     5.050307626640459E-1   -3.013770470847020E-2    9.964971383992973E-4    3.864347932334841E-3    1.033945639400640E-3    3.914933899029665E-3    4.135938877400625E-1   -1.804449486682088E-1
 8.117169150450000E9     5.049775669026273E-1   -3.036790076213310E-2    1.012507838918933E-3    3.886963664490697E-3    1.065088787116539E-3    3.930216822709417E-3    4.133794525433834E-1   -1.805247630814211E-1
 8.117171927100000E9     5.049256538405271E-1   -3.054662540050648E-2    1.010684036730319E-3    3.881551259895632E-3    1.056626023518502E-3    3.939696416927314E-3    4.134724686390367E-1   -1.809282671807246E-1
 8.117174703750000E9     5.049207538975439E-1   -3.082976946235258E-2    9.859720214072823E-4    3.885368408307036E-3    1.069008437620380E-3    3.967465177004140E-3    4.132185250017409E-1   -1.809911068445724E-1
 8.117177480400000E9     5.048418875862569E-1   -3.106302314519412E-2    1.030134321205220E-3    3.891459148115971E-3    1.049396739856388E-3    3.991588939005565E-3    4.130360086264868E-1   -1.811119012813420E-1
 8.117180257050000E9     5.049162406144294E-1   -3.131379678462481E-2    1.019024227161425E-3    3.901718548809284E-3    1.069586500896629E-3    3.906379339742297E-3    4.131080561187757E-1   -1.813286520371529E-1
 8.117183033700000E9     5.048390421502609E-1   -3.147225126070152E-2    1.019046293550022E-3    3.889716763361075E-3    1.074912713421578E-3    3.933418495483110E-3    4.130767075584183E-1   -1.814942621276130E-1
 8.117185810350000E9     5.048174328614001E-1   -3.165842785585778E-2    1.038878224725696E-3    3.902476959837144E-3    1.090785747109370E-3    3.966350283975792E-3    4.128283105969842E-1   -1.817883825600195E-1
 8.117188587000000E9     5.048856845002668E-1   -3.189918572811896E-2    1.038075316861417E-3    3.923575833112974E-3    1.105479056024849E-3    3.980968229462824E-3    4.129197724170143E-1   -1.819830149607272E-1
 8.117191363650000E9     5.046747996007578E-1   -3.227620265089176E-2    1.034899737032984E-3    3.896884241263883E-3    1.089299872819727E-3    3.988442453722060E-3    4.129208164495361E-1   -1.821231082728175E-1
 8.117194140300000E9     5.048053028686054E-1   -3.241768061790150E-2    1.037729579722139E-3    3.930286214844436E-3    1.130446172506724E-3    3.923103547762958E-3    4.127405011258309E-1   -1.822936864756804E-1
 8.117196916950000E9     5.046986249418975E-1   -3.255944710184668E-2    1.037367892512814E-3    3.929708868241275E-3    1.115733761909349E-3    3.942805232965949E-3    4.126876800526751E-1   -1.824932105935812E-1
 8.117199693600000E9     5.047718184230611E-1   -3.278592779015550E-2    1.066956933548047E-3    3.902518130331514E-3    1.133134435486183E-3    4.001948840931704E-3    4.125616754021186E-1   -1.826246177459533E-1
 8.117202470250000E9     5.047199089720064E-1   -3.309264321823630E-2    1.045106215587406E-3    3.947788298622068E-3    1.121796756259657E-3    4.001041413995396E-3    4.124541405741491E-1   -1.827766532039874E-1
 8.117205246900000E9     5.046394607360865E-1   -3.335446712667196E-2    1.060339479432566E-3    3.945042884775852E-3    1.130224618720570E-3    3.988929850358636E-3    4.124482082600696E-1   -1.830688209369533E-1
 8.117208023550000E9     5.046060371160132E-1   -3.346078650806687E-2    1.055303175968786E-3    3.954680407581849E-3    1.125001509264216E-3    4.039048549262735E-3    4.123507148574624E-1   -1.832295365427476E-1
 8.117210800200000E9     5.046895515084642E-1   -3.378487317651187E-2    1.051527952069750E-3    3.960762402697147E-3    1.132591974447825E-3    3.992713210846165E-3    4.122484574603705E-1   -1.834714081456483E-1
 8.117213576850000E9     5.047308856679141E-1   -3.392881345127181E-2    1.051235959486721E-3    3.969167279625835E-3    1.155729934161053E-3    4.009900960141382E-3    4.122683495100156E-1   -1.836147074066288E-1
 8.117216353500000E9     5.046318061866302E-1   -3.412760505964253E-2    1.055977902151087E-3    3.931497759552322E-3    1.155374808870213E-3    4.013790608981444E-3    4.123688668315399E-1   -1.837823155373990E-1
 8.117219130150000E9     5.045806157798175E-1   -3.446009397138870E-2    1.096075502014260E-3    3.944875067669492E-3    1.161782795562326E-3    4.030904172576825E-3    4.121771067475726E-1   -1.839938877545332E-1
 8.117221906800000E9     5.046072739710185E-1   -3.467475607218136E-2    1.086838964363570E-3    3.944747936021254E-3    1.164845670360791E-3    4.025870019804086E-3    4.120649354827635E-1   -1.841375069153643E-1
 8.117224683450000E9     5.044880072585152E-1   -3.496388165432909E-2    1.056102610580984E-3    3.998660672923924E-3    1.170712514545608E-3    4.016165276278578E-3    4.120715722495240E-1   -1.842713365361464E-1
 8.117227460100000E9     5.045408212164886E-1   -3.516337495613244E-2    1.083126017741866E-3    3.963852007271857E-3    1.129145282245594E-3    4.007416856523381E-3    4.118809118324795E-1   -1.845170407059923E-1
 8.117230236750000E9     5.044945562469819E-1   -3.545366459424301E-2    1.083051575432123E-3    3.987224964987722E-3    1.139958133080898E-3    4.061887734982238E-3    4.118049962637283E-1   -1.846074717463840E-1
 8.117233013400000E9     5.045402179093240E-1   -3.558842562819726E-2    1.086421021448149E-3    3.980140933659415E-3    1.174586132935128E-3    4.046965216018987E-3    4.117533135546720E-1   -1.848351812219190E-1
 8.117235790050000E9     5.044288736055287E-1   -3.570608420279784E-2    1.070728397919791E-3    3.988698355771893E-3    1.160819394596114E-3    4.054371417626865E-3    4.117527134762188E-1   -1.849964266714108E-1
 8.117238566700000E9     5.044499996461923E-1   -3.601917737853438E-2    1.100594728569309E-3    3.997728764046039E-3    1.174204800496102E-3    4.036099204870530E-3    4.117652746240298E-1   -1.851931332137396E-1
 8.117241343350000E9     5.044357120232499E-1   -3.616503250469404E-2    1.079771197715193E-3    3.963252207273459E-3    1.175916627762621E-3    4.045788186161203E-3    4.115119988759542E-1   -1.854356865155381E-1
 8.117244120000000E9     5.042914702286020E-1   -3.652276026898747E-2    1.120196105896028E-3    3.989976408317522E-3    1.168863765092144E-3    4.060513132205628E-3    4.114233704844391E-1   -1.856023888125298E-1
 8.117246896650000E9     5.044271479320478E-1   -3.673400789788769E-2    1.138096835342846E-3    3.989280295128749E-3    1.190522073996555E-3    4.040939090372874E-3    4.113459293771182E-1   -1.857677850000228E-1
 8.117249673300000E9     5.042061685956414E-1   -3.690461677908776E-2    1.131202212810883E-3    4.004355759190888E-3    1.145312193754799E-3    4.062386068008885E-3    4.114243427952259E-1   -1.859198198491432E-1
 8.117252449950000E9     5.043093923019033E-1   -3.729349838509994E-2    1.106723042033850E-3    4.000331096293904E-3    1.199304597096115E-3    4.111656719189001E-3    4.114104087837765E-1   -1.861514777915234E-1
 8.117255226600000E9     5.043352521720034E-1   -3.749774062893352E-2    1.115783369105446E-3    3.993739565704324E-3    1.223002496473924E-3    4.073311273363190E-3    4.113094981005503E-1   -1.863252389594613E-1
 8.117258003250000E9     5.041551678480256E-1   -3.772072250277080E-2    1.153634007479585E-3    4.031961116448277E-3    1.185496704303433E-3    4.087268966697742E-3    4.111507227738881E-1   -1.864333817842009E-1
 8.117260779900000E9     5.041775007327672E-1   -3.790424898862667E-2    1.123298623432733E-3    4.038332645709262E-3    1.186140513223802E-3    4.102194903406233E-3    4.111290422875560E-1   -1.866385008125616E-1
 8.117263556550000E9     5.041630420759607E-1   -3.810443289361709E-2    1.144821767523382E-3    4.021426599766155E-3    1.196459828576092E-3    4.069539171911832E-3    4.109819966691384E-1   -1.867198261343841E-1
 8.117266333200000E9     5.042498155607111E-1   -3.835117522935715E-2    1.147757300265651E-3    4.032492906409541E-3    1.186634244671118E-3    4.064219975898706E-3    4.108780021718750E-1   -1.869417969404263E-1
 8.117269109850000E9     5.041882370255684E-1   -3.861793618116683E-2    1.129201778179914E-3    4.043872296260785E-3    1.203391472739127E-3    4.088303771285847E-3    4.109030724465828E-1   -1.872649851740504E-1
 8.117271886500000E9     5.039316592796377E-1   -3.888400260498498E-2    1.158373377803245E-3    4.043938944614731E-3    1.217570499791812E-3    4.103709537388620E-3    4.107875032740195E-1   -1.873726070297630E-1
 8.117274663150000E9     5.040357191975922E-1   -3.905354709466177E-2    1.153986382242365E-3    4.041447916326108E-3    1.205095614309261E-3    4.106381268533842E-3    4.107574980008745E-1   -1.874885216881539E-1
 8.117277439800000E9     5.040271712827464E-1   -3.930115211326034E-2    1.172420058600820E-3    4.055688969085381E-3    1.225463988261117E-3    4.090295585244163E-3    4.105978726578711E-1   -1.877470299953231E-1
 8.117280216450000E9     5.040042176539313E-1   -3.951898011564662E-2    1.164791008110488E-3    4.026898181674918E-3    1.217209315534751E-3    4.109782936487763E-3    4.105119430405862E-1   -1.879683657922998E-1
 8.117282993100000E9     5.039458076891518E-1   -3.978565923628831E-2    1.154506292212751E-3    4.039312264606289E-3    1.227968521146923E-3    4.121387019198122E-3    4.104452337522825E-1   -1.881871787864235E-1
 8.117285769750000E9     5.040571108018316E-1   -3.997109751215955E-2    1.176755730889889E-3    4.070135462623818E-3    1.188967408870926E-3    4.099630858463836E-3    4.103103463898983E-1   -1.882719554606640E-1
 8.117288546400000E9     5.038542121837335E-1   -4.020908495987290E-2    1.171026151509832E-3    4.048954673124784E-3    1.253583064651426E-3    4.146590678449608E-3    4.103349040809804E-1   -1.884688430771001E-1
 8.117291323050000E9     5.039878867469254E-1   -4.044709059216895E-2    1.173656635634749E-3    4.056896165373699E-3    1.219389197465242E-3    4.139099154864536E-3    4.103422766332914E-1   -1.886995048405658E-1
 8.117294099700000E9     5.037717549564703E-1   -4.065327682063166E-2    1.184236045149644E-3    4.065803668468438E-3    1.243466494434044E-3    4.137246590471319E-3    4.101664414396231E-1   -1.888320919849957E-1
 8.117296876350000E9     5.039427292771486E-1   -4.090810041233733E-2    1.224937819098874E-3    4.085665768226708E-3    1.234330569447208E-3    4.120980312869459E-3    4.101686000261813E-1   -1.889291659228190E-1
 8.117299653000000E9     5.038119217428794E-1   -4.116315660068073E-2    1.184859713677164E-3    4.085954061391756E-3    1.250703934705505E-3    4.174060998713197E-3    4.100571467054009E-1   -1.891555424886516E-1
 8.117302429650000E9     5.037975699669838E-1   -4.150145645250924E-2    1.207837127339523E-3    4.093926457280146E-3    1.301716319063539E-3    4.184319201228814E-3    4.099839489726989E-1   -1.893847165138141E-1
 8.117305206300000E9     5.037804192268915E-1   -4.155672667656239E-2    1.207053008373080E-3    4.105236925074958E-3    1.246530644872139E-3    4.125334711536133E-3    4.097994365194988E-1   -1.894812723192332E-1
 8.117307982950000E9     5.037110238880149E-1   -4.185122003953370E-2    1.218958173212215E-3    4.077349982202738E-3    1.302275384415934E-3    4.149558895996111E-3    4.097966770546522E-1   -1.896127580437909E-1
 8.117310759600000E9     5.038322809379869E-1   -4.210740538243422E-2    1.225275475350847E-3    4.116931569477775E-3    1.276948309232006E-3    4.197580840862888E-3    4.096565357101473E-1   -1.898603242684445E-1
 8.117313536250000E9     5.037120666302246E-1   -4.240982950406279E-2    1.215865908620813E-3    4.138995649016463E-3    1.290502587118139E-3    4.167581716282339E-3    4.096380687543633E-1   -1.900803131414874E-1
 8.117316312900000E9     5.036483921927439E-1   -4.254023560058717E-2    1.243759970457468E-3    4.143043375186324E-3    1.317619673661431E-3    4.176631361948244E-3    4.095261271081872E-1   -1.902811218709202E-1
 8.117319089550000E9     5.036348195924970E-1   -4.281246776794639E-2    1.258097444101056E-3    4.132769815689791E-3    1.327540946083291E-3    4.222606792978691E-3    4.094621581405014E-1   -1.904154459068506E-1
 8.117321866200000E9     5.036428043786806E-1   -4.297301530922106E-2    1.242554728811392E-3    4.156026844781334E-3    1.308951287437954E-3    4.228662649493918E-3    4.093853042591458E-1   -1.906222814652976E-1
 8.117324642850000E9     5.035102056711387E-1   -4.333070707400882E-2    1.245723584916188E-3    4.143773326203853E-3    1.310642220204882E-3    4.229900243839971E-3    4.093341788380014E-1   -1.907294154316263E-1
 8.117327419500000E9     5.035757671301041E-1   -4.353091971362838E-2    1.255259699443496E-3    4.163059877626425E-3    1.298461246220285E-3    4.222776395107521E-3    4.092923440864029E-1   -1.909227027652441E-1
 8.117330196150000E9     5.035064080480963E-1   -4.387243615197549E-2    1.248063576462962E-3    4.171994502482341E-3    1.351971201541687E-3    4.208046110216005E-3    4.092406882360785E-1   -1.910583907841393E-1
 8.117332972800000E9     5.034282485893145E-1   -4.409478845240237E-2    1.240564231674991E-3    4.165371113075377E-3    1.362921557742967E-3    4.250990609395777E-3    4.091483415404026E-1   -1.912961556048123E-1
 8.117335749450000E9     5.034543893690149E-1   -4.424051147722290E-2    1.269901620587160E-3    4.200527821812788E-3    1.321254754388325E-3    4.222109818654085E-3    4.090301941261922E-1   -1.914867443859837E-1
 8.117338526100000E9     5.033435484486058E-1   -4.447315587700455E-2    1.294425112986238E-3    4.208831191409250E-3    1.373425177802287E-3    4.265126902632051E-3    4.090240976641790E-1   -1.915401074772518E-1
 8.117341302750000E9     5.033585627715721E-1   -4.474610327688387E-2    1.293038045306885E-3    4.158546960234761E-3    1.330431362828463E-3    4.233886437426029E-3    4.089525946397389E-1   -1.918386581918214E-1
 8.117344079400000E9     5.032284689712946E-1   -4.495365603289108E-2    1.273832891761929E-3    4.199167064052067E-3    1.380425880360548E-3    4.261975338191701E-3    4.088080406057873E-1   -1.920640602765165E-1
 8.117346856050000E9     5.033025863972522E-1   -4.514111087533994E-2    1.286451696250621E-3    4.209382584617401E-3    1.364614142600941E-3    4.258436457081684E-3    4.087183584235677E-1   -1.921117695174619E-1
 8.117349632700000E9     5.032659889744097E-1   -4.544198083016357E-2    1.316280699618601E-3    4.204560081664676E-3    1.345366736086691E-3    4.282694260072007E-3    4.085070211523582E-1   -1.923563459522386E-1
 8.117352409350000E9     5.032020272913249E-1   -4.576009736401448E-2    1.322330700619701E-3    4.233443490634710E-3    1.366535927202228E-3    4.259117081047288E-3    4.086315112945819E-1   -1.925631875775529E-1
 8.117355186000000E9     5.031870259404455E-1   -4.588759958184356E-2    1.310124453888302E-3    4.226053117994950E-3    1.342421738646735E-3    4.272459807059910E-3    4.084977438783592E-1   -1.928531010696392E-1
 8.117357962650000E9     5.030660121596987E-1   -4.614255916448005E-2    1.319402470887154E-3    4.243237170781841E-3    1.390757292301544E-3    4.261725728544604E-3    4.084296534609507E-1   -1.928311229095262E-1
 8.117360739300000E9     5.031110838112798E-1   -4.639278490601940E-2    1.290752623858714E-3    4.233550125046480E-3    1.396584621298528E-3    4.347664528956940E-3    4.083653418524830E-1   -1.932148769378349E-1
 8.117363515950000E9     5.030567168045781E-1   -4.664087807696805E-2    1.329165642272575E-3    4.239185267089809E-3    1.430937140591622E-3    4.339147496452128E-3    4.082018601043150E-1   -1.932506534901041E-1
 8.117366292600000E9     5.030233277103505E-1   -4.691079068311141E-2    1.340732638138956E-3    4.280628911047688E-3    1.403791226138949E-3    4.320482106506590E-3    4.080586251045210E-1   -1.934689764464569E-1
 8.117369069250000E9     5.030281286624465E-1   -4.717701544505427E-2    1.334062880729002E-3    4.256012425267659E-3    1.394820873961835E-3    4.340841899287936E-3    4.081570088345624E-1   -1.936231192433245E-1
 8.117371845900000E9     5.028877605335978E-1   -4.747134744480387E-2    1.365505476596796E-3    4.296744685486517E-3    1.390544370097409E-3    4.368853114733118E-3    4.080330345240688E-1   -1.937951454458051E-1
 8.117374622550000E9     5.028844485920072E-1   -4.764034369485092E-2    1.355844360456353E-3    4.274642062509894E-3    1.426866698222725E-3    4.361681471071706E-3    4.080050381514936E-1   -1.941245902631195E-1
 8.117377399200000E9     5.029060914465425E-1   -4.789924619618579E-2    1.391816493534014E-3    4.290759307473148E-3    1.451322171133778E-3    4.334654343161460E-3    4.078987632528641E-1   -1.942069441569223E-1
 8.117380175850000E9     5.028060669642985E-1   -4.820780104899654E-2    1.388505794117523E-3    4.308755651797072E-3    1.457695744041758E-3    4.370396611512814E-3    4.078325040560877E-1   -1.943610307218928E-1
 8.117382952500000E9     5.028413973173653E-1   -4.830635523640683E-2    1.364794307738893E-3    4.330239185965636E-3    1.463259182440829E-3    4.369900274466492E-3    4.077262788653475E-1   -1.945518537668730E-1
