#  HZ   S   RI   R     50.00 
! Rohde & Schwarz Vector Network Analyzer 
! Rohde-Schwarz,ZNB20-2Port,1311601062101988,3.16
! Created: UTC 3/20/2024, 11:41:50 AM
! freq[Hz]                re:S11                  im:S11                  re:S21                  im:S21                  re:S12                  im:S12                  re:S22                  im:S22
 8.117075227000000E9     5.055164039934281E-1   -2.292035185176748E-2    8.997567173671437E-4    3.830246337050081E-3    9.816036486820737E-4    3.863159467725471E-3    4.158102480082802E-1   -1.746122878546818E-1
 8.117078231625000E9     5.055584776838824E-1   -2.313554538367732E-2    8.967554795116371E-4    3.773811446463478E-3    9.729602130933797E-4    3.899023948234520E-3    4.156543220450034E-1   -1.746187156067822E-1
 8.117081236250000E9     5.054311690024763E-1   -2.340772213175317E-2    9.256170032602814E-4    3.804481883501146E-3    9.426048024048562E-4    3.885489125055287E-3    4.155605831350109E-1   -1.750344210642123E-1
 8.117084240875000E9     5.054542012648167E-1   -2.371731610605191E-2    9.340463828161146E-4    3.807317815346583E-3    9.835043236284145E-4    3.848473197320029E-3    4.154900289394057E-1   -1.751780917517032E-1
 8.117087245500000E9     5.054000501450306E-1   -2.393620173939710E-2    9.511238799603630E-4    3.829268367331836E-3    9.931483438598511E-4    3.874614109380293E-3    4.154354999425555E-1   -1.752505344430272E-1
 8.117090250125000E9     5.053789453749520E-1   -2.416720891349519E-2    9.387842158002628E-4    3.808743300364280E-3    9.684424133350718E-4    3.859294408676200E-3    4.154800062583053E-1   -1.755514945674687E-1
 8.117093254750000E9     5.053665826460202E-1   -2.445202161200422E-2    9.531466099233986E-4    3.809538061643859E-3    9.936830339970547E-4    3.875707590582827E-3    4.154678842059720E-1   -1.756255670420925E-1
 8.117096259375000E9     5.054337882673203E-1   -2.466219110486367E-2    9.410535238468154E-4    3.805372154930280E-3    9.964338313017489E-4    3.873093156227301E-3    4.153173502421263E-1   -1.759551566872721E-1
 8.117099264000000E9     5.053795678118135E-1   -2.495350844163209E-2    9.370613483920234E-4    3.812068420396501E-3    1.010129470913712E-3    3.857959350777844E-3    4.152955231382492E-1   -1.760105016697126E-1
 8.117102268625000E9     5.054638669026499E-1   -2.511585161074696E-2    9.282133070181657E-4    3.822754395638782E-3    1.008957302526933E-3    3.889919760962555E-3    4.151909732579239E-1   -1.762774160298319E-1
 8.117105273250000E9     5.052995273747293E-1   -2.539581332982974E-2    9.351432427589977E-4    3.818637975069208E-3    1.036113214259829E-3    3.886302833582198E-3    4.151209748277242E-1   -1.765244432180962E-1
 8.117108277875000E9     5.052711976176589E-1   -2.564709826907707E-2    9.279110718003555E-4    3.821848765306652E-3    9.999032647678764E-4    3.898025601442955E-3    4.149139690675364E-1   -1.766804841191967E-1
 8.117111282500000E9     5.053048799819709E-1   -2.581775613811365E-2    9.575385428751901E-4    3.817625597264800E-3    1.030752147424340E-3    3.866479244380423E-3    4.148644288241272E-1   -1.767582890571646E-1
 8.117114287125000E9     5.054013902630302E-1   -2.610873048738689E-2    9.703957519550168E-4    3.817606907130918E-3    1.023660897865183E-3    3.890489659798300E-3    4.148136567073994E-1   -1.770340487235572E-1
 8.117117291750000E9     5.052987877788016E-1   -2.633895279093886E-2    9.464719388886873E-4    3.842077583011413E-3    1.042704751312504E-3    3.881091649279717E-3    4.147833331592890E-1   -1.772741827812095E-1
 8.117120296375000E9     5.052523581414258E-1   -2.653971670052538E-2    9.509738433202169E-4    3.841592559966534E-3    1.018300384605968E-3    3.883820658804168E-3    4.147194435549841E-1   -1.775906823306030E-1
 8.117123301000000E9     5.052829507682158E-1   -2.690182700649038E-2    9.506901106556506E-4    3.845181627671161E-3    1.003025868654207E-3    3.921972116759679E-3    4.146271257855739E-1   -1.776758972866224E-1
 8.117126305625000E9     5.051973455548716E-1   -2.714657785864151E-2    9.544009478385609E-4    3.828035425130866E-3    1.011359434943193E-3    3.971131853536443E-3    4.144821537888596E-1   -1.778387864490352E-1
 8.117129310250000E9     5.051830911093983E-1   -2.734867680040744E-2    9.779104037362385E-4    3.839723244449595E-3    1.039272334265788E-3    3.910972526046034E-3    4.146249623229872E-1   -1.780008713773422E-1
 8.117132314875000E9     5.052592600380887E-1   -2.751679001475108E-2    9.865861538479832E-4    3.862643682030949E-3    1.014373847485319E-3    3.899518257744397E-3    4.143377763689985E-1   -1.782554422623971E-1
 8.117135319500000E9     5.050837602267250E-1   -2.771139684879736E-2    9.660985028723754E-4    3.847245520335317E-3    1.038646976997699E-3    3.926796438987601E-3    4.141182511420358E-1   -1.785230495686896E-1
 8.117138324125000E9     5.051605904478338E-1   -2.797188756191614E-2    9.914006167104836E-4    3.877026872912217E-3    1.037476169839828E-3    3.896287145748731E-3    4.141431518859324E-1   -1.786182374558716E-1
 8.117141328750000E9     5.051174046914962E-1   -2.825916220416111E-2    9.943863986289696E-4    3.850794067727151E-3    1.023204395681896E-3    3.922558438721060E-3    4.141495182756273E-1   -1.787873912243038E-1
 8.117144333375000E9     5.052077549458817E-1   -2.853651065699486E-2    9.803540396350365E-4    3.872092957387728E-3    1.055594346422973E-3    3.924128807711336E-3    4.140751887762645E-1   -1.791711878990441E-1
 8.117147338000000E9     5.051220119616600E-1   -2.878573468649954E-2    1.012464858489824E-3    3.876732318689900E-3    1.029783971425047E-3    3.921194723441905E-3    4.140790430266320E-1   -1.790540251430218E-1
 8.117150342625000E9     5.049618110364682E-1   -2.899958670749183E-2    9.772623093481586E-4    3.852770319863131E-3    1.055201133778415E-3    3.947242199026127E-3    4.139062495099992E-1   -1.794413879196322E-1
 8.117153347250000E9     5.050640101233927E-1   -2.929028134887587E-2    9.869502830945176E-4    3.887937065451584E-3    1.098059167730976E-3    3.949958642598157E-3    4.138759562797230E-1   -1.795554471373898E-1
 8.117156351875000E9     5.050750765663702E-1   -2.935573555314811E-2    9.920681767616255E-4    3.887222190705024E-3    1.088646089980108E-3    3.920741487363208E-3    4.139276635014272E-1   -1.799269937884335E-1
 8.117159356500000E9     5.049667419273938E-1   -2.969535465008602E-2    1.013634556964332E-3    3.871743555105880E-3    1.049036415318075E-3    3.911110333868406E-3    4.135325494307752E-1   -1.800812509453881E-1
 8.117162361125000E9     5.048624802196449E-1   -2.997219319180803E-2    1.037060413198864E-3    3.904072106141655E-3    1.059400493751545E-3    3.951245436387701E-3    4.136122070969224E-1   -1.802132645697152E-1
 8.117165365750000E9     5.048307583515218E-1   -3.019435931564072E-2    1.010029340135074E-3    3.878626664463006E-3    1.070363455281721E-3    3.998265918226850E-3    4.135394735799559E-1   -1.804336159937140E-1
 8.117168370375000E9     5.049642005947553E-1   -3.050120414784776E-2    1.023338777802442E-3    3.882901957889679E-3    1.087573980643525E-3    3.957912798908578E-3    4.135991743407816E-1   -1.805599825434894E-1
 8.117171375000000E9     5.048938613515556E-1   -3.071116057595553E-2    1.032263684887884E-3    3.900309949087544E-3    1.083310186830242E-3    3.945545099225888E-3    4.134265937471019E-1   -1.808815126548284E-1
 8.117174379625000E9     5.048307456511800E-1   -3.094299262534978E-2    1.017789608856865E-3    3.888970315595159E-3    1.081461507062098E-3    3.931854871650074E-3    4.133614672628400E-1   -1.809128675403692E-1
 8.117177384250000E9     5.048533234587795E-1   -3.120443384828385E-2    9.942031439695092E-4    3.915794602441036E-3    1.074694350454331E-3    3.988650318651804E-3    4.132121515584061E-1   -1.812650290135904E-1
 8.117180388875000E9     5.048262003573667E-1   -3.143408840265914E-2    1.027142021921505E-3    3.902956978121706E-3    1.078108075762806E-3    3.999512886674152E-3    4.131050501678213E-1   -1.812913289355740E-1
 8.117183393500000E9     5.047241834696866E-1   -3.167083231109953E-2    1.037070002789352E-3    3.910864495823621E-3    1.092626251345264E-3    3.961778432231223E-3    4.132010881623226E-1   -1.816650917139470E-1
 8.117186398125000E9     5.047636386785658E-1   -3.192522731676749E-2    1.057371126465306E-3    3.925077332273917E-3    1.135582596740860E-3    3.983174109349078E-3    4.129479707124214E-1   -1.818869075106960E-1
 8.117189402750000E9     5.047309161479751E-1   -3.207521929210728E-2    1.039502416654778E-3    3.921046855136417E-3    1.103338696936454E-3    3.965935028643243E-3    4.128865849461617E-1   -1.819856782221355E-1
 8.117192407375000E9     5.047306606622782E-1   -3.245978745283460E-2    1.039577957552146E-3    3.937024248486336E-3    1.122942906396059E-3    4.006732311909492E-3    4.128705196444161E-1   -1.820932200350182E-1
 8.117195412000000E9     5.046769792879867E-1   -3.262933464273080E-2    1.033571062918193E-3    3.929339921096914E-3    1.156485383651786E-3    3.987056339739803E-3    4.127447877826467E-1   -1.822861496394933E-1
 8.117198416625000E9     5.046843503112493E-1   -3.281167248006794E-2    1.081844500463516E-3    3.934130552401364E-3    1.096454588635782E-3    3.993485129094006E-3    4.126826006276803E-1   -1.825468221609128E-1
 8.117201421250000E9     5.045885750454755E-1   -3.304264519940990E-2    1.043482076015807E-3    3.941105728476653E-3    1.149110716553558E-3    4.014715709825619E-3    4.125586768209282E-1   -1.826937120395541E-1
 8.117204425875000E9     5.046368718668368E-1   -3.336083951631549E-2    1.103903179934817E-3    3.951855277168424E-3    1.118290160796398E-3    4.008644974134858E-3    4.124772260910038E-1   -1.829999025784144E-1
 8.117207430500000E9     5.045985378632752E-1   -3.364635079885325E-2    1.097488746316140E-3    3.934542510113153E-3    1.126611059362894E-3    3.997231836318448E-3    4.124981997586615E-1   -1.831893920727032E-1
 8.117210435125000E9     5.046393878855048E-1   -3.390296869918577E-2    1.075282324694755E-3    3.956487135077070E-3    1.140634574799215E-3    4.037214680430690E-3    4.124338644672409E-1   -1.832542313759940E-1
 8.117213439750000E9     5.045618397914345E-1   -3.406405301860448E-2    1.098155803252354E-3    3.956435148492600E-3    1.140146152527988E-3    4.022971715531785E-3    4.121925486845823E-1   -1.836027641087972E-1
 8.117216444375000E9     5.045122698059895E-1   -3.444496145872942E-2    1.062184016049549E-3    3.980746733271409E-3    1.184755823756595E-3    4.024163998305927E-3    4.123325121361617E-1   -1.837480419061066E-1
 8.117219449000000E9     5.044908721433233E-1   -3.462663696248013E-2    1.091758871751323E-3    3.966587482609829E-3    1.127489268631924E-3    4.035371055399151E-3    4.121857567981094E-1   -1.838967799424857E-1
 8.117222453625000E9     5.044127503925631E-1   -3.484530543226187E-2    1.077625814072047E-3    3.982402601008930E-3    1.163709139840728E-3    4.018857385868177E-3    4.120666046390489E-1   -1.841133176105737E-1
 8.117225458250000E9     5.044480958239961E-1   -3.514621951710566E-2    1.109796379405508E-3    3.970474861691764E-3    1.136987480082716E-3    4.012631293924040E-3    4.119710819922869E-1   -1.843408759496524E-1
 8.117228462875000E9     5.044148963667896E-1   -3.529817734519339E-2    1.078692427771533E-3    4.001227185479082E-3    1.154517514198340E-3    4.016082731281870E-3    4.118038225534325E-1   -1.844164393750700E-1
 8.117231467500000E9     5.044117445523517E-1   -3.564110735459934E-2    1.098446270180185E-3    3.953403886868145E-3    1.133696840445483E-3    4.046643061504103E-3    4.117752170490310E-1   -1.848374287211929E-1
 8.117234472125000E9     5.043885235233072E-1   -3.588680399355034E-2    1.108956674015889E-3    4.024850248670360E-3    1.184146179499829E-3    4.050936133404370E-3    4.116945162559465E-1   -1.849913409983776E-1
 8.117237476750000E9     5.042391278346919E-1   -3.606149774319401E-2    1.127698200149369E-3    3.995099171595586E-3    1.192359985499984E-3    4.042638571679000E-3    4.117283743977157E-1   -1.850561829490996E-1
 8.117240481375000E9     5.042809883923044E-1   -3.626291440463861E-2    1.086121262433856E-3    4.002689626638955E-3    1.192435727971174E-3    4.051578956707380E-3    4.114983876953229E-1   -1.853550498390210E-1
 8.117243486000000E9     5.042104798268324E-1   -3.664733347096679E-2    1.130545687811852E-3    4.015034863140098E-3    1.207841117055163E-3    4.075175226025500E-3    4.113883506303713E-1   -1.855298405247401E-1
 8.117246490625000E9     5.044101919574000E-1   -3.673267467863250E-2    1.129707106299361E-3    3.992312546934880E-3    1.209319979630111E-3    4.057743443735144E-3    4.114163600163140E-1   -1.856763000632759E-1
 8.117249495250000E9     5.043333064695720E-1   -3.700763325841833E-2    1.140203091197598E-3    4.018048333368381E-3    1.221848052445812E-3    4.075337730432284E-3    4.112399483430936E-1   -1.858889577246493E-1
 8.117252499875000E9     5.041987242248821E-1   -3.729556294463605E-2    1.132902069719777E-3    4.007835526407819E-3    1.210315718387061E-3    4.091479154079145E-3    4.112869880245645E-1   -1.860884641590738E-1
 8.117255504500000E9     5.041863265012494E-1   -3.763822534364075E-2    1.158287585906340E-3    4.029951512592554E-3    1.184329092897556E-3    4.069417277511323E-3    4.112340475752220E-1   -1.861551419009637E-1
 8.117258509125000E9     5.041489375352523E-1   -3.779201100492356E-2    1.159213588601515E-3    4.022396369402126E-3    1.211728740405061E-3    4.094504326447286E-3    4.111779805692138E-1   -1.864341512738500E-1
 8.117261513750000E9     5.041069404706072E-1   -3.815416069435808E-2    1.139147329358967E-3    4.035644479609367E-3    1.220216363938537E-3    4.087438108204073E-3    4.109627022307037E-1   -1.868689655831589E-1
 8.117264518375000E9     5.040752701154585E-1   -3.838995634625084E-2    1.129757984175712E-3    4.068550479711792E-3    1.253215791940281E-3    4.104210248085964E-3    4.108539055592371E-1   -1.868981022239534E-1
 8.117267523000000E9     5.040330101391238E-1   -3.875380743281423E-2    1.181681692441704E-3    4.063900593471368E-3    1.258131157576510E-3    4.099819311583682E-3    4.109168963003282E-1   -1.869534961156361E-1
 8.117270527625000E9     5.039909175060509E-1   -3.880288790244547E-2    1.165997328073469E-3    4.069506663242482E-3    1.245550236376226E-3    4.112076234058953E-3    4.107988986718675E-1   -1.874288207745744E-1
 8.117273532250000E9     5.039390204021457E-1   -3.911592409356256E-2    1.145172254752817E-3    4.062212948943929E-3    1.245594618997610E-3    4.136768527441674E-3    4.108047787145963E-1   -1.874739156888768E-1
 8.117276536875000E9     5.039522834533785E-1   -3.931658654493084E-2    1.197696739318483E-3    4.072820097682027E-3    1.251163530438506E-3    4.166191098661461E-3    4.106228758001063E-1   -1.875618195862810E-1
 8.117279541500000E9     5.039109489038940E-1   -3.950998200058952E-2    1.180346492867029E-3    4.084668255131937E-3    1.252378269231093E-3    4.149561208056052E-3    4.105711164735608E-1   -1.878842188872042E-1
 8.117282546125000E9     5.039842450308397E-1   -3.978172182954265E-2    1.176597113384541E-3    4.106688532448502E-3    1.236217573439328E-3    4.143264338968546E-3    4.104603843195979E-1   -1.880916593359837E-1
 8.117285550750000E9     5.038143721818824E-1   -3.997599531548075E-2    1.197663476447875E-3    4.086773988009202E-3    1.267656395411953E-3    4.118334693271874E-3    4.103649372232396E-1   -1.882922059907254E-1
 8.117288555375000E9     5.038595917145721E-1   -4.031262978797202E-2    1.185720921168883E-3    4.112605204739013E-3    1.249824700060490E-3    4.158336395173531E-3    4.104194513781455E-1   -1.884236684015616E-1
 8.117291560000000E9     5.039384698470007E-1   -4.061701735642106E-2    1.200493153607016E-3    4.114445788985823E-3    1.279153502098858E-3    4.151471991835388E-3    4.101554123000766E-1   -1.886474248349546E-1
 8.117294564625000E9     5.037869676408625E-1   -4.093240529245094E-2    1.172449356812134E-3    4.097436906549156E-3    1.254850466428377E-3    4.170692173814831E-3    4.100866013501995E-1   -1.888021656300808E-1
 8.117297569250000E9     5.036978696651911E-1   -4.101908124206387E-2    1.204649288426035E-3    4.110071303867319E-3    1.289391437652562E-3    4.201403355466440E-3    4.099917958363860E-1   -1.889888668756706E-1
 8.117300573875000E9     5.038118636628042E-1   -4.137184977001136E-2    1.211503779428102E-3    4.138778374583530E-3    1.264120853181084E-3    4.210396204845078E-3    4.100309922020477E-1   -1.892132252127198E-1
 8.117303578500000E9     5.036946166940278E-1   -4.163497549253573E-2    1.218219322366735E-3    4.128085819878590E-3    1.258922329519018E-3    4.193418630842051E-3    4.099288134831349E-1   -1.894126345916948E-1
 8.117306583125000E9     5.035385509325009E-1   -4.182032061812146E-2    1.187888662860276E-3    4.130468898137434E-3    1.324900531074069E-3    4.208222085691861E-3    4.099094693344126E-1   -1.896328712151943E-1
 8.117309587750000E9     5.036733927027135E-1   -4.211674355375664E-2    1.228669855593403E-3    4.118608859275432E-3    1.281342995022763E-3    4.176282066748340E-3    4.097363638189890E-1   -1.897646654925407E-1
 8.117312592375000E9     5.035898697792967E-1   -4.235358072143327E-2    1.240406573451125E-3    4.147467657991933E-3    1.319490800669625E-3    4.209978610182452E-3    4.096575933679298E-1   -1.900034812310938E-1
 8.117315597000000E9     5.035367622566911E-1   -4.261343079637658E-2    1.239137254307461E-3    4.153115803217458E-3    1.305457946793844E-3    4.224425454735708E-3    4.096681797443337E-1   -1.901794439897045E-1
 8.117318601625000E9     5.035240672206348E-1   -4.279670998742904E-2    1.248671901200102E-3    4.166188623360240E-3    1.308801712528946E-3    4.205391016350655E-3    4.095307997556603E-1   -1.904520100316865E-1
 8.117321606250000E9     5.035510837709462E-1   -4.310464296292058E-2    1.271353004100021E-3    4.171468191770640E-3    1.333323907517690E-3    4.240981859324272E-3    4.094559788576818E-1   -1.906099709497734E-1
 8.117324610875000E9     5.033591819642137E-1   -4.345202092092188E-2    1.265030899324305E-3    4.163766445209138E-3    1.342392740513144E-3    4.237376511697062E-3    4.094679837446825E-1   -1.908014902148709E-1
 8.117327615500000E9     5.034735005844255E-1   -4.374135226277737E-2    1.261142984534386E-3    4.174247802693734E-3    1.367493856796998E-3    4.243043530334971E-3    4.092578965278267E-1   -1.909621829053308E-1
 8.117330620125000E9     5.033191620601654E-1   -4.394149676425782E-2    1.277439658089879E-3    4.174398053190020E-3    1.353213456664702E-3    4.249312272458923E-3    4.091482107998981E-1   -1.912461352442139E-1
 8.117333624750000E9     5.033363299452634E-1   -4.419841925679326E-2    1.281722652086800E-3    4.200132932608002E-3    1.374754388635629E-3    4.262866446223767E-3    4.091937618701998E-1   -1.913945516121503E-1
 8.117336629375000E9     5.032466169406082E-1   -4.445554690414542E-2    1.285686036304700E-3    4.199197454516954E-3    1.371582749277549E-3    4.246399977263180E-3    4.089946808478260E-1   -1.915287785902811E-1
 8.117339634000000E9     5.032790010601150E-1   -4.465832376098625E-2    1.295167711255424E-3    4.215821353482489E-3    1.377630257030507E-3    4.275473096960965E-3    4.089514079293814E-1   -1.918131648002933E-1
 8.117342638625000E9     5.032264644060781E-1   -4.502795243709228E-2    1.304450650580157E-3    4.208539611748933E-3    1.375175993957972E-3    4.296449505576722E-3    4.089490568132138E-1   -1.919645102326186E-1
 8.117345643250000E9     5.031726278547974E-1   -4.527133469065366E-2    1.315140684167373E-3    4.227856370635089E-3    1.367254810152008E-3    4.315583930493958E-3    4.087154030989986E-1   -1.920850499131114E-1
