#  HZ   S   RI   R     50.00 
! Rohde & Schwarz Vector Network Analyzer 
! Rohde-Schwarz,ZNB20-2Port,1311601062101988,3.16
! Created: UTC 3/20/2024, 11:42:37 AM
! freq[Hz]                re:S11                  im:S11                  re:S21                  im:S21                  re:S12                  im:S12                  re:S22                  im:S22
 8.117014433000000E9     5.057473540010040E-1   -1.810568575613653E-2    8.480070580294920E-4    3.771792954476735E-3    9.448613905797997E-4    3.824411609376627E-3    4.173019404869679E-1   -1.704544764084572E-1
 8.117017646075000E9     5.058047432905235E-1   -1.850102626486549E-2    8.680289068496399E-4    3.761807042796473E-3    9.376081655912962E-4    3.809517864427014E-3    4.170558778241902E-1   -1.707418601991359E-1
 8.117020859150000E9     5.058440161318661E-1   -1.859126465612917E-2    8.619845535830498E-4    3.758221388789659E-3    9.271690449427788E-4    3.819977854417777E-3    4.170650735715727E-1   -1.708535425916728E-1
 8.117024072225000E9     5.058544680674714E-1   -1.894291410718428E-2    8.718404170295084E-4    3.779627840736423E-3    9.248616133479724E-4    3.855809077115163E-3    4.169028431147172E-1   -1.710011712216764E-1
 8.117027285300000E9     5.057888696331392E-1   -1.916171424296264E-2    8.790442638500333E-4    3.786836222291879E-3    9.088049082082558E-4    3.821390418716915E-3    4.169647258454711E-1   -1.712290395946133E-1
 8.117030498375000E9     5.057405839259944E-1   -1.958202052940547E-2    8.760178927208602E-4    3.786145367784589E-3    9.731116484102856E-4    3.834825520240950E-3    4.168982217563054E-1   -1.715308743128239E-1
 8.117033711450000E9     5.056973186891772E-1   -1.967321492751479E-2    8.811745009037487E-4    3.791234941589306E-3    9.264092111238803E-4    3.814085250168663E-3    4.168286182601275E-1   -1.717325305516447E-1
 8.117036924525000E9     5.058336598645942E-1   -1.991360385052797E-2    8.807812394664787E-4    3.778398201682070E-3    9.344377062610625E-4    3.864051921977729E-3    4.168592644352587E-1   -1.718782056885929E-1
 8.117040137600000E9     5.058077918015842E-1   -2.024447061218771E-2    8.966414823991514E-4    3.772330566295087E-3    9.527309062568096E-4    3.836519709710539E-3    4.166112393179239E-1   -1.720771608811427E-1
 8.117043350675000E9     5.056886717905845E-1   -2.039768896318730E-2    9.088564924650837E-4    3.799147653324012E-3    9.612765461410565E-4    3.841498432440421E-3    4.164703020372129E-1   -1.723433084040451E-1
 8.117046563750000E9     5.056061561579728E-1   -2.079179069603689E-2    9.113873179281079E-4    3.748914891059295E-3    9.754481520987199E-4    3.856854092057415E-3    4.164798155220897E-1   -1.725846899629769E-1
 8.117049776825000E9     5.056961198128442E-1   -2.101671580998374E-2    8.989099445193809E-4    3.794273503612398E-3    9.380015502128966E-4    3.837263444090852E-3    4.164650894285807E-1   -1.728430605210689E-1
 8.117052989900000E9     5.056633019429139E-1   -2.116118943446520E-2    9.036514749847610E-4    3.799831060545982E-3    9.493732697815542E-4    3.819678782670399E-3    4.162391261112206E-1   -1.730326403792188E-1
 8.117056202975000E9     5.056441521403552E-1   -2.155581027694869E-2    9.191824878471579E-4    3.789157992316067E-3    9.512193378168859E-4    3.879038838482781E-3    4.163010304686934E-1   -1.731710052225608E-1
 8.117059416050000E9     5.055603589267312E-1   -2.172265985319089E-2    9.074401281508069E-4    3.801594603921640E-3    9.781125819005279E-4    3.849073778753496E-3    4.161444225077319E-1   -1.733341487288729E-1
 8.117062629125000E9     5.055695370914377E-1   -2.200523169285333E-2    9.044346363473219E-4    3.793568096964343E-3    9.692517417323895E-4    3.853032731732372E-3    4.161439691052932E-1   -1.736197153266659E-1
 8.117065842200000E9     5.054627323977224E-1   -2.211457485673040E-2    9.238350236135156E-4    3.806875105366661E-3    9.767492143862824E-4    3.878761142383121E-3    4.159993393012448E-1   -1.738856668249356E-1
 8.117069055275000E9     5.055578346658207E-1   -2.245795250548198E-2    9.065305004126889E-4    3.823704548343282E-3    9.954160427039574E-4    3.836073765837779E-3    4.159537284212513E-1   -1.739484273626705E-1
 8.117072268350000E9     5.055394741192236E-1   -2.274866451365300E-2    9.237620809288110E-4    3.831889585753972E-3    1.011524340510837E-3    3.898758187111347E-3    4.158498628606704E-1   -1.743137838528663E-1
 8.117075481425000E9     5.055206145695349E-1   -2.311501093454113E-2    9.246687561008753E-4    3.805334898595600E-3    9.569873974730820E-4    3.863360212210435E-3    4.158212252372103E-1   -1.744701066574350E-1
 8.117078694500000E9     5.055170999298542E-1   -2.327198513889671E-2    9.336895645638657E-4    3.809709865785659E-3    1.001473792386421E-3    3.875105757309902E-3    4.157756847768871E-1   -1.746687179139714E-1
 8.117081907575000E9     5.055263134643176E-1   -2.351358757299029E-2    9.445135190752444E-4    3.835131818177573E-3    9.991966014883964E-4    3.877752065071011E-3    4.155805981273464E-1   -1.748354474712557E-1
 8.117085120650000E9     5.054663355531259E-1   -2.387813794548547E-2    9.481125877908667E-4    3.810461126391778E-3    1.011992624157865E-3    3.849998492476955E-3    4.154808120021029E-1   -1.750936748348181E-1
 8.117088333725000E9     5.055308445541105E-1   -2.395726497609890E-2    9.154077433624995E-4    3.825194392740486E-3    1.020155912396049E-3    3.897366983973529E-3    4.154545857792223E-1   -1.753819380266728E-1
 8.117091546800000E9     5.053749612371290E-1   -2.433529422236918E-2    9.420248672238910E-4    3.779389335690861E-3    1.043553880607715E-3    3.931365531606495E-3    4.153392055223565E-1   -1.754955474945006E-1
 8.117094759875000E9     5.054906940095639E-1   -2.461512736218004E-2    9.481954448881271E-4    3.812648683928212E-3    1.003761424788917E-3    3.870582159916209E-3    4.152746508328073E-1   -1.757444291160741E-1
 8.117097972950000E9     5.054227391269377E-1   -2.488655968910901E-2    9.734337473405851E-4    3.826683906276085E-3    1.031298286047831E-3    3.905235163489189E-3    4.152110663816339E-1   -1.758435946610741E-1
 8.117101186025000E9     5.052934922140240E-1   -2.510838290821140E-2    9.523427518562985E-4    3.845945424335666E-3    1.010204610874435E-3    3.878662027432881E-3    4.150845414916545E-1   -1.761463271558770E-1
 8.117104399100000E9     5.053405328916778E-1   -2.541160271056845E-2    9.405385932227203E-4    3.850075110817728E-3    1.026278086929500E-3    3.923820272394447E-3    4.151019999083694E-1   -1.764449869521317E-1
 8.117107612175000E9     5.051851912209393E-1   -2.558213731049093E-2    9.504358046498678E-4    3.843401865812792E-3    1.014856767385344E-3    3.914963706400811E-3    4.149593946610033E-1   -1.766870893373823E-1
 8.117110825250000E9     5.052633256860094E-1   -2.584479253840341E-2    9.776661161611446E-4    3.830982788966350E-3    1.051791372622640E-3    3.914528090207473E-3    4.150117857033147E-1   -1.768040294320692E-1
 8.117114038325000E9     5.053323654811909E-1   -2.604868150314085E-2    9.428151457927634E-4    3.862863226431258E-3    1.060167469587600E-3    3.907295936415238E-3    4.148307380415004E-1   -1.771243590635718E-1
 8.117117251400000E9     5.051700944168757E-1   -2.636427673944629E-2    9.656620959069248E-4    3.842832885802149E-3    1.034751993835304E-3    3.921852473908554E-3    4.146770526041210E-1   -1.770955132286978E-1
 8.117120464475000E9     5.052098513500130E-1   -2.675184249911285E-2    9.785366717977272E-4    3.858935289431407E-3    1.023085980286855E-3    3.940697956324529E-3    4.146336382408826E-1   -1.775332145436519E-1
 8.117123677550000E9     5.051884019865004E-1   -2.670027004852212E-2    9.770477356083284E-4    3.858169010584234E-3    1.028792496603303E-3    3.938383651657456E-3    4.145894741931445E-1   -1.775703423528599E-1
 8.117126890625000E9     5.051952470807651E-1   -2.716963761492999E-2    9.801395450002106E-4    3.874565594604753E-3    1.075951221857811E-3    3.918088998595160E-3    4.146108546750788E-1   -1.778097533962018E-1
 8.117130103700000E9     5.052190407245534E-1   -2.739040325182013E-2    9.584296219173728E-4    3.868463267080464E-3    1.039716049721568E-3    3.950838186973556E-3    4.144151606458035E-1   -1.780775830126494E-1
 8.117133316775000E9     5.050757314350296E-1   -2.762910930815291E-2    9.729800485078338E-4    3.870586599884739E-3    1.039066219443937E-3    3.920227662054594E-3    4.142896947046842E-1   -1.782107892463013E-1
 8.117136529850000E9     5.050624698638868E-1   -2.787061835545615E-2    9.847681014131468E-4    3.879431951014784E-3    1.067551480924564E-3    3.938611424287168E-3    4.143253356984929E-1   -1.785644813378023E-1
 8.117139742925000E9     5.050401119034611E-1   -2.811358747270283E-2    1.016536080155094E-3    3.905492698148556E-3    1.066206407541523E-3    3.941803086852681E-3    4.141162384870545E-1   -1.786253594850377E-1
 8.117142956000000E9     5.049998769679396E-1   -2.839200669959492E-2    1.002080211660584E-3    3.899428424195519E-3    1.078112734111331E-3    3.942627440007198E-3    4.140950218568176E-1   -1.788731652517586E-1
 8.117146169075000E9     5.050360427639641E-1   -2.864975611901195E-2    1.035958116600303E-3    3.904831212979772E-3    1.084298883470856E-3    3.934468553130710E-3    4.140610950210776E-1   -1.789909556164898E-1
 8.117149382150000E9     5.050414248302731E-1   -2.892912822352515E-2    9.861269776878371E-4    3.909114118718550E-3    1.066949961867624E-3    3.990223810115036E-3    4.138035126338480E-1   -1.792063368909568E-1
 8.117152595225000E9     5.049498238896896E-1   -2.925533850176460E-2    1.030186164032079E-3    3.911031715492821E-3    1.080220980920063E-3    3.931461376343449E-3    4.138677924521750E-1   -1.794722810021594E-1
 8.117155808300000E9     5.050308199137197E-1   -2.946487140821535E-2    1.020091217633558E-3    3.901009001467177E-3    1.081372106175093E-3    3.963445885725129E-3    4.138281837304914E-1   -1.797090477438857E-1
 8.117159021375000E9     5.049341854283242E-1   -2.972145709456777E-2    1.042027576681148E-3    3.885779239539683E-3    1.052027328706648E-3    3.984967420298622E-3    4.136717043353415E-1   -1.799648342464879E-1
 8.117162234450000E9     5.050095017651077E-1   -3.003879201741182E-2    1.023222512552612E-3    3.915605457037532E-3    1.092120467595872E-3    3.972090713024786E-3    4.136328036483720E-1   -1.800651081675811E-1
 8.117165447525000E9     5.049196899615518E-1   -3.020439586930497E-2    1.054068818223798E-3    3.928334140835730E-3    1.094720513658922E-3    4.006813102380294E-3    4.134688757054397E-1   -1.803589275083361E-1
 8.117168660600000E9     5.047854425182585E-1   -3.055256935126879E-2    1.038039205918018E-3    3.886647173810257E-3    1.124544302484937E-3    3.967872595621789E-3    4.133779471094305E-1   -1.804894060609016E-1
 8.117171873675000E9     5.048614352757346E-1   -3.080396769356317E-2    1.028810320946684E-3    3.919066216151952E-3    1.065346574434776E-3    3.982811918292690E-3    4.133690528808742E-1   -1.807185692141806E-1
 8.117175086750000E9     5.048504152372929E-1   -3.104663711166247E-2    1.048910169922671E-3    3.911456894466999E-3    1.098018291245748E-3    3.982795933938782E-3    4.132526284523598E-1   -1.809955723136980E-1
 8.117178299825000E9     5.047364459419018E-1   -3.136451128909400E-2    1.040497818251466E-3    3.921655701052769E-3    1.097079987054105E-3    3.981714809435512E-3    4.132737563024710E-1   -1.812335735846903E-1
 8.117181512900000E9     5.048693805458738E-1   -3.154966622281680E-2    1.049844328690707E-3    3.941009294593514E-3    1.123512495161617E-3    4.000364141828445E-3    4.131001476844274E-1   -1.813241536339455E-1
 8.117184725975000E9     5.048274501179293E-1   -3.181413947683927E-2    1.041424498688463E-3    3.945300300892862E-3    1.139480145434927E-3    4.002952002334721E-3    4.130769517570823E-1   -1.815808833754828E-1
 8.117187939050000E9     5.046526992989874E-1   -3.208275331516958E-2    1.040853127571615E-3    3.949010111688372E-3    1.125125035590374E-3    4.000967228975140E-3    4.130174484692612E-1   -1.819062361309324E-1
 8.117191152125000E9     5.047831261931016E-1   -3.224848318044109E-2    1.068503254522804E-3    3.930055732607230E-3    1.117796073552587E-3    3.993916453543528E-3    4.128437647097083E-1   -1.820866010510002E-1
 8.117194365200000E9     5.045608923582773E-1   -3.260690817211186E-2    1.076013086249929E-3    3.947209122880981E-3    1.137698962068618E-3    4.023563479733981E-3    4.127260641232069E-1   -1.822421793309201E-1
 8.117197578275000E9     5.046945580722734E-1   -3.289750706368978E-2    1.095947724990007E-3    3.937838388474468E-3    1.139440209634241E-3    4.041048612254073E-3    4.127856457397053E-1   -1.823390015525088E-1
 8.117200791350000E9     5.044696117603326E-1   -3.320649855330213E-2    1.085548984298243E-3    3.979623828626512E-3    1.152520465519511E-3    4.016237221566470E-3    4.126320825136798E-1   -1.826697391317242E-1
 8.117204004425000E9     5.046183782512823E-1   -3.350318708207446E-2    1.081874357914265E-3    3.951364912529433E-3    1.118126538558684E-3    4.019839713204660E-3    4.126308966135583E-1   -1.828808170752230E-1
 8.117207217500000E9     5.046230869661049E-1   -3.361930200805919E-2    1.110916094761607E-3    3.988743978069469E-3    1.137119842486138E-3    4.017314713718323E-3    4.126822327326487E-1   -1.831408701765330E-1
 8.117210430575000E9     5.045682122223146E-1   -3.389361103890779E-2    1.092630146257804E-3    3.976643481341208E-3    1.157722590111823E-3    4.030734755724748E-3    4.123971208248727E-1   -1.832592843011781E-1
 8.117213643650000E9     5.045165116521340E-1   -3.429902779302355E-2    1.077339778832619E-3    3.977968563159803E-3    1.140127653118049E-3    4.034838535631580E-3    4.123127675981964E-1   -1.835836730549231E-1
 8.117216856725000E9     5.044593740259270E-1   -3.440286534569881E-2    1.101983643579229E-3    3.985567314942264E-3    1.153305003802126E-3    4.049010605210095E-3    4.122622646205221E-1   -1.837130730118909E-1
 8.117220069800000E9     5.044500073366008E-1   -3.471146857418080E-2    1.118052753158739E-3    3.992636641061497E-3    1.175520654556452E-3    4.088058202930730E-3    4.120217561176215E-1   -1.838282532466364E-1
 8.117223282875000E9     5.043972710278775E-1   -3.495567157483521E-2    1.104575952495910E-3    4.006197043561552E-3    1.164554079584921E-3    4.030399534298673E-3    4.120123293523910E-1   -1.841489883411492E-1
 8.117226495950000E9     5.043898957154771E-1   -3.523502286528972E-2    1.103437681959608E-3    3.999359354867137E-3    1.206961186016766E-3    4.067615080386126E-3    4.119891310854242E-1   -1.842308096953820E-1
 8.117229709025000E9     5.043605799952173E-1   -3.552314806452134E-2    1.121707961849301E-3    3.995202902406771E-3    1.221744249818625E-3    4.067491063465404E-3    4.118940574957940E-1   -1.844770999457040E-1
 8.117232922100000E9     5.043316487529932E-1   -3.571730338417257E-2    1.101939226499813E-3    4.024659897056777E-3    1.173583241702957E-3    4.057075991969240E-3    4.118589133238983E-1   -1.847947357826188E-1
 8.117236135175000E9     5.043359481047963E-1   -3.606896582196312E-2    1.144068348227161E-3    4.028255065210218E-3    1.195900525981659E-3    4.084123713442931E-3    4.117362899864334E-1   -1.849137695093137E-1
 8.117239348250000E9     5.042732292355830E-1   -3.630261749073559E-2    1.135693366183119E-3    4.038943887451983E-3    1.203517611890539E-3    4.062074379774929E-3    4.115798287694918E-1   -1.850637206351533E-1
 8.117242561325000E9     5.043221077749680E-1   -3.660392496570300E-2    1.150545576777428E-3    4.027809966999189E-3    1.175774070823305E-3    4.062189262562477E-3    4.115195558465631E-1   -1.854738157263870E-1
 8.117245774400000E9     5.041582036872686E-1   -3.686452874132822E-2    1.113358196353898E-3    4.029110966612471E-3    1.188604956785676E-3    4.097349790940652E-3    4.113705587125804E-1   -1.856027413588847E-1
 8.117248987475000E9     5.041825430284615E-1   -3.710434250696013E-2    1.136956478964686E-3    4.062420608666211E-3    1.230276792416641E-3    4.107082111175547E-3    4.114651648488983E-1   -1.857667443133058E-1
 8.117252200550000E9     5.042072814133128E-1   -3.743981780911498E-2    1.169531865582718E-3    4.043349819660821E-3    1.190549006892040E-3    4.058219136944687E-3    4.111396351665903E-1   -1.859141405701450E-1
 8.117255413625000E9     5.040711381509430E-1   -3.762453281854960E-2    1.153442986489591E-3    4.062947438890006E-3    1.211477117044404E-3    4.120442461661853E-3    4.112737337360360E-1   -1.862496121466811E-1
 8.117258626700000E9     5.040954245570148E-1   -3.789825202319573E-2    1.152663580352788E-3    4.079793247582283E-3    1.231477281568622E-3    4.138714622813155E-3    4.110805454505694E-1   -1.864427676171632E-1
 8.117261839775000E9     5.040916637446961E-1   -3.836820819607155E-2    1.140238009446568E-3    4.046765741949678E-3    1.221186998214967E-3    4.095426625582656E-3    4.109408279720007E-1   -1.865838958505230E-1
 8.117265052850000E9     5.039653136932761E-1   -3.840610238761731E-2    1.194974566047313E-3    4.087160697228736E-3    1.251883369713831E-3    4.148848260685163E-3    4.110607392878842E-1   -1.867959940339608E-1
 8.117268265925000E9     5.040119995622917E-1   -3.873994336844790E-2    1.192108137012492E-3    4.098779350960396E-3    1.236790609711652E-3    4.175161545622951E-3    4.108581376872715E-1   -1.871631694214486E-1
 8.117271479000000E9     5.039412384367481E-1   -3.902996594432635E-2    1.197652286720120E-3    4.103108476840820E-3    1.276272937195887E-3    4.152768408279580E-3    4.107382377302772E-1   -1.870267007335412E-1
 8.117274692075000E9     5.039699744501280E-1   -3.931249909409199E-2    1.172663662581986E-3    4.090929118208677E-3    1.258346017123267E-3    4.177027433368684E-3    4.105986944011417E-1   -1.874107478661338E-1
 8.117277905150000E9     5.039327590421487E-1   -3.953089373352990E-2    1.194050319735608E-3    4.094927639440396E-3    1.246852050542981E-3    4.185355891084572E-3    4.105670407783508E-1   -1.876141467352529E-1
 8.117281118225000E9     5.038326876247208E-1   -3.972685295173225E-2    1.195299747355869E-3    4.134953261936333E-3    1.288970235363076E-3    4.168481103786370E-3    4.105843602947807E-1   -1.879017519709603E-1
 8.117284331300000E9     5.038093263879027E-1   -4.001886756824836E-2    1.225902288510117E-3    4.141013245635860E-3    1.284187514585209E-3    4.170074114091378E-3    4.102657353242282E-1   -1.880381339931458E-1
 8.117287544375000E9     5.038036855410475E-1   -4.048151728277283E-2    1.230732462099145E-3    4.102832200299584E-3    1.244765226773304E-3    4.178019613856724E-3    4.104133749263452E-1   -1.883104748708942E-1
 8.117290757450000E9     5.037825405285808E-1   -4.071935538063869E-2    1.215385145187108E-3    4.115159236137198E-3    1.319207320818612E-3    4.215503855419352E-3    4.103695598819018E-1   -1.886280947491784E-1
 8.117293970525000E9     5.035875152515012E-1   -4.094489253086805E-2    1.253603961987982E-3    4.109985827861877E-3    1.306737249661144E-3    4.193421141193496E-3    4.102819740897132E-1   -1.885833660872360E-1
 8.117297183600000E9     5.037427708405883E-1   -4.119499343795078E-2    1.218587989493188E-3    4.124611734674968E-3    1.313631958631710E-3    4.203885637755723E-3    4.101901251103695E-1   -1.888753515212043E-1
 8.117300396675000E9     5.036580423756675E-1   -4.146363839890469E-2    1.245689946952700E-3    4.125139520679716E-3    1.293553977276871E-3    4.244525993188329E-3    4.100213152749345E-1   -1.890554872771428E-1
 8.117303609750000E9     5.035247433392643E-1   -4.172258515739884E-2    1.258322365221633E-3    4.138400003467219E-3    1.335646215710259E-3    4.216807355592064E-3    4.099653270174796E-1   -1.894616227803904E-1
