#  HZ   S   RI   R     50.00 
! Rohde & Schwarz Vector Network Analyzer 
! Rohde-Schwarz,ZNB20-2Port,1311601062101988,3.16
! Created: UTC 3/20/2024, 11:42:44 AM
! freq[Hz]                re:S11                  im:S11                  re:S21                  im:S21                  re:S12                  im:S12                  re:S22                  im:S22
 8.116985258000000E9     5.059472951326047E-1   -1.585693889832854E-2    8.453893929441297E-4    3.749403018845878E-3    8.898787968298930E-4    3.808577260568874E-3    4.179223136041442E-1   -1.685353702290507E-1
 8.116988598425000E9     5.059307013676648E-1   -1.609494945808502E-2    8.472578002800877E-4    3.730403394197497E-3    9.246635809869266E-4    3.800426316020109E-3    4.179227122674009E-1   -1.686978760129935E-1
 8.116991938850000E9     5.058610579782340E-1   -1.643930157128742E-2    8.502370474208655E-4    3.738361776756532E-3    8.851212843380312E-4    3.777567355519134E-3    4.179112079610352E-1   -1.690114513595875E-1
 8.116995279275000E9     5.058672330990822E-1   -1.663895253999585E-2    8.304645956850187E-4    3.738463378191236E-3    8.849887593696192E-4    3.802153909013719E-3    4.176822646794295E-1   -1.692094945932925E-1
 8.116998619700000E9     5.059990437974990E-1   -1.697134295568816E-2    8.505522922401962E-4    3.745422893379123E-3    8.939998486197843E-4    3.787070413750162E-3    4.175880049811899E-1   -1.693847444774069E-1
 8.117001960125000E9     5.060762135429595E-1   -1.722805594186549E-2    8.500665662693219E-4    3.749926740571247E-3    9.149960121944005E-4    3.762250017380459E-3    4.177555845543545E-1   -1.695634870111501E-1
 8.117005300550000E9     5.059278829131945E-1   -1.745635381466308E-2    8.633485658098975E-4    3.738992151522053E-3    9.169712828414596E-4    3.793928365717452E-3    4.175191837130522E-1   -1.697672628114137E-1
 8.117008640975000E9     5.057925644027164E-1   -1.777224861174355E-2    8.536144233059298E-4    3.771357286310401E-3    9.140466598151489E-4    3.822953052709993E-3    4.174682870590790E-1   -1.700525307359060E-1
 8.117011981400000E9     5.058271748063013E-1   -1.808709853229828E-2    8.661147319089524E-4    3.763100772799571E-3    9.136778214369131E-4    3.820676212288345E-3    4.173489849383472E-1   -1.702802910262090E-1
 8.117015321825000E9     5.058055277684137E-1   -1.836182541757776E-2    8.445807596860384E-4    3.771767573546187E-3    9.615708385711933E-4    3.791856199283315E-3    4.171537727114123E-1   -1.704333353219997E-1
 8.117018662250000E9     5.058332600077767E-1   -1.855684110101366E-2    8.647046706209711E-4    3.766957524271483E-3    9.061850611284830E-4    3.797388108355638E-3    4.173967553323710E-1   -1.707515352685099E-1
 8.117022002675000E9     5.057877327379097E-1   -1.883061907555037E-2    8.881223320388466E-4    3.759973903885524E-3    9.412951166234629E-4    3.847292548989633E-3    4.171905164298955E-1   -1.709045338229048E-1
 8.117025343100000E9     5.059231307173500E-1   -1.899010588248176E-2    8.790140964493724E-4    3.762068859434247E-3    9.460968856374481E-4    3.829693065320729E-3    4.170184012134691E-1   -1.712054986048504E-1
 8.117028683525000E9     5.057099753324124E-1   -1.933428116283456E-2    8.554188859105027E-4    3.758656623252967E-3    9.654001942976958E-4    3.806639747754585E-3    4.168847017697266E-1   -1.712874372955362E-1
 8.117032023950000E9     5.057806096555881E-1   -1.958859848686736E-2    8.904784004951405E-4    3.775501281682664E-3    9.354609771550134E-4    3.786832369863689E-3    4.169231711233941E-1   -1.713900764061028E-1
 8.117035364375000E9     5.057397021621303E-1   -1.989497947248408E-2    8.804230063239796E-4    3.791325528995252E-3    9.759968481531657E-4    3.860714703564709E-3    4.169221118445511E-1   -1.718182464658841E-1
 8.117038704800000E9     5.056978577100882E-1   -2.010664895592223E-2    8.716947907466119E-4    3.801824943120367E-3    9.411193744320080E-4    3.872349295791844E-3    4.166933257641915E-1   -1.720667506722344E-1
 8.117042045225000E9     5.056713552512383E-1   -2.031032719767404E-2    8.926169837051164E-4    3.786358652703622E-3    9.927554759282234E-4    3.829259195465077E-3    4.167071127679282E-1   -1.722230861312935E-1
 8.117045385650000E9     5.056916913196504E-1   -2.068774294764700E-2    8.831985551323416E-4    3.779421075848685E-3    9.550681899250965E-4    3.846888633691595E-3    4.166081815786811E-1   -1.724069120133696E-1
 8.117048726075000E9     5.056181020317813E-1   -2.092053672950044E-2    8.875351841881544E-4    3.785430249486536E-3    9.282374583795379E-4    3.824677648260524E-3    4.166385608004770E-1   -1.725063379522486E-1
 8.117052066500000E9     5.056616231215600E-1   -2.111902480224761E-2    9.234587370915555E-4    3.777954082298752E-3    9.969976502952648E-4    3.850368939915094E-3    4.164787287308921E-1   -1.728119629324559E-1
 8.117055406925000E9     5.055841508556328E-1   -2.157163007309986E-2    8.987891546854048E-4    3.807144817570379E-3    9.908520506025629E-4    3.884053683141074E-3    4.163522895530689E-1   -1.730327479327127E-1
 8.117058747350000E9     5.055791295971728E-1   -2.174410335471061E-2    9.136995988024815E-4    3.782562673680752E-3    9.677113965519754E-4    3.888173177108738E-3    4.162996749549759E-1   -1.733243162356743E-1
 8.117062087775000E9     5.055785425092902E-1   -2.200587903905714E-2    9.281309292376828E-4    3.805066640558434E-3    9.839989944499935E-4    3.849595604448186E-3    4.161092723333006E-1   -1.735470001141559E-1
 8.117065428200000E9     5.055417608121223E-1   -2.222064516797697E-2    9.159031641772634E-4    3.833242071519161E-3    9.715937491355542E-4    3.863111299268293E-3    4.161379181456141E-1   -1.737906975347455E-1
 8.117068768625000E9     5.055994722596405E-1   -2.251524627420610E-2    9.198890394309923E-4    3.808215965656397E-3    9.922688398391547E-4    3.869322682357245E-3    4.161047051062162E-1   -1.739941477887030E-1
 8.117072109050000E9     5.055329714479936E-1   -2.275882414648455E-2    9.161988964727339E-4    3.836714204992105E-3    9.603106101405672E-4    3.889005382986120E-3    4.159679578707555E-1   -1.742584194860389E-1
 8.117075449475000E9     5.055360584984047E-1   -2.309338117761785E-2    9.332894287701034E-4    3.801371929481320E-3    9.918506420296214E-4    3.830316445769754E-3    4.158927736585303E-1   -1.744290174825587E-1
 8.117078789900000E9     5.056112760191248E-1   -2.336585428355431E-2    9.565224606258778E-4    3.816837163145464E-3    9.925569190386578E-4    3.868737575811166E-3    4.156302115418339E-1   -1.747600922142449E-1
 8.117082130325000E9     5.055482967964667E-1   -2.360312475720695E-2    9.305144573186832E-4    3.841748321876872E-3    9.894524355423177E-4    3.881116018440251E-3    4.156727178451303E-1   -1.748735405675805E-1
 8.117085470750000E9     5.054423373310846E-1   -2.373914281436227E-2    9.480529281783378E-4    3.823568796615969E-3    1.017086105250009E-3    3.882759062718843E-3    4.155629993144745E-1   -1.750572068084803E-1
 8.117088811175000E9     5.053565264402707E-1   -2.411792962599030E-2    9.219517783855226E-4    3.838063602991425E-3    1.036266004339280E-3    3.891830397578975E-3    4.156574663658898E-1   -1.753899883671711E-1
 8.117092151600000E9     5.054307920732211E-1   -2.447270529169936E-2    9.531207421517431E-4    3.836088322356678E-3    1.039029778638470E-3    3.917378004329031E-3    4.155464408169335E-1   -1.754183802370951E-1
 8.117095492025000E9     5.053967929989452E-1   -2.457032822377119E-2    9.416702988477403E-4    3.834378782117243E-3    1.067508695333731E-3    3.872517636804240E-3    4.153346539490487E-1   -1.757617642087470E-1
 8.117098832450000E9     5.053546526770849E-1   -2.491178912440738E-2    9.664335198310375E-4    3.840418047625414E-3    1.012212316868604E-3    3.892513845355019E-3    4.152665812631229E-1   -1.758554239429827E-1
 8.117102172875000E9     5.053130421892021E-1   -2.534415958822660E-2    9.598227285492358E-4    3.828214364248861E-3    1.010906474922523E-3    3.876459252775076E-3    4.151406791618264E-1   -1.761897248289923E-1
 8.117105513300000E9     5.053330473647960E-1   -2.553396374400016E-2    9.638452957429458E-4    3.844944483709885E-3    1.046240563354711E-3    3.912234697988207E-3    4.151144083677960E-1   -1.763726342755751E-1
 8.117108853725000E9     5.052699948287147E-1   -2.565584370194970E-2    9.579947349212604E-4    3.857526721703295E-3    1.008633342720363E-3    3.922459671799884E-3    4.150554150996804E-1   -1.766400676204763E-1
 8.117112194150000E9     5.053001805146363E-1   -2.596916959811182E-2    9.623237133388615E-4    3.858693654125920E-3    1.034512653954154E-3    3.894378438845408E-3    4.149907421871172E-1   -1.767634837314762E-1
 8.117115534575000E9     5.053549179012250E-1   -2.626494064424521E-2    9.932345910840554E-4    3.833109416669734E-3    1.021297091602871E-3    3.907460393616435E-3    4.149204140818869E-1   -1.769912057601982E-1
 8.117118875000000E9     5.053014650825097E-1   -2.649159575399541E-2    9.541199528756105E-4    3.843262071110801E-3    1.058995858096226E-3    3.931543169308362E-3    4.148652050589197E-1   -1.773121274256549E-1
 8.117122215425000E9     5.051936720718151E-1   -2.670098996542299E-2    9.926132062701759E-4    3.857451589908427E-3    1.035925367190311E-3    3.909184779062914E-3    4.146728617861084E-1   -1.774681632045729E-1
 8.117125555850000E9     5.052745051125719E-1   -2.705404354139456E-2    9.756099248174994E-4    3.868077408741281E-3    1.060286999683567E-3    3.966323895609740E-3    4.146327649854786E-1   -1.777056763908424E-1
 8.117128896275000E9     5.051576962465144E-1   -2.743576527232893E-2    9.827071693363310E-4    3.870125609783073E-3    1.043620914563288E-3    3.896227809317821E-3    4.145028442330693E-1   -1.778641951437354E-1
 8.117132236700000E9     5.051453968868648E-1   -2.754461573684082E-2    9.796409694921393E-4    3.875915586161672E-3    1.055485229017148E-3    3.918681901027860E-3    4.143543893952140E-1   -1.782124529955192E-1
 8.117135577125000E9     5.051961810777958E-1   -2.781326240614598E-2    1.018984216615008E-3    3.868032360336272E-3    1.067726329446170E-3    3.959419826364889E-3    4.143793319762754E-1   -1.782730021256232E-1
 8.117138917550000E9     5.050602189449390E-1   -2.807709809955462E-2    9.930926311461483E-4    3.869371203181718E-3    1.046964345495136E-3    3.949737594416580E-3    4.143731537476110E-1   -1.785390673705700E-1
 8.117142257975000E9     5.050143825454652E-1   -2.839264769044538E-2    9.813960947478494E-4    3.883815747342836E-3    1.058525979399866E-3    3.921970825744977E-3    4.141865574712751E-1   -1.789405229054409E-1
 8.117145598400000E9     5.050294977996687E-1   -2.860446576827038E-2    1.001565723505469E-3    3.904798272475573E-3    1.039634185391455E-3    3.907480927546688E-3    4.140621512114048E-1   -1.789416190186549E-1
 8.117148938825000E9     5.049641918261912E-1   -2.897404691271830E-2    1.000216649179325E-3    3.903176193701207E-3    1.038773038577460E-3    3.947582537935030E-3    4.139943096204511E-1   -1.793369130037500E-1
 8.117152279250000E9     5.051470933214925E-1   -2.925132220832284E-2    1.001002374658288E-3    3.888574968394041E-3    1.056911872467427E-3    3.961130120973364E-3    4.139365450607528E-1   -1.793620272703599E-1
 8.117155619675000E9     5.051123317130913E-1   -2.953015439499164E-2    1.041253591017687E-3    3.883865946047673E-3    1.108125608036134E-3    3.940321755357771E-3    4.139044369902675E-1   -1.795467465513222E-1
 8.117158960100000E9     5.049187318502035E-1   -2.977660009006983E-2    1.041133486982965E-3    3.899396127515642E-3    1.059946395615930E-3    3.986293074881254E-3    4.138154029649092E-1   -1.797880382587138E-1
 8.117162300525000E9     5.049703827876556E-1   -2.997118347912714E-2    1.024360210642447E-3    3.921973569504256E-3    1.090855799865482E-3    3.966592588589766E-3    4.136022146127107E-1   -1.800965353192829E-1
 8.117165640950000E9     5.049121529794949E-1   -3.031578134655502E-2    1.007098117939159E-3    3.912434189770079E-3    1.102155279729662E-3    3.939763566295901E-3    4.135183265937099E-1   -1.802785597386712E-1
 8.117168981375000E9     5.049284566163956E-1   -3.054475407696643E-2    1.027268245761412E-3    3.903100133787771E-3    1.111329813192016E-3    3.950033386112543E-3    4.134810265189924E-1   -1.805592874107966E-1
 8.117172321800000E9     5.048979303442742E-1   -3.089788786877363E-2    1.034731924086262E-3    3.928749925122997E-3    1.121837268560464E-3    3.991521208843212E-3    4.134174269264361E-1   -1.806872423480380E-1
 8.117175662225000E9     5.048935721629884E-1   -3.111006174803590E-2    1.056546355570945E-3    3.929143668347737E-3    1.110214000866258E-3    3.987263199009649E-3    4.134260158981780E-1   -1.809116551506905E-1
 8.117179002650000E9     5.048556750815201E-1   -3.138711250123491E-2    1.048283393556673E-3    3.926184181535552E-3    1.129709817107997E-3    4.004303889595726E-3    4.133052505321902E-1   -1.810793898603189E-1
 8.117182343075000E9     5.047094691957765E-1   -3.170622520229682E-2    1.057535022054935E-3    3.925987500607810E-3    1.090863281317681E-3    3.991808671296333E-3    4.131635484671126E-1   -1.814140194963540E-1
 8.117185683500000E9     5.046970740239555E-1   -3.193919631717547E-2    1.075324140039965E-3    3.951603493496656E-3    1.126670747800929E-3    4.002956175697577E-3    4.132499372620053E-1   -1.815382436092011E-1
 8.117189023925000E9     5.048186904138151E-1   -3.218481297383314E-2    1.090041319937539E-3    3.937981325783421E-3    1.150513797378480E-3    4.000365332474281E-3    4.129433714230146E-1   -1.818676580537859E-1
 8.117192364350000E9     5.047545035495652E-1   -3.257871829185265E-2    1.051145802736734E-3    3.966579578823136E-3    1.126283306986959E-3    4.035514342566630E-3    4.130125304193117E-1   -1.822022058561481E-1
 8.117195704775000E9     5.048136702541604E-1   -3.272616486678591E-2    1.067421282558117E-3    3.953120862376711E-3    1.132563798723169E-3    3.993252973890715E-3    4.128232169538043E-1   -1.823133392584993E-1
 8.117199045200000E9     5.046296261025672E-1   -3.301396336243988E-2    1.061812891981772E-3    3.975860812285663E-3    1.167036634163120E-3    4.030521962293246E-3    4.127393552475508E-1   -1.824683790699169E-1
 8.117202385625000E9     5.046163341276164E-1   -3.324480301530498E-2    1.043682525580158E-3    3.961170753056393E-3    1.136939992390134E-3    4.038336219480348E-3    4.126879168637507E-1   -1.827548652781252E-1
 8.117205726050000E9     5.045326354975234E-1   -3.356261162039426E-2    1.087539486749521E-3    3.945466018253479E-3    1.172219484916073E-3    4.036584324851850E-3    4.125164323258922E-1   -1.830375363963378E-1
 8.117209066475000E9     5.045397333233318E-1   -3.381597575183269E-2    1.127761241737345E-3    3.985259065076778E-3    1.146303373993332E-3    4.010063628400735E-3    4.123866390068537E-1   -1.831693281689903E-1
 8.117212406900000E9     5.045450362089497E-1   -3.405090054326181E-2    1.074035707766569E-3    3.976517724403794E-3    1.169397808314434E-3    4.056240582573187E-3    4.123571571567710E-1   -1.833881687236890E-1
 8.117215747325000E9     5.044441256088801E-1   -3.437965598646886E-2    1.102235028450869E-3    3.981983503420346E-3    1.191714648592251E-3    4.045758992490228E-3    4.123632882570930E-1   -1.835047342391274E-1
 8.117219087750000E9     5.044769284037810E-1   -3.458631838142290E-2    1.112236290261945E-3    4.017612524576674E-3    1.186637575837588E-3    4.044333206542096E-3    4.121447438926027E-1   -1.837445281324060E-1
 8.117222428175000E9     5.043913702928957E-1   -3.481543889637159E-2    1.121174356643504E-3    4.004905226028984E-3    1.177262650485268E-3    4.064795378142608E-3    4.121781435219309E-1   -1.839196871836435E-1
 8.117225768600000E9     5.044068792278287E-1   -3.518969279958981E-2    1.116735604756765E-3    4.020886807022706E-3    1.173531034975140E-3    4.087946812014989E-3    4.120449913927530E-1   -1.842329087448034E-1
 8.117229109025000E9     5.043501344683931E-1   -3.556527106894891E-2    1.141579518448590E-3    4.014212978734772E-3    1.182750431889229E-3    4.064075418667335E-3    4.120077854376907E-1   -1.843959505732639E-1
 8.117232449450000E9     5.043758559348049E-1   -3.587291599291442E-2    1.138052801418984E-3    4.024610067156174E-3    1.177202932981883E-3    4.057251083776377E-3    4.118932021028675E-1   -1.845447192277838E-1
 8.117235789875000E9     5.043298101523180E-1   -3.602996932998881E-2    1.145136308693118E-3    4.041884994955288E-3    1.180168207600513E-3    4.054077001485275E-3    4.118479604186366E-1   -1.849500023714967E-1
 8.117239130300000E9     5.042894649660508E-1   -3.629705627534937E-2    1.130431195350199E-3    4.033015140180655E-3    1.219005212894326E-3    4.071406433887882E-3    4.117766306703793E-1   -1.851316634713184E-1
 8.117242470725000E9     5.042828983385372E-1   -3.663482835706641E-2    1.122894034978506E-3    4.046933505055176E-3    1.244819163808608E-3    4.094899099540169E-3    4.117353415836265E-1   -1.852678955085519E-1
 8.117245811150000E9     5.041513199546044E-1   -3.684691295266973E-2    1.176933140092365E-3    4.035450443355566E-3    1.207424424172432E-3    4.067285876433202E-3    4.115331942976130E-1   -1.856351711771897E-1
 8.117249151575000E9     5.042356862112060E-1   -3.715270809725942E-2    1.161833240930376E-3    4.052149240850449E-3    1.226986209590889E-3    4.094568408400492E-3    4.114240419523625E-1   -1.856491488299334E-1
 8.117252492000000E9     5.041200080811882E-1   -3.737787678689052E-2    1.165683436731132E-3    4.049405970472580E-3    1.208156764204286E-3    4.120374405438882E-3    4.114279764480682E-1   -1.859149279974544E-1
 8.117255832425000E9     5.041572321659858E-1   -3.758879117288752E-2    1.188460133786588E-3    4.070785259939074E-3    1.228624474069803E-3    4.106000996499810E-3    4.112247772035652E-1   -1.861340396579403E-1
 8.117259172850000E9     5.040789631813302E-1   -3.794642206319339E-2    1.154091870178532E-3    4.067529534589027E-3    1.267924317938540E-3    4.146912908220318E-3    4.111184492208683E-1   -1.863723592264452E-1
 8.117262513275000E9     5.040451654643744E-1   -3.829328916515864E-2    1.183879942523894E-3    4.083164456188999E-3    1.252616310794085E-3    4.144373954475325E-3    4.109819244392432E-1   -1.866572405465537E-1
 8.117265853700000E9     5.040141131584518E-1   -3.849661406883617E-2    1.201861537419078E-3    4.066982829863261E-3    1.270588318804488E-3    4.134834962676319E-3    4.109240894304150E-1   -1.867828725081851E-1
 8.117269194125000E9     5.040176858075338E-1   -3.883379653308482E-2    1.165274953596433E-3    4.091889528003303E-3    1.220570965009073E-3    4.154291513269178E-3    4.109358874397556E-1   -1.870084828188081E-1
 8.117272534550000E9     5.038688535774329E-1   -3.920469878227184E-2    1.185917995261296E-3    4.083693683881649E-3    1.269835786056561E-3    4.144283328541312E-3    4.108269925481440E-1   -1.872823278375019E-1
 8.117275874975000E9     5.038815468701027E-1   -3.927300948921482E-2    1.179493229769933E-3    4.104735229545881E-3    1.305086454131277E-3    4.160533471647508E-3    4.105981922898692E-1   -1.874250862858143E-1
 8.117279215400000E9     5.038855690420433E-1   -3.970145049261149E-2    1.197575297105811E-3    4.112151859294055E-3    1.296656129551795E-3    4.182297341287850E-3    4.106773324889493E-1   -1.878101367557766E-1
 8.117282555825000E9     5.039510492152972E-1   -3.989778520946982E-2    1.234981212151497E-3    4.102909073089402E-3    1.299193013143448E-3    4.149174106030923E-3    4.104775556859844E-1   -1.878943891259511E-1
 8.117285896250000E9     5.037316836245749E-1   -4.033872966928041E-2    1.214512089588173E-3    4.141124536102236E-3    1.272129071671368E-3    4.179311389681769E-3    4.105792632335740E-1   -1.882090219137078E-1
