#  HZ   S   RI   R     50.00 
! Rohde & Schwarz Vector Network Analyzer 
! Rohde-Schwarz,ZNB20-2Port,1311601062101988,3.16
! Created: UTC 3/20/2024, 11:42:49 AM
! freq[Hz]                re:S11                  im:S11                  re:S21                  im:S21                  re:S12                  im:S12                  re:S22                  im:S22
 8.116973475000000E9     5.060234482158036E-1   -1.487294708366178E-2    8.143667610120720E-4    3.730253117424249E-3    9.097569665561633E-4    3.799789357655233E-3    4.181920628623241E-1   -1.677449521261841E-1
 8.116976861275000E9     5.059882812314882E-1   -1.520823175968968E-2    8.263747077935516E-4    3.743617486410337E-3    9.214009149488117E-4    3.809787835673585E-3    4.181219469634257E-1   -1.678883879458785E-1
 8.116980247550000E9     5.059122592516010E-1   -1.562749809254629E-2    8.725234943839058E-4    3.722877464354967E-3    8.894780956030104E-4    3.796272348727947E-3    4.181195745735217E-1   -1.680604791490757E-1
 8.116983633825000E9     5.061397407162388E-1   -1.583812400141402E-2    8.311789745874622E-4    3.746219230268790E-3    9.004773862582658E-4    3.777250244153109E-3    4.181176905532602E-1   -1.684462376282621E-1
 8.116987020100000E9     5.059604790566988E-1   -1.618947215695944E-2    8.346410969851625E-4    3.746787874319840E-3    9.196803187933725E-4    3.792336201011127E-3    4.181184005068855E-1   -1.685732359848416E-1
 8.116990406375000E9     5.059434955972741E-1   -1.628056993090509E-2    8.669087770384312E-4    3.753842785053631E-3    8.907010295789309E-4    3.767377524030547E-3    4.177635957101494E-1   -1.687772765718622E-1
 8.116993792650000E9     5.059011537395501E-1   -1.653546392519447E-2    8.472707246240672E-4    3.763018121101930E-3    9.116413002565987E-4    3.823210988903176E-3    4.179466329973482E-1   -1.690545118274847E-1
 8.116997178925000E9     5.058466846758992E-1   -1.693686420315111E-2    8.524513164276567E-4    3.757741209711546E-3    9.070146867935238E-4    3.807898037535110E-3    4.176224709673864E-1   -1.691995498624912E-1
 8.117000565200000E9     5.059642320226879E-1   -1.708412209364830E-2    8.510049786308100E-4    3.768788168574238E-3    8.975010347645144E-4    3.799619194401370E-3    4.175413157799889E-1   -1.695608065380539E-1
 8.117003951475000E9     5.057953050107822E-1   -1.742756229415181E-2    8.812502443848864E-4    3.766154678894439E-3    9.037685195529312E-4    3.822821746702708E-3    4.175822223355051E-1   -1.696197873878877E-1
 8.117007337750000E9     5.059621901419207E-1   -1.770645291740354E-2    8.539714888513801E-4    3.763030078308376E-3    9.464938770571988E-4    3.775389231343569E-3    4.175662342823098E-1   -1.698937985614924E-1
 8.117010724025000E9     5.057276377342778E-1   -1.792336158423439E-2    8.549449689990987E-4    3.757234702454462E-3    9.389094235188145E-4    3.820087707997692E-3    4.174901482089138E-1   -1.700405598531118E-1
 8.117014110300000E9     5.058853106881982E-1   -1.822767580988607E-2    8.567906015808645E-4    3.775544822166891E-3    9.156541487539553E-4    3.842530363693971E-3    4.173929217778414E-1   -1.704205375923943E-1
 8.117017496575000E9     5.058298793556486E-1   -1.852490150516631E-2    8.810373162095429E-4    3.741835678548404E-3    9.339613863038722E-4    3.844065762748326E-3    4.171683961220931E-1   -1.705735708302822E-1
 8.117020882850000E9     5.058324103522949E-1   -1.873736389220200E-2    8.654196281117248E-4    3.772826336231847E-3    9.297439125593592E-4    3.805668516523949E-3    4.171096779911261E-1   -1.709295452840836E-1
 8.117024269125000E9     5.057538138564095E-1   -1.902112430046070E-2    8.766374529220576E-4    3.782042702997225E-3    9.200164278141558E-4    3.855424113885182E-3    4.172762773158040E-1   -1.710087897756251E-1
 8.117027655400000E9     5.057027158626660E-1   -1.923678425084445E-2    8.799853000043238E-4    3.768025917118448E-3    9.586031218645081E-4    3.863190023716868E-3    4.170737770525934E-1   -1.711596878294920E-1
 8.117031041675000E9     5.057301318087374E-1   -1.948582820597503E-2    8.849177733710365E-4    3.772658978401140E-3    9.483128085792077E-4    3.852372250305634E-3    4.171342120122506E-1   -1.712871157748037E-1
 8.117034427950000E9     5.056859063944505E-1   -1.981874394554088E-2    8.904199549019624E-4    3.761195045773308E-3    9.595330462615875E-4    3.838238035917252E-3    4.168514097683052E-1   -1.717278905996770E-1
 8.117037814225000E9     5.057664937919866E-1   -2.004674034022007E-2    8.851606298998532E-4    3.786275511113176E-3    9.399553898368210E-4    3.838828482298688E-3    4.166503112580214E-1   -1.718970113688864E-1
 8.117041200500000E9     5.055901061781961E-1   -2.043468941927271E-2    9.102129040586045E-4    3.774281211653471E-3    9.642045676542464E-4    3.847744047699671E-3    4.166985853523691E-1   -1.720764797233367E-1
 8.117044586775000E9     5.056826262218016E-1   -2.045314943065515E-2    9.012354577434668E-4    3.780325174885931E-3    9.766895298005058E-4    3.826445424234281E-3    4.166481406675683E-1   -1.723494292577699E-1
 8.117047973050000E9     5.056430988876663E-1   -2.099470161283818E-2    8.933465571885599E-4    3.766907158980840E-3    9.452522258176912E-4    3.882288644825349E-3    4.165843732676935E-1   -1.726195653321293E-1
 8.117051359325000E9     5.056076868366520E-1   -2.113253079811462E-2    9.065901981679948E-4    3.796484787119804E-3    9.770389096811132E-4    3.822795769970717E-3    4.164228789755041E-1   -1.728359695676460E-1
 8.117054745600000E9     5.055447720844543E-1   -2.142001794928722E-2    9.101990251104578E-4    3.802686195109933E-3    9.550511120125511E-4    3.844479762901935E-3    4.164822958051634E-1   -1.731095010770783E-1
 8.117058131875000E9     5.056534659464800E-1   -2.176004830691384E-2    8.932713640228034E-4    3.808142386286071E-3    9.644626982697883E-4    3.857607574484466E-3    4.162994124089212E-1   -1.732430020776773E-1
 8.117061518150000E9     5.055989528621424E-1   -2.202441767681739E-2    9.057346694733201E-4    3.810139187196138E-3    9.695166043132783E-4    3.855565981288253E-3    4.162509522623964E-1   -1.735680173410508E-1
 8.117064904425000E9     5.055257046713768E-1   -2.215432403522897E-2    9.541999882366235E-4    3.811469762561085E-3    9.556468737664084E-4    3.862941712909815E-3    4.161249015870888E-1   -1.737675809277676E-1
 8.117068290700000E9     5.055617035586593E-1   -2.243050917621019E-2    9.229607642055150E-4    3.830430645037984E-3    1.005927614229709E-3    3.846480783220421E-3    4.160327799783063E-1   -1.740626004561706E-1
 8.117071676975000E9     5.055414569545260E-1   -2.281485402476195E-2    9.154924411979252E-4    3.828484133770689E-3    9.634777080194218E-4    3.863526644379852E-3    4.160827532276211E-1   -1.741455524561582E-1
 8.117075063250000E9     5.054586725048625E-1   -2.301167411981514E-2    9.369774676646521E-4    3.819286972741627E-3    1.008818164405460E-3    3.874543645164317E-3    4.159002387050081E-1   -1.742942169219443E-1
 8.117078449525000E9     5.054999542076472E-1   -2.329071369508736E-2    9.329034992775463E-4    3.818348473501842E-3    9.829856062806689E-4    3.891113247397178E-3    4.158187798521548E-1   -1.745900223392969E-1
 8.117081835800000E9     5.054977780774809E-1   -2.355021864499925E-2    9.184586053448359E-4    3.796033772541274E-3    9.811347463210087E-4    3.874358914211002E-3    4.158637541179132E-1   -1.746571891057222E-1
 8.117085222075000E9     5.054504935576394E-1   -2.384316049155199E-2    9.611951898048314E-4    3.850423666653791E-3    1.001130968806152E-3    3.905518113178530E-3    4.156628182529338E-1   -1.748851543437945E-1
 8.117088608350000E9     5.054628292075281E-1   -2.410862866858193E-2    9.532389028846770E-4    3.820243685766692E-3    1.023025054850179E-3    3.887093694460669E-3    4.155727690002339E-1   -1.753070183307892E-1
 8.117091994625000E9     5.053548039340884E-1   -2.437693831986355E-2    9.359942681656967E-4    3.819351588534706E-3    9.954884928020204E-4    3.880207132339231E-3    4.155011692355192E-1   -1.753891354351433E-1
 8.117095380900000E9     5.055335824476765E-1   -2.465216687385963E-2    9.588270571611557E-4    3.827285163371605E-3    1.004952933467771E-3    3.908906011363712E-3    4.154419865697818E-1   -1.756372678953299E-1
 8.117098767175000E9     5.053196681586912E-1   -2.497434447643461E-2    9.758374993156510E-4    3.824364267102380E-3    1.037078874371456E-3    3.908251560636282E-3    4.152324082093096E-1   -1.758356095857494E-1
 8.117102153450000E9     5.054283440359375E-1   -2.512938972407761E-2    9.340528671604305E-4    3.841659478845617E-3    1.029758701962084E-3    3.916305682161206E-3    4.152006116877862E-1   -1.760220698854242E-1
 8.117105539725000E9     5.053179118125193E-1   -2.549428151587217E-2    9.668891827970577E-4    3.840681746940909E-3    1.017564507007486E-3    3.893884771598477E-3    4.151238134231808E-1   -1.764213651220359E-1
 8.117108926000000E9     5.052203058629395E-1   -2.566795478550196E-2    9.529135067124975E-4    3.824514575352924E-3    9.993692943837354E-4    3.933447992452475E-3    4.151104785896413E-1   -1.766325383170967E-1
 8.117112312275000E9     5.052868522966814E-1   -2.596738254211488E-2    9.617088753984588E-4    3.855222171709340E-3    1.060352656240759E-3    3.940580644360971E-3    4.149628222071575E-1   -1.768126345603825E-1
 8.117115698550000E9     5.053053547580225E-1   -2.633313011114279E-2    9.546444522043996E-4    3.861154195029263E-3    1.074309178419404E-3    3.936773555784398E-3    4.149112393858964E-1   -1.768724052369092E-1
 8.117119084825000E9     5.052195458247549E-1   -2.658377349088801E-2    9.829799611432925E-4    3.873472700755983E-3    1.058653408937615E-3    3.888778641767081E-3    4.148585597191335E-1   -1.772624105221595E-1
 8.117122471100000E9     5.051887990404328E-1   -2.684202647704416E-2    9.697041192641307E-4    3.878394906033611E-3    1.051285110533125E-3    3.908147352933535E-3    4.147286255782167E-1   -1.775045430099049E-1
 8.117125857375000E9     5.051296892610835E-1   -2.709463108287387E-2    1.012034257174777E-3    3.871164818257831E-3    1.030159255819988E-3    3.950111549844000E-3    4.146331436071813E-1   -1.777086323689194E-1
 8.117129243650000E9     5.052618701192587E-1   -2.735669943282885E-2    9.959781646545292E-4    3.850538414928248E-3    1.082026740560808E-3    3.928488310543071E-3    4.145627908601336E-1   -1.779377887954529E-1
 8.117132629925000E9     5.052040113693433E-1   -2.760914106784924E-2    1.009996692651171E-3    3.878574958246625E-3    1.089595025677298E-3    3.923654511343543E-3    4.144740832945991E-1   -1.780562714089072E-1
 8.117136016200000E9     5.051653009455840E-1   -2.793470948532942E-2    1.016128859388620E-3    3.879847646067969E-3    1.059232989278008E-3    3.956386921760406E-3    4.143165842317833E-1   -1.782660117442860E-1
 8.117139402475000E9     5.051709601451997E-1   -2.814613057088294E-2    1.007742121002240E-3    3.916252882263319E-3    1.052895302065512E-3    3.927508199550085E-3    4.142644701958355E-1   -1.785895853550094E-1
 8.117142788750000E9     5.050145336637225E-1   -2.837094069895883E-2    9.873761016316622E-4    3.874247184704798E-3    1.082161084121188E-3    3.953199002946216E-3    4.142651422873953E-1   -1.786515046880581E-1
 8.117146175025000E9     5.050489859273325E-1   -2.859363301205728E-2    1.018704937911972E-3    3.882812082741089E-3    1.075631941183388E-3    3.976850678305730E-3    4.141133497097569E-1   -1.790075434328209E-1
 8.117149561300000E9     5.050692215066328E-1   -2.902371988440314E-2    1.031102836338535E-3    3.903696743130296E-3    1.061466644260711E-3    3.953351450870609E-3    4.140853644458781E-1   -1.791916492252842E-1
 8.117152947575000E9     5.049917806888804E-1   -2.926903726028351E-2    1.009102271666406E-3    3.892738879166814E-3    1.098970306512869E-3    3.972430760746374E-3    4.139122773976573E-1   -1.793565058964317E-1
 8.117156333850000E9     5.049563737769197E-1   -2.950909540679048E-2    1.014334941544573E-3    3.905945638732830E-3    1.094983853406711E-3    3.937969862518308E-3    4.138398907602752E-1   -1.795838395828187E-1
 8.117159720125000E9     5.049733528965790E-1   -2.984399592213070E-2    1.023907322206219E-3    3.901527172031572E-3    1.094982104918611E-3    4.000987221472310E-3    4.137172193122571E-1   -1.799342827382445E-1
 8.117163106400000E9     5.049145800315092E-1   -3.005640834613768E-2    1.035374256882458E-3    3.909392441909155E-3    1.090325616428465E-3    3.995355831856563E-3    4.137515488554135E-1   -1.801906748856720E-1
 8.117166492675000E9     5.048417983643328E-1   -3.037796775626934E-2    1.068572909138238E-3    3.936045924747222E-3    1.090019248002202E-3    3.962950779553687E-3    4.136708920503411E-1   -1.802737979676800E-1
 8.117169878950000E9     5.048657319023869E-1   -3.057799206724366E-2    1.058921337913284E-3    3.931726422236886E-3    1.103081486638342E-3    3.970285681031771E-3    4.135364698605206E-1   -1.806629244185114E-1
 8.117173265225000E9     5.048219123812966E-1   -3.091203991063528E-2    1.045139078102274E-3    3.917819466168759E-3    1.125594704215177E-3    4.000085467090231E-3    4.134707942939653E-1   -1.807002231286752E-1
 8.117176651500000E9     5.047842729241384E-1   -3.121439946196297E-2    1.048509616485537E-3    3.933848706632730E-3    1.122386608154931E-3    3.991997037100902E-3    4.133036649834269E-1   -1.810370146147918E-1
 8.117180037775000E9     5.047837280962469E-1   -3.146745759528616E-2    1.052623805756027E-3    3.942089688052426E-3    1.125647679555934E-3    3.993856902861309E-3    4.132729419531873E-1   -1.812622012393635E-1
 8.117183424050000E9     5.048018019251043E-1   -3.170449853245211E-2    1.055808139643067E-3    3.952931646895850E-3    1.087183468959880E-3    4.040453674349660E-3    4.132766462451000E-1   -1.815177389562042E-1
 8.117186810325000E9     5.046239127821017E-1   -3.197097304866649E-2    1.051171395956882E-3    3.953889016454679E-3    1.137003002433298E-3    4.019776350211557E-3    4.130493859061335E-1   -1.817048190168272E-1
 8.117190196600000E9     5.048268378876423E-1   -3.223490705127424E-2    1.068164043725085E-3    3.937321765218799E-3    1.177959866233283E-3    3.990142371032160E-3    4.130757576683527E-1   -1.817669451734930E-1
 8.117193582875000E9     5.047397894305359E-1   -3.249673629147027E-2    1.081212649794423E-3    3.931692267318672E-3    1.136567622266226E-3    4.051972314331306E-3    4.129029786996531E-1   -1.821137957074322E-1
 8.117196969150000E9     5.046592891916948E-1   -3.282976716066059E-2    1.082896024844510E-3    3.970993894574774E-3    1.145793936466553E-3    4.025739132934684E-3    4.129434720718899E-1   -1.824931084929789E-1
 8.117200355425000E9     5.046053226356083E-1   -3.304996817247430E-2    1.063156177217280E-3    3.965648213861268E-3    1.151642007183029E-3    4.024274425478023E-3    4.127605507401029E-1   -1.824299337416987E-1
 8.117203741700000E9     5.045886690020484E-1   -3.340918474156350E-2    1.084831373610639E-3    3.985525970407547E-3    1.135844856913116E-3    4.063633469047204E-3    4.126692460971349E-1   -1.827670722960070E-1
 8.117207127975000E9     5.045655420332803E-1   -3.373185921828145E-2    1.082777375321049E-3    3.963967626022408E-3    1.176968783547534E-3    4.053030429541310E-3    4.125687308003126E-1   -1.830204017794369E-1
 8.117210514250000E9     5.046295125812214E-1   -3.396330263939931E-2    1.104432828561076E-3    3.982227194171878E-3    1.135623448412413E-3    4.087549871300659E-3    4.124418800257362E-1   -1.831978043426603E-1
 8.117213900525000E9     5.044217451941929E-1   -3.426453558946250E-2    1.102565443279001E-3    4.017994699112892E-3    1.163976952822110E-3    4.048594548489253E-3    4.124876808137470E-1   -1.833345594441868E-1
 8.117217286800000E9     5.044539646165987E-1   -3.448041035264383E-2    1.103552238681998E-3    4.000706451409757E-3    1.182356661821456E-3    4.062633377489932E-3    4.122864762307094E-1   -1.837483916029342E-1
 8.117220673075000E9     5.043982406090654E-1   -3.469066619233451E-2    1.109219749669095E-3    4.011474038593909E-3    1.190747236224643E-3    4.057311882239868E-3    4.121942798241186E-1   -1.837659135312867E-1
 8.117224059350000E9     5.044184165171085E-1   -3.499643039941164E-2    1.115858896687477E-3    4.022802322870027E-3    1.164739076263986E-3    4.027064479661161E-3    4.121014821049548E-1   -1.840334011099762E-1
 8.117227445625000E9     5.043899363188431E-1   -3.534339869565316E-2    1.124493233828895E-3    4.013847919347636E-3    1.191314297456736E-3    4.086765306218317E-3    4.120898087835014E-1   -1.841739617399756E-1
 8.117230831900000E9     5.044193484372936E-1   -3.562988930801793E-2    1.104610401946820E-3    4.023858486799954E-3    1.170394137906475E-3    4.073810233927769E-3    4.118614468036357E-1   -1.844975909707189E-1
 8.117234218175000E9     5.042790361230699E-1   -3.592796537239504E-2    1.112201811773676E-3    4.000824766746949E-3    1.167579468294879E-3    4.113466290268116E-3    4.120527446959745E-1   -1.847358797471113E-1
 8.117237604450000E9     5.043465278342317E-1   -3.622376479787048E-2    1.136954500093827E-3    4.021726101801264E-3    1.173939712751037E-3    4.086135200469385E-3    4.118490430065069E-1   -1.849116726301588E-1
 8.117240990725000E9     5.041918285236876E-1   -3.647500916139746E-2    1.133487365340564E-3    4.043726540166236E-3    1.175486525728188E-3    4.066606832692513E-3    4.115480328956752E-1   -1.851665172363677E-1
 8.117244377000000E9     5.041530771021764E-1   -3.667649398971638E-2    1.184432372596790E-3    4.055695413370492E-3    1.203813331051925E-3    4.087648081998409E-3    4.116436775236671E-1   -1.854241556674625E-1
 8.117247763275000E9     5.042044445859083E-1   -3.706646820232800E-2    1.154193053459270E-3    4.047591187538999E-3    1.199644774027642E-3    4.113243783779069E-3    4.114546462477806E-1   -1.856179915736778E-1
 8.117251149550000E9     5.042191916923521E-1   -3.733906109315971E-2    1.148166321449476E-3    4.053399260771004E-3    1.197245430962363E-3    4.146387760582139E-3    4.115049935277823E-1   -1.857913232946614E-1
 8.117254535825000E9     5.040536196612289E-1   -3.759940591072249E-2    1.181227141594953E-3    4.054096420574065E-3    1.221459723517938E-3    4.105356056816098E-3    4.112703704752542E-1   -1.860706579889445E-1
 8.117257922100000E9     5.040648172766244E-1   -3.775247983255056E-2    1.162488952177964E-3    4.065631394534469E-3    1.258235893260539E-3    4.107006607191310E-3    4.111709238692349E-1   -1.862209627595401E-1
 8.117261308375000E9     5.040065332259976E-1   -3.817039513319848E-2    1.175882348366417E-3    4.083788386381803E-3    1.234766336452666E-3    4.141505179109080E-3    4.111712893292104E-1   -1.865724941743652E-1
 8.117264694650000E9     5.039954172576775E-1   -3.841047625283427E-2    1.164263361460448E-3    4.078566727640334E-3    1.251935881360252E-3    4.132853629421502E-3    4.110086457765498E-1   -1.866538257963899E-1
 8.117268080925000E9     5.039826894413808E-1   -3.867665607811584E-2    1.209167160160620E-3    4.096702826202622E-3    1.245591875263370E-3    4.165788706390124E-3    4.110329994547448E-1   -1.870094114816657E-1
 8.117271467200000E9     5.039822269454278E-1   -3.898885687665229E-2    1.188523251965550E-3    4.111765355427810E-3    1.250858294158599E-3    4.162575673634756E-3    4.107900951189377E-1   -1.872433943252987E-1
 8.117274853475000E9     5.038389136880371E-1   -3.932629904175529E-2    1.178760446799909E-3    4.089314840160418E-3    1.292339337048121E-3    4.158581431067447E-3    4.108410528615635E-1   -1.873631366500157E-1
 8.117278239750000E9     5.038858872157411E-1   -3.959384316427381E-2    1.218233074521933E-3    4.108330391655910E-3    1.292229240699244E-3    4.180303314931725E-3    4.106102867774857E-1   -1.877050353029025E-1
