#  HZ   S   RI   R     50.00 
! Rohde & Schwarz Vector Network Analyzer 
! Rohde-Schwarz,ZNB20-2Port,1311601062101988,3.16
! Created: UTC 3/20/2024, 11:42:59 AM
! freq[Hz]                re:S11                  im:S11                  re:S21                  im:S21                  re:S12                  im:S12                  re:S22                  im:S22
 8.116946092000000E9     5.059933735620462E-1   -1.285324927028553E-2    8.109888019036618E-4    3.684828710423822E-3    9.072991748976117E-4    3.800224512185631E-3    4.189488485158522E-1   -1.658893294069275E-1
 8.116949589325000E9     5.059621196027256E-1   -1.318824259939324E-2    8.083077670033814E-4    3.710372968650378E-3    8.483108787636216E-4    3.803232822610524E-3    4.188270362585222E-1   -1.660652977004280E-1
 8.116953086650000E9     5.059135970970491E-1   -1.336725995604478E-2    8.075820117275198E-4    3.718353165473916E-3    8.536125779969907E-4    3.753636429043369E-3    4.188845789158632E-1   -1.662571200260463E-1
 8.116956583975000E9     5.060036278291569E-1   -1.368589531412785E-2    8.423898377144836E-4    3.743701044473643E-3    8.872091738299213E-4    3.774299341718588E-3    4.187563723627732E-1   -1.665568419901181E-1
 8.116960081300000E9     5.059685423401383E-1   -1.400421295558211E-2    8.237690564588233E-4    3.753473762694217E-3    8.974265240978607E-4    3.759477464514390E-3    4.186995169402012E-1   -1.667669356128458E-1
 8.116963578625000E9     5.060212898922954E-1   -1.429409271169955E-2    8.015643922174643E-4    3.736428686461850E-3    8.836257807851333E-4    3.802093605651754E-3    4.185450248081058E-1   -1.669854394815991E-1
 8.116967075950000E9     5.059435017397023E-1   -1.462782981954038E-2    8.252977295097130E-4    3.730143915613095E-3    8.973152440013151E-4    3.787022260061096E-3    4.185025468895345E-1   -1.673306844724133E-1
 8.116970573275000E9     5.059968594248248E-1   -1.472302148975524E-2    7.999148018430692E-4    3.732441355238765E-3    9.132886908270311E-4    3.774845033438939E-3    4.183590379282525E-1   -1.676740974077499E-1
 8.116974070600000E9     5.058422964680387E-1   -1.500872527951859E-2    8.552917250415483E-4    3.724948314999325E-3    8.812031170032632E-4    3.810472133939737E-3    4.183551989966385E-1   -1.678153812490255E-1
 8.116977567925000E9     5.059829380963107E-1   -1.534558008094432E-2    8.199207536115411E-4    3.735678610294225E-3    9.139205556112849E-4    3.809742106281594E-3    4.183107766566625E-1   -1.679264182776243E-1
 8.116981065250000E9     5.059574435554569E-1   -1.563114239486493E-2    8.371296010550558E-4    3.707017982652138E-3    8.961723634600973E-4    3.790823509762301E-3    4.181289669342118E-1   -1.682021095980645E-1
 8.116984562575000E9     5.059250538847889E-1   -1.584096375499721E-2    8.628587968162975E-4    3.736727917825454E-3    9.026516396021302E-4    3.807762132858638E-3    4.181389948591910E-1   -1.683859273969727E-1
 8.116988059900000E9     5.058714446469409E-1   -1.613881838012153E-2    8.625920368140528E-4    3.741117536550959E-3    9.291370585118372E-4    3.796009369176621E-3    4.179834890433054E-1   -1.686807239961078E-1
 8.116991557225000E9     5.058537228340104E-1   -1.635219138913519E-2    8.579991061261509E-4    3.740553514580057E-3    9.371414147201457E-4    3.832207359084645E-3    4.179221730902606E-1   -1.687649909481082E-1
 8.116995054550000E9     5.058656966761109E-1   -1.666854586794739E-2    8.607127327514702E-4    3.730441699347326E-3    9.032150198005060E-4    3.806720456278856E-3    4.178499198135289E-1   -1.691038021475937E-1
 8.116998551875000E9     5.058025262829637E-1   -1.710092065240527E-2    8.461698223665358E-4    3.765940939798579E-3    8.895447517007712E-4    3.811726312313305E-3    4.176929753316649E-1   -1.693320907633874E-1
 8.117002049200000E9     5.057694192989883E-1   -1.733664087698230E-2    8.642948860211795E-4    3.742128631373617E-3    9.109455269866874E-4    3.786979145082260E-3    4.177263615829768E-1   -1.695396703086293E-1
 8.117005546525000E9     5.058625140916607E-1   -1.753588591608591E-2    8.664782598925695E-4    3.776401278886177E-3    9.245857428160072E-4    3.831991662640183E-3    4.175977970830402E-1   -1.696995795020740E-1
 8.117009043850000E9     5.057719512002526E-1   -1.781875746063123E-2    8.739033724576656E-4    3.771014356342921E-3    9.319581394962975E-4    3.830489369722960E-3    4.174786533119971E-1   -1.698949011842215E-1
 8.117012541175000E9     5.057450474563240E-1   -1.822571743284433E-2    8.725151908999650E-4    3.754420719131834E-3    9.531724210733865E-4    3.823560317363041E-3    4.174348165603693E-1   -1.702398346631639E-1
 8.117016038500000E9     5.058587227461229E-1   -1.844570542038148E-2    8.710629682504681E-4    3.764797598579675E-3    9.364025745822636E-4    3.825187510498965E-3    4.172554494702921E-1   -1.705262593362890E-1
 8.117019535825000E9     5.057507264901441E-1   -1.846158101698646E-2    8.675768093116338E-4    3.757154330968599E-3    9.313020088224012E-4    3.830848901089131E-3    4.172388086405169E-1   -1.706724016509790E-1
 8.117023033150000E9     5.057885102011446E-1   -1.895050288385944E-2    8.795090178199224E-4    3.778997036434380E-3    9.261590120022372E-4    3.837193331478107E-3    4.171041754200071E-1   -1.708497948678951E-1
 8.117026530475000E9     5.056651141336087E-1   -1.921430696305387E-2    9.071516893831134E-4    3.768820387729869E-3    9.482924392912225E-4    3.827571087569156E-3    4.170952503025916E-1   -1.711195361222953E-1
 8.117030027800000E9     5.055943278080950E-1   -1.953359944303120E-2    8.783577450784258E-4    3.787468506110232E-3    9.488489171510404E-4    3.838795256028020E-3    4.170121888097029E-1   -1.714213480922219E-1
 8.117033525125000E9     5.056746070310369E-1   -1.983824989734949E-2    8.843497350806167E-4    3.773080525226011E-3    9.477616536500367E-4    3.825200301075356E-3    4.168803110472736E-1   -1.715977408958640E-1
 8.117037022450000E9     5.055281814843429E-1   -2.007529312683381E-2    8.914819021523015E-4    3.791876050607685E-3    9.285701320702270E-4    3.844930958696007E-3    4.168122969829310E-1   -1.718030986365396E-1
 8.117040519775000E9     5.056165866656209E-1   -2.035928035316437E-2    9.074250336375890E-4    3.783596456104106E-3    9.529793603558693E-4    3.840062577832469E-3    4.169125479000436E-1   -1.721143044043388E-1
 8.117044017100000E9     5.055658472318942E-1   -2.060592666950880E-2    8.922184009548741E-4    3.794638292278991E-3    9.826505993702627E-4    3.905614909325255E-3    4.167896651883732E-1   -1.723514537701771E-1
 8.117047514425000E9     5.056383335642962E-1   -2.090883141943905E-2    8.982221592315697E-4    3.778361065655253E-3    9.861294594887186E-4    3.814485335221699E-3    4.166881006132937E-1   -1.724963365890073E-1
 8.117051011750000E9     5.056181405432831E-1   -2.124093871213345E-2    9.010602749572632E-4    3.777836647885954E-3    9.259581881347170E-4    3.842491719335064E-3    4.165181489511847E-1   -1.727187351369208E-1
 8.117054509075000E9     5.055531567198227E-1   -2.143258822835406E-2    9.220076892311071E-4    3.778042065297728E-3    9.876449460253310E-4    3.832945409903485E-3    4.162497177040174E-1   -1.729712953377394E-1
 8.117058006400000E9     5.055291366396739E-1   -2.170260919445298E-2    9.245344951263959E-4    3.768674942729070E-3    9.802001770705569E-4    3.865128792587596E-3    4.162819693407750E-1   -1.731303165380234E-1
 8.117061503725000E9     5.055530855991276E-1   -2.197757340421887E-2    9.356835393634088E-4    3.818688030891713E-3    9.985494107087268E-4    3.832099796249698E-3    4.161483320780976E-1   -1.734857825373387E-1
 8.117065001050000E9     5.055007798925544E-1   -2.222868775410506E-2    9.364057096639006E-4    3.787155953369948E-3    9.880582316908095E-4    3.864417052986539E-3    4.161477986824744E-1   -1.737130195834400E-1
 8.117068498375000E9     5.054954188598968E-1   -2.254416794232134E-2    9.380743912288479E-4    3.800519092394845E-3    9.472173567772145E-4    3.873746880612278E-3    4.161173371921994E-1   -1.738689642186291E-1
 8.117071995700000E9     5.054423724903644E-1   -2.285921314934904E-2    9.161391884855118E-4    3.828616755523306E-3    9.705950210640367E-4    3.883899377747373E-3    4.161781830637296E-1   -1.741404359176024E-1
 8.117075493025000E9     5.054312965522479E-1   -2.309410903466277E-2    9.184249712505629E-4    3.807094440518818E-3    1.005653899235774E-3    3.869598884546217E-3    4.159216949827867E-1   -1.744732516489378E-1
 8.117078990350000E9     5.054071442539523E-1   -2.334281575367978E-2    9.445504445956156E-4    3.834862591397950E-3    1.002625670652437E-3    3.884078107238860E-3    4.159017865676841E-1   -1.745553865465543E-1
 8.117082487675000E9     5.054753314206110E-1   -2.377981441185269E-2    9.823610505587728E-4    3.824025898487984E-3    9.999980524107819E-4    3.893768760698550E-3    4.157352039263708E-1   -1.747604364503909E-1
 8.117085985000000E9     5.054901870561646E-1   -2.389988710126653E-2    9.388273744021801E-4    3.841684397485978E-3    1.014013682703993E-3    3.884499944694656E-3    4.156104902077424E-1   -1.751125364899817E-1
 8.117089482325000E9     5.053893842047691E-1   -2.422513061610695E-2    9.551341189484046E-4    3.836375237696735E-3    1.019613077311794E-3    3.908140970331706E-3    4.153560843092569E-1   -1.753847415322678E-1
 8.117092979650000E9     5.054038381781233E-1   -2.449627372948820E-2    9.488171337083230E-4    3.820181828642600E-3    9.924437063073359E-4    3.907979534451316E-3    4.154871555508809E-1   -1.756080029842795E-1
 8.117096476975000E9     5.053305647934715E-1   -2.477797544167629E-2    9.719288207919060E-4    3.830022140840430E-3    1.013636418976799E-3    3.890223642533814E-3    4.153987282793569E-1   -1.758477218408135E-1
 8.117099974300000E9     5.052644623974077E-1   -2.497575599984634E-2    9.423606496384737E-4    3.850449964491613E-3    1.041447708044524E-3    3.936191016092797E-3    4.153629780431329E-1   -1.760134057472897E-1
 8.117103471625000E9     5.052755648018384E-1   -2.535862662481159E-2    9.751434675796279E-4    3.829170127957026E-3    1.019784006681531E-3    3.893238833050143E-3    4.152511166105803E-1   -1.762358017633314E-1
 8.117106968950000E9     5.052409974346649E-1   -2.551772555662156E-2    9.834991101564615E-4    3.845836751364177E-3    9.926040345299564E-4    3.929475106234460E-3    4.151396751609686E-1   -1.765097457565422E-1
 8.117110466275000E9     5.053252340789259E-1   -2.588940139912645E-2    9.747941022648429E-4    3.857738217371262E-3    1.021788090616168E-3    3.911626879158053E-3    4.150364365552361E-1   -1.767125036938452E-1
 8.117113963600000E9     5.051695385951733E-1   -2.626681533218288E-2    9.712635587553878E-4    3.863118144103127E-3    1.023432498755042E-3    3.921580494234830E-3    4.148438814366009E-1   -1.767667563266028E-1
 8.117117460925000E9     5.052516542722175E-1   -2.648809219826516E-2    9.913950999693225E-4    3.868127959132720E-3    1.072485994627542E-3    3.921730215202345E-3    4.149015310971351E-1   -1.770285978241146E-1
 8.117120958250000E9     5.052228667649865E-1   -2.666950285552060E-2    9.937190804232430E-4    3.858770745738891E-3    1.045543944166946E-3    3.932016679604519E-3    4.147420751917776E-1   -1.774729472873824E-1
 8.117124455575000E9     5.052399147226242E-1   -2.705623019885451E-2    9.852895079940211E-4    3.852728811260725E-3    1.079958353790747E-3    3.918942833414425E-3    4.146930412750450E-1   -1.775274037500388E-1
 8.117127952900000E9     5.051936654941911E-1   -2.721944474985292E-2    1.012853178420763E-3    3.866165830357138E-3    1.070071646246392E-3    3.954197083019638E-3    4.145741848476545E-1   -1.778191658441806E-1
 8.117131450225000E9     5.051348539513547E-1   -2.749263048237200E-2    9.858983007930305E-4    3.879993844357326E-3    1.065259985667195E-3    3.948350210216710E-3    4.144889537665306E-1   -1.780050093680815E-1
 8.117134947550000E9     5.051360634521987E-1   -2.786648979773993E-2    9.889065609627664E-4    3.870087124374774E-3    1.060255146967751E-3    3.946301243816011E-3    4.143426289740015E-1   -1.783115531909400E-1
 8.117138444875000E9     5.050771078960830E-1   -2.823772217431202E-2    1.004627331634995E-3    3.904692511015524E-3    1.095545232578728E-3    3.945150418006685E-3    4.144085328350791E-1   -1.784296730426329E-1
 8.117141942200000E9     5.051098116863965E-1   -2.834613706432000E-2    1.014329629262082E-3    3.905183728771387E-3    1.077390025387413E-3    3.959209909079734E-3    4.143087396665725E-1   -1.787253091884876E-1
 8.117145439525000E9     5.050063574727400E-1   -2.873771475208141E-2    1.021152533366527E-3    3.882687748305999E-3    1.076525540569713E-3    3.999777228938109E-3    4.142792332119252E-1   -1.789313265377355E-1
 8.117148936850000E9     5.050209881348626E-1   -2.893165367858453E-2    1.026419077270888E-3    3.911928173577048E-3    1.084943974529796E-3    3.976230493058550E-3    4.140884248397230E-1   -1.791805493826874E-1
 8.117152434175000E9     5.049548363994646E-1   -2.925810572910847E-2    1.023076084156024E-3    3.908227248390032E-3    1.079400128567981E-3    3.984048161792095E-3    4.139357852790532E-1   -1.793722704933920E-1
 8.117155931500000E9     5.049084949417488E-1   -2.961753234227918E-2    1.009278886370586E-3    3.917090415658228E-3    1.082586478857138E-3    3.996464392136044E-3    4.138451897524453E-1   -1.795693784068695E-1
 8.117159428825000E9     5.049527101247251E-1   -2.985321531481227E-2    1.009075130340523E-3    3.906007866811969E-3    1.126300210256263E-3    3.974962274450086E-3    4.137563779141074E-1   -1.799050799993702E-1
 8.117162926150000E9     5.049955368018331E-1   -3.011076919380865E-2    1.028762948706432E-3    3.908427362043498E-3    1.102645744973438E-3    3.971319426187467E-3    4.136816103565004E-1   -1.801831813725720E-1
 8.117166423475000E9     5.047365811049150E-1   -3.045039532518993E-2    1.038905230252751E-3    3.912533252862171E-3    1.082508955284436E-3    3.967459503917604E-3    4.135970340062676E-1   -1.801755492549204E-1
 8.117169920800000E9     5.048757112818797E-1   -3.069260688446894E-2    1.038913782671439E-3    3.945930555031054E-3    1.107526043517666E-3    4.004393621274790E-3    4.135462808210720E-1   -1.805512848578947E-1
 8.117173418125000E9     5.048822644028546E-1   -3.093125261630397E-2    1.056938250061798E-3    3.934032816284801E-3    1.124269787422711E-3    3.998850930738642E-3    4.134830953628059E-1   -1.806772646102390E-1
 8.117176915450000E9     5.048967607299549E-1   -3.117186919824724E-2    1.044354006872888E-3    3.919827333004935E-3    1.121314749803783E-3    4.007468840172381E-3    4.133652035646005E-1   -1.809952538021169E-1
 8.117180412775000E9     5.048257732685257E-1   -3.153437863537348E-2    1.046644725549246E-3    3.959731584519973E-3    1.089301057487757E-3    4.015625299057589E-3    4.133557687369441E-1   -1.811907941777321E-1
 8.117183910100000E9     5.047190837430281E-1   -3.176782233972195E-2    1.096048967073524E-3    3.934759019171600E-3    1.147087302176920E-3    4.016072260687212E-3    4.131861649085279E-1   -1.814032818860242E-1
 8.117187407425000E9     5.047731708462524E-1   -3.209363590166936E-2    1.058414279490590E-3    3.971761943504169E-3    1.106984220239071E-3    4.020960591726029E-3    4.130597986838076E-1   -1.816908428267703E-1
 8.117190904750000E9     5.047124979479424E-1   -3.226497648889304E-2    1.071110353262162E-3    3.941874786553840E-3    1.148948149702201E-3    4.028728707142213E-3    4.131393971269575E-1   -1.819887193969850E-1
 8.117194402075000E9     5.046423510733604E-1   -3.263713862603464E-2    1.061570894229964E-3    3.974768757564776E-3    1.162990609624886E-3    4.039716667894872E-3    4.127606801176322E-1   -1.820150251703743E-1
 8.117197899400000E9     5.045469730391325E-1   -3.294830370646575E-2    1.074304359580994E-3    3.984400366092258E-3    1.137279685550918E-3    4.044231265736702E-3    4.128354197468932E-1   -1.823765496487980E-1
 8.117201396725000E9     5.046763096831806E-1   -3.318183563492667E-2    1.100460076824967E-3    3.984178149054116E-3    1.168263653666125E-3    4.044757217513783E-3    4.127609638027524E-1   -1.824152962041126E-1
 8.117204894050000E9     5.044828112652930E-1   -3.355104391396421E-2    1.072587735684876E-3    3.987987605082369E-3    1.150519289967092E-3    4.056131370959702E-3    4.127469387611593E-1   -1.827191425385203E-1
 8.117208391375000E9     5.045086586220633E-1   -3.383391621871575E-2    1.077187741740817E-3    3.989553799153280E-3    1.136509910518409E-3    4.027931773810201E-3    4.124366100453581E-1   -1.831132545628415E-1
 8.117211888700000E9     5.044905442032538E-1   -3.408747397251958E-2    1.060979395394899E-3    3.992790896245271E-3    1.177918124975394E-3    4.052975196824919E-3    4.124222414053985E-1   -1.833071481971154E-1
 8.117215386025000E9     5.045427288424380E-1   -3.434674280224664E-2    1.083723661209587E-3    3.993583044170322E-3    1.172855935357762E-3    4.053453340492236E-3    4.124958056934042E-1   -1.834154257848847E-1
 8.117218883350000E9     5.044351679226141E-1   -3.467866865237109E-2    1.122888107886119E-3    4.027779428493888E-3    1.189006143476564E-3    4.064837352056203E-3    4.122744155003819E-1   -1.836379412012937E-1
 8.117222380675000E9     5.043967778177557E-1   -3.494599458732598E-2    1.095716886224529E-3    4.034304885867881E-3    1.171919042783850E-3    4.058921520887415E-3    4.123554186005932E-1   -1.840327598758957E-1
 8.117225878000000E9     5.042696593124225E-1   -3.532423303471841E-2    1.110090511058766E-3    4.019406709228163E-3    1.179065525680853E-3    4.079298596411918E-3    4.121300704509093E-1   -1.841414264567511E-1
 8.117229375325000E9     5.042305107991391E-1   -3.555874245727526E-2    1.151067087773165E-3    4.030457103361674E-3    1.191311714822543E-3    4.079882605853974E-3    4.119855757355551E-1   -1.843966634401202E-1
 8.117232872650000E9     5.043870975478771E-1   -3.587666226755825E-2    1.121146895214201E-3    4.013505860733223E-3    1.180421166120132E-3    4.060328503733325E-3    4.118599996627920E-1   -1.846485856201476E-1
 8.117236369975000E9     5.042181915481518E-1   -3.607902040052375E-2    1.142102579900116E-3    4.036680440962425E-3    1.224139066088808E-3    4.085092900301641E-3    4.117587873981235E-1   -1.848403954224169E-1
 8.117239867300000E9     5.042753173304668E-1   -3.643105965149591E-2    1.159903041572151E-3    4.030553176604954E-3    1.222088276059076E-3    4.091591157599367E-3    4.117077049572059E-1   -1.850560478594913E-1
 8.117243364625000E9     5.042331378830699E-1   -3.662926778706910E-2    1.170658577164303E-3    4.066000330846633E-3    1.212545209256341E-3    4.063872535523156E-3    4.117141506583715E-1   -1.853418747928658E-1
 8.117246861950000E9     5.040896159907815E-1   -3.696254012993318E-2    1.158443459170614E-3    4.033030282952573E-3    1.235726908532364E-3    4.102050317488013E-3    4.115829858028432E-1   -1.854684416654799E-1
 8.117250359275000E9     5.041586285271230E-1   -3.722532981410520E-2    1.172373174933890E-3    4.050657759212497E-3    1.211713790397698E-3    4.133248999089543E-3    4.115028144824810E-1   -1.858009449492448E-1
 8.117253856600000E9     5.040756822958365E-1   -3.770256415953091E-2    1.167472593285481E-3    4.061601706095840E-3    1.222863251627895E-3    4.134829218745124E-3    4.113489125166019E-1   -1.859771679132602E-1
 8.117257353925000E9     5.040241378039924E-1   -3.785032519703262E-2    1.215349618644203E-3    4.085353483408379E-3    1.233807119596052E-3    4.143540398897598E-3    4.112556074463973E-1   -1.861566900256291E-1
 8.117260851250000E9     5.040396446993275E-1   -3.813325934110020E-2    1.200494780192063E-3    4.086996930838849E-3    1.271343984332889E-3    4.171991875530166E-3    4.112589893029469E-1   -1.865135772390778E-1
