#  HZ   S   RI   R     50.00 
! Rohde & Schwarz Vector Network Analyzer 
! Rohde-Schwarz,ZNB20-2Port,1311601062101988,3.16
! Created: UTC 3/20/2024, 11:43:13 AM
! freq[Hz]                re:S11                  im:S11                  re:S21                  im:S21                  re:S12                  im:S12                  re:S22                  im:S22
 8.116919893000000E9     5.060853639219169E-1   -1.084474317163831E-2    8.073750459648670E-4    3.704512977797969E-3    8.549987704526761E-4    3.771825259040882E-3    4.195622110853234E-1   -1.640570598951157E-1
 8.116923492700000E9     5.061187356200239E-1   -1.105925645147582E-2    7.948404867979650E-4    3.689885928194707E-3    8.460586563379632E-4    3.754518601561844E-3    4.194548721227001E-1   -1.644028814010003E-1
 8.116927092400000E9     5.060846244064139E-1   -1.133663167398955E-2    7.993761448820726E-4    3.671816556980340E-3    8.496297489520951E-4    3.788401618620740E-3    4.195692408718772E-1   -1.646141296542243E-1
 8.116930692100000E9     5.060943165028516E-1   -1.172875404948553E-2    7.995204154900779E-4    3.707595353184447E-3    8.515416888900743E-4    3.770114826318459E-3    4.194199360775272E-1   -1.648320678443797E-1
 8.116934291800000E9     5.061039752748422E-1   -1.197057011136196E-2    7.958546767304114E-4    3.706644987527317E-3    8.613031479002640E-4    3.781692028841986E-3    4.192960639599939E-1   -1.651356879135588E-1
 8.116937891500000E9     5.060519502190052E-1   -1.223486860175836E-2    8.067383414210370E-4    3.712383076825389E-3    8.880424358258323E-4    3.776918402755714E-3    4.192537915310211E-1   -1.651608488398897E-1
 8.116941491200000E9     5.059683647176163E-1   -1.267182585671238E-2    8.056047806777550E-4    3.735692720253789E-3    8.428904411866616E-4    3.776095255688267E-3    4.191074305023539E-1   -1.655481705738402E-1
 8.116945090900000E9     5.060576287595681E-1   -1.292719869688358E-2    8.098307995213749E-4    3.730676484686609E-3    8.626840297521206E-4    3.788771679511536E-3    4.187525136660445E-1   -1.658619302489729E-1
 8.116948690600000E9     5.060965128614523E-1   -1.319644721084254E-2    8.603623288889932E-4    3.710560287015009E-3    8.418080322493775E-4    3.798308300291129E-3    4.188998074323669E-1   -1.659962644508245E-1
 8.116952290300000E9     5.059457795719666E-1   -1.342797801024224E-2    7.947958802099069E-4    3.731092419405831E-3    8.990803292421096E-4    3.791097424381677E-3    4.188916204516925E-1   -1.661724687238655E-1
 8.116955890000000E9     5.060678988209142E-1   -1.371436693384928E-2    8.233005692429769E-4    3.724166353718826E-3    8.802373886551511E-4    3.781477675636881E-3    4.188427001481714E-1   -1.665591027610865E-1
 8.116959489700000E9     5.060138882538706E-1   -1.399079043426986E-2    8.193750718748981E-4    3.728188348060073E-3    8.653467352821612E-4    3.777325151480564E-3    4.187334491291365E-1   -1.666530179180777E-1
 8.116963089400000E9     5.059319530175830E-1   -1.424507166448431E-2    8.482843687062178E-4    3.738901173764116E-3    8.871053324135494E-4    3.787698872219770E-3    4.186401620223888E-1   -1.670112533786329E-1
 8.116966689100000E9     5.059483201521909E-1   -1.459569351107411E-2    8.468648398419266E-4    3.757933662704526E-3    8.950827367798545E-4    3.804087823944297E-3    4.185777220868171E-1   -1.671975908179359E-1
 8.116970288800000E9     5.057985397562569E-1   -1.480197253703867E-2    8.437629288405972E-4    3.740066913385105E-3    9.015855923902499E-4    3.779015678317091E-3    4.184215392830337E-1   -1.674317712799976E-1
 8.116973888500000E9     5.059454082825496E-1   -1.510990582917530E-2    8.768630975089608E-4    3.712209730972855E-3    8.738528168379911E-4    3.846953771669762E-3    4.183210357127354E-1   -1.676830232262822E-1
 8.116977488200000E9     5.059317709664005E-1   -1.536328071049440E-2    8.347481553377361E-4    3.750531372703468E-3    9.081034465333512E-4    3.807442976025174E-3    4.183203945691944E-1   -1.679827046603508E-1
 8.116981087900000E9     5.059659320081396E-1   -1.564723972081481E-2    8.576678512908240E-4    3.726624968892672E-3    9.086190240249952E-4    3.774109193324445E-3    4.181230250904228E-1   -1.681336253827788E-1
 8.116984687600000E9     5.059333228525139E-1   -1.594336670683268E-2    8.723040076013660E-4    3.750113629980426E-3    9.045472083131338E-4    3.800091724850429E-3    4.181025647952999E-1   -1.684521470787978E-1
 8.116988287300000E9     5.058079753083331E-1   -1.621673880307146E-2    8.633697768928426E-4    3.721628576299048E-3    8.491588982353181E-4    3.805221154408412E-3    4.179304433684798E-1   -1.685973341331196E-1
 8.116991887000000E9     5.059857248102164E-1   -1.644266981658147E-2    8.636070469739555E-4    3.746460214634469E-3    9.358951438285257E-4    3.811467714203470E-3    4.179286182750356E-1   -1.689148806747771E-1
 8.116995486700000E9     5.059229784049326E-1   -1.675466347545930E-2    8.627209511632017E-4    3.760245962158773E-3    9.138219649790990E-4    3.805954599110290E-3    4.179220700684136E-1   -1.689797333246829E-1
 8.116999086400000E9     5.057896289416711E-1   -1.709938934936285E-2    8.696190215522464E-4    3.738861178970029E-3    9.081355719011138E-4    3.842065461283644E-3    4.177873972552448E-1   -1.693691110107438E-1
 8.117002686100000E9     5.057880999824295E-1   -1.737159449659042E-2    8.365105864039148E-4    3.765145410465731E-3    9.117422307908383E-4    3.820140502020507E-3    4.176510263385020E-1   -1.694898060848487E-1
 8.117006285800000E9     5.058830684886594E-1   -1.764107265856649E-2    8.400619821049732E-4    3.744882874791574E-3    9.094081115682454E-4    3.824845706405757E-3    4.174738419257050E-1   -1.698392376865002E-1
 8.117009885500000E9     5.057614179016835E-1   -1.794531379314102E-2    8.854234131126914E-4    3.763732141614532E-3    9.414159165689297E-4    3.834173722382633E-3    4.175780808412241E-1   -1.700047704086352E-1
 8.117013485200000E9     5.058104602744377E-1   -1.814923915315972E-2    8.821522932839674E-4    3.769552345541001E-3    9.562810364264842E-4    3.826257503050156E-3    4.173809271898551E-1   -1.703134502861933E-1
 8.117017084900000E9     5.057377626061429E-1   -1.851505235564220E-2    8.437362028439310E-4    3.770977735848349E-3    9.423751367840517E-4    3.838181954080089E-3    4.173433911837644E-1   -1.704754877995544E-1
 8.117020684600000E9     5.057514561202122E-1   -1.878418287218522E-2    8.907499414233268E-4    3.800471376655784E-3    9.273922583626658E-4    3.814377613691270E-3    4.172506595056735E-1   -1.706957161045551E-1
 8.117024284300000E9     5.056857953101367E-1   -1.919258724845102E-2    9.095403795862658E-4    3.789655306821318E-3    9.421365537750399E-4    3.856804948422454E-3    4.171270949299380E-1   -1.708662591822670E-1
 8.117027884000000E9     5.057175345106756E-1   -1.932395232096825E-2    8.955425850591650E-4    3.805712548293389E-3    9.435556243257438E-4    3.839016358826768E-3    4.170911167208654E-1   -1.711963571827523E-1
 8.117031483700000E9     5.057525073539622E-1   -1.966518986595005E-2    8.821810077506953E-4    3.801639833804194E-3    9.604758143449521E-4    3.834041344721810E-3    4.169488878143811E-1   -1.715931262010529E-1
 8.117035083400000E9     5.056504619679106E-1   -1.994377221521673E-2    8.854637476493652E-4    3.788172698309984E-3    9.537853164190369E-4    3.865600807998794E-3    4.168706922360831E-1   -1.716149164136762E-1
 8.117038683100000E9     5.056438554933707E-1   -2.022461303079357E-2    9.444756644467889E-4    3.769256366331059E-3    9.671245638872061E-4    3.882941665814417E-3    4.169051203051498E-1   -1.719430925476580E-1
 8.117042282800000E9     5.055699355385999E-1   -2.047088263409955E-2    8.895295290908945E-4    3.793800718810745E-3    9.610004775023154E-4    3.830198490189016E-3    4.167994353849243E-1   -1.722443525309718E-1
 8.117045882500000E9     5.055951978626327E-1   -2.074565154928266E-2    8.847235868915227E-4    3.814165790589484E-3    9.632620782474520E-4    3.852536031541896E-3    4.167550338290199E-1   -1.724288158187437E-1
 8.117049482200000E9     5.056499171603439E-1   -2.109446616369914E-2    9.080002432580264E-4    3.804238399858722E-3    9.750202167563547E-4    3.856066411618813E-3    4.165273205326988E-1   -1.727504694282870E-1
 8.117053081900000E9     5.055094716796981E-1   -2.126902855966799E-2    9.128573397167674E-4    3.809929696177481E-3    9.490275915648206E-4    3.875326936177181E-3    4.165501655731876E-1   -1.729892363616665E-1
 8.117056681600000E9     5.054926313954243E-1   -2.164186295801420E-2    9.279921915059115E-4    3.808190968513292E-3    9.803807154808164E-4    3.884721649928094E-3    4.164856946278744E-1   -1.731777661191440E-1
 8.117060281300000E9     5.055737558347729E-1   -2.185112111862165E-2    8.886630869870466E-4    3.789338863023473E-3    9.813341670795836E-4    3.845785641174332E-3    4.162788396248104E-1   -1.732549509860072E-1
 8.117063881000000E9     5.055190710211477E-1   -2.225220460464358E-2    9.268583006023045E-4    3.802324898312792E-3    9.734262464631270E-4    3.878555707154789E-3    4.161938673370170E-1   -1.736581616403038E-1
 8.117067480700000E9     5.054754921520773E-1   -2.246780872846029E-2    9.644875834881054E-4    3.827449398590471E-3    9.781659233592604E-4    3.886622207516593E-3    4.160420334618787E-1   -1.738010177157887E-1
 8.117071080400000E9     5.054816580065902E-1   -2.276003297625395E-2    9.358432056543180E-4    3.802517582690415E-3    9.650677375404703E-4    3.876091100756964E-3    4.159992539245596E-1   -1.739896670142396E-1
 8.117074680100000E9     5.054521192302345E-1   -2.308829735323758E-2    9.398358068013518E-4    3.822546059060743E-3    1.038176270119156E-3    3.861389162699208E-3    4.159589575375703E-1   -1.742927915024297E-1
 8.117078279800000E9     5.053881850718931E-1   -2.336883712355928E-2    9.564250896043306E-4    3.827125770501285E-3    9.982288447859234E-4    3.906733532464429E-3    4.158725749733035E-1   -1.744386919837457E-1
 8.117081879500000E9     5.053661015975888E-1   -2.361782516806292E-2    9.284547028175252E-4    3.846997348471553E-3    1.012323536257827E-3    3.900887174488349E-3    4.157383043174168E-1   -1.747476353754266E-1
 8.117085479200000E9     5.053906303252960E-1   -2.396364329001239E-2    9.357925141684990E-4    3.843026942880715E-3    1.021726715060157E-3    3.897144586232181E-3    4.157023593614315E-1   -1.750193388077246E-1
 8.117089078900000E9     5.053298293541267E-1   -2.431192031110141E-2    9.430653682227924E-4    3.830369504955102E-3    1.032043167472212E-3    3.882782282512296E-3    4.156135928482046E-1   -1.751776118545123E-1
 8.117092678600000E9     5.052844096422829E-1   -2.454786255765665E-2    9.575750350438168E-4    3.849730546773161E-3    1.032007563051454E-3    3.927116349383059E-3    4.156980569602013E-1   -1.755108737113357E-1
 8.117096278300000E9     5.052874585967598E-1   -2.475788369313128E-2    9.413951107887635E-4    3.837273550581277E-3    1.015530260065697E-3    3.912158788654251E-3    4.154562104801566E-1   -1.755973864649994E-1
 8.117099878000000E9     5.052448905682736E-1   -2.508251814370209E-2    9.783422331945287E-4    3.857058345647136E-3    1.047158524685109E-3    3.926068726290120E-3    4.154663189835285E-1   -1.758722643685596E-1
 8.117103477700000E9     5.052189107254046E-1   -2.531502463806318E-2    9.750389916437474E-4    3.873969698573777E-3    1.036466414159594E-3    3.904037277053440E-3    4.151431072863297E-1   -1.761657036824013E-1
 8.117107077400000E9     5.052616392178056E-1   -2.565679655963487E-2    9.548370280382093E-4    3.849311853840812E-3    1.047146245405679E-3    3.908136551942660E-3    4.150098020078710E-1   -1.763952143728164E-1
 8.117110677100000E9     5.053751918866570E-1   -2.592361387406416E-2    9.436736763256190E-4    3.872974876035822E-3    1.005162784141145E-3    3.907459270956249E-3    4.150821684305996E-1   -1.767090321772871E-1
 8.117114276800000E9     5.051947773750636E-1   -2.618617030871796E-2    9.867392903519570E-4    3.849041208854757E-3    1.042361029679017E-3    3.913013999052171E-3    4.150231414737372E-1   -1.767746611399806E-1
 8.117117876500000E9     5.051629580383327E-1   -2.652438355301153E-2    9.866872868277588E-4    3.855972831709999E-3    1.066994358624635E-3    3.921896469479438E-3    4.149237626531230E-1   -1.770556494889604E-1
 8.117121476200000E9     5.052590786613935E-1   -2.676236972297484E-2    1.002718952004258E-3    3.869085859271837E-3    1.035881804612765E-3    3.921715756459064E-3    4.148009971165947E-1   -1.772626394777556E-1
 8.117125075900000E9     5.050895938542401E-1   -2.712635759666979E-2    9.649797309500372E-4    3.862144705066605E-3    1.065096115660686E-3    3.953641519997348E-3    4.146196619300442E-1   -1.776107459906066E-1
 8.117128675600000E9     5.051774562458298E-1   -2.738510718576717E-2    1.025112073458350E-3    3.897348131355555E-3    1.081644242499698E-3    3.941895655036029E-3    4.144895541753307E-1   -1.777888755296022E-1
 8.117132275300000E9     5.050206039653836E-1   -2.756075749604794E-2    9.856597425085293E-4    3.890269702733708E-3    1.057300514107610E-3    3.946320483090312E-3    4.145077320803431E-1   -1.779790707093635E-1
 8.117135875000000E9     5.050514204379084E-1   -2.791563497638059E-2    9.752363642167446E-4    3.872723338769711E-3    1.068414515074513E-3    3.933340102256201E-3    4.144381236286306E-1   -1.782783922226559E-1
 8.117139474700000E9     5.051063632865518E-1   -2.832070875315358E-2    1.009223502006343E-3    3.904651072173215E-3    1.054363542249496E-3    3.928096708897983E-3    4.142588589495168E-1   -1.785135474057631E-1
 8.117143074400000E9     5.050212292810340E-1   -2.862370597224603E-2    1.007790746101337E-3    3.897852681665837E-3    1.084188277636910E-3    3.951679892210572E-3    4.142827009281637E-1   -1.787335614745738E-1
 8.117146674100000E9     5.050376441648924E-1   -2.881441680768335E-2    1.026298448888836E-3    3.921055262081473E-3    1.118216318439726E-3    3.940785821959841E-3    4.142605619357809E-1   -1.788529705610877E-1
 8.117150273800000E9     5.049371304322983E-1   -2.917112745117886E-2    1.010016306602230E-3    3.924990804889435E-3    1.058957066438145E-3    3.970624094712522E-3    4.139985421632799E-1   -1.792723820232154E-1
 8.117153873500000E9     5.048791078506986E-1   -2.953922944746855E-2    1.022151558519833E-3    3.922201878419113E-3    1.130348627114928E-3    4.003860980428797E-3    4.138909990999218E-1   -1.794182699812533E-1
 8.117157473200000E9     5.049488468020703E-1   -2.980482258851069E-2    1.034834998678860E-3    3.919174539296413E-3    1.078572391958914E-3    3.974321074496109E-3    4.138565097579107E-1   -1.796686693073621E-1
 8.117161072900000E9     5.049294713660128E-1   -2.996495371372088E-2    1.036852104537046E-3    3.917543640884147E-3    1.070494858198749E-3    3.992260574571041E-3    4.138113536336741E-1   -1.799276667100697E-1
 8.117164672600000E9     5.048177226993749E-1   -3.024475220443986E-2    1.049662020160740E-3    3.924855824760129E-3    1.081585849269932E-3    4.029951230801999E-3    4.135914537618919E-1   -1.801651682156795E-1
 8.117168272300000E9     5.047408410142297E-1   -3.069849911789568E-2    1.035520233615086E-3    3.940449806179052E-3    1.127298728332818E-3    4.013284254487040E-3    4.136272954009296E-1   -1.803358710369940E-1
 8.117171872000000E9     5.047133889458730E-1   -3.079684367011856E-2    1.070629946035821E-3    3.945105710106273E-3    1.102640290157583E-3    3.988567034862969E-3    4.135223324963785E-1   -1.806130772189956E-1
 8.117175471700000E9     5.047724716319614E-1   -3.120046476419414E-2    1.078850226560516E-3    3.951755275757548E-3    1.105037413843078E-3    3.991753040617376E-3    4.134276024728514E-1   -1.809239483214214E-1
 8.117179071400000E9     5.047270048691468E-1   -3.144694476319591E-2    1.070334103867753E-3    3.960390475458935E-3    1.130682746058804E-3    3.988822180764419E-3    4.133677042966702E-1   -1.810885364265313E-1
 8.117182671100000E9     5.047417281217083E-1   -3.173272512599166E-2    1.062768993156658E-3    3.965450723125725E-3    1.156866194904069E-3    4.000192955528139E-3    4.133855696379498E-1   -1.812771933072255E-1
 8.117186270800000E9     5.047399104776106E-1   -3.199647559325097E-2    1.071998643834336E-3    3.960012739789456E-3    1.108789119804878E-3    4.046942884489721E-3    4.131897141103120E-1   -1.815545380914635E-1
 8.117189870500000E9     5.046743815160780E-1   -3.233140285377419E-2    1.088238498704708E-3    3.987251619241973E-3    1.126315132050727E-3    4.014706598903799E-3    4.130217640621202E-1   -1.816345196457806E-1
 8.117193470200000E9     5.047456537276789E-1   -3.262282404630158E-2    1.063672989583305E-3    3.980018842448283E-3    1.137736348610038E-3    4.040501339929416E-3    4.129516326285471E-1   -1.820662943210983E-1
 8.117197069900000E9     5.045585881510419E-1   -3.292202058529627E-2    1.082226663183788E-3    3.982614758307455E-3    1.146010966261270E-3    4.049155787241423E-3    4.129469927895688E-1   -1.821969868184758E-1
 8.117200669600000E9     5.045234256013920E-1   -3.312040942503672E-2    1.111461737036454E-3    3.982783928750314E-3    1.135803951064415E-3    4.060060134246697E-3    4.128042695984072E-1   -1.825291875057184E-1
 8.117204269300000E9     5.045758099835016E-1   -3.356015635663012E-2    1.113971030214356E-3    3.984159231131273E-3    1.168651165352849E-3    4.014026567538656E-3    4.126931354494654E-1   -1.826748829402884E-1
 8.117207869000000E9     5.044356894568331E-1   -3.384197929309343E-2    1.117266968629060E-3    3.999978427919349E-3    1.183803839548321E-3    4.056708264311425E-3    4.126588736881733E-1   -1.829194770261532E-1
 8.117211468700000E9     5.044134332138288E-1   -3.407082729779033E-2    1.099879678698040E-3    3.991103163263381E-3    1.194057997988583E-3    4.089980005633755E-3    4.125435008402005E-1   -1.832961400144054E-1
 8.117215068400000E9     5.044011524537984E-1   -3.448743890487223E-2    1.110885087049797E-3    3.995168986568588E-3    1.158666507417114E-3    4.058963331649438E-3    4.125627931291366E-1   -1.834376916436928E-1
 8.117218668100000E9     5.045583637000368E-1   -3.462250687445027E-2    1.121570233409179E-3    3.999046253381289E-3    1.197236046313391E-3    4.095232789174821E-3    4.123170650373784E-1   -1.836707402174218E-1
 8.117222267800000E9     5.044741281407605E-1   -3.498009666874592E-2    1.123505890316653E-3    4.017847915538693E-3    1.199428885129319E-3    4.083813076943109E-3    4.122364972184906E-1   -1.840153008811329E-1
 8.117225867500000E9     5.043848229161482E-1   -3.529774068196516E-2    1.130678915326474E-3    4.009174550143146E-3    1.209148986123939E-3    4.084580401684367E-3    4.122370080889652E-1   -1.841675062486541E-1
 8.117229467200000E9     5.042901242930683E-1   -3.552520513294164E-2    1.142110095220594E-3    4.018149842491262E-3    1.168649443460686E-3    4.091457474139483E-3    4.120181699165457E-1   -1.843828002003880E-1
 8.117233066900000E9     5.041348883498594E-1   -3.590721065681231E-2    1.130345117224534E-3    4.030958863053997E-3    1.199573584424614E-3    4.083885586006474E-3    4.119752578269860E-1   -1.845521163201620E-1
 8.117236666600000E9     5.042045199920570E-1   -3.619180021293185E-2    1.151484660072810E-3    4.045036673100129E-3    1.193395204062186E-3    4.086766284718471E-3    4.119029428378385E-1   -1.848961118903222E-1
 8.117240266300000E9     5.041835128243649E-1   -3.649097540706249E-2    1.132444027341119E-3    4.038393558855323E-3    1.201857085412303E-3    4.130229588771420E-3    4.117428732009290E-1   -1.850115486625267E-1
 8.117243866000000E9     5.041060971432835E-1   -3.685811784342295E-2    1.145011707588996E-3    4.090413169274104E-3    1.229226668765465E-3    4.139949040282954E-3    4.117862075430326E-1   -1.853946514107526E-1
