#  HZ   S   RI   R     50.00 
! Rohde & Schwarz Vector Network Analyzer 
! Rohde-Schwarz,ZNB20-2Port,1311601062101988,3.16
! Created: UTC 3/20/2024, 11:44:18 AM
! freq[Hz]                re:S11                  im:S11                  re:S21                  im:S21                  re:S12                  im:S12                  re:S22                  im:S22
 8.116789486000000E9     5.064940592088713E-1   -9.211222326366113E-4    7.134343095709391E-4    3.653746880334140E-3    7.432577962530708E-4    3.704812598772500E-3    4.227618618150887E-1   -1.553349824474830E-1
 8.116793586250000E9     5.064114475979582E-1   -1.256049341972071E-3    6.691592358413998E-4    3.637805367393553E-3    7.606973776633719E-4    3.687972930125684E-3    4.227052336247407E-1   -1.556614558722046E-1
 8.116797686500000E9     5.063030402722565E-1   -1.539803418343296E-3    7.005339683481545E-4    3.662843028313610E-3    7.642031529852908E-4    3.700728347200253E-3    4.225616209649022E-1   -1.558913406222548E-1
 8.116801786750000E9     5.063622394546753E-1   -1.842947412171610E-3    7.083554039461281E-4    3.653353903553920E-3    7.619421462723599E-4    3.722804156885095E-3    4.224548548611682E-1   -1.560742535932965E-1
 8.116805887000000E9     5.064723302057111E-1   -2.249003770295040E-3    7.045367614706194E-4    3.662098637222560E-3    7.517162029472277E-4    3.717226522891796E-3    4.224825198797935E-1   -1.564440928222966E-1
 8.116809987250000E9     5.063758508334191E-1   -2.441727924032915E-3    7.369047742552170E-4    3.647519057458100E-3    7.645031168193619E-4    3.742936272033733E-3    4.222927235604041E-1   -1.566956817379263E-1
 8.116814087500000E9     5.065064287791090E-1   -2.931455023544825E-3    7.048080263181871E-4    3.663560385242148E-3    7.869934711016259E-4    3.725384932245072E-3    4.222484754777593E-1   -1.569254078054303E-1
 8.116818187750000E9     5.064601379404581E-1   -3.232821729507780E-3    7.181874842722476E-4    3.679589497590570E-3    7.548182638970504E-4    3.711891532194282E-3    4.221269738054195E-1   -1.571296173595283E-1
 8.116822288000000E9     5.062836751027137E-1   -3.546899102731304E-3    7.335712313777449E-4    3.690343720331727E-3    7.810670208237734E-4    3.743342130037998E-3    4.220700900721633E-1   -1.576135152191073E-1
 8.116826388250000E9     5.064070578843789E-1   -3.788992532981796E-3    7.072586593173855E-4    3.677325432767395E-3    8.186544311406576E-4    3.694457586747798E-3    4.220755695999983E-1   -1.577673174843177E-1
 8.116830488500000E9     5.064122308325204E-1   -4.077433223852059E-3    7.304261414758419E-4    3.682489481138977E-3    7.864103925193254E-4    3.724877954830748E-3    4.219186129127314E-1   -1.581470149691216E-1
 8.116834588750000E9     5.063438572706112E-1   -4.471034164829091E-3    7.364862869577001E-4    3.696201048876337E-3    8.092484561842206E-4    3.707248716273066E-3    4.218946512557641E-1   -1.583557949397197E-1
 8.116838689000000E9     5.062399424547073E-1   -4.793326762144011E-3    7.358302297249962E-4    3.678107174418019E-3    7.869572022500501E-4    3.700383218274348E-3    4.219049841179183E-1   -1.585818921677700E-1
 8.116842789250000E9     5.064372640812178E-1   -5.072121558394236E-3    7.461826968601544E-4    3.700014590927676E-3    8.086514603760958E-4    3.756447946602744E-3    4.218190643297912E-1   -1.589895910726009E-1
 8.116846889500000E9     5.063265857642869E-1   -5.416904433564023E-3    7.539115034666896E-4    3.681859660551162E-3    8.012041006910914E-4    3.719276814017864E-3    4.216138126809610E-1   -1.591791415946929E-1
 8.116850989750000E9     5.062368239629255E-1   -5.761370728530458E-3    7.302405418523476E-4    3.677352666159003E-3    8.170923494822008E-4    3.739791935681329E-3    4.214934455631389E-1   -1.593353672727466E-1
 8.116855090000000E9     5.062130044616991E-1   -6.041423627566594E-3    7.385867608007069E-4    3.660822339344269E-3    7.990808182465042E-4    3.743726750120309E-3    4.213014554249743E-1   -1.596795629579320E-1
 8.116859190250000E9     5.062497870969879E-1   -6.366124099447467E-3    7.676775693720130E-4    3.708234834340330E-3    8.120161404500258E-4    3.772358955003092E-3    4.213207886869109E-1   -1.599540665114068E-1
 8.116863290500000E9     5.062722511911196E-1   -6.722559302322008E-3    7.687692338481468E-4    3.665514623285311E-3    7.925212411727057E-4    3.769039284183079E-3    4.211185213089587E-1   -1.601638320280451E-1
 8.116867390750000E9     5.062451029328565E-1   -7.010474305686451E-3    7.484413976801249E-4    3.686788079089014E-3    7.907407662834479E-4    3.742511972380399E-3    4.211320314542719E-1   -1.604076982953974E-1
 8.116871491000000E9     5.062600649180671E-1   -7.247142056920256E-3    7.866866913762573E-4    3.682471751879145E-3    7.919991725662399E-4    3.751248675606837E-3    4.209026287555189E-1   -1.607691400971217E-1
 8.116875591250000E9     5.061889085479739E-1   -7.552374345314634E-3    7.717936387474756E-4    3.694326346534239E-3    8.185233440216038E-4    3.762410177396563E-3    4.207834241764054E-1   -1.611320763321292E-1
 8.116879691500000E9     5.061943005180923E-1   -7.766296976702127E-3    7.673901200219594E-4    3.695171437333242E-3    8.211923337734811E-4    3.747943702289913E-3    4.208370898756519E-1   -1.612690140142164E-1
 8.116883791750000E9     5.061674042372356E-1   -8.270741681847599E-3    7.754924242095419E-4    3.679046212170885E-3    8.042862580008152E-4    3.747224928312959E-3    4.207521720963353E-1   -1.614441402969798E-1
 8.116887892000000E9     5.062777596664046E-1   -8.608114558438944E-3    7.850372676797263E-4    3.680852712901550E-3    8.099737634644126E-4    3.759914352064656E-3    4.206712517473010E-1   -1.618485857533714E-1
 8.116891992250000E9     5.061710894890094E-1   -8.914749885847048E-3    7.773876180397802E-4    3.705723217811096E-3    8.240533641610329E-4    3.750410326161799E-3    4.205299197009780E-1   -1.621184805361555E-1
 8.116896092500000E9     5.061516327975392E-1   -9.091386187941149E-3    7.953672302005714E-4    3.708173172445409E-3    8.254497953485138E-4    3.760455862796389E-3    4.204578601993935E-1   -1.623526684822240E-1
 8.116900192750000E9     5.061956330563099E-1   -9.477435184046923E-3    7.601172168162022E-4    3.719433038208894E-3    8.383608519309961E-4    3.804928942104796E-3    4.202948134570308E-1   -1.625569939197885E-1
 8.116904293000000E9     5.061615839766410E-1   -9.813540493340709E-3    8.077660767863919E-4    3.704233298342634E-3    8.354219903443285E-4    3.776814467674494E-3    4.203427986095026E-1   -1.630049042579902E-1
 8.116908393250000E9     5.060144466136649E-1   -1.014167949116778E-2    7.955546265022781E-4    3.707457070686537E-3    8.731469703582882E-4    3.754322372096788E-3    4.202632177922293E-1   -1.632880494571237E-1
 8.116912493500000E9     5.061801702546261E-1   -1.049166042556887E-2    8.129931278982213E-4    3.714072213185871E-3    8.968995677908894E-4    3.796603254704913E-3    4.201348549819109E-1   -1.634140754043466E-1
 8.116916593750000E9     5.060781196761808E-1   -1.073989486929240E-2    7.820472229663165E-4    3.710287599707214E-3    8.494394755801779E-4    3.789776365712233E-3    4.201073020896624E-1   -1.637959167343224E-1
 8.116920694000000E9     5.059681483123863E-1   -1.132387705566915E-2    8.317155617551925E-4    3.738176116438707E-3    8.828658030848646E-4    3.805477772160190E-3    4.197809780664211E-1   -1.639955517149658E-1
 8.116924794250000E9     5.061566225940652E-1   -1.140241860548497E-2    8.093197178868460E-4    3.707687497146376E-3    8.666754134558690E-4    3.783446710467929E-3    4.198460519810670E-1   -1.642640503055441E-1
 8.116928894500000E9     5.060375415406186E-1   -1.159191378793257E-2    8.091902934272705E-4    3.717431160234314E-3    8.639223775730229E-4    3.776993856261448E-3    4.197446791123578E-1   -1.645309546758293E-1
 8.116932994750000E9     5.059860501556441E-1   -1.204064817742727E-2    8.173338413565752E-4    3.725772681537680E-3    8.857181840070746E-4    3.780000401695536E-3    4.195303746437954E-1   -1.648446204301990E-1
 8.116937095000000E9     5.060277135429812E-1   -1.239073821557512E-2    8.178512172863034E-4    3.754909998812729E-3    8.743401635378592E-4    3.755056364198215E-3    4.195383118320120E-1   -1.651129025441732E-1
 8.116941195250000E9     5.060144175765420E-1   -1.261130884013780E-2    8.257904037308664E-4    3.726692488934764E-3    9.069999294360426E-4    3.795501903220797E-3    4.193976981760223E-1   -1.653243365105534E-1
 8.116945295500000E9     5.059602833213053E-1   -1.302241502100252E-2    8.313517599965863E-4    3.717299485688052E-3    9.108693992209955E-4    3.774991136031516E-3    4.194483444696567E-1   -1.656086123612898E-1
 8.116949395750000E9     5.060524890417942E-1   -1.343459368051179E-2    8.264841548170503E-4    3.712691758414892E-3    8.941795873401321E-4    3.817417257762161E-3    4.192550688348026E-1   -1.659499139669634E-1
 8.116953496000000E9     5.060543415691682E-1   -1.374126433513142E-2    8.338633163248803E-4    3.754549690443320E-3    9.076588025590140E-4    3.776207910499689E-3    4.192143110619760E-1   -1.662384752943166E-1
 8.116957596250000E9     5.058760805163723E-1   -1.401380837945726E-2    8.114223277954122E-4    3.778370773572560E-3    8.801968919934066E-4    3.785419769442232E-3    4.190155679532230E-1   -1.664061401667290E-1
 8.116961696500000E9     5.058342428048549E-1   -1.435286572404960E-2    8.207895671650710E-4    3.734351339915351E-3    8.610034301668077E-4    3.799926155404360E-3    4.190083566882946E-1   -1.667854768099153E-1
 8.116965796750000E9     5.058590205963296E-1   -1.457231732436404E-2    8.295450760339474E-4    3.767921298027849E-3    8.919692075877027E-4    3.800552414037378E-3    4.188645910007401E-1   -1.669209498691891E-1
 8.116969897000000E9     5.058015460562539E-1   -1.483896422562008E-2    8.423524939313210E-4    3.756782621278573E-3    9.071620319335959E-4    3.793365614247417E-3    4.189151293102811E-1   -1.673988021579746E-1
 8.116973997250000E9     5.058929806836642E-1   -1.535020332965113E-2    8.189111778836931E-4    3.782718027242511E-3    9.291456947720107E-4    3.801522119893600E-3    4.187321831355302E-1   -1.674781646631854E-1
 8.116978097500000E9     5.058862952384428E-1   -1.557059237620336E-2    8.884797048040700E-4    3.743547376761174E-3    9.319211809642459E-4    3.842397754049228E-3    4.187140714770833E-1   -1.677526338524263E-1
 8.116982197750000E9     5.057713811828863E-1   -1.590074719292447E-2    8.735474774610595E-4    3.779445680441420E-3    9.292460374551757E-4    3.818311968033108E-3    4.184918877110111E-1   -1.680724208984903E-1
 8.116986298000000E9     5.058190088414958E-1   -1.623658389109177E-2    8.459398391840938E-4    3.745181645097519E-3    8.981496358272730E-4    3.827595530376548E-3    4.184307102755727E-1   -1.684162695284890E-1
 8.116990398250000E9     5.057494980305673E-1   -1.661388878610081E-2    8.563951440261258E-4    3.775944670192027E-3    9.358381214041891E-4    3.827938820468783E-3    4.183680602143264E-1   -1.686841253049932E-1
 8.116994498500000E9     5.058353077791145E-1   -1.692444818369996E-2    8.575525875896344E-4    3.762627308801110E-3    9.378906060490691E-4    3.854308149885011E-3    4.182373320245192E-1   -1.689232252829105E-1
 8.116998598750000E9     5.058541816625263E-1   -1.716527001255222E-2    8.978922225906513E-4    3.769205250257871E-3    9.191890491958546E-4    3.794371116777000E-3    4.180953476401285E-1   -1.692334591919505E-1
 8.117002699000000E9     5.057389856275506E-1   -1.758066813741229E-2    8.739603377842052E-4    3.771719112340946E-3    9.378044669909630E-4    3.829289699042040E-3    4.178626706714186E-1   -1.694223463594057E-1
 8.117006799250000E9     5.056654553399046E-1   -1.773612072248655E-2    8.913750435579154E-4    3.795691342812684E-3    9.225825556686539E-4    3.843104805041198E-3    4.178430007888634E-1   -1.696713794906275E-1
 8.117010899500000E9     5.056681606446273E-1   -1.810455929074917E-2    8.788213728700040E-4    3.788648388045501E-3    9.517217417515036E-4    3.834352348083105E-3    4.177138816272706E-1   -1.699025693385859E-1
 8.117014999750000E9     5.057211609190183E-1   -1.849751493043239E-2    9.001540239061920E-4    3.794698714808560E-3    9.830942173529439E-4    3.805429606129684E-3    4.176549994899628E-1   -1.703145109195012E-1
 8.117019100000000E9     5.057000076868647E-1   -1.885930261752422E-2    9.001549850334779E-4    3.801959017926005E-3    9.575595873433149E-4    3.862381619896062E-3    4.175998873998983E-1   -1.705728120575434E-1
 8.117023200250000E9     5.056667270513141E-1   -1.911230063782035E-2    9.099442272034885E-4    3.813775534353130E-3    9.701009094420758E-4    3.855327372541994E-3    4.174760935701126E-1   -1.707983862144704E-1
 8.117027300500000E9     5.056021884965889E-1   -1.953849041866506E-2    8.788036276576472E-4    3.796008416228677E-3    9.693385893504825E-4    3.841802722154706E-3    4.174463351141506E-1   -1.709822583214941E-1
 8.117031400750000E9     5.056145595179202E-1   -1.975775679643266E-2    8.838489776264640E-4    3.814467227677499E-3    9.476839066148660E-4    3.887705274551620E-3    4.174244184034919E-1   -1.713280968073299E-1
 8.117035501000000E9     5.056355682259724E-1   -2.009196461565766E-2    9.026219657687871E-4    3.814156911946765E-3    9.493148582421562E-4    3.820762704953338E-3    4.171106273720268E-1   -1.715520835951513E-1
 8.117039601250000E9     5.055799840277088E-1   -2.034701125221577E-2    9.210701761461920E-4    3.799329458685810E-3    9.530188655656217E-4    3.852034654627866E-3    4.172062529989272E-1   -1.718800733589128E-1
 8.117043701500000E9     5.055429323120286E-1   -2.079341517359828E-2    9.116998904836469E-4    3.821493804626701E-3    9.945402760609488E-4    3.897280581958768E-3    4.171230193946516E-1   -1.721120866736356E-1
 8.117047801750000E9     5.054536548609140E-1   -2.107469366331204E-2    9.414947895499056E-4    3.846107806829483E-3    9.805392788013625E-4    3.903960049302200E-3    4.169709222222819E-1   -1.723869979176708E-1
 8.117051902000000E9     5.054217963646894E-1   -2.144027176322458E-2    9.342131412395362E-4    3.817591775273896E-3    9.958593046487474E-4    3.860966284039300E-3    4.168333156985072E-1   -1.727444534146765E-1
 8.117056002250000E9     5.054933020999111E-1   -2.162550271244436E-2    9.433768404596749E-4    3.813599541563210E-3    9.895553782289317E-4    3.891726819362425E-3    4.165773017739232E-1   -1.728870728726835E-1
 8.117060102500000E9     5.055259304165471E-1   -2.206596570941373E-2    9.488140219901465E-4    3.816659941442329E-3    1.003402967318818E-3    3.909642770685602E-3    4.167966609603125E-1   -1.731410909756718E-1
 8.117064202750000E9     5.054397911767395E-1   -2.246205117013049E-2    9.295412815750906E-4    3.872740152249958E-3    1.028945669990290E-3    3.890367189819842E-3    4.166146947138842E-1   -1.734838834832729E-1
 8.117068303000000E9     5.055197042283636E-1   -2.261907927555992E-2    9.366345559877382E-4    3.829558851732262E-3    1.010284079969701E-3    3.906328744364501E-3    4.165904646120001E-1   -1.737649172812968E-1
 8.117072403250000E9     5.054049964835241E-1   -2.303743827089992E-2    9.559529562625423E-4    3.850186829789136E-3    1.003308479997254E-3    3.931549474282304E-3    4.162594174268389E-1   -1.739707711412720E-1
 8.117076503500000E9     5.053092044746369E-1   -2.337822865835555E-2    9.607874619873452E-4    3.861534533231333E-3    1.009158824547108E-3    3.890656117271331E-3    4.160556672935330E-1   -1.742347669048734E-1
 8.117080603750000E9     5.053005813149422E-1   -2.381731391932086E-2    9.562562615771616E-4    3.852022791287562E-3    1.016352993067482E-3    3.901020426350530E-3    4.161502738449689E-1   -1.745028196717498E-1
 8.117084704000000E9     5.051868022267745E-1   -2.403205447774152E-2    9.483449928016236E-4    3.854450387590399E-3    1.023047139705692E-3    3.927909182470435E-3    4.160642679880158E-1   -1.746990767565672E-1
 8.117088804250000E9     5.052296758199393E-1   -2.435231855722662E-2    9.700005572979370E-4    3.869664792363854E-3    1.062025035061734E-3    3.935564769852206E-3    4.160073216740764E-1   -1.750753028489104E-1
 8.117092904500000E9     5.052521746907217E-1   -2.459569271347797E-2    9.678185939874761E-4    3.875796577301274E-3    1.008105241390647E-3    3.932979227119646E-3    4.159027379247347E-1   -1.754729426260537E-1
 8.117097004750000E9     5.052474723752144E-1   -2.497425067769744E-2    9.731929009242843E-4    3.876045495652653E-3    1.022520002891850E-3    3.941201841668246E-3    4.158101569384254E-1   -1.756092264612063E-1
 8.117101105000000E9     5.050498273118602E-1   -2.540311683784777E-2    9.706971759366790E-4    3.870289440678531E-3    1.039749577565481E-3    3.952126268532984E-3    4.155641471748943E-1   -1.759384557788476E-1
 8.117105205250000E9     5.051763924128679E-1   -2.567741521032890E-2    1.002425328537662E-3    3.882992208029192E-3    1.047853503113719E-3    3.930811520877984E-3    4.154258114730826E-1   -1.761107085723772E-1
 8.117109305500000E9     5.050851459779777E-1   -2.590695414711882E-2    9.882902231975550E-4    3.884829487313593E-3    1.060781529258557E-3    3.927685761143983E-3    4.154824195393790E-1   -1.764865460441424E-1
 8.117113405750000E9     5.050609043080185E-1   -2.618690263206922E-2    1.011830146120268E-3    3.879441887706079E-3    1.036745741928121E-3    3.983365339977257E-3    4.154627497141245E-1   -1.766751408659278E-1
 8.117117506000000E9     5.049627403845768E-1   -2.670862894827316E-2    1.019982612441423E-3    3.875609836119535E-3    1.035637097186218E-3    3.957690678362986E-3    4.153305687394011E-1   -1.769185267404612E-1
 8.117121606250000E9     5.051246605553005E-1   -2.700063124437793E-2    1.020113923382049E-3    3.887326858072247E-3    1.049016865826542E-3    3.963556875916166E-3    4.151872151404105E-1   -1.772021979957787E-1
 8.117125706500000E9     5.050136253013443E-1   -2.728205928162726E-2    1.015045916792322E-3    3.905363635216084E-3    1.095083709378662E-3    3.944679428510913E-3    4.150395642503627E-1   -1.774685259552881E-1
 8.117129806750000E9     5.050113818202658E-1   -2.772403447873524E-2    1.027256576882549E-3    3.911637428403451E-3    1.116636096915050E-3    3.938467872709979E-3    4.150616716691752E-1   -1.777600443774352E-1
 8.117133907000000E9     5.049641382517471E-1   -2.790816513146968E-2    1.028626677577743E-3    3.913578035678765E-3    1.094820427957812E-3    3.945999915726389E-3    4.147749784639808E-1   -1.779408291123265E-1
 8.117138007250000E9     5.050792586593948E-1   -2.829863165180398E-2    1.022825361146260E-3    3.940218162765928E-3    1.092787110867316E-3    3.974577268439377E-3    4.147212055319369E-1   -1.783536331698644E-1
 8.117142107500000E9     5.049336670569657E-1   -2.863094180803144E-2    1.039593299435033E-3    3.918614523310090E-3    1.116605388993644E-3    3.982414530278450E-3    4.146675599182199E-1   -1.784709849709050E-1
 8.117146207750000E9     5.049230013393854E-1   -2.899498624151419E-2    1.039993980202972E-3    3.931366054142600E-3    1.089625755749431E-3    3.997904002203298E-3    4.146510251936902E-1   -1.788189345340929E-1
 8.117150308000000E9     5.048150258886953E-1   -2.929823647830965E-2    1.081722457715004E-3    3.952004093751228E-3    1.097867738592854E-3    4.000594977917135E-3    4.143906982593691E-1   -1.790563726577267E-1
 8.117154408250000E9     5.048251779568383E-1   -2.959356576924345E-2    1.078447341988351E-3    3.962383754805203E-3    1.130459115492895E-3    4.010016248262961E-3    4.143541620248067E-1   -1.792856284184457E-1
 8.117158508500000E9     5.047932091167376E-1   -2.994776179630340E-2    1.057430933271989E-3    3.931332699702407E-3    1.108071616235296E-3    3.979492772603554E-3    4.142598126559764E-1   -1.794568522711678E-1
