#  HZ   S   RI   R     50.00 
! Rohde & Schwarz Vector Network Analyzer 
! Rohde-Schwarz,ZNB20-2Port,1311601062101988,3.16
! Created: UTC 3/20/2024, 11:46:51 AM
! freq[Hz]                re:S11                  im:S11                  re:S21                  im:S21                  re:S12                  im:S12                  re:S22                  im:S22
 8.116488052000000E9     5.063611862813641E-1    2.200369883406898E-2    5.112922892090495E-4    3.583097529465748E-3    5.541789150313522E-4    3.609471291913949E-3    4.289219529491825E-1   -1.348062450320398E-1
 8.116493314275000E9     5.063656317887267E-1    2.151826046350641E-2    5.155666973536666E-4    3.579525868771920E-3    5.544062805837916E-4    3.617114680574880E-3    4.288932410921231E-1   -1.352337727230558E-1
 8.116498576550000E9     5.063474856380392E-1    2.105042231920454E-2    5.319306881750417E-4    3.572981467883963E-3    5.804513241487438E-4    3.636185670783236E-3    4.287508943247151E-1   -1.356812396420150E-1
 8.116503838825000E9     5.063535472240466E-1    2.066618130846879E-2    5.298191323582778E-4    3.574347718663340E-3    5.810166356553597E-4    3.589380990224697E-3    4.286568153517570E-1   -1.359780551068777E-1
 8.116509101100000E9     5.064286340865500E-1    2.035243136618621E-2    5.373293892079512E-4    3.580095963033961E-3    5.542954139813716E-4    3.622457294968930E-3    4.285000005472746E-1   -1.363342190102868E-1
 8.116514363375000E9     5.064119639902421E-1    1.988285807199945E-2    5.193440603871454E-4    3.568572983023186E-3    5.610824008049008E-4    3.641426010237425E-3    4.285202024027592E-1   -1.367786327119546E-1
 8.116519625650000E9     5.063941294215786E-1    1.942099789945780E-2    5.212408665048487E-4    3.566642913696759E-3    5.739710811239114E-4    3.618112957841385E-3    4.283791527017635E-1   -1.369372602939943E-1
 8.116524887925000E9     5.064321598359712E-1    1.905082268063608E-2    5.243225169314341E-4    3.566134527324854E-3    6.109838758763807E-4    3.635637753602654E-3    4.282268015986420E-1   -1.374607453374098E-1
 8.116530150200000E9     5.065480341678317E-1    1.870697115353666E-2    5.295320615327866E-4    3.596289283081011E-3    5.961930856091684E-4    3.614931131261718E-3    4.281684237850215E-1   -1.377312365999082E-1
 8.116535412475000E9     5.065707293684319E-1    1.826720775918560E-2    5.398053817512470E-4    3.575473263174686E-3    5.896500461199474E-4    3.619612828574182E-3    4.279245901462690E-1   -1.380976745517422E-1
 8.116540674750000E9     5.064486791749163E-1    1.790929743290862E-2    5.559216902479455E-4    3.582285952566118E-3    6.137180069497210E-4    3.645572505076239E-3    4.278962574806491E-1   -1.384714592902100E-1
 8.116545937025000E9     5.064582072147300E-1    1.750023124095788E-2    5.435678971178471E-4    3.563720359915962E-3    5.991283171705625E-4    3.611945033457204E-3    4.278098895161809E-1   -1.387974255061288E-1
 8.116551199300000E9     5.065507912992250E-1    1.715141497687469E-2    5.441441785390908E-4    3.596542274551404E-3    6.078790034461712E-4    3.623156407619435E-3    4.277892887847031E-1   -1.391221464661312E-1
 8.116556461575000E9     5.065353653305713E-1    1.671688415805426E-2    5.511922632443709E-4    3.568667245619795E-3    6.058940726964818E-4    3.636953349642962E-3    4.275971693622505E-1   -1.395984881610900E-1
 8.116561723850000E9     5.064362333644165E-1    1.625025350917947E-2    5.565604882055441E-4    3.588626886511467E-3    5.963738577570937E-4    3.603810405582224E-3    4.275833067476784E-1   -1.397944005618844E-1
 8.116566986125000E9     5.065226941385664E-1    1.595716126026734E-2    5.457040810988203E-4    3.591752590842409E-3    5.934492493573822E-4    3.663958431274767E-3    4.272980790936212E-1   -1.402755206254238E-1
 8.116572248400000E9     5.064719117799282E-1    1.553795103609784E-2    5.773476176248729E-4    3.598014916297548E-3    6.099013107261160E-4    3.638085144158172E-3    4.273040540107224E-1   -1.405816989781219E-1
 8.116577510675000E9     5.065186550350531E-1    1.514564588996349E-2    5.719364156638048E-4    3.598686250107762E-3    6.289665105528104E-4    3.646824512081548E-3    4.272041922165348E-1   -1.408917224207306E-1
 8.116582772950000E9     5.064703250391916E-1    1.467477444765579E-2    5.620814609507160E-4    3.564910106586463E-3    6.334996003249890E-4    3.602169589866045E-3    4.270785846989964E-1   -1.412220918644947E-1
 8.116588035225000E9     5.065658691657565E-1    1.432604791733488E-2    5.919496649159614E-4    3.627041950242372E-3    6.465003801312738E-4    3.639457106941163E-3    4.268729485551254E-1   -1.415064656928415E-1
 8.116593297500000E9     5.064929332416538E-1    1.387672383889096E-2    5.993407865692859E-4    3.618588770639246E-3    6.195003887012245E-4    3.667900814430827E-3    4.268994068523755E-1   -1.419665504171272E-1
 8.116598559775000E9     5.065578466249396E-1    1.347057460373459E-2    5.910269295197880E-4    3.609698906876106E-3    6.507858776952969E-4    3.674400685988824E-3    4.269042433148013E-1   -1.423363245652720E-1
 8.116603822050000E9     5.066481051386941E-1    1.303942953765597E-2    5.700017763271481E-4    3.629725997632214E-3    6.103764131403103E-4    3.625656413457745E-3    4.267179011538779E-1   -1.425602160812358E-1
 8.116609084325000E9     5.064981467850693E-1    1.270588616016172E-2    5.775733899591059E-4    3.600907731848137E-3    6.669163240035715E-4    3.666470632573320E-3    4.265658013332075E-1   -1.429296305235830E-1
 8.116614346600000E9     5.065418823104308E-1    1.232873739798306E-2    5.936063890379326E-4    3.569746940492515E-3    6.431214703545159E-4    3.694147271972450E-3    4.264530678114959E-1   -1.433392797342867E-1
 8.116619608875000E9     5.065636243869386E-1    1.185352278849480E-2    5.908990098878921E-4    3.593255304991945E-3    6.831859533286286E-4    3.668733243278003E-3    4.265021793686224E-1   -1.436047129572029E-1
 8.116624871150000E9     5.066436997302467E-1    1.150958794837800E-2    5.891595326399947E-4    3.589909779576590E-3    6.517427121518744E-4    3.644768625678368E-3    4.264264809817715E-1   -1.440383884529843E-1
 8.116630133425000E9     5.065195485940774E-1    1.100721990965589E-2    5.805750872322196E-4    3.583887628117545E-3    6.631029672843493E-4    3.690874572942164E-3    4.262115447806810E-1   -1.442687183628132E-1
 8.116635395700000E9     5.064420202239164E-1    1.074730617809661E-2    6.087227098463153E-4    3.605403846378950E-3    6.808742510774534E-4    3.654547687631325E-3    4.260396790649751E-1   -1.448381274265950E-1
 8.116640657975000E9     5.066119122138142E-1    1.026878291725711E-2    5.886284975201039E-4    3.608286176321982E-3    6.715409692976447E-4    3.673040325621416E-3    4.259736018627757E-1   -1.451333910187038E-1
 8.116645920250000E9     5.065744034713267E-1    9.972949355109039E-3    6.107706195826319E-4    3.601399079456352E-3    6.547379761650928E-4    3.663224141472447E-3    4.258755867471579E-1   -1.455587727900909E-1
 8.116651182525000E9     5.065364226030308E-1    9.482135930984291E-3    6.220239509262388E-4    3.624676203177966E-3    6.953095296877758E-4    3.699802371210620E-3    4.257835328354654E-1   -1.458780331014116E-1
 8.116656444800000E9     5.065246045147936E-1    9.021513319680147E-3    6.089624837403115E-4    3.630254779824810E-3    6.542507296041255E-4    3.672411382709737E-3    4.255773314767577E-1   -1.461619088851419E-1
 8.116661707075000E9     5.065758681536717E-1    8.718902277479174E-3    6.387694239261949E-4    3.629419633698976E-3    6.772442988609395E-4    3.664894862785967E-3    4.255780676985174E-1   -1.463209991402920E-1
 8.116666969350000E9     5.064355491490896E-1    8.327510026417153E-3    6.127299797205449E-4    3.602732055452616E-3    6.795656567447661E-4    3.682246443857605E-3    4.254806994219891E-1   -1.469736958175540E-1
 8.116672231625000E9     5.065359468308783E-1    7.848488617639369E-3    6.434478111856232E-4    3.619245752638686E-3    6.745800595939919E-4    3.681411410489859E-3    4.253185205642133E-1   -1.472555565078060E-1
 8.116677493900000E9     5.066155518317205E-1    7.500005954960302E-3    6.311093994367846E-4    3.620726445773349E-3    6.790267225598057E-4    3.667893050967176E-3    4.252066405040918E-1   -1.476597017374443E-1
 8.116682756175000E9     5.065229139814883E-1    6.979607750717475E-3    6.530569202136882E-4    3.634959954925473E-3    6.813582578164543E-4    3.681533802912608E-3    4.250529795017350E-1   -1.478937182487526E-1
 8.116688018450000E9     5.064566155631949E-1    6.634308897840403E-3    6.396767311943503E-4    3.628620145784843E-3    7.060323544631210E-4    3.670502908850690E-3    4.248913571600353E-1   -1.482493799584843E-1
 8.116693280725000E9     5.065085159829216E-1    6.372511268554941E-3    6.401189989331935E-4    3.664909651592566E-3    7.118683203208757E-4    3.688076361603085E-3    4.249983032442509E-1   -1.486642339911556E-1
 8.116698543000000E9     5.065711488983466E-1    5.920852858252030E-3    6.427985413061065E-4    3.610273522569055E-3    6.983016378877157E-4    3.685059050526907E-3    4.246195705280918E-1   -1.489597672086740E-1
 8.116703805275000E9     5.064761195427954E-1    5.461658644627641E-3    6.480247622847329E-4    3.636349867632797E-3    6.919513295893013E-4    3.692858793476709E-3    4.247632700307937E-1   -1.493569299359943E-1
 8.116709067550000E9     5.064614562321254E-1    5.127716031266481E-3    6.536143147493724E-4    3.642453160020380E-3    6.955281018512520E-4    3.716732025206790E-3    4.246078190222699E-1   -1.498129615340566E-1
 8.116714329825000E9     5.065592735823367E-1    4.697261098350581E-3    6.750552553880916E-4    3.669557733214934E-3    7.359325016143113E-4    3.699013919015187E-3    4.244142025081283E-1   -1.500272411740242E-1
 8.116719592100000E9     5.065653190956080E-1    4.272710678223201E-3    6.485017640394369E-4    3.639850156173975E-3    7.682196518463183E-4    3.705098498895605E-3    4.243031100481932E-1   -1.504475202540101E-1
 8.116724854375000E9     5.064405546062838E-1    3.955198907610847E-3    6.832061014030628E-4    3.632735880920163E-3    7.474410798914410E-4    3.717221631610856E-3    4.243225555723439E-1   -1.507448308852948E-1
 8.116730116650000E9     5.064407380176343E-1    3.488621493122999E-3    6.906923386819821E-4    3.657304123080477E-3    6.889615892874943E-4    3.709482145093462E-3    4.241178204611115E-1   -1.510507844595684E-1
 8.116735378925000E9     5.065774236567734E-1    3.027035690832337E-3    6.712687950856407E-4    3.641321264950865E-3    7.478568408538076E-4    3.680683908354348E-3    4.240489763524385E-1   -1.513590448060879E-1
 8.116740641200000E9     5.065969236104235E-1    2.644678920708345E-3    7.008689395111678E-4    3.652975551330500E-3    7.631109039520904E-4    3.695707539143098E-3    4.238809345428843E-1   -1.518228675157537E-1
 8.116745903475000E9     5.064318912740537E-1    2.258437142196694E-3    6.687843136818821E-4    3.670588211015505E-3    7.312118521344413E-4    3.665862132246279E-3    4.237902716553111E-1   -1.521116717304839E-1
 8.116751165750000E9     5.065627561467497E-1    1.819195145855182E-3    6.800342830690205E-4    3.620802848133886E-3    7.577308786323720E-4    3.728949570753596E-3    4.236986072771312E-1   -1.523971084438964E-1
 8.116756428025000E9     5.064559477972594E-1    1.418581662892815E-3    7.013650139348344E-4    3.659685423248756E-3    7.478396801554165E-4    3.726948934201620E-3    4.236299442138627E-1   -1.527131153781188E-1
 8.116761690300000E9     5.064022740078694E-1    9.484883579937642E-4    7.080754775274929E-4    3.675153043973374E-3    7.539735532075568E-4    3.731419743601839E-3    4.234382953367676E-1   -1.532614170313943E-1
 8.116766952575000E9     5.064658228118982E-1    6.908629832615179E-4    6.786783483282000E-4    3.656966939704695E-3    7.740755471200800E-4    3.715725487861434E-3    4.234117053032485E-1   -1.534954933701151E-1
 8.116772214850000E9     5.064091740625351E-1    2.846509721668391E-4    6.847611982739725E-4    3.685885487245385E-3    7.738644604264467E-4    3.694710426536276E-3    4.232824344022719E-1   -1.538487783407217E-1
 8.116777477125000E9     5.063563091582174E-1   -1.521666079841453E-4    6.924710148132154E-4    3.656538015493938E-3    7.754336553813086E-4    3.723620497870886E-3    4.230371421245825E-1   -1.542650430370453E-1
 8.116782739400000E9     5.065173799811996E-1   -5.602015903830947E-4    7.132154278761972E-4    3.652011809319423E-3    7.419719561988197E-4    3.722032946529848E-3    4.230011182426877E-1   -1.544867682055501E-1
 8.116788001675000E9     5.064552468147941E-1   -1.058548498956330E-3    6.906592989739842E-4    3.653045974554539E-3    8.104857046681096E-4    3.728320275221566E-3    4.229478132956357E-1   -1.549295781808787E-1
 8.116793263950000E9     5.063219230696349E-1   -1.445393105539758E-3    7.265464927971098E-4    3.652187575197335E-3    7.785394214592434E-4    3.721376369928141E-3    4.228366446372844E-1   -1.552957344542554E-1
 8.116798526225000E9     5.064197145969542E-1   -1.819966352997829E-3    7.239620273651065E-4    3.684101223409499E-3    8.355693455976734E-4    3.716323915220191E-3    4.226058252258523E-1   -1.555874699489800E-1
 8.116803788500000E9     5.063975195447963E-1   -2.206143219033498E-3    7.258820547506689E-4    3.693430663856167E-3    7.637143769533667E-4    3.744504240457499E-3    4.226621461908602E-1   -1.560053275352987E-1
 8.116809050775000E9     5.063117063194323E-1   -2.580857309918595E-3    7.454715537628990E-4    3.673786460507252E-3    7.757803947078479E-4    3.745390234934364E-3    4.226102528230618E-1   -1.563191381531494E-1
 8.116814313050000E9     5.064514841388660E-1   -2.957374605219994E-3    7.184974541429817E-4    3.687313053507671E-3    7.735823199691496E-4    3.770458543141782E-3    4.224340079811591E-1   -1.567048637037450E-1
 8.116819575325000E9     5.063021346792193E-1   -3.442766139662336E-3    7.241688727131206E-4    3.687368286176853E-3    8.202479619890242E-4    3.737841659053056E-3    4.222052512578535E-1   -1.569838255739992E-1
 8.116824837600000E9     5.063950592349366E-1   -3.855798588515526E-3    7.397876989488399E-4    3.693479268731129E-3    7.777296710206451E-4    3.788785866261208E-3    4.221025617464650E-1   -1.572084087574678E-1
 8.116830099875000E9     5.063708139815344E-1   -4.324594004683009E-3    7.268056291714518E-4    3.725463824800221E-3    8.112963504728026E-4    3.757628901203270E-3    4.220317796948139E-1   -1.576568359701774E-1
 8.116835362150000E9     5.063425421638360E-1   -4.507622989195043E-3    7.710123994990108E-4    3.710273215347383E-3    7.840526163410601E-4    3.763929785067770E-3    4.218756033340794E-1   -1.581302764262317E-1
 8.116840624425000E9     5.063174709992171E-1   -5.024713539157797E-3    7.732988464165866E-4    3.676004548591049E-3    8.137047521210539E-4    3.750404775771338E-3    4.217930342917717E-1   -1.583965663083573E-1
 8.116845886700000E9     5.062888372178261E-1   -5.513012738239210E-3    7.502872358374382E-4    3.699170337918116E-3    8.121326624379268E-4    3.773408352231724E-3    4.217316156385398E-1   -1.587862663989803E-1
 8.116851148975000E9     5.063585129929612E-1   -5.849760928997550E-3    7.675568516802839E-4    3.698507246321250E-3    8.203419614423491E-4    3.755002496864651E-3    4.214567951729309E-1   -1.590539112867569E-1
 8.116856411250000E9     5.063061700037031E-1   -6.197403842810399E-3    7.897841580651309E-4    3.681892422415126E-3    8.777818866193427E-4    3.793061265789578E-3    4.215696585010928E-1   -1.593607568460341E-1
 8.116861673525000E9     5.061923353601299E-1   -6.743343592002355E-3    7.667916866856389E-4    3.718599693340092E-3    8.103939939535797E-4    3.783109401418162E-3    4.214893635516670E-1   -1.599302862640910E-1
 8.116866935800000E9     5.062719361916850E-1   -7.146971786093254E-3    7.673921215808736E-4    3.710552723475296E-3    8.108041522016481E-4    3.776240840297534E-3    4.211975612449121E-1   -1.601844483848437E-1
 8.116872198075000E9     5.062069287155585E-1   -7.552553989165039E-3    7.893871476002050E-4    3.719392223077577E-3    8.303440129177641E-4    3.783293391145026E-3    4.210843859851987E-1   -1.604577297986288E-1
 8.116877460350000E9     5.060568169343007E-1   -7.951639411304478E-3    8.154101616692069E-4    3.714266359858978E-3    8.189840539063946E-4    3.814461048467341E-3    4.210402597360827E-1   -1.608686289203455E-1
 8.116882722625000E9     5.062249733391034E-1   -8.249262438963153E-3    8.279039801744535E-4    3.734637212452901E-3    8.314418967996359E-4    3.777813383439046E-3    4.208663200746700E-1   -1.611911487198865E-1
 8.116887984900000E9     5.060870406535791E-1   -8.746836064846050E-3    8.078314210807469E-4    3.752097313246588E-3    8.625335582996271E-4    3.780858526619158E-3    4.207490754828960E-1   -1.615533069785606E-1
 8.116893247175000E9     5.061918454591495E-1   -9.110825948093015E-3    7.966940233727818E-4    3.751009967450759E-3    8.351555121963119E-4    3.785797978313819E-3    4.207154106768458E-1   -1.618030107816341E-1
 8.116898509450000E9     5.060847616313093E-1   -9.596740855496493E-3    8.006813202930789E-4    3.733310955637867E-3    8.571188811583151E-4    3.782877305179453E-3    4.205928285530651E-1   -1.621354844013541E-1
 8.116903771725000E9     5.062204613873871E-1   -9.915542507915119E-3    8.157704372393851E-4    3.728925945283865E-3    8.705189262651566E-4    3.819888495370610E-3    4.203839959631415E-1   -1.626875839137104E-1
 8.116909034000000E9     5.061170536382917E-1   -1.035818453878935E-2    8.307879319518608E-4    3.751823095675406E-3    8.553162244677548E-4    3.816692111714949E-3    4.204538075840995E-1   -1.628600950088620E-1
 8.116914296275000E9     5.061041001945773E-1   -1.078545732156767E-2    8.038420603467686E-4    3.777240950611497E-3    8.903321203142832E-4    3.806324228790010E-3    4.201754835557916E-1   -1.632640803182318E-1
 8.116919558550000E9     5.061170609615417E-1   -1.112707144207172E-2    8.134127577586844E-4    3.777886456068808E-3    8.998058652593149E-4    3.790717847442546E-3    4.200256993657835E-1   -1.635288652459492E-1
 8.116924820825000E9     5.060592797699558E-1   -1.150624369461921E-2    8.501262372169297E-4    3.758888188320876E-3    9.136613388772620E-4    3.826872503918961E-3    4.199237430104278E-1   -1.638583499190680E-1
 8.116930083100000E9     5.060049036399261E-1   -1.199147445188693E-2    8.425349545548971E-4    3.757429436360408E-3    8.899404723625034E-4    3.838762582533168E-3    4.198547366080471E-1   -1.642849502253148E-1
 8.116935345375000E9     5.059619835194129E-1   -1.242736067935167E-2    8.580907676742410E-4    3.750267885418351E-3    8.923927385335179E-4    3.805505819339302E-3    4.197269170373495E-1   -1.646294220962274E-1
 8.116940607650000E9     5.060451274176864E-1   -1.282489042545383E-2    8.454098024606328E-4    3.797033232981103E-3    8.895805790441716E-4    3.838674123938938E-3    4.194893719776403E-1   -1.649779326755120E-1
 8.116945869925000E9     5.060516880490027E-1   -1.330791395556924E-2    8.640437723126137E-4    3.773545177848741E-3    8.848705556256496E-4    3.813498630004667E-3    4.194983744759818E-1   -1.653222811778723E-1
 8.116951132200000E9     5.059089536455000E-1   -1.367541564741415E-2    8.219666930740976E-4    3.798454798733896E-3    9.135271292836675E-4    3.860282190219887E-3    4.194128763515966E-1   -1.656625197463217E-1
 8.116956394475000E9     5.059897735562179E-1   -1.406995800809953E-2    8.799775570202584E-4    3.758674236135915E-3    9.155043128316702E-4    3.830478686066947E-3    4.193225960539387E-1   -1.659504223186990E-1
 8.116961656750000E9     5.058708757120877E-1   -1.457947456947567E-2    8.731044975767804E-4    3.802193742980348E-3    9.213491820767239E-4    3.852764296232315E-3    4.190611679730354E-1   -1.663633021098017E-1
