#  HZ   S   RI   R     50.00 
! Rohde & Schwarz Vector Network Analyzer 
! Rohde-Schwarz,ZNB20-2Port,1311601062101988,3.16
! Created: UTC 3/20/2024, 11:47:11 AM
! freq[Hz]                re:S11                  im:S11                  re:S21                  im:S21                  re:S12                  im:S12                  re:S22                  im:S22
 8.116439908000000E9     5.062967781520673E-1    2.569145903222663E-2    4.746337440016416E-4    3.556497785242882E-3    5.056048415465505E-4    3.591867296305662E-3    4.296830381683984E-1   -1.316755023226820E-1
 8.116445364150000E9     5.061398243333286E-1    2.503131527387114E-2    4.860906386190568E-4    3.546015154820954E-3    5.092775060253446E-4    3.609542485494147E-3    4.297560186663801E-1   -1.320292429873716E-1
 8.116450820300000E9     5.063221719420891E-1    2.464303814242340E-2    4.981621853377354E-4    3.573670840089790E-3    5.274782434467316E-4    3.619615301709832E-3    4.296368772667384E-1   -1.323004603504345E-1
 8.116456276450000E9     5.063473669920050E-1    2.419166245227462E-2    4.870109012864174E-4    3.571527193817848E-3    5.638663296764007E-4    3.601375224840654E-3    4.294952547024431E-1   -1.327675757874444E-1
 8.116461732600000E9     5.062778984194908E-1    2.375196354532852E-2    4.892432651768096E-4    3.577398705459513E-3    5.638988589520986E-4    3.630124262190730E-3    4.293870566832639E-1   -1.330006119532472E-1
 8.116467188750000E9     5.064289756723730E-1    2.343098692895362E-2    5.000595135243015E-4    3.573468526068305E-3    5.462430892960939E-4    3.591876989011463E-3    4.292735625667546E-1   -1.334551071514856E-1
 8.116472644900000E9     5.063412124228759E-1    2.305908467931211E-2    4.915614743359168E-4    3.544717704065524E-3    5.535924023735916E-4    3.605376015662992E-3    4.291154611165818E-1   -1.338270301589846E-1
 8.116478101050000E9     5.063439166246536E-1    2.256566524482887E-2    5.206473989535296E-4    3.538875831593746E-3    5.557098381482155E-4    3.619715820456641E-3    4.291534601638778E-1   -1.340008506681024E-1
 8.116483557200000E9     5.063483335180421E-1    2.217648864239767E-2    4.943648797360726E-4    3.558559416484731E-3    5.713974556451478E-4    3.601437913074365E-3    4.289965946544927E-1   -1.346843554165321E-1
 8.116489013350000E9     5.063929883381415E-1    2.173740356580452E-2    5.024000508885827E-4    3.580583264388084E-3    5.392480614871686E-4    3.643457678907858E-3    4.287906540654033E-1   -1.348652895034313E-1
 8.116494469500000E9     5.063212115596532E-1    2.140174831641538E-2    5.334600867931616E-4    3.574427104864062E-3    5.511630090845098E-4    3.627079561018408E-3    4.288813544117378E-1   -1.352997273803232E-1
 8.116499925650000E9     5.062616050076323E-1    2.077353873333371E-2    5.175252559408893E-4    3.573302704175816E-3    5.728904376006826E-4    3.642105437986153E-3    4.287518080769925E-1   -1.356843281314802E-1
 8.116505381800000E9     5.063695012319986E-1    2.055988166530798E-2    5.285834622762864E-4    3.573213146327469E-3    6.040761573193758E-4    3.656900329213336E-3    4.286191556477519E-1   -1.360196914671831E-1
 8.116510837950000E9     5.064277293278416E-1    2.013948720737021E-2    5.254980809069962E-4    3.598200896362402E-3    5.811924184791240E-4    3.645803058140232E-3    4.284783436340770E-1   -1.364414343480239E-1
 8.116516294100000E9     5.063703704757059E-1    1.964945111051447E-2    5.237859310951812E-4    3.535079764165538E-3    6.181496793613521E-4    3.603258958092057E-3    4.283615759686548E-1   -1.368396405820916E-1
 8.116521750250000E9     5.063897569717737E-1    1.921638989123686E-2    5.605744511356772E-4    3.561307602927973E-3    5.921879979981065E-4    3.623645221899420E-3    4.283021110621692E-1   -1.370465740002964E-1
 8.116527206400000E9     5.064098127555481E-1    1.881069802055998E-2    5.491574373376951E-4    3.570456802871708E-3    6.065720792441744E-4    3.632077927350533E-3    4.282307659964315E-1   -1.375460211120670E-1
 8.116532662550000E9     5.063872748528466E-1    1.834197524292657E-2    5.534725083175038E-4    3.614787990413582E-3    5.573993769463999E-4    3.654475367940240E-3    4.281089254313354E-1   -1.378103211233290E-1
 8.116538118700000E9     5.064996771119521E-1    1.799601610420555E-2    5.457138234172594E-4    3.546623525705172E-3    5.854170964320877E-4    3.638560828253900E-3    4.280132276800144E-1   -1.382693320659217E-1
 8.116543574850000E9     5.065224571259358E-1    1.760741762158607E-2    5.307789622536909E-4    3.544062390497341E-3    6.063579493132422E-4    3.635702954921163E-3    4.278278083202595E-1   -1.385632149156465E-1
 8.116549031000000E9     5.065497499453739E-1    1.716427211215135E-2    5.426346185512677E-4    3.571433438674809E-3    5.644116500776845E-4    3.646225213889553E-3    4.277820177492784E-1   -1.389383403227477E-1
 8.116554487150000E9     5.065014093900961E-1    1.679477528633624E-2    5.475417394731093E-4    3.615670961928189E-3    6.259693377543747E-4    3.640060989615394E-3    4.276149603710668E-1   -1.393298680547491E-1
 8.116559943300000E9     5.063865229766364E-1    1.636896397787715E-2    5.732978533055901E-4    3.602172023028556E-3    6.152899564599828E-4    3.612835552591840E-3    4.276545974373840E-1   -1.396743690535932E-1
 8.116565399450000E9     5.065557309037140E-1    1.596402947295438E-2    5.448696112458055E-4    3.559786811367111E-3    6.128956811238205E-4    3.619879291703381E-3    4.274572933004624E-1   -1.401675153861504E-1
 8.116570855600000E9     5.064382193767486E-1    1.534812126235901E-2    5.568369249549069E-4    3.590308811103611E-3    6.006707732984775E-4    3.651772702201246E-3    4.272780394341304E-1   -1.403466664474763E-1
 8.116576311750000E9     5.065267654021873E-1    1.508601283783326E-2    5.546631779909512E-4    3.604289020586882E-3    6.100026391418941E-4    3.626852816362772E-3    4.273732220265964E-1   -1.406976989272142E-1
 8.116581767900000E9     5.065258153663342E-1    1.469454572379579E-2    5.646795883984140E-4    3.582073212188431E-3    6.140195701951801E-4    3.672310317054550E-3    4.270787437710845E-1   -1.411509526080379E-1
 8.116587224050000E9     5.066163657731724E-1    1.430091422128019E-2    5.833035586246034E-4    3.586320742771809E-3    6.233041713623622E-4    3.648527699056001E-3    4.269939914999906E-1   -1.415017273244492E-1
 8.116592680200000E9     5.065605529717901E-1    1.388565569351147E-2    5.990378806340604E-4    3.590842160552999E-3    6.485249113445765E-4    3.653894214997868E-3    4.270005846831730E-1   -1.419068421473254E-1
 8.116598136350000E9     5.065230996510878E-1    1.333929272249936E-2    5.789207492284959E-4    3.575715192182536E-3    6.600383893044882E-4    3.667917358991945E-3    4.267812016081597E-1   -1.421238279792687E-1
 8.116603592500000E9     5.065843382126950E-1    1.299138750867057E-2    5.927989615079944E-4    3.605776524179142E-3    6.636451754651164E-4    3.631343320916310E-3    4.267031580507737E-1   -1.425947031169981E-1
 8.116609048650000E9     5.065470572752139E-1    1.263757137104861E-2    5.808608118688737E-4    3.602444461198069E-3    6.570979046103025E-4    3.658218706142836E-3    4.267628146358206E-1   -1.428559371571306E-1
 8.116614504800000E9     5.066246574452680E-1    1.218537529459343E-2    5.933370944102768E-4    3.628531901113761E-3    6.067997972805705E-4    3.673999089147774E-3    4.266135728557482E-1   -1.433983226760157E-1
 8.116619960950000E9     5.064566504443313E-1    1.173894743638881E-2    6.116730919154185E-4    3.597689133902078E-3    6.838313890246391E-4    3.697040423656945E-3    4.264226982314153E-1   -1.438056367202435E-1
 8.116625417100000E9     5.065826133299122E-1    1.128549956706711E-2    6.090426476563014E-4    3.627622316825802E-3    6.701695107196857E-4    3.642873719470023E-3    4.263598754850735E-1   -1.440697855580400E-1
 8.116630873250000E9     5.065471898972302E-1    1.088800731761521E-2    6.209216552429240E-4    3.605722999262516E-3    6.587919786523144E-4    3.629777666981290E-3    4.262520191703679E-1   -1.445216795153441E-1
 8.116636329400000E9     5.066274691365815E-1    1.045273698917864E-2    6.001739203785927E-4    3.634100681978818E-3    6.663870631793357E-4    3.662761862131848E-3    4.260927347725835E-1   -1.447431825421746E-1
 8.116641785550000E9     5.065163007287387E-1    1.005186647294255E-2    6.030103144209831E-4    3.633643644673034E-3    6.902157320202635E-4    3.659956370953843E-3    4.259615647070045E-1   -1.451278860882194E-1
 8.116647241700000E9     5.065303274793689E-1    9.652950144030972E-3    6.315896677024821E-4    3.611786107621481E-3    6.640457980565730E-4    3.662046791717162E-3    4.258772271709649E-1   -1.454302701734749E-1
 8.116652697850000E9     5.065340722948888E-1    9.312254012580219E-3    6.174331349630088E-4    3.625005907024509E-3    6.806782032326883E-4    3.681630976880183E-3    4.257090073189700E-1   -1.458096183341825E-1
 8.116658154000000E9     5.064851028106657E-1    8.948883964079614E-3    6.171445668687604E-4    3.645514370163575E-3    6.938438340486778E-4    3.671756722211038E-3    4.257271708870689E-1   -1.461266227554719E-1
 8.116663610150000E9     5.064954304507711E-1    8.495657145085952E-3    6.201768374593714E-4    3.639879584851051E-3    6.592909968061718E-4    3.694495573846741E-3    4.256364026664611E-1   -1.465983538349741E-1
 8.116669066300000E9     5.065612621257196E-1    8.055971605010480E-3    6.204007980439027E-4    3.632609810177210E-3    6.746550935824016E-4    3.687785204288604E-3    4.254960856333731E-1   -1.469731409204669E-1
 8.116674522450000E9     5.065651207071946E-1    7.612805296831237E-3    6.192103172997120E-4    3.628998919446591E-3    7.082441635667409E-4    3.711111034782430E-3    4.255032817015855E-1   -1.473284502439640E-1
 8.116679978600000E9     5.064768624097483E-1    7.340601822546241E-3    6.162008838233740E-4    3.617663327962338E-3    6.569383654008703E-4    3.681139611108859E-3    4.252617558646701E-1   -1.477707564526858E-1
 8.116685434750000E9     5.063257619281826E-1    6.919220723712959E-3    6.582723722072825E-4    3.631834480416897E-3    6.851915994427074E-4    3.705904644066707E-3    4.250242585169955E-1   -1.479087557481795E-1
 8.116690890900000E9     5.065452834732095E-1    6.320359510494592E-3    6.477387842250152E-4    3.625202239191121E-3    7.318517016754726E-4    3.691026649647772E-3    4.249826889274986E-1   -1.484040776681728E-1
 8.116696347050000E9     5.064136496746994E-1    5.970269337598721E-3    6.370496636751237E-4    3.653989630956843E-3    7.220295752655688E-4    3.703968601669784E-3    4.249347223299221E-1   -1.487925870369833E-1
 8.116701803200000E9     5.064319333799207E-1    5.640473968011304E-3    6.551604200124152E-4    3.673286166811716E-3    7.042117531359370E-4    3.674704028889579E-3    4.247238105566346E-1   -1.491688233752083E-1
 8.116707259350000E9     5.064643773228917E-1    5.157956803252939E-3    6.362652829669208E-4    3.638156640353939E-3    6.947426219310206E-4    3.686431720080662E-3    4.247187981352175E-1   -1.493383408886254E-1
 8.116712715500000E9     5.065112374525366E-1    4.699820593835793E-3    6.578255312976397E-4    3.648394557373480E-3    7.283855459193222E-4    3.683041711910353E-3    4.246077557790355E-1   -1.497376901341621E-1
 8.116718171650000E9     5.064910084862957E-1    4.298269117831387E-3    6.615883915966656E-4    3.649158498852480E-3    7.370994388267257E-4    3.687024840183624E-3    4.243539873214067E-1   -1.503173765502719E-1
 8.116723627800000E9     5.065190956320561E-1    3.902024602634650E-3    6.910778756312949E-4    3.639411564040901E-3    7.360100487464329E-4    3.730765345245782E-3    4.242948343253269E-1   -1.504668188826889E-1
 8.116729083950000E9     5.063932990754999E-1    3.485776958000395E-3    6.778936208367151E-4    3.661650121883514E-3    7.473535593934401E-4    3.733722479793357E-3    4.241882538326720E-1   -1.510487177203048E-1
 8.116734540100000E9     5.064214529811718E-1    2.993320393609548E-3    6.832323721114510E-4    3.666635371163806E-3    7.215160308106063E-4    3.690185116974859E-3    4.241399697814687E-1   -1.513274259600273E-1
 8.116739996250000E9     5.064379624051044E-1    2.589319295868553E-3    6.409526656939654E-4    3.656117739827069E-3    7.232665820176954E-4    3.717534666814576E-3    4.240934317650906E-1   -1.516574612953616E-1
 8.116745452400000E9     5.064538777655504E-1    2.215549620731498E-3    6.954060717363761E-4    3.656836292920543E-3    7.637857873583018E-4    3.689527377385459E-3    4.238410130112352E-1   -1.520687635269879E-1
 8.116750908550000E9     5.064219760459193E-1    1.831613305255673E-3    6.912408982479096E-4    3.640663322934381E-3    7.520518102365369E-4    3.707766522889500E-3    4.238326488843578E-1   -1.523960209289973E-1
 8.116756364700000E9     5.063802683506055E-1    1.369854372493492E-3    6.707650741468500E-4    3.665671140666663E-3    7.672580869212647E-4    3.717952315588898E-3    4.236166575091211E-1   -1.527412996288423E-1
 8.116761820850000E9     5.063106268755375E-1    8.231915012119192E-4    7.159729298782740E-4    3.667572198133866E-3    7.427603612598754E-4    3.712804452499028E-3    4.236027458884328E-1   -1.531246189623443E-1
 8.116767277000000E9     5.063783775601511E-1    5.812636793467859E-4    6.885407271566754E-4    3.675180182865734E-3    7.330177453882995E-4    3.716624901683235E-3    4.235052905772240E-1   -1.534406420997502E-1
 8.116772733150000E9     5.063708619861388E-1    1.468630076119713E-4    7.238174641958289E-4    3.659149944503068E-3    7.601838856550789E-4    3.705024794082281E-3    4.233677787503035E-1   -1.538702529390990E-1
 8.116778189300000E9     5.064039269243387E-1   -2.832168018410450E-4    6.893127574170060E-4    3.698874252122332E-3    7.727621764889130E-4    3.732377389091086E-3    4.233019075371132E-1   -1.542709080314899E-1
 8.116783645450000E9     5.063981743034428E-1   -7.331311838367871E-4    7.074084868118301E-4    3.676003731279772E-3    7.427307905685599E-4    3.736945799816363E-3    4.230968214943222E-1   -1.545664404401575E-1
 8.116789101600000E9     5.064427385420959E-1   -1.247432325074733E-3    6.785577426011241E-4    3.684681271015320E-3    7.477715430943766E-4    3.740740768335168E-3    4.227806397597078E-1   -1.548405493705122E-1
 8.116794557750000E9     5.064864119273903E-1   -1.518917914350171E-3    7.068476544100637E-4    3.683668335177737E-3    7.958372088683037E-4    3.719157297574223E-3    4.227877617310832E-1   -1.552473443554784E-1
 8.116800013900000E9     5.064152519472132E-1   -1.932999851508537E-3    7.549522290591457E-4    3.699245565776540E-3    7.824585449460770E-4    3.769573476266028E-3    4.227856747331331E-1   -1.556949381994922E-1
 8.116805470050000E9     5.063562982560816E-1   -2.425435962669093E-3    7.172799298545261E-4    3.700572608701355E-3    7.713962974747959E-4    3.751107204926382E-3    4.226644497881305E-1   -1.560177218568171E-1
 8.116810926200000E9     5.063776834801830E-1   -2.827640958398395E-3    7.273423286669638E-4    3.699488627141609E-3    7.943177440157262E-4    3.753355763054072E-3    4.224514751559452E-1   -1.564246490155113E-1
 8.116816382350000E9     5.062600273920360E-1   -3.195942740899710E-3    7.369989359551461E-4    3.711907634308782E-3    7.755864904514906E-4    3.752960933419740E-3    4.222841927272484E-1   -1.566560511291477E-1
 8.116821838500000E9     5.063114207451070E-1   -3.692488615330799E-3    7.516261060172108E-4    3.673730822995225E-3    7.838794065761763E-4    3.733454924462132E-3    4.222157993913395E-1   -1.570249678780507E-1
 8.116827294650000E9     5.063239098830226E-1   -4.102528552831191E-3    7.482513007709684E-4    3.684674064337691E-3    7.884282728628120E-4    3.775174627046524E-3    4.219948190466916E-1   -1.573802852685191E-1
 8.116832750800000E9     5.063158262799422E-1   -4.482499874434746E-3    7.725866870118464E-4    3.682272196878825E-3    8.376451146628202E-4    3.766012607066810E-3    4.222263016011041E-1   -1.578806665543759E-1
 8.116838206950000E9     5.062201818203500E-1   -4.972985877841864E-3    7.680851886818101E-4    3.682918615146075E-3    8.077516879147933E-4    3.763880308333285E-3    4.219994493434011E-1   -1.582616294848432E-1
 8.116843663100000E9     5.062743039165358E-1   -5.338067751514359E-3    7.711952627347843E-4    3.711059623519312E-3    8.023912299589387E-4    3.740756282938813E-3    4.217886752780964E-1   -1.585179877223978E-1
 8.116849119250000E9     5.062758893100481E-1   -5.748452223808024E-3    7.635064347149542E-4    3.723140232183822E-3    8.064234554342327E-4    3.753767024914754E-3    4.216740506081427E-1   -1.589512251384452E-1
 8.116854575400000E9     5.062259355745942E-1   -6.057121719025712E-3    7.793904606528788E-4    3.707590011649656E-3    8.372871844774539E-4    3.788989340719847E-3    4.215773595225107E-1   -1.591451236632904E-1
 8.116860031550000E9     5.063618811943629E-1   -6.505537123485586E-3    7.738012744053776E-4    3.747033412580391E-3    8.502572114797326E-4    3.765427658426330E-3    4.213939451502443E-1   -1.595346878324632E-1
 8.116865487700000E9     5.061767302494337E-1   -6.991876669630215E-3    7.628700517954280E-4    3.733043443689439E-3    8.476941644085629E-4    3.787334015102830E-3    4.213332137593705E-1   -1.599778972096231E-1
 8.116870943850000E9     5.062571403574715E-1   -7.419036413213902E-3    7.835044520794252E-4    3.723401783507726E-3    8.562597691025460E-4    3.767934282116196E-3    4.212027433050528E-1   -1.602845276160751E-1
 8.116876400000000E9     5.061606378646161E-1   -7.773824731276476E-3    7.663379517036838E-4    3.718585195147392E-3    8.333291200250367E-4    3.768000407466209E-3    4.210728796062600E-1   -1.606517435128624E-1
 8.116881856150000E9     5.060755231716844E-1   -8.369421434519802E-3    7.925471035901838E-4    3.732608045535788E-3    8.513436193111869E-4    3.812146316671077E-3    4.208816791315079E-1   -1.609825124779825E-1
 8.116887312300000E9     5.060536567754783E-1   -8.707241161838410E-3    7.795048959280549E-4    3.744589473537063E-3    8.542158749601439E-4    3.769173351832891E-3    4.208107866861558E-1   -1.614483941186779E-1
 8.116892768450000E9     5.060298264728481E-1   -9.134077355464267E-3    8.349386196200029E-4    3.759326376827288E-3    8.624700288642947E-4    3.810856535102153E-3    4.206820119785950E-1   -1.618392007424142E-1
 8.116898224600000E9     5.060358924117269E-1   -9.516053095163351E-3    7.929964737341080E-4    3.740786255732995E-3    8.562548333192384E-4    3.793689317572338E-3    4.205750105878149E-1   -1.623034312635144E-1
 8.116903680750000E9     5.061393359006555E-1   -1.000390161858072E-2    8.358123455562349E-4    3.741809800415222E-3    8.534272706416855E-4    3.837575655968980E-3    4.204404337016033E-1   -1.624433098431350E-1
 8.116909136900000E9     5.060403975443414E-1   -1.043231191008688E-2    7.947198325999931E-4    3.758563196269601E-3    8.361196521140629E-4    3.826311960170678E-3    4.202832667041055E-1   -1.628820712640594E-1
 8.116914593050000E9     5.060373872066912E-1   -1.079912577716365E-2    8.409370330168070E-4    3.768591239681839E-3    8.726819907918500E-4    3.801953295862066E-3    4.202859178751812E-1   -1.632511385299340E-1
 8.116920049200000E9     5.060807603578775E-1   -1.127110843638072E-2    8.225060422159421E-4    3.770240986445976E-3    9.054706738167923E-4    3.826831206136730E-3    4.202002779991846E-1   -1.636265683790033E-1
 8.116925505350000E9     5.059441507537656E-1   -1.169152667676725E-2    8.473961124234865E-4    3.758001970895532E-3    9.267784651337643E-4    3.813951942550531E-3    4.199341599852311E-1   -1.638133370982633E-1
 8.116930961500000E9     5.058589798236492E-1   -1.222624482317454E-2    8.427250800059939E-4    3.776408742041975E-3    8.826980188515802E-4    3.838661937269810E-3    4.196742559524886E-1   -1.643882901581367E-1
