#  HZ   S   RI   R     50.00 
! Rohde & Schwarz Vector Network Analyzer 
! Rohde-Schwarz,ZNB20-2Port,1311601062101988,3.16
! Created: UTC 3/20/2024, 11:47:46 AM
! freq[Hz]                re:S11                  im:S11                  re:S21                  im:S21                  re:S12                  im:S12                  re:S22                  im:S22
 8.116373293000000E9     5.060305301738051E-1    3.048182146397777E-2    4.283126768482487E-4    3.560939664287586E-3    5.254141200564515E-4    3.574038341537847E-3    4.310643955574674E-1   -1.270999827220898E-1
 8.116379001250000E9     5.059691818154737E-1    3.014749427423203E-2    4.188723662727955E-4    3.547371297618545E-3    4.956444942744499E-4    3.591473951617660E-3    4.310587742998983E-1   -1.275529350536164E-1
 8.116384709500000E9     5.060461057596986E-1    2.950816899751853E-2    4.420401386475373E-4    3.547267067695740E-3    5.237912007423429E-4    3.613428298796261E-3    4.307587156403243E-1   -1.276583935042855E-1
 8.116390417750000E9     5.060202672173963E-1    2.921206041405916E-2    4.627323257118058E-4    3.548994297942541E-3    4.915117463485962E-4    3.605611705499329E-3    4.308156419607995E-1   -1.281693285600520E-1
 8.116396126000000E9     5.060965413960400E-1    2.875341475141910E-2    4.148487490192885E-4    3.540367810100890E-3    5.288688473487810E-4    3.599831005460670E-3    4.306806276146792E-1   -1.285679757163560E-1
 8.116401834250000E9     5.060792687375546E-1    2.832794070027231E-2    4.594245327088047E-4    3.541764425635804E-3    5.078566292755925E-4    3.583697363683343E-3    4.304276402425661E-1   -1.291301773757005E-1
 8.116407542500000E9     5.061532109578112E-1    2.775983560582379E-2    4.543688094199800E-4    3.556980115045610E-3    5.063826975436482E-4    3.601493187245963E-3    4.305311665087235E-1   -1.293378545225461E-1
 8.116413250750000E9     5.061564359203852E-1    2.740657430772895E-2    4.686501713769902E-4    3.565819545384776E-3    5.291571474120016E-4    3.604546911001336E-3    4.303486664281565E-1   -1.298128264554168E-1
 8.116418959000000E9     5.061263829266801E-1    2.692651754832575E-2    4.710619726375578E-4    3.535397169553646E-3    5.084307436629373E-4    3.601190924709792E-3    4.302263797536875E-1   -1.299986993256639E-1
 8.116424667250000E9     5.060817078952272E-1    2.659385940969363E-2    4.621760671049489E-4    3.575900199868822E-3    5.445641984638122E-4    3.611588860111992E-3    4.302055434766119E-1   -1.303608676780234E-1
 8.116430375500000E9     5.062659689372445E-1    2.611489433907894E-2    4.864016000803796E-4    3.570463494866551E-3    5.005765654817695E-4    3.601779446238781E-3    4.299329767244549E-1   -1.309499230533537E-1
 8.116436083750000E9     5.062184199077017E-1    2.572608559890404E-2    4.743330082312835E-4    3.560822547754916E-3    5.152939547421968E-4    3.577934917201483E-3    4.299289129849239E-1   -1.313138403641475E-1
 8.116441792000000E9     5.061667953163695E-1    2.516298267916027E-2    4.838967105908511E-4    3.541684861146866E-3    5.441025293367843E-4    3.625287946177909E-3    4.298609971424372E-1   -1.317218755946057E-1
 8.116447500250000E9     5.062602554063604E-1    2.473291553799042E-2    4.955723462702786E-4    3.578638816745399E-3    5.263348403016360E-4    3.612374447406864E-3    4.297462438124131E-1   -1.321233859978892E-1
 8.116453208500000E9     5.063386178561631E-1    2.439653076053784E-2    4.897835977242560E-4    3.573254267255797E-3    5.530826229562396E-4    3.617110805632377E-3    4.296681252255302E-1   -1.324610115706791E-1
 8.116458916750000E9     5.063238479751562E-1    2.399066002351719E-2    4.863343531947161E-4    3.578565340849804E-3    5.576950992134113E-4    3.609747252282897E-3    4.296481284496628E-1   -1.327256208357250E-1
 8.116464625000000E9     5.063050610612950E-1    2.350455546157220E-2    4.919781915810549E-4    3.580517240219129E-3    5.400634650541896E-4    3.620537111391882E-3    4.294184506138067E-1   -1.332337566487376E-1
 8.116470333250000E9     5.062353386762816E-1    2.293407599737706E-2    5.119496454859058E-4    3.554006283029811E-3    5.526852027390296E-4    3.577558340138373E-3    4.293676532391860E-1   -1.335616254227439E-1
 8.116476041500000E9     5.063266377794723E-1    2.253422107630438E-2    4.878668976659693E-4    3.577511144333686E-3    5.629762299645992E-4    3.615082375888702E-3    4.292455087073514E-1   -1.340330311885947E-1
 8.116481749750000E9     5.062930637931156E-1    2.226773728694003E-2    4.929182802562508E-4    3.548835781092702E-3    5.780256431867413E-4    3.635710616021378E-3    4.290894792752505E-1   -1.343540504636898E-1
 8.116487458000000E9     5.063105303745611E-1    2.185298812065517E-2    5.270342658802719E-4    3.576157017106604E-3    5.646360916937320E-4    3.644255911648169E-3    4.288613994971276E-1   -1.347109441837905E-1
 8.116493166250000E9     5.063625814997990E-1    2.144050968087297E-2    5.074631609898766E-4    3.569121250421328E-3    5.969422343645852E-4    3.618172906329396E-3    4.289473037079775E-1   -1.350056204899039E-1
 8.116498874500000E9     5.062374565629255E-1    2.093764137679307E-2    5.374093140302445E-4    3.568027966392626E-3    5.656834128365534E-4    3.635023652730866E-3    4.289125165119762E-1   -1.355552537352337E-1
 8.116504582750000E9     5.062593442033422E-1    2.048582001657608E-2    5.115721998764917E-4    3.576554720401335E-3    5.807194306859341E-4    3.642848435699975E-3    4.288808145094538E-1   -1.359054948171820E-1
 8.116510291000000E9     5.062849458022768E-1    2.008476313667250E-2    5.188589133658897E-4    3.568035179812612E-3    5.731060384196600E-4    3.624816802010377E-3    4.285989223558588E-1   -1.364431212215461E-1
 8.116515999250000E9     5.063415742787931E-1    1.971009596676991E-2    5.273736181485326E-4    3.604447029158754E-3    5.695712531320934E-4    3.658545873465188E-3    4.284555585720196E-1   -1.365359082623704E-1
 8.116521707500000E9     5.065169715860661E-1    1.914930718344922E-2    5.401252112562119E-4    3.585026238810975E-3    5.662202664170109E-4    3.636172008506912E-3    4.284147118875084E-1   -1.369493578183661E-1
 8.116527415750000E9     5.063867541078703E-1    1.872870885829275E-2    5.137075662527930E-4    3.561551191327680E-3    6.043701704298018E-4    3.645393764665485E-3    4.282751373945504E-1   -1.373622176645927E-1
 8.116533124000000E9     5.064197787217680E-1    1.831966596571695E-2    5.254322576513299E-4    3.578194160028407E-3    5.752690311050204E-4    3.648307726891791E-3    4.281581294640395E-1   -1.379561714316325E-1
 8.116538832250000E9     5.064993343502106E-1    1.782193305479849E-2    5.429369642922368E-4    3.569899640158389E-3    6.131497337100904E-4    3.638652580070620E-3    4.281149527472766E-1   -1.382818970336186E-1
 8.116544540500000E9     5.065187844632226E-1    1.740854825775339E-2    5.588833436282317E-4    3.587078082871726E-3    5.803209799841995E-4    3.653903701585760E-3    4.280214750410902E-1   -1.385627382048008E-1
 8.116550248750000E9     5.064195307363593E-1    1.707624937386264E-2    5.661656100798735E-4    3.575690427398200E-3    5.947268102285757E-4    3.645008255404832E-3    4.278303871905050E-1   -1.389562392915710E-1
 8.116555957000000E9     5.064982000361876E-1    1.671329899066322E-2    5.269757102305170E-4    3.606954399543608E-3    6.196094871377358E-4    3.628056172341666E-3    4.278799224679836E-1   -1.392299112105737E-1
 8.116561665250000E9     5.063561986517774E-1    1.621255140075834E-2    5.338866573231442E-4    3.603976431494173E-3    6.182559519473523E-4    3.646153165815283E-3    4.276978836826398E-1   -1.397399765852422E-1
 8.116567373500000E9     5.064615100041365E-1    1.584606649025804E-2    5.608246632885439E-4    3.596081404615353E-3    6.022241125529802E-4    3.640366557127368E-3    4.277089325532378E-1   -1.400613381235283E-1
 8.116573081750000E9     5.064010138606049E-1    1.530696802427700E-2    5.858519901165926E-4    3.614486947393087E-3    6.548136369700923E-4    3.649968712108868E-3    4.274505170218832E-1   -1.405084858996258E-1
 8.116578790000000E9     5.064219085096523E-1    1.496442245332364E-2    5.610865456505919E-4    3.615087396715530E-3    6.673872913498153E-4    3.635534722728886E-3    4.273092934741151E-1   -1.408238970287568E-1
 8.116584498250000E9     5.064121721402876E-1    1.426313185195829E-2    5.737326292290063E-4    3.606157173322544E-3    6.051960240561368E-4    3.697280085978077E-3    4.271492927999143E-1   -1.412516978653135E-1
 8.116590206500000E9     5.065078574986639E-1    1.391296905997833E-2    5.763488095709082E-4    3.609039150588362E-3    6.317009232067921E-4    3.652448005514350E-3    4.270956525982956E-1   -1.415776559153199E-1
 8.116595914750000E9     5.065142788126997E-1    1.361833490984754E-2    5.934679681941440E-4    3.629276759871407E-3    6.526244664747112E-4    3.658563363609606E-3    4.269319619578562E-1   -1.420444478535961E-1
 8.116601623000000E9     5.064509582976181E-1    1.315662110330868E-2    5.841050851288768E-4    3.581790393520300E-3    6.285471183811482E-4    3.627738714740944E-3    4.268259751847954E-1   -1.423777976687707E-1
 8.116607331250000E9     5.064539280783924E-1    1.261837998587924E-2    5.701738983514694E-4    3.596987118413236E-3    6.640660813750482E-4    3.624897237836780E-3    4.268250276628363E-1   -1.428140155610638E-1
 8.116613039500000E9     5.064196942940306E-1    1.213920824294073E-2    6.031912518100203E-4    3.609271520234766E-3    6.380345441107466E-4    3.603087493702176E-3    4.267090181422571E-1   -1.430876049436787E-1
 8.116618747750000E9     5.063665286920298E-1    1.180286722710821E-2    6.032618227155859E-4    3.591195297469128E-3    6.488996900496910E-4    3.697331842432261E-3    4.265644190329901E-1   -1.435510852401373E-1
 8.116624456000000E9     5.065243930749350E-1    1.133380391843408E-2    6.097492827054637E-4    3.618830525620622E-3    6.407830945590524E-4    3.650184577105248E-3    4.264202680913955E-1   -1.438935667622988E-1
 8.116630164250000E9     5.065254897526829E-1    1.095503911338686E-2    5.906238619690582E-4    3.624327348088596E-3    6.675683378844467E-4    3.656030366443374E-3    4.263762899205207E-1   -1.441404570361759E-1
 8.116635872500000E9     5.065077827544948E-1    1.046351233133104E-2    6.443986679254882E-4    3.631535492071356E-3    6.370961788224012E-4    3.706996088268499E-3    4.262176834182309E-1   -1.446498272709862E-1
 8.116641580750000E9     5.064126724674646E-1    1.021039927284410E-2    6.400153074583983E-4    3.655842601304355E-3    6.618063897159491E-4    3.655148190481223E-3    4.260702256200364E-1   -1.451406742724848E-1
 8.116647289000000E9     5.064733890738056E-1    9.766270227974824E-3    6.201280291292442E-4    3.598435969958963E-3    6.913185599428113E-4    3.678632980543900E-3    4.259056342125840E-1   -1.454116566789557E-1
 8.116652997250000E9     5.065560402734487E-1    9.216631231256805E-3    6.448346491867536E-4    3.625174612114230E-3    7.001275917607246E-4    3.665612295992495E-3    4.259280488008375E-1   -1.459560190233195E-1
 8.116658705500000E9     5.064187470191449E-1    8.734544731796395E-3    6.051964383017865E-4    3.633972950225350E-3    6.915462307938145E-4    3.667098836394629E-3    4.259654730298574E-1   -1.460750564589896E-1
 8.116664413750000E9     5.064765150629430E-1    8.314083779537228E-3    6.522307476640075E-4    3.643290483731056E-3    7.274161183655235E-4    3.650621295269029E-3    4.257213127668104E-1   -1.464317790481325E-1
 8.116670122000000E9     5.064457091639689E-1    7.879570347042321E-3    6.314378660802359E-4    3.634619167619272E-3    6.807960416910072E-4    3.672308078891599E-3    4.256232992938766E-1   -1.467523170429997E-1
 8.116675830250000E9     5.066565531834797E-1    7.496880870415217E-3    6.222678634566687E-4    3.642011694300608E-3    6.961694695228166E-4    3.713298814977957E-3    4.254622495087463E-1   -1.472696338008554E-1
 8.116681538500000E9     5.064811997116681E-1    7.045743240841873E-3    6.480315181289601E-4    3.641483786471403E-3    7.191793395794801E-4    3.685264000362284E-3    4.253603843020533E-1   -1.477392121598613E-1
 8.116687246750000E9     5.064062645352660E-1    6.593664125320208E-3    6.499555020996981E-4    3.624981521322573E-3    7.079222151567859E-4    3.683666511820963E-3    4.253007043608084E-1   -1.480139770336889E-1
 8.116692955000000E9     5.064479881353418E-1    6.188710098207946E-3    6.444803665249943E-4    3.623813601478043E-3    6.915104998332228E-4    3.716373912451789E-3    4.251731040552020E-1   -1.484454083998559E-1
 8.116698663250000E9     5.064752582693627E-1    5.725586482942645E-3    6.379040388564614E-4    3.647454660138861E-3    7.068670152197553E-4    3.706060084815973E-3    4.248641530700798E-1   -1.489360204260812E-1
 8.116704371500000E9     5.065186542006451E-1    5.386933250637669E-3    6.594238090720767E-4    3.648988597256710E-3    7.212006399051084E-4    3.708175044170983E-3    4.247630418732623E-1   -1.492045677241688E-1
 8.116710079750000E9     5.064481250419098E-1    4.887453811244231E-3    6.671583928010744E-4    3.634373422916608E-3    6.826019898281433E-4    3.692041351308306E-3    4.247180904081918E-1   -1.495967359957744E-1
 8.116715788000000E9     5.064038763927656E-1    4.463038771071864E-3    6.743261503069776E-4    3.646002185118762E-3    7.300069666184203E-4    3.708930977033572E-3    4.247030873387062E-1   -1.500128086666940E-1
 8.116721496250000E9     5.064170377519711E-1    4.034649764548912E-3    6.804960552002467E-4    3.651296405026577E-3    7.143342576123206E-4    3.733004094106487E-3    4.245866982690172E-1   -1.503099948814886E-1
 8.116727204500000E9     5.063103918015069E-1    3.480260363064369E-3    6.402008987461773E-4    3.649318412718201E-3    7.501165387056078E-4    3.741595319736512E-3    4.242435686951719E-1   -1.506605209761918E-1
 8.116732912750000E9     5.062823778812395E-1    3.103198961661312E-3    7.064104516471315E-4    3.680725661153011E-3    7.399047196611376E-4    3.718218673120052E-3    4.243342558062660E-1   -1.511333433059532E-1
 8.116738621000000E9     5.063956324405031E-1    2.645436131125024E-3    6.967992041328387E-4    3.686032180135401E-3    7.391882685469209E-4    3.706015586891208E-3    4.240468916349157E-1   -1.513974682472584E-1
 8.116744329250000E9     5.064073189222041E-1    2.277216759679914E-3    6.827587241990553E-4    3.668845036266317E-3    7.493353227187273E-4    3.695485515041752E-3    4.240696672726286E-1   -1.517381559582917E-1
 8.116750037500000E9     5.064599876070399E-1    1.783868120930830E-3    6.839988104870729E-4    3.666353074607105E-3    7.638365245560658E-4    3.764492000086216E-3    4.239408061906150E-1   -1.521547165245582E-1
 8.116755745750000E9     5.064372518630609E-1    1.480222503033795E-3    6.920167653559604E-4    3.677551177816222E-3    7.480689272948969E-4    3.741484374852224E-3    4.238288146892556E-1   -1.525358469159476E-1
 8.116761454000000E9     5.063477796482668E-1    1.151498840039702E-3    7.164262283270404E-4    3.676060873216344E-3    7.610250388449824E-4    3.736914402019619E-3    4.236089815533804E-1   -1.530021173962617E-1
 8.116767162250000E9     5.063650411793856E-1    4.883556740164204E-4    7.075699129816481E-4    3.655679940456024E-3    7.667118357918376E-4    3.707755248628286E-3    4.236434159829748E-1   -1.533143798854062E-1
 8.116772870500000E9     5.064354040732841E-1    1.521737300487954E-4    6.978394833943713E-4    3.700881496113342E-3    8.065096307558337E-4    3.719955549022366E-3    4.233657591771090E-1   -1.537367990729097E-1
 8.116778578750000E9     5.062332121378953E-1   -3.754188366100102E-4    7.105545923716660E-4    3.662893104416831E-3    7.792881508432337E-4    3.704753860676648E-3    4.232738260461438E-1   -1.540928394327787E-1
 8.116784287000000E9     5.063752841195939E-1   -7.826101994175240E-4    7.397630545880851E-4    3.691653427169773E-3    7.580314345958059E-4    3.776345687711392E-3    4.230778653846384E-1   -1.545919348255228E-1
 8.116789995250000E9     5.063322028418192E-1   -1.223018020702811E-3    7.337826724390156E-4    3.686286337207521E-3    7.696757753768254E-4    3.752064426155613E-3    4.230345615403858E-1   -1.549844639431134E-1
 8.116795703500000E9     5.062974896198105E-1   -1.679988078343413E-3    7.443381683592991E-4    3.684995250979604E-3    7.620634552314670E-4    3.738039818098747E-3    4.229329642467161E-1   -1.552048300822820E-1
 8.116801411750000E9     5.063127904295748E-1   -2.109090991443353E-3    7.414190554430203E-4    3.689950799703849E-3    7.810013118667860E-4    3.753661460189944E-3    4.228177416721632E-1   -1.557192815660058E-1
 8.116807120000000E9     5.062945458165694E-1   -2.619007044629773E-3    7.312030880078164E-4    3.698386716282635E-3    7.837970417229150E-4    3.758625738937162E-3    4.227108006804824E-1   -1.561659236833084E-1
 8.116812828250000E9     5.063390681541960E-1   -2.994367090789078E-3    7.506126591851509E-4    3.701871463780980E-3    8.117102993740940E-4    3.763417029563299E-3    4.225695751498681E-1   -1.563839400786294E-1
 8.116818536500000E9     5.062293182382855E-1   -3.409437404005473E-3    7.339478066934677E-4    3.714522466931106E-3    8.339016379928720E-4    3.780389518427525E-3    4.223473611567078E-1   -1.567515343590892E-1
 8.116824244750000E9     5.062217859536731E-1   -3.871009197219649E-3    7.511334228023313E-4    3.696670630527016E-3    8.300328000796911E-4    3.776132073558832E-3    4.224544073901501E-1   -1.571636651463514E-1
 8.116829953000000E9     5.062719583149864E-1   -4.322585658238101E-3    7.786234317278348E-4    3.699424138404466E-3    8.290880916434540E-4    3.762980352456176E-3    4.221591065308294E-1   -1.575539531061488E-1
 8.116835661250000E9     5.062786710059494E-1   -4.722040707170225E-3    7.819171105587739E-4    3.721489333828318E-3    8.337839217549780E-4    3.764671421589115E-3    4.222140061882739E-1   -1.578998972623943E-1
 8.116841369500000E9     5.062353435121154E-1   -5.364548352329194E-3    7.569444514690636E-4    3.716028492847405E-3    8.194737007726319E-4    3.771016796205135E-3    4.219666647840496E-1   -1.581967239240912E-1
 8.116847077750000E9     5.062221435039961E-1   -5.552936714805955E-3    7.854301386150601E-4    3.710775269592057E-3    8.450015436239137E-4    3.738638199313793E-3    4.218706633917120E-1   -1.587835275298243E-1
 8.116852786000000E9     5.061785394586790E-1   -6.114753216878776E-3    7.805221216220280E-4    3.702162822004028E-3    8.517360772209872E-4    3.782826040163978E-3    4.216541894689770E-1   -1.590863810878305E-1
 8.116858494250000E9     5.061558134047145E-1   -6.443889153714777E-3    7.683748287743245E-4    3.707046142364464E-3    8.373949201945145E-4    3.803052863953021E-3    4.215808848634952E-1   -1.592743179580802E-1
 8.116864202500000E9     5.063061213529512E-1   -6.976306766885470E-3    7.736249275177492E-4    3.728164065246794E-3    8.333878714153569E-4    3.765928784763879E-3    4.214889269513806E-1   -1.598034876585172E-1
 8.116869910750000E9     5.060868392282153E-1   -7.473943580832543E-3    7.800403625084482E-4    3.725195929223992E-3    8.598298941846095E-4    3.770390441271002E-3    4.213601480587290E-1   -1.603055479223243E-1
 8.116875619000000E9     5.061867378271555E-1   -7.926924708524689E-3    8.005991476605245E-4    3.757773109750258E-3    8.420353115667599E-4    3.809907235033027E-3    4.211375214848034E-1   -1.606356901639387E-1
 8.116881327250000E9     5.061043235804314E-1   -8.270109246087535E-3    7.940697209072769E-4    3.768676041215658E-3    8.614467120864689E-4    3.800904654735017E-3    4.211228048366934E-1   -1.609379026333506E-1
 8.116887035500000E9     5.061045377986056E-1   -8.783281127177025E-3    8.138441422614007E-4    3.737233661271119E-3    8.780215612216410E-4    3.817852613070928E-3    4.209040760804326E-1   -1.612912951715302E-1
