#  HZ   S   RI   R     50.00 
! Rohde & Schwarz Vector Network Analyzer 
! Rohde-Schwarz,ZNB20-2Port,1311601062101988,3.16
! Created: UTC 3/20/2024, 11:47:56 AM
! freq[Hz]                re:S11                  im:S11                  re:S21                  im:S21                  re:S12                  im:S12                  re:S22                  im:S22
 8.116368126000000E9     5.059555051144752E-1    3.087348322432057E-2    4.368904561209496E-4    3.515646830573312E-3    5.032358639091511E-4    3.596361616341685E-3    4.312358348587556E-1   -1.267164927460745E-1
 8.116373844050000E9     5.059669986438670E-1    3.044137844720606E-2    4.303195973484199E-4    3.536653470198151E-3    5.255696759288883E-4    3.590357413840301E-3    4.311376018512789E-1   -1.270850052622087E-1
 8.116379562100000E9     5.061023310825432E-1    2.998314715198200E-2    4.215221656347810E-4    3.551813088005763E-3    5.029520700469836E-4    3.593963090697479E-3    4.308904365899691E-1   -1.274173660538926E-1
 8.116385280150000E9     5.060418819337362E-1    2.954950595805287E-2    4.627131011421193E-4    3.570468947509040E-3    4.943523496695289E-4    3.579320746733602E-3    4.308275149953028E-1   -1.278263308327072E-1
 8.116390998200000E9     5.062065236791685E-1    2.913887826024974E-2    4.436498443639380E-4    3.551682655121126E-3    5.244082180493127E-4    3.630831682786848E-3    4.309404054270122E-1   -1.282174891233289E-1
 8.116396716250000E9     5.060492431869200E-1    2.875503696895437E-2    4.426143450856582E-4    3.542831175916594E-3    5.027090784820190E-4    3.630843331438584E-3    4.307909090862019E-1   -1.285867505481585E-1
 8.116402434300000E9     5.061064833827789E-1    2.820321581989997E-2    4.745346307306551E-4    3.555539010009190E-3    5.101751333185983E-4    3.580044318981567E-3    4.305801602972377E-1   -1.290568462488987E-1
 8.116408152350000E9     5.062109424140324E-1    2.786645998830760E-2    4.531556404595761E-4    3.544761097403710E-3    5.137653574574970E-4    3.619487582410464E-3    4.303726292347809E-1   -1.294368954889168E-1
 8.116413870400000E9     5.062047757165211E-1    2.738815775625139E-2    4.711871635604601E-4    3.562937332489896E-3    5.226684724951564E-4    3.610167575193051E-3    4.303979288502333E-1   -1.298623548826578E-1
 8.116419588450000E9     5.060777971379578E-1    2.685066128603059E-2    4.485727215975339E-4    3.545795648483811E-3    5.321271409094847E-4    3.572599911041260E-3    4.303281774410920E-1   -1.301133417217158E-1
 8.116425306500000E9     5.062641300215881E-1    2.658071874895393E-2    5.036967081584538E-4    3.555669517570211E-3    5.459035527764868E-4    3.600073786902198E-3    4.301500634009437E-1   -1.304921438435043E-1
 8.116431024550000E9     5.061331248941650E-1    2.603121363752919E-2    4.847176704017846E-4    3.553133222630320E-3    5.379387091191677E-4    3.581511346283222E-3    4.300518443606305E-1   -1.309817483385955E-1
 8.116436742600000E9     5.061821130608302E-1    2.566228958178319E-2    4.980447953478568E-4    3.566174773654026E-3    5.337319068589288E-4    3.621609791176096E-3    4.299283393540865E-1   -1.312578451797065E-1
 8.116442460650000E9     5.062279704790656E-1    2.519059540966154E-2    4.933696391593041E-4    3.565916176205215E-3    5.345114654286372E-4    3.625223994090691E-3    4.298343265422563E-1   -1.316950508920616E-1
 8.116448178700000E9     5.062690556535879E-1    2.478317880840007E-2    4.895623490708921E-4    3.559674006794792E-3    5.515843397043323E-4    3.617726674465224E-3    4.298729681098654E-1   -1.321413424500169E-1
 8.116453896750000E9     5.060945705404370E-1    2.429613874243875E-2    4.765957269141207E-4    3.544221720147011E-3    5.147052827967120E-4    3.576374215073246E-3    4.297181680144694E-1   -1.323930246837381E-1
 8.116459614800000E9     5.062693275419637E-1    2.381609083683227E-2    4.858733561462346E-4    3.537018013869954E-3    5.309634265755894E-4    3.625661763452131E-3    4.296342333081803E-1   -1.328169495725351E-1
 8.116465332850000E9     5.062291768287405E-1    2.344905295419272E-2    4.773288773022574E-4    3.568050122562156E-3    5.449626505858799E-4    3.617716254774388E-3    4.295272490262856E-1   -1.330938867981592E-1
 8.116471050900000E9     5.064027080104320E-1    2.294009484643976E-2    5.067023161564128E-4    3.577585717284836E-3    5.374823174704663E-4    3.635514173483395E-3    4.295364767539366E-1   -1.335120404583380E-1
 8.116476768950000E9     5.062592083662630E-1    2.262740532919660E-2    5.021118856349441E-4    3.569761380818079E-3    5.711735482437169E-4    3.642063156675603E-3    4.291433707032833E-1   -1.338708383716209E-1
 8.116482487000000E9     5.062833119300280E-1    2.202072949187014E-2    5.095611221630964E-4    3.576440645466368E-3    5.837070869174190E-4    3.624985009057564E-3    4.292032531361358E-1   -1.344215926647176E-1
 8.116488205050000E9     5.061608923187367E-1    2.172064848659817E-2    5.095206975810398E-4    3.587493261231830E-3    5.607174109584568E-4    3.633317040549016E-3    4.292018449192693E-1   -1.346091583826487E-1
 8.116493923100000E9     5.063852639732169E-1    2.124879314272250E-2    4.997681427812334E-4    3.572756333166931E-3    5.718723619820362E-4    3.611515317054810E-3    4.290087300496942E-1   -1.350783479065359E-1
 8.116499641150000E9     5.062802275713918E-1    2.087689562984888E-2    5.086069689125494E-4    3.570253789093530E-3    5.682571451115366E-4    3.650918557223921E-3    4.288360329968043E-1   -1.353445842365900E-1
 8.116505359200000E9     5.063475642007568E-1    2.058856131993440E-2    5.259124111123631E-4    3.585346963943041E-3    5.749673418948399E-4    3.632591779812544E-3    4.289438908576427E-1   -1.358838985130014E-1
 8.116511077250000E9     5.063367784979099E-1    1.997923286474323E-2    5.447801506088303E-4    3.565040768665987E-3    5.673815136337969E-4    3.614661534112704E-3    4.287386197625944E-1   -1.361385686246959E-1
 8.116516795300000E9     5.064645331871178E-1    1.955087846953833E-2    5.205875975693760E-4    3.587469690452396E-3    5.614412321395222E-4    3.645168450343273E-3    4.286064257870592E-1   -1.365752923955140E-1
 8.116522513350000E9     5.062602888643671E-1    1.917954960701653E-2    5.188596270440016E-4    3.591126682346559E-3    5.880421855593495E-4    3.615266355266676E-3    4.284534743547827E-1   -1.370712486049074E-1
 8.116528231400000E9     5.064847575563370E-1    1.866954052400937E-2    5.010198682177018E-4    3.556641924800555E-3    5.631532905879547E-4    3.649453988625240E-3    4.283790654360921E-1   -1.374385557181051E-1
 8.116533949450000E9     5.063552890066978E-1    1.819502387224423E-2    5.406692697536124E-4    3.607192811957877E-3    5.923935341760270E-4    3.642695478243084E-3    4.283747771604050E-1   -1.378077313682440E-1
 8.116539667500000E9     5.064764190064835E-1    1.792025929799804E-2    5.393512711575529E-4    3.571382695175525E-3    5.799432561886394E-4    3.638788609062073E-3    4.281902294832641E-1   -1.381210410283676E-1
 8.116545385550000E9     5.064000398219990E-1    1.734981990691094E-2    5.618120159855317E-4    3.602454276134400E-3    6.054715866152328E-4    3.633296935808731E-3    4.280145352840373E-1   -1.386394245998923E-1
 8.116551103600000E9     5.064878116675335E-1    1.688137002888716E-2    5.467900352819921E-4    3.606410019599083E-3    6.053754188561867E-4    3.656804448807870E-3    4.279658414661446E-1   -1.389309188964522E-1
 8.116556821650000E9     5.063693867687354E-1    1.646159672221780E-2    5.572253506968442E-4    3.593107492498184E-3    5.998282286204577E-4    3.652601970510385E-3    4.278666397187472E-1   -1.393557149149763E-1
 8.116562539700000E9     5.065227943861523E-1    1.613789414090694E-2    5.507421602216167E-4    3.606107294936524E-3    5.840966261400903E-4    3.653452035943246E-3    4.275752511869769E-1   -1.396260317079747E-1
 8.116568257750000E9     5.064134661896478E-1    1.556017207276487E-2    5.537457917578759E-4    3.566778309312862E-3    6.256188080147380E-4    3.620836687583774E-3    4.274476265393853E-1   -1.400107032686664E-1
 8.116573975800000E9     5.065052526182103E-1    1.518361000150729E-2    5.524459602335802E-4    3.585509650553744E-3    6.042430052800373E-4    3.638363715474220E-3    4.275055690246354E-1   -1.404377754952932E-1
 8.116579693850000E9     5.064236703021441E-1    1.478245754100247E-2    5.666401114730367E-4    3.629991195214009E-3    6.563066215235013E-4    3.660172369223256E-3    4.273083256281412E-1   -1.408161749146894E-1
 8.116585411900000E9     5.065353882917705E-1    1.435642927630587E-2    6.086722804539649E-4    3.605746758517001E-3    6.416052317548261E-4    3.699811670196929E-3    4.272535938545600E-1   -1.412171742742547E-1
 8.116591129950000E9     5.064210611687443E-1    1.392923625399497E-2    5.809593372519161E-4    3.598267897697656E-3    6.371193951096413E-4    3.648805981551040E-3    4.272138705511616E-1   -1.416071363096259E-1
 8.116596848000000E9     5.066259275017526E-1    1.349726190350036E-2    5.977290782830876E-4    3.567403370830914E-3    5.922815304079493E-4    3.660880683837703E-3    4.271517872309642E-1   -1.419663649976361E-1
 8.116602566050000E9     5.064210157179730E-1    1.296367415558758E-2    5.654697425144392E-4    3.604593419454007E-3    6.484638854705796E-4    3.684964974080786E-3    4.270270465947046E-1   -1.424290997261710E-1
 8.116608284100000E9     5.064918965820541E-1    1.259513352799501E-2    5.875511435588355E-4    3.625453273239345E-3    6.453347111842301E-4    3.667744691420543E-3    4.268144866614735E-1   -1.428321151139005E-1
 8.116614002150000E9     5.064698724208129E-1    1.204694846757987E-2    5.954077357648050E-4    3.607761374505953E-3    6.518557579958385E-4    3.656836256857784E-3    4.268336934811748E-1   -1.430431483766880E-1
 8.116619720200000E9     5.065371059516877E-1    1.170489673201773E-2    5.848035975827749E-4    3.593423285699393E-3    6.661112631736213E-4    3.664628743738465E-3    4.266058258891109E-1   -1.434007203561102E-1
 8.116625438250000E9     5.064360547230927E-1    1.132867306101082E-2    5.737673091198903E-4    3.624472530651110E-3    6.285681499074649E-4    3.647358242411482E-3    4.264505475403613E-1   -1.438995216201813E-1
 8.116631156300000E9     5.065110458500608E-1    1.089611428600722E-2    6.103899347969252E-4    3.602482304467672E-3    6.753865198752602E-4    3.670444677250911E-3    4.265325117190547E-1   -1.443163516343177E-1
 8.116636874350000E9     5.064229225062420E-1    1.048556993078533E-2    5.710398448555903E-4    3.626738739733801E-3    6.790874839391021E-4    3.685011709782933E-3    4.263378102972787E-1   -1.445328598821309E-1
 8.116642592400000E9     5.063213357148210E-1    9.992786225361941E-3    5.663176847659050E-4    3.619338635577798E-3    6.765824365298229E-4    3.655280791156153E-3    4.262599464001582E-1   -1.450462545017437E-1
 8.116648310450000E9     5.064484054063054E-1    9.433044053876556E-3    6.417538605398324E-4    3.623403701281168E-3    6.650073144412599E-4    3.690061589472326E-3    4.259908913717125E-1   -1.453887355642770E-1
 8.116654028500000E9     5.064742618677766E-1    9.100190705016220E-3    6.053929641252810E-4    3.622763756132039E-3    6.754973794718614E-4    3.671207123618017E-3    4.261033568901404E-1   -1.457482521312787E-1
 8.116659746550000E9     5.064225138258386E-1    8.733960627792607E-3    6.248297975348898E-4    3.621027099716202E-3    6.507831780872143E-4    3.689484691075137E-3    4.258580790001511E-1   -1.461470616838136E-1
 8.116665464600000E9     5.065428294670702E-1    8.248160992590098E-3    6.295008382028875E-4    3.612137431308762E-3    7.112282253703061E-4    3.686283945559261E-3    4.257140848834828E-1   -1.465865122994499E-1
 8.116671182650000E9     5.064736941089818E-1    7.643896114791574E-3    6.498669895379561E-4    3.646967272916946E-3    6.846661011529079E-4    3.732892281747111E-3    4.256003059650347E-1   -1.470476306213281E-1
 8.116676900700000E9     5.064406384404120E-1    7.247974051287734E-3    6.287756618790926E-4    3.614725593253554E-3    7.256126340545651E-4    3.682665615102407E-3    4.254032847740590E-1   -1.472017874019274E-1
 8.116682618750000E9     5.064328854872457E-1    6.971005226783887E-3    6.197330909172424E-4    3.636419921490075E-3    6.721052806773504E-4    3.687309078594219E-3    4.253929749426016E-1   -1.476503840362104E-1
 8.116688336800000E9     5.063579759996136E-1    6.549741062978747E-3    6.550213832948488E-4    3.628384684759080E-3    7.209481383208434E-4    3.703878912365317E-3    4.252096248665232E-1   -1.480659968104796E-1
 8.116694054850000E9     5.065091307051486E-1    6.039670771691198E-3    6.462378355374176E-4    3.643789200856634E-3    7.103545209656064E-4    3.705557991665372E-3    4.250043319464274E-1   -1.485056494109943E-1
 8.116699772900000E9     5.065086540659242E-1    5.600276544732933E-3    6.341609851798750E-4    3.635673335738244E-3    7.087478373655042E-4    3.719544304949231E-3    4.250372532783072E-1   -1.489772306834805E-1
 8.116705490950000E9     5.064194379073813E-1    5.129985162080164E-3    6.507383436031705E-4    3.655438541937846E-3    7.444019362631840E-4    3.720676881845906E-3    4.249322362788485E-1   -1.492530657727959E-1
 8.116711209000000E9     5.064311344712599E-1    4.830046712162092E-3    6.679627241499631E-4    3.674014579409753E-3    7.251693291960848E-4    3.711515875964407E-3    4.247521460838877E-1   -1.497238288038123E-1
 8.116716927050000E9     5.064622863717679E-1    4.296717357118592E-3    6.629249385266578E-4    3.651490909269002E-3    7.031977010363008E-4    3.690075024284159E-3    4.246970259333118E-1   -1.499085841472753E-1
 8.116722645100000E9     5.063758481025815E-1    3.895061638335315E-3    6.659185998359244E-4    3.681251872474126E-3    7.336092058215801E-4    3.713867241071688E-3    4.244801427647634E-1   -1.503838366969130E-1
 8.116728363150000E9     5.064709173632129E-1    3.532089186349676E-3    6.635496774557791E-4    3.669059077347809E-3    7.453840297040068E-4    3.742727439926283E-3    4.244415257826855E-1   -1.507142538527578E-1
 8.116734081200000E9     5.062712915439540E-1    2.976522991853524E-3    6.931659140765596E-4    3.639999985680503E-3    7.283706858805572E-4    3.683961296614677E-3    4.241754844553942E-1   -1.511347113578479E-1
 8.116739799250000E9     5.063930731611921E-1    2.602538211276254E-3    6.687350015181678E-4    3.666909301557112E-3    7.362367208268400E-4    3.718168424866392E-3    4.243853323563235E-1   -1.516259252911580E-1
 8.116745517300000E9     5.063377365050488E-1    1.999864692209745E-3    7.044291245941894E-4    3.676972220438955E-3    7.411351146716001E-4    3.713387862204145E-3    4.241077547273943E-1   -1.519105009117560E-1
 8.116751235350000E9     5.063049411358239E-1    1.792373392261007E-3    6.850705868158023E-4    3.670111018417032E-3    7.493118603260406E-4    3.710735856844884E-3    4.238044959607843E-1   -1.523377185411095E-1
 8.116756953400000E9     5.063232010903360E-1    1.180765845935782E-3    6.957602917173722E-4    3.688423849238148E-3    7.470825466384718E-4    3.765145654875186E-3    4.237721948438138E-1   -1.526405705444001E-1
 8.116762671450000E9     5.063176965456183E-1    8.258836762292236E-4    6.895414047698233E-4    3.695863468538955E-3    7.590919556540766E-4    3.717666117692509E-3    4.237610912427464E-1   -1.531545605104135E-1
 8.116768389500000E9     5.063803156251494E-1    3.679888107077925E-4    7.109690146982028E-4    3.684457371138046E-3    7.744461129446382E-4    3.750682210757051E-3    4.236696092948266E-1   -1.533502165216549E-1
 8.116774107550000E9     5.063085809254344E-1   -1.153108308823419E-4    7.006071329684581E-4    3.690142980422354E-3    7.893782706428255E-4    3.741653277218832E-3    4.235222480123610E-1   -1.538167478738492E-1
 8.116779825600000E9     5.062874775864323E-1   -4.503597706544641E-4    7.320130326637372E-4    3.711895633706285E-3    7.815074911300680E-4    3.715642340696722E-3    4.232485890213182E-1   -1.541743055251955E-1
 8.116785543650000E9     5.063334370881108E-1   -9.569161266758799E-4    7.078460773924943E-4    3.689883325919747E-3    7.577315512128293E-4    3.719499337838723E-3    4.232735681542680E-1   -1.544899923087537E-1
 8.116791261700000E9     5.062650957927403E-1   -1.288372908995427E-3    7.285664425920460E-4    3.670942134874966E-3    7.758440904903928E-4    3.722254643104357E-3    4.230493820125955E-1   -1.549064353858865E-1
 8.116796979750000E9     5.062881838401084E-1   -1.853727201335989E-3    7.386087187331153E-4    3.713104062972615E-3    8.045141193201771E-4    3.734449726353614E-3    4.229790999048513E-1   -1.553721634167780E-1
 8.116802697800000E9     5.063887135364326E-1   -2.256728218028500E-3    7.249325449998591E-4    3.733318623900880E-3    8.085053093766084E-4    3.780639994709398E-3    4.229167257705796E-1   -1.557319807286260E-1
 8.116808415850000E9     5.062006405104569E-1   -2.681454886790930E-3    7.410296266394980E-4    3.667382358474998E-3    8.106018793564466E-4    3.741334657625188E-3    4.226393835430965E-1   -1.559847371540825E-1
 8.116814133900000E9     5.062856674583133E-1   -3.039500579126601E-3    7.514539393771325E-4    3.686147027780637E-3    8.203931315557313E-4    3.789712486335496E-3    4.227810702405346E-1   -1.564225819215897E-1
 8.116819851950000E9     5.063758096269035E-1   -3.494779989672200E-3    7.586594133120610E-4    3.699876492755312E-3    7.993621209585809E-4    3.765374307767787E-3    4.224954033111830E-1   -1.567867633692213E-1
 8.116825570000000E9     5.060534408745263E-1   -3.945432497183820E-3    7.775045106107550E-4    3.703426314295296E-3    8.230372981933547E-4    3.758112668110159E-3    4.222700990523848E-1   -1.571965786767143E-1
 8.116831288050000E9     5.062431729778791E-1   -4.457444671587618E-3    7.644594679627632E-4    3.708178265425166E-3    7.872897557511969E-4    3.783283723818034E-3    4.222064845100693E-1   -1.576233676816411E-1
 8.116837006100000E9     5.062621725595570E-1   -4.935150993142497E-3    7.393240841732353E-4    3.702550352650189E-3    8.252872742920237E-4    3.755734781311600E-3    4.221634250077114E-1   -1.577974194308048E-1
 8.116842724150000E9     5.062119961182031E-1   -5.383577679096749E-3    7.715282037102820E-4    3.707541846609408E-3    8.207857360458435E-4    3.786944361446628E-3    4.218912650582914E-1   -1.583434729080451E-1
 8.116848442200000E9     5.061513421176721E-1   -5.788401119098128E-3    7.816217447004960E-4    3.711431512870183E-3    8.187046798511138E-4    3.790250393825985E-3    4.220441182909039E-1   -1.586455209920622E-1
 8.116854160250000E9     5.061287894768458E-1   -6.237011519328511E-3    7.889096245226199E-4    3.723337486623503E-3    8.462368957780840E-4    3.771518138964461E-3    4.218150657016692E-1   -1.589444534500061E-1
 8.116859878300000E9     5.060703509123784E-1   -6.655057242270092E-3    7.830844396758955E-4    3.738056613512025E-3    8.620131891261114E-4    3.758284213060556E-3    4.217153486623262E-1   -1.595178728149942E-1
 8.116865596350000E9     5.060806865504911E-1   -7.034762018861692E-3    8.216793323405296E-4    3.745163546812991E-3    8.333382800059845E-4    3.755851174071255E-3    4.216023734172603E-1   -1.599163287118111E-1
 8.116871314400000E9     5.060634284535119E-1   -7.521108420302838E-3    8.147735542170661E-4    3.725788564013870E-3    8.103754653844147E-4    3.797181646756746E-3    4.213475024105892E-1   -1.601918440485995E-1
 8.116877032450000E9     5.061794909249924E-1   -7.948831462367646E-3    8.004281937679798E-4    3.725845115479409E-3    8.550189920360884E-4    3.812502296533188E-3    4.212904956604810E-1   -1.605617748959399E-1
 8.116882750500000E9     5.059909265888051E-1   -8.408941885654027E-3    7.975099847951371E-4    3.773470376560839E-3    8.666959716783272E-4    3.806594946868724E-3    4.209425813543815E-1   -1.609612361700751E-1
