#  HZ   S   RI   R     50.00 
! Rohde & Schwarz Vector Network Analyzer 
! Rohde-Schwarz,ZNB20-2Port,1311601062101988,3.16
! Created: UTC 3/20/2024, 11:48:17 AM
! freq[Hz]                re:S11                  im:S11                  re:S21                  im:S21                  re:S12                  im:S12                  re:S22                  im:S22
 8.116322073000000E9     5.057943065828813E-1    3.414907278304024E-2    4.309638397625427E-4    3.509638770772549E-3    4.943908613721255E-4    3.573329281907863E-3    4.319291917724112E-1   -1.235070894214379E-1
 8.116327970250000E9     5.059176975154206E-1    3.379665944567125E-2    3.910933524467930E-4    3.535014246659392E-3    4.655022511433167E-4    3.598471722795057E-3    4.317789969323965E-1   -1.239019063335758E-1
 8.116333867500000E9     5.058530776052308E-1    3.334853681674613E-2    4.218175520715466E-4    3.517540341383493E-3    4.606952052465964E-4    3.576916362821490E-3    4.317783050443114E-1   -1.242503861122832E-1
 8.116339764750000E9     5.057883808271877E-1    3.288219619887907E-2    4.032738083857219E-4    3.537368663298787E-3    4.781027772417880E-4    3.578463331179377E-3    4.317490161569068E-1   -1.246878995507999E-1
 8.116345662000000E9     5.058792140739529E-1    3.236731087003558E-2    4.056384290733346E-4    3.549844997519448E-3    4.832632737495280E-4    3.589728821457600E-3    4.317047477193012E-1   -1.250561082620314E-1
 8.116351559250000E9     5.058588119993296E-1    3.190069299112935E-2    4.378417263564244E-4    3.520865779390187E-3    4.736835468489449E-4    3.595176423592317E-3    4.314356325564280E-1   -1.255504007892775E-1
 8.116357456500000E9     5.058978160793766E-1    3.143424699382442E-2    4.395068470510848E-4    3.544426156089682E-3    4.711774801799662E-4    3.584402348054455E-3    4.314488702690067E-1   -1.259728640857151E-1
 8.116363353750000E9     5.061082218079276E-1    3.110121470579198E-2    4.232706249345017E-4    3.542208683131336E-3    4.598165096635364E-4    3.572827192827152E-3    4.312960438638124E-1   -1.262622633874130E-1
 8.116369251000000E9     5.059988751032869E-1    3.054796795966896E-2    4.182891210301335E-4    3.535849972407275E-3    4.980579041092337E-4    3.589862264139833E-3    4.311159041450274E-1   -1.267342722708376E-1
 8.116375148250000E9     5.059812441214334E-1    3.020083624643539E-2    4.496493167781343E-4    3.562491500420268E-3    5.114403730701228E-4    3.592199123648105E-3    4.311626670011304E-1   -1.271247731359496E-1
 8.116381045500000E9     5.060463187530337E-1    2.973025175737085E-2    4.402505157090805E-4    3.529871931300623E-3    4.782474557243378E-4    3.594310512383630E-3    4.310056024908414E-1   -1.274748510939685E-1
 8.116386942750000E9     5.060614857017446E-1    2.924623887281676E-2    4.401996307042657E-4    3.559870520968802E-3    5.013616579392893E-4    3.618916818378132E-3    4.309836796974196E-1   -1.279447338648831E-1
 8.116392840000000E9     5.059742328348478E-1    2.875480684470417E-2    4.427225699099414E-4    3.535987644578065E-3    5.288220693879599E-4    3.600628736139049E-3    4.306841769374772E-1   -1.281950732454989E-1
 8.116398737250000E9     5.060797614148261E-1    2.836869189691467E-2    4.504111888107827E-4    3.549932813182002E-3    5.297718536669243E-4    3.607797523353673E-3    4.307089038721544E-1   -1.287599351879977E-1
 8.116404634500000E9     5.060865153267340E-1    2.786799438128978E-2    4.834282823863437E-4    3.571803718289265E-3    5.152806220428774E-4    3.621387820022669E-3    4.305956443595411E-1   -1.290624881565863E-1
 8.116410531750000E9     5.061140840082072E-1    2.744999892958970E-2    4.588091101340616E-4    3.553258045165343E-3    5.390405940899770E-4    3.631993446871444E-3    4.304949038284329E-1   -1.294119563943198E-1
 8.116416429000000E9     5.060742226289662E-1    2.710686653273426E-2    4.649371832652876E-4    3.551875165064841E-3    5.349439756054796E-4    3.647736069064480E-3    4.304238363035679E-1   -1.298709534779798E-1
 8.116422326250000E9     5.061867621821167E-1    2.653556733640082E-2    4.733222537105721E-4    3.568271896512967E-3    5.338654679895445E-4    3.598052284491697E-3    4.301860866737537E-1   -1.303064514052215E-1
 8.116428223500000E9     5.060084096719826E-1    2.612007811203899E-2    4.737093954605815E-4    3.551173765169310E-3    5.237760020894565E-4    3.599744699888760E-3    4.301884094288073E-1   -1.306917020791364E-1
 8.116434120750000E9     5.062291070410695E-1    2.577310498280572E-2    4.816571739246351E-4    3.574459525920330E-3    5.440797897118768E-4    3.618094673447121E-3    4.301020101520676E-1   -1.309545780227674E-1
 8.116440018000000E9     5.062334029144067E-1    2.522098118741711E-2    4.878968938861717E-4    3.565061905532547E-3    5.355588683943193E-4    3.630382378573905E-3    4.299687383503502E-1   -1.315306442355641E-1
 8.116445915250000E9     5.062267984695035E-1    2.472927381236142E-2    4.863332741972871E-4    3.541916571395538E-3    5.698086337685596E-4    3.642798902522547E-3    4.299330754705519E-1   -1.318151591349771E-1
 8.116451812500000E9     5.061729438011690E-1    2.435818143453386E-2    4.773961962147090E-4    3.562953046807273E-3    5.425957591056474E-4    3.648027870856097E-3    4.298527376284326E-1   -1.322616733220879E-1
 8.116457709750000E9     5.062664881892434E-1    2.388614734131870E-2    4.858414133718212E-4    3.571406884572066E-3    5.236963783580925E-4    3.630395203722730E-3    4.296168051987080E-1   -1.325760953966892E-1
 8.116463607000000E9     5.062001979650960E-1    2.343026130400145E-2    5.043911675610517E-4    3.569968585349183E-3    5.474156299083139E-4    3.639950891135426E-3    4.295394629441548E-1   -1.330282253543850E-1
 8.116469504250000E9     5.061920218008038E-1    2.292449595207502E-2    5.112076127535295E-4    3.578577343485411E-3    5.584419723515578E-4    3.637395656190461E-3    4.294174057908704E-1   -1.335101325938056E-1
 8.116475401500000E9     5.062566796846530E-1    2.260074092252536E-2    5.144626249160633E-4    3.568968662432800E-3    5.798206649859773E-4    3.652136483417695E-3    4.293431941324488E-1   -1.336802888235412E-1
 8.116481298750000E9     5.063365171351899E-1    2.212680335703064E-2    5.137993438573985E-4    3.581386980668909E-3    5.751804489277150E-4    3.649383987985469E-3    4.292842778708031E-1   -1.343863939204023E-1
 8.116487196000000E9     5.063438806751318E-1    2.159358568524668E-2    5.041891226848001E-4    3.565846889151552E-3    6.181989644015605E-4    3.662608588962846E-3    4.290472418656662E-1   -1.346062139884094E-1
 8.116493093250000E9     5.062881746993309E-1    2.129407753223859E-2    5.219319595592002E-4    3.572222695510109E-3    5.878249572304056E-4    3.601078338267646E-3    4.290491647278447E-1   -1.350118905364212E-1
 8.116498990500000E9     5.063957598697783E-1    2.062915805656099E-2    4.997355491047224E-4    3.600277197914829E-3    5.958177277554478E-4    3.624341365236661E-3    4.288977536718845E-1   -1.353628084540363E-1
 8.116504887750000E9     5.063086596836408E-1    2.039873691017820E-2    4.883483460770356E-4    3.603051962956826E-3    5.849107747681384E-4    3.633533092046403E-3    4.286911713605585E-1   -1.357340979811406E-1
 8.116510785000000E9     5.062640044893240E-1    1.993109156671065E-2    5.394403409108656E-4    3.574464522843693E-3    5.808431592690730E-4    3.624332008720735E-3    4.286291227808066E-1   -1.361124194709119E-1
 8.116516682250000E9     5.062914511177261E-1    1.942316004579834E-2    5.414022083996578E-4    3.594707439218362E-3    5.998481235939045E-4    3.654021497220780E-3    4.287150589661919E-1   -1.366024642596704E-1
 8.116522579500000E9     5.062628933091493E-1    1.888680717983615E-2    5.244133543544090E-4    3.580803355139156E-3    6.024668481410315E-4    3.624546065507380E-3    4.285895675300296E-1   -1.370040932300944E-1
 8.116528476750000E9     5.062556001896400E-1    1.852291888674131E-2    5.564853095462950E-4    3.587121168834094E-3    6.083332195684488E-4    3.659478001780111E-3    4.284838506593807E-1   -1.375326784379996E-1
 8.116534374000000E9     5.064209740037078E-1    1.809142560741299E-2    5.627643931448823E-4    3.587189393249818E-3    6.201184638401236E-4    3.630148764800559E-3    4.282146279772615E-1   -1.376307536468501E-1
 8.116540271250000E9     5.063274879183056E-1    1.770568537207299E-2    5.525031384577050E-4    3.583578496407710E-3    5.872671177568839E-4    3.651368863806523E-3    4.281625084883415E-1   -1.382443298934395E-1
 8.116546168500000E9     5.064753101530378E-1    1.720259940712442E-2    5.828423165777653E-4    3.612300008772308E-3    5.989756634068203E-4    3.653699793412008E-3    4.281019881533936E-1   -1.384894547218744E-1
 8.116552065750000E9     5.063904913916291E-1    1.678070446428621E-2    5.554712984505131E-4    3.616201979773079E-3    6.239992485847815E-4    3.641469491585041E-3    4.277660183857822E-1   -1.390102869126143E-1
 8.116557963000000E9     5.063597057051855E-1    1.629719922057326E-2    5.545535286746822E-4    3.599862665384492E-3    6.280469383828696E-4    3.644392409600504E-3    4.278641388261897E-1   -1.394655508746088E-1
 8.116563860250000E9     5.063346115338027E-1    1.591890201058587E-2    5.646797170954273E-4    3.595222772049959E-3    5.867422949086759E-4    3.630505855801867E-3    4.278104335258534E-1   -1.397667512227475E-1
 8.116569757500000E9     5.064316559231454E-1    1.537992386628299E-2    5.652827016312100E-4    3.610190203613953E-3    6.326441441430207E-4    3.667878165843773E-3    4.275430159725681E-1   -1.400857550862301E-1
 8.116575654750000E9     5.063201096603795E-1    1.498106412211949E-2    5.744919845547558E-4    3.601627430658083E-3    6.262068881731486E-4    3.664098570275653E-3    4.275371969603696E-1   -1.405684236814411E-1
 8.116581552000000E9     5.062893778311602E-1    1.446694171951495E-2    5.628991703025806E-4    3.599598740871505E-3    6.042453539965174E-4    3.633108437683873E-3    4.273338741351342E-1   -1.407750966700361E-1
 8.116587449250000E9     5.064101672334183E-1    1.409925522181388E-2    5.885174762751888E-4    3.610361999028108E-3    5.902485128539674E-4    3.658677495694233E-3    4.272006473294234E-1   -1.414103672319110E-1
 8.116593346500000E9     5.064012730165257E-1    1.356534367167772E-2    5.719518978785380E-4    3.604565681401770E-3    6.404897770473863E-4    3.628621790708025E-3    4.270116027533284E-1   -1.415815426045192E-1
 8.116599243750000E9     5.063561723763409E-1    1.318777988053353E-2    5.789231548099323E-4    3.594844517639867E-3    6.366060653226815E-4    3.683479668318515E-3    4.270777290781794E-1   -1.421541983478667E-1
 8.116605141000000E9     5.064247815507508E-1    1.275691864262132E-2    5.844671927584096E-4    3.604290766895708E-3    6.584406067356310E-4    3.670807987655173E-3    4.268541739753001E-1   -1.426266039624480E-1
 8.116611038250000E9     5.063678588126740E-1    1.229516383836119E-2    5.907796118655524E-4    3.617158584064967E-3    6.422150207844412E-4    3.644831146545436E-3    4.267079462997338E-1   -1.430518631220999E-1
 8.116616935500000E9     5.064140620433774E-1    1.177446648551672E-2    6.117683701412124E-4    3.624187688731732E-3    6.517841246653662E-4    3.639326136551751E-3    4.266926977329650E-1   -1.432146109805782E-1
 8.116622832750000E9     5.064071460933069E-1    1.140560794538945E-2    5.965133160188198E-4    3.610877788246608E-3    6.493761785229641E-4    3.653068178716972E-3    4.265857907155022E-1   -1.437402831362414E-1
 8.116628730000000E9     5.063431121315324E-1    1.087659103347816E-2    6.083770405403054E-4    3.627715762881845E-3    6.685191227261413E-4    3.688887492985422E-3    4.265321799569971E-1   -1.441385214629644E-1
 8.116634627250000E9     5.064612401530555E-1    1.057949172360235E-2    6.055864517300657E-4    3.627626634724925E-3    6.880318431168920E-4    3.655439350233265E-3    4.263788183228905E-1   -1.444491448690145E-1
 8.116640524500000E9     5.064188428987926E-1    1.001166220406121E-2    6.092165494492473E-4    3.618027404513918E-3    6.863008765042012E-4    3.631869100503292E-3    4.263977606295518E-1   -1.450782748138949E-1
 8.116646421750000E9     5.063748836571359E-1    9.502640005440387E-3    6.208311973620105E-4    3.628182753494197E-3    6.501182532775420E-4    3.640892939779697E-3    4.261182283701568E-1   -1.453187388149070E-1
 8.116652319000000E9     5.064039413655733E-1    9.163942594181742E-3    6.225262512721265E-4    3.634766052736417E-3    6.989199492353241E-4    3.691472991138116E-3    4.259659689953453E-1   -1.456333628023621E-1
 8.116658216250000E9     5.064432216066848E-1    8.732033498033477E-3    6.257400825965399E-4    3.617941137012370E-3    6.894320257490998E-4    3.718485558433281E-3    4.259164247703248E-1   -1.461288094890129E-1
 8.116664113500000E9     5.064185637894418E-1    8.258620378090846E-3    6.130800822283787E-4    3.628531137419073E-3    6.717145841874733E-4    3.707964543761478E-3    4.257434818952879E-1   -1.464015131351025E-1
 8.116670010750000E9     5.064405210374996E-1    7.800590288260452E-3    6.449196910025353E-4    3.619762635075290E-3    6.746704154729749E-4    3.685137704989789E-3    4.254810104600480E-1   -1.468439324019709E-1
 8.116675908000000E9     5.064120681611466E-1    7.297750850958000E-3    6.361719021961077E-4    3.637271247061681E-3    6.882698805417066E-4    3.671692992358807E-3    4.254196510767603E-1   -1.471892457779112E-1
 8.116681805250000E9     5.063572524474752E-1    6.865948482106208E-3    6.401236554332492E-4    3.628640760021586E-3    7.234635042215656E-4    3.675575934719613E-3    4.253469582708315E-1   -1.476249791194475E-1
 8.116687702500000E9     5.063624876291619E-1    6.403223670740900E-3    6.447441379172573E-4    3.652588919723103E-3    7.147502642057585E-4    3.690329945236884E-3    4.253298530125184E-1   -1.480295355770022E-1
 8.116693599750000E9     5.063328306169276E-1    6.022400004414288E-3    6.420490376539318E-4    3.658539744367299E-3    7.160006494327144E-4    3.703191090918412E-3    4.251680134241834E-1   -1.484015172973129E-1
 8.116699497000000E9     5.063395491669566E-1    5.513861872714559E-3    6.748601826756865E-4    3.659022111646682E-3    7.106046326719868E-4    3.714577472406138E-3    4.250207295331345E-1   -1.488006681360404E-1
 8.116705394250000E9     5.064343876204659E-1    5.135062873110490E-3    6.489505429834244E-4    3.633238544507323E-3    7.156780894326009E-4    3.701226592461285E-3    4.248571184178465E-1   -1.491557707314395E-1
 8.116711291500000E9     5.063781184368437E-1    4.553898378973772E-3    6.682971435914768E-4    3.646800743727181E-3    7.411351609945389E-4    3.725304750527715E-3    4.247290988333003E-1   -1.496395812316508E-1
 8.116717188750000E9     5.064634881825110E-1    4.246388132428241E-3    6.493435148044210E-4    3.639893947043671E-3    7.578966768599102E-4    3.709620356458864E-3    4.246850860769486E-1   -1.500418585004086E-1
 8.116723086000000E9     5.064133101830319E-1    3.715758813567327E-3    6.663452002220617E-4    3.655409675204448E-3    7.275243465016449E-4    3.687679789701008E-3    4.246079204837861E-1   -1.503281014109693E-1
 8.116728983250000E9     5.063721799147296E-1    3.187567256085590E-3    6.954460287094094E-4    3.663475036684951E-3    7.504593461577090E-4    3.724448692941593E-3    4.244825737208348E-1   -1.507049640972258E-1
 8.116734880500000E9     5.063421891765376E-1    2.879603663982048E-3    6.858659314966873E-4    3.652117583881351E-3    7.439917171211412E-4    3.712234459022982E-3    4.243806759356664E-1   -1.511865335492065E-1
 8.116740777750000E9     5.064403227724905E-1    2.408297824182648E-3    6.756937823666584E-4    3.669688428084545E-3    7.258021290053141E-4    3.719697802424162E-3    4.241414335044648E-1   -1.514430144295932E-1
 8.116746675000000E9     5.062940202312107E-1    1.914065394784237E-3    6.809940162582130E-4    3.654128547669538E-3    7.597918451567931E-4    3.746769496127130E-3    4.241044323940097E-1   -1.520731613782805E-1
 8.116752572250000E9     5.061883770919003E-1    1.484953894245834E-3    6.927917311090352E-4    3.654900709079322E-3    7.323875911277106E-4    3.739541419669402E-3    4.239184777099749E-1   -1.523464120344475E-1
 8.116758469500000E9     5.062643013400481E-1    9.405396957631765E-4    6.972306007745838E-4    3.667261864942534E-3    7.397259898220544E-4    3.741348723388330E-3    4.237885340031847E-1   -1.527612508833189E-1
 8.116764366750000E9     5.062522675076097E-1    5.805268210314087E-4    7.015438888192560E-4    3.664928715069347E-3    7.956282358491342E-4    3.709917196784825E-3    4.236621131578113E-1   -1.530041829296386E-1
 8.116770264000000E9     5.061829376951038E-1    9.130062991622949E-5    7.071414693808931E-4    3.701278269940544E-3    7.740009031297200E-4    3.748840860943346E-3    4.236321057836472E-1   -1.535471877355490E-1
 8.116776161250000E9     5.062655228196946E-1   -2.310397156007050E-4    7.052125753251264E-4    3.671065653946883E-3    7.733506302535915E-4    3.717172677571405E-3    4.236496895114435E-1   -1.539419407658677E-1
 8.116782058500000E9     5.062687893777752E-1   -7.629530991827990E-4    7.346487190439776E-4    3.728975249252199E-3    7.905111712598642E-4    3.731517049579346E-3    4.233895491173615E-1   -1.544073566312072E-1
 8.116787955750000E9     5.062359253883765E-1   -1.262832741245903E-3    7.241227380062457E-4    3.688188540790832E-3    7.918693158065822E-4    3.761516497622903E-3    4.231229630714209E-1   -1.547132945958151E-1
 8.116793853000000E9     5.062489887999527E-1   -1.734534189713432E-3    7.180886661189712E-4    3.698445242390852E-3    8.003711538236682E-4    3.741808683008429E-3    4.229755350998952E-1   -1.549828251106230E-1
 8.116799750250000E9     5.060807366947224E-1   -2.152097728972450E-3    7.177138979612268E-4    3.736487964493761E-3    7.744473803049069E-4    3.721225286322490E-3    4.228049036498820E-1   -1.554693050314967E-1
 8.116805647500000E9     5.063150228853276E-1   -2.550177572496959E-3    7.236364948913897E-4    3.693270345445463E-3    8.029770007084820E-4    3.730616331190692E-3    4.227642471967969E-1   -1.558295471933570E-1
 8.116811544750000E9     5.062962089264318E-1   -3.110906551504583E-3    7.526992177182005E-4    3.715874805450390E-3    7.999084831236740E-4    3.736252450064785E-3    4.227293150850334E-1   -1.563196469385567E-1
 8.116817442000000E9     5.062514847632090E-1   -3.527735706328785E-3    7.538201224801463E-4    3.707077520342378E-3    7.935748350049374E-4    3.793002948022301E-3    4.226710674925028E-1   -1.566662467727604E-1
 8.116823339250000E9     5.062207463304974E-1   -4.090677466490213E-3    7.456245549515438E-4    3.733006509390438E-3    7.948175259556975E-4    3.783849525507416E-3    4.224187045700368E-1   -1.569001756185984E-1
 8.116829236500000E9     5.062733933981082E-1   -4.418611584852229E-3    7.529144922579505E-4    3.692854525755259E-3    8.276683584998012E-4    3.763032218222201E-3    4.223109283321716E-1   -1.573166892172033E-1
 8.116835133750000E9     5.061485811627245E-1   -4.914165853978905E-3    7.621197385939695E-4    3.717200632146390E-3    8.340306927380165E-4    3.749962783327160E-3    4.223116947918057E-1   -1.580125386844100E-1
 8.116841031000000E9     5.061170473202495E-1   -5.402818163186663E-3    7.774372108024031E-4    3.714628874960025E-3    8.459507406207029E-4    3.772206935721582E-3    4.220050390225094E-1   -1.583013725526546E-1
 8.116846928250000E9     5.062007087227143E-1   -5.690420364942251E-3    7.760559127529792E-4    3.718884107224049E-3    8.629132557863538E-4    3.781231925671960E-3    4.218515918217469E-1   -1.586957599869914E-1
 8.116852825500000E9     5.060711930627630E-1   -6.156449397770435E-3    8.037583203588386E-4    3.720008358996497E-3    8.195619468673143E-4    3.814944117551922E-3    4.216684778306203E-1   -1.590409345777122E-1
