#  HZ   S   RI   R     50.00 
! Rohde & Schwarz Vector Network Analyzer 
! Rohde-Schwarz,ZNB20-2Port,1311601062101988,3.16
! Created: UTC 3/20/2024, 11:48:31 AM
! freq[Hz]                re:S11                  im:S11                  re:S21                  im:S21                  re:S12                  im:S12                  re:S22                  im:S22
 8.116308077000000E9     5.056533319109519E-1    3.520924712389922E-2    4.085810189720252E-4    3.531835044299565E-3    4.331916555334415E-4    3.583212950784248E-3    4.322041231730799E-1   -1.226071294617983E-1
 8.116314026375000E9     5.057668404820070E-1    3.475197007861446E-2    4.028603503288243E-4    3.551961634053958E-3    4.678716729321123E-4    3.576064143050076E-3    4.321090984398057E-1   -1.229725204016241E-1
 8.116319975750000E9     5.058053103744600E-1    3.428872482427512E-2    4.108746475537024E-4    3.547643114712615E-3    4.469869001908652E-4    3.549864497560542E-3    4.319864963722176E-1   -1.234191987970129E-1
 8.116325925125000E9     5.058435958558266E-1    3.383902743306086E-2    3.965203989446223E-4    3.529559254181295E-3    4.780082754815590E-4    3.601316290386862E-3    4.319187088838564E-1   -1.237634407848872E-1
 8.116331874500000E9     5.057976205205233E-1    3.327890791830248E-2    4.169186064407756E-4    3.557701477234190E-3    4.654970141574109E-4    3.582987367342387E-3    4.319058832785740E-1   -1.242009169813181E-1
 8.116337823875000E9     5.058672375648838E-1    3.277920282671631E-2    4.257968125740043E-4    3.527982549575990E-3    4.831510237955561E-4    3.577779564423987E-3    4.318171861432908E-1   -1.246033440059181E-1
 8.116343773250000E9     5.057648109093991E-1    3.240857912148089E-2    4.445556021186519E-4    3.526015639747676E-3    4.729927465988550E-4    3.584527618668039E-3    4.317088602109504E-1   -1.249169480681923E-1
 8.116349722625000E9     5.058966951032512E-1    3.201199145980334E-2    4.250301214470470E-4    3.532990064535825E-3    5.028695178758830E-4    3.556035085635613E-3    4.314933710978855E-1   -1.254159997689063E-1
 8.116355672000000E9     5.058749816554285E-1    3.157718773209698E-2    4.249443861668424E-4    3.551167369137647E-3    4.922084978502852E-4    3.596528431536513E-3    4.314832301639072E-1   -1.258715161865503E-1
 8.116361621375000E9     5.059632539690649E-1    3.118587764930113E-2    4.306890333568045E-4    3.573705563148994E-3    5.048538293393961E-4    3.606554064130584E-3    4.312168512925234E-1   -1.261101156969592E-1
 8.116367570750000E9     5.059422960978658E-1    3.058391833868932E-2    4.558522193934895E-4    3.538762781938974E-3    4.914918581775749E-4    3.607201467219302E-3    4.312809215342745E-1   -1.265623853015188E-1
 8.116373520125000E9     5.060107021873225E-1    3.014070844393354E-2    4.329482677945950E-4    3.542360510365968E-3    5.042909158760413E-4    3.597521529863772E-3    4.311734165040548E-1   -1.269474295705098E-1
 8.116379469500000E9     5.059157783013422E-1    2.963661190092042E-2    4.474811412827213E-4    3.530742427348950E-3    5.165195273638293E-4    3.607824217542706E-3    4.310409237868149E-1   -1.274385381481738E-1
 8.116385418875000E9     5.060423446704481E-1    2.928795824545307E-2    4.676871520919531E-4    3.564151254604067E-3    5.245868394657399E-4    3.589955342558660E-3    4.310407315246799E-1   -1.277558771166400E-1
 8.116391368250000E9     5.060227093721110E-1    2.874363734138509E-2    4.548351462252817E-4    3.558811539774550E-3    5.021431048667606E-4    3.610363803541366E-3    4.307337410636370E-1   -1.282502079990959E-1
 8.116397317625000E9     5.061025888072913E-1    2.837528434234124E-2    4.458053408588755E-4    3.560270442643882E-3    5.348479121391000E-4    3.595557409442957E-3    4.307993426248571E-1   -1.285541201255412E-1
 8.116403267000000E9     5.061216187636204E-1    2.784746515477636E-2    4.536209102893488E-4    3.556201946410196E-3    5.132005118724003E-4    3.645444416634265E-3    4.305721617938684E-1   -1.291721035841932E-1
 8.116409216375000E9     5.061367823283162E-1    2.751059949526280E-2    4.997627540630553E-4    3.539087090690249E-3    5.133939049163117E-4    3.591731637879782E-3    4.305910038690922E-1   -1.293204073799692E-1
 8.116415165750000E9     5.060838705596957E-1    2.712034666028142E-2    4.783263550638211E-4    3.580608687675559E-3    5.254854878701296E-4    3.589312513709201E-3    4.303374218928039E-1   -1.298472142666755E-1
 8.116421115125000E9     5.061296332523625E-1    2.668115053861657E-2    4.749959920108336E-4    3.535237058969559E-3    5.337670103422667E-4    3.594831711386180E-3    4.302899168489221E-1   -1.302923289378155E-1
 8.116427064500000E9     5.060978925226730E-1    2.623649971528614E-2    5.037862704038700E-4    3.568690354817080E-3    5.090926843794444E-4    3.616448659579099E-3    4.301283711030787E-1   -1.306377865255876E-1
 8.116433013875000E9     5.062222998452122E-1    2.573763160547898E-2    5.157785950163618E-4    3.554215459445774E-3    5.581368456543928E-4    3.620006715022208E-3    4.301170777710611E-1   -1.308651959951697E-1
 8.116438963250000E9     5.061146718286630E-1    2.522148239838426E-2    4.950055767403554E-4    3.554367641950369E-3    4.942513742229348E-4    3.579031023999474E-3    4.299139540875318E-1   -1.313620474718612E-1
 8.116444912625000E9     5.062280454501691E-1    2.481222522431897E-2    5.175996836439132E-4    3.555485787124911E-3    5.526238101232554E-4    3.603820128913746E-3    4.297889336068770E-1   -1.317252424048188E-1
 8.116450862000000E9     5.061733382647410E-1    2.439393939261119E-2    4.838834292208495E-4    3.564879900808642E-3    5.439686383480805E-4    3.623797706920860E-3    4.299047857787955E-1   -1.322205441977224E-1
 8.116456811375000E9     5.061925162568078E-1    2.391163805532500E-2    4.955167054995979E-4    3.557480051986987E-3    5.536935519762107E-4    3.621171841296061E-3    4.296005031609910E-1   -1.326076627770382E-1
 8.116462760750000E9     5.060901944764017E-1    2.347193606991540E-2    4.876188610775488E-4    3.550863602999170E-3    5.380150726193649E-4    3.606646227672797E-3    4.295824792010664E-1   -1.329451424281114E-1
 8.116468710125000E9     5.063235561802402E-1    2.305760643233677E-2    4.965838566545893E-4    3.573008516231007E-3    5.607590500298788E-4    3.614325444170700E-3    4.294523259138913E-1   -1.333530777291116E-1
 8.116474659500000E9     5.061295164299537E-1    2.247071721346395E-2    5.027547621707206E-4    3.589452073888616E-3    5.383060798351823E-4    3.629120297209895E-3    4.293455644584157E-1   -1.337861030686697E-1
 8.116480608875000E9     5.062152150669964E-1    2.211861304364142E-2    5.246277379944845E-4    3.560673183152513E-3    5.651386156661837E-4    3.637975231256382E-3    4.293771567061502E-1   -1.343112229648271E-1
 8.116486558250000E9     5.061874811867412E-1    2.159014368354711E-2    5.082745644598054E-4    3.556040817775464E-3    5.847851140812735E-4    3.620936890825740E-3    4.292365826112347E-1   -1.345272984520501E-1
 8.116492507625000E9     5.062648133187450E-1    2.130801306204798E-2    4.959821204557858E-4    3.553286072706934E-3    5.791717023917326E-4    3.609808492420000E-3    4.289740109499606E-1   -1.349215386833859E-1
 8.116498457000000E9     5.062953026616509E-1    2.069781610662924E-2    5.302535577927815E-4    3.611537529705030E-3    5.626573077827078E-4    3.615288047327667E-3    4.290448820517174E-1   -1.354881033599213E-1
 8.116504406375000E9     5.061566679776868E-1    2.023650407249427E-2    5.121976884481623E-4    3.597358210412643E-3    5.831589367039048E-4    3.629888974242906E-3    4.287543854030555E-1   -1.358619516147770E-1
 8.116510355750000E9     5.063040170638989E-1    1.983623898139477E-2    5.298729281906436E-4    3.575736976436372E-3    5.474960396613808E-4    3.613747157329583E-3    4.286780392180746E-1   -1.361131265476041E-1
 8.116516305125000E9     5.063026460970093E-1    1.944427399952858E-2    5.426002132985725E-4    3.575929314853199E-3    5.918691619407420E-4    3.646105023277688E-3    4.285401756614035E-1   -1.365787125151945E-1
 8.116522254500000E9     5.063919852344713E-1    1.890591975111787E-2    5.199643424247087E-4    3.576110879223536E-3    5.615332959797723E-4    3.651550068037445E-3    4.283898991484750E-1   -1.369526591866874E-1
 8.116528203875000E9     5.064283537881735E-1    1.847911449244427E-2    5.646801377127646E-4    3.578714624906771E-3    6.051345893379440E-4    3.626126413891879E-3    4.284948809474709E-1   -1.373267616929031E-1
 8.116534153250000E9     5.062733542105414E-1    1.805893022219953E-2    5.376126575528416E-4    3.566470934394585E-3    5.865653951472117E-4    3.630316537665011E-3    4.283602811913401E-1   -1.377698229706654E-1
 8.116540102625000E9     5.063037386993915E-1    1.768881742236999E-2    5.234619170512709E-4    3.569005603975644E-3    6.109989958912287E-4    3.669175267199976E-3    4.281250044366279E-1   -1.381523855098170E-1
 8.116546052000000E9     5.063425750561555E-1    1.710067171597842E-2    5.461876942487033E-4    3.600162396435150E-3    5.970639002840988E-4    3.648562570643361E-3    4.281509707738653E-1   -1.385584338942261E-1
 8.116552001375000E9     5.062862944982552E-1    1.666598040706724E-2    5.559457222800255E-4    3.573496934502991E-3    5.931054906523493E-4    3.640766790010630E-3    4.278990987350607E-1   -1.389390244499143E-1
 8.116557950750000E9     5.063038439761108E-1    1.623094910426075E-2    5.515989914863259E-4    3.586113628871581E-3    6.101902993067671E-4    3.651945844746631E-3    4.277756051714877E-1   -1.393397271659541E-1
 8.116563900125000E9     5.064028625488132E-1    1.590856291293626E-2    5.641291506824356E-4    3.596331565605068E-3    6.215358994650744E-4    3.642060675619238E-3    4.276306284656206E-1   -1.397172921262894E-1
 8.116569849500000E9     5.063420053509534E-1    1.529819893941321E-2    5.489460604044310E-4    3.592487479372709E-3    6.372381891382612E-4    3.664100981085010E-3    4.275084873587827E-1   -1.400829399955840E-1
 8.116575798875000E9     5.063807063790313E-1    1.488325946089432E-2    5.516381712279905E-4    3.607774358797517E-3    6.165994479114129E-4    3.659821938817906E-3    4.274715978901399E-1   -1.405492063737008E-1
 8.116581748250000E9     5.064165840468786E-1    1.443715271117613E-2    5.731846909634442E-4    3.613323589569743E-3    6.271379221150450E-4    3.680577799969079E-3    4.273565021493451E-1   -1.409155552658860E-1
 8.116587697625000E9     5.063999561976033E-1    1.388692661882477E-2    5.589419486044886E-4    3.619512253217204E-3    6.271366229927093E-4    3.644150619057567E-3    4.272485210509697E-1   -1.411548446838428E-1
 8.116593647000000E9     5.064473720480152E-1    1.356664201317443E-2    5.852130096783803E-4    3.620514696043072E-3    6.410807913783639E-4    3.679908909903462E-3    4.270418891996866E-1   -1.417426613366015E-1
 8.116599596375000E9     5.063919281965843E-1    1.314516982929520E-2    5.740936624372120E-4    3.602688628630417E-3    6.286509864698126E-4    3.648172033514794E-3    4.271043876737605E-1   -1.421532720390126E-1
 8.116605545750000E9     5.063378438202464E-1    1.269046423298897E-2    6.115250020573752E-4    3.642798454357518E-3    6.460144352278969E-4    3.691536606345957E-3    4.270164259487349E-1   -1.425994792103448E-1
 8.116611495125000E9     5.062895428988635E-1    1.228783314462729E-2    5.951652898480772E-4    3.614309172703997E-3    6.562666179740727E-4    3.651269844196447E-3    4.267131092738357E-1   -1.429864954717145E-1
 8.116617444500000E9     5.063548057422990E-1    1.169637124482073E-2    6.036218341498239E-4    3.640138594637910E-3    6.460626731850396E-4    3.671717212085320E-3    4.266836460366625E-1   -1.432511413047240E-1
 8.116623393875000E9     5.063828641293850E-1    1.122864567355001E-2    5.890173346582683E-4    3.642207647407337E-3    6.716502112016545E-4    3.688744574550677E-3    4.266694488120457E-1   -1.438990015924834E-1
 8.116629343250000E9     5.063375316879156E-1    1.091615296106044E-2    5.865203954164439E-4    3.635049405337775E-3    6.534451252609917E-4    3.686770547496528E-3    4.265174757103339E-1   -1.441332198310408E-1
 8.116635292625000E9     5.064583130850978E-1    1.035094181102450E-2    6.270383127990976E-4    3.630642331104809E-3    6.999452282485843E-4    3.665148801102932E-3    4.262869524578343E-1   -1.445820344861977E-1
 8.116641242000000E9     5.063926572080244E-1    9.901020847975487E-3    5.818475054644271E-4    3.620444512944075E-3    6.669160825577048E-4    3.708660160944900E-3    4.261358448372930E-1   -1.449136853490152E-1
 8.116647191375000E9     5.062610759972267E-1    9.463313745668139E-3    6.367871014690838E-4    3.661783528260850E-3    6.591019476796881E-4    3.694224017709854E-3    4.260285878881278E-1   -1.451601891801343E-1
 8.116653140750000E9     5.063625143158804E-1    9.108584143958104E-3    6.115982563459484E-4    3.625154749335273E-3    6.757847807803370E-4    3.667708042663759E-3    4.259977767045210E-1   -1.457401424461076E-1
 8.116659090125000E9     5.064375013623791E-1    8.570262671467823E-3    6.357467649982223E-4    3.631626056142937E-3    6.810893441693387E-4    3.712232308401860E-3    4.257958143669406E-1   -1.462168597367502E-1
 8.116665039500000E9     5.063250377846773E-1    8.052690386546808E-3    6.626400983901031E-4    3.634739028629794E-3    6.903069024628829E-4    3.698696313029447E-3    4.257094079991603E-1   -1.465717805626795E-1
 8.116670988875000E9     5.063761788514000E-1    7.607156961796632E-3    6.393481333750699E-4    3.630991996564875E-3    7.265411432380688E-4    3.670955488218089E-3    4.256619613195927E-1   -1.468504240753527E-1
 8.116676938250000E9     5.063068612192310E-1    7.197449360730792E-3    6.267116212807873E-4    3.640551341871525E-3    6.905606644321421E-4    3.714638812991466E-3    4.254051264738599E-1   -1.473206712008904E-1
 8.116682887625000E9     5.063752617088936E-1    6.721350963094236E-3    6.569679159762755E-4    3.647972865587338E-3    6.889285038188971E-4    3.709457797921764E-3    4.252925274440404E-1   -1.477212933957324E-1
 8.116688837000000E9     5.064748682324687E-1    6.292083123577782E-3    6.571310112775539E-4    3.653723410916055E-3    7.409600383778457E-4    3.715602598118174E-3    4.252810223208042E-1   -1.480666603845277E-1
 8.116694786375000E9     5.063124563280328E-1    5.783199260181999E-3    6.505961635750542E-4    3.642048286767378E-3    6.972385274821685E-4    3.679294574496774E-3    4.251386189066383E-1   -1.486152618968677E-1
 8.116700735750000E9     5.063070155759750E-1    5.391873094254212E-3    6.478891393332049E-4    3.665383127496544E-3    7.141115393525911E-4    3.712980075499500E-3    4.249889352052673E-1   -1.488725571090432E-1
 8.116706685125000E9     5.063264330602567E-1    4.890816378137437E-3    6.560852046444995E-4    3.652250025690117E-3    7.161924460770445E-4    3.681609479273595E-3    4.248614828169983E-1   -1.492812298530731E-1
 8.116712634500000E9     5.063823453557201E-1    4.439730286774554E-3    6.536611169865654E-4    3.669622812342586E-3    7.388231961006980E-4    3.695820052234116E-3    4.247480507119474E-1   -1.495830767909325E-1
 8.116718583875000E9     5.064421127884465E-1    3.993196135143072E-3    6.857538807746829E-4    3.648816764656589E-3    7.230736415810109E-4    3.738496091108473E-3    4.246426524496669E-1   -1.500708738798944E-1
 8.116724533250000E9     5.062473418349919E-1    3.518666139988540E-3    6.534338762581714E-4    3.657493408381286E-3    7.153876963796357E-4    3.731149680132152E-3    4.243942070813034E-1   -1.503928478878206E-1
 8.116730482625000E9     5.062848323936923E-1    3.171880503639025E-3    6.868532067802201E-4    3.660635643448954E-3    7.669946202357711E-4    3.732810359756055E-3    4.243820339328551E-1   -1.508440850608078E-1
 8.116736432000000E9     5.062392828453214E-1    2.633479539370987E-3    6.320182852205341E-4    3.673571986373671E-3    7.491290293013555E-4    3.725885355839262E-3    4.243337875897371E-1   -1.512570246734195E-1
 8.116742381375000E9     5.063256497525064E-1    2.188844387024062E-3    6.872263428995410E-4    3.679182252611117E-3    7.615592372213907E-4    3.737143486324097E-3    4.241117283896276E-1   -1.516131944171014E-1
 8.116748330750000E9     5.063406986784899E-1    1.813234246239441E-3    6.772455488614542E-4    3.660251167925735E-3    7.410918860030103E-4    3.742415596588157E-3    4.240668633548684E-1   -1.518899019595226E-1
 8.116754280125000E9     5.061779205825613E-1    1.308787543895005E-3    7.006425764385262E-4    3.676503968168092E-3    7.658742095636527E-4    3.711860055026658E-3    4.237031582644057E-1   -1.525373292591379E-1
 8.116760229500000E9     5.062564468473006E-1    7.180084308988586E-4    6.945957397874598E-4    3.690814805666218E-3    7.793275711662370E-4    3.719210616767837E-3    4.237769891089835E-1   -1.528056545489742E-1
 8.116766178875000E9     5.062885097132643E-1    2.840188254964542E-4    7.303919264337496E-4    3.680458750772421E-3    7.723921741244968E-4    3.737976182161539E-3    4.236870195707745E-1   -1.532786755955552E-1
 8.116772128250000E9     5.063510606535692E-1   -7.695422814294884E-5    7.109362189730560E-4    3.690076359861141E-3    7.713000795387738E-4    3.753770463581438E-3    4.236004493780942E-1   -1.536407882201331E-1
 8.116778077625000E9     5.062749056419530E-1   -4.902491868969300E-4    7.143622824382713E-4    3.693570730396610E-3    7.588815189139486E-4    3.731709079109090E-3    4.234556215947241E-1   -1.540829315728697E-1
 8.116784027000000E9     5.062704680492489E-1   -1.062824513473274E-3    7.050064287086068E-4    3.691326412660187E-3    7.986909696644708E-4    3.720984669911422E-3    4.231997045823363E-1   -1.543262760448904E-1
 8.116789976375000E9     5.062562785200028E-1   -1.479155710493296E-3    7.139688817952008E-4    3.697206102446608E-3    8.104757850190345E-4    3.747614837858217E-3    4.231206399461028E-1   -1.548472233505378E-1
 8.116795925750000E9     5.062596062191624E-1   -1.877810996584971E-3    7.542866084877319E-4    3.707463490406984E-3    7.693586487019200E-4    3.750243545926707E-3    4.230719440949980E-1   -1.553476657433400E-1
 8.116801875125000E9     5.062105339148533E-1   -2.280279608348331E-3    7.381001190240094E-4    3.708933074322769E-3    8.252171553682059E-4    3.775866922444819E-3    4.229508078814909E-1   -1.556557498574589E-1
 8.116807824500000E9     5.062051733515976E-1   -2.837448103720562E-3    7.356437682087279E-4    3.685588198837229E-3    8.040660596450082E-4    3.774608680718437E-3    4.229259845197537E-1   -1.559532411033678E-1
 8.116813773875000E9     5.062005938501503E-1   -3.346068310242631E-3    7.277932068828934E-4    3.706559474384744E-3    8.113073591071382E-4    3.763717460016834E-3    4.226237248831178E-1   -1.564617197649023E-1
 8.116819723250000E9     5.061195464627952E-1   -3.811677694704538E-3    7.544286792899226E-4    3.700692575515522E-3    8.197808717728997E-4    3.776217848286418E-3    4.225503308646426E-1   -1.567586672573364E-1
 8.116825672625000E9     5.060551520221419E-1   -4.245014887381973E-3    7.507305672884794E-4    3.706932092991462E-3    8.173035698939011E-4    3.787507930180017E-3    4.223702841115808E-1   -1.570815045452801E-1
 8.116831622000000E9     5.061801672319702E-1   -4.645207722506437E-3    7.770852002466829E-4    3.728486433255474E-3    8.474595311090018E-4    3.775702453965515E-3    4.222363692651083E-1   -1.573760804307509E-1
 8.116837571375000E9     5.061070483238010E-1   -5.139710036326819E-3    7.771796118617780E-4    3.708757466387247E-3    8.288731222297377E-4    3.792614938658582E-3    4.221233639306328E-1   -1.579160550641851E-1
 8.116843520750000E9     5.061045499928301E-1   -5.556834340570088E-3    7.746574137797763E-4    3.711290847886255E-3    8.791033098006647E-4    3.768488714670274E-3    4.219384883062824E-1   -1.583804262562468E-1
