#  HZ   S   RI   R     50.00 
! Rohde & Schwarz Vector Network Analyzer 
! Rohde-Schwarz,ZNB20-2Port,1311601062101988,3.16
! Created: UTC 3/20/2024, 11:48:55 AM
! freq[Hz]                re:S11                  im:S11                  re:S21                  im:S21                  re:S12                  im:S12                  re:S22                  im:S22
 8.116235436000000E9     5.054167495196881E-1    4.058873217172606E-2    3.538752139550039E-4    3.499796860468393E-3    4.032125529905874E-4    3.576501204192004E-3    4.334780944744435E-1   -1.175650220774574E-1
 8.116241669425000E9     5.054869141220169E-1    4.016603132590126E-2    3.453345515895637E-4    3.504164919505648E-3    3.928916454371680E-4    3.596987329175414E-3    4.332534964316478E-1   -1.179142259441726E-1
 8.116247902850000E9     5.055084656672479E-1    3.966555442082137E-2    3.523743406518593E-4    3.540257429483036E-3    3.972891871555275E-4    3.569080903951968E-3    4.331476898398896E-1   -1.184964134431383E-1
 8.116254136275000E9     5.055476140850890E-1    3.925475587222032E-2    3.747032954940412E-4    3.522721377692111E-3    4.308038265782109E-4    3.556250887846998E-3    4.329671838692348E-1   -1.189303367262022E-1
 8.116260369700000E9     5.055319693731406E-1    3.867110621880299E-2    3.509467850014446E-4    3.520848630441516E-3    4.797629103355857E-4    3.586696242181300E-3    4.329608226872929E-1   -1.192365523777196E-1
 8.116266603125000E9     5.054892779752456E-1    3.837564723032862E-2    3.639504337779742E-4    3.536301268295432E-3    4.094380054989465E-4    3.558365658770591E-3    4.327391853569446E-1   -1.195912411209098E-1
 8.116272836550000E9     5.054918873643575E-1    3.775777229336581E-2    3.788185134351159E-4    3.529886213578554E-3    4.269976423997721E-4    3.540670812229837E-3    4.327493991137389E-1   -1.200674366901404E-1
 8.116279069975000E9     5.055954684405933E-1    3.727277691479788E-2    3.683110415881586E-4    3.506538951172801E-3    4.467195039057715E-4    3.595033752687175E-3    4.327484981959716E-1   -1.205492166768658E-1
 8.116285303400000E9     5.056000286067115E-1    3.684782352769797E-2    4.062854146546695E-4    3.544504963650452E-3    4.288434713113302E-4    3.581750444152762E-3    4.325598877698340E-1   -1.209656471420239E-1
 8.116291536825000E9     5.057427596968811E-1    3.642348655120063E-2    4.042540445140042E-4    3.530648656309050E-3    4.353433888722419E-4    3.555618728579367E-3    4.325139703326322E-1   -1.214933707559625E-1
 8.116297770250000E9     5.057773248533851E-1    3.590516253746841E-2    3.786519214652215E-4    3.508877124173024E-3    4.434338306478450E-4    3.611538020666776E-3    4.324056402837066E-1   -1.218858305997447E-1
 8.116304003675000E9     5.056998315270440E-1    3.550481727405829E-2    3.992863672632724E-4    3.540476766325986E-3    4.376401758412271E-4    3.569768363008028E-3    4.324192912387119E-1   -1.222348538506691E-1
 8.116310237100000E9     5.057243974388673E-1    3.512029686567665E-2    4.149774710837516E-4    3.533935016857149E-3    4.725117548194924E-4    3.613572609764913E-3    4.321942482062259E-1   -1.227176227793482E-1
 8.116316470525000E9     5.058016431805176E-1    3.453640388298535E-2    4.011476382106299E-4    3.521871335948793E-3    4.528508977922081E-4    3.568249424202917E-3    4.319041654051710E-1   -1.231480335299149E-1
 8.116322703950000E9     5.058091202047216E-1    3.397417725507249E-2    4.193558978786901E-4    3.532625366604211E-3    4.826652587094164E-4    3.556240448728478E-3    4.319335110584417E-1   -1.234960540525989E-1
 8.116328937375000E9     5.057897947113420E-1    3.347536614174493E-2    4.215494135231362E-4    3.543444997828485E-3    4.572106580744333E-4    3.595305966175987E-3    4.319689980887270E-1   -1.238560165415255E-1
 8.116335170800000E9     5.058139358405519E-1    3.307112470608730E-2    4.297720540963033E-4    3.543061339227595E-3    4.713896634909173E-4    3.626203637453796E-3    4.317178668189179E-1   -1.244210799803094E-1
 8.116341404225000E9     5.058637653794904E-1    3.265087047236189E-2    4.152608520105888E-4    3.520720002567095E-3    4.902047106277880E-4    3.614158889178342E-3    4.317561318460495E-1   -1.246128793386741E-1
 8.116347637650000E9     5.059073987542038E-1    3.220961449897899E-2    4.091446396290776E-4    3.542650179980167E-3    4.949860237426128E-4    3.567937877099682E-3    4.314846196669544E-1   -1.251532543480347E-1
 8.116353871075000E9     5.059295059707435E-1    3.161129896403715E-2    4.260663357311829E-4    3.547601081836248E-3    4.943502460649982E-4    3.612263608434571E-3    4.315250403288646E-1   -1.255706513598542E-1
 8.116360104500000E9     5.058999673263079E-1    3.119088190472488E-2    4.401736757615106E-4    3.555655111868406E-3    5.043203926788657E-4    3.601954005736500E-3    4.313013607918061E-1   -1.259856212431676E-1
 8.116366337925000E9     5.059107539543375E-1    3.071090533296133E-2    4.685497586701821E-4    3.544012225347476E-3    4.872650523237886E-4    3.586326763469995E-3    4.312021597147954E-1   -1.265116992805008E-1
 8.116372571350000E9     5.059955835134480E-1    3.031100772993206E-2    4.357614292558465E-4    3.563814782672732E-3    5.248219101883433E-4    3.601770779965015E-3    4.311918610690282E-1   -1.267507144070246E-1
 8.116378804775000E9     5.060425782972179E-1    2.987265019217817E-2    4.469439467444675E-4    3.520316342364753E-3    4.942276834702334E-4    3.606608034010080E-3    4.310964817514580E-1   -1.271943753239023E-1
 8.116385038200000E9     5.059881773658246E-1    2.935416417139824E-2    4.509624153536174E-4    3.577491770499301E-3    4.872772781637011E-4    3.631003636856301E-3    4.308860802323076E-1   -1.276369152398172E-1
 8.116391271625000E9     5.060024688066511E-1    2.878510479503888E-2    4.713422618337392E-4    3.537021245997309E-3    5.277349770351834E-4    3.588382944783052E-3    4.309244262386097E-1   -1.280418790176298E-1
 8.116397505050000E9     5.060364851268092E-1    2.837869060903558E-2    4.643292283923709E-4    3.551967496130799E-3    5.381355718313114E-4    3.605541675152067E-3    4.305741990364990E-1   -1.283662605390007E-1
 8.116403738475000E9     5.060388656125466E-1    2.788596150932425E-2    4.669653744089304E-4    3.565231685441921E-3    5.142500921406719E-4    3.589858886956237E-3    4.305455643704109E-1   -1.290013368279292E-1
 8.116409971900000E9     5.061797157245025E-1    2.753432066664927E-2    4.382979731323899E-4    3.553413089688828E-3    5.243941091705938E-4    3.600883748145887E-3    4.304885950331814E-1   -1.293853587543315E-1
 8.116416205325000E9     5.060640330264997E-1    2.704931163650548E-2    4.862682253289992E-4    3.531091418281492E-3    5.212300055056153E-4    3.627468601561541E-3    4.303642849290282E-1   -1.297394801086562E-1
 8.116422438750000E9     5.059770459763705E-1    2.646284996741335E-2    4.844060195426696E-4    3.549897989604288E-3    5.576516170006529E-4    3.637838115782638E-3    4.303533078532983E-1   -1.301748187922592E-1
 8.116428672175000E9     5.061756704452206E-1    2.597738420730126E-2    4.706842355089821E-4    3.561891602825561E-3    4.976607534206085E-4    3.597583802528296E-3    4.302151890662232E-1   -1.305535181721639E-1
 8.116434905600000E9     5.060293713141439E-1    2.550467994399047E-2    4.921323490508135E-4    3.546305625118380E-3    5.674770538559279E-4    3.638253913992783E-3    4.299525453582917E-1   -1.309470221941054E-1
 8.116441139025000E9     5.061451312070662E-1    2.516204534494021E-2    4.999760606704954E-4    3.566434368787323E-3    5.550382419298658E-4    3.588109097318592E-3    4.299894810272167E-1   -1.314530613325632E-1
 8.116447372450000E9     5.061865412070872E-1    2.463089918730605E-2    5.127756093728021E-4    3.585352270410845E-3    5.208304664444947E-4    3.613243235972328E-3    4.297748064263456E-1   -1.320250330327586E-1
 8.116453605875000E9     5.061514591981799E-1    2.418403496660302E-2    4.807794359893290E-4    3.595421549531007E-3    5.399769379522993E-4    3.592874133233520E-3    4.298300517545944E-1   -1.324998170659431E-1
 8.116459839300000E9     5.062462587601361E-1    2.364572817452111E-2    4.874524338301930E-4    3.564802600255007E-3    5.405434691647392E-4    3.636909035170041E-3    4.294775270017238E-1   -1.326629128172897E-1
 8.116466072725000E9     5.063367719016063E-1    2.331873287789879E-2    4.829786590430760E-4    3.584461286282853E-3    5.504512556684955E-4    3.610607109607012E-3    4.293858317936085E-1   -1.331438703381959E-1
 8.116472306150000E9     5.063230054721769E-1    2.270808135864096E-2    5.224516460849965E-4    3.584813726323210E-3    5.664428223781521E-4    3.610120588498768E-3    4.293983592704538E-1   -1.336082127345856E-1
 8.116478539575000E9     5.062148973601933E-1    2.224589845449557E-2    5.096523313296476E-4    3.588787610905225E-3    5.527642143408959E-4    3.637502874672990E-3    4.292918294078156E-1   -1.338490805317880E-1
 8.116484773000000E9     5.062314872207276E-1    2.179695138498669E-2    5.158237924627289E-4    3.582698211867432E-3    5.875750314345854E-4    3.627985622907262E-3    4.290699032352411E-1   -1.343808970131635E-1
 8.116491006425000E9     5.062355816318665E-1    2.135023718242592E-2    5.134097875515168E-4    3.566527079776892E-3    6.007839002788644E-4    3.637008250407838E-3    4.292374825900024E-1   -1.347403249500419E-1
 8.116497239850000E9     5.062431704588494E-1    2.098262456973581E-2    5.127276996940393E-4    3.563562848356605E-3    5.936195254104569E-4    3.627474058804132E-3    4.289261799728156E-1   -1.352425077726091E-1
 8.116503473275000E9     5.061816435978909E-1    2.044466444428817E-2    5.130960958083359E-4    3.590017535882908E-3    5.635120431288477E-4    3.655656907843341E-3    4.287513893983392E-1   -1.357656420921438E-1
 8.116509706700000E9     5.063492319833865E-1    1.986685482123759E-2    5.386767613045952E-4    3.584429565252947E-3    6.215289648465704E-4    3.622083667812291E-3    4.286617930265653E-1   -1.361863021325114E-1
 8.116515940125000E9     5.063587641809182E-1    1.939754697399812E-2    5.239649036489999E-4    3.588802670391547E-3    5.982715233454682E-4    3.636047070563892E-3    4.286306070962491E-1   -1.365573878314619E-1
 8.116522173550000E9     5.062484589225144E-1    1.900853396880668E-2    5.129476265230503E-4    3.576858089160728E-3    6.139155602296221E-4    3.644005724737734E-3    4.284108153553994E-1   -1.368291470981675E-1
 8.116528406975000E9     5.063750984640921E-1    1.852803522492409E-2    5.291624348059530E-4    3.593546931465890E-3    6.083991356015070E-4    3.673152786482278E-3    4.282847611364097E-1   -1.373634058158636E-1
 8.116534640400000E9     5.062926616843046E-1    1.810175405536662E-2    5.507783952833300E-4    3.587470290321357E-3    5.684842214576195E-4    3.655960679951688E-3    4.282961521789877E-1   -1.376208915121179E-1
 8.116540873825000E9     5.063345308909954E-1    1.762067796279678E-2    5.649834623459737E-4    3.598927340213453E-3    6.157663991917961E-4    3.659475270964284E-3    4.281856945076484E-1   -1.381943244150608E-1
 8.116547107250000E9     5.063828860475753E-1    1.716565623982428E-2    5.340544300036070E-4    3.605805799378975E-3    5.919698929057461E-4    3.671833723416557E-3    4.280129703487023E-1   -1.386349559091944E-1
 8.116553340675000E9     5.063346769145318E-1    1.654066989971956E-2    5.631034459151984E-4    3.593360112508020E-3    6.570549877591760E-4    3.645258414832761E-3    4.279105159106467E-1   -1.390356310182164E-1
 8.116559574100000E9     5.064078988971127E-1    1.616537069347598E-2    5.507509273562130E-4    3.598865603608859E-3    6.448887337295485E-4    3.630137357821779E-3    4.277387555209403E-1   -1.393374259692485E-1
 8.116565807525000E9     5.063243767011618E-1    1.565628362685982E-2    5.523583928287192E-4    3.591647958149154E-3    6.369925888912069E-4    3.654161913784499E-3    4.276406262142450E-1   -1.398181378137858E-1
 8.116572040950000E9     5.064077810607061E-1    1.522432224330473E-2    5.741072367620731E-4    3.623867989765972E-3    6.289877529503784E-4    3.658347031532528E-3    4.275142898639891E-1   -1.402381922981811E-1
 8.116578274375000E9     5.062056364025631E-1    1.463823182340216E-2    5.914375059475493E-4    3.620924772851063E-3    6.142285775620897E-4    3.643952068887647E-3    4.272621856572178E-1   -1.405827712276081E-1
 8.116584507800000E9     5.064226526131121E-1    1.419795214334677E-2    5.684569012475417E-4    3.611723001365389E-3    6.244978915431955E-4    3.660141241269382E-3    4.274434996472123E-1   -1.409763329639726E-1
 8.116590741225000E9     5.063082644642942E-1    1.371430189263658E-2    5.694649076713358E-4    3.600582833116797E-3    6.386537262794358E-4    3.692050757188635E-3    4.272027841463667E-1   -1.414171412987186E-1
 8.116596974650000E9     5.063453144929584E-1    1.328671098820004E-2    5.950581650098099E-4    3.612423226271479E-3    6.610459527516758E-4    3.651713821276844E-3    4.271431394725833E-1   -1.418196859457075E-1
 8.116603208075000E9     5.062967278711330E-1    1.283183191478712E-2    6.004617142791364E-4    3.622655965611565E-3    6.653796620481020E-4    3.642665347759276E-3    4.270370387171831E-1   -1.421869174990548E-1
 8.116609441500000E9     5.064171831910417E-1    1.242135006636165E-2    5.855863790783212E-4    3.631820504683436E-3    6.504039534801600E-4    3.642493909681638E-3    4.268815962312048E-1   -1.426753642414504E-1
 8.116615674925000E9     5.064455392685634E-1    1.188358152511188E-2    5.957378329530040E-4    3.627663710478647E-3    6.701662045249452E-4    3.656834488605502E-3    4.268439684817003E-1   -1.431588523021870E-1
 8.116621908350000E9     5.063724451600792E-1    1.146518211706952E-2    6.219091641919871E-4    3.619622212649439E-3    6.784588097933672E-4    3.679154026440597E-3    4.265611531171752E-1   -1.435709708456095E-1
 8.116628141775000E9     5.063477446873942E-1    1.086541525392857E-2    5.916696048075060E-4    3.623089248226292E-3    6.567615256275246E-4    3.644329573126193E-3    4.266013662297331E-1   -1.440136585894522E-1
 8.116634375200000E9     5.064319902584395E-1    1.037105833410819E-2    6.123382893197628E-4    3.642191394469285E-3    6.733299465460686E-4    3.644743685474656E-3    4.264407957648885E-1   -1.444905369898449E-1
 8.116640608625000E9     5.064325773324564E-1    9.981147646896690E-3    6.275994871731673E-4    3.654690110366420E-3    6.657523765215660E-4    3.702650640130291E-3    4.260333328489211E-1   -1.447748934622696E-1
 8.116646842050000E9     5.063270615948101E-1    9.439542545171854E-3    6.127495657195121E-4    3.625073744201012E-3    7.008598996588148E-4    3.709121415438390E-3    4.260866971373640E-1   -1.451981155716575E-1
 8.116653075475000E9     5.063784866398955E-1    9.224230700979680E-3    6.397714451053272E-4    3.627256914513952E-3    6.856958738997726E-4    3.680208353734562E-3    4.260818551420356E-1   -1.456977904738881E-1
 8.116659308900000E9     5.063465797199733E-1    8.533986977188789E-3    6.160803294575120E-4    3.638323739478192E-3    6.570545123181190E-4    3.671514572467448E-3    4.258431955538345E-1   -1.460594783979726E-1
 8.116665542325000E9     5.064992194769692E-1    8.034917191866508E-3    6.240605380409354E-4    3.629065612292221E-3    6.855140889767600E-4    3.711735736496802E-3    4.256941196788337E-1   -1.464705707134344E-1
 8.116671775750000E9     5.064248282966459E-1    7.617417119317146E-3    6.188510274096699E-4    3.639301209390617E-3    7.131681396824085E-4    3.654301569948108E-3    4.255497375455836E-1   -1.468826765200850E-1
 8.116678009175000E9     5.064165709896059E-1    7.155986588403708E-3    6.449307259464574E-4    3.625061266989592E-3    6.840183153777330E-4    3.700734511322351E-3    4.253930120239186E-1   -1.473008867263508E-1
 8.116684242600000E9     5.064395630965119E-1    6.653284630458892E-3    6.463638029637728E-4    3.643085550964027E-3    6.841493107214770E-4    3.703634780817251E-3    4.252993379777851E-1   -1.477253770425399E-1
 8.116690476025000E9     5.063328889646239E-1    6.162885716411101E-3    6.434648124159170E-4    3.662602588160167E-3    7.176209377683505E-4    3.707732642540094E-3    4.252988111133961E-1   -1.481951350266447E-1
 8.116696709450000E9     5.062559044321261E-1    5.661367868326593E-3    6.801022762783656E-4    3.650953375708394E-3    7.167396851909046E-4    3.723848602730593E-3    4.250350953127075E-1   -1.486139234189832E-1
 8.116702942875000E9     5.063886091542189E-1    5.259531610074307E-3    6.776468844110990E-4    3.653670188670675E-3    7.081106204640547E-4    3.731658300752971E-3    4.249680105554183E-1   -1.490955056084833E-1
 8.116709176300000E9     5.062466814126444E-1    4.773492725991861E-3    6.523513828952845E-4    3.670211538987428E-3    7.228173175556514E-4    3.705610193187284E-3    4.247596622179055E-1   -1.493218666177755E-1
 8.116715409725000E9     5.062247116329737E-1    4.246081051320912E-3    6.597645999133224E-4    3.671669023747455E-3    7.167462771360085E-4    3.695860775639968E-3    4.246444471485530E-1   -1.496666325095667E-1
 8.116721643150000E9     5.062685112138151E-1    3.822653045681687E-3    6.700519163401592E-4    3.687957578391257E-3    7.548131643910574E-4    3.704719419901895E-3    4.244533915716834E-1   -1.502265599638548E-1
 8.116727876575000E9     5.062231216015251E-1    3.291080888409473E-3    6.922046106405832E-4    3.664754933848450E-3    7.437443438752758E-4    3.751880724709438E-3    4.244164592031732E-1   -1.506680365908148E-1
 8.116734110000000E9     5.063961326351337E-1    2.915748808095197E-3    6.793457399558661E-4    3.681850186214874E-3    7.362178927421502E-4    3.733065551685527E-3    4.242883914221736E-1   -1.511579334123106E-1
 8.116740343425000E9     5.063192473276075E-1    2.409305745897657E-3    7.225700048854612E-4    3.687366439942259E-3    7.523474022371520E-4    3.745152232354559E-3    4.240927307025767E-1   -1.514402536216415E-1
 8.116746576850000E9     5.063459939974057E-1    1.880906370471356E-3    7.024509066508514E-4    3.676113790189907E-3    7.364896587311308E-4    3.737873668507626E-3    4.241360666420851E-1   -1.519031870398466E-1
 8.116752810275000E9     5.062970610386330E-1    1.396231763568142E-3    7.156576382619290E-4    3.714257118304604E-3    7.192504535235058E-4    3.752760766378434E-3    4.238825329805256E-1   -1.521806494493189E-1
 8.116759043700000E9     5.062980998200765E-1    7.922345117137644E-4    6.920828543987553E-4    3.689338667277927E-3    7.658416056337614E-4    3.728504842739888E-3    4.237687203632795E-1   -1.526034876921950E-1
 8.116765277125000E9     5.062742334842922E-1    4.768164109088086E-4    6.887116442282390E-4    3.680217201687243E-3    6.942554745730225E-4    3.713964613135251E-3    4.235671794851777E-1   -1.531964039783432E-1
 8.116771510550000E9     5.062779979004741E-1    4.160667282107007E-6    7.278632731818136E-4    3.682969339052920E-3    8.215959011857757E-4    3.724881651430951E-3    4.235189027802469E-1   -1.534290801619844E-1
 8.116777743975000E9     5.062255516366359E-1   -4.899983690090367E-4    7.041055447808162E-4    3.695424201617906E-3    7.671772979099849E-4    3.770419442338783E-3    4.234373464251293E-1   -1.539250913233118E-1
 8.116783977400000E9     5.061113243578181E-1   -1.039167956995475E-3    7.300825226393466E-4    3.681021754426294E-3    7.839939244926950E-4    3.748907236736526E-3    4.233376003318600E-1   -1.543801976608200E-1
 8.116790210825000E9     5.062125976978686E-1   -1.470187162831970E-3    7.279953624560561E-4    3.711773704083773E-3    8.018885812506015E-4    3.765121798021663E-3    4.232605507880813E-1   -1.546375396254859E-1
 8.116796444250000E9     5.061737017410278E-1   -2.027867516577152E-3    7.416589590522145E-4    3.726266784580404E-3    8.500923426916268E-4    3.744094475760957E-3    4.229816371735561E-1   -1.551474997264710E-1
