#  HZ   S   RI   R     50.00 
! Rohde & Schwarz Vector Network Analyzer 
! Rohde-Schwarz,ZNB20-2Port,1311601062101988,3.16
! Created: UTC 3/20/2024, 11:49:30 AM
! freq[Hz]                re:S11                  im:S11                  re:S21                  im:S21                  re:S12                  im:S12                  re:S22                  im:S22
 8.116168411000000E9     5.049696860437711E-1    4.555416105151468E-2    3.290646360348344E-4    3.525233976575212E-3    4.107554912152069E-4    3.566954594595016E-3    4.344367505250358E-1   -1.130339290012654E-1
 8.116174905800000E9     5.051048750437009E-1    4.508726896454394E-2    2.864081045019714E-4    3.523796335995312E-3    3.720648009310126E-4    3.562697484118374E-3    4.344030024724220E-1   -1.135075187270635E-1
 8.116181400600000E9     5.050989274047630E-1    4.458645133353805E-2    3.195571105251661E-4    3.533132511472083E-3    3.944637025659646E-4    3.585445404725756E-3    4.341521227597681E-1   -1.138515612640710E-1
 8.116187895400000E9     5.052078187354455E-1    4.421375744974930E-2    3.364565204870149E-4    3.526568889653661E-3    4.180761275210592E-4    3.579191961922999E-3    4.341638678362787E-1   -1.142625966851607E-1
 8.116194390200000E9     5.051496632550690E-1    4.357878353906788E-2    3.247351990298348E-4    3.479384911669763E-3    4.236997734225382E-4    3.563176084428557E-3    4.341833289392649E-1   -1.148240031824806E-1
 8.116200885000000E9     5.052251044499867E-1    4.306881890880522E-2    3.484171859558906E-4    3.516555342180574E-3    3.816995628650066E-4    3.559668342652756E-3    4.339242917227231E-1   -1.152949426029165E-1
 8.116207379800000E9     5.051437030651609E-1    4.248120240406049E-2    3.542847906690267E-4    3.522996658382859E-3    4.291554668139327E-4    3.583064923994725E-3    4.339793251616345E-1   -1.156180469640096E-1
 8.116213874600000E9     5.053012656287130E-1    4.202847363375837E-2    3.673203382762604E-4    3.508639190157219E-3    4.313406525984835E-4    3.573242066986899E-3    4.338000529977845E-1   -1.160527822523217E-1
 8.116220369400000E9     5.052684190737617E-1    4.171141444392330E-2    3.270565450435713E-4    3.488182082236019E-3    4.055910485442481E-4    3.559402398699483E-3    4.335697955051434E-1   -1.164985523403016E-1
 8.116226864200000E9     5.052361109797305E-1    4.111625760289363E-2    3.487113928660658E-4    3.535815756345447E-3    4.138834545278924E-4    3.597149790552043E-3    4.334801726142580E-1   -1.170574107099236E-1
 8.116233359000000E9     5.053542398489164E-1    4.065435852310463E-2    3.560984510435283E-4    3.543110596115567E-3    4.352670198576233E-4    3.578695503857315E-3    4.333988834234735E-1   -1.173565901964209E-1
 8.116239853800000E9     5.053813517809137E-1    4.013195840775158E-2    3.398802355153683E-4    3.504156535240337E-3    4.101159220942971E-4    3.575539895342798E-3    4.332053920144903E-1   -1.178947174032173E-1
 8.116246348600000E9     5.055681200940729E-1    3.969863332767418E-2    3.702958534162361E-4    3.516037605153771E-3    4.359416473251438E-4    3.591210008832653E-3    4.332421653152854E-1   -1.181501609010132E-1
 8.116252843400000E9     5.054802885304939E-1    3.914667713878354E-2    3.879188449897213E-4    3.517054165079296E-3    4.734409490487406E-4    3.584910449612734E-3    4.332116053590231E-1   -1.185532920607912E-1
 8.116259338200000E9     5.054130858566033E-1    3.875676846365713E-2    3.724788004870896E-4    3.531579711741877E-3    4.022603120281750E-4    3.572852742118881E-3    4.330372478656285E-1   -1.190798260314494E-1
 8.116265833000000E9     5.055496087168534E-1    3.812592675907794E-2    4.029186271405592E-4    3.527912420760286E-3    4.321484895999642E-4    3.594646965448140E-3    4.329730954087968E-1   -1.194657375406469E-1
 8.116272327800000E9     5.055436839483201E-1    3.768819136871924E-2    3.629318376950382E-4    3.532872387781292E-3    4.711211764223391E-4    3.592162392357726E-3    4.327997425690358E-1   -1.200336139073830E-1
 8.116278822600000E9     5.054672917119061E-1    3.726825421798313E-2    4.029370212055194E-4    3.542350677542223E-3    4.807802729575162E-4    3.580442506060453E-3    4.328810178783580E-1   -1.203417358392460E-1
 8.116285317400000E9     5.056237143359620E-1    3.667815448914481E-2    3.804237950853438E-4    3.504041819282553E-3    4.612267755501064E-4    3.598972218397550E-3    4.325502800663295E-1   -1.209731871057681E-1
 8.116291812200000E9     5.056525303633363E-1    3.624874128087675E-2    4.131687206174950E-4    3.558405749736048E-3    4.828110464612607E-4    3.605696004415192E-3    4.325025905120230E-1   -1.213826804177791E-1
 8.116298307000000E9     5.056521886589432E-1    3.578996025136016E-2    4.086477339143359E-4    3.533651384891056E-3    4.740421440562098E-4    3.603593105512262E-3    4.323154502327959E-1   -1.217186857792374E-1
 8.116304801800000E9     5.055986875991000E-1    3.517299270752189E-2    4.160526739133293E-4    3.537801601387657E-3    4.866111013440596E-4    3.554645253831056E-3    4.322695176412732E-1   -1.222281676402667E-1
 8.116311296600000E9     5.056817241647970E-1    3.485563157831256E-2    3.986943212742863E-4    3.550157986753223E-3    4.583710645423687E-4    3.607441163160980E-3    4.322132832047721E-1   -1.226457462452306E-1
 8.116317791400000E9     5.056857335509800E-1    3.430734013633994E-2    4.073843996615725E-4    3.550478350118502E-3    4.939566001844974E-4    3.597567548155358E-3    4.321187712229595E-1   -1.231244533198538E-1
 8.116324286200000E9     5.056849051801121E-1    3.374229948921686E-2    4.047967347622832E-4    3.525653536293933E-3    4.802966455479617E-4    3.607623925128679E-3    4.320570231371652E-1   -1.235254452909497E-1
 8.116330781000000E9     5.057423614532219E-1    3.325628330048545E-2    3.896162107975496E-4    3.531612278870478E-3    4.804184362526561E-4    3.611209751628685E-3    4.319449245469107E-1   -1.239054659949438E-1
 8.116337275800000E9     5.056615765661473E-1    3.275396218498527E-2    4.316757256079838E-4    3.561396490597930E-3    4.936416743218813E-4    3.607959071972316E-3    4.317470707879673E-1   -1.243556780868699E-1
 8.116343770600000E9     5.058551100784351E-1    3.223304197754595E-2    4.203293278157953E-4    3.539571520190747E-3    4.726980349108407E-4    3.646705795191494E-3    4.317099280558267E-1   -1.247658843448009E-1
 8.116350265400000E9     5.058029560567172E-1    3.180616294666597E-2    4.385902911346783E-4    3.517856772909217E-3    5.097685219082354E-4    3.621980073782887E-3    4.316038870860233E-1   -1.253424005100345E-1
 8.116356760200000E9     5.058133072141263E-1    3.126194767438149E-2    4.331275327175210E-4    3.546244679875135E-3    4.884614021377756E-4    3.623600710893205E-3    4.314358899992518E-1   -1.256675646106498E-1
 8.116363255000000E9     5.058822069759711E-1    3.085926094510192E-2    4.230795361518608E-4    3.542310234776435E-3    4.715967363704053E-4    3.600012178928194E-3    4.314331650740179E-1   -1.261465971768214E-1
 8.116369749800000E9     5.057485016276976E-1    3.028714809314736E-2    4.176920452752110E-4    3.526534543230476E-3    5.307964354522022E-4    3.595538353434630E-3    4.313033129659011E-1   -1.266049041038086E-1
 8.116376244600000E9     5.059011251184523E-1    2.983448084347525E-2    4.505810557809327E-4    3.579530745696690E-3    5.240168876714429E-4    3.637871325362470E-3    4.311106799914747E-1   -1.269146087409964E-1
 8.116382739400000E9     5.059407356164857E-1    2.943355176728496E-2    4.714717800651451E-4    3.569194432883478E-3    5.030083548925133E-4    3.599323029798451E-3    4.310533709518679E-1   -1.273710957123368E-1
 8.116389234200000E9     5.059857830142207E-1    2.880857759873389E-2    4.778862564601852E-4    3.541781142589106E-3    5.051707391971996E-4    3.590108170763903E-3    4.309544479319946E-1   -1.280769838824885E-1
 8.116395729000000E9     5.059746774231957E-1    2.838515211092962E-2    4.407159069858613E-4    3.568247359961912E-3    5.061555728962118E-4    3.597161052556071E-3    4.308919357652772E-1   -1.283277609843310E-1
 8.116402223800000E9     5.058938400126123E-1    2.783584921105848E-2    4.399595770137661E-4    3.583150131815617E-3    5.361208901577489E-4    3.599080858379760E-3    4.307412701487201E-1   -1.287447579780339E-1
 8.116408718600000E9     5.061328326620792E-1    2.746564873299248E-2    4.609884813434553E-4    3.574550388646920E-3    5.140472729609032E-4    3.647569826270926E-3    4.305968978365816E-1   -1.292521566361863E-1
 8.116415213400000E9     5.059897339942999E-1    2.690609541174779E-2    4.913235767484203E-4    3.559327080970705E-3    5.561145390172356E-4    3.625046296964182E-3    4.303418274367711E-1   -1.296042417498858E-1
 8.116421708200000E9     5.059713141805517E-1    2.653482553249535E-2    4.854652470310608E-4    3.579978944505811E-3    5.232400148240051E-4    3.631075333183459E-3    4.304177785942779E-1   -1.301912031611976E-1
 8.116428203000000E9     5.061473631482795E-1    2.590275603894129E-2    4.831156241924290E-4    3.560030664285105E-3    5.332899490152286E-4    3.609756888541221E-3    4.301838630765830E-1   -1.304435444943533E-1
 8.116434697800000E9     5.060232075962546E-1    2.557840074525853E-2    4.880843549801592E-4    3.580530350293217E-3    5.184280115214669E-4    3.625114110942395E-3    4.301873750512543E-1   -1.309668957819868E-1
 8.116441192600000E9     5.061260441405560E-1    2.486125739653211E-2    4.919511495326580E-4    3.577132783799314E-3    5.379499686126252E-4    3.632267085868040E-3    4.299512159927964E-1   -1.311552547425217E-1
 8.116447687400000E9     5.060881743039775E-1    2.461613878289700E-2    4.670674073490901E-4    3.587326375291400E-3    5.402277497663949E-4    3.626181524729091E-3    4.299339864596420E-1   -1.317756768089436E-1
 8.116454182200000E9     5.061960299425535E-1    2.401810332159700E-2    5.092021687423203E-4    3.566683674536253E-3    5.883257652647600E-4    3.581864584039233E-3    4.297431165996827E-1   -1.322903087235189E-1
 8.116460677000000E9     5.061360036846418E-1    2.341489223758484E-2    5.097717567051864E-4    3.589077312588769E-3    5.584823530240407E-4    3.621656131695387E-3    4.296478057929740E-1   -1.326170304536340E-1
 8.116467171800000E9     5.061840034397154E-1    2.304071885676412E-2    4.931515107606650E-4    3.582380519151581E-3    5.547863991063124E-4    3.637912357593206E-3    4.295542499690431E-1   -1.331544192760560E-1
 8.116473666600000E9     5.062010199077902E-1    2.253278362268359E-2    5.298895449279751E-4    3.579757543332013E-3    5.331600063774969E-4    3.635843551995267E-3    4.293755818120963E-1   -1.336164007465390E-1
 8.116480161400000E9     5.061507118972579E-1    2.202194555335761E-2    5.121762636028498E-4    3.563234833108227E-3    5.828698430811567E-4    3.628325758481616E-3    4.293993366818292E-1   -1.340698451306507E-1
 8.116486656200000E9     5.061633998255439E-1    2.156883981410480E-2    5.170463549692011E-4    3.579406974431350E-3    5.565245789050940E-4    3.643520705817885E-3    4.291246245532569E-1   -1.344363359026882E-1
 8.116493151000000E9     5.061818973238756E-1    2.106160103787744E-2    5.144296459116252E-4    3.592126096728238E-3    5.582398382927198E-4    3.673055380536214E-3    4.290487690566134E-1   -1.349133666089638E-1
 8.116499645800000E9     5.061209130404399E-1    2.058486411000756E-2    5.365468669135694E-4    3.592944632754697E-3    5.827050552447851E-4    3.668040841501249E-3    4.288661020173879E-1   -1.353494493828674E-1
 8.116506140600000E9     5.062651881320427E-1    2.017083304810004E-2    5.455379537300108E-4    3.603631402578412E-3    5.723943009558992E-4    3.632094287172130E-3    4.287879412471745E-1   -1.357069370579424E-1
 8.116512635400000E9     5.062476523165330E-1    1.958312065337113E-2    4.977293590166794E-4    3.567652605236921E-3    5.892621645562048E-4    3.637593072319434E-3    4.286593391768925E-1   -1.361948476755402E-1
 8.116519130200000E9     5.063086760012059E-1    1.906368205901695E-2    5.328759953575221E-4    3.583552723457481E-3    5.968517477439020E-4    3.616888471161222E-3    4.285974628343205E-1   -1.364813472348800E-1
 8.116525625000000E9     5.062954503999009E-1    1.873612480317401E-2    5.391064937275358E-4    3.592419091914902E-3    6.024231464785925E-4    3.664040099768855E-3    4.285598967764400E-1   -1.370719032771868E-1
 8.116532119800000E9     5.062578857407208E-1    1.809012572680196E-2    5.655165949449133E-4    3.586639637977635E-3    5.925315894215553E-4    3.631652750259684E-3    4.283204686399392E-1   -1.374998354216509E-1
 8.116538614600000E9     5.062874995464152E-1    1.755288447238366E-2    5.338048657916683E-4    3.635160111130996E-3    5.590290230548395E-4    3.642939684804729E-3    4.282806208221236E-1   -1.378856926693757E-1
 8.116545109400000E9     5.062972091953302E-1    1.714666339798299E-2    5.494104210038614E-4    3.589720235764129E-3    6.062815031310253E-4    3.672837048261649E-3    4.281713282558903E-1   -1.383384653598756E-1
 8.116551604200000E9     5.063095640564710E-1    1.659988972751828E-2    5.484066406903530E-4    3.607284959038463E-3    6.271735415636162E-4    3.658912870775983E-3    4.279518373548749E-1   -1.388090088556918E-1
 8.116558099000000E9     5.063551823531065E-1    1.603234364596358E-2    5.566391953099953E-4    3.606828263973390E-3    6.397379186298301E-4    3.650333831461393E-3    4.279180332249927E-1   -1.391357440450171E-1
 8.116564593800000E9     5.062639852665208E-1    1.559147940484032E-2    5.706255154665460E-4    3.605845375261849E-3    6.429029937363513E-4    3.677420090493647E-3    4.277195985017154E-1   -1.396446930061337E-1
 8.116571088600000E9     5.062912935919750E-1    1.506010569304446E-2    5.718408972860554E-4    3.607618820542636E-3    6.603327351823331E-4    3.656902981412599E-3    4.275885186002414E-1   -1.401267551101599E-1
 8.116577583400000E9     5.063086008986658E-1    1.471180805449894E-2    5.743534634537219E-4    3.597886715707301E-3    6.525125064141317E-4    3.668382793573614E-3    4.274868221099530E-1   -1.405569766858166E-1
 8.116584078200000E9     5.063060612901636E-1    1.426651318323485E-2    5.759733337666594E-4    3.614338849974998E-3    6.318983843566071E-4    3.654676308132756E-3    4.274089146067291E-1   -1.410042448522604E-1
 8.116590573000000E9     5.063096374756770E-1    1.369109353359397E-2    6.058414181519850E-4    3.618462472180201E-3    6.571194796948240E-4    3.658729877833407E-3    4.271098446584756E-1   -1.414470787683794E-1
 8.116597067800000E9     5.063540179462129E-1    1.326403725565731E-2    5.889825180190729E-4    3.645583998543491E-3    6.569681979591379E-4    3.671252217196778E-3    4.272546915063337E-1   -1.416625245851126E-1
 8.116603562600000E9     5.062670067983657E-1    1.261753818614032E-2    6.051589570430474E-4    3.605461267480305E-3    6.422845353020554E-4    3.675997713805966E-3    4.270405462919860E-1   -1.421696299643199E-1
 8.116610057400000E9     5.063306620137699E-1    1.211001702777174E-2    5.799959629613726E-4    3.621539496467966E-3    6.846703788376860E-4    3.688473349994731E-3    4.268858279834627E-1   -1.426846503084411E-1
 8.116616552200000E9     5.064424328609241E-1    1.170827430288317E-2    5.742733253524477E-4    3.623114189848265E-3    6.369402846853339E-4    3.701621118841788E-3    4.267759587728161E-1   -1.431290858020470E-1
 8.116623047000000E9     5.063403342890219E-1    1.110233341557811E-2    6.210046768484242E-4    3.630888045954001E-3    6.408460941605345E-4    3.700805733189459E-3    4.266656520125286E-1   -1.435640765679171E-1
 8.116629541800000E9     5.063449411155120E-1    1.064235224657108E-2    6.254494542264256E-4    3.621936951781834E-3    6.662686479918442E-4    3.692561853263412E-3    4.265686216434440E-1   -1.438965078441495E-1
 8.116636036600000E9     5.062262017843692E-1    1.028481869692493E-2    6.293825001582402E-4    3.621394193896208E-3    6.970377374777606E-4    3.686354905495922E-3    4.262373772179767E-1   -1.444900263788314E-1
 8.116642531400000E9     5.062378133025927E-1    9.749802279039387E-3    6.277448891660703E-4    3.651078728610291E-3    7.031998737516172E-4    3.674611212741948E-3    4.261898788746155E-1   -1.448103108132237E-1
 8.116649026200000E9     5.062932570743449E-1    9.205130444900282E-3    6.144032896884110E-4    3.647851500648405E-3    6.856107109735838E-4    3.660431060951701E-3    4.260769907945868E-1   -1.453159850507426E-1
 8.116655521000000E9     5.063567652424271E-1    8.748186448710331E-3    6.231867126943629E-4    3.621191691998679E-3    6.642590602951716E-4    3.715946892876768E-3    4.259543455629718E-1   -1.458358732402791E-1
 8.116662015800000E9     5.063223376733480E-1    8.252885901397930E-3    6.515784734144468E-4    3.651564142043675E-3    7.010549007214902E-4    3.698874215359985E-3    4.259401172183382E-1   -1.462433279950948E-1
 8.116668510600000E9     5.062520988913843E-1    7.766885198400175E-3    6.223792248651197E-4    3.615085287736466E-3    6.946834594149708E-4    3.694181839250872E-3    4.257156129075022E-1   -1.465258224574778E-1
 8.116675005400000E9     5.063287959605981E-1    7.279606004982667E-3    6.376129200161917E-4    3.633383398573221E-3    6.756172422852697E-4    3.686645623219305E-3    4.256249234509869E-1   -1.470287753665490E-1
 8.116681500200000E9     5.062811568160249E-1    6.827997743882957E-3    6.620468943564331E-4    3.669302099067960E-3    6.944720151725959E-4    3.702273204446007E-3    4.254110043586994E-1   -1.474743587030419E-1
 8.116687995000000E9     5.063233869380037E-1    6.212639582034610E-3    6.375523557421860E-4    3.654515601774537E-3    7.209959355762298E-4    3.697739034823169E-3    4.252014345901412E-1   -1.477723653941379E-1
 8.116694489800000E9     5.062174794721822E-1    5.697880913950645E-3    6.433320119724668E-4    3.648993429531185E-3    7.340697562513423E-4    3.695456909251783E-3    4.251669670009802E-1   -1.484447586997689E-1
 8.116700984600000E9     5.062944068352990E-1    5.251461759704444E-3    6.589546354605786E-4    3.645718275072683E-3    7.362134781605324E-4    3.718765003039592E-3    4.250916553749749E-1   -1.487170716225235E-1
 8.116707479400000E9     5.063865876562393E-1    4.768462204705575E-3    6.562974572565238E-4    3.664986340895713E-3    7.303004725191054E-4    3.727592365960797E-3    4.248770786062200E-1   -1.490848707688749E-1
 8.116713974200000E9     5.063215907701845E-1    4.225750302848452E-3    6.780748379302906E-4    3.664040578207760E-3    7.219497752552627E-4    3.725326632234354E-3    4.247002013746358E-1   -1.494590727075323E-1
 8.116720469000000E9     5.062748020780705E-1    3.845278645529772E-3    7.060010367541803E-4    3.664028040895583E-3    7.477113512014742E-4    3.752877814490332E-3    4.246959334444508E-1   -1.500532782574735E-1
 8.116726963800000E9     5.062420631026222E-1    3.163732111162671E-3    6.787106787040753E-4    3.644527236975996E-3    7.385301787487118E-4    3.712610851271596E-3    4.245616203953646E-1   -1.505037874487233E-1
 8.116733458600000E9     5.062257756831782E-1    2.844327263758597E-3    6.768005024839514E-4    3.695649277727604E-3    7.575517895651182E-4    3.766585796963646E-3    4.243638672887109E-1   -1.507648844571118E-1
 8.116739953400000E9     5.062132251845018E-1    2.205638612417047E-3    7.100703247892093E-4    3.691239650527874E-3    7.467564332392590E-4    3.701376645694216E-3    4.242687263258633E-1   -1.512416495497576E-1
 8.116746448200000E9     5.062577378247011E-1    1.694988419436123E-3    6.944253549540258E-4    3.697303284337597E-3    7.811937735992794E-4    3.751699723867075E-3    4.241910188310349E-1   -1.517621487871308E-1
 8.116752943000000E9     5.062962393758671E-1    1.240537503173796E-3    6.816870986135537E-4    3.686185469574416E-3    7.731270371864415E-4    3.709470537733645E-3    4.241141271603134E-1   -1.521993372345076E-1
