#  HZ   S   RI   R     50.00 
! Rohde & Schwarz Vector Network Analyzer 
! Rohde-Schwarz,ZNB20-2Port,1311601062101988,3.16
! Created: UTC 3/20/2024, 11:37:17 AM
! freq[Hz]                re:S11                  im:S11                  re:S21                  im:S21                  re:S12                  im:S12                  re:S22                  im:S22
 8.117562688000000E9     5.008930197745980E-1   -6.383824742861816E-2    1.622837979719904E-3    4.736835601765824E-3    1.686989332910530E-3    4.836422672107082E-3    4.027100468754823E-1   -2.061119661441363E-1
 8.117563882275000E9     5.007983461070750E-1   -6.380265416258155E-2    1.622725090681718E-3    4.764426646845970E-3    1.735034376444756E-3    4.827482075065875E-3    4.026037253272511E-1   -2.060485415751814E-1
 8.117565076550000E9     5.007819924607024E-1   -6.412007216577660E-2    1.618266979808505E-3    4.775602340546677E-3    1.718038973191784E-3    4.829127406439169E-3    4.026723215840259E-1   -2.062244843544736E-1
 8.117566270825000E9     5.008880812101028E-1   -6.412548615620925E-2    1.616081114711505E-3    4.775987008427864E-3    1.701441489231487E-3    4.854902606583272E-3    4.026097063817329E-1   -2.062911440473913E-1
 8.117567465100000E9     5.008126501729212E-1   -6.432701565343805E-2    1.641548826274190E-3    4.804653091901794E-3    1.738576449682499E-3    4.893472416241914E-3    4.025285476824134E-1   -2.063307679626631E-1
 8.117568659375000E9     5.007661315243281E-1   -6.447607575677985E-2    1.627570993210547E-3    4.795991821552119E-3    1.755991339650555E-3    4.878111108013763E-3    4.026016661885305E-1   -2.063761811198148E-1
 8.117569853650000E9     5.007592222998610E-1   -6.465583237934677E-2    1.667942489723597E-3    4.808512590043305E-3    1.708696052343224E-3    4.894170883443286E-3    4.024660419186467E-1   -2.065192617439650E-1
 8.117571047925000E9     5.006932859985197E-1   -6.461180595206850E-2    1.629738922615963E-3    4.799218884821701E-3    1.712589957524506E-3    4.875223247081344E-3    4.025272182422743E-1   -2.065703410106433E-1
 8.117572242200000E9     5.006825330974789E-1   -6.480706342338106E-2    1.661059897632615E-3    4.829927403463250E-3    1.745967077161615E-3    4.906161953376840E-3    4.023258143601319E-1   -2.067620221477691E-1
 8.117573436475000E9     5.008060811343295E-1   -6.496586601968467E-2    1.667940079622572E-3    4.800964743078695E-3    1.754545892667315E-3    4.891960470598007E-3    4.024045677857054E-1   -2.068656648617391E-1
 8.117574630750000E9     5.005765900640919E-1   -6.512377108607459E-2    1.688672579380959E-3    4.829372695335099E-3    1.767055417762067E-3    4.914341477389181E-3    4.023347304519553E-1   -2.068262038200375E-1
 8.117575825025000E9     5.005932222137331E-1   -6.524581983086698E-2    1.693331077674835E-3    4.817595993288453E-3    1.763366130371672E-3    4.899162947403888E-3    4.021859888990276E-1   -2.068839699148450E-1
 8.117577019300000E9     5.005361953998518E-1   -6.534849118378168E-2    1.658909728621796E-3    4.842810688766317E-3    1.753264297813449E-3    4.938832568301947E-3    4.022425755890862E-1   -2.069836358670493E-1
 8.117578213575000E9     5.005274554723554E-1   -6.558523838290353E-2    1.681322001478578E-3    4.852299809022884E-3    1.742966565426940E-3    4.944016080012577E-3    4.021869681547571E-1   -2.070774683888786E-1
 8.117579407850000E9     5.005012478769143E-1   -6.564091472273534E-2    1.682839216018499E-3    4.884720770336129E-3    1.757193796362377E-3    4.949209851630488E-3    4.021461023393614E-1   -2.071495093311785E-1
 8.117580602125000E9     5.004466680124640E-1   -6.577199927410794E-2    1.700827875731449E-3    4.833166065204801E-3    1.763220402593966E-3    4.944128914739275E-3    4.019552542227322E-1   -2.072338292472854E-1
 8.117581796400000E9     5.004537785256361E-1   -6.593022222135790E-2    1.702852603605530E-3    4.872374188722959E-3    1.801773664357041E-3    4.969194663594108E-3    4.020111012114519E-1   -2.073260483822709E-1
 8.117582990675000E9     5.003819035680602E-1   -6.596961223336735E-2    1.721938482269613E-3    4.893574772476710E-3    1.778126997926696E-3    4.991126374263626E-3    4.021801710198157E-1   -2.073322085676237E-1
 8.117584184950000E9     5.003995681391066E-1   -6.622422461612482E-2    1.716797001766890E-3    4.897583434622174E-3    1.751367078215603E-3    4.970173342496102E-3    4.020069206109498E-1   -2.073858795711570E-1
 8.117585379225000E9     5.004279939269568E-1   -6.628929367444374E-2    1.736216702134511E-3    4.914129619277792E-3    1.818225812669741E-3    4.995750780704635E-3    4.020292684798702E-1   -2.075574281520778E-1
 8.117586573500000E9     5.003498681300658E-1   -6.642768896633509E-2    1.737158780157022E-3    4.932138271948500E-3    1.793855571148024E-3    4.983572067965263E-3    4.019044728184267E-1   -2.075786958564829E-1
 8.117587767775000E9     5.002681285500490E-1   -6.659555715516406E-2    1.735150496533665E-3    4.953053686822386E-3    1.817643300304087E-3    5.030217789370258E-3    4.019425102016321E-1   -2.076426217432284E-1
 8.117588962050000E9     5.002032190812910E-1   -6.683142941766890E-2    1.728967518433268E-3    4.946130814260653E-3    1.820794204871352E-3    5.037693495986061E-3    4.017872543483909E-1   -2.077798632652679E-1
 8.117590156325000E9     5.001614467961006E-1   -6.692894344401595E-2    1.756857090421925E-3    4.945330686437982E-3    1.839026566834081E-3    5.023137329673542E-3    4.017843188486726E-1   -2.077484579098663E-1
 8.117591350600000E9     5.001976536339937E-1   -6.705342100317703E-2    1.755464389427664E-3    4.945337310452543E-3    1.828878372927149E-3    5.004478083393544E-3    4.018812406058825E-1   -2.080087498558372E-1
 8.117592544875000E9     5.002118494006872E-1   -6.725716624060994E-2    1.753598683855597E-3    4.974376276532293E-3    1.881461566111980E-3    5.026674598325330E-3    4.017986616542742E-1   -2.079924096442942E-1
 8.117593739150000E9     5.000893604098464E-1   -6.725669164782369E-2    1.726959286305837E-3    4.979585790908740E-3    1.850528408321390E-3    5.029155851953898E-3    4.017145086513479E-1   -2.081585908124239E-1
 8.117594933425000E9     5.001061142770373E-1   -6.750216028613097E-2    1.779602065838991E-3    4.959388792071762E-3    1.831230448252586E-3    5.060421493740318E-3    4.017297280040140E-1   -2.083161902259785E-1
 8.117596127700000E9     5.000498401605782E-1   -6.748709303826406E-2    1.770018900766180E-3    5.006357658704374E-3    1.879457985232483E-3    5.075842525343831E-3    4.015939544021345E-1   -2.082396925198305E-1
 8.117597321975000E9     5.000195255815564E-1   -6.773504660047450E-2    1.786643189302911E-3    5.024176403077778E-3    1.860355924509396E-3    5.090481865549387E-3    4.016311431907110E-1   -2.082535792072907E-1
 8.117598516250000E9     5.000289095383396E-1   -6.785190932922333E-2    1.798685224609095E-3    5.007776051548019E-3    1.868724007655859E-3    5.084205371246443E-3    4.016102724362766E-1   -2.083289973054991E-1
 8.117599710525000E9     4.999612093300072E-1   -6.798049113193669E-2    1.801634483780513E-3    5.044947482303639E-3    1.921765835664967E-3    5.113038179080765E-3    4.016671498339174E-1   -2.085281431292965E-1
 8.117600904800000E9     4.999249617126113E-1   -6.822335462788898E-2    1.794981281481691E-3    5.026391187183934E-3    1.883740460478441E-3    5.140705180868486E-3    4.015548153488426E-1   -2.084948904848739E-1
 8.117602099075000E9     4.998647313684718E-1   -6.836786742319728E-2    1.818060617122671E-3    5.035142325598374E-3    1.859060866328514E-3    5.131412678107125E-3    4.015203155758053E-1   -2.086038682289479E-1
 8.117603293350000E9     5.000011403405786E-1   -6.840594648186994E-2    1.826707206316171E-3    5.071968220190945E-3    1.930678824296833E-3    5.145094621872093E-3    4.013624946467488E-1   -2.088464961387941E-1
 8.117604487625000E9     4.998317227572792E-1   -6.861860079205649E-2    1.834484858882314E-3    5.081345653286785E-3    1.930743283990876E-3    5.180584740813065E-3    4.014406862020317E-1   -2.088302512327928E-1
 8.117605681900000E9     4.998281203180413E-1   -6.878787187107017E-2    1.841889614664023E-3    5.080516864701703E-3    1.934664116391022E-3    5.139454374024028E-3    4.012518259036382E-1   -2.088866007389800E-1
 8.117606876175000E9     4.997319707806610E-1   -6.888524598607033E-2    1.868733521620842E-3    5.073617280437338E-3    1.951082918998502E-3    5.149603907165299E-3    4.012330266513079E-1   -2.089461311246068E-1
 8.117608070450000E9     4.995758114056383E-1   -6.896511153372949E-2    1.839017407119557E-3    5.111109063880998E-3    1.925143290073992E-3    5.158778689768828E-3    4.012560111151191E-1   -2.089736793937654E-1
 8.117609264725000E9     4.996851128485262E-1   -6.910610828514911E-2    1.838949974288422E-3    5.124713116045327E-3    1.906521719253060E-3    5.204373984548421E-3    4.011503062563122E-1   -2.089870060481752E-1
 8.117610459000000E9     4.997129856187300E-1   -6.929702221680993E-2    1.871005027344187E-3    5.126634358695508E-3    2.005271545662028E-3    5.207453535668295E-3    4.012941427709082E-1   -2.092711803321041E-1
 8.117611653275000E9     4.996058868797320E-1   -6.952074324202055E-2    1.871701138570401E-3    5.147254815232109E-3    1.963427458948226E-3    5.230071571428051E-3    4.012299360977961E-1   -2.092405128007242E-1
 8.117612847550000E9     4.994514089327260E-1   -6.960988290065671E-2    1.871591876316480E-3    5.144489443063322E-3    1.979188071814016E-3    5.207215014539262E-3    4.010747049438087E-1   -2.093748647673215E-1
 8.117614041825000E9     4.994917037618296E-1   -6.975946670711898E-2    1.882403662473079E-3    5.151485693686599E-3    1.963370673812425E-3    5.229456831632795E-3    4.010757846382982E-1   -2.094669185638599E-1
 8.117615236100000E9     4.994025063047419E-1   -6.985944749541841E-2    1.895033812829523E-3    5.188995716063543E-3    1.974940276050535E-3    5.218165001274098E-3    4.010183659998852E-1   -2.094036854700969E-1
 8.117616430375000E9     4.994980403984743E-1   -7.006694136916376E-2    1.910320025262962E-3    5.180088662199364E-3    1.995649807491950E-3    5.281058720923386E-3    4.009621362715135E-1   -2.096546358418910E-1
 8.117617624650000E9     4.994422134394560E-1   -7.023293704742202E-2    1.914310174352420E-3    5.186112642968329E-3    2.014351445684080E-3    5.279974773243313E-3    4.009245782365589E-1   -2.096471922369298E-1
 8.117618818925000E9     4.994328772019241E-1   -7.038523338138430E-2    1.927385522400135E-3    5.218449495001455E-3    2.020473349881347E-3    5.309734564138670E-3    4.010501090872585E-1   -2.096933396945653E-1
 8.117620013200000E9     4.993407817122318E-1   -7.066895613153996E-2    1.920725653747268E-3    5.224759199938821E-3    2.019710525708793E-3    5.294405332931738E-3    4.008092636127233E-1   -2.096968449860353E-1
 8.117621207475000E9     4.993096205298934E-1   -7.068623002119306E-2    1.946348761167674E-3    5.254946699533634E-3    2.014894155931476E-3    5.317680962556391E-3    4.008626492063215E-1   -2.096887103620240E-1
 8.117622401750000E9     4.992397281577279E-1   -7.084796748863856E-2    1.962605257047578E-3    5.258451741185218E-3    2.039882921854915E-3    5.334916674393860E-3    4.008246249166956E-1   -2.099419032995344E-1
 8.117623596025000E9     4.992615682799875E-1   -7.098907103576639E-2    1.948347684702234E-3    5.258544157113778E-3    2.079921266362783E-3    5.347537662225788E-3    4.008387686789345E-1   -2.100005945295995E-1
 8.117624790300000E9     4.991613658574444E-1   -7.113020170037540E-2    1.955567963610252E-3    5.291946630454169E-3    2.057676638926660E-3    5.351513036476341E-3    4.007477113937611E-1   -2.101127293965125E-1
 8.117625984575000E9     4.992289611963340E-1   -7.129317156603432E-2    1.978473240396269E-3    5.304340567834818E-3    2.054701408108396E-3    5.350961208625033E-3    4.008109840296027E-1   -2.102875748338088E-1
 8.117627178850000E9     4.990209776147359E-1   -7.138553050812059E-2    1.982706368315261E-3    5.299127729634227E-3    2.052903311933424E-3    5.356537014290554E-3    4.007153315696906E-1   -2.103036940001375E-1
 8.117628373125000E9     4.990942839470698E-1   -7.162395695429044E-2    1.973691288071680E-3    5.315609179506962E-3    2.107972014778814E-3    5.435622089762423E-3    4.006359617056666E-1   -2.103631181032496E-1
 8.117629567400000E9     4.988665764604700E-1   -7.172026230233207E-2    1.981400478650949E-3    5.328702246391529E-3    2.094238183171767E-3    5.392781725182944E-3    4.006109298916152E-1   -2.104006251068899E-1
 8.117630761675000E9     4.989200833558302E-1   -7.190754338777548E-2    2.024532527505173E-3    5.337603403841999E-3    2.120716378945954E-3    5.424298824965019E-3    4.005116373298547E-1   -2.104410338368102E-1
 8.117631955950000E9     4.988825293428670E-1   -7.214677070042566E-2    2.018858193285921E-3    5.353138495565457E-3    2.103355949432588E-3    5.451501656691283E-3    4.005882928987416E-1   -2.107017463779703E-1
 8.117633150225000E9     4.989115976484482E-1   -7.244319894730963E-2    2.030605848554381E-3    5.386147188384542E-3    2.090717816923821E-3    5.437916004096993E-3    4.005426770182506E-1   -2.107228791559430E-1
 8.117634344500000E9     4.987780300736784E-1   -7.243368013124599E-2    2.068080333068230E-3    5.399223214560029E-3    2.141364949117803E-3    5.455016284327508E-3    4.004208675614102E-1   -2.109082999291616E-1
 8.117635538775000E9     4.986690801060618E-1   -7.270991775648941E-2    2.044139035555054E-3    5.394531813587777E-3    2.141107529387773E-3    5.477353242787798E-3    4.004005468901352E-1   -2.108767642467143E-1
 8.117636733050000E9     4.987684781318384E-1   -7.280537973462478E-2    2.081816553408199E-3    5.399868654319641E-3    2.185981842884673E-3    5.496625315056398E-3    4.004725697975698E-1   -2.108920132702684E-1
 8.117637927325000E9     4.986918362427259E-1   -7.296608207137345E-2    2.108047366889274E-3    5.438814752105172E-3    2.203610012854252E-3    5.522817625018259E-3    4.003446347086290E-1   -2.109453316217766E-1
 8.117639121600000E9     4.985821807451964E-1   -7.306080212350011E-2    2.090642953460077E-3    5.423971318752189E-3    2.185455361659505E-3    5.506154533689949E-3    4.003265529517392E-1   -2.110340420713755E-1
 8.117640315875000E9     4.986216856191734E-1   -7.325074696617459E-2    2.112805007371837E-3    5.452309052530527E-3    2.198275291018306E-3    5.567620461824252E-3    4.003235218941628E-1   -2.111591701186299E-1
 8.117641510150000E9     4.984589891458763E-1   -7.334314186138456E-2    2.106129376301038E-3    5.491150377460413E-3    2.227015654631696E-3    5.568422932645676E-3    4.002594856023016E-1   -2.110967370084375E-1
 8.117642704425000E9     4.984302689908648E-1   -7.358356998649788E-2    2.131886575393231E-3    5.492609634965889E-3    2.187318160114091E-3    5.587953181967717E-3    4.002020320052014E-1   -2.112674036317761E-1
 8.117643898700000E9     4.984012795594776E-1   -7.371883930748291E-2    2.137501118895628E-3    5.523109329788788E-3    2.225878141497400E-3    5.600078147610515E-3    4.000889994164936E-1   -2.112549833013679E-1
 8.117645092975000E9     4.983104932860244E-1   -7.386324633027552E-2    2.148955153369080E-3    5.522102713895864E-3    2.263960061065468E-3    5.607184642013303E-3    4.001192901568026E-1   -2.115129706505516E-1
 8.117646287250000E9     4.982725619131766E-1   -7.419404951188277E-2    2.178691870054602E-3    5.545691608690582E-3    2.257270433603222E-3    5.634690849780665E-3    4.001521646148540E-1   -2.115288785825962E-1
 8.117647481525000E9     4.982547903766090E-1   -7.436515311000189E-2    2.165474395586850E-3    5.555133520103648E-3    2.273314636388704E-3    5.672047367033107E-3    3.999821997761832E-1   -2.115717582123544E-1
 8.117648675800000E9     4.981654249238719E-1   -7.443623918625557E-2    2.172370377198227E-3    5.569513484704095E-3    2.288868393161027E-3    5.673032456713704E-3    4.001479003391674E-1   -2.117014478433874E-1
 8.117649870075000E9     4.980270220192592E-1   -7.472398618289756E-2    2.178451621347527E-3    5.574967444139727E-3    2.321219087866231E-3    5.672612479932818E-3    3.998985452297849E-1   -2.117950414659584E-1
 8.117651064350000E9     4.982165815647068E-1   -7.479033385436840E-2    2.220909150528856E-3    5.633969546929233E-3    2.287738473243328E-3    5.705301978626478E-3    3.998917221636604E-1   -2.117415062824457E-1
 8.117652258625000E9     4.980959006354784E-1   -7.506406377737135E-2    2.234064745643705E-3    5.631239503629690E-3    2.310201000208261E-3    5.712087770150954E-3    3.997752545625513E-1   -2.118567605170147E-1
 8.117653452900000E9     4.981033473337216E-1   -7.513944524359087E-2    2.269402460311100E-3    5.647076389584211E-3    2.340723490227066E-3    5.741595943566711E-3    3.998130597069171E-1   -2.120568765045271E-1
 8.117654647175000E9     4.979002820498101E-1   -7.548890316977723E-2    2.235113979033710E-3    5.691664904769816E-3    2.334420656011972E-3    5.785718324595527E-3    3.997028917736390E-1   -2.119968605273607E-1
 8.117655841450000E9     4.978112904830380E-1   -7.553252095395840E-2    2.268056118158044E-3    5.694532306438208E-3    2.353755349378071E-3    5.777393245178687E-3    3.998069955817233E-1   -2.121079290051540E-1
 8.117657035725000E9     4.977219219686150E-1   -7.566421276971899E-2    2.269102024604792E-3    5.696146924857254E-3    2.386427798611338E-3    5.783340301998390E-3    3.997342977140050E-1   -2.122723327947741E-1
 8.117658230000000E9     4.976437799640901E-1   -7.588529478552355E-2    2.280185914875956E-3    5.722969252629125E-3    2.405997754065163E-3    5.802875820485220E-3    3.996652514199829E-1   -2.124014423533184E-1
 8.117659424275000E9     4.976968742414794E-1   -7.614555594568199E-2    2.329011784521284E-3    5.727915279618158E-3    2.395475126608971E-3    5.820422600503362E-3    3.996784323611650E-1   -2.123339056316032E-1
 8.117660618550000E9     4.974351999069986E-1   -7.629731320426116E-2    2.311858757314572E-3    5.750774624123542E-3    2.405475640355088E-3    5.851235830158310E-3    3.997002799939142E-1   -2.124029665848289E-1
 8.117661812825000E9     4.974828624278788E-1   -7.649472696422845E-2    2.353584576074428E-3    5.768802830941328E-3    2.439243054871812E-3    5.842781107238126E-3    3.997712899343371E-1   -2.124398255818889E-1
 8.117663007100000E9     4.974831686752476E-1   -7.683251035759243E-2    2.365335812719439E-3    5.798973584895423E-3    2.450364430640725E-3    5.918780135297153E-3    3.995432213210322E-1   -2.126997276582150E-1
 8.117664201375000E9     4.974158706930809E-1   -7.696487319385936E-2    2.372182933008959E-3    5.819539803329882E-3    2.486014966468253E-3    5.882597906413258E-3    3.994203838136948E-1   -2.126991124720995E-1
 8.117665395650000E9     4.972257393667636E-1   -7.705943294170516E-2    2.366891272553034E-3    5.860140610710472E-3    2.512896569629820E-3    5.929832599156776E-3    3.993784949506431E-1   -2.127020708537889E-1
 8.117666589925000E9     4.971861452430615E-1   -7.745506167564695E-2    2.391647172022230E-3    5.862885580007844E-3    2.533696923014507E-3    5.968527687882469E-3    3.993951876620777E-1   -2.129200609234634E-1
 8.117667784200000E9     4.971258419202498E-1   -7.749494626747337E-2    2.419461224072306E-3    5.883220923671648E-3    2.531294440480594E-3    6.001901098258646E-3    3.994028542179388E-1   -2.129516835166088E-1
 8.117668978475000E9     4.970320753101004E-1   -7.765447005470900E-2    2.434886562655898E-3    5.903119077144164E-3    2.540779081967599E-3    6.016024308674576E-3    3.991877079246071E-1   -2.130470230705663E-1
 8.117670172750000E9     4.970716766730627E-1   -7.787173271566473E-2    2.454404426335609E-3    5.922174821361900E-3    2.576228730880028E-3    6.011805988348632E-3    3.993331928671536E-1   -2.131879039301998E-1
