#  HZ   S   RI   R     50.00 
! Rohde & Schwarz Vector Network Analyzer 
! Rohde-Schwarz,ZNB20-2Port,1311601062101988,3.16
! Created: UTC 3/20/2024, 11:36:05 AM
! freq[Hz]                re:S11                  im:S11                  re:S21                  im:S21                  re:S12                  im:S12                  re:S22                  im:S22
 8.117595134000000E9     5.004729227078244E-1   -6.706333010469921E-2    1.751473908718626E-3    5.031683943574225E-3    1.851078072885391E-3    5.150023687389503E-3    4.016007822956169E-1   -2.083336595709371E-1
 8.117596179325000E9     5.004645564252080E-1   -6.728473366511480E-2    1.740634681475050E-3    5.034042220126333E-3    1.852778058415777E-3    5.124000439542383E-3    4.015796650087574E-1   -2.083112461547814E-1
 8.117597224650000E9     5.004608522141667E-1   -6.735607298174721E-2    1.741728332267873E-3    5.036872887837755E-3    1.855424016802365E-3    5.110196428112238E-3    4.016447890808694E-1   -2.083574792656863E-1
 8.117598269975000E9     5.003799958582326E-1   -6.745775933234111E-2    1.788556075780906E-3    5.063618064751583E-3    1.873851322938124E-3    5.167861722318803E-3    4.015017035247641E-1   -2.085116097735384E-1
 8.117599315300000E9     5.003362582172542E-1   -6.761138396249095E-2    1.751184451419253E-3    5.060815967267505E-3    1.864079063577246E-3    5.133063142527250E-3    4.015034475279006E-1   -2.085759674882803E-1
 8.117600360625000E9     5.003531943866831E-1   -6.783109412813672E-2    1.784109978875853E-3    5.111135019835709E-3    1.858480304563124E-3    5.145883690615622E-3    4.014611710193363E-1   -2.087043227259122E-1
 8.117601405950000E9     5.002961429575112E-1   -6.788405751581221E-2    1.798662230310446E-3    5.066166012237453E-3    1.847672795214609E-3    5.176745695687590E-3    4.013737131964353E-1   -2.086794237215176E-1
 8.117602451275000E9     5.003526437817319E-1   -6.803226626080230E-2    1.800618694061181E-3    5.068475480602285E-3    1.838077657412873E-3    5.150868486021216E-3    4.013233619104196E-1   -2.087613796429602E-1
 8.117603496600000E9     5.002237739441022E-1   -6.806811927022362E-2    1.808743807464931E-3    5.104770801820115E-3    1.890428139749186E-3    5.193806693715683E-3    4.013952052257546E-1   -2.087588612583644E-1
 8.117604541925000E9     5.002538191061374E-1   -6.831896206710979E-2    1.835638143762405E-3    5.108544167472653E-3    1.909022359217001E-3    5.218184423241188E-3    4.012896419897957E-1   -2.089076609479169E-1
 8.117605587250000E9     5.002463206838667E-1   -6.848055006276059E-2    1.834682949205734E-3    5.121928503446143E-3    1.902838961559139E-3    5.190748742129487E-3    4.012823299517078E-1   -2.088938076954363E-1
 8.117606632575000E9     5.000523049950942E-1   -6.850169294080120E-2    1.838237392425737E-3    5.129638443695964E-3    1.847535353554784E-3    5.239712093350246E-3    4.013531603370766E-1   -2.089266933982088E-1
 8.117607677900000E9     5.000989952542103E-1   -6.863955159155620E-2    1.812657097947887E-3    5.145649907396817E-3    1.908472470323761E-3    5.209076946100569E-3    4.013431869004586E-1   -2.089035465945443E-1
 8.117608723225000E9     5.000862216968179E-1   -6.882621801687926E-2    1.856043633410535E-3    5.160371952183232E-3    1.894486066442526E-3    5.259244659701514E-3    4.011458310484359E-1   -2.092015156067646E-1
 8.117609768550000E9     5.000263654274815E-1   -6.901130966218974E-2    1.842744425289980E-3    5.172630364029290E-3    1.958836197988011E-3    5.216089294707761E-3    4.011345607977216E-1   -2.092348179841478E-1
 8.117610813875000E9     5.000414603528297E-1   -6.903076225779164E-2    1.870072650053646E-3    5.179650701441899E-3    1.944658626276081E-3    5.251437564683314E-3    4.011255093784419E-1   -2.092467379280384E-1
 8.117611859200000E9     4.999999073713284E-1   -6.913923311340445E-2    1.834493726263772E-3    5.184497638834929E-3    1.933541558890363E-3    5.262342713300054E-3    4.012366059683873E-1   -2.094664605802445E-1
 8.117612904525000E9     4.999322316855641E-1   -6.931542539891945E-2    1.862816022600961E-3    5.199623826585814E-3    1.962163628888933E-3    5.281224541757040E-3    4.011064301383548E-1   -2.092987899249797E-1
 8.117613949850000E9     4.999274299440781E-1   -6.948787993685443E-2    1.873819019398971E-3    5.203502794726019E-3    1.975702109718061E-3    5.283606650805427E-3    4.010977157254181E-1   -2.095964906927404E-1
 8.117614995175000E9     4.999287729134809E-1   -6.959960415084525E-2    1.873056867625171E-3    5.215836650556911E-3    1.977033670622605E-3    5.266278163506380E-3    4.011041650032137E-1   -2.095134361585845E-1
 8.117616040500000E9     4.999390162801079E-1   -6.959111912635815E-2    1.892677471736526E-3    5.224463321599903E-3    1.992853435178882E-3    5.315108864708681E-3    4.009241146319331E-1   -2.096704651931984E-1
 8.117617085825000E9     4.997716014317777E-1   -6.992998528263938E-2    1.897554950511023E-3    5.233910594539248E-3    2.014239201725312E-3    5.331151079776129E-3    4.008552513321007E-1   -2.097627874718759E-1
 8.117618131150000E9     4.997913864843663E-1   -6.996000735938446E-2    1.888981869059157E-3    5.223342833273327E-3    1.969798600035559E-3    5.295977572502350E-3    4.010078775559637E-1   -2.097597704297186E-1
 8.117619176475000E9     4.998108797447737E-1   -7.012770769224015E-2    1.919107310401729E-3    5.273221353716339E-3    1.984672571823146E-3    5.352397902943997E-3    4.008783030750313E-1   -2.098600968052638E-1
 8.117620221800000E9     4.997435333080008E-1   -7.026211465928300E-2    1.915153754071815E-3    5.274374196834589E-3    2.007827611340855E-3    5.374723881543164E-3    4.008591170971708E-1   -2.099399423079125E-1
 8.117621267125000E9     4.996538005890261E-1   -7.041833377414831E-2    1.918717217250456E-3    5.277157641474119E-3    2.004616381643537E-3    5.402704061727389E-3    4.008977335821348E-1   -2.099068105986316E-1
 8.117622312450000E9     4.997205221782521E-1   -7.058142939057006E-2    1.924616956561532E-3    5.292528193477813E-3    2.011405122843936E-3    5.369257853921395E-3    4.007295366372014E-1   -2.100953721884622E-1
 8.117623357775000E9     4.996934764891387E-1   -7.077047603186801E-2    1.938074197561878E-3    5.322020310058006E-3    2.001235009223361E-3    5.408533565568197E-3    4.007286585615232E-1   -2.101791882503737E-1
 8.117624403100000E9     4.995395133389897E-1   -7.079195656921242E-2    1.948028598955423E-3    5.335143652547797E-3    2.008702599618859E-3    5.405063249664603E-3    4.007010464371343E-1   -2.101659322726329E-1
 8.117625448425000E9     4.996660024480334E-1   -7.086932065849318E-2    1.933968627692033E-3    5.362474046580482E-3    2.010236362579440E-3    5.441475992385942E-3    4.006227001520308E-1   -2.103348983387713E-1
 8.117626493750000E9     4.995899416858663E-1   -7.112964818512496E-2    1.952523372164920E-3    5.357499845408274E-3    2.060334712991938E-3    5.431748518159804E-3    4.008390449268061E-1   -2.103062561443354E-1
 8.117627539075000E9     4.995138634534556E-1   -7.119045073636644E-2    1.977731970236232E-3    5.343167875633247E-3    2.049948892267906E-3    5.463108208566865E-3    4.006283782425030E-1   -2.103523696066048E-1
 8.117628584400000E9     4.995084780990710E-1   -7.133654835819825E-2    1.982074297439641E-3    5.348520863241258E-3    2.044716116666115E-3    5.409684460321633E-3    4.005699113565996E-1   -2.105201073182427E-1
 8.117629629725000E9     4.994104906359998E-1   -7.152270891760186E-2    1.973788675747528E-3    5.385988229490790E-3    2.039627894324040E-3    5.480161467005820E-3    4.005381704322130E-1   -2.105855072926658E-1
 8.117630675050000E9     4.994258209698074E-1   -7.170563844074113E-2    2.017992806245345E-3    5.406479471639638E-3    2.085474691448792E-3    5.495075097825121E-3    4.005589780121294E-1   -2.107543520130891E-1
 8.117631720375000E9     4.994300496102380E-1   -7.172541773477410E-2    2.005375219847289E-3    5.416564734525081E-3    2.098981994105316E-3    5.488189313603742E-3    4.005660748584216E-1   -2.106938501800114E-1
 8.117632765700000E9     4.993760108447072E-1   -7.182233260143629E-2    2.012073744289944E-3    5.420062671721069E-3    2.095598810691806E-3    5.532316424888669E-3    4.004848905300006E-1   -2.107645784499355E-1
 8.117633811025000E9     4.992576731124352E-1   -7.202224265006807E-2    2.006179585607286E-3    5.432148695020901E-3    2.101929436240211E-3    5.549493377584563E-3    4.004564249128281E-1   -2.108287973544349E-1
 8.117634856350000E9     4.992183826660025E-1   -7.208732855417326E-2    2.032714900749183E-3    5.474970484536416E-3    2.130916264584542E-3    5.505288526935887E-3    4.004003941111586E-1   -2.107133328806464E-1
 8.117635901675000E9     4.991333138038800E-1   -7.238447335534712E-2    2.052284876208229E-3    5.456730424925674E-3    2.127878763531170E-3    5.539294353209736E-3    4.003322083290755E-1   -2.110442684139134E-1
 8.117636947000000E9     4.991841462312625E-1   -7.252221930326488E-2    2.034777509561775E-3    5.456871537024339E-3    2.126457671718368E-3    5.541126950603675E-3    4.003083565638499E-1   -2.110957165827841E-1
 8.117637992325000E9     4.992355655185806E-1   -7.267953532231455E-2    2.040261872064293E-3    5.473398273887843E-3    2.130538434145130E-3    5.583701908788861E-3    4.002164895077623E-1   -2.111493292131195E-1
 8.117639037650000E9     4.990533665420991E-1   -7.273181613032928E-2    2.082936987488286E-3    5.514399092469920E-3    2.119932256576896E-3    5.565753776751062E-3    4.002676812714331E-1   -2.110823888829184E-1
 8.117640082975000E9     4.991611764933011E-1   -7.296860452785409E-2    2.058409513858306E-3    5.515640755652637E-3    2.154642153338997E-3    5.600111785262448E-3    4.001863909317291E-1   -2.112658890594407E-1
 8.117641128300000E9     4.989674785842414E-1   -7.297632629095940E-2    2.079210206717058E-3    5.539838876064082E-3    2.179908677334654E-3    5.621645974067030E-3    4.002248400600137E-1   -2.111998926445205E-1
 8.117642173625000E9     4.988313317192778E-1   -7.326322990767967E-2    2.071683360376344E-3    5.534892989705082E-3    2.191216444425520E-3    5.651967329074289E-3    4.002398482445815E-1   -2.113095187903643E-1
 8.117643218950000E9     4.989815473687970E-1   -7.333218180208245E-2    2.121606741006379E-3    5.546441324438657E-3    2.199156508453042E-3    5.639952939569240E-3    4.000703971142348E-1   -2.115849239962132E-1
 8.117644264275000E9     4.988912444597679E-1   -7.352119084021967E-2    2.126219169328790E-3    5.571646945539825E-3    2.244218080592712E-3    5.669214226061607E-3    4.000365414388321E-1   -2.114641605358520E-1
 8.117645309600000E9     4.988918333711319E-1   -7.373592069331594E-2    2.120499223636326E-3    5.577824142964944E-3    2.219967172241807E-3    5.701350918381991E-3    3.999881407954786E-1   -2.116084777621187E-1
 8.117646354925000E9     4.988407103232915E-1   -7.377336750352388E-2    2.131447602996273E-3    5.610470074114386E-3    2.201419674995115E-3    5.697145713890401E-3    3.999732523935086E-1   -2.116431491028482E-1
 8.117647400250000E9     4.987299663510411E-1   -7.399452366755360E-2    2.130788226825808E-3    5.605680553437005E-3    2.217498626196708E-3    5.711134942798232E-3    4.000013883919020E-1   -2.116820034741231E-1
 8.117648445575000E9     4.987464590980784E-1   -7.409043839075725E-2    2.162729131597230E-3    5.620412078131970E-3    2.246647842327843E-3    5.713216089542231E-3    3.999421214787542E-1   -2.117130997480281E-1
 8.117649490900000E9     4.986522630052606E-1   -7.424707873203225E-2    2.169163325403283E-3    5.667342306209752E-3    2.278792700486549E-3    5.749821647494873E-3    3.999327685186683E-1   -2.118497673034079E-1
 8.117650536225000E9     4.986285319357038E-1   -7.454044706003744E-2    2.160145017570336E-3    5.651228359676456E-3    2.266427009667716E-3    5.739081865391988E-3    3.999123108830128E-1   -2.118218353331104E-1
 8.117651581550000E9     4.985678527542637E-1   -7.457970284277016E-2    2.182225764678878E-3    5.669728889415419E-3    2.300964820915692E-3    5.747268857131386E-3    3.999368175184215E-1   -2.119400817467172E-1
 8.117652626875000E9     4.985312333054184E-1   -7.465679601714563E-2    2.202689431829232E-3    5.671880420653603E-3    2.309050823608180E-3    5.795033190364497E-3    3.997576607105795E-1   -2.120833532849931E-1
 8.117653672200000E9     4.984988059194775E-1   -7.495500304595262E-2    2.196521331803080E-3    5.714938758152852E-3    2.288857838748756E-3    5.778595295043179E-3    3.997511957213327E-1   -2.121084489332944E-1
 8.117654717525000E9     4.983840682332563E-1   -7.510145554879240E-2    2.208535921155869E-3    5.704377396677932E-3    2.323140269989868E-3    5.775481319018869E-3    3.996512307655485E-1   -2.120965686412847E-1
 8.117655762850000E9     4.983951150572843E-1   -7.530093436382686E-2    2.230293953766169E-3    5.733559273030323E-3    2.316873313878585E-3    5.814293314352337E-3    3.996242173224910E-1   -2.122321189424755E-1
 8.117656808175000E9     4.984197626080041E-1   -7.545878278794196E-2    2.204715177202549E-3    5.749863741209722E-3    2.332772582421585E-3    5.843073212427910E-3    3.996695234720828E-1   -2.123392025617842E-1
 8.117657853500000E9     4.983452612553381E-1   -7.564306682264574E-2    2.231678051093566E-3    5.768061864952411E-3    2.345462746870341E-3    5.853207967587868E-3    3.997353205059924E-1   -2.125243183423320E-1
 8.117658898825000E9     4.981547705077867E-1   -7.565085541693869E-2    2.256364275420805E-3    5.764192509278218E-3    2.365347992909142E-3    5.886170075915094E-3    3.997834656040417E-1   -2.124935897845628E-1
 8.117659944150000E9     4.981890631757764E-1   -7.587171427016404E-2    2.302289586731537E-3    5.807784000041874E-3    2.393374188533467E-3    5.891617793438930E-3    3.995490170835256E-1   -2.123962071661087E-1
 8.117660989475000E9     4.981682427918651E-1   -7.605404928289661E-2    2.282249401343687E-3    5.836492204151556E-3    2.370912368364367E-3    5.904351559369181E-3    3.994655780884481E-1   -2.126267343560989E-1
 8.117662034800000E9     4.980993433984318E-1   -7.613679591610681E-2    2.298786882716674E-3    5.857722636552673E-3    2.401564466418974E-3    5.909658459377764E-3    3.993725822237248E-1   -2.127007784069728E-1
 8.117663080125000E9     4.980147690568119E-1   -7.635707467135504E-2    2.312822312038929E-3    5.859498067060340E-3    2.416323579562572E-3    5.948859261423415E-3    3.994426962854822E-1   -2.127161906466868E-1
 8.117664125450000E9     4.980030650027999E-1   -7.652375030951659E-2    2.332756582069037E-3    5.856823210451692E-3    2.436380703048369E-3    5.958146864020322E-3    3.995089862961529E-1   -2.127451975427011E-1
 8.117665170775000E9     4.979228480321141E-1   -7.660961458117066E-2    2.357935333253740E-3    5.912267407895203E-3    2.433148005647069E-3    6.001063480858209E-3    3.993056587791596E-1   -2.128836190861366E-1
 8.117666216100000E9     4.978494940859993E-1   -7.682386368007253E-2    2.385925877556149E-3    5.888138289010946E-3    2.455873755042284E-3    5.997930544395297E-3    3.993328458177702E-1   -2.129587440070399E-1
 8.117667261425000E9     4.977023926900471E-1   -7.710866229483684E-2    2.387034597388693E-3    5.949158257640108E-3    2.448395486909970E-3    6.018555586953553E-3    3.994194564698854E-1   -2.129246653904694E-1
 8.117668306750000E9     4.978193043913540E-1   -7.719944623183655E-2    2.383531624933689E-3    5.946918304003921E-3    2.473379023418790E-3    6.030292254845065E-3    3.991750302422040E-1   -2.132119879476818E-1
 8.117669352075000E9     4.977024856998937E-1   -7.738024414468696E-2    2.387670941076202E-3    6.000528683636102E-3    2.498032603113825E-3    6.063452356679704E-3    3.990611605726961E-1   -2.131159402997745E-1
 8.117670397400000E9     4.975355350170453E-1   -7.759626098223053E-2    2.422350188331633E-3    5.988593469066400E-3    2.528472303415140E-3    6.078083210174191E-3    3.992675131013600E-1   -2.132040389587499E-1
 8.117671442725000E9     4.975767761611042E-1   -7.772366583480229E-2    2.418256536294397E-3    6.015322664358516E-3    2.518220533797664E-3    6.103894529924838E-3    3.991841570577411E-1   -2.131910410553968E-1
 8.117672488050000E9     4.974333384249011E-1   -7.795286714030293E-2    2.449561667664074E-3    6.027564402103399E-3    2.543666052407633E-3    6.152565283817473E-3    3.991722833785333E-1   -2.133762571725623E-1
 8.117673533375000E9     4.975024484890738E-1   -7.813568106198918E-2    2.456364078394788E-3    6.031634591936480E-3    2.534419138078510E-3    6.125493560777555E-3    3.991827367806639E-1   -2.133520875139770E-1
 8.117674578700000E9     4.973305228563927E-1   -7.836026534871904E-2    2.468716545012316E-3    6.060505202404663E-3    2.567506551037216E-3    6.141656971604447E-3    3.989599310740252E-1   -2.134038203908052E-1
 8.117675624025000E9     4.973713003887892E-1   -7.847328794325269E-2    2.505577365020082E-3    6.070902960798034E-3    2.610812575626643E-3    6.183510367113607E-3    3.989672174522960E-1   -2.134701594559970E-1
 8.117676669350000E9     4.972162203029246E-1   -7.864383089098213E-2    2.507246182904576E-3    6.115914207037771E-3    2.626258158872636E-3    6.185213758459376E-3    3.989080616641658E-1   -2.136197307065940E-1
 8.117677714675000E9     4.971399629966544E-1   -7.890238945541202E-2    2.502285780451250E-3    6.149247627862269E-3    2.625307053800869E-3    6.172107006312338E-3    3.990254234907728E-1   -2.137043808732464E-1
 8.117678760000000E9     4.970362851940570E-1   -7.909683393573036E-2    2.537539994688821E-3    6.149204925848074E-3    2.630682523508971E-3    6.273804658807300E-3    3.988866089173312E-1   -2.137729070928394E-1
 8.117679805325000E9     4.969123828720288E-1   -7.936665930964457E-2    2.564979735479221E-3    6.183440527474282E-3    2.653901601780953E-3    6.291012209994716E-3    3.988251681240635E-1   -2.139410618765191E-1
 8.117680850650000E9     4.968877277951422E-1   -7.942756640787826E-2    2.543965832479103E-3    6.204894517383855E-3    2.653377146247675E-3    6.309470965106528E-3    3.988013868364206E-1   -2.138384190654006E-1
 8.117681895975000E9     4.969197679520210E-1   -7.962244686818665E-2    2.576665250124738E-3    6.229139917366558E-3    2.689192946498117E-3    6.302145704682655E-3    3.988111067684006E-1   -2.141212125810778E-1
 8.117682941300000E9     4.968441603263908E-1   -7.979540309356525E-2    2.603513852301086E-3    6.249539151240859E-3    2.711459856460946E-3    6.342911538794785E-3    3.987345103033285E-1   -2.140404845142743E-1
 8.117683986625000E9     4.968388014819424E-1   -7.999379997368801E-2    2.638138336783107E-3    6.294428504756447E-3    2.717721663823348E-3    6.356575473756065E-3    3.985856357209061E-1   -2.140436800554183E-1
 8.117685031950000E9     4.966377327957389E-1   -8.029387302907459E-2    2.624414174320357E-3    6.293708587969146E-3    2.764907905780612E-3    6.385761074090680E-3    3.988180003572629E-1   -2.141512898673207E-1
 8.117686077275000E9     4.965849443930963E-1   -8.032107854282086E-2    2.661383701146495E-3    6.330442398099806E-3    2.770858348845908E-3    6.424717637800594E-3    3.987162193599710E-1   -2.143136649764688E-1
 8.117687122600000E9     4.963993636370126E-1   -8.065016998443199E-2    2.691291439798955E-3    6.363701429790367E-3    2.798205671807237E-3    6.440379860326247E-3    3.987724318347566E-1   -2.142387746083662E-1
 8.117688167925000E9     4.964546956511249E-1   -8.080764842294377E-2    2.697290010406860E-3    6.374358358725160E-3    2.790439984683858E-3    6.488071574541929E-3    3.987749657003290E-1   -2.144535959992281E-1
 8.117689213250000E9     4.964043276318464E-1   -8.103816154949191E-2    2.714687248624696E-3    6.408198760706273E-3    2.818225098076414E-3    6.463388975958258E-3    3.985724534492383E-1   -2.145534573373418E-1
