#  HZ   S   RI   R     50.00 
! Rohde & Schwarz Vector Network Analyzer 
! Rohde-Schwarz,ZNB20-2Port,1311601062101988,3.16
! Created: UTC 3/20/2024, 11:50:01 AM
! freq[Hz]                re:S11                  im:S11                  re:S21                  im:S21                  re:S12                  im:S12                  re:S22                  im:S22
 8.116075657000000E9     5.045611704766524E-1    5.256292725608747E-2    2.528175870315942E-4    3.496880499324161E-3    3.379454988029180E-4    3.578488295259606E-3    4.358570036151492E-1   -1.065230450574430E-1
 8.116082517900000E9     5.044960103781322E-1    5.195883337627041E-2    2.615780392130684E-4    3.503476241365060E-3    3.100458844634922E-4    3.546287805608968E-3    4.357830967176680E-1   -1.068942197868260E-1
 8.116089378800000E9     5.046069673861172E-1    5.146336536509234E-2    2.917113031851621E-4    3.501955528703750E-3    3.389138185034233E-4    3.581712708687522E-3    4.356117563856287E-1   -1.074231161174904E-1
 8.116096239700000E9     5.047216372513449E-1    5.094787556592099E-2    2.781329502083508E-4    3.503909998412183E-3    3.300294841007962E-4    3.536135228864608E-3    4.355801303888250E-1   -1.079081766441287E-1
 8.116103100600000E9     5.047152804444005E-1    5.042801440485111E-2    2.629760712751634E-4    3.476826273312832E-3    3.225504967932071E-4    3.547098444930444E-3    4.353781737970921E-1   -1.084487163523487E-1
 8.116109961500000E9     5.047332323165410E-1    4.992916782323169E-2    3.059724313859348E-4    3.520263702937866E-3    3.335389155507545E-4    3.555788667784744E-3    4.354694125503875E-1   -1.089009017206996E-1
 8.116116822400000E9     5.046814458163805E-1    4.936662318790865E-2    3.006227479411652E-4    3.503569925335863E-3    3.640138749184096E-4    3.558111809035664E-3    4.352480209141541E-1   -1.094124598797048E-1
 8.116123683300000E9     5.047885820084509E-1    4.895406797827706E-2    3.050872908206440E-4    3.528139870134487E-3    3.379728188405848E-4    3.565343976346642E-3    4.351914455697346E-1   -1.097988070828632E-1
 8.116130544200000E9     5.048014361892117E-1    4.823819512624524E-2    3.202600576719955E-4    3.520398351222372E-3    3.627570699986374E-4    3.569392528190273E-3    4.351695345954858E-1   -1.102064266088724E-1
 8.116137405100000E9     5.049773108484198E-1    4.787952684832054E-2    2.985916977171335E-4    3.528650613033234E-3    3.598029862712271E-4    3.563587806630399E-3    4.349150312028214E-1   -1.107351053521537E-1
 8.116144266000000E9     5.050259924037468E-1    4.735863477355653E-2    3.137902802735496E-4    3.503243447770150E-3    3.749146419984206E-4    3.572840184365632E-3    4.347572253973466E-1   -1.112834481090050E-1
 8.116151126900000E9     5.050664719308131E-1    4.678296483823867E-2    2.855535666956002E-4    3.526025320371660E-3    3.656898060996051E-4    3.615858938281395E-3    4.347691740429624E-1   -1.116079543766583E-1
 8.116157987800000E9     5.050608078713211E-1    4.621219096326051E-2    3.024520260519696E-4    3.501365962372457E-3    4.034142553102297E-4    3.580022559667382E-3    4.347523534745799E-1   -1.121900482737446E-1
 8.116164848700000E9     5.050646662624012E-1    4.582168689010772E-2    3.124917622938120E-4    3.522361224026590E-3    3.904123980727369E-4    3.597823221515585E-3    4.346125915327800E-1   -1.126045658574419E-1
 8.116171709600000E9     5.050968381827868E-1    4.520041297984071E-2    3.246575524731358E-4    3.547473020800644E-3    3.857488140608030E-4    3.560598888768068E-3    4.343919072115304E-1   -1.130559741354177E-1
 8.116178570500000E9     5.050705081193599E-1    4.470945582108281E-2    3.266262779316048E-4    3.498311216925155E-3    3.874158044063549E-4    3.585220716081200E-3    4.344250214054761E-1   -1.136156525074462E-1
 8.116185431400000E9     5.051407659565775E-1    4.414623346201371E-2    3.300828090665132E-4    3.546525011676157E-3    3.817464609109585E-4    3.556677736505464E-3    4.343340580997225E-1   -1.139783420236983E-1
 8.116192292300000E9     5.052023000623130E-1    4.372389505409761E-2    3.420036919931192E-4    3.551930202097965E-3    3.354648457946046E-4    3.580036390153443E-3    4.340338603666384E-1   -1.144722255624192E-1
 8.116199153200000E9     5.052708787054335E-1    4.318117568661591E-2    3.449389189938573E-4    3.511929749403480E-3    3.761766756336348E-4    3.600252847859683E-3    4.338770756872624E-1   -1.150490913430759E-1
 8.116206014100000E9     5.052722977047913E-1    4.261921989654542E-2    3.668251488840660E-4    3.513596245688891E-3    3.720198194036624E-4    3.587757204157110E-3    4.338879650055483E-1   -1.155073552100162E-1
 8.116212875000000E9     5.053531375034042E-1    4.218726135701610E-2    3.584200354799839E-4    3.542046518867159E-3    4.068868438264467E-4    3.557766361235530E-3    4.338793280121030E-1   -1.159439322615625E-1
 8.116219735900000E9     5.054139486323854E-1    4.159893028726609E-2    3.764241307755293E-4    3.514912946077025E-3    4.360575200034215E-4    3.579458591401889E-3    4.336836947367005E-1   -1.164044295155957E-1
 8.116226596800000E9     5.054579545886972E-1    4.113155510941165E-2    3.680566404251436E-4    3.508035353615153E-3    4.261887241544225E-4    3.558605423874743E-3    4.336364012677408E-1   -1.168719984219700E-1
 8.116233457700000E9     5.054290795800697E-1    4.052792366081492E-2    3.479954366919918E-4    3.508952903269955E-3    4.105864061155426E-4    3.558193700632966E-3    4.335559168957071E-1   -1.173624286820122E-1
 8.116240318600000E9     5.055015760371361E-1    3.999884820390227E-2    3.672648366229249E-4    3.531026624211536E-3    4.292360964686533E-4    3.574813264323771E-3    4.333712077964280E-1   -1.177593724347666E-1
 8.116247179500000E9     5.055710329779892E-1    3.958185226256793E-2    3.708524804976293E-4    3.531351655952632E-3    4.333763420024836E-4    3.532670902971876E-3    4.332901765669724E-1   -1.181338467210889E-1
 8.116254040400000E9     5.054370315902025E-1    3.907459127244250E-2    3.843999870489793E-4    3.525137274081264E-3    3.950759991811891E-4    3.590953445644870E-3    4.331166320546964E-1   -1.187149856465229E-1
 8.116260901300000E9     5.055588517130428E-1    3.868527378750473E-2    3.901289947538460E-4    3.536497611325649E-3    4.427870558458707E-4    3.607080300907809E-3    4.332076198558110E-1   -1.190411448926368E-1
 8.116267762200000E9     5.055710168975046E-1    3.808652324163080E-2    4.029642389438770E-4    3.539516997236261E-3    4.500330529655435E-4    3.600845047727250E-3    4.330313299338199E-1   -1.195846478765728E-1
 8.116274623100000E9     5.057321041195612E-1    3.762913626287465E-2    3.687653692444662E-4    3.545066274389411E-3    4.439631316327295E-4    3.603190902479253E-3    4.328453235876086E-1   -1.199588554878439E-1
 8.116281484000000E9     5.055613117320927E-1    3.708540428478003E-2    3.782464255932546E-4    3.520569077684198E-3    4.777289321790394E-4    3.569674984782706E-3    4.326801756422237E-1   -1.204838453288483E-1
 8.116288344900000E9     5.058117981486202E-1    3.644971230135374E-2    3.482896863577365E-4    3.541266797295696E-3    4.669892261268868E-4    3.579751229538404E-3    4.326895069865895E-1   -1.210016906448005E-1
 8.116295205800000E9     5.056898224151523E-1    3.595496157023524E-2    3.639446302885681E-4    3.525497682802828E-3    4.673054209933418E-4    3.589197878909451E-3    4.325159126109382E-1   -1.213836539717642E-1
 8.116302066700000E9     5.058335884859088E-1    3.549522818302041E-2    4.003055815144196E-4    3.551542822751329E-3    4.812219964491416E-4    3.621088788649249E-3    4.323515152208122E-1   -1.218761787469203E-1
 8.116308927600000E9     5.057527997325925E-1    3.492502013961557E-2    3.879910383573788E-4    3.538203901633842E-3    4.705210824763121E-4    3.607809875759996E-3    4.322545899149133E-1   -1.223048806526519E-1
 8.116315788500000E9     5.057626661400452E-1    3.447770642573709E-2    4.199621625019906E-4    3.523980135765618E-3    5.062027245327828E-4    3.601963527220543E-3    4.320700144839940E-1   -1.228290471570551E-1
 8.116322649400000E9     5.057834492081262E-1    3.384372533058168E-2    4.075834815643133E-4    3.538360401412355E-3    4.822134775419235E-4    3.563683158287220E-3    4.321362157146869E-1   -1.232566161494488E-1
 8.116329510300000E9     5.058717624129129E-1    3.335006499175178E-2    4.142510469910568E-4    3.553474485223734E-3    4.820154886101164E-4    3.575323624958280E-3    4.319042979198714E-1   -1.237544592683261E-1
 8.116336371200000E9     5.058189252455463E-1    3.293616971891072E-2    4.174989116437072E-4    3.558651069637992E-3    5.061477792753695E-4    3.627182180169695E-3    4.318458828559322E-1   -1.242108363348300E-1
 8.116343232100000E9     5.058974243182354E-1    3.242177681403996E-2    4.419646401866255E-4    3.512733552139227E-3    4.765502978617923E-4    3.575560841714965E-3    4.317607620843867E-1   -1.246538149173942E-1
 8.116350093000000E9     5.059371623903356E-1    3.191198573732318E-2    4.200625162582603E-4    3.543091060550740E-3    4.802434465154940E-4    3.572215964280122E-3    4.316272215168339E-1   -1.252751317021544E-1
 8.116356953900000E9     5.058927002862025E-1    3.128535544425581E-2    4.241753137400178E-4    3.564802639196135E-3    4.692626382305073E-4    3.612993676965320E-3    4.316389613274665E-1   -1.255856731986973E-1
 8.116363814800000E9     5.059401154402903E-1    3.078429699664477E-2    4.148834021919444E-4    3.554660382346979E-3    4.726160304308099E-4    3.641309872813529E-3    4.314455256050950E-1   -1.259692882472299E-1
 8.116370675700000E9     5.059320446406216E-1    3.030655107985299E-2    4.537964820477459E-4    3.576488300355053E-3    4.929002531417438E-4    3.610650135825384E-3    4.313062445347089E-1   -1.264418025949854E-1
 8.116377536600000E9     5.059646904434911E-1    2.988838682230707E-2    4.347853514303252E-4    3.532932691727659E-3    5.081650286007062E-4    3.592961800070402E-3    4.311844805870379E-1   -1.270631416388593E-1
 8.116384397500000E9     5.058873512337366E-1    2.925323898962331E-2    4.441155875066502E-4    3.558592461058673E-3    5.286644925316542E-4    3.591896790178086E-3    4.310132236914263E-1   -1.274072186723967E-1
 8.116391258400000E9     5.060851677959252E-1    2.870412679784421E-2    4.630424547214126E-4    3.536477751834443E-3    5.047605242620387E-4    3.630251130911182E-3    4.309106993520603E-1   -1.278585354381168E-1
 8.116398119300000E9     5.059845416117639E-1    2.825740877122463E-2    4.429076641928160E-4    3.560956830923362E-3    5.156593012436824E-4    3.641666570645543E-3    4.309948740456987E-1   -1.282829137396675E-1
 8.116404980200000E9     5.061257835466026E-1    2.775844229545488E-2    4.533977037546055E-4    3.548948967081596E-3    5.333253203219062E-4    3.627365070449599E-3    4.307658637286827E-1   -1.287858853914127E-1
 8.116411841100000E9     5.061888787550932E-1    2.722632979788459E-2    4.677233062498867E-4    3.565706953704783E-3    5.551454778733289E-4    3.591488940152699E-3    4.305475988158805E-1   -1.293380777868176E-1
 8.116418702000000E9     5.061101300523333E-1    2.662731978634238E-2    4.960783299938267E-4    3.591413017966961E-3    5.486540884826178E-4    3.638725076746444E-3    4.305178236387760E-1   -1.298181325457521E-1
 8.116425562900000E9     5.059912444048797E-1    2.612116012296664E-2    4.739148414859065E-4    3.584183410569992E-3    5.331798472124159E-4    3.633320523469452E-3    4.302975726058810E-1   -1.302987887051915E-1
 8.116432423800000E9     5.061502477845206E-1    2.559413228122248E-2    4.950122009184123E-4    3.599913374468438E-3    5.212061141034967E-4    3.619425079595187E-3    4.301669686750152E-1   -1.306097162307700E-1
 8.116439284700000E9     5.061646858302886E-1    2.509291774856346E-2    4.796752835008542E-4    3.573750149706648E-3    5.286915959232717E-4    3.671921615257498E-3    4.300504528087407E-1   -1.311965399142109E-1
 8.116446145600000E9     5.063069468598388E-1    2.456600053752451E-2    5.003804218126347E-4    3.582157625936139E-3    5.252616856819699E-4    3.630062291434566E-3    4.299326493566857E-1   -1.315882872160442E-1
 8.116453006500000E9     5.062226481759301E-1    2.398658504726691E-2    4.800123343672097E-4    3.595163629892609E-3    5.582921901338039E-4    3.607194241784247E-3    4.300159710705538E-1   -1.320206012830037E-1
 8.116459867400000E9     5.061320638623569E-1    2.354402436248136E-2    4.963029231055792E-4    3.563688761591770E-3    5.606478443276545E-4    3.620996147373835E-3    4.298697998276000E-1   -1.326503435097263E-1
 8.116466728300000E9     5.061917142662196E-1    2.303560417072114E-2    5.317233429284304E-4    3.585751064498449E-3    5.866207986720837E-4    3.653559766641865E-3    4.295665974506391E-1   -1.331160757658219E-1
 8.116473589200000E9     5.061986017542398E-1    2.254750667394789E-2    4.935710235583680E-4    3.579069322037541E-3    5.731851064366132E-4    3.614820737414152E-3    4.294939185654170E-1   -1.334674661901943E-1
 8.116480450100000E9     5.062832245790555E-1    2.208244638259295E-2    5.217446052513255E-4    3.587620683163583E-3    6.307380752999909E-4    3.627726271673731E-3    4.294927911804682E-1   -1.338526195128870E-1
 8.116487311000000E9     5.062375484069617E-1    2.155304033936549E-2    5.431771989343431E-4    3.591561717958664E-3    6.080753556092416E-4    3.636591812987233E-3    4.292787594097712E-1   -1.343311863062170E-1
 8.116494171900000E9     5.062968447106267E-1    2.105045064059549E-2    5.156385160241268E-4    3.590053954910814E-3    5.655568992720846E-4    3.630431750846526E-3    4.290238255745989E-1   -1.347650464760510E-1
 8.116501032800000E9     5.062972021659575E-1    2.053516268729064E-2    5.171936713225802E-4    3.619438737534652E-3    5.578021855697021E-4    3.650165035780380E-3    4.288885471017828E-1   -1.353850721743890E-1
 8.116507893700000E9     5.062697058687582E-1    2.007802000719287E-2    5.296056400166525E-4    3.591928247105497E-3    6.108647772194116E-4    3.628921461786458E-3    4.288870794903268E-1   -1.355918129621383E-1
 8.116514754600000E9     5.062710584162348E-1    1.936382451633224E-2    5.348547429598131E-4    3.600875641291570E-3    5.826044371176522E-4    3.628592165073771E-3    4.287495189687091E-1   -1.362598846328291E-1
 8.116521615500000E9     5.062007555622047E-1    1.905566908231903E-2    5.470864347440499E-4    3.620975363354723E-3    5.980716822835624E-4    3.662210263150740E-3    4.286530912964662E-1   -1.367527363549107E-1
 8.116528476400000E9     5.063164228843107E-1    1.840305370162871E-2    5.462771483272840E-4    3.592787777602304E-3    6.163595692681657E-4    3.666567370642781E-3    4.284958151621740E-1   -1.371825750675080E-1
 8.116535337300000E9     5.062881827451978E-1    1.787692997764297E-2    5.383416451713294E-4    3.602176116828969E-3    6.160793571724371E-4    3.653073924088423E-3    4.282379534240390E-1   -1.376109377343048E-1
 8.116542198200000E9     5.062466847411287E-1    1.726181816216569E-2    5.623319287410960E-4    3.616649084996429E-3    6.523999783621573E-4    3.662612908369312E-3    4.282011358497563E-1   -1.380120629245365E-1
 8.116549059100000E9     5.063449420927905E-1    1.682990938922647E-2    5.568393117742116E-4    3.605011552828859E-3    6.348182583492952E-4    3.649079401329521E-3    4.281174092383726E-1   -1.385551778939647E-1
 8.116555920000000E9     5.063395783946809E-1    1.631320098779277E-2    5.806478889394632E-4    3.608673294968327E-3    6.439630891109405E-4    3.661051424570107E-3    4.279422055485979E-1   -1.390292606754500E-1
 8.116562780900000E9     5.063031910400773E-1    1.583612511148809E-2    5.703658243612857E-4    3.610994283951591E-3    6.496647910374402E-4    3.660421318468058E-3    4.278969048374374E-1   -1.394262857525466E-1
 8.116569641800000E9     5.062399384215741E-1    1.540467650151947E-2    5.592636734470264E-4    3.611236852251985E-3    6.071383307021632E-4    3.683647825611373E-3    4.277500055804078E-1   -1.398834961792911E-1
 8.116576502700000E9     5.063741447803763E-1    1.480991886058359E-2    5.860367309947804E-4    3.618578258606607E-3    6.326178466953376E-4    3.657229738761080E-3    4.274867058843342E-1   -1.403590411019774E-1
 8.116583363600000E9     5.064340828173908E-1    1.422692412956506E-2    5.844003486981569E-4    3.607898105622183E-3    6.705298773517031E-4    3.688534967409041E-3    4.275032028117572E-1   -1.407524542578052E-1
 8.116590224500000E9     5.062922633382384E-1    1.373405564955971E-2    5.860736261479494E-4    3.608098990567523E-3    6.562984164223575E-4    3.647125844669847E-3    4.272981152417921E-1   -1.411670112291443E-1
 8.116597085400000E9     5.062742704943700E-1    1.325040473728496E-2    5.815788772631445E-4    3.613930503659582E-3    6.547252922579786E-4    3.675631178347294E-3    4.272307690492873E-1   -1.417438110094461E-1
 8.116603946300000E9     5.063425416968456E-1    1.261013429030312E-2    5.997144694251146E-4    3.639791326363001E-3    6.881177061634219E-4    3.676132481762060E-3    4.269799644388590E-1   -1.422467747978516E-1
 8.116610807200000E9     5.062964129209067E-1    1.215183771437722E-2    5.874327318079240E-4    3.628904932601932E-3    6.890607254228297E-4    3.691202555096117E-3    4.269552356184543E-1   -1.426450725316788E-1
 8.116617668100000E9     5.063587288791965E-1    1.166320094740365E-2    6.004041101057488E-4    3.636645973635779E-3    6.885452967239779E-4    3.696518255549420E-3    4.267690780281835E-1   -1.430495928362231E-1
 8.116624529000000E9     5.064122974492822E-1    1.116797836429452E-2    6.053821335394287E-4    3.610199726788616E-3    6.641690817661388E-4    3.660297005201228E-3    4.266533884711442E-1   -1.434489257481994E-1
 8.116631389900000E9     5.063608157771006E-1    1.066335416223627E-2    6.157851449797332E-4    3.642275098825506E-3    6.971416949004907E-4    3.693952971124828E-3    4.264896427448296E-1   -1.440198051094344E-1
 8.116638250800000E9     5.063794073152569E-1    1.008416234765700E-2    6.150253803543785E-4    3.649550422258372E-3    6.688768865641780E-4    3.682647026406826E-3    4.264468294272906E-1   -1.445090819874913E-1
 8.116645111700000E9     5.063494441138159E-1    9.576279119360225E-3    6.380295827229487E-4    3.660826612389245E-3    6.662914371244967E-4    3.678088840706325E-3    4.262568085502684E-1   -1.449201612407262E-1
 8.116651972600000E9     5.064106012943702E-1    9.017445161331695E-3    6.405858891728383E-4    3.658333987332128E-3    6.725487516611748E-4    3.761821315226172E-3    4.261997741977117E-1   -1.453766673468685E-1
 8.116658833500000E9     5.064199801258391E-1    8.411517416619649E-3    6.246845023034339E-4    3.641332852582405E-3    6.897256919418377E-4    3.683528525263487E-3    4.262076979768440E-1   -1.458234447293425E-1
 8.116665694400000E9     5.063000779856373E-1    7.953280245708615E-3    6.331557877981485E-4    3.668046869799870E-3    6.902689811783930E-4    3.713719970853736E-3    4.258177578072390E-1   -1.462486714944537E-1
 8.116672555300000E9     5.063475741735778E-1    7.421199896017234E-3    6.529391065645046E-4    3.673587199307405E-3    7.140779842546774E-4    3.708739399607799E-3    4.257195132774073E-1   -1.467132645889200E-1
 8.116679416200000E9     5.063807662436561E-1    6.912688068965089E-3    6.551432972961923E-4    3.639970197976115E-3    6.958216551150358E-4    3.740980344849029E-3    4.256820386235300E-1   -1.471614424024275E-1
 8.116686277100000E9     5.063250129722084E-1    6.260783598236548E-3    6.559528207992160E-4    3.646688862266849E-3    6.945132626705471E-4    3.716609787783806E-3    4.253576597257253E-1   -1.477379116044757E-1
 8.116693138000000E9     5.063819238725067E-1    5.885100367123509E-3    6.656284436838613E-4    3.650715520546001E-3    7.247536006606622E-4    3.727604781383290E-3    4.253244704854200E-1   -1.481094170303812E-1
