#  HZ   S   RI   R     50.00 
! Rohde & Schwarz Vector Network Analyzer 
! Rohde-Schwarz,ZNB20-2Port,1311601062101988,3.16
! Created: UTC 3/20/2024, 11:50:06 AM
! freq[Hz]                re:S11                  im:S11                  re:S21                  im:S21                  re:S12                  im:S12                  re:S22                  im:S22
 8.116070742000000E9     5.045789295391676E-1    5.289485601896939E-2    2.655768293571903E-4    3.490188368322718E-3    3.303438047345634E-4    3.572377964328916E-3    4.359528492133482E-1   -1.063334789019541E-1
 8.116077618700000E9     5.044815632410319E-1    5.227022802140616E-2    2.705306497700053E-4    3.517203114945914E-3    3.131122887763155E-4    3.550979417789131E-3    4.357756905560628E-1   -1.067129475734292E-1
 8.116084495400000E9     5.045402538984337E-1    5.181166273689093E-2    2.781024839847315E-4    3.509212067694914E-3    3.428364150097695E-4    3.546799505068921E-3    4.357909762554140E-1   -1.071324489637863E-1
 8.116091372100000E9     5.046609420842750E-1    5.125688649356126E-2    2.622512772240247E-4    3.513863010696265E-3    3.082524773615281E-4    3.540266145236594E-3    4.357430987734695E-1   -1.077823364157958E-1
 8.116098248800000E9     5.047482685587377E-1    5.082461435467852E-2    2.926345757303033E-4    3.500093693496666E-3    3.339679178846642E-4    3.568023247979431E-3    4.355465829832426E-1   -1.081626261966378E-1
 8.116105125500000E9     5.046522255801632E-1    5.022506457399821E-2    2.771427630776965E-4    3.489223229074349E-3    3.727292648414606E-4    3.580984254808498E-3    4.355574352525499E-1   -1.083889926273826E-1
 8.116112002200000E9     5.048749848579253E-1    4.976754831391741E-2    2.798646666652884E-4    3.501105206415619E-3    3.559547473592921E-4    3.546494825238108E-3    4.351893399878045E-1   -1.090326903517794E-1
 8.116118878900000E9     5.046500372995996E-1    4.926477985752540E-2    2.911988338629417E-4    3.492151796479012E-3    3.322405262433181E-4    3.545957442997460E-3    4.353481711711387E-1   -1.095139833484190E-1
 8.116125755600000E9     5.048768258453399E-1    4.865455989627517E-2    3.063652062797025E-4    3.504899037527736E-3    3.980656664181157E-4    3.571195492250361E-3    4.350375380367311E-1   -1.098974454371777E-1
 8.116132632300000E9     5.047999950700787E-1    4.820538407175778E-2    2.871570273655100E-4    3.525876429745082E-3    3.591206231891970E-4    3.562286199034776E-3    4.351708843774314E-1   -1.104421930170613E-1
 8.116139509000000E9     5.049341566921229E-1    4.774559968995157E-2    3.258524673864266E-4    3.504728902590700E-3    3.540723687216624E-4    3.549200640910854E-3    4.349481973273730E-1   -1.108882126664743E-1
 8.116146385700000E9     5.050300863156048E-1    4.709978258795046E-2    3.011373404847447E-4    3.519141728797652E-3    3.632233659638933E-4    3.529582820077808E-3    4.348370270448925E-1   -1.114322109313470E-1
 8.116153262400000E9     5.050009588687437E-1    4.665379180552420E-2    3.214562663687945E-4    3.537442333414747E-3    3.803181373724589E-4    3.542633001021310E-3    4.347598829442114E-1   -1.117944034007333E-1
 8.116160139100000E9     5.051267449824006E-1    4.613514945771075E-2    3.217756436349460E-4    3.527027362389971E-3    3.860954522315319E-4    3.551707521557552E-3    4.346368612872177E-1   -1.122544208457231E-1
 8.116167015800000E9     5.050444176226564E-1    4.564173776905357E-2    3.158143617866218E-4    3.521734566052457E-3    3.814538091710991E-4    3.565923840402011E-3    4.345811540302040E-1   -1.127343725016625E-1
 8.116173892500000E9     5.051549257951314E-1    4.517038312310354E-2    3.497748734528366E-4    3.521605529652094E-3    3.821520294115836E-4    3.567800018671524E-3    4.345321963250195E-1   -1.131808157270692E-1
 8.116180769200000E9     5.051186041682713E-1    4.464760810707005E-2    3.345700553271183E-4    3.497247132587595E-3    3.684351165041940E-4    3.582245401258855E-3    4.343983711502058E-1   -1.136568639705997E-1
 8.116187645900000E9     5.051441881608222E-1    4.405447378666653E-2    3.424955196970090E-4    3.516507230525898E-3    4.087887275215812E-4    3.565518917869423E-3    4.341509488602796E-1   -1.142385671928751E-1
 8.116194522600000E9     5.051699318288035E-1    4.354289516280699E-2    3.533260567056920E-4    3.505345777147618E-3    3.967184398171026E-4    3.605322813518879E-3    4.341609320794557E-1   -1.146555921253169E-1
 8.116201399300000E9     5.052366319711928E-1    4.302897118646082E-2    3.509588877207587E-4    3.510230331399290E-3    4.010687663560265E-4    3.583750639724644E-3    4.340414453472692E-1   -1.150743729745671E-1
 8.116208276000000E9     5.053344475273430E-1    4.257691878317792E-2    3.830890027691316E-4    3.529248822978883E-3    4.286598511956708E-4    3.592105205035576E-3    4.340074910342872E-1   -1.155014100573259E-1
 8.116215152700000E9     5.054899673393586E-1    4.210294166655459E-2    3.852046171742922E-4    3.524214592315293E-3    4.167333992027184E-4    3.543241603376930E-3    4.337705439657540E-1   -1.160475818119547E-1
 8.116222029400000E9     5.053106090487122E-1    4.147654642234773E-2    3.261978723963563E-4    3.521363926271801E-3    4.106797531235984E-4    3.611149435768729E-3    4.337528019699925E-1   -1.164679900834155E-1
 8.116228906100000E9     5.054956452013806E-1    4.093516604801800E-2    3.656533021821928E-4    3.547158332284288E-3    4.117646617031200E-4    3.596293094483490E-3    4.335927272998902E-1   -1.170412413336529E-1
 8.116235782800000E9     5.055036435945935E-1    4.051795614303766E-2    3.749120227156907E-4    3.521110971430524E-3    4.377416886859196E-4    3.572617102623523E-3    4.335240977634177E-1   -1.173766322924440E-1
 8.116242659500000E9     5.054704580776556E-1    3.992219575345510E-2    3.570440752231474E-4    3.522320594814614E-3    4.001523002219047E-4    3.576672199230210E-3    4.333496966267444E-1   -1.177900989957720E-1
 8.116249536200000E9     5.055257500615429E-1    3.948730782709965E-2    3.687320272060458E-4    3.538858444184943E-3    4.211200523123764E-4    3.580696147161317E-3    4.332594153568467E-1   -1.183554603284491E-1
 8.116256412900000E9     5.055760069610021E-1    3.898655038939332E-2    3.669055389136860E-4    3.536346136543439E-3    4.237961310479050E-4    3.584493344126484E-3    4.331743143707266E-1   -1.187113469784031E-1
 8.116263289600000E9     5.056367325446278E-1    3.844726979508866E-2    3.747598888532818E-4    3.554333742028653E-3    4.186447989548361E-4    3.600963463880804E-3    4.331672746203418E-1   -1.192943971971279E-1
 8.116270166300000E9     5.055282363121433E-1    3.799541693264289E-2    3.786092601749606E-4    3.529236773969283E-3    4.145185491209467E-4    3.576657412546721E-3    4.330195917054359E-1   -1.197582281923001E-1
 8.116277043000000E9     5.054997615964224E-1    3.745798026533025E-2    3.900723886398070E-4    3.540898117805319E-3    4.442592767596010E-4    3.590066354063514E-3    4.328958990874716E-1   -1.202264564804872E-1
 8.116283919700000E9     5.056906392327878E-1    3.682299169342399E-2    3.980668694045470E-4    3.552137756877509E-3    4.206208215726519E-4    3.613967721663395E-3    4.327042740748896E-1   -1.206997803134492E-1
 8.116290796400000E9     5.056804425931214E-1    3.629959921129875E-2    4.154072815470428E-4    3.533303238349744E-3    4.705477844553425E-4    3.594108711785898E-3    4.326679115458710E-1   -1.210244783543991E-1
 8.116297673100000E9     5.057627425063929E-1    3.575626730374409E-2    4.070424630996425E-4    3.545750751134862E-3    4.516332732683531E-4    3.588187129900653E-3    4.324976556270791E-1   -1.215087250401243E-1
 8.116304549800000E9     5.057588480117303E-1    3.520368854863162E-2    3.913964518586314E-4    3.537863747554406E-3    4.837635127258334E-4    3.603891866147776E-3    4.324065662092460E-1   -1.221439879826855E-1
 8.116311426500000E9     5.057277205210965E-1    3.483523107917436E-2    4.113426268648496E-4    3.553146248672306E-3    4.692352419847757E-4    3.585186660155543E-3    4.322351024379885E-1   -1.225307803483949E-1
 8.116318303200000E9     5.058476706708789E-1    3.425826124462274E-2    3.975065356198926E-4    3.545295004654254E-3    5.126451635844646E-4    3.589407305348004E-3    4.322157265716609E-1   -1.229849106269749E-1
 8.116325179900000E9     5.057411320487999E-1    3.387568893327024E-2    4.347901838798399E-4    3.565090290931705E-3    4.662343278380881E-4    3.581800790406636E-3    4.321168407935841E-1   -1.234052034237842E-1
 8.116332056600000E9     5.057910123794768E-1    3.328457267496556E-2    3.899876198116544E-4    3.538136914836171E-3    4.253144360165190E-4    3.607247001465213E-3    4.319638460246302E-1   -1.239088486605774E-1
 8.116338933300000E9     5.057190938868430E-1    3.274455722803325E-2    4.421105461288955E-4    3.550507402158266E-3    4.701841215237129E-4    3.574979448323931E-3    4.318634508367072E-1   -1.244566831057617E-1
 8.116345810000000E9     5.059121770027908E-1    3.227897451301971E-2    4.113889586152364E-4    3.568111306255309E-3    4.804513298634046E-4    3.608942454424493E-3    4.316639139802498E-1   -1.248204963830381E-1
 8.116352686700000E9     5.059057708904238E-1    3.165404188102023E-2    4.495574383642175E-4    3.555012277422028E-3    4.807977247121087E-4    3.612603679176152E-3    4.316383572518125E-1   -1.252613987549715E-1
 8.116359563400000E9     5.059053584168072E-1    3.118545970870456E-2    4.620569899024160E-4    3.548909754587649E-3    5.019939788376745E-4    3.593474406169957E-3    4.313502722038180E-1   -1.258068168824205E-1
 8.116366440100000E9     5.060151902130802E-1    3.066195197028376E-2    4.107894816852677E-4    3.553572501936116E-3    4.982087487625782E-4    3.590660220499696E-3    4.313935195944368E-1   -1.262321946847396E-1
 8.116373316800000E9     5.058918801107972E-1    3.018707402329001E-2    4.413399234485529E-4    3.557723029655265E-3    5.207529570973543E-4    3.620668250234568E-3    4.313115831529170E-1   -1.267458107229259E-1
 8.116380193500000E9     5.060608649258509E-1    2.960484845081954E-2    4.521997033984741E-4    3.562497372883761E-3    5.029960510544118E-4    3.625064252082969E-3    4.312292679765178E-1   -1.271095116626960E-1
 8.116387070200000E9     5.059439291843059E-1    2.906630673180318E-2    4.313544531035259E-4    3.555691403567212E-3    4.754813263991803E-4    3.616588202590453E-3    4.310320806927875E-1   -1.276128763415708E-1
 8.116393946900000E9     5.060171388940781E-1    2.862622032027377E-2    4.537160952162606E-4    3.559431432961355E-3    5.275372994549252E-4    3.619683514183416E-3    4.311487482711146E-1   -1.280997380032858E-1
 8.116400823600000E9     5.061822268330485E-1    2.802577492411290E-2    4.778391347325801E-4    3.534445781145783E-3    5.405211814161158E-4    3.606181213739042E-3    4.308912796135660E-1   -1.286617806810899E-1
 8.116407700300000E9     5.060552004282544E-1    2.757676887383162E-2    4.621547030239003E-4    3.587887041345255E-3    5.243821361738748E-4    3.623381075655975E-3    4.307100362589100E-1   -1.290275283395570E-1
 8.116414577000000E9     5.061592949073837E-1    2.702981608617504E-2    5.023294307961938E-4    3.563727370892384E-3    5.174381460382145E-4    3.635740689387864E-3    4.306424075706357E-1   -1.294305497124089E-1
 8.116421453700000E9     5.060708223513372E-1    2.643420314959655E-2    4.767152772862905E-4    3.553372664775643E-3    5.408643803018765E-4    3.653840409788472E-3    4.303953205863984E-1   -1.300295733488017E-1
 8.116428330400000E9     5.061014185737860E-1    2.600258680428166E-2    4.859867083209951E-4    3.603251011634776E-3    5.197229368427041E-4    3.630818220889402E-3    4.302858023235129E-1   -1.303889640733868E-1
 8.116435207100000E9     5.062941700182121E-1    2.548022799047661E-2    4.764666902914035E-4    3.573270073929067E-3    5.767800469556218E-4    3.631598097133528E-3    4.302227730432303E-1   -1.307890493877369E-1
 8.116442083800000E9     5.062189094107785E-1    2.484665642723872E-2    4.631794369398450E-4    3.587357735684548E-3    5.312632142603727E-4    3.619330108722097E-3    4.301121034299306E-1   -1.312778460815839E-1
 8.116448960500000E9     5.061512967301407E-1    2.444525864281666E-2    4.941292561795571E-4    3.565508771940028E-3    5.851566849578030E-4    3.637968050801333E-3    4.300431985994179E-1   -1.318135780196437E-1
 8.116455837200000E9     5.062083147291564E-1    2.398426081652361E-2    4.724680979520279E-4    3.586551383638600E-3    5.907634957047750E-4    3.612950255559443E-3    4.298689034668068E-1   -1.323323413723870E-1
 8.116462713900000E9     5.062856926454715E-1    2.335447196027904E-2    4.994490132990757E-4    3.575199384836106E-3    5.636384338193757E-4    3.615095229801070E-3    4.297695942889188E-1   -1.328191092003395E-1
 8.116469590600000E9     5.062428458784648E-1    2.289202745323027E-2    5.309571488249152E-4    3.585344801907837E-3    5.489031776948212E-4    3.638969890698568E-3    4.295860950946532E-1   -1.329981461731925E-1
 8.116476467300000E9     5.061357858990391E-1    2.235351639227182E-2    4.839326566837558E-4    3.589421580924963E-3    5.919242319463067E-4    3.634172637600056E-3    4.295275330119068E-1   -1.336314861651996E-1
 8.116483344000000E9     5.062535867154805E-1    2.178497716339793E-2    5.324258052112431E-4    3.609043077174057E-3    5.684109710755361E-4    3.645003322061342E-3    4.293600182789723E-1   -1.340308427075668E-1
 8.116490220700000E9     5.062376959808498E-1    2.129654439651412E-2    5.337088980953411E-4    3.583668097221961E-3    5.368057811863087E-4    3.660483033849516E-3    4.293031278389794E-1   -1.344601388693796E-1
 8.116497097400000E9     5.062378523548419E-1    2.080490460674924E-2    5.189547318255341E-4    3.612681684037373E-3    5.973841727136556E-4    3.681362857935843E-3    4.291137686865373E-1   -1.350229604225036E-1
 8.116503974100000E9     5.062510669083637E-1    2.013247198310082E-2    5.309271664145341E-4    3.592793024080819E-3    5.794004145214193E-4    3.645953900113429E-3    4.288876008408409E-1   -1.354569772176948E-1
 8.116510850800000E9     5.061819836214335E-1    1.982510034423269E-2    5.289444620724470E-4    3.585951163151809E-3    5.804036398697359E-4    3.672168438903986E-3    4.287894032238110E-1   -1.359430516967409E-1
 8.116517727500000E9     5.063565964222612E-1    1.934094945805948E-2    5.433405758422150E-4    3.575532865260538E-3    5.971407370223832E-4    3.676131805184569E-3    4.287023594891046E-1   -1.364109348571055E-1
 8.116524604200000E9     5.062776330179080E-1    1.880046025324772E-2    5.449351692842046E-4    3.611009436208098E-3    6.207013264608364E-4    3.638731450846303E-3    4.285406139299675E-1   -1.368202438211372E-1
 8.116531480900000E9     5.063187871703666E-1    1.807705615197627E-2    5.787934803878788E-4    3.619203555137421E-3    6.030459886150341E-4    3.668206817579690E-3    4.285586480066592E-1   -1.371888719024233E-1
 8.116538357600000E9     5.063051575833788E-1    1.771494025000107E-2    5.202371443054901E-4    3.611699398544930E-3    5.825864588261367E-4    3.672766257266832E-3    4.282377223887837E-1   -1.378040128558707E-1
 8.116545234300000E9     5.064793051636688E-1    1.712136114830192E-2    5.338416189062580E-4    3.611230672925553E-3    6.097983395214739E-4    3.667393093693800E-3    4.281920144582814E-1   -1.381511021439157E-1
 8.116552111000000E9     5.063311299514931E-1    1.652498881122857E-2    5.793142521002008E-4    3.624533766703417E-3    6.473393358227068E-4    3.671199244010186E-3    4.281773182260794E-1   -1.387513968903140E-1
 8.116558987700000E9     5.063537008151977E-1    1.606356258326812E-2    5.317760091825723E-4    3.605512203722207E-3    6.147565094168060E-4    3.700790674340290E-3    4.279209959928057E-1   -1.392589362757599E-1
 8.116565864400000E9     5.063008019568102E-1    1.554487186529512E-2    5.750622329888076E-4    3.617456326898851E-3    6.241789025205691E-4    3.686000230125476E-3    4.277152181199394E-1   -1.395306783600924E-1
 8.116572741100000E9     5.062799774174984E-1    1.515888152022356E-2    5.770706344426142E-4    3.631790035829272E-3    6.338111699552299E-4    3.659034962627009E-3    4.277673000896519E-1   -1.401358654701991E-1
 8.116579617800000E9     5.063741988055640E-1    1.463679115716561E-2    5.666235767115908E-4    3.618960845657224E-3    6.286097298067407E-4    3.646889570925112E-3    4.275571736065958E-1   -1.406886698209072E-1
 8.116586494500000E9     5.063008813345515E-1    1.399595646023714E-2    5.823683927230993E-4    3.607005581779331E-3    6.444319443763714E-4    3.687547330875557E-3    4.274622626530262E-1   -1.409202812084822E-1
 8.116593371200000E9     5.063606904888134E-1    1.336737404267698E-2    5.752066957469405E-4    3.632505590131301E-3    6.721947397105971E-4    3.698242981610616E-3    4.272333602680498E-1   -1.413682480507723E-1
 8.116600247900000E9     5.063074572478610E-1    1.311343057455101E-2    6.018852138854745E-4    3.654330237023596E-3    6.640847682662910E-4    3.669634042297262E-3    4.270492624399696E-1   -1.419929960616525E-1
 8.116607124600000E9     5.063931265410552E-1    1.248490323967901E-2    6.330087986482089E-4    3.642038443563703E-3    6.324781790500924E-4    3.681479220396656E-3    4.270026601297500E-1   -1.423341161924931E-1
 8.116614001300000E9     5.063667648057133E-1    1.197363771393926E-2    5.985370773699786E-4    3.631740034482118E-3    6.643776647653230E-4    3.700065964176545E-3    4.268656054836719E-1   -1.428238499253090E-1
 8.116620878000000E9     5.064093528647831E-1    1.139640097911518E-2    6.238882559824392E-4    3.621128323600502E-3    6.645516087713740E-4    3.711509812527763E-3    4.267732440751307E-1   -1.431140020817714E-1
 8.116627754700000E9     5.063567067094167E-1    1.083375913134516E-2    6.226588924319049E-4    3.656314090225542E-3    6.517895361669852E-4    3.667732480331601E-3    4.266886141409468E-1   -1.437546435786193E-1
 8.116634631400000E9     5.063425964658199E-1    1.026107886520372E-2    5.963982949814172E-4    3.649507702811755E-3    6.673354583282955E-4    3.699094294729099E-3    4.264239614142346E-1   -1.441853103183807E-1
 8.116641508100000E9     5.063860172066713E-1    9.820403959776245E-3    6.087117445909159E-4    3.639634665998279E-3    7.008565309746319E-4    3.688208513866142E-3    4.264511844546103E-1   -1.447283178621775E-1
 8.116648384800000E9     5.062980534012433E-1    9.346994035825932E-3    6.309183806153635E-4    3.644489944562882E-3    6.574879349858448E-4    3.664833177608153E-3    4.261509472565391E-1   -1.450678065685150E-1
 8.116655261500000E9     5.063822256713567E-1    8.757720545794800E-3    6.363806661821064E-4    3.657845885769487E-3    7.030392345381251E-4    3.730319597304492E-3    4.260089860515245E-1   -1.456629653145715E-1
 8.116662138200000E9     5.063228023165925E-1    8.268770233283202E-3    6.491659094254570E-4    3.675889418289403E-3    6.956895486313483E-4    3.683712679373569E-3    4.259979499064407E-1   -1.460047498408619E-1
 8.116669014900000E9     5.063432252838816E-1    7.694546775282834E-3    6.661644611585216E-4    3.655737651001169E-3    6.967330382369669E-4    3.709810535184441E-3    4.257065147076657E-1   -1.465884622872841E-1
 8.116675891600000E9     5.062771361114872E-1    7.128004177388191E-3    6.496949306503917E-4    3.652930980137478E-3    7.391675612289793E-4    3.703898433106271E-3    4.256886099325972E-1   -1.470904624157885E-1
 8.116682768300000E9     5.063504466045390E-1    6.657645769694897E-3    6.501060904320161E-4    3.639351582425939E-3    7.293711979513541E-4    3.696354470296427E-3    4.253895581651937E-1   -1.472754327162940E-1
 8.116689645000000E9     5.063704298756584E-1    6.127912186810807E-3    6.619019506558394E-4    3.668563196541991E-3    7.186932152075497E-4    3.694330547841504E-3    4.254156475804690E-1   -1.479514435694773E-1
