#  HZ   S   RI   R     50.00 
! Rohde & Schwarz Vector Network Analyzer 
! Rohde-Schwarz,ZNB20-2Port,1311601062101988,3.16
! Created: UTC 3/20/2024, 11:50:09 AM
! freq[Hz]                re:S11                  im:S11                  re:S21                  im:S21                  re:S12                  im:S12                  re:S22                  im:S22
 8.116054590000000E9     5.043413865338771E-1    5.409313082489667E-2    2.180117345112706E-4    3.475882954304480E-3    3.265413191610112E-4    3.542739620263206E-3    4.360757599323309E-1   -1.052351285284075E-1
 8.116061536900000E9     5.044273000457642E-1    5.349327808686621E-2    2.535827071672746E-4    3.509835899797857E-3    3.376002880381568E-4    3.568167913178028E-3    4.360022545233638E-1   -1.056492582632187E-1
 8.116068483800000E9     5.043707784850574E-1    5.296142729580377E-2    2.635011036069480E-4    3.500471264820541E-3    3.415662985661843E-4    3.547183154981795E-3    4.359268429722932E-1   -1.060491409027384E-1
 8.116075430700000E9     5.045712762847134E-1    5.246306020666748E-2    2.834183097747316E-4    3.487609837541933E-3    3.188369667466654E-4    3.545027630744153E-3    4.359318704198801E-1   -1.066566264316173E-1
 8.116082377600000E9     5.045413600564331E-1    5.197280809827872E-2    2.777435480126931E-4    3.504060461923700E-3    3.399103398826630E-4    3.547569590915914E-3    4.358905705833073E-1   -1.069716445180382E-1
 8.116089324500000E9     5.046993249931713E-1    5.134559682174527E-2    2.476142924439280E-4    3.509228435883475E-3    3.692472049878743E-4    3.516221859654309E-3    4.357555398290047E-1   -1.074840068226937E-1
 8.116096271400000E9     5.048060029176573E-1    5.086054509339567E-2    2.829349561987289E-4    3.499656286579841E-3    3.596155030104598E-4    3.525952849361396E-3    4.356478823315542E-1   -1.079078091425442E-1
 8.116103218300000E9     5.046573912534552E-1    5.031375784220948E-2    2.770778463906041E-4    3.515291195038505E-3    3.388926369702041E-4    3.572712925296057E-3    4.354588550609487E-1   -1.084955564056500E-1
 8.116110165200000E9     5.047682239561960E-1    4.985020897721209E-2    3.059539235912721E-4    3.495436734916434E-3    3.416595712250679E-4    3.575708820424485E-3    4.354338815776375E-1   -1.088976809188193E-1
 8.116117112100000E9     5.047460038951224E-1    4.937599851436824E-2    3.106045382041186E-4    3.507943980435884E-3    3.417293644413616E-4    3.558747191593860E-3    4.352567296032802E-1   -1.094633591012026E-1
 8.116124059000000E9     5.048338364436014E-1    4.882083906920755E-2    2.833681260608418E-4    3.518750744728317E-3    3.705770877960244E-4    3.555592904586927E-3    4.352203635900055E-1   -1.097598855096670E-1
 8.116131005900000E9     5.048637494565534E-1    4.840773635553745E-2    3.135580777924474E-4    3.515905212795898E-3    3.282437331001336E-4    3.590185455244254E-3    4.350192050893448E-1   -1.101678015152419E-1
 8.116137952800000E9     5.048697752346509E-1    4.768755952851680E-2    3.015722143992401E-4    3.509966275414807E-3    3.387193899240732E-4    3.589522289413912E-3    4.349274153716282E-1   -1.109008448885582E-1
 8.116144899700000E9     5.049810067393952E-1    4.724428021570633E-2    3.107175652893608E-4    3.514769317684991E-3    3.862984596511202E-4    3.554874616849816E-3    4.348857914926277E-1   -1.111925822206777E-1
 8.116151846600000E9     5.048102233398684E-1    4.674089002559215E-2    3.190103018406153E-4    3.543862065399739E-3    4.079056155990171E-4    3.551711047034879E-3    4.348259788241681E-1   -1.117176418089285E-1
 8.116158793500000E9     5.050472945975288E-1    4.612571657135014E-2    3.165730205987967E-4    3.530920646285987E-3    3.601468388804497E-4    3.570145179600324E-3    4.347390963732327E-1   -1.121182316018217E-1
 8.116165740400000E9     5.050125935133467E-1    4.576944551392055E-2    2.945603897253219E-4    3.533292228915822E-3    3.504828729274063E-4    3.570929482783294E-3    4.346229886542886E-1   -1.126002394950063E-1
 8.116172687300000E9     5.051447883641249E-1    4.516602256133192E-2    3.061364004990974E-4    3.499764442066652E-3    4.163590204191951E-4    3.604265670528195E-3    4.344592544648286E-1   -1.130038494776602E-1
 8.116179634200000E9     5.051590794986138E-1    4.469916060294391E-2    3.076149578734460E-4    3.508706693405171E-3    3.845470541253977E-4    3.552873844632409E-3    4.343510398706656E-1   -1.135804004004461E-1
 8.116186581100000E9     5.051553417951719E-1    4.418317494683973E-2    3.516258555457813E-4    3.516603248655775E-3    3.906918014189081E-4    3.598545684454694E-3    4.342676168661116E-1   -1.140263483169341E-1
 8.116193528000000E9     5.052145414890213E-1    4.350426485344266E-2    3.445060365620167E-4    3.503658392639913E-3    3.968478361698164E-4    3.569647608001562E-3    4.340677835779010E-1   -1.145498567932304E-1
 8.116200474900000E9     5.052151145149930E-1    4.310646985209089E-2    3.381724360449339E-4    3.537975590798235E-3    4.110009716873483E-4    3.583700918295710E-3    4.340238951892118E-1   -1.149707690504034E-1
 8.116207421800000E9     5.052538064193357E-1    4.250935205088970E-2    3.412548679693312E-4    3.522091385784688E-3    3.807387237507079E-4    3.566610866884529E-3    4.339282554173605E-1   -1.154308166416431E-1
 8.116214368700000E9     5.053253685861644E-1    4.203073326726163E-2    3.651715594526567E-4    3.505986145416418E-3    4.001504026822944E-4    3.572045291271992E-3    4.337562818592479E-1   -1.158297040984382E-1
 8.116221315600000E9     5.054662829114687E-1    4.155981322490476E-2    3.706178678419038E-4    3.532166113676021E-3    4.263106619686506E-4    3.570759795796666E-3    4.336388762951821E-1   -1.163792471058119E-1
 8.116228262500000E9     5.054274292047534E-1    4.093982096041465E-2    3.605758317555025E-4    3.539020813902715E-3    4.173831787887147E-4    3.617132667218888E-3    4.336334868149474E-1   -1.168793043410307E-1
 8.116235209400000E9     5.053754975695953E-1    4.048359757711976E-2    3.565150469016690E-4    3.505452316148830E-3    3.974741832095806E-4    3.585415570840141E-3    4.335473639712403E-1   -1.171814560579393E-1
 8.116242156300000E9     5.054456347949956E-1    3.999773143475314E-2    3.633876107771888E-4    3.516935343959668E-3    4.200880656116449E-4    3.591120888621379E-3    4.333139559118288E-1   -1.179855294778281E-1
 8.116249103200000E9     5.054314273797625E-1    3.937277280044154E-2    3.653495083426076E-4    3.523295069790915E-3    4.420797607720798E-4    3.568366463552286E-3    4.332906847206616E-1   -1.182822556709734E-1
 8.116256050100000E9     5.054798163438790E-1    3.894634397911799E-2    3.724311167331132E-4    3.531885627924797E-3    4.268416858327561E-4    3.551938850121353E-3    4.331648225796131E-1   -1.187556281022898E-1
 8.116262997000000E9     5.054888819328849E-1    3.844307958724815E-2    3.798267220917060E-4    3.537855076951859E-3    4.469091322331540E-4    3.605608191690800E-3    4.329922469332126E-1   -1.192528203954380E-1
 8.116269943900000E9     5.055531017231329E-1    3.792106591194992E-2    3.629920807065849E-4    3.537234944181968E-3    4.268684315642113E-4    3.591129269505686E-3    4.329096510632555E-1   -1.196749770414325E-1
 8.116276890800000E9     5.056170646616240E-1    3.743352741684503E-2    3.943740089144530E-4    3.553726919771513E-3    4.241262766867637E-4    3.601255275072746E-3    4.328715956585721E-1   -1.202544695874361E-1
 8.116283837700000E9     5.056493760370939E-1    3.689741798351131E-2    3.714756322239460E-4    3.541109620563360E-3    4.479197533195546E-4    3.590819081675828E-3    4.328230526584628E-1   -1.206628475764704E-1
 8.116290784600000E9     5.056122516365015E-1    3.643906894415642E-2    3.633933704114866E-4    3.526536627645618E-3    4.542405442575832E-4    3.576097638321684E-3    4.326725017538941E-1   -1.210947815883497E-1
 8.116297731500000E9     5.056352162591669E-1    3.583240295206270E-2    3.964449275405579E-4    3.517154966825736E-3    4.703911159170260E-4    3.599926060593988E-3    4.326186150673398E-1   -1.215352412983046E-1
 8.116304678400000E9     5.057703764508380E-1    3.513681370125681E-2    3.969729189666518E-4    3.555012793372027E-3    4.872790108350562E-4    3.611928400418756E-3    4.324087059817859E-1   -1.220766490266659E-1
 8.116311625300000E9     5.057572426103766E-1    3.474383780748710E-2    4.220273845244015E-4    3.534785835739402E-3    4.817889068885726E-4    3.593930927130533E-3    4.323023709283307E-1   -1.225152196383331E-1
 8.116318572200000E9     5.057535236539639E-1    3.410660587984039E-2    4.090337189469839E-4    3.569014527137660E-3    4.684085225709995E-4    3.583712753516139E-3    4.321649625394741E-1   -1.229345285058490E-1
 8.116325519100000E9     5.057829636395421E-1    3.371276098149919E-2    3.916662796591871E-4    3.546167264824113E-3    4.636461239012373E-4    3.572947183558704E-3    4.320312350749745E-1   -1.234304333792192E-1
 8.116332466000000E9     5.059683895728241E-1    3.307386755970681E-2    4.163707326075643E-4    3.558880876638330E-3    4.470489924775839E-4    3.582349478689958E-3    4.319400191414128E-1   -1.239942805490873E-1
 8.116339412900000E9     5.058070695403214E-1    3.270401373410085E-2    3.902143110876351E-4    3.574428813233962E-3    4.526747198149449E-4    3.595553951353425E-3    4.317776982574247E-1   -1.243754279230099E-1
 8.116346359800000E9     5.058443000845565E-1    3.214036148969533E-2    4.329426448809632E-4    3.528284659430811E-3    5.172272124106938E-4    3.632653331921479E-3    4.317697886097306E-1   -1.248397909666460E-1
 8.116353306700000E9     5.059554536992991E-1    3.156309616488924E-2    4.337720408986463E-4    3.554476843110239E-3    4.846037573912876E-4    3.616018779550123E-3    4.315191018381063E-1   -1.254163046392313E-1
 8.116360253600000E9     5.059418213661395E-1    3.112271090587037E-2    4.346647656980263E-4    3.576490178617594E-3    5.001699763183686E-4    3.639151001187941E-3    4.314147116298445E-1   -1.258265663996321E-1
 8.116367200500000E9     5.058414348128494E-1    3.046206889148083E-2    4.446788020505620E-4    3.548105381989194E-3    4.890357687971774E-4    3.595362897730835E-3    4.313375229492825E-1   -1.262996892803673E-1
 8.116374147400000E9     5.058867524261026E-1    3.002097317429458E-2    4.094990678262883E-4    3.565070778912837E-3    4.811957852549917E-4    3.611618642567649E-3    4.312568846076609E-1   -1.265558765939338E-1
 8.116381094300000E9     5.060634360322619E-1    2.958933477283855E-2    4.503761605888162E-4    3.552602472574467E-3    5.057659610483042E-4    3.579368216724242E-3    4.311259566166643E-1   -1.272345078506708E-1
 8.116388041200000E9     5.059760398494793E-1    2.908267333887955E-2    4.766828113172350E-4    3.567779939100401E-3    5.330763036382226E-4    3.603431332938975E-3    4.309900825330951E-1   -1.276509992224191E-1
 8.116394988100000E9     5.060549070250960E-1    2.842502729358345E-2    4.612890043542159E-4    3.552514493595794E-3    5.273780733760638E-4    3.634427511598206E-3    4.308886109448150E-1   -1.282580495512842E-1
 8.116401935000000E9     5.060079442482766E-1    2.793444472073082E-2    4.599700993915202E-4    3.553074713017670E-3    5.076326030441956E-4    3.624131164212035E-3    4.307900048598565E-1   -1.286537989130921E-1
 8.116408881900000E9     5.060577111039108E-1    2.743535474063329E-2    4.676543555709506E-4    3.567947819563553E-3    5.240051862747001E-4    3.637391693693134E-3    4.307227273762061E-1   -1.290611758814114E-1
 8.116415828800000E9     5.060172785781779E-1    2.685685512441607E-2    4.675281149262880E-4    3.578241022872066E-3    5.126773936062385E-4    3.633786317324389E-3    4.305245949991215E-1   -1.295919491446716E-1
 8.116422775700000E9     5.061896163105662E-1    2.645480775405450E-2    4.728289981287955E-4    3.584861097283008E-3    5.340343367016634E-4    3.659299673539618E-3    4.302746710801781E-1   -1.299553407500095E-1
 8.116429722600000E9     5.061087786846229E-1    2.594277862626062E-2    4.688580901415590E-4    3.559033446517206E-3    5.428233792490629E-4    3.616465812041422E-3    4.303062083301091E-1   -1.303826855797343E-1
 8.116436669500000E9     5.061429296633427E-1    2.530529340342458E-2    4.880209750655236E-4    3.580022712120727E-3    5.310010542738074E-4    3.654708725066142E-3    4.303764356959360E-1   -1.308986556831427E-1
 8.116443616400000E9     5.060202996474094E-1    2.467356970130806E-2    4.998422006888985E-4    3.576015965465850E-3    5.535899902588117E-4    3.632958766947742E-3    4.299307329737011E-1   -1.313270056799658E-1
 8.116450563300000E9     5.061125612677769E-1    2.424901855014205E-2    4.890970564881161E-4    3.570340142569746E-3    5.817706930458409E-4    3.583050573879133E-3    4.299016042628617E-1   -1.318446678988375E-1
 8.116457510200000E9     5.061347332569555E-1    2.370367162868001E-2    4.931668158524063E-4    3.578280537907494E-3    5.473895252549962E-4    3.638325000672610E-3    4.297935365713133E-1   -1.323342071186251E-1
 8.116464457100000E9     5.061811544774898E-1    2.324169592472633E-2    5.119020983971565E-4    3.564179250819594E-3    5.686204061006576E-4    3.666573546946974E-3    4.297106446749021E-1   -1.326478118385752E-1
 8.116471404000000E9     5.061936930320160E-1    2.263797955822690E-2    5.147676772122437E-4    3.600136576639479E-3    5.620357270606584E-4    3.622733387233775E-3    4.296262460319919E-1   -1.332260122784659E-1
 8.116478350900000E9     5.062401788472920E-1    2.215566623152893E-2    5.012046567010057E-4    3.557672459594823E-3    5.791288693162264E-4    3.648832725095441E-3    4.294910361170564E-1   -1.337685311655217E-1
 8.116485297800000E9     5.062859005476046E-1    2.179006707487762E-2    5.361677937407402E-4    3.607593317006458E-3    5.601978623198363E-4    3.659505848113653E-3    4.293178022741297E-1   -1.342492107440818E-1
 8.116492244700000E9     5.062511621232223E-1    2.116398480879806E-2    5.385403563038042E-4    3.580502942116180E-3    5.915350926909402E-4    3.641859918783702E-3    4.291380525581122E-1   -1.345525270862116E-1
 8.116499191600000E9     5.061432044472340E-1    2.071185160830341E-2    5.152842294964526E-4    3.612531189268515E-3    5.762860489375534E-4    3.640443246859019E-3    4.289766223285434E-1   -1.351074776803261E-1
 8.116506138500000E9     5.063188375181319E-1    2.007532224075998E-2    5.583526333981704E-4    3.577253840020768E-3    6.122972704960833E-4    3.637252567657424E-3    4.289382658734814E-1   -1.356077020650590E-1
 8.116513085400000E9     5.063273761186510E-1    1.960724446142048E-2    5.282706071641169E-4    3.591516166385918E-3    6.148242247072848E-4    3.674730597991256E-3    4.287701196881764E-1   -1.359017470699898E-1
 8.116520032300000E9     5.063284800826511E-1    1.905263506673060E-2    5.265286131247637E-4    3.607987594558808E-3    6.106408513555395E-4    3.646459004387649E-3    4.287535832711046E-1   -1.364295479345634E-1
 8.116526979200000E9     5.062587484434897E-1    1.850318353385389E-2    5.642208697997970E-4    3.590999085291390E-3    5.892184101476503E-4    3.678494483226834E-3    4.285609303871884E-1   -1.370324389077994E-1
 8.116533926100000E9     5.062667199419226E-1    1.797052278860411E-2    5.703146004238405E-4    3.604384545710400E-3    5.839674391410498E-4    3.675727927463476E-3    4.284141762061374E-1   -1.375185045823527E-1
 8.116540873000000E9     5.063933186838131E-1    1.738768237184487E-2    5.415458552213017E-4    3.591269453390331E-3    6.078661206389587E-4    3.653179930065806E-3    4.282770169593100E-1   -1.378106098800627E-1
 8.116547819900000E9     5.062697727161877E-1    1.694742097591893E-2    5.692416089963910E-4    3.590818461976501E-3    6.331103688533297E-4    3.634260942815209E-3    4.282347803971200E-1   -1.383354330720648E-1
 8.116554766800000E9     5.063786288763268E-1    1.642991801033287E-2    5.692389820974177E-4    3.619347386380946E-3    6.137463908857245E-4    3.678187038386498E-3    4.280422875408340E-1   -1.388550893052288E-1
 8.116561713700000E9     5.063801355686128E-1    1.589324749228845E-2    5.825390628977409E-4    3.608049906466013E-3    6.297770491836915E-4    3.658420366146709E-3    4.279743686012880E-1   -1.392515493982768E-1
 8.116568660600000E9     5.062950792917930E-1    1.533464600530778E-2    5.655467059144021E-4    3.623388233067476E-3    6.281078055537097E-4    3.670514882059236E-3    4.277810648343891E-1   -1.397107359741446E-1
 8.116575607500000E9     5.063158462397985E-1    1.485548656249849E-2    5.820344221297806E-4    3.605648909073648E-3    6.437372420617275E-4    3.666965670023620E-3    4.276804421793366E-1   -1.402428343635378E-1
 8.116582554400000E9     5.063539805357385E-1    1.432609789845613E-2    5.633239684397852E-4    3.646582514589865E-3    6.492063682499834E-4    3.691402888257256E-3    4.275553897352856E-1   -1.406339610429019E-1
 8.116589501300000E9     5.063808044961909E-1    1.376503121701862E-2    5.995023686500277E-4    3.625372947029669E-3    6.528252190452016E-4    3.703734193505651E-3    4.273841171086888E-1   -1.412157723990667E-1
 8.116596448200000E9     5.063435386521735E-1    1.321838714303354E-2    5.804053714153767E-4    3.643229705737204E-3    6.706546109632908E-4    3.664896450668887E-3    4.272099953954203E-1   -1.416526733491374E-1
 8.116603395100000E9     5.063126706904051E-1    1.275841285519211E-2    6.186356788058351E-4    3.643594602236464E-3    6.639298536936978E-4    3.678942926510110E-3    4.271119408782322E-1   -1.421046190871769E-1
 8.116610342000000E9     5.064386194961664E-1    1.214904134668026E-2    6.094550603349330E-4    3.654916690510120E-3    6.576269394508076E-4    3.673006613340022E-3    4.270819751734486E-1   -1.425537277812213E-1
 8.116617288900000E9     5.063643997964513E-1    1.155487606267086E-2    6.080250054883778E-4    3.638207796713742E-3    7.024545474139939E-4    3.714939029657537E-3    4.268107922009831E-1   -1.429613842151721E-1
 8.116624235800000E9     5.062801810849017E-1    1.105487705200743E-2    6.281981186679724E-4    3.617791880332957E-3    6.772407082649717E-4    3.691270664043159E-3    4.267093288419327E-1   -1.433160158947277E-1
 8.116631182700000E9     5.063069607485032E-1    1.053535958662641E-2    6.117566465733557E-4    3.648876327169232E-3    6.722482920507867E-4    3.680248961480775E-3    4.264464872481577E-1   -1.439568548557225E-1
 8.116638129600000E9     5.063754073645228E-1    1.015186257517942E-2    6.309503315879552E-4    3.640326863960017E-3    6.875852528432073E-4    3.679471224329747E-3    4.263533667732842E-1   -1.445109493560617E-1
 8.116645076500000E9     5.064350664360259E-1    9.665300487301434E-3    6.238591809344910E-4    3.659547881909812E-3    6.426618133904408E-4    3.712100642177454E-3    4.262719056418710E-1   -1.447986526247446E-1
 8.116652023400000E9     5.062900450944933E-1    8.948849631384133E-3    6.026486643945305E-4    3.678591110398815E-3    7.133870972245610E-4    3.700963824521716E-3    4.260878243175333E-1   -1.453029649340314E-1
 8.116658970300000E9     5.062783339611248E-1    8.366721218005328E-3    6.609930383118084E-4    3.663214698580906E-3    6.996860649490273E-4    3.711915263704565E-3    4.259057712852279E-1   -1.458460475007563E-1
 8.116665917200000E9     5.063375121422899E-1    7.919667798030560E-3    6.404578094693820E-4    3.666584491194006E-3    7.101265412598428E-4    3.680125831855315E-3    4.258692374203195E-1   -1.463652182102522E-1
 8.116672864100000E9     5.063357235888092E-1    7.395268815079604E-3    6.508303470212820E-4    3.651540986289427E-3    7.052397678900301E-4    3.694602375004420E-3    4.257780211417255E-1   -1.467052711975884E-1
 8.116679811000000E9     5.064027857326915E-1    6.855291439265958E-3    6.545258276825645E-4    3.652693333161980E-3    7.309722348791743E-4    3.732019560341817E-3    4.255666833736779E-1   -1.472609247988519E-1
