#  HZ   S   RI   R     50.00 
! Rohde & Schwarz Vector Network Analyzer 
! Rohde-Schwarz,ZNB20-2Port,1311601062101988,3.16
! Created: UTC 3/20/2024, 11:50:36 AM
! freq[Hz]                re:S11                  im:S11                  re:S21                  im:S21                  re:S12                  im:S12                  re:S22                  im:S22
 8.115975416000000E9     5.037681915449405E-1    5.988432111063753E-2    2.199073539601679E-4    3.488182029721131E-3    2.724820101581975E-4    3.516543277717697E-3    4.371726705124216E-1   -9.954553031365145E-2
 8.115982683325000E9     5.038075041377786E-1    5.941289219051206E-2    2.356043773943404E-4    3.505350269136095E-3    2.475514444742276E-4    3.554843672437000E-3    4.371342698837746E-1   -1.000859403005539E-1
 8.115989950650000E9     5.038366151536191E-1    5.890251698445873E-2    2.281678003001842E-4    3.485749995659551E-3    2.651824931224563E-4    3.522519604569812E-3    4.370263987411862E-1   -1.005567127529516E-1
 8.115997217975000E9     5.040206339330974E-1    5.833450140462941E-2    2.244854228134547E-4    3.470435898040324E-3    2.985407246636698E-4    3.539447367808697E-3    4.371290989210802E-1   -1.011372959409625E-1
 8.116004485300000E9     5.039916803858279E-1    5.776530593801116E-2    2.417103944874297E-4    3.509553633497172E-3    2.912832631750219E-4    3.513910158325708E-3    4.369343539188474E-1   -1.016310650346910E-1
 8.116011752625000E9     5.040927777690599E-1    5.718010554281549E-2    2.259360274995951E-4    3.472068089235770E-3    2.973290340389277E-4    3.567094080405466E-3    4.366670016500501E-1   -1.020861230586771E-1
 8.116019019950000E9     5.041996308326040E-1    5.663376550340479E-2    2.406764234423523E-4    3.500586652145945E-3    3.085797826594229E-4    3.561680558189514E-3    4.367186644605784E-1   -1.025293025594398E-1
 8.116026287275000E9     5.041050627944414E-1    5.612285439555843E-2    2.315948734317655E-4    3.495770409484741E-3    3.157985786145322E-4    3.550383755335295E-3    4.365688421174547E-1   -1.030487661446251E-1
 8.116033554600000E9     5.041909724498224E-1    5.557700542081299E-2    2.488018292530067E-4    3.494147724524809E-3    3.241133246112574E-4    3.546314774832795E-3    4.364843796877123E-1   -1.036690771227263E-1
 8.116040821925000E9     5.043078919619982E-1    5.507897882654200E-2    2.526439835866484E-4    3.490410227112015E-3    2.956533320698142E-4    3.570920913436411E-3    4.364887369591276E-1   -1.040256839251778E-1
 8.116048089250000E9     5.043676041181251E-1    5.460678160489272E-2    2.498170659315363E-4    3.492692998905691E-3    3.287878419166535E-4    3.556039325873690E-3    4.361384123722012E-1   -1.046447642102539E-1
 8.116055356575000E9     5.043498141856945E-1    5.385833633255795E-2    2.634607558290847E-4    3.502760167532138E-3    3.113942266262047E-4    3.521255816004081E-3    4.362584197430647E-1   -1.049707839391113E-1
 8.116062623900000E9     5.044316472218258E-1    5.342297484556867E-2    2.530805485614586E-4    3.506349571283599E-3    3.085508161078654E-4    3.532964136163880E-3    4.360597873944266E-1   -1.056191293317146E-1
 8.116069891225000E9     5.044567525744874E-1    5.281198187604864E-2    2.415560218799624E-4    3.517637265037557E-3    3.209115448812884E-4    3.552493835091748E-3    4.361033223340620E-1   -1.060579576558503E-1
 8.116077158550000E9     5.044812280342140E-1    5.233962195551448E-2    2.688673984232602E-4    3.484424857979495E-3    3.135947212449601E-4    3.573881850451985E-3    4.358850879593810E-1   -1.066422319531078E-1
 8.116084425875000E9     5.045566297886801E-1    5.178111802991071E-2    2.851567085463528E-4    3.495066958751330E-3    3.072550308654931E-4    3.544344976077462E-3    4.357492826663666E-1   -1.070455783854867E-1
 8.116091693200000E9     5.044750330566423E-1    5.128712903633598E-2    2.940521921814547E-4    3.525581584454635E-3    3.677595083730019E-4    3.574803436176963E-3    4.356811354625863E-1   -1.075211156975474E-1
 8.116098960525000E9     5.047188684435927E-1    5.073333690860313E-2    2.705782369258160E-4    3.525041775446320E-3    3.604542060845848E-4    3.565751696507068E-3    4.355539503523161E-1   -1.080937140673487E-1
 8.116106227850000E9     5.046132451849697E-1    5.008423821106582E-2    3.126221337144906E-4    3.493652007392218E-3    3.319351759988124E-4    3.571432235847465E-3    4.354460581305339E-1   -1.086517193369311E-1
 8.116113495175000E9     5.046926871156807E-1    4.955131491359087E-2    2.877513963012991E-4    3.502179422213918E-3    3.468374954643904E-4    3.566199874295635E-3    4.353574040853798E-1   -1.090346334331856E-1
 8.116120762500000E9     5.047823168676682E-1    4.899429034115937E-2    2.842596172903135E-4    3.500720441427661E-3    3.413620570464519E-4    3.558781168600754E-3    4.352789595088967E-1   -1.095359688647569E-1
 8.116128029825000E9     5.048745848892443E-1    4.855218926772915E-2    3.118937508373004E-4    3.469125330271430E-3    3.722983539495269E-4    3.565001880460796E-3    4.352110916308068E-1   -1.100905887649333E-1
 8.116135297150000E9     5.048574250083893E-1    4.789185153629516E-2    3.126429278361535E-4    3.516317144852950E-3    3.769628474300864E-4    3.559280826734957E-3    4.350540268646806E-1   -1.104261292172485E-1
 8.116142564475000E9     5.048971201633815E-1    4.735554197701000E-2    3.023154315692136E-4    3.512386877321995E-3    3.706056767075078E-4    3.581270928756491E-3    4.350094992114074E-1   -1.109929564921743E-1
 8.116149831800000E9     5.050503319648025E-1    4.683225221728649E-2    3.314565439178693E-4    3.497064104316030E-3    3.800271742529053E-4    3.563500618567641E-3    4.348800293982909E-1   -1.114877089754652E-1
 8.116157099125000E9     5.050991154504409E-1    4.633131302808300E-2    3.121504828728019E-4    3.504196132218612E-3    3.522795383697879E-4    3.544329296346878E-3    4.347389888654131E-1   -1.120097525617833E-1
 8.116164366450000E9     5.051070269569049E-1    4.580502904029288E-2    3.289242706707250E-4    3.512059530199678E-3    3.470572544682559E-4    3.560028749987617E-3    4.347137290870489E-1   -1.124843351869723E-1
 8.116171633775000E9     5.050256538606632E-1    4.516469084946026E-2    3.036359825046028E-4    3.515014896123579E-3    3.754447691002596E-4    3.586088881532644E-3    4.345562662464845E-1   -1.129783164594511E-1
 8.116178901100000E9     5.050956830815532E-1    4.456774288498510E-2    3.253756657770178E-4    3.498419400701995E-3    4.036219418175504E-4    3.538784592895057E-3    4.343819961774477E-1   -1.135000304785059E-1
 8.116186168425000E9     5.051984511639398E-1    4.414635901628720E-2    3.375257635197681E-4    3.512102433027112E-3    4.149914884365062E-4    3.587568744862280E-3    4.343400255264397E-1   -1.138564223794780E-1
 8.116193435750000E9     5.051302977140135E-1    4.362626460428884E-2    3.013009296742241E-4    3.503849499990682E-3    4.168676070202215E-4    3.594007950454392E-3    4.341643599422805E-1   -1.145073227260749E-1
 8.116200703075000E9     5.052107156453631E-1    4.301499474839787E-2    3.497230153461608E-4    3.538988805782526E-3    3.849700467702830E-4    3.563459907071196E-3    4.340787653148634E-1   -1.149337872065993E-1
 8.116207970400000E9     5.052879742813627E-1    4.244969048612086E-2    3.612034499773170E-4    3.533054968446044E-3    3.759110796111990E-4    3.586682607627096E-3    4.338898099431331E-1   -1.154097066108303E-1
 8.116215237725000E9     5.052749200700675E-1    4.203063830861516E-2    3.628401739633726E-4    3.516246958378392E-3    4.090821286719578E-4    3.584655353827783E-3    4.339362048918639E-1   -1.159368610446055E-1
 8.116222505050000E9     5.052750255319276E-1    4.143354339879241E-2    3.743791319309982E-4    3.535128107183194E-3    4.154657652920230E-4    3.607481144157155E-3    4.338027552538808E-1   -1.163555785282412E-1
 8.116229772375000E9     5.053391556647767E-1    4.091866064445195E-2    3.599491755013509E-4    3.546853280906514E-3    4.254090260087532E-4    3.581782858414568E-3    4.336254258175522E-1   -1.168814112103854E-1
 8.116237039700000E9     5.053688338749706E-1    4.031513303168506E-2    3.633874523999262E-4    3.526802775355123E-3    4.043947208075040E-4    3.554744574302084E-3    4.336428267228355E-1   -1.172280408719514E-1
 8.116244307025000E9     5.054249152851149E-1    3.988684441807180E-2    3.538294930212596E-4    3.553069236376391E-3    4.505656412017696E-4    3.602032204977184E-3    4.334579886847463E-1   -1.179232583588257E-1
 8.116251574350000E9     5.054437526762815E-1    3.916186196401267E-2    3.799894548031532E-4    3.526260640874350E-3    4.519977009341412E-4    3.592393348384606E-3    4.334145910834875E-1   -1.184096083513285E-1
 8.116258841675000E9     5.055396073678884E-1    3.879925565169006E-2    3.857618591151080E-4    3.520740028627950E-3    4.307609808416090E-4    3.599033808835787E-3    4.331799977526151E-1   -1.187797542210099E-1
 8.116266109000000E9     5.055656192462367E-1    3.826958962470302E-2    3.629013977285535E-4    3.511715398955710E-3    4.693914034058116E-4    3.610074191757697E-3    4.330097748371559E-1   -1.194717401382933E-1
 8.116273376325000E9     5.055237548573993E-1    3.755521020137233E-2    3.945826126017361E-4    3.528890018962682E-3    4.872749396283818E-4    3.605003645456095E-3    4.330501143417755E-1   -1.196056968845544E-1
 8.116280643650000E9     5.055683666520202E-1    3.709783856267022E-2    4.076510028197337E-4    3.546346001450382E-3    4.545572488770989E-4    3.590748459173991E-3    4.329257124463360E-1   -1.202795086699447E-1
 8.116287910975000E9     5.056965838210421E-1    3.649901866410256E-2    4.005847259426726E-4    3.530440390624793E-3    4.056831801087787E-4    3.558608921454746E-3    4.328258639094707E-1   -1.207524061472813E-1
 8.116295178300000E9     5.057079338675120E-1    3.596696265235620E-2    3.849584469449165E-4    3.514160724769279E-3    4.071036590854656E-4    3.585512254055054E-3    4.326339367485226E-1   -1.212218141123757E-1
 8.116302445625000E9     5.056688998316902E-1    3.546530734779269E-2    4.076490594389997E-4    3.557470047097219E-3    4.637649791128309E-4    3.630497994870300E-3    4.324581795727341E-1   -1.217266117180168E-1
 8.116309712950000E9     5.056842069604474E-1    3.485942868713592E-2    3.963623249569379E-4    3.543941597801634E-3    4.628809106077535E-4    3.623543812703725E-3    4.323558897546469E-1   -1.222390614103875E-1
 8.116316980275000E9     5.058143847174491E-1    3.433341347111277E-2    4.095362738101111E-4    3.568508960038583E-3    4.809658910691385E-4    3.594911562021604E-3    4.323124368390989E-1   -1.227568464683878E-1
 8.116324247600000E9     5.057480922491256E-1    3.385173158497854E-2    3.888405826575750E-4    3.556440275918809E-3    4.807675371436078E-4    3.582098764492082E-3    4.321280679343527E-1   -1.232014187326467E-1
 8.116331514925000E9     5.057697445541662E-1    3.324928752559147E-2    4.192148430269316E-4    3.549080723711981E-3    4.638817330888500E-4    3.598683035209575E-3    4.320106925084780E-1   -1.236912529267309E-1
 8.116338782250000E9     5.057742050440193E-1    3.276566900414176E-2    4.150262428477270E-4    3.561213637237066E-3    4.967280672302717E-4    3.603738765196108E-3    4.319002347592659E-1   -1.241458523753489E-1
 8.116346049575000E9     5.058246188414534E-1    3.214553410605539E-2    4.235827389684390E-4    3.560611578926662E-3    4.894676317838581E-4    3.608224779800751E-3    4.317290358238788E-1   -1.246571077385102E-1
 8.116353316900000E9     5.057593583910287E-1    3.154473731854112E-2    4.339901521752243E-4    3.553859555045422E-3    4.927312834337339E-4    3.607588049306814E-3    4.316135401162517E-1   -1.252068448062613E-1
 8.116360584225000E9     5.058831879120013E-1    3.100307413526600E-2    4.258888032025260E-4    3.568341689181065E-3    5.112387014186648E-4    3.607494467694901E-3    4.316827300162118E-1   -1.256397964363519E-1
 8.116367851550000E9     5.059140990993607E-1    3.052919498647566E-2    4.425918188111222E-4    3.544593195598443E-3    4.838157955347295E-4    3.601055538180058E-3    4.315059518911744E-1   -1.262703752768387E-1
 8.116375118875000E9     5.059350471771660E-1    2.992785956837238E-2    4.369388041910566E-4    3.581561522501186E-3    5.063662950291908E-4    3.590123246380616E-3    4.312819086817978E-1   -1.267306344856942E-1
 8.116382386200000E9     5.059796914306943E-1    2.956408304859871E-2    4.493973179159400E-4    3.566881447525558E-3    4.969678396928560E-4    3.624578151000036E-3    4.312221564198652E-1   -1.271138970011452E-1
 8.116389653525000E9     5.059774256336248E-1    2.891987779772842E-2    4.562406102312977E-4    3.569257896785957E-3    5.379505966121300E-4    3.579101437172640E-3    4.311077914798563E-1   -1.277478453033108E-1
 8.116396920850000E9     5.059828192730067E-1    2.840405314618984E-2    4.425837363866621E-4    3.561154266418121E-3    5.464848360686787E-4    3.578645535966534E-3    4.309913237849941E-1   -1.280427626118829E-1
 8.116404188175000E9     5.060855256547350E-1    2.781562004271389E-2    4.803003079138750E-4    3.563310583960194E-3    5.227173147833077E-4    3.621936426348080E-3    4.308431755253442E-1   -1.287086494291538E-1
 8.116411455500000E9     5.061561573305273E-1    2.724827957741474E-2    4.801558938289460E-4    3.579485675494075E-3    5.169246395113690E-4    3.580276281562465E-3    4.307846406609415E-1   -1.291988591721293E-1
 8.116418722825000E9     5.060896378372257E-1    2.667759066349271E-2    4.822155589556017E-4    3.567652998690172E-3    5.429129418819892E-4    3.630203279982431E-3    4.304241500935075E-1   -1.297027799573235E-1
 8.116425990150000E9     5.060500548938066E-1    2.602623028583115E-2    5.004961290988870E-4    3.562408294501861E-3    5.316210447633781E-4    3.647881266974530E-3    4.304593914263975E-1   -1.300030191429221E-1
 8.116433257475000E9     5.060345000184917E-1    2.562857701683212E-2    4.798887127369098E-4    3.583382889227823E-3    5.475003840634411E-4    3.621845727883719E-3    4.303169388065638E-1   -1.306677744741916E-1
 8.116440524800000E9     5.059650399302406E-1    2.509338409695035E-2    4.766680560500019E-4    3.592429639757032E-3    5.678557640519582E-4    3.653596848438567E-3    4.301277261326950E-1   -1.311370249988157E-1
 8.116447792125000E9     5.060090849217241E-1    2.454602644258662E-2    4.871377295150477E-4    3.581464073848114E-3    5.647922289191383E-4    3.638026153605833E-3    4.298761050236990E-1   -1.316672224436208E-1
 8.116455059450000E9     5.062036276262929E-1    2.395021225668543E-2    4.788010360170350E-4    3.580840329523164E-3    5.842701200169568E-4    3.643914432462281E-3    4.299099701002090E-1   -1.321629149133272E-1
 8.116462326775000E9     5.060642301676331E-1    2.349440084971616E-2    5.142512607981017E-4    3.588654591625441E-3    5.765641236362112E-4    3.617778440221090E-3    4.298461358264662E-1   -1.326108631153483E-1
 8.116469594100000E9     5.061961697288770E-1    2.279341165973128E-2    5.105214286109229E-4    3.588525866598780E-3    5.768616618471052E-4    3.656444212026936E-3    4.295468934135437E-1   -1.330729125932728E-1
 8.116476861425000E9     5.062035732877976E-1    2.227585782872357E-2    5.071578980206254E-4    3.567178129469513E-3    5.713498722007638E-4    3.635860405119714E-3    4.295549755770407E-1   -1.336348426306790E-1
 8.116484128750000E9     5.062923799779622E-1    2.179669759350809E-2    5.084282826641858E-4    3.580683512771943E-3    5.431643339013699E-4    3.650684939343333E-3    4.293351186050234E-1   -1.339360272865527E-1
 8.116491396075000E9     5.062315570913121E-1    2.117098903607023E-2    5.332940900744297E-4    3.576707032595011E-3    5.900266901420239E-4    3.653402677465843E-3    4.293363156309759E-1   -1.344940024157663E-1
 8.116498663400000E9     5.063493113384835E-1    2.068661332128381E-2    5.728110676592341E-4    3.608974406490956E-3    5.864325839426748E-4    3.627165185563885E-3    4.291256590516421E-1   -1.350201080826565E-1
 8.116505930725000E9     5.062038420796365E-1    2.007984522908485E-2    5.262946335414323E-4    3.610835658154300E-3    6.023922854468801E-4    3.634279435712964E-3    4.289311361717720E-1   -1.353987884263610E-1
 8.116513198050000E9     5.062233148948367E-1    1.950753441685287E-2    5.288474681894283E-4    3.575240118624497E-3    5.774249843509842E-4    3.681252023900123E-3    4.288663632941622E-1   -1.359371477326730E-1
 8.116520465375000E9     5.062236480157449E-1    1.905986189096429E-2    5.551941018440900E-4    3.605647819021212E-3    5.964533198093593E-4    3.659441801508361E-3    4.287347482881262E-1   -1.365341512294537E-1
 8.116527732700000E9     5.063764238938535E-1    1.850720466897312E-2    5.469110007323921E-4    3.590815017549424E-3    6.090213203083387E-4    3.611069702779508E-3    4.285918313785056E-1   -1.368942748396351E-1
 8.116535000025000E9     5.062954146718395E-1    1.796434143754384E-2    5.507606086337327E-4    3.599133135697034E-3    6.034980577833936E-4    3.648958506049089E-3    4.283292441951225E-1   -1.375217389971810E-1
 8.116542267350000E9     5.062982548771239E-1    1.736797676869082E-2    5.631872884993331E-4    3.621439205181097E-3    6.575069175509482E-4    3.652790698166489E-3    4.283774944712769E-1   -1.379551867754325E-1
 8.116549534675000E9     5.062966725155114E-1    1.677863814182469E-2    5.467009079116224E-4    3.603293825664545E-3    6.033786194663970E-4    3.657821917914427E-3    4.281511372093732E-1   -1.385331474223852E-1
 8.116556802000000E9     5.063148145799560E-1    1.629583644275551E-2    5.380429659216700E-4    3.588624887427551E-3    6.405171714624133E-4    3.658386493642219E-3    4.279874799586577E-1   -1.390241614085920E-1
 8.116564069325000E9     5.062530238447683E-1    1.575272356895360E-2    5.680033403528242E-4    3.627710984912806E-3    6.398899430740254E-4    3.700622878758759E-3    4.277865161055300E-1   -1.393190142844838E-1
 8.116571336650000E9     5.063849200237879E-1    1.515791050309516E-2    5.859231093596239E-4    3.633127836440958E-3    6.388605252296978E-4    3.689800076748882E-3    4.277368842595076E-1   -1.399597970595324E-1
 8.116578603975000E9     5.061714926836777E-1    1.454219371645427E-2    5.812522098062519E-4    3.613049712604470E-3    6.214985189957860E-4    3.643158802250850E-3    4.275711969599059E-1   -1.403622060748388E-1
 8.116585871300000E9     5.062979798119939E-1    1.408687415395574E-2    5.884268059354687E-4    3.644574978872847E-3    6.385955819540518E-4    3.675872598378535E-3    4.275435469957093E-1   -1.408232109968931E-1
 8.116593138625000E9     5.064299656576693E-1    1.341071817738169E-2    5.944166117169750E-4    3.602264743454624E-3    6.512858198100989E-4    3.699409090590520E-3    4.274362503058486E-1   -1.413684769203716E-1
 8.116600405950000E9     5.063248738751684E-1    1.290762272945519E-2    5.974259589821524E-4    3.630460685341834E-3    6.708622903522904E-4    3.707274716784803E-3    4.271600827842885E-1   -1.418457381430987E-1
 8.116607673275000E9     5.063826346252356E-1    1.234437757761784E-2    6.052942634293369E-4    3.658356151964341E-3    6.616712157905547E-4    3.678963768860323E-3    4.272125249930815E-1   -1.423011969677589E-1
 8.116614940600000E9     5.062474684206959E-1    1.183385648928613E-2    5.945439126619783E-4    3.651383492204841E-3    6.755977652480859E-4    3.688836490988669E-3    4.267944914910474E-1   -1.427935912582851E-1
 8.116622207925000E9     5.062790365497266E-1    1.129722354501767E-2    6.110697923137063E-4    3.647268585649859E-3    6.842077588742119E-4    3.708343405414822E-3    4.269777189888016E-1   -1.432945551086016E-1
 8.116629475250000E9     5.063361477397228E-1    1.061387100045426E-2    6.173395970247491E-4    3.646003096830688E-3    7.094919739230780E-4    3.718744381728725E-3    4.266320936976346E-1   -1.437692043525957E-1
