#  HZ   S   RI   R     50.00 
! Rohde & Schwarz Vector Network Analyzer 
! Rohde-Schwarz,ZNB20-2Port,1311601062101988,3.16
! Created: UTC 3/20/2024, 11:37:30 AM
! freq[Hz]                re:S11                  im:S11                  re:S21                  im:S21                  re:S12                  im:S12                  re:S22                  im:S22
 8.117554958000000E9     5.009854725927617E-1   -6.318733942805894E-2    1.625985045039411E-3    4.702178344848442E-3    1.671026457399769E-3    4.816031704283285E-3    4.028400610464438E-1   -2.055497463759086E-1
 8.117556170250000E9     5.008507411021801E-1   -6.343006156612392E-2    1.631529570803157E-3    4.758484480019576E-3    1.689963805650701E-3    4.812710722713064E-3    4.028034812839548E-1   -2.055728134085459E-1
 8.117557382500000E9     5.008634236496745E-1   -6.338969490300035E-2    1.626710927168355E-3    4.747251477376335E-3    1.703361190271316E-3    4.840429133265466E-3    4.027705788212859E-1   -2.056159434894855E-1
 8.117558594750000E9     5.008757005685368E-1   -6.362662068906158E-2    1.620808524369189E-3    4.773199218039573E-3    1.700700830974683E-3    4.830232230788039E-3    4.026759939454611E-1   -2.058741089211944E-1
 8.117559807000000E9     5.008022631116396E-1   -6.376916131776453E-2    1.616827473473096E-3    4.752523716797385E-3    1.705606155942249E-3    4.842885537943583E-3    4.027283060798932E-1   -2.058487590661285E-1
 8.117561019250000E9     5.007605199400235E-1   -6.396342619120148E-2    1.645891130744332E-3    4.734243201960022E-3    1.729973236784405E-3    4.821035322192762E-3    4.026503541792300E-1   -2.058488784104334E-1
 8.117562231500000E9     5.007706028645598E-1   -6.410185543893610E-2    1.635820954216540E-3    4.778021949345165E-3    1.745960763718495E-3    4.835144627156287E-3    4.026117574436904E-1   -2.061172850068642E-1
 8.117563443750000E9     5.007143848621685E-1   -6.411536649751497E-2    1.661241781532280E-3    4.803245392037191E-3    1.755267560301849E-3    4.863652840241829E-3    4.026637568325058E-1   -2.061212383865175E-1
 8.117564656000000E9     5.005658933974925E-1   -6.430385774426266E-2    1.630805263543989E-3    4.808855671522051E-3    1.690421104552618E-3    4.891156206497209E-3    4.025771908415116E-1   -2.062685445326498E-1
 8.117565868250000E9     5.005927461595409E-1   -6.442842379782210E-2    1.654667240527744E-3    4.796068870859170E-3    1.732980430963261E-3    4.837934167124570E-3    4.024192040234421E-1   -2.062439603976790E-1
 8.117567080500000E9     5.006706205775389E-1   -6.463790929814676E-2    1.669375543261584E-3    4.815583852897555E-3    1.729762533447596E-3    4.857192800678392E-3    4.026064956915826E-1   -2.064274351961136E-1
 8.117568292750000E9     5.005823612434074E-1   -6.467089334082790E-2    1.665162557674888E-3    4.853499437243032E-3    1.751434008304321E-3    4.871511785029662E-3    4.025421952833110E-1   -2.063624995238158E-1
 8.117569505000000E9     5.005904363613936E-1   -6.490288952295348E-2    1.692005056168673E-3    4.803515466924505E-3    1.729318501074458E-3    4.874800860779144E-3    4.023199631434973E-1   -2.065820649087298E-1
 8.117570717250000E9     5.006757111815916E-1   -6.503148457432019E-2    1.669975138403525E-3    4.847076070707762E-3    1.768487451985547E-3    4.924584577907668E-3    4.024923025430469E-1   -2.066088638201701E-1
 8.117571929500000E9     5.005027957354288E-1   -6.509355388837236E-2    1.683990015739207E-3    4.836153838669020E-3    1.787467094479263E-3    4.937055977194092E-3    4.022810919825476E-1   -2.065114689371281E-1
 8.117573141750000E9     5.004265511871926E-1   -6.533208876393952E-2    1.711658119679559E-3    4.855406389462996E-3    1.775912204893887E-3    4.952809910115238E-3    4.024649106823970E-1   -2.068661956869725E-1
 8.117574354000000E9     5.005098756959179E-1   -6.540864842181979E-2    1.674884976895340E-3    4.851716316067225E-3    1.795010801243260E-3    4.960817127565580E-3    4.022342712370489E-1   -2.068157291026336E-1
 8.117575566250000E9     5.004968578636315E-1   -6.548105205279595E-2    1.718749975565786E-3    4.854767702088553E-3    1.743535447710693E-3    4.947975879956742E-3    4.022106492030416E-1   -2.069359384948265E-1
 8.117576778500000E9     5.004740077388853E-1   -6.569282666714611E-2    1.750421800944677E-3    4.881219488747952E-3    1.786100242553572E-3    4.969153112172727E-3    4.020928728965971E-1   -2.070508120066633E-1
 8.117577990750000E9     5.003274454933638E-1   -6.590339540740553E-2    1.724432033788966E-3    4.877342855825812E-3    1.766935273929355E-3    4.970996579408661E-3    4.020852743663261E-1   -2.070383981118755E-1
 8.117579203000000E9     5.003865353824234E-1   -6.605791177229192E-2    1.727767729037812E-3    4.901122230892650E-3    1.828312667992083E-3    4.962428249488088E-3    4.020751746823824E-1   -2.071213083712993E-1
 8.117580415250000E9     5.004108045289952E-1   -6.605858716800900E-2    1.713423472440241E-3    4.928344555996566E-3    1.810311066906589E-3    4.985891716608235E-3    4.019730981402379E-1   -2.072494221474120E-1
 8.117581627500000E9     5.003018042253197E-1   -6.620732677112885E-2    1.745516263092395E-3    4.908704252008377E-3    1.822168837589558E-3    4.996593030657909E-3    4.020234663992093E-1   -2.073079698151389E-1
 8.117582839750000E9     5.002375481028009E-1   -6.642902306580240E-2    1.715509217828264E-3    4.943669140487740E-3    1.814408487561493E-3    5.052894876514227E-3    4.019618149307776E-1   -2.074011660956549E-1
 8.117584052000000E9     5.002289911729664E-1   -6.645600153642713E-2    1.722743525161788E-3    4.929235554242357E-3    1.839098702142433E-3    5.033050947481528E-3    4.018399965112425E-1   -2.074392104588248E-1
 8.117585264250000E9     5.003065779189060E-1   -6.662066084892193E-2    1.754092344160396E-3    4.965426219551148E-3    1.800732127363397E-3    5.025970925459721E-3    4.019802235263770E-1   -2.074290968715261E-1
 8.117586476500000E9     5.002279583208734E-1   -6.674002302895971E-2    1.751188540152629E-3    4.977687377831154E-3    1.847805523560716E-3    5.046745192281457E-3    4.017957806797890E-1   -2.076087925483180E-1
 8.117587688750000E9     5.002001820358926E-1   -6.694896956826016E-2    1.740992409278645E-3    4.961474390625964E-3    1.819043008159055E-3    5.049032231496261E-3    4.019892305371206E-1   -2.075973683868968E-1
 8.117588901000000E9     5.001021177791987E-1   -6.706651708672054E-2    1.749455482657144E-3    4.964854889685878E-3    1.852056738952348E-3    5.028135006354903E-3    4.017910848410000E-1   -2.078093842639249E-1
 8.117590113250000E9     4.999493648758454E-1   -6.722834332754578E-2    1.750124940272672E-3    4.977568820152578E-3    1.852588864124219E-3    5.036089265705151E-3    4.017743024070083E-1   -2.077915562206684E-1
 8.117591325500000E9     5.001244080691668E-1   -6.730219438740147E-2    1.780137602263938E-3    4.983877929407283E-3    1.904876033868964E-3    5.091125253313437E-3    4.017113981941464E-1   -2.079943733808325E-1
 8.117592537750000E9     5.001471051409137E-1   -6.753368443132540E-2    1.793133598824877E-3    5.011520279715112E-3    1.835443772731046E-3    5.082808355505666E-3    4.018596139411860E-1   -2.079256781507369E-1
 8.117593750000000E9     4.998634490893463E-1   -6.764008301806609E-2    1.820171939464374E-3    5.015021331832886E-3    1.887914664331746E-3    5.086859457323151E-3    4.016415763515441E-1   -2.081728397539403E-1
 8.117594962250000E9     4.998721245055238E-1   -6.777142701121878E-2    1.826259240396141E-3    5.023839440596187E-3    1.910314164551753E-3    5.126077242326011E-3    4.017394106310636E-1   -2.081280266431662E-1
 8.117596174500000E9     5.000102777522026E-1   -6.775572920489718E-2    1.801311155063983E-3    5.028359731989813E-3    1.896063848702808E-3    5.080828323187059E-3    4.016232367090922E-1   -2.083167396711109E-1
 8.117597386750000E9     4.999247247686654E-1   -6.801909463298721E-2    1.839517696654904E-3    5.029261435116863E-3    1.913717274712362E-3    5.100318530008001E-3    4.015747132239610E-1   -2.082678972681873E-1
 8.117598599000000E9     4.999083560302432E-1   -6.811752401197946E-2    1.846077794519195E-3    5.071160234869384E-3    1.885298514920657E-3    5.152873148734927E-3    4.015033379620897E-1   -2.084629963984268E-1
 8.117599811250000E9     4.998728102731274E-1   -6.834718810206258E-2    1.846012266522708E-3    5.071904824946013E-3    1.933724270969647E-3    5.140097980778950E-3    4.014441708519440E-1   -2.084673703806104E-1
 8.117601023500000E9     4.997213303777406E-1   -6.856074425552716E-2    1.841386015239885E-3    5.086805513226682E-3    1.927610876832959E-3    5.151805267053878E-3    4.013700448772597E-1   -2.085806471011992E-1
 8.117602235750000E9     4.996530318270733E-1   -6.865271718071422E-2    1.840318992898570E-3    5.095433334672457E-3    1.946879447149963E-3    5.172932374968808E-3    4.014243569381998E-1   -2.086038865810863E-1
 8.117603448000000E9     4.997822384340567E-1   -6.879785369140637E-2    1.869935758728520E-3    5.086444043479825E-3    1.931628068878774E-3    5.181422699255484E-3    4.014294392557736E-1   -2.086900338325856E-1
 8.117604660250000E9     4.996886233654514E-1   -6.895429589166990E-2    1.850992374141021E-3    5.110823133345516E-3    1.977969480788335E-3    5.223162382070176E-3    4.014799224472517E-1   -2.088204992812932E-1
 8.117605872500000E9     4.996057395712190E-1   -6.915252584266814E-2    1.873784937159948E-3    5.117149046691288E-3    1.953079849035937E-3    5.208321787047511E-3    4.012959240533276E-1   -2.088200602976011E-1
 8.117607084750000E9     4.996402515552957E-1   -6.940626553505200E-2    1.868688282167902E-3    5.138261100227641E-3    1.998854607752029E-3    5.204985712508482E-3    4.012699419200094E-1   -2.089509516652120E-1
 8.117608297000000E9     4.995669517174784E-1   -6.932139829976104E-2    1.903764237659161E-3    5.164915599849324E-3    1.947431999270009E-3    5.206777086682652E-3    4.012212104882288E-1   -2.089246202798488E-1
 8.117609509250000E9     4.993579567332476E-1   -6.955577678133634E-2    1.900919574912516E-3    5.160421293792484E-3    1.950135716077288E-3    5.244131098237126E-3    4.011743627410800E-1   -2.091872254533794E-1
 8.117610721500000E9     4.994716326065428E-1   -6.972520163853071E-2    1.903841841569828E-3    5.206972693276049E-3    1.999591212772462E-3    5.238110419544717E-3    4.011751458086052E-1   -2.091653677119303E-1
 8.117611933750000E9     4.993729405633857E-1   -6.984708318093023E-2    1.912447543536990E-3    5.182879123666775E-3    2.039600700795071E-3    5.247654133313477E-3    4.010535722433234E-1   -2.091127373381046E-1
 8.117613146000000E9     4.993993027725220E-1   -7.006606033539405E-2    1.922858939754197E-3    5.198791264416872E-3    1.997790887094096E-3    5.262925645635926E-3    4.010573242299856E-1   -2.093452485910873E-1
 8.117614358250000E9     4.993866302876264E-1   -7.011504373427344E-2    1.912814071597253E-3    5.223756254611341E-3    1.989241992896708E-3    5.293817908903217E-3    4.010658585212818E-1   -2.093034648166225E-1
 8.117615570500000E9     4.993168678023805E-1   -7.030632752368646E-2    1.922718558489212E-3    5.202756275706914E-3    2.041007742384328E-3    5.308704537988644E-3    4.009813349456056E-1   -2.094973703414236E-1
 8.117616782750000E9     4.993392864859253E-1   -7.048375309454832E-2    1.953012490705940E-3    5.241102173020177E-3    2.016982831662249E-3    5.296872533131810E-3    4.009873710573923E-1   -2.096172624747351E-1
 8.117617995000000E9     4.992234023567118E-1   -7.061511505551223E-2    1.995763760521066E-3    5.250994554884720E-3    2.035595380966202E-3    5.333566472584354E-3    4.008321477720337E-1   -2.095158598426689E-1
 8.117619207250000E9     4.991886868292887E-1   -7.077855863435531E-2    1.956455950110187E-3    5.252816260592060E-3    2.041998964421119E-3    5.366459483071338E-3    4.009629158173915E-1   -2.097722834228556E-1
 8.117620419500000E9     4.991318575204244E-1   -7.092970553466235E-2    1.994287471167477E-3    5.269077522092229E-3    2.057984749053737E-3    5.346389692935994E-3    4.008585883523603E-1   -2.097505469717137E-1
 8.117621631750000E9     4.990647204451498E-1   -7.124449452979542E-2    1.983697526860883E-3    5.264142743824905E-3    2.067330247325428E-3    5.359595824099025E-3    4.006806099730653E-1   -2.098463968010309E-1
 8.117622844000000E9     4.989585661571318E-1   -7.132584716660000E-2    2.011547341234827E-3    5.316827867859877E-3    2.080292359137279E-3    5.396431089610410E-3    4.006527732898391E-1   -2.099629163680494E-1
 8.117624056250000E9     4.989774527031230E-1   -7.145229873346282E-2    2.020466943834956E-3    5.334709456486281E-3    2.100877195173702E-3    5.405731273692253E-3    4.007171157819953E-1   -2.100997328493084E-1
 8.117625268500000E9     4.989679916213640E-1   -7.158713065027590E-2    2.027738644105536E-3    5.347416705111625E-3    2.102925603604867E-3    5.414583304876298E-3    4.008117559942567E-1   -2.102968736003462E-1
 8.117626480750000E9     4.988380819130092E-1   -7.174149977304589E-2    2.006525975479194E-3    5.350638545453307E-3    2.120702928246265E-3    5.396739029950240E-3    4.006387702246387E-1   -2.103202912871233E-1
 8.117627693000000E9     4.988775141735068E-1   -7.192985786197859E-2    2.032880111427500E-3    5.362771679085263E-3    2.133461085190393E-3    5.405256477950875E-3    4.004253299302480E-1   -2.102064102780868E-1
 8.117628905250000E9     4.988810858747683E-1   -7.202884470247413E-2    2.041956260098436E-3    5.363605973100800E-3    2.166971093854120E-3    5.454048220178640E-3    4.005500811733110E-1   -2.104549683223696E-1
 8.117630117500000E9     4.987741573926006E-1   -7.217871787836910E-2    2.064773598435951E-3    5.393878876283356E-3    2.175040163622854E-3    5.511670919481890E-3    4.004993970795174E-1   -2.104377460091038E-1
 8.117631329750000E9     4.986219073992590E-1   -7.243177351718666E-2    2.071424542221329E-3    5.413451662698104E-3    2.162663831281619E-3    5.511493698256581E-3    4.004649300608097E-1   -2.105508216560818E-1
 8.117632542000000E9     4.986830485708740E-1   -7.266827485678685E-2    2.090166951908573E-3    5.422406335159597E-3    2.165710213179795E-3    5.478980387789901E-3    4.004613757424184E-1   -2.106557430322104E-1
 8.117633754250000E9     4.986124905247687E-1   -7.274268729320402E-2    2.086247716321304E-3    5.461420591144773E-3    2.155012358349801E-3    5.530048904009793E-3    4.005223952760384E-1   -2.106044881782438E-1
 8.117634966500000E9     4.985906970487216E-1   -7.289892485184854E-2    2.104065554102608E-3    5.424636782902548E-3    2.183982097054957E-3    5.537511949104659E-3    4.004462652734818E-1   -2.107260244897482E-1
 8.117636178750000E9     4.984672670262981E-1   -7.311398805704863E-2    2.115849971700315E-3    5.479749171933451E-3    2.207724042535599E-3    5.567517338538665E-3    4.003567288046506E-1   -2.108334632763918E-1
 8.117637391000000E9     4.984206020756064E-1   -7.341670272236542E-2    2.126543225722102E-3    5.473551539222753E-3    2.241631973458272E-3    5.565809407528509E-3    4.003573156313928E-1   -2.110092859078247E-1
 8.117638603250000E9     4.983993483513992E-1   -7.349923288898810E-2    2.131674149220892E-3    5.498527791660253E-3    2.270790670009200E-3    5.591760781280651E-3    4.003015963965411E-1   -2.109618275458256E-1
 8.117639815500000E9     4.983522504966658E-1   -7.367420529471599E-2    2.160447300683469E-3    5.511208670812158E-3    2.233981262947903E-3    5.596163610984073E-3    4.003025357758035E-1   -2.110956914224834E-1
 8.117641027750000E9     4.983210061294530E-1   -7.389253376214586E-2    2.178836452503146E-3    5.520566960580919E-3    2.282257623135405E-3    5.606252307718256E-3    4.001407160243051E-1   -2.111886157965289E-1
 8.117642240000000E9     4.982121795238593E-1   -7.403572139120869E-2    2.167666290840391E-3    5.552123397018121E-3    2.257249141622708E-3    5.640046686007878E-3    4.002544615725018E-1   -2.113723566854419E-1
 8.117643452250000E9     4.981485221907701E-1   -7.410839216207384E-2    2.201726515761299E-3    5.572813841552123E-3    2.320904069381572E-3    5.650612626572921E-3    4.001574212099272E-1   -2.113706180296113E-1
 8.117644664500000E9     4.980271413124690E-1   -7.434633211959349E-2    2.213795499611277E-3    5.581428101077900E-3    2.292136100927623E-3    5.658644371775083E-3    4.000247176584547E-1   -2.113377061874546E-1
 8.117645876750000E9     4.980521203500414E-1   -7.449182959180466E-2    2.214804897934857E-3    5.600541762832634E-3    2.306647841495777E-3    5.692102691951252E-3    4.000326269759419E-1   -2.114845715234733E-1
 8.117647089000000E9     4.980139355060469E-1   -7.472064164184071E-2    2.241918321959305E-3    5.622452189201721E-3    2.359252734517021E-3    5.707163013029647E-3    4.001493904424693E-1   -2.117101336801384E-1
 8.117648301250000E9     4.978911821753196E-1   -7.493539753074301E-2    2.227479293639854E-3    5.642522026200108E-3    2.347473820806154E-3    5.710065182305232E-3    3.998698804266065E-1   -2.116734065365961E-1
 8.117649513500000E9     4.978370906258524E-1   -7.516009444163903E-2    2.271298325131931E-3    5.669246427978311E-3    2.374517562734841E-3    5.749098178119922E-3    4.000426824133957E-1   -2.116761335957017E-1
 8.117650725750000E9     4.977548896198685E-1   -7.534555216663295E-2    2.254485923591874E-3    5.675389529733069E-3    2.382302268352886E-3    5.770936603415638E-3    3.998548495962880E-1   -2.118545994838523E-1
 8.117651938000000E9     4.976603631531704E-1   -7.547895421424984E-2    2.281659328075533E-3    5.672843024965830E-3    2.383074360630520E-3    5.802791775635410E-3    3.998955480203208E-1   -2.118540598459188E-1
 8.117653150250000E9     4.975772093601705E-1   -7.571786754615170E-2    2.342095509576880E-3    5.706676875189854E-3    2.408153202307783E-3    5.785536952884066E-3    3.999711471326172E-1   -2.119964866623222E-1
 8.117654362500000E9     4.975183361525822E-1   -7.591188787134680E-2    2.325081871075141E-3    5.746369425479785E-3    2.427566651066144E-3    5.786227051413842E-3    3.997457401733351E-1   -2.121254454024965E-1
 8.117655574750000E9     4.975414721227573E-1   -7.606292449396526E-2    2.317688048262870E-3    5.713567818656918E-3    2.442592895910816E-3    5.841275603670794E-3    3.997568591101925E-1   -2.121102736676948E-1
 8.117656787000000E9     4.975181958544920E-1   -7.611346819039448E-2    2.340072747470195E-3    5.778768202211962E-3    2.447595321554384E-3    5.860950844327884E-3    3.996177619377020E-1   -2.123061980332353E-1
 8.117657999250000E9     4.973062281384937E-1   -7.639251549029914E-2    2.384758816221421E-3    5.791245660001702E-3    2.489775940137271E-3    5.889616345561306E-3    3.996275016334677E-1   -2.122543446776300E-1
 8.117659211500000E9     4.973304674519730E-1   -7.669613812460860E-2    2.382275584330566E-3    5.803668941928510E-3    2.493278379907612E-3    5.904763022009828E-3    3.996506247382657E-1   -2.124138524834028E-1
 8.117660423750000E9     4.972312661655520E-1   -7.681711380150520E-2    2.410794870179766E-3    5.836366572865787E-3    2.482238260844046E-3    5.948519174885413E-3    3.995556287386038E-1   -2.124896503914548E-1
 8.117661636000000E9     4.972239711429047E-1   -7.701369374533666E-2    2.439990588525140E-3    5.850344387395432E-3    2.516422014181225E-3    5.959331558080192E-3    3.994774033463508E-1   -2.124752719871590E-1
 8.117662848250000E9     4.971272537095265E-1   -7.720955053153025E-2    2.418215216072354E-3    5.872473792622448E-3    2.569077236542395E-3    5.988360781714282E-3    3.994011202382138E-1   -2.125643916171416E-1
 8.117664060500000E9     4.969605334716689E-1   -7.745263497028229E-2    2.463644258590459E-3    5.897969585813820E-3    2.556677596465474E-3    5.997403946985111E-3    3.994640956956638E-1   -2.126875761420572E-1
