#  HZ   S   RI   R     50.00 
! Rohde & Schwarz Vector Network Analyzer 
! Rohde-Schwarz,ZNB20-2Port,1311601062101988,3.16
! Created: UTC 3/20/2024, 11:50:58 AM
! freq[Hz]                re:S11                  im:S11                  re:S21                  im:S21                  re:S12                  im:S12                  re:S22                  im:S22
 8.115938658000000E9     5.035533642105288E-1    6.277536611980623E-2    2.018506313070932E-4    3.467796145618282E-3    2.380400593845388E-4    3.543737431584701E-3    4.377725899668559E-1   -9.717684892416324E-2
 8.115946060675000E9     5.035433032462658E-1    6.213850809072279E-2    1.966910834405118E-4    3.467397099166752E-3    2.859761663089129E-4    3.508626743378919E-3    4.376704835390194E-1   -9.757923917564260E-2
 8.115953463350000E9     5.036243710376416E-1    6.148334187991399E-2    1.989503672901059E-4    3.487036808550309E-3    2.656657208070553E-4    3.530429037399877E-3    4.375534920364764E-1   -9.810956495817298E-2
 8.115960866025000E9     5.036849811937175E-1    6.103086745484131E-2    2.138102648566068E-4    3.477856497829552E-3    2.803157204888729E-4    3.527645746832885E-3    4.375915302403360E-1   -9.864914050191100E-2
 8.115968268700000E9     5.037650100617026E-1    6.044637456610882E-2    2.141708303250673E-4    3.482932347933629E-3    2.595988454744484E-4    3.532843867546583E-3    4.375010658416970E-1   -9.916396368705820E-2
 8.115975671375000E9     5.037932580455727E-1    5.985644454271562E-2    2.183042662731370E-4    3.470852152839854E-3    2.658034324301284E-4    3.517041881907016E-3    4.371555394745491E-1   -9.964556014864613E-2
 8.115983074050000E9     5.039023065160472E-1    5.931429219778659E-2    2.188318427023057E-4    3.496173399152893E-3    2.935888819842719E-4    3.544274339606688E-3    4.371756911615488E-1   -9.998424897418870E-2
 8.115990476725000E9     5.039588073393388E-1    5.883632120046010E-2    2.303018855588242E-4    3.499749829542274E-3    2.726289359207007E-4    3.569628703444928E-3    4.369829482542686E-1   -1.006394825734954E-1
 8.115997879400000E9     5.039327851213515E-1    5.831453747122020E-2    2.271408313046753E-4    3.498161371095532E-3    3.030855116581224E-4    3.560949269000728E-3    4.369193342406132E-1   -1.010760826623133E-1
 8.116005282075000E9     5.040484697348249E-1    5.768542147933087E-2    2.200740245308448E-4    3.503000898456158E-3    3.023182362890485E-4    3.556651141495649E-3    4.367482351312602E-1   -1.015325668563207E-1
 8.116012684750000E9     5.040447757012186E-1    5.714973449422252E-2    2.359043836268164E-4    3.479948551868036E-3    2.953358128107001E-4    3.521190416158633E-3    4.368040939430906E-1   -1.022152019747844E-1
 8.116020087425000E9     5.040548452223682E-1    5.650171642297807E-2    2.502083809135807E-4    3.507775754268680E-3    3.201674566762115E-4    3.551681043337575E-3    4.366373989742595E-1   -1.024971094847029E-1
 8.116027490100000E9     5.042606796988620E-1    5.596098321028285E-2    2.616769059035549E-4    3.507066719885167E-3    2.700518492277936E-4    3.550217485129545E-3    4.367219718858545E-1   -1.031447784745910E-1
 8.116034892775000E9     5.042655340424612E-1    5.544113366505154E-2    2.426455922412598E-4    3.521760594524518E-3    3.109223528634076E-4    3.565536419633106E-3    4.364798361113225E-1   -1.036765032787888E-1
 8.116042295450000E9     5.043864955301564E-1    5.494843640334780E-2    2.524842920484448E-4    3.479606271387770E-3    3.197328530114756E-4    3.604002156868014E-3    4.364990890358432E-1   -1.041863515416343E-1
 8.116049698125000E9     5.044680437064551E-1    5.431378248125081E-2    2.285430816341800E-4    3.516892373907064E-3    2.980979431241022E-4    3.542137436065083E-3    4.364681201074476E-1   -1.046157183317945E-1
 8.116057100800000E9     5.044132895013675E-1    5.385931233358778E-2    2.602402661648829E-4    3.485779563366109E-3    3.211533392775211E-4    3.551492177961298E-3    4.361419042105001E-1   -1.050340976531892E-1
 8.116064503475000E9     5.045190881275942E-1    5.324214208474692E-2    2.829660884814752E-4    3.478466459632674E-3    3.502916192316835E-4    3.571208157510026E-3    4.361654401795128E-1   -1.056646033548818E-1
 8.116071906150000E9     5.046312001707547E-1    5.271197456434039E-2    2.599581968367762E-4    3.512786500836260E-3    3.147209393633094E-4    3.554362532017564E-3    4.360301626342710E-1   -1.060879405604742E-1
 8.116079308825000E9     5.045673425658034E-1    5.202748300364146E-2    2.554190931975343E-4    3.508159012071791E-3    3.272047254571635E-4    3.519207150362590E-3    4.358982144867171E-1   -1.066532999543819E-1
 8.116086711500000E9     5.045800099739527E-1    5.150804291168158E-2    2.917057614178108E-4    3.515521005340341E-3    3.316596419329308E-4    3.558175448963685E-3    4.356804374323534E-1   -1.072209811884486E-1
 8.116094114175000E9     5.045984032864476E-1    5.101597779454937E-2    2.539424141819035E-4    3.509761355400618E-3    3.191025582210132E-4    3.552921635292124E-3    4.356471431771026E-1   -1.076011181428118E-1
 8.116101516850000E9     5.046325130841650E-1    5.055051091387895E-2    2.803425702665736E-4    3.536287854080013E-3    3.677413189454089E-4    3.580212785259311E-3    4.355664120991652E-1   -1.081888558789488E-1
 8.116108919525000E9     5.047451988045959E-1    4.990170596890678E-2    2.996245618175623E-4    3.525518891052927E-3    3.247452691334321E-4    3.564839119090943E-3    4.355316713394953E-1   -1.086422401674404E-1
 8.116116322200000E9     5.047907619085056E-1    4.932498381142546E-2    2.864665809245582E-4    3.502626783349718E-3    3.527880836533432E-4    3.516264009405518E-3    4.353870314301027E-1   -1.091389954863000E-1
 8.116123724875000E9     5.048232362089139E-1    4.888993677550880E-2    2.812263948428716E-4    3.511823725736056E-3    3.434541231007031E-4    3.590701724071207E-3    4.353186074260528E-1   -1.096165492102646E-1
 8.116131127550000E9     5.048855388918549E-1    4.830452805595845E-2    2.975464291245374E-4    3.501544088858427E-3    3.593522973172681E-4    3.560806686796730E-3    4.352565754123479E-1   -1.101654092519173E-1
 8.116138530225000E9     5.048687170354293E-1    4.759957340327490E-2    2.813633687442074E-4    3.509616550770472E-3    3.591323258357750E-4    3.577003836441301E-3    4.351977320057981E-1   -1.107143272146867E-1
 8.116145932900000E9     5.050025850027212E-1    4.722833422335012E-2    3.065001297678629E-4    3.511038879041410E-3    3.716578338382931E-4    3.556328136486961E-3    4.349335002330417E-1   -1.111306257532384E-1
 8.116153335575000E9     5.048964271095800E-1    4.658982870961648E-2    2.956278944706501E-4    3.515617720728847E-3    3.895644996680776E-4    3.578494738718127E-3    4.348113043533523E-1   -1.117698544404972E-1
 8.116160738250000E9     5.050470941975028E-1    4.596204072709106E-2    3.234521309181991E-4    3.525982986550792E-3    3.959798017129508E-4    3.574209549865777E-3    4.347017880125768E-1   -1.120384093361705E-1
 8.116168140925000E9     5.050735362335648E-1    4.553521507751938E-2    3.177571110206508E-4    3.532450150855365E-3    3.891738019113005E-4    3.598665504990732E-3    4.346791178957871E-1   -1.127853254291041E-1
 8.116175543600000E9     5.051024610110615E-1    4.497435632811465E-2    3.414597401654163E-4    3.519824810654939E-3    3.773934317849477E-4    3.577776714272923E-3    4.344915944954300E-1   -1.130770224394247E-1
 8.116182946275000E9     5.052065149308397E-1    4.435911639501679E-2    3.102329555267161E-4    3.536448796767770E-3    4.010258137579457E-4    3.590294846565816E-3    4.345061845578875E-1   -1.136132719112282E-1
 8.116190348950000E9     5.052668539566186E-1    4.384943833958558E-2    3.324520092881248E-4    3.514703989783929E-3    3.822970241601092E-4    3.565093201475645E-3    4.343420605858039E-1   -1.141271526482266E-1
 8.116197751625000E9     5.053008079171041E-1    4.325706945746410E-2    3.293595191876072E-4    3.539665002209341E-3    3.639138116999133E-4    3.595942680900166E-3    4.341749056016896E-1   -1.145572481380624E-1
 8.116205154300000E9     5.053634678126375E-1    4.274171878906362E-2    3.229627342873980E-4    3.542911979301690E-3    4.085215887305642E-4    3.598628565698731E-3    4.339804129020765E-1   -1.150746832688578E-1
 8.116212556975000E9     5.054284519505755E-1    4.222314997696023E-2    3.660708497556902E-4    3.509603789691780E-3    3.810973213902591E-4    3.545121011261952E-3    4.339678009339837E-1   -1.156726338055674E-1
 8.116219959650000E9     5.053751585769164E-1    4.159836488140464E-2    3.547366288892807E-4    3.528931703615942E-3    4.452525335625662E-4    3.564361129422285E-3    4.338789761953498E-1   -1.162396946863545E-1
 8.116227362325000E9     5.053043090424585E-1    4.105407671169360E-2    3.797311776335390E-4    3.538871180055666E-3    4.306678999614650E-4    3.578192159633549E-3    4.337643833328192E-1   -1.167482621839403E-1
 8.116234765000000E9     5.054877121390344E-1    4.048868183112973E-2    3.767450656524101E-4    3.535702743815850E-3    4.232651185551196E-4    3.595577842167661E-3    4.335810541999200E-1   -1.170915755988347E-1
 8.116242167675000E9     5.053373272057655E-1    3.993432659849761E-2    3.690747813273116E-4    3.553191151082544E-3    4.128277730085213E-4    3.602195421837572E-3    4.336439156527516E-1   -1.177179937597518E-1
 8.116249570350000E9     5.055034923878622E-1    3.932639707009600E-2    3.919969697088687E-4    3.524035066588266E-3    4.433833090183921E-4    3.589777217543176E-3    4.334672182080697E-1   -1.182034079700853E-1
 8.116256973025000E9     5.055703948533065E-1    3.877103038442889E-2    4.135076421276636E-4    3.521533370895977E-3    4.217469799648499E-4    3.563358641079347E-3    4.333423396542544E-1   -1.187097790147736E-1
 8.116264375700000E9     5.055278911747085E-1    3.831195037056723E-2    3.836190012133237E-4    3.535821905887056E-3    4.701803607582156E-4    3.602176432700243E-3    4.331578151324412E-1   -1.192250677407450E-1
 8.116271778375000E9     5.055859757498143E-1    3.766225706533700E-2    3.813570153041375E-4    3.528189153826922E-3    4.380474292266012E-4    3.545875101055984E-3    4.330410449870598E-1   -1.196396850124473E-1
 8.116279181050000E9     5.057010085309565E-1    3.727810986451485E-2    3.586350158798053E-4    3.532816150440969E-3    4.465129038152750E-4    3.588899469233659E-3    4.328539157987894E-1   -1.202503250018125E-1
 8.116286583725000E9     5.057517452679966E-1    3.663256467453153E-2    4.153179905041691E-4    3.523139760827629E-3    4.694929009568365E-4    3.586725366527887E-3    4.326939646368254E-1   -1.206166309926470E-1
 8.116293986400000E9     5.056845526015474E-1    3.607744775458913E-2    4.172824002051125E-4    3.552411340942585E-3    4.410638998752309E-4    3.604828332600583E-3    4.325853756434083E-1   -1.212148624879125E-1
 8.116301389075000E9     5.057162223837436E-1    3.541181959988456E-2    4.001881625323794E-4    3.559085291002030E-3    4.764731885433574E-4    3.571055602263874E-3    4.325867510229213E-1   -1.216938497510687E-1
 8.116308791750000E9     5.057478822061094E-1    3.487750450947574E-2    4.198984007531751E-4    3.544543812280716E-3    4.942306089286546E-4    3.601061665900367E-3    4.324833943415349E-1   -1.222365540148019E-1
 8.116316194425000E9     5.056836271284543E-1    3.454856619334813E-2    4.073334165842446E-4    3.563227367974583E-3    4.533229511772934E-4    3.609486390476990E-3    4.323851214697663E-1   -1.227013352969203E-1
 8.116323597100000E9     5.057895286695734E-1    3.392664228664949E-2    4.347495514181270E-4    3.541846279811526E-3    4.615811171918433E-4    3.598612735335274E-3    4.320708284853418E-1   -1.232201585962304E-1
 8.116330999775000E9     5.057520639153563E-1    3.336383369807108E-2    4.114377482652044E-4    3.560035106657304E-3    4.984346685861746E-4    3.653296250075954E-3    4.321647578983160E-1   -1.235875420083832E-1
 8.116338402450000E9     5.057931080298407E-1    3.272553594473575E-2    4.119912634604725E-4    3.550192851294308E-3    4.989460519350601E-4    3.621588116632128E-3    4.319322218903405E-1   -1.241319999976490E-1
 8.116345805125000E9     5.058786750409237E-1    3.209796023350274E-2    4.527395349528567E-4    3.547365062662797E-3    4.886124428643619E-4    3.610697765153808E-3    4.319114654852612E-1   -1.246853684802719E-1
 8.116353207800000E9     5.058963012925946E-1    3.165034927440687E-2    4.466091769213970E-4    3.566085796831005E-3    4.692258497808516E-4    3.582604705637756E-3    4.317285596137355E-1   -1.251251234739855E-1
 8.116360610475000E9     5.059151642411567E-1    3.102168395469224E-2    4.574827896010240E-4    3.566747564764033E-3    4.964649025150709E-4    3.621544454825087E-3    4.316232972038106E-1   -1.255875991950429E-1
 8.116368013150000E9     5.059407425436583E-1    3.048394504236607E-2    4.424848912253150E-4    3.572124036337240E-3    5.130164333669729E-4    3.586328618943930E-3    4.315655527328806E-1   -1.262103034734365E-1
 8.116375415825000E9     5.060652892480451E-1    2.988475866027862E-2    4.465254678059323E-4    3.572028781097259E-3    4.932672043880530E-4    3.586763939110941E-3    4.313265025666942E-1   -1.267192616348333E-1
 8.116382818500000E9     5.060010444747171E-1    2.930824096840873E-2    4.571107809908126E-4    3.581414430872522E-3    5.054491962504773E-4    3.606665430634258E-3    4.311112370078872E-1   -1.272069476878393E-1
 8.116390221175000E9     5.059768691678129E-1    2.881105586471156E-2    4.501698709163142E-4    3.558499041585095E-3    5.200523053031329E-4    3.625201752034487E-3    4.311229531695371E-1   -1.275441812115630E-1
 8.116397623850000E9     5.059782856978502E-1    2.834307268655809E-2    4.656289642094939E-4    3.571717524669205E-3    5.072844761855210E-4    3.624671566523027E-3    4.308965725889252E-1   -1.281942389694490E-1
 8.116405026525000E9     5.060538284654590E-1    2.772671201943906E-2    4.834503143532920E-4    3.542248644792776E-3    4.970510639452852E-4    3.632428344875151E-3    4.309192752519841E-1   -1.286516814745014E-1
 8.116412429200000E9     5.060576672426620E-1    2.717963907515952E-2    4.559918921563251E-4    3.587884772569648E-3    5.351782347298788E-4    3.611811302596085E-3    4.307306748633192E-1   -1.291558013956471E-1
 8.116419831875000E9     5.060307911493792E-1    2.664634081229389E-2    4.693170161794359E-4    3.569582808555827E-3    5.361651379706368E-4    3.658651111883395E-3    4.305704652916151E-1   -1.296491244931834E-1
 8.116427234550000E9     5.061722539689529E-1    2.594338553163262E-2    4.832054078281853E-4    3.572839904812566E-3    5.110316553844300E-4    3.624922237716652E-3    4.304420582311982E-1   -1.301499674794956E-1
 8.116434637225000E9     5.061224166993191E-1    2.542708240618521E-2    4.555441093265662E-4    3.571617812326084E-3    5.637396115103111E-4    3.616565184783722E-3    4.304298189269080E-1   -1.306326966383359E-1
 8.116442039900000E9     5.060476986991025E-1    2.486193660345389E-2    4.614851975319143E-4    3.596200326452686E-3    5.381110221825998E-4    3.639840951608034E-3    4.303000353808348E-1   -1.311015200374097E-1
 8.116449442575000E9     5.061818972742397E-1    2.439579238217379E-2    4.896128862279706E-4    3.576654055408442E-3    5.302907020003783E-4    3.633756419281900E-3    4.300866883988678E-1   -1.317864082367379E-1
 8.116456845250000E9     5.062198582710424E-1    2.377366127354260E-2    4.727875197831919E-4    3.578088546728344E-3    5.461690357459957E-4    3.644277957313487E-3    4.300398387600560E-1   -1.321600252503360E-1
 8.116464247925000E9     5.060960563389780E-1    2.311361036944545E-2    4.961124214051107E-4    3.576565150272037E-3    5.583234529624376E-4    3.685310404985622E-3    4.297764099138331E-1   -1.325605665004856E-1
 8.116471650600000E9     5.062094120205444E-1    2.266219552768988E-2    5.276581348377163E-4    3.617143839935900E-3    5.728884812875632E-4    3.649135434090737E-3    4.297119063886848E-1   -1.331942192825815E-1
 8.116479053275000E9     5.062490972680243E-1    2.223000587610757E-2    5.317763490987455E-4    3.595416631990664E-3    5.881815931780741E-4    3.638386111598126E-3    4.295694312371658E-1   -1.336796999306030E-1
 8.116486455950000E9     5.061742432464076E-1    2.161149004904849E-2    5.260611416446740E-4    3.605416754199589E-3    5.729860035294477E-4    3.633544397541759E-3    4.293994314857685E-1   -1.340331496429271E-1
 8.116493858625000E9     5.063295393833133E-1    2.107346658152931E-2    5.003787040411628E-4    3.588904786546750E-3    5.631123414816637E-4    3.629162533224104E-3    4.291713652151146E-1   -1.346157527178380E-1
 8.116501261300000E9     5.062633233349250E-1    2.037263977910695E-2    5.419113752853519E-4    3.635098635911263E-3    6.196187354512338E-4    3.661429100870038E-3    4.291615130561166E-1   -1.350841970834361E-1
 8.116508663975000E9     5.063472315083286E-1    1.992512282785292E-2    5.654385448186158E-4    3.615679048878198E-3    5.837338283410274E-4    3.660198241738388E-3    4.290848260805096E-1   -1.356456683466203E-1
 8.116516066650000E9     5.063179146979705E-1    1.933131960478537E-2    5.264762229723547E-4    3.606334239617690E-3    6.119841752095930E-4    3.646028717904364E-3    4.289554766826170E-1   -1.361012040636549E-1
 8.116523469325000E9     5.063172433926798E-1    1.867320139701514E-2    5.475185827062103E-4    3.617180255380769E-3    6.144774467880452E-4    3.657944699051438E-3    4.286138858019851E-1   -1.365283985354759E-1
 8.116530872000000E9     5.062523253389564E-1    1.826235997997104E-2    5.548840076096637E-4    3.629604656622011E-3    6.119307546145948E-4    3.631564442212734E-3    4.286810492681077E-1   -1.370792370573852E-1
 8.116538274675000E9     5.062207836888969E-1    1.772799057808078E-2    5.537962128671283E-4    3.599362579575725E-3    6.090444527224272E-4    3.688686173303768E-3    4.285065192124994E-1   -1.375100136539278E-1
 8.116545677350000E9     5.062588933432418E-1    1.708635592746772E-2    5.538671621353609E-4    3.608557952713884E-3    6.067154445902691E-4    3.666045392337137E-3    4.283242129514396E-1   -1.381460901160978E-1
 8.116553080025000E9     5.063217756060222E-1    1.655013833543813E-2    5.706122954596899E-4    3.621530043110167E-3    6.010751578245263E-4    3.668936331109031E-3    4.281081936929728E-1   -1.385827416972327E-1
 8.116560482700000E9     5.063019388606479E-1    1.592785169357820E-2    5.856604501092663E-4    3.612497963216207E-3    6.218179567852344E-4    3.684141252335121E-3    4.279454421765096E-1   -1.390348647813389E-1
 8.116567885375000E9     5.063189742118325E-1    1.541517011428563E-2    5.667678087027392E-4    3.655028266280009E-3    6.111744503635077E-4    3.702253019900431E-3    4.278032228169157E-1   -1.395079684847121E-1
 8.116575288050000E9     5.064292066386897E-1    1.478892923000304E-2    5.933022282815606E-4    3.611346036927695E-3    6.252872222373718E-4    3.674943516184699E-3    4.277468921221169E-1   -1.400908180696628E-1
 8.116582690725000E9     5.063692800840801E-1    1.422512952996889E-2    5.743893343447518E-4    3.625000066657096E-3    6.662385987763566E-4    3.684021242364691E-3    4.275324485140514E-1   -1.406052359568475E-1
 8.116590093400000E9     5.063859463055336E-1    1.373376726959791E-2    6.011075777248937E-4    3.638337584647483E-3    6.799133418262887E-4    3.729695420274441E-3    4.274914446077014E-1   -1.410546749260290E-1
 8.116597496075000E9     5.063586840314483E-1    1.309631644660033E-2    5.851927111572762E-4    3.651753611515584E-3    6.762645249580719E-4    3.694493775684066E-3    4.273907072251775E-1   -1.416129677878999E-1
 8.116604898750000E9     5.062742732971641E-1    1.246631937327656E-2    5.869106401181760E-4    3.630736001145991E-3    6.529879119755678E-4    3.684959161292229E-3    4.270816652483854E-1   -1.420768740358160E-1
