#  HZ   S   RI   R     50.00 
! Rohde & Schwarz Vector Network Analyzer 
! Rohde-Schwarz,ZNB20-2Port,1311601062101988,3.16
! Created: UTC 3/20/2024, 11:51:05 AM
! freq[Hz]                re:S11                  im:S11                  re:S21                  im:S21                  re:S12                  im:S12                  re:S22                  im:S22
 8.115915840000000E9     5.033854790720462E-1    6.436835601654468E-2    1.560959892110659E-4    3.497382036733869E-3    2.736575750734854E-4    3.552663011251969E-3    4.380610903324385E-1   -9.556274442122258E-2
 8.115923337950000E9     5.035334419746094E-1    6.371962660577069E-2    1.655045389081131E-4    3.479175602168496E-3    2.350328277382888E-4    3.516485450429145E-3    4.379123206166360E-1   -9.601844630323787E-2
 8.115930835900000E9     5.033637226571098E-1    6.315011028321001E-2    1.798947773175309E-4    3.488876114824578E-3    2.397600145254365E-4    3.549835096893695E-3    4.379382950283729E-1   -9.659734975627242E-2
 8.115938333850000E9     5.035612049694784E-1    6.265898299251396E-2    2.119499634225544E-4    3.477955192477146E-3    2.640833837269546E-4    3.493920082087203E-3    4.378866607511486E-1   -9.714845112313221E-2
 8.115945831800000E9     5.035565509479919E-1    6.198623300467564E-2    1.940341006946062E-4    3.470372661856621E-3    2.694353818067714E-4    3.545831548034228E-3    4.377852856286735E-1   -9.748704829127480E-2
 8.115953329750000E9     5.036591513997890E-1    6.156690497542444E-2    2.089427576814298E-4    3.469922903043772E-3    2.508879301046219E-4    3.502385021090770E-3    4.376613432700979E-1   -9.817818960364787E-2
 8.115960827700000E9     5.036519554890909E-1    6.096079912051668E-2    1.980441255744959E-4    3.467397435762063E-3    2.564300795105255E-4    3.542248424668871E-3    4.373801866640189E-1   -9.850092851804697E-2
 8.115968325650000E9     5.037436357631676E-1    6.042766946332100E-2    1.819516173461812E-4    3.486215207648142E-3    2.989978990738365E-4    3.533893548914107E-3    4.373581161312779E-1   -9.909993615099390E-2
 8.115975823600000E9     5.038565648063288E-1    5.984260455573190E-2    2.082658440528874E-4    3.478886402091354E-3    2.650567640243393E-4    3.567979969073805E-3    4.373437973011846E-1   -9.965602952671626E-2
 8.115983321550000E9     5.038568738268392E-1    5.929292454669674E-2    2.267699706276345E-4    3.506127553148965E-3    2.950001682826383E-4    3.547807728306976E-3    4.372095652063445E-1   -1.000970578180273E-1
 8.115990819500000E9     5.038772430469515E-1    5.875198273418445E-2    2.210120073400425E-4    3.499512482187773E-3    2.869033615856141E-4    3.529909813234455E-3    4.371017161900919E-1   -1.007087595303098E-1
 8.115998317450000E9     5.040753750921727E-1    5.804659810650280E-2    2.154904135786002E-4    3.476992118194479E-3    2.909261798508542E-4    3.549575679019962E-3    4.370701966116144E-1   -1.011669269240439E-1
 8.116005815400000E9     5.040500114666561E-1    5.752019497686551E-2    2.423628368497145E-4    3.502752443626859E-3    2.981090044113631E-4    3.524547565395121E-3    4.369826749925226E-1   -1.014955311672174E-1
 8.116013313350000E9     5.041489589950056E-1    5.693496291245747E-2    2.389648523457906E-4    3.520906040394899E-3    2.851573195460141E-4    3.552358213831572E-3    4.368477450183999E-1   -1.022703550008061E-1
 8.116020811300000E9     5.041418172072863E-1    5.656868102748002E-2    2.461224409786830E-4    3.479719911104971E-3    3.296693274850791E-4    3.547892625606682E-3    4.367959840808885E-1   -1.026110678009389E-1
 8.116028309250000E9     5.041093395408719E-1    5.596880978633611E-2    2.643148449534079E-4    3.492687082427848E-3    2.548838663553621E-4    3.539164438671833E-3    4.364968205974626E-1   -1.032405200143007E-1
 8.116035807200000E9     5.043559797693312E-1    5.545388769925948E-2    2.567808402442668E-4    3.497186815975447E-3    3.339551760991539E-4    3.576930711779667E-3    4.365627290435989E-1   -1.037060735077522E-1
 8.116043305150000E9     5.042872456222101E-1    5.487543829057334E-2    2.646971375977190E-4    3.485000445077255E-3    3.097021932684982E-4    3.562995072266623E-3    4.364162384226790E-1   -1.040558971342292E-1
 8.116050803100000E9     5.044389389750372E-1    5.428224184192584E-2    2.671147272727436E-4    3.505506501685240E-3    3.329388055485272E-4    3.581252259037438E-3    4.363244279926857E-1   -1.047611250924067E-1
 8.116058301050000E9     5.043917505520601E-1    5.381751066356746E-2    2.378582024123831E-4    3.500392634841825E-3    3.271765404160777E-4    3.567012513288654E-3    4.361709983771707E-1   -1.051982014397145E-1
 8.116065799000000E9     5.044934184896167E-1    5.313981230532897E-2    2.680543211379694E-4    3.493460406662206E-3    3.212338770217014E-4    3.520772227826166E-3    4.361242473465366E-1   -1.056904369807811E-1
 8.116073296950000E9     5.046032562777066E-1    5.253903717464075E-2    2.854565937947745E-4    3.546486020835940E-3    3.251716978635399E-4    3.565863040654295E-3    4.360721021451499E-1   -1.062988167532165E-1
 8.116080794900000E9     5.045095977307306E-1    5.196446138059124E-2    2.856609938479520E-4    3.510284671896141E-3    3.043859795577676E-4    3.546860957144411E-3    4.359369223335997E-1   -1.066316563592827E-1
 8.116088292850000E9     5.044969250237687E-1    5.147320911630485E-2    2.723862962806819E-4    3.511910826752039E-3    3.409246193117383E-4    3.548956517911391E-3    4.357483283571460E-1   -1.071342655701925E-1
 8.116095790800000E9     5.047215264557590E-1    5.085951268261571E-2    2.699303477391947E-4    3.481845470607784E-3    3.240148672065969E-4    3.547500142146813E-3    4.356936499731197E-1   -1.077251319648021E-1
 8.116103288750000E9     5.047555944738824E-1    5.032558016765723E-2    2.563826131514569E-4    3.500551329940649E-3    3.112922070250903E-4    3.549606736945128E-3    4.355726921490537E-1   -1.082500092470243E-1
 8.116110786700000E9     5.048039170722342E-1    4.971941862676670E-2    2.835098962243978E-4    3.520895393616069E-3    3.327597686826653E-4    3.553294373326078E-3    4.355203143769861E-1   -1.086713230500094E-1
 8.116118284650000E9     5.047011984702546E-1    4.923218215136316E-2    3.134481504956103E-4    3.533985228558795E-3    3.596439060373375E-4    3.594494903995289E-3    4.354739037172858E-1   -1.092372890286008E-1
 8.116125782600000E9     5.048840859521322E-1    4.861494098773725E-2    2.720090710307264E-4    3.503291941636683E-3    3.540020575917570E-4    3.591143643331064E-3    4.353328913728803E-1   -1.098570190978301E-1
 8.116133280550000E9     5.049796653238958E-1    4.812828733792231E-2    3.089857723487127E-4    3.528494472839941E-3    3.801234209019027E-4    3.516271749393154E-3    4.351659344501913E-1   -1.101409651898400E-1
 8.116140778500000E9     5.049301208467745E-1    4.749774742715816E-2    3.217766976390457E-4    3.502867457553534E-3    3.844194316170112E-4    3.573960703626902E-3    4.351030545930958E-1   -1.107781933611267E-1
 8.116148276450000E9     5.049279821301177E-1    4.685399173811479E-2    3.353275249448839E-4    3.496704538417023E-3    3.709264910166304E-4    3.555503971259666E-3    4.349463779701760E-1   -1.112866498260330E-1
 8.116155774400000E9     5.050620836207105E-1    4.651053647405447E-2    3.213968404024782E-4    3.510726000497131E-3    3.645334781163223E-4    3.592304065753517E-3    4.349066395849510E-1   -1.117623077760219E-1
 8.116163272350000E9     5.050160414463600E-1    4.576127306315513E-2    3.180991742622710E-4    3.503706314165586E-3    3.876079085671415E-4    3.570978448856294E-3    4.347459899857175E-1   -1.123623428421530E-1
 8.116170770300000E9     5.051105446754414E-1    4.517620850033444E-2    3.184815551132233E-4    3.511370806448569E-3    4.092277974947149E-4    3.567093818383171E-3    4.346970190516967E-1   -1.129558631217480E-1
 8.116178268250000E9     5.051297193684985E-1    4.463350047980057E-2    3.548135847903589E-4    3.534403210565084E-3    3.683393743585401E-4    3.587460518528064E-3    4.343688079835307E-1   -1.132353790426830E-1
 8.116185766200000E9     5.052853370883151E-1    4.411421862304268E-2    3.329192497134011E-4    3.507061837895850E-3    3.966839540151937E-4    3.600436616390335E-3    4.344292594662617E-1   -1.137440595436526E-1
 8.116193264150000E9     5.052745608661467E-1    4.366124547319975E-2    3.592475288438510E-4    3.515125885509086E-3    3.829617058892372E-4    3.566156489139517E-3    4.343097042683410E-1   -1.145462778573755E-1
 8.116200762100000E9     5.052340080140389E-1    4.294556721666429E-2    3.400947611014113E-4    3.536314201641214E-3    4.141200537024979E-4    3.595811656563646E-3    4.341586470251892E-1   -1.148209512937830E-1
 8.116208260050000E9     5.053199789391153E-1    4.255125813871190E-2    3.258236027574842E-4    3.531243916065332E-3    3.950615309648187E-4    3.574757825294268E-3    4.340062548366208E-1   -1.153751904374976E-1
 8.116215758000000E9     5.053231797536046E-1    4.197652951012305E-2    3.687572500908877E-4    3.535455910930453E-3    4.437210708720280E-4    3.555287980327711E-3    4.340585041839548E-1   -1.158758507966657E-1
 8.116223255950000E9     5.053462807880420E-1    4.127076433474475E-2    3.788671835658805E-4    3.538002957380459E-3    4.403276601120314E-4    3.572521428095817E-3    4.337783796403795E-1   -1.164023379972062E-1
 8.116230753900000E9     5.054544990950038E-1    4.080714633756679E-2    3.409855500857682E-4    3.533503919122956E-3    4.152857641845006E-4    3.535913326780548E-3    4.335659987453640E-1   -1.169440594851030E-1
 8.116238251850000E9     5.055143560051055E-1    4.019932776791599E-2    3.708730248111411E-4    3.520909484447452E-3    4.431743657634060E-4    3.597646766852586E-3    4.336554670230918E-1   -1.173554584265724E-1
 8.116245749800000E9     5.054118249099033E-1    3.954062475829174E-2    3.638432729797232E-4    3.549201136882346E-3    4.675666047435812E-4    3.569402956334176E-3    4.332944395259882E-1   -1.179755707817778E-1
 8.116253247750000E9     5.055496114933946E-1    3.897086197048980E-2    3.833026562627710E-4    3.560440901211366E-3    4.183461052106473E-4    3.583735984416020E-3    4.333668191887707E-1   -1.183520431519011E-1
 8.116260745700000E9     5.055136975174217E-1    3.856636941538017E-2    4.020997563757295E-4    3.562220868796803E-3    4.372491343452898E-4    3.607254657161743E-3    4.332666695448426E-1   -1.187634499140217E-1
 8.116268243650000E9     5.056193567554512E-1    3.801362858381225E-2    3.851196733254563E-4    3.555880670125569E-3    4.582085612117557E-4    3.583791032493150E-3    4.330720981385000E-1   -1.193764779690188E-1
 8.116275741600000E9     5.055912960534903E-1    3.745709955912217E-2    3.820422694530043E-4    3.527605213304233E-3    4.351877188953058E-4    3.586341105572188E-3    4.329340263562190E-1   -1.198637676937428E-1
 8.116283239550000E9     5.055252422371574E-1    3.681205047786611E-2    4.198590908431757E-4    3.555018531285554E-3    4.749664105938575E-4    3.581773889894041E-3    4.329066568010361E-1   -1.205411470014733E-1
 8.116290737500000E9     5.056489663500193E-1    3.625114678093269E-2    3.945829176771326E-4    3.539114698126324E-3    4.820930622758128E-4    3.604348378586079E-3    4.327632289491432E-1   -1.208481642946864E-1
 8.116298235450000E9     5.057773601111187E-1    3.574734166212801E-2    4.021093049447520E-4    3.537864321626597E-3    4.878193305407855E-4    3.569892829228658E-3    4.326625143425459E-1   -1.215205606789640E-1
 8.116305733400000E9     5.056741294778013E-1    3.511367302901369E-2    4.324813764184730E-4    3.529269397244979E-3    4.535486144813031E-4    3.572453990839934E-3    4.323272316510315E-1   -1.218860879006551E-1
 8.116313231350000E9     5.057296609099964E-1    3.470351858701220E-2    4.122444956162191E-4    3.521771033214563E-3    4.490468542520255E-4    3.630385381476648E-3    4.324746492941717E-1   -1.225324461025927E-1
 8.116320729300000E9     5.057676497159371E-1    3.403469422336400E-2    4.197657187045135E-4    3.547511097501410E-3    4.818248809537851E-4    3.583358252517208E-3    4.322809521465878E-1   -1.228677277945485E-1
 8.116328227250000E9     5.057750926766778E-1    3.347044037288823E-2    4.240199300555838E-4    3.559268347779268E-3    4.785601215399418E-4    3.597786937745956E-3    4.320491308878935E-1   -1.234567787475878E-1
 8.116335725200000E9     5.058174529138493E-1    3.281379741129070E-2    4.323737009109078E-4    3.536288364903899E-3    4.845676421765035E-4    3.619400303554845E-3    4.321944202735958E-1   -1.239836090089891E-1
 8.116343223150000E9     5.058260272985365E-1    3.230494926586176E-2    4.403421569821073E-4    3.560763602930068E-3    5.189958373009155E-4    3.631122986011082E-3    4.319340178775323E-1   -1.244605991466743E-1
 8.116350721100000E9     5.059070960169070E-1    3.177617250432249E-2    4.188044224719265E-4    3.549438717571491E-3    5.062462490061860E-4    3.624929095484038E-3    4.316596610129491E-1   -1.250049274565891E-1
 8.116358219050000E9     5.058288426299400E-1    3.123560517117365E-2    4.407227604078734E-4    3.562369602538251E-3    5.143333327641134E-4    3.598650191307870E-3    4.315068561257728E-1   -1.255517115588616E-1
 8.116365717000000E9     5.059111176751597E-1    3.058870602410247E-2    4.336087444108740E-4    3.563978887519322E-3    5.268303584496301E-4    3.604971860021056E-3    4.316320209167028E-1   -1.259664775120223E-1
 8.116373214950000E9     5.059385821993667E-1    3.002922239537344E-2    4.306345563402934E-4    3.546455193567609E-3    5.187150186286064E-4    3.610408442715658E-3    4.314127324632013E-1   -1.265701848098544E-1
 8.116380712900000E9     5.060183020309486E-1    2.953874571178570E-2    4.347456145043018E-4    3.583606006244603E-3    5.166980356491748E-4    3.627011347141204E-3    4.312773859168458E-1   -1.270167627192307E-1
 8.116388210850000E9     5.059596541368984E-1    2.894407335207235E-2    4.650667608605259E-4    3.559961538700159E-3    4.983150523534853E-4    3.604819792683482E-3    4.311750129631015E-1   -1.275005905183808E-1
 8.116395708800000E9     5.060753548379682E-1    2.826740816668281E-2    4.786456303844232E-4    3.572624598979631E-3    5.246233461257473E-4    3.617070052713194E-3    4.309932636978833E-1   -1.280083528658968E-1
 8.116403206750000E9     5.060168758406863E-1    2.783799380489317E-2    4.665590511855153E-4    3.574524846624975E-3    5.351419774237793E-4    3.628849626117585E-3    4.307925380380269E-1   -1.284059221748964E-1
 8.116410704700000E9     5.059704940062032E-1    2.723937304981213E-2    4.646390247172235E-4    3.591817065269887E-3    5.358276018074413E-4    3.636181736067159E-3    4.306962446704314E-1   -1.291093506166569E-1
 8.116418202650000E9     5.059814079081743E-1    2.670668991360033E-2    4.804265130977176E-4    3.580932948944886E-3    5.228139986538857E-4    3.631737329760922E-3    4.305421222864230E-1   -1.294336689522258E-1
 8.116425700600000E9     5.060663449059321E-1    2.611975696855573E-2    4.832797263693546E-4    3.585884110662990E-3    5.052918897182884E-4    3.623344276146912E-3    4.303330991824911E-1   -1.300264437370956E-1
 8.116433198550000E9     5.061150421501619E-1    2.549909746302212E-2    4.858782271833913E-4    3.607927679188955E-3    5.443777285855263E-4    3.648445922997387E-3    4.302869584665969E-1   -1.305184613486202E-1
 8.116440696500000E9     5.060666580799922E-1    2.504970047553411E-2    4.953919678613687E-4    3.572134921647644E-3    5.500179467586486E-4    3.641797818457635E-3    4.303618205390833E-1   -1.310285672920755E-1
 8.116448194450000E9     5.060961217859979E-1    2.447523735865620E-2    5.127278676791095E-4    3.589868870105353E-3    5.595658087619805E-4    3.649768240811611E-3    4.301530917013450E-1   -1.314701009074487E-1
 8.116455692400000E9     5.060672092912906E-1    2.393399481970766E-2    5.079826256807387E-4    3.561014079626664E-3    5.751430212482114E-4    3.640751764197482E-3    4.299088773260589E-1   -1.320130197579584E-1
 8.116463190350000E9     5.061167063418258E-1    2.327622731912754E-2    5.270513786078307E-4    3.610606068377406E-3    5.703762670715896E-4    3.692604035561709E-3    4.297414622911859E-1   -1.325268846156332E-1
 8.116470688300000E9     5.061873341153037E-1    2.270394834649410E-2    5.107169033574602E-4    3.587276689940499E-3    5.741052250935198E-4    3.634889519613691E-3    4.297830253191309E-1   -1.329598769274597E-1
 8.116478186250000E9     5.062268852382720E-1    2.211199420034819E-2    5.334302905616222E-4    3.604729443600561E-3    5.724221673742576E-4    3.633131591275551E-3    4.295625211699112E-1   -1.335654320224665E-1
 8.116485684200000E9     5.061678916534527E-1    2.164985626332626E-2    5.227451565891469E-4    3.600313318926659E-3    5.782233192604409E-4    3.673162598233258E-3    4.295118677135968E-1   -1.340500553006804E-1
 8.116493182150000E9     5.061616837402583E-1    2.088576644958142E-2    5.532241684439372E-4    3.626326796981201E-3    5.798106230977553E-4    3.659314197954527E-3    4.292400826894803E-1   -1.345527297894007E-1
 8.116500680100000E9     5.062516736353674E-1    2.048036521711014E-2    5.322426644693385E-4    3.601788366097695E-3    5.774715743163322E-4    3.650017423104660E-3    4.290675136257692E-1   -1.350231152724437E-1
 8.116508178050000E9     5.062425008558447E-1    1.982654402849706E-2    5.332366935932867E-4    3.589796303877243E-3    5.873738375775396E-4    3.647638556618742E-3    4.290114399258910E-1   -1.353963575516091E-1
 8.116515676000000E9     5.063139463601443E-1    1.929070625587347E-2    5.625297860740283E-4    3.622104173846577E-3    6.390780317698303E-4    3.649960984163138E-3    4.288746829187715E-1   -1.360965172751519E-1
 8.116523173950000E9     5.062747995650828E-1    1.865555903322103E-2    5.275386839657711E-4    3.620496561994194E-3    5.806060039927809E-4    3.640250420872352E-3    4.287715049153437E-1   -1.366642062765892E-1
 8.116530671900000E9     5.062467347787597E-1    1.812449551340091E-2    5.364399678701898E-4    3.617692992238945E-3    5.603759244909612E-4    3.671277499929822E-3    4.286884388099287E-1   -1.371155949040773E-1
 8.116538169850000E9     5.062778975521284E-1    1.758057003834198E-2    5.529464597300735E-4    3.610502064971230E-3    6.309436541200789E-4    3.640070354584652E-3    4.284599529456280E-1   -1.375716654311406E-1
 8.116545667800000E9     5.063594399133606E-1    1.706972984485187E-2    5.544117411411036E-4    3.605446694790077E-3    6.207098106038754E-4    3.678218069141095E-3    4.281663246102784E-1   -1.380985132384041E-1
 8.116553165750000E9     5.063355396385574E-1    1.647279741812628E-2    5.820062085493561E-4    3.627971323492652E-3    6.205265245518110E-4    3.670240805140054E-3    4.282773928342213E-1   -1.386514313256209E-1
 8.116560663700000E9     5.063343469822543E-1    1.582810164939462E-2    6.045792989712869E-4    3.602668887616789E-3    6.331038452237644E-4    3.690636933709422E-3    4.279572636556133E-1   -1.391519381355753E-1
 8.116568161650000E9     5.063626901851220E-1    1.533533842133021E-2    5.650207167935907E-4    3.630733580532236E-3    6.447119059526738E-4    3.669904673222684E-3    4.279357761143296E-1   -1.396212976077542E-1
 8.116575659600000E9     5.063851847183046E-1    1.482077835796291E-2    5.912533907885577E-4    3.641395195078808E-3    6.488649053140538E-4    3.687785191027713E-3    4.277265054252657E-1   -1.400063896760405E-1
 8.116583157550000E9     5.064102187030780E-1    1.417613636136327E-2    5.942894783979590E-4    3.629041628026582E-3    6.527183634993366E-4    3.692084511363701E-3    4.275375352270165E-1   -1.407184439865022E-1
 8.116590655500000E9     5.062676236651327E-1    1.365304803342343E-2    5.868089210101238E-4    3.629378922188936E-3    6.612414106279897E-4    3.685873749010121E-3    4.274402655785226E-1   -1.410393201887739E-1
