#  HZ   S   RI   R     50.00 
! Rohde & Schwarz Vector Network Analyzer 
! Rohde-Schwarz,ZNB20-2Port,1311601062101988,3.16
! Created: UTC 3/20/2024, 11:51:10 AM
! freq[Hz]                re:S11                  im:S11                  re:S21                  im:S21                  re:S12                  im:S12                  re:S22                  im:S22
 8.115921006000000E9     5.033611664064577E-1    6.398430548974027E-2    2.140983257222968E-4    3.480185217748734E-3    2.444249632167638E-4    3.527116268658243E-3    4.379488053396682E-1   -9.571863177700515E-2
 8.115928471725000E9     5.034689916774071E-1    6.335389313660439E-2    2.066981298003947E-4    3.465168246354346E-3    2.493058017888853E-4    3.568170603521310E-3    4.378667639027120E-1   -9.639795065329830E-2
 8.115935937450000E9     5.034815334291244E-1    6.289547486832853E-2    1.859820632915974E-4    3.471537301138960E-3    2.295352443925341E-4    3.547977332625289E-3    4.378109681369298E-1   -9.695356246172597E-2
 8.115943403175000E9     5.034491670770427E-1    6.223047677028817E-2    1.939444067429295E-4    3.497891428812019E-3    2.718477538721081E-4    3.542183280010641E-3    4.377266246000815E-1   -9.749218739424552E-2
 8.115950868900000E9     5.034911764388902E-1    6.178437202626643E-2    2.146066820104979E-4    3.499871787862221E-3    2.619919250631652E-4    3.541716334893468E-3    4.375623960426340E-1   -9.786653915497222E-2
 8.115958334625000E9     5.037119067814194E-1    6.119149695121607E-2    2.130917313110310E-4    3.510630308801188E-3    2.561651702835914E-4    3.507181530514708E-3    4.375428292053874E-1   -9.832506028320671E-2
 8.115965800350000E9     5.037050991461889E-1    6.049698532539494E-2    2.124864006373204E-4    3.501015474921528E-3    2.489352377753265E-4    3.531332549578697E-3    4.373811914949863E-1   -9.901241393503696E-2
 8.115973266075000E9     5.037260045431360E-1    6.005009061426065E-2    2.149117009756550E-4    3.498562178449740E-3    2.429256812902538E-4    3.570081245000332E-3    4.373006275093910E-1   -9.938404180275895E-2
 8.115980731800000E9     5.039072083680938E-1    5.943717980153376E-2    2.106472252379986E-4    3.509843262308496E-3    2.536227360600457E-4    3.495883169574458E-3    4.372495958653103E-1   -9.993821661499924E-2
 8.115988197525000E9     5.038466242257871E-1    5.894172451150227E-2    2.125962649322220E-4    3.489560517088535E-3    2.880689359263856E-4    3.521239221232132E-3    4.371913464939969E-1   -1.004225221046889E-1
 8.115995663250000E9     5.039479378658798E-1    5.837341534674974E-2    2.038627985918579E-4    3.493329736292687E-3    2.968231533347474E-4    3.525758973222029E-3    4.371011859593675E-1   -1.009333009469118E-1
 8.116003128975000E9     5.039628923021654E-1    5.769013532841561E-2    2.266413034059213E-4    3.476603998157933E-3    2.651226081762259E-4    3.549214409862316E-3    4.370443560915235E-1   -1.014994742278019E-1
 8.116010594700000E9     5.039508449433162E-1    5.715373908342876E-2    2.405307745949875E-4    3.476671188536124E-3    2.746347778620097E-4    3.540989595076260E-3    4.369024537184498E-1   -1.018933770126524E-1
 8.116018060425000E9     5.042180333979361E-1    5.675665042247663E-2    2.323768548330320E-4    3.487074323688820E-3    2.788375483294537E-4    3.547028271710465E-3    4.367393609550125E-1   -1.025192202074371E-1
 8.116025526150000E9     5.041000545090372E-1    5.606206505027388E-2    2.503189857595494E-4    3.499057100146814E-3    3.008896747988929E-4    3.543583290171571E-3    4.367575538507239E-1   -1.030912010425536E-1
 8.116032991875000E9     5.041487357472146E-1    5.554994659868589E-2    2.602582074245732E-4    3.496122606235418E-3    2.836246776537065E-4    3.560808182267072E-3    4.365642547434891E-1   -1.034123879094130E-1
 8.116040457600000E9     5.043624557718135E-1    5.500277504576615E-2    2.475222141599986E-4    3.498133442926862E-3    3.253120805259260E-4    3.583914104023836E-3    4.365716127395273E-1   -1.040166235598161E-1
 8.116047923325000E9     5.043346473891682E-1    5.443417351306194E-2    2.541146927458843E-4    3.499814865623030E-3    3.076143302910010E-4    3.531949659981609E-3    4.363319254904934E-1   -1.044245611037345E-1
 8.116055389050000E9     5.045098634027855E-1    5.394781475270882E-2    2.450118716639656E-4    3.513635348346407E-3    3.133606945547532E-4    3.548012047974544E-3    4.361851490927872E-1   -1.048806865007334E-1
 8.116062854775000E9     5.045137090465126E-1    5.336070838803830E-2    2.710270508927446E-4    3.501971376727749E-3    2.897584437222884E-4    3.580337387450897E-3    4.360816699034083E-1   -1.054322107200003E-1
 8.116070320500000E9     5.046237372729820E-1    5.275138520450183E-2    2.967505090319984E-4    3.496887238849527E-3    3.227411623816272E-4    3.532600515982120E-3    4.360882717863404E-1   -1.060844085354853E-1
 8.116077786225000E9     5.045171047282334E-1    5.219522643083225E-2    2.687420726672703E-4    3.528148894503145E-3    3.162474371325980E-4    3.542497383605312E-3    4.359724624489606E-1   -1.065123244056272E-1
 8.116085251950000E9     5.045059178158962E-1    5.162270213907371E-2    2.845027639255907E-4    3.494425530981386E-3    3.247199190934530E-4    3.565356089283689E-3    4.358549393325843E-1   -1.069207305636134E-1
 8.116092717675000E9     5.046504245979088E-1    5.110255308176236E-2    2.734722673966064E-4    3.509805757506967E-3    3.515402372906145E-4    3.563517291513052E-3    4.357592049992790E-1   -1.074151581772328E-1
 8.116100183400000E9     5.045963104372276E-1    5.054605505976275E-2    2.924056213175933E-4    3.497437710473465E-3    3.523205404707936E-4    3.551526343964973E-3    4.357231451409685E-1   -1.080261219067468E-1
 8.116107649125000E9     5.047848099436107E-1    5.005258904566948E-2    2.870427693436307E-4    3.515469629386254E-3    3.259173343494034E-4    3.558617345765041E-3    4.355680243582419E-1   -1.085064551084744E-1
 8.116115114850000E9     5.047968016966934E-1    4.935918954482006E-2    2.939920542676859E-4    3.523262855525365E-3    3.656609716432449E-4    3.541148657324387E-3    4.353717826709383E-1   -1.090262667478200E-1
 8.116122580575000E9     5.047633587773236E-1    4.882475855409977E-2    2.973704275061816E-4    3.515589434536056E-3    3.617402849476063E-4    3.542552156609128E-3    4.354257122550391E-1   -1.095535724903876E-1
 8.116130046300000E9     5.047186411547999E-1    4.830399063112695E-2    2.830520237638609E-4    3.509808659807101E-3    3.618256019863007E-4    3.564593098050923E-3    4.352685919819547E-1   -1.100763195505667E-1
 8.116137512025000E9     5.049164499480547E-1    4.763901388515421E-2    3.306043608934836E-4    3.494641036567207E-3    3.845337284665866E-4    3.557963353592279E-3    4.351323508143838E-1   -1.105474223259046E-1
 8.116144977750000E9     5.049511848424739E-1    4.717607622370407E-2    3.010949573013853E-4    3.505630637575289E-3    3.912424547408031E-4    3.596807942461643E-3    4.350321695809468E-1   -1.111077968238960E-1
 8.116152443475000E9     5.049208965527490E-1    4.649242318595632E-2    3.324763559669733E-4    3.504464852592017E-3    3.588919205654430E-4    3.578460603188751E-3    4.350369721206876E-1   -1.115724297358453E-1
 8.116159909200000E9     5.050028254173174E-1    4.599800870824173E-2    3.078465606292155E-4    3.522581391395988E-3    3.601309915931669E-4    3.600092804993964E-3    4.347526372985340E-1   -1.120420123616437E-1
 8.116167374925000E9     5.049998636341998E-1    4.549047450716561E-2    3.374130881338774E-4    3.521020056337002E-3    4.224223776260455E-4    3.556964892979659E-3    4.346035980325798E-1   -1.125230304241467E-1
 8.116174840650000E9     5.050999928188799E-1    4.507179582155543E-2    3.457884441164029E-4    3.509238637706459E-3    3.744314502420417E-4    3.581521743770238E-3    4.345545905942944E-1   -1.132060450142944E-1
 8.116182306375000E9     5.052527552958984E-1    4.433579553702682E-2    3.362965458788172E-4    3.533901372927657E-3    3.852555913947617E-4    3.557839089766311E-3    4.344420128683691E-1   -1.135866310720844E-1
 8.116189772100000E9     5.052301381667285E-1    4.382095588052125E-2    3.238103131607872E-4    3.510448880647455E-3    4.114869308006970E-4    3.561262707803903E-3    4.341976632220302E-1   -1.140743869826953E-1
 8.116197237825000E9     5.052172818032152E-1    4.316988686691935E-2    3.099944156595419E-4    3.528271572293758E-3    3.875121418255870E-4    3.582712347736289E-3    4.342343542575313E-1   -1.145020784274116E-1
 8.116204703550000E9     5.052272870931184E-1    4.267178540832846E-2    3.391141150917980E-4    3.514878456438332E-3    4.362498382333873E-4    3.602614915995601E-3    4.341769607926013E-1   -1.151818389110478E-1
 8.116212169275000E9     5.053502931386079E-1    4.215621099487486E-2    3.363515998437331E-4    3.525180508856380E-3    4.046517852476852E-4    3.590711959116867E-3    4.339091540340256E-1   -1.156458802281358E-1
 8.116219635000000E9     5.053211081915295E-1    4.158086117166517E-2    3.733949358813227E-4    3.532815467531994E-3    4.002264872937097E-4    3.565092269579193E-3    4.338809475997688E-1   -1.160863088804279E-1
 8.116227100725000E9     5.052556878191228E-1    4.097374402521109E-2    3.481814917611946E-4    3.531802447856781E-3    4.304032590089409E-4    3.593263661383282E-3    4.338402758577320E-1   -1.166466960188795E-1
 8.116234566450000E9     5.053849935527587E-1    4.036849233418986E-2    3.691135060578814E-4    3.531880648249647E-3    4.419996570346074E-4    3.597426976385426E-3    4.335870482799379E-1   -1.171071621797017E-1
 8.116242032175000E9     5.054654879874708E-1    3.983981577995539E-2    3.693345207746738E-4    3.531837549118378E-3    4.320220623882220E-4    3.597900665213862E-3    4.335298456250202E-1   -1.175980330754252E-1
 8.116249497900000E9     5.054066222056148E-1    3.935442021506173E-2    3.569513640098651E-4    3.529134780283489E-3    4.461262386836892E-4    3.600849350694309E-3    4.334945919341967E-1   -1.181751899459459E-1
 8.116256963625000E9     5.055119451051543E-1    3.876628296331597E-2    3.761708594159142E-4    3.550626760291340E-3    4.180598057893609E-4    3.594351020353128E-3    4.333393384233782E-1   -1.186483129500297E-1
 8.116264429350000E9     5.056333264273024E-1    3.825030148735199E-2    3.841377833513209E-4    3.550976947801281E-3    4.245226621337479E-4    3.548843739188797E-3    4.330398102658620E-1   -1.192329765323285E-1
 8.116271895075000E9     5.055339044394456E-1    3.764851529046341E-2    3.752890196128480E-4    3.534802727747506E-3    4.127094361732410E-4    3.611407288682012E-3    4.329998630973661E-1   -1.196406316802776E-1
 8.116279360800000E9     5.055971926011109E-1    3.703467310063840E-2    3.849165993730928E-4    3.530248453894813E-3    4.390615029915953E-4    3.583250660327678E-3    4.328455832063350E-1   -1.202581717043355E-1
 8.116286826525000E9     5.056504501834354E-1    3.662716037215392E-2    3.904926257451334E-4    3.565672649581185E-3    4.424054178029299E-4    3.602198410985677E-3    4.328783237764144E-1   -1.206073107574053E-1
 8.116294292250000E9     5.056186417429880E-1    3.593772248604091E-2    4.119947112023692E-4    3.561603070212968E-3    4.517934090242980E-4    3.594362869558530E-3    4.327193518729757E-1   -1.213136552963589E-1
 8.116301757975000E9     5.056767684163854E-1    3.538894099234730E-2    4.024318917296743E-4    3.562857412751112E-3    4.747975784417929E-4    3.594663758386785E-3    4.324974352170047E-1   -1.218732539710774E-1
 8.116309223700000E9     5.055789530181373E-1    3.492598353931733E-2    4.204856051867427E-4    3.548082238243199E-3    4.987750485704902E-4    3.589088985780526E-3    4.324059159398532E-1   -1.220437722407844E-1
 8.116316689425000E9     5.057181998933989E-1    3.420928969605167E-2    4.103389232987574E-4    3.533790459015129E-3    4.792720886203355E-4    3.619032839833726E-3    4.323275691599102E-1   -1.224511831239917E-1
 8.116324155150000E9     5.058734177971774E-1    3.380694977815248E-2    4.270261794000337E-4    3.551612816188422E-3    5.158961869445380E-4    3.602946393413289E-3    4.321679732161106E-1   -1.231315445328330E-1
 8.116331620875000E9     5.056832053690994E-1    3.321240723890951E-2    4.370545117497716E-4    3.532809154706298E-3    4.980793157578415E-4    3.593279675339455E-3    4.320401268996914E-1   -1.237728669775385E-1
 8.116339086600000E9     5.058432400420229E-1    3.254100981630272E-2    4.350339780532997E-4    3.595971569117967E-3    4.453525300289304E-4    3.605995075363775E-3    4.319047381239021E-1   -1.242126729847780E-1
 8.116346552325000E9     5.058563983115676E-1    3.199345722823752E-2    4.262895016833571E-4    3.560681510833069E-3    4.851560342944589E-4    3.592089776920689E-3    4.317608206428356E-1   -1.248254551744681E-1
 8.116354018050000E9     5.058728643353863E-1    3.151587950547646E-2    4.526735625216155E-4    3.567419872077613E-3    5.169161118797958E-4    3.634362751212263E-3    4.317001385720572E-1   -1.252610544756254E-1
 8.116361483775000E9     5.059437372425720E-1    3.096458684525753E-2    4.435681720957586E-4    3.558077685709814E-3    4.966783951494581E-4    3.601094026892618E-3    4.316080965044586E-1   -1.258424047650051E-1
 8.116368949500000E9     5.059306612406153E-1    3.040627825420524E-2    4.436267111656281E-4    3.570009257806832E-3    4.959542608715831E-4    3.625374380390804E-3    4.313902399889157E-1   -1.262861529662744E-1
 8.116376415225000E9     5.060092645881907E-1    2.979612589832646E-2    4.467792114187137E-4    3.563830853301966E-3    5.142161461295018E-4    3.617118154642622E-3    4.313015661237934E-1   -1.267805706282700E-1
 8.116383880950000E9     5.059481695789866E-1    2.925301789607597E-2    4.591813567940074E-4    3.534699628982781E-3    4.960371922082900E-4    3.555720499718789E-3    4.313535101697336E-1   -1.272507150437092E-1
 8.116391346675000E9     5.059942545598505E-1    2.864861811644398E-2    4.690129547878245E-4    3.558718678866687E-3    4.724457683493933E-4    3.613761703123497E-3    4.310720718301119E-1   -1.278064796657941E-1
 8.116398812400000E9     5.059772588542201E-1    2.817033684101329E-2    4.665674333819720E-4    3.553203246492122E-3    5.111403953065110E-4    3.663190904362426E-3    4.309102049602828E-1   -1.282291830940877E-1
 8.116406278125000E9     5.059288968154037E-1    2.763019546432486E-2    4.605330178787955E-4    3.577825939798531E-3    5.041929326343508E-4    3.619151204920624E-3    4.308257606924514E-1   -1.287987551652059E-1
 8.116413743850000E9     5.061476695139167E-1    2.702577343444973E-2    4.962856378100368E-4    3.571801549448933E-3    5.160508904718612E-4    3.622330047070141E-3    4.306183387094051E-1   -1.291732411512861E-1
 8.116421209575000E9     5.061382535732539E-1    2.650193031050669E-2    4.755494395414627E-4    3.553837700969958E-3    5.191192538182267E-4    3.633741432410915E-3    4.306068763105987E-1   -1.297208969820385E-1
 8.116428675300000E9     5.061157542653291E-1    2.579114517081684E-2    4.667699234094680E-4    3.570739555154687E-3    5.435526639473134E-4    3.615149410540104E-3    4.304754277649100E-1   -1.303191067532212E-1
 8.116436141025000E9     5.060122655179532E-1    2.530310170621449E-2    5.116091584388424E-4    3.595984409763584E-3    5.486048977410857E-4    3.627988531090474E-3    4.304554955965665E-1   -1.307771972278873E-1
 8.116443606750000E9     5.060998610511147E-1    2.479888155037796E-2    4.940002730034977E-4    3.574109734402408E-3    5.332098865940328E-4    3.607467293832494E-3    4.300566209893081E-1   -1.312477457327617E-1
 8.116451072475000E9     5.061049742607094E-1    2.423674018361547E-2    4.825312456559520E-4    3.574146300601241E-3    5.569486714948062E-4    3.647359185362014E-3    4.301308943062688E-1   -1.318229743709589E-1
 8.116458538200000E9     5.060769226542183E-1    2.368148645971450E-2    5.137103356766851E-4    3.605898921715068E-3    5.832984209167579E-4    3.620412713778956E-3    4.299212533327854E-1   -1.322631768484292E-1
 8.116466003925000E9     5.062081974310653E-1    2.311731794734069E-2    4.940896985926372E-4    3.624086206228218E-3    5.537393585806420E-4    3.644321262231259E-3    4.298373346049451E-1   -1.327549345133633E-1
 8.116473469650000E9     5.061199401139035E-1    2.248214693417437E-2    5.222628739975532E-4    3.564276506341765E-3    5.639857173448547E-4    3.661386174317574E-3    4.297013512740436E-1   -1.333036761601923E-1
 8.116480935375000E9     5.061289539198488E-1    2.200510695544765E-2    5.159619111303525E-4    3.579863979396164E-3    5.611653257084739E-4    3.641752560505964E-3    4.295653575358447E-1   -1.337341935432356E-1
 8.116488401100000E9     5.062071631088663E-1    2.122866651534792E-2    5.053146885539987E-4    3.596257650390395E-3    5.931650147406304E-4    3.632001897917169E-3    4.294373443401504E-1   -1.342690393077778E-1
 8.116495866825000E9     5.062605813339371E-1    2.089154511495725E-2    5.423512746778053E-4    3.611499250131718E-3    5.738863140684843E-4    3.648413249698869E-3    4.291163475937849E-1   -1.347562635321582E-1
 8.116503332550000E9     5.062432847680282E-1    2.021812548561707E-2    5.451742839011607E-4    3.588255942920118E-3    5.762829190041875E-4    3.656204297671621E-3    4.290001363069280E-1   -1.353202015491516E-1
 8.116510798275000E9     5.061596488284192E-1    1.956505628022426E-2    5.286582148432556E-4    3.598080626774650E-3    5.947882711142588E-4    3.666547995020737E-3    4.289326615548418E-1   -1.356939876962776E-1
 8.116518264000000E9     5.063115480710780E-1    1.919239620944458E-2    5.733897714548034E-4    3.607137156519918E-3    5.956997747545251E-4    3.657250452589655E-3    4.287946807258288E-1   -1.361522416212187E-1
 8.116525729725000E9     5.061577424957161E-1    1.854171271409017E-2    5.453878780031676E-4    3.616716268503559E-3    6.069123657053262E-4    3.633645320991869E-3    4.286576803952750E-1   -1.367158818746593E-1
 8.116533195450000E9     5.062491978123900E-1    1.793817465027157E-2    5.561650676372194E-4    3.601735519192404E-3    6.296394353199902E-4    3.646217486461609E-3    4.284633335356196E-1   -1.372061361119371E-1
 8.116540661175000E9     5.062593425235549E-1    1.747283739812322E-2    5.937949872753129E-4    3.606681965893312E-3    6.272347206285746E-4    3.661609498737821E-3    4.284052225480738E-1   -1.377434800819084E-1
 8.116548126900000E9     5.062527139642680E-1    1.675581623712072E-2    5.677478228603591E-4    3.626762925897734E-3    6.308214775617164E-4    3.659280986491065E-3    4.282497354412066E-1   -1.382651343575959E-1
 8.116555592625000E9     5.062762587133990E-1    1.631982697173603E-2    5.787956048637640E-4    3.656482697726252E-3    6.068706605508673E-4    3.668543532740830E-3    4.281380289807268E-1   -1.385982065464549E-1
 8.116563058350000E9     5.062829455480432E-1    1.573043917529901E-2    5.622690621670206E-4    3.614178343275299E-3    6.194863548411680E-4    3.632781071199470E-3    4.280096505506351E-1   -1.392490831196556E-1
 8.116570524075000E9     5.063082939741619E-1    1.515369420217519E-2    5.576003273650018E-4    3.626005548091679E-3    6.294081823499276E-4    3.688444502838720E-3    4.279427722872086E-1   -1.397840638638666E-1
 8.116577989800000E9     5.063067648030808E-1    1.463459144588668E-2    5.736372136640292E-4    3.620359814602007E-3    6.422702614207042E-4    3.672578921328831E-3    4.277648365528330E-1   -1.402552394353699E-1
 8.116585455525000E9     5.062623977332479E-1    1.400283798540554E-2    5.994030403822758E-4    3.628986514969313E-3    6.443942166419879E-4    3.678487345838320E-3    4.276052609464403E-1   -1.406618599164987E-1
 8.116592921250000E9     5.063148955573793E-1    1.343102467958126E-2    6.187325471550700E-4    3.644737698801476E-3    6.636369482253921E-4    3.689758395824662E-3    4.272952697260349E-1   -1.412653871318048E-1
