#  HZ   S   RI   R     50.00 
! Rohde & Schwarz Vector Network Analyzer 
! Rohde-Schwarz,ZNB20-2Port,1311601062101988,3.16
! Created: UTC 3/20/2024, 11:51:31 AM
! freq[Hz]                re:S11                  im:S11                  re:S21                  im:S21                  re:S12                  im:S12                  re:S22                  im:S22
 8.115865493000000E9     5.027964574297384E-1    6.806642038284162E-2    1.527554180379266E-4    3.462655827156591E-3    2.259333169934799E-4    3.504253881033083E-3    4.387746511158354E-1   -9.206897592694376E-2
 8.115873190075000E9     5.030087472170988E-1    6.756367313190920E-2    1.686347533182629E-4    3.482243732408680E-3    2.049752668201963E-4    3.498103875056522E-3    4.387010924204652E-1   -9.266879842852330E-2
 8.115880887150000E9     5.030069641208114E-1    6.692203409995412E-2    1.774821704612471E-4    3.473857822528295E-3    2.741968025803987E-4    3.496402640480053E-3    4.383876233187063E-1   -9.313876864872755E-2
 8.115888584225000E9     5.031662351715753E-1    6.627253961127944E-2    1.308689571019241E-4    3.467147417945898E-3    2.510012984180454E-4    3.538713818402775E-3    4.384415723382205E-1   -9.348701035287613E-2
 8.115896281300000E9     5.032450671749259E-1    6.584414007989796E-2    1.341489226890231E-4    3.458227356221613E-3    2.686726702025449E-4    3.497827761992298E-3    4.383057169061146E-1   -9.406749371497014E-2
 8.115903978375000E9     5.031480667709926E-1    6.523884337881572E-2    1.735300416780905E-4    3.453530920094877E-3    2.140467614800643E-4    3.580398373351901E-3    4.381664505916640E-1   -9.462851978264741E-2
 8.115911675450000E9     5.032503947920443E-1    6.455355326795090E-2    1.668445274438137E-4    3.490607506161393E-3    2.573567345810408E-4    3.521517466755138E-3    4.380596905828962E-1   -9.514384602960523E-2
 8.115919372525000E9     5.034451038405503E-1    6.398204226123197E-2    1.738086850935287E-4    3.490196863657505E-3    2.066772463270027E-4    3.551280093769497E-3    4.381672294569013E-1   -9.576524259749554E-2
 8.115927069600000E9     5.034796591256872E-1    6.342948582124705E-2    2.127460060407894E-4    3.485052546884470E-3    2.265290704737676E-4    3.551992745071226E-3    4.379356295987215E-1   -9.607992749935140E-2
 8.115934766675000E9     5.034378919559249E-1    6.290567905284067E-2    2.014681647641228E-4    3.489656737083029E-3    2.482090603501631E-4    3.512961836689747E-3    4.378218655399871E-1   -9.666134162168212E-2
 8.115942463750000E9     5.034515420495297E-1    6.235190436229370E-2    2.137291781056485E-4    3.482210682640046E-3    2.396314362969942E-4    3.536019478509811E-3    4.377675137495935E-1   -9.720197952956906E-2
 8.115950160825000E9     5.036731265969066E-1    6.169941225140264E-2    1.868229743426143E-4    3.492852305358935E-3    2.471734810328287E-4    3.528696151105117E-3    4.376754974866064E-1   -9.783496226928062E-2
 8.115957857900000E9     5.036460597234986E-1    6.115941716490501E-2    2.053161176437820E-4    3.508548542004631E-3    2.630797678354061E-4    3.534001470957390E-3    4.376043034440114E-1   -9.826799861321185E-2
 8.115965554975000E9     5.037415688645777E-1    6.051883240408622E-2    2.039637749715123E-4    3.477694183334091E-3    2.456478060085337E-4    3.549844272145341E-3    4.374886404237428E-1   -9.888812534012628E-2
 8.115973252050000E9     5.038157830921964E-1    6.003377291850592E-2    2.432965820693771E-4    3.497380473881194E-3    2.604857143829411E-4    3.498267968618233E-3    4.373230376242339E-1   -9.937846438478726E-2
 8.115980949125000E9     5.037942437379057E-1    5.944166460627600E-2    2.187123781201889E-4    3.492688556241584E-3    2.548521876956940E-4    3.542326409414160E-3    4.373145631540835E-1   -9.981101223237754E-2
 8.115988646200000E9     5.039644679197105E-1    5.890950944045404E-2    2.173851170900280E-4    3.482290256495477E-3    2.657601678448738E-4    3.524004455927594E-3    4.372508934180149E-1   -1.003999226619038E-1
 8.115996343275000E9     5.038974440166660E-1    5.818646585150357E-2    2.159982467748782E-4    3.476896163535027E-3    2.880515126289046E-4    3.528979821605212E-3    4.370534504921728E-1   -1.008677583495657E-1
 8.116004040350000E9     5.040903311725408E-1    5.764162713891405E-2    2.406535278509319E-4    3.488789676924462E-3    3.262189833522116E-4    3.540577201957092E-3    4.369691887363810E-1   -1.014874464458151E-1
 8.116011737425000E9     5.041470818295086E-1    5.705654266163236E-2    2.186784493094525E-4    3.478011142263185E-3    3.006836791199071E-4    3.564116921070155E-3    4.368495897764794E-1   -1.020210734687101E-1
 8.116019434500000E9     5.042131925868201E-1    5.654731008861068E-2    2.491469949941314E-4    3.476613354319644E-3    2.594671246215086E-4    3.555548177690002E-3    4.368636058734284E-1   -1.023332683502292E-1
 8.116027131575000E9     5.042516785735895E-1    5.601812145980829E-2    2.521379684139312E-4    3.517807185926771E-3    2.861587074987457E-4    3.556906020517501E-3    4.366548611361278E-1   -1.030448256148689E-1
 8.116034828650000E9     5.042318259151598E-1    5.533796696495104E-2    2.695316762021611E-4    3.485010359657818E-3    3.048477234836549E-4    3.533914914127170E-3    4.365175332834081E-1   -1.035927417160619E-1
 8.116042525725000E9     5.043223574490602E-1    5.479759314118810E-2    2.471985334659555E-4    3.497109638462836E-3    2.977596406498604E-4    3.533489745668490E-3    4.366044394956919E-1   -1.041395097235808E-1
 8.116050222800000E9     5.043326146873282E-1    5.414451488316343E-2    2.555149720154925E-4    3.496231948849098E-3    3.056648261102808E-4    3.560647485786091E-3    4.363871368850658E-1   -1.046445346861638E-1
 8.116057919875000E9     5.045381672069978E-1    5.361388356983660E-2    2.690293535151352E-4    3.510986353146743E-3    3.272493176112186E-4    3.560416847371714E-3    4.363437640329580E-1   -1.051851266176719E-1
 8.116065616950000E9     5.044415928077790E-1    5.317720325703004E-2    2.673746935303073E-4    3.504037317003093E-3    3.308355403492673E-4    3.555551910195144E-3    4.360792790426755E-1   -1.056608488622880E-1
 8.116073314025000E9     5.045021557461581E-1    5.243074746796213E-2    2.362003890356296E-4    3.508139723977600E-3    3.023959064405014E-4    3.543759313783664E-3    4.359401985060747E-1   -1.061936347039085E-1
 8.116081011100000E9     5.045296239400419E-1    5.199323813257552E-2    2.786216471399621E-4    3.511763051517324E-3    3.530752198090822E-4    3.576114765672590E-3    4.358481398001712E-1   -1.066402224680824E-1
 8.116088708175000E9     5.046891007058033E-1    5.135612124179052E-2    2.706779078572232E-4    3.514098776895977E-3    3.382648285806200E-4    3.555760248261791E-3    4.357726944476953E-1   -1.072291397817610E-1
 8.116096405250000E9     5.047283295947060E-1    5.083064457283702E-2    3.092866084348017E-4    3.493145042734505E-3    3.232318217846131E-4    3.597134389940775E-3    4.356906337084503E-1   -1.076900250051536E-1
 8.116104102325000E9     5.047191156725267E-1    5.023763252335342E-2    2.890802308160942E-4    3.504096519953120E-3    3.523392691175691E-4    3.561726086423820E-3    4.356001588508553E-1   -1.082742069547846E-1
 8.116111799400000E9     5.048309883825223E-1    4.964399934421151E-2    2.938584756242666E-4    3.504921886873397E-3    3.569828871109572E-4    3.587007654912342E-3    4.354890752628877E-1   -1.088148677192471E-1
 8.116119496475000E9     5.047315418451683E-1    4.906779967032983E-2    2.883217054060818E-4    3.515517655247216E-3    3.765336399835661E-4    3.584853802725111E-3    4.354212666092450E-1   -1.093812794069481E-1
 8.116127193550000E9     5.047990286159189E-1    4.845957072500521E-2    2.788628535587065E-4    3.497201907512053E-3    3.413179861312727E-4    3.567190835625085E-3    4.351975670872783E-1   -1.097978859635638E-1
 8.116134890625000E9     5.050390083381029E-1    4.800666921136558E-2    3.217935765223717E-4    3.522999142905659E-3    3.931897130443818E-4    3.535996098850563E-3    4.352211403652152E-1   -1.104330364686097E-1
 8.116142587700000E9     5.049013222254833E-1    4.728026927051832E-2    3.074100195225407E-4    3.520646571253440E-3    3.697261907965311E-4    3.562275563212436E-3    4.349830621129300E-1   -1.108381674434125E-1
 8.116150284775000E9     5.050527631370418E-1    4.684784283146790E-2    2.930714625889714E-4    3.512658538787821E-3    4.086203649211466E-4    3.555956446082309E-3    4.349493110886005E-1   -1.112434881516287E-1
 8.116157981850000E9     5.050962856436240E-1    4.623221321370689E-2    3.270963028626376E-4    3.529012540622413E-3    3.930146489695787E-4    3.595351627082042E-3    4.349473208936026E-1   -1.120430224280961E-1
 8.116165678925000E9     5.051386717479639E-1    4.551055301316401E-2    3.422829346070506E-4    3.536368083009016E-3    3.837695201538796E-4    3.562371873662962E-3    4.347430208839705E-1   -1.123896553097218E-1
 8.116173376000000E9     5.050901147122749E-1    4.494722579719383E-2    3.128906367914549E-4    3.517798316729626E-3    3.740943320056563E-4    3.607787448486782E-3    4.346792404100894E-1   -1.128981444439766E-1
 8.116181073075000E9     5.051628077854005E-1    4.443556752012776E-2    3.387930273938549E-4    3.535645688083376E-3    3.692169745708529E-4    3.572232939148825E-3    4.344314078920536E-1   -1.134715126814862E-1
 8.116188770150000E9     5.053331703129131E-1    4.393342485608252E-2    2.969391754630210E-4    3.512433727861815E-3    3.941465660212625E-4    3.560453523301804E-3    4.343829544297804E-1   -1.139932676046129E-1
 8.116196467225000E9     5.052435757263359E-1    4.337417595996151E-2    3.431178758457630E-4    3.533466889880526E-3    3.949104628450411E-4    3.572875950192616E-3    4.341498047157182E-1   -1.145177176786628E-1
 8.116204164300000E9     5.053204630966466E-1    4.276628826123728E-2    3.723323597295826E-4    3.517256904860855E-3    3.967082215855161E-4    3.562195896570251E-3    4.341505412651783E-1   -1.150555319242865E-1
 8.116211861375000E9     5.053111372191893E-1    4.220832449995757E-2    3.354994672147627E-4    3.534004495114947E-3    4.124804257037597E-4    3.560286104174176E-3    4.339253713979179E-1   -1.154881137624763E-1
 8.116219558450000E9     5.053947264299871E-1    4.160576574335639E-2    3.449202091125112E-4    3.530334216305185E-3    4.153304858085527E-4    3.599095782043754E-3    4.341167656328568E-1   -1.161608824416920E-1
 8.116227255525000E9     5.052857313882645E-1    4.103399032015663E-2    3.394864897826061E-4    3.527165680421539E-3    4.149177144593473E-4    3.586665299646189E-3    4.336205530027255E-1   -1.166391207697340E-1
 8.116234952600000E9     5.053739890355398E-1    4.031213237237392E-2    3.651810603369634E-4    3.539443009389640E-3    4.511170898806795E-4    3.588298244806901E-3    4.337005411728555E-1   -1.171582411542742E-1
 8.116242649675000E9     5.054280040497436E-1    3.993817806280555E-2    3.646728669326248E-4    3.529521852899935E-3    4.412285387929553E-4    3.618984092600191E-3    4.335364363327663E-1   -1.176754402691563E-1
 8.116250346750000E9     5.054855198795297E-1    3.934207861671266E-2    3.772466677996629E-4    3.537748028670894E-3    4.043602905520933E-4    3.577346171848767E-3    4.334167352771781E-1   -1.181533168612918E-1
 8.116258043825000E9     5.054841014857061E-1    3.860007909747636E-2    3.831799861623003E-4    3.526632743271940E-3    4.046018062656912E-4    3.599172646938112E-3    4.333076122032395E-1   -1.187471322382177E-1
 8.116265740900000E9     5.055009446717008E-1    3.816493394507563E-2    3.974992604344635E-4    3.531617370054852E-3    4.216420641084427E-4    3.615184499456933E-3    4.332519524013060E-1   -1.192093044308497E-1
 8.116273437975000E9     5.056115328649223E-1    3.752644802380207E-2    4.040683748924922E-4    3.524276601652194E-3    4.222142589510997E-4    3.606886453093804E-3    4.330749992957195E-1   -1.198041919660552E-1
 8.116281135050000E9     5.056383718304718E-1    3.694960139416190E-2    3.933734582313211E-4    3.511714452571775E-3    4.442941715885856E-4    3.583926151728872E-3    4.329688202975127E-1   -1.202235259947662E-1
 8.116288832125000E9     5.055995825893910E-1    3.648609790911546E-2    4.163940465555278E-4    3.570707709935539E-3    4.515770633221063E-4    3.592617687439862E-3    4.329201872049414E-1   -1.207107516629783E-1
 8.116296529200000E9     5.057131915845930E-1    3.570242459628731E-2    4.077864867335658E-4    3.559475036183482E-3    4.532093344750657E-4    3.587347192684620E-3    4.327015224085677E-1   -1.212574029091723E-1
 8.116304226275000E9     5.057369194432898E-1    3.523695766005181E-2    4.120014154479025E-4    3.542033426364753E-3    4.438242291228862E-4    3.590002840474837E-3    4.325641180722573E-1   -1.217092642412248E-1
 8.116311923350000E9     5.056665877521186E-1    3.455434357572938E-2    4.247958292470488E-4    3.553763011170608E-3    4.878737327968149E-4    3.597892541740284E-3    4.324710161463416E-1   -1.223103844308839E-1
 8.116319620425000E9     5.056775438680563E-1    3.418493516172085E-2    4.131156313903470E-4    3.552383803727323E-3    4.674345499950161E-4    3.612897353885846E-3    4.323839718836898E-1   -1.228982031133903E-1
 8.116327317500000E9     5.057055665723823E-1    3.342483545648908E-2    4.283978656227534E-4    3.564137719726235E-3    5.130164837160922E-4    3.628072504586815E-3    4.322433083362949E-1   -1.232735804827647E-1
 8.116335014575000E9     5.058201316999542E-1    3.298326810737041E-2    4.209245945517503E-4    3.572357481780654E-3    5.055219820876928E-4    3.617192576053593E-3    4.319360540562274E-1   -1.238539072275452E-1
 8.116342711650000E9     5.058070048992450E-1    3.226700849359511E-2    4.519976346538065E-4    3.566472245090609E-3    5.018112270797635E-4    3.636528974285036E-3    4.319112721387366E-1   -1.244057198206612E-1
 8.116350408725000E9     5.058169337778220E-1    3.170610907489227E-2    4.572482183451575E-4    3.568422250241488E-3    4.859898462633816E-4    3.610864805499890E-3    4.317329331041461E-1   -1.249255439115989E-1
 8.116358105800000E9     5.058940879978238E-1    3.115165612635128E-2    4.486557337532766E-4    3.567549518477794E-3    4.915373745999943E-4    3.587604466115869E-3    4.317671319264736E-1   -1.255200780714560E-1
 8.116365802875000E9     5.060009425568630E-1    3.063770921184973E-2    4.353109379223652E-4    3.554187797972593E-3    4.950189377017572E-4    3.611639325015789E-3    4.316381533373093E-1   -1.258914684963987E-1
 8.116373499950000E9     5.059067042926191E-1    2.995745301976707E-2    4.291952706225605E-4    3.575312788164999E-3    5.015837440585177E-4    3.627304921540363E-3    4.314401510168968E-1   -1.265923855004890E-1
 8.116381197025000E9     5.060431300625423E-1    2.954425858855593E-2    4.456919254462176E-4    3.535471933169802E-3    5.353759765480137E-4    3.602907715254085E-3    4.312895228515413E-1   -1.270087684018004E-1
 8.116388894100000E9     5.059975010061056E-1    2.881369918116686E-2    4.412595323845976E-4    3.589529118070854E-3    5.079519752106944E-4    3.610032446903487E-3    4.312567734681108E-1   -1.275532736509639E-1
 8.116396591175000E9     5.060057812886565E-1    2.834874947808797E-2    4.369866059565773E-4    3.580526057599911E-3    5.483216677876664E-4    3.637680815138408E-3    4.309725879048824E-1   -1.280938902082942E-1
 8.116404288250000E9     5.060137546591266E-1    2.771816201660527E-2    5.090335561214386E-4    3.585029768513399E-3    5.318678080049038E-4    3.640649883111754E-3    4.309306973593424E-1   -1.287256209935456E-1
 8.116411985325000E9     5.061248689509030E-1    2.717073106017915E-2    4.609664629155012E-4    3.573679019112989E-3    5.234827309977115E-4    3.639258733365865E-3    4.307329411540589E-1   -1.290226961726385E-1
 8.116419682400000E9     5.061315174046088E-1    2.652299325827452E-2    4.851137602805968E-4    3.588647505857432E-3    5.657555662111818E-4    3.644292448295562E-3    4.305971124276320E-1   -1.296644281799770E-1
 8.116427379475000E9     5.060780588625730E-1    2.599557035122102E-2    4.693295432753264E-4    3.587328357302988E-3    5.495308799033692E-4    3.628942754834863E-3    4.304179532408915E-1   -1.300643378241728E-1
 8.116435076550000E9     5.061623239048297E-1    2.540911284403480E-2    5.175315731680270E-4    3.572571894227055E-3    5.375722008890536E-4    3.650221272407360E-3    4.303609974221504E-1   -1.305958891216336E-1
 8.116442773625000E9     5.062095937327135E-1    2.490625766374090E-2    4.949266807133902E-4    3.584938909842897E-3    5.544131285273395E-4    3.623164731355347E-3    4.301151014610765E-1   -1.311919005551034E-1
 8.116450470700000E9     5.060471091004556E-1    2.418350008080035E-2    4.977460841686940E-4    3.583391061541425E-3    5.441053270651165E-4    3.642377619239772E-3    4.300170529813525E-1   -1.316594752471648E-1
 8.116458167775000E9     5.061641548834600E-1    2.363774607118464E-2    4.865811442398641E-4    3.582078659660369E-3    5.499883834773949E-4    3.634241683333071E-3    4.298541240973651E-1   -1.321178767113466E-1
 8.116465864850000E9     5.061337135378969E-1    2.300933995270942E-2    5.241088780170763E-4    3.592289658355670E-3    5.401910501757241E-4    3.620216971531788E-3    4.297707248423722E-1   -1.327627009376351E-1
 8.116473561925000E9     5.062516323289266E-1    2.248497775046657E-2    5.182286960596066E-4    3.606726803368081E-3    5.489239230807259E-4    3.658983084313573E-3    4.295840323443614E-1   -1.332381623129548E-1
 8.116481259000000E9     5.062466354794297E-1    2.194910789870004E-2    5.179414783684542E-4    3.599293949980798E-3    5.690025706601354E-4    3.657911782534531E-3    4.294162393279750E-1   -1.336216946528803E-1
 8.116488956075000E9     5.061807240057380E-1    2.136471228249094E-2    5.238582809068364E-4    3.610100316165766E-3    5.907230977214639E-4    3.643154942190148E-3    4.294320453648950E-1   -1.341979651962067E-1
 8.116496653150000E9     5.063579669523233E-1    2.075314888197846E-2    5.233564010369952E-4    3.593668270121276E-3    5.690762085824188E-4    3.663528019146736E-3    4.292322447266260E-1   -1.347026199152621E-1
 8.116504350225000E9     5.062543646708862E-1    2.018396284891277E-2    5.449934470157533E-4    3.592589206581172E-3    6.203827958056308E-4    3.662808714085081E-3    4.291070229131352E-1   -1.351276006929713E-1
 8.116512047300000E9     5.062817707004245E-1    1.961862252966744E-2    5.355442673728625E-4    3.588855747270510E-3    5.855326147883693E-4    3.662334875987936E-3    4.289395286484281E-1   -1.357647342513669E-1
 8.116519744375000E9     5.064158373381891E-1    1.901015020736324E-2    5.265899384005498E-4    3.599405850317852E-3    6.005601359750980E-4    3.632518657726372E-3    4.288716992697966E-1   -1.362425080005031E-1
 8.116527441450000E9     5.061916010735796E-1    1.832910139309608E-2    5.597860627222414E-4    3.615938468767833E-3    5.953734290738307E-4    3.661819362873689E-3    4.286952442159534E-1   -1.368755717141518E-1
 8.116535138525000E9     5.064076062205003E-1    1.782438155543110E-2    5.480715375511788E-4    3.609752527089630E-3    5.907868592907177E-4    3.653217502637069E-3    4.286029563899164E-1   -1.373150845208407E-1
 8.116542835600000E9     5.063299791448592E-1    1.715745741391216E-2    5.665753963781287E-4    3.617474487713345E-3    6.241304236601292E-4    3.651379685167852E-3    4.282997392256698E-1   -1.378107896364178E-1
 8.116550532675000E9     5.063313168674496E-1    1.659639137031177E-2    5.716721880902925E-4    3.624024132649145E-3    6.114847357549695E-4    3.700186682522714E-3    4.282494834724215E-1   -1.383747650982710E-1
 8.116558229750000E9     5.063470764589892E-1    1.611553615627374E-2    5.575702925383683E-4    3.647236130579897E-3    6.077873299616366E-4    3.658337800999412E-3    4.280341013817636E-1   -1.389133098925316E-1
