#  HZ   S   RI   R     50.00 
! Rohde & Schwarz Vector Network Analyzer 
! Rohde-Schwarz,ZNB20-2Port,1311601062101988,3.16
! Created: UTC 3/20/2024, 11:52:17 AM
! freq[Hz]                re:S11                  im:S11                  re:S21                  im:S21                  re:S12                  im:S12                  re:S22                  im:S22
 8.115959109000000E9     5.036658118778452E-1    6.114117588875428E-2    2.273339338987688E-4    3.470215079575293E-3    2.646503046541297E-4    3.500014863142902E-3    4.377417240125014E-1   -9.829568643490599E-2
 8.115966481250000E9     5.036091833898872E-1    6.052929037026814E-2    2.204083627245483E-4    3.489682124639408E-3    2.795877099598814E-4    3.538688622019611E-3    4.374716105711434E-1   -9.887717099608040E-2
 8.115973853500000E9     5.037889552179007E-1    5.998467854593920E-2    1.980866043446648E-4    3.483470608819646E-3    2.754326040356386E-4    3.521722593046176E-3    4.373280855009837E-1   -9.946586375783817E-2
 8.115981225750000E9     5.038626078236352E-1    5.936069501293303E-2    2.079826223873190E-4    3.474722354630057E-3    2.992689462190786E-4    3.536140991500837E-3    4.373190808062347E-1   -9.991412826362667E-2
 8.115988598000000E9     5.038821236383896E-1    5.900484320565395E-2    2.355370685207519E-4    3.478566432490614E-3    2.757232617943685E-4    3.525246468288655E-3    4.372057455087258E-1   -1.005299076800660E-1
 8.115995970250000E9     5.039942336520955E-1    5.827586349773854E-2    2.084299766381488E-4    3.511074023006130E-3    2.721651378525257E-4    3.531329855062952E-3    4.370233869584476E-1   -1.010490380146762E-1
 8.116003342500000E9     5.039953070020384E-1    5.776548139132709E-2    2.276214110679207E-4    3.514322289299671E-3    2.966115976577864E-4    3.528750231669846E-3    4.370066179746355E-1   -1.014371137270592E-1
 8.116010714750000E9     5.041267797817576E-1    5.734581406439727E-2    2.188174493752894E-4    3.474312281853428E-3    2.870554050551402E-4    3.570780356502619E-3    4.368903634602713E-1   -1.019012765901218E-1
 8.116018087000000E9     5.041336992738519E-1    5.672098270571673E-2    2.326643268448190E-4    3.503191227100382E-3    2.766174742173363E-4    3.533807668554365E-3    4.367434972583708E-1   -1.024723849804636E-1
 8.116025459250000E9     5.041810705446854E-1    5.624792892508885E-2    2.394913289582058E-4    3.470774442140937E-3    2.815827471309284E-4    3.535025628039075E-3    4.366240759461432E-1   -1.030180904298399E-1
 8.116032831500000E9     5.041989016095249E-1    5.568866932329649E-2    2.333551686776956E-4    3.495786277792577E-3    2.878956099156483E-4    3.558449972837142E-3    4.365218130689023E-1   -1.033701788912263E-1
 8.116040203750000E9     5.043078680629607E-1    5.501190055281664E-2    2.729511535932639E-4    3.488119884400568E-3    2.700114952366718E-4    3.562970913449847E-3    4.364526141227779E-1   -1.038957499507740E-1
 8.116047576000000E9     5.042637271680840E-1    5.456213224895028E-2    2.653909143405721E-4    3.495457717100738E-3    2.888866564636819E-4    3.542792962577564E-3    4.363296029798522E-1   -1.044223179130571E-1
 8.116054948250000E9     5.043812666491508E-1    5.396133292593799E-2    2.497185696323680E-4    3.488778117363377E-3    3.159711838784893E-4    3.552967856787309E-3    4.363238459200405E-1   -1.048979053719489E-1
 8.116062320500000E9     5.044854450047354E-1    5.347057571346518E-2    2.699668547819121E-4    3.504084314176830E-3    3.546723727389258E-4    3.544807155443971E-3    4.363561646824963E-1   -1.053809940136959E-1
 8.116069692750000E9     5.045541372442849E-1    5.292544675704317E-2    2.829307104805830E-4    3.522973349037102E-3    3.166982655694161E-4    3.562971041870843E-3    4.362224376948254E-1   -1.060965466746495E-1
 8.116077065000000E9     5.044774581238844E-1    5.235243993443815E-2    2.553801197268136E-4    3.516354765306552E-3    3.137026218434777E-4    3.536732124729470E-3    4.360525753522850E-1   -1.063714701210899E-1
 8.116084437250000E9     5.046336970529778E-1    5.187556114403838E-2    2.668743512651856E-4    3.497544539231640E-3    3.148536493892302E-4    3.555514989314974E-3    4.358536822227761E-1   -1.067553648537019E-1
 8.116091809500000E9     5.046745239340925E-1    5.124174374002070E-2    2.690550847648453E-4    3.488906119651447E-3    3.169939083174277E-4    3.548494928308836E-3    4.357884731537792E-1   -1.075425340788179E-1
 8.116099181750000E9     5.047437995500860E-1    5.080827976254196E-2    2.801611475055252E-4    3.498618264636690E-3    3.636802224275295E-4    3.580480894343084E-3    4.356702715907900E-1   -1.079528427142501E-1
 8.116106554000000E9     5.046966953779267E-1    5.009472198018176E-2    3.082011379632815E-4    3.501830389586975E-3    3.654037721773517E-4    3.526186210574805E-3    4.355113747898729E-1   -1.085135322839455E-1
 8.116113926250000E9     5.048556398218884E-1    4.956261782801577E-2    2.846293178439427E-4    3.510633558873398E-3    3.514679679110253E-4    3.572762543766999E-3    4.355735001924873E-1   -1.088084069753520E-1
 8.116121298500000E9     5.048305519666412E-1    4.897872044663353E-2    2.979747808574201E-4    3.499793263857031E-3    3.633725043652668E-4    3.544945652180419E-3    4.353479610774481E-1   -1.095629586407505E-1
 8.116128670750000E9     5.048961171367174E-1    4.844040731000455E-2    2.942187877868447E-4    3.530896731897113E-3    3.700003291799924E-4    3.582642374941946E-3    4.353190139650905E-1   -1.099310079656018E-1
 8.116136043000000E9     5.047862177149559E-1    4.790017304588003E-2    3.177318854969646E-4    3.481163549858964E-3    3.531177338657574E-4    3.563552686003416E-3    4.352336085230011E-1   -1.103987104545761E-1
 8.116143415250000E9     5.050051212048311E-1    4.739007085635226E-2    2.747419224202379E-4    3.526248451174897E-3    3.797918616502032E-4    3.574666028675795E-3    4.349573686863110E-1   -1.108878822988411E-1
 8.116150787500000E9     5.050917044713051E-1    4.671186550587027E-2    3.299443202816085E-4    3.504118060777220E-3    3.822777810702300E-4    3.561823340106123E-3    4.349202235682197E-1   -1.113689498082790E-1
 8.116158159750000E9     5.050048615640766E-1    4.629724191101704E-2    3.279168350226029E-4    3.529562887054318E-3    3.847882774463504E-4    3.567051823009015E-3    4.349894089374391E-1   -1.119295836156576E-1
 8.116165532000000E9     5.050887441876418E-1    4.580814842363490E-2    3.208476155983171E-4    3.525886917533124E-3    3.763523228445852E-4    3.594025542329585E-3    4.346273918924985E-1   -1.122702810891643E-1
 8.116172904250000E9     5.051515743346274E-1    4.507632567815630E-2    3.474273314867299E-4    3.492551318868547E-3    3.839603380543215E-4    3.544473309908164E-3    4.345020486086527E-1   -1.130294061731571E-1
 8.116180276500000E9     5.052025315641286E-1    4.464281801301119E-2    3.487916621010086E-4    3.530977493158171E-3    3.837469109254748E-4    3.585820774314318E-3    4.344983334030250E-1   -1.134003168756474E-1
 8.116187648750000E9     5.052110592470959E-1    4.402152446773492E-2    3.284531845413179E-4    3.525185036130966E-3    4.048412891490719E-4    3.553254269952041E-3    4.343767774778312E-1   -1.139485940355611E-1
 8.116195021000000E9     5.051366941166933E-1    4.347656838389004E-2    3.405816856893224E-4    3.549610290807686E-3    3.823221393791489E-4    3.560391442092469E-3    4.342715916938040E-1   -1.144461375139546E-1
 8.116202393250000E9     5.052270458934016E-1    4.298954076934239E-2    3.470714021525454E-4    3.502964534424921E-3    4.212535285218787E-4    3.583183655554722E-3    4.341878720191779E-1   -1.148841935466904E-1
 8.116209765500000E9     5.052397236828605E-1    4.227220721313645E-2    3.487075541533428E-4    3.504205953013158E-3    3.769736976752595E-4    3.606907453714489E-3    4.340116721120754E-1   -1.154937987202992E-1
 8.116217137750000E9     5.053972224392967E-1    4.184307364122350E-2    3.333226180443584E-4    3.513201170312565E-3    3.768097325944377E-4    3.587642275287943E-3    4.339429418607696E-1   -1.159674017243887E-1
 8.116224510000000E9     5.052935920654766E-1    4.117637517043636E-2    3.400311559785201E-4    3.547445284154604E-3    4.022042055837315E-4    3.582790586634504E-3    4.336135926802415E-1   -1.165029167837845E-1
 8.116231882250000E9     5.054946689607122E-1    4.072741333261787E-2    3.561290165703164E-4    3.520713958921347E-3    4.258995818060015E-4    3.598057938060760E-3    4.336475924369846E-1   -1.168297338017553E-1
 8.116239254500000E9     5.053905676989112E-1    4.021500569489464E-2    3.721549130116321E-4    3.518292743075112E-3    3.838596776009175E-4    3.557676671630723E-3    4.336384550648741E-1   -1.173889704038180E-1
 8.116246626750000E9     5.054854942501354E-1    3.969935361729785E-2    3.659245668626527E-4    3.542599188345263E-3    4.245711126794817E-4    3.614750414198762E-3    4.335625546786436E-1   -1.179077215555553E-1
 8.116253999000000E9     5.055178317674204E-1    3.911521746825451E-2    3.695820270902638E-4    3.520451388052219E-3    4.243286787159244E-4    3.570163740668097E-3    4.334106322639602E-1   -1.184540273708820E-1
 8.116261371250000E9     5.056022897568471E-1    3.859006174418955E-2    3.573856752994458E-4    3.534972856757916E-3    4.143197704621824E-4    3.596938916927512E-3    4.332981184915033E-1   -1.189102371483297E-1
 8.116268743500000E9     5.055113272711844E-1    3.797902771093863E-2    3.948587013496169E-4    3.559520752175675E-3    4.643598579877638E-4    3.584452774577110E-3    4.330544236461170E-1   -1.193475160173946E-1
 8.116276115750000E9     5.055419335523166E-1    3.756270338242345E-2    3.923758671498490E-4    3.533480815449003E-3    4.563067521678461E-4    3.571134737736706E-3    4.330791697868195E-1   -1.199724153160311E-1
 8.116283488000000E9     5.055154792028085E-1    3.690026909201727E-2    3.921800141963866E-4    3.547968851848823E-3    4.829887244070466E-4    3.611117791928797E-3    4.328840239450391E-1   -1.203803811954118E-1
 8.116290860250000E9     5.056238348427258E-1    3.630384202191184E-2    3.919658377685052E-4    3.542775635807449E-3    4.591108512295879E-4    3.578800934030953E-3    4.328519059495298E-1   -1.208696000986535E-1
 8.116298232500000E9     5.056639626580500E-1    3.587188150922414E-2    4.017173316145715E-4    3.551442422935090E-3    4.858734643601921E-4    3.595663225527328E-3    4.327367593215676E-1   -1.214969704982048E-1
 8.116305604750000E9     5.057479667725194E-1    3.516549477635423E-2    4.146225891951319E-4    3.521981763375652E-3    4.725377837410341E-4    3.644180511496040E-3    4.326364881410437E-1   -1.219358891512659E-1
 8.116312977000000E9     5.056945674667067E-1    3.474978790172194E-2    4.276290653651938E-4    3.547637622262611E-3    4.544045968120135E-4    3.626554596206996E-3    4.325671283213950E-1   -1.224337509152447E-1
 8.116320349250000E9     5.056817788815128E-1    3.404226790336070E-2    4.112597424057228E-4    3.531922333460671E-3    4.486120051887152E-4    3.608373090354510E-3    4.322890876103343E-1   -1.229664987048470E-1
 8.116327721500000E9     5.057538719220931E-1    3.355942367675545E-2    4.204336844228530E-4    3.566315641727836E-3    4.610442913817422E-4    3.628881779521900E-3    4.321362866372686E-1   -1.234294917583368E-1
 8.116335093750000E9     5.058136559601304E-1    3.306204993876435E-2    4.211266412123331E-4    3.542037125796948E-3    4.672300399091776E-4    3.618113487167862E-3    4.320380256558827E-1   -1.238857127057605E-1
 8.116342466000000E9     5.057241947338921E-1    3.237613631943989E-2    4.318570937021060E-4    3.564191927459708E-3    5.119032402398236E-4    3.602906931032350E-3    4.320322907362020E-1   -1.243300075611287E-1
 8.116349838250000E9     5.058159618322333E-1    3.191164514282577E-2    4.198717881822166E-4    3.540470464732589E-3    5.094087209483453E-4    3.614061482931256E-3    4.318755871278901E-1   -1.249612521770856E-1
 8.116357210500000E9     5.058742841426611E-1    3.127227488333537E-2    4.328851853332369E-4    3.562312861073411E-3    4.851601960311114E-4    3.609757948067055E-3    4.317654835894765E-1   -1.253248415211852E-1
 8.116364582750000E9     5.059627394868873E-1    3.074839209839874E-2    4.622513250330303E-4    3.546273173559692E-3    5.256133539417006E-4    3.649901466704056E-3    4.316547488313205E-1   -1.257232370999058E-1
 8.116371955000000E9     5.059528411410174E-1    3.025251758010366E-2    4.851236024435578E-4    3.543103131251719E-3    4.864864518336879E-4    3.587113466901771E-3    4.314885760317637E-1   -1.263904110432436E-1
 8.116379327250000E9     5.058031139753064E-1    2.955670644948448E-2    4.475312070079917E-4    3.556995697240985E-3    5.056000864341408E-4    3.599044274559609E-3    4.313529909471248E-1   -1.268003971475817E-1
 8.116386699500000E9     5.061436540810447E-1    2.916044792850927E-2    4.726048736552336E-4    3.542967578941325E-3    4.980913972411105E-4    3.626378402265646E-3    4.313074768683180E-1   -1.274488275320495E-1
 8.116394071750000E9     5.060838147091954E-1    2.858576867694402E-2    4.634886363580561E-4    3.572572047731511E-3    5.553385943521638E-4    3.597361447428494E-3    4.311213419491789E-1   -1.278412842520904E-1
 8.116401444000000E9     5.059901208961851E-1    2.793765122274428E-2    4.643524057453784E-4    3.591968720224076E-3    5.475398281943741E-4    3.637934790925235E-3    4.309232334551731E-1   -1.283904500590762E-1
 8.116408816250000E9     5.060617516933662E-1    2.748345090357548E-2    4.678255864988747E-4    3.552108329952181E-3    4.933329626855356E-4    3.614224190401820E-3    4.307334667757735E-1   -1.288233453709325E-1
 8.116416188500000E9     5.061188581235436E-1    2.688100580805325E-2    4.915655550820830E-4    3.570818640619631E-3    5.288618726114613E-4    3.614182416041534E-3    4.307105614747538E-1   -1.293164280744349E-1
 8.116423560750000E9     5.060786981071352E-1    2.634594603271697E-2    4.688166595814232E-4    3.579588240074789E-3    5.131413610739088E-4    3.654870292867509E-3    4.305383478933993E-1   -1.298160766992346E-1
 8.116430933000000E9     5.062056991707259E-1    2.578501218537859E-2    4.746006616804470E-4    3.588744262001839E-3    5.109475114002543E-4    3.630971873738707E-3    4.305410994357393E-1   -1.303797716967643E-1
 8.116438305250000E9     5.060455988514798E-1    2.532388785182573E-2    4.985220767717819E-4    3.595506724406308E-3    5.537367867900705E-4    3.665026512102904E-3    4.303948966342832E-1   -1.307575191500129E-1
 8.116445677500000E9     5.061706202709300E-1    2.463632101546819E-2    4.904131441151438E-4    3.588060142190522E-3    5.573317771953310E-4    3.648368147884377E-3    4.301313278713756E-1   -1.313646039080691E-1
 8.116453049750000E9     5.061543842946363E-1    2.411905799702790E-2    4.923076201122724E-4    3.566223322141944E-3    5.693094145125588E-4    3.638621252351644E-3    4.300631447211050E-1   -1.318152180268700E-1
 8.116460422000000E9     5.061488172022731E-1    2.359842444498719E-2    5.187961803070371E-4    3.594098062739860E-3    5.598324707860505E-4    3.618565523226807E-3    4.299723341497556E-1   -1.322986120662244E-1
 8.116467794250000E9     5.062738026449962E-1    2.303977567910968E-2    5.025042386979933E-4    3.578658061970520E-3    5.311168656103164E-4    3.632244175090917E-3    4.298550471070308E-1   -1.327686934664976E-1
 8.116475166500000E9     5.061623339817628E-1    2.245812743286728E-2    5.264368082766900E-4    3.588958416108443E-3    5.605826715646281E-4    3.652785890738275E-3    4.295721932347129E-1   -1.332818838336062E-1
 8.116482538750000E9     5.062213187461541E-1    2.194710588132566E-2    5.312384117525582E-4    3.584615526363559E-3    5.863496781055778E-4    3.598240527084214E-3    4.294740322189602E-1   -1.336977066404569E-1
 8.116489911000000E9     5.061467111491719E-1    2.128132009774907E-2    5.135720990919096E-4    3.571353483404496E-3    5.987848972443380E-4    3.623903903956133E-3    4.294382951825529E-1   -1.342499701310984E-1
 8.116497283250000E9     5.061302532267595E-1    2.079900458444085E-2    5.135022856875168E-4    3.586185238934129E-3    5.483584148211951E-4    3.661460085305788E-3    4.292978142608641E-1   -1.347525197598676E-1
 8.116504655500000E9     5.061721738437827E-1    2.016356373346656E-2    5.250199521591927E-4    3.595832150051576E-3    5.811193255175406E-4    3.612992686462885E-3    4.292317237706669E-1   -1.352317155195082E-1
 8.116512027750000E9     5.061950695340683E-1    1.957583667138719E-2    5.311111790620954E-4    3.599730340983601E-3    5.996941284637088E-4    3.677055245805010E-3    4.290575677248369E-1   -1.358173049972805E-1
 8.116519400000000E9     5.062982684292069E-1    1.907525769872409E-2    5.470330765103316E-4    3.589423314226515E-3    5.993161773469882E-4    3.645872292090306E-3    4.287657115794426E-1   -1.360837463109300E-1
 8.116526772250000E9     5.062187301464477E-1    1.860188941769147E-2    5.593170503085897E-4    3.616955776891959E-3    6.065214751034191E-4    3.642519351930644E-3    4.287548734648729E-1   -1.367323644895474E-1
 8.116534144500000E9     5.064110307588090E-1    1.794669426087618E-2    5.515100258950575E-4    3.591860431628795E-3    6.201105267192301E-4    3.624248600000080E-3    4.285167065777169E-1   -1.373183308818935E-1
 8.116541516750000E9     5.063037791045106E-1    1.752134097115938E-2    5.875427041601253E-4    3.622347126683725E-3    5.978361780854059E-4    3.638970439617159E-3    4.283033774622637E-1   -1.376801599410610E-1
 8.116548889000000E9     5.063463053388559E-1    1.691615709274398E-2    5.658570169963012E-4    3.604151239521792E-3    6.203507282265674E-4    3.661547529712083E-3    4.282721784333782E-1   -1.382010118138962E-1
 8.116556261250000E9     5.063083597309067E-1    1.640555927277788E-2    5.668431171411155E-4    3.612441736427048E-3    6.426828804264721E-4    3.648644503792872E-3    4.281075035536893E-1   -1.387611698852254E-1
 8.116563633500000E9     5.063413661501593E-1    1.585609363478331E-2    5.769969532654416E-4    3.634384428581820E-3    6.385616079025011E-4    3.670339703818496E-3    4.281273143315510E-1   -1.392700491531443E-1
 8.116571005750000E9     5.063231063383677E-1    1.519779666038720E-2    5.615261334058649E-4    3.620432098421165E-3    6.452046842025324E-4    3.692707378595230E-3    4.278828984667955E-1   -1.397607568217671E-1
 8.116578378000000E9     5.063193103053406E-1    1.468555805112368E-2    6.007509906623492E-4    3.623406114436548E-3    6.172282539571337E-4    3.665918946109014E-3    4.278673612341136E-1   -1.402248907276991E-1
 8.116585750250000E9     5.063772885133868E-1    1.416860811790314E-2    5.708740507131708E-4    3.611609244952611E-3    6.454159677198587E-4    3.706667788155650E-3    4.276305053254514E-1   -1.406364225732659E-1
 8.116593122500000E9     5.063611776561004E-1    1.347529905606355E-2    5.999281709360247E-4    3.613647825332926E-3    6.396858167970026E-4    3.677656355275349E-3    4.274478801100189E-1   -1.412026320370446E-1
 8.116600494750000E9     5.064091217090755E-1    1.293115909544777E-2    5.895101465477242E-4    3.649936971228249E-3    6.465911345042889E-4    3.677422688683693E-3    4.274052588845377E-1   -1.417923141292909E-1
 8.116607867000000E9     5.062805687574370E-1    1.252227924842345E-2    5.728533926031886E-4    3.629113483200185E-3    6.645208773624143E-4    3.658204950662779E-3    4.272343325995416E-1   -1.421970263986210E-1
 8.116615239250000E9     5.063148062515987E-1    1.181259384242442E-2    6.297641419130094E-4    3.656533086835252E-3    6.671425052310086E-4    3.672383982348205E-3    4.270162100340884E-1   -1.426596029587579E-1
 8.116622611500000E9     5.063805435820888E-1    1.125709020631139E-2    5.974401606911637E-4    3.626167034705071E-3    6.548289468746824E-4    3.702458340053710E-3    4.268690992682387E-1   -1.431157574915789E-1
