#  HZ   S   RI   R     50.00 
! Rohde & Schwarz Vector Network Analyzer 
! Rohde-Schwarz,ZNB20-2Port,1311601062101988,3.16
! Created: UTC 3/20/2024, 11:52:59 AM
! freq[Hz]                re:S11                  im:S11                  re:S21                  im:S21                  re:S12                  im:S12                  re:S22                  im:S22
 8.116047533000000E9     5.043013874844833E-1    5.465285032828224E-2    2.458531914565919E-4    3.481281336976061E-3    2.833840617761169E-4    3.540925541156584E-3    4.365503936705030E-1   -1.043420694738953E-1
 8.116054542050000E9     5.042432677019839E-1    5.416770507132779E-2    2.473923674154008E-4    3.496043230935247E-3    2.995687567023801E-4    3.563103309761139E-3    4.364621037412760E-1   -1.048102677125400E-1
 8.116061551100000E9     5.044584912248181E-1    5.368193053314659E-2    2.361071488015678E-4    3.502673829014958E-3    3.373390951477853E-4    3.543863447126435E-3    4.364287546825275E-1   -1.052738948304999E-1
 8.116068560150000E9     5.043695852469318E-1    5.316654359572491E-2    2.659550680595515E-4    3.497776016973266E-3    3.201458084235044E-4    3.568166169785072E-3    4.361552882126197E-1   -1.057795061819148E-1
 8.116075569200000E9     5.045740059734231E-1    5.261621585210229E-2    2.621242925433678E-4    3.501461236474515E-3    3.138097105062285E-4    3.552525148684980E-3    4.361299782927890E-1   -1.062636113463834E-1
 8.116082578250000E9     5.044645764192821E-1    5.210329123774213E-2    2.631758434327546E-4    3.498246622793355E-3    3.011162789671635E-4    3.558039001402251E-3    4.361278249601068E-1   -1.068287424944125E-1
 8.116089587300000E9     5.046182963777439E-1    5.138717439905063E-2    2.747440863581764E-4    3.485887938011572E-3    3.332946600119710E-4    3.536062740092913E-3    4.359301835195851E-1   -1.071945873079660E-1
 8.116096596350000E9     5.046055684061113E-1    5.100207624723321E-2    2.753429730025632E-4    3.486377119324693E-3    3.481903437440952E-4    3.508477891593181E-3    4.359032300053441E-1   -1.077211334832152E-1
 8.116103605400000E9     5.047624219717000E-1    5.043935324254462E-2    3.023824004647024E-4    3.510253462609784E-3    3.451203304767833E-4    3.562450240790801E-3    4.356816942602796E-1   -1.083454447510111E-1
 8.116110614450000E9     5.047027306079324E-1    4.997469637749370E-2    2.903230713760747E-4    3.510520469581145E-3    3.335314681738821E-4    3.561967750147878E-3    4.357023004440213E-1   -1.086798070626177E-1
 8.116117623500000E9     5.047639815581797E-1    4.935791123751315E-2    3.002719818099015E-4    3.527441661945735E-3    3.639374524650172E-4    3.553263300822491E-3    4.354588302058082E-1   -1.091580732012149E-1
 8.116124632550000E9     5.046722965723464E-1    4.897005349778939E-2    2.915473364973018E-4    3.484679089052419E-3    3.476466084602228E-4    3.576990943583101E-3    4.354295637942244E-1   -1.096260726741551E-1
 8.116131641600000E9     5.048843510909420E-1    4.829481916005342E-2    3.105262198034848E-4    3.489223079172938E-3    3.427430974770513E-4    3.541723169267811E-3    4.353179779915439E-1   -1.100920216732581E-1
 8.116138650650000E9     5.049312937452556E-1    4.788060475608038E-2    2.964639139162083E-4    3.500117832095097E-3    3.814080701134191E-4    3.561990456782958E-3    4.351330268926032E-1   -1.105528588143731E-1
 8.116145659700000E9     5.050144830965911E-1    4.727968737140426E-2    2.935318594910922E-4    3.522569537102047E-3    3.854721752328713E-4    3.562146736260050E-3    4.351923578285159E-1   -1.110643935606109E-1
 8.116152668750000E9     5.049844767783295E-1    4.674705805994771E-2    3.238581287568073E-4    3.494222947008127E-3    3.874046463734677E-4    3.553164995643728E-3    4.350241673613863E-1   -1.114743613176615E-1
 8.116159677800000E9     5.050298189495752E-1    4.628476655234812E-2    3.139662579035570E-4    3.509517540733467E-3    3.620558665723221E-4    3.562014301255182E-3    4.349304147911175E-1   -1.120964708605518E-1
 8.116166686850000E9     5.050862998950039E-1    4.575593367401837E-2    3.066267051179845E-4    3.508422139485195E-3    3.800527094739008E-4    3.549094117313429E-3    4.347309562645024E-1   -1.124303907900226E-1
 8.116173695900000E9     5.051594783933409E-1    4.510331037203795E-2    3.283860739467661E-4    3.511950131486473E-3    3.938821714202008E-4    3.558742897498715E-3    4.345549192743345E-1   -1.128593096672219E-1
 8.116180704950000E9     5.051507848844220E-1    4.474701288384319E-2    3.362755164388777E-4    3.506751046125722E-3    3.874987832241691E-4    3.552314441156228E-3    4.345251615099325E-1   -1.135792870802242E-1
 8.116187714000000E9     5.051747303789242E-1    4.418251270736677E-2    3.392858088097974E-4    3.510233697117845E-3    4.078468136545165E-4    3.601623875097376E-3    4.346558400972312E-1   -1.139269945052497E-1
 8.116194723050000E9     5.051800451007709E-1    4.362659102094046E-2    3.616320162358388E-4    3.501477191369140E-3    4.036842812374945E-4    3.561396368252044E-3    4.343402621888850E-1   -1.143926910572597E-1
 8.116201732100000E9     5.052238238029466E-1    4.310450567654810E-2    3.433150251358078E-4    3.510130733921465E-3    4.116315119397626E-4    3.610786986075478E-3    4.343476745125877E-1   -1.149125108724730E-1
 8.116208741150000E9     5.051572217885293E-1    4.257055682963394E-2    3.163213335559733E-4    3.515617010852332E-3    4.161404196763215E-4    3.552791634366305E-3    4.340763407898541E-1   -1.152774384101490E-1
 8.116215750200000E9     5.053276245545114E-1    4.200301663419907E-2    3.420001034795375E-4    3.515187381217974E-3    4.140164249107498E-4    3.571221569592993E-3    4.339865311048636E-1   -1.157151752459577E-1
 8.116222759250000E9     5.052870536074996E-1    4.154020164100962E-2    3.577141376624410E-4    3.539877368452556E-3    4.027945903866940E-4    3.563719975968756E-3    4.339931633700541E-1   -1.162569334747716E-1
 8.116229768300000E9     5.053909588902473E-1    4.102277590534943E-2    3.393409068881998E-4    3.520188384869123E-3    4.081288348586133E-4    3.570884679187951E-3    4.338699123563992E-1   -1.167789325592676E-1
 8.116236777350000E9     5.054528922196956E-1    4.045324148131875E-2    3.552696835247054E-4    3.524989939318411E-3    4.542326857013329E-4    3.594829365690157E-3    4.337061252487948E-1   -1.173066735160748E-1
 8.116243786400000E9     5.053718733696891E-1    3.991490988658147E-2    3.631711182791308E-4    3.533593088248787E-3    4.247980461958920E-4    3.568336624533004E-3    4.336170587432622E-1   -1.177353772697527E-1
 8.116250795450000E9     5.054750808956295E-1    3.946709136555174E-2    3.586716235575705E-4    3.516675656095862E-3    4.409208565814040E-4    3.578747949116170E-3    4.334682747903752E-1   -1.180678957060437E-1
 8.116257804500000E9     5.055297644541307E-1    3.878840753343867E-2    3.626604906844349E-4    3.533688301592531E-3    4.219242431634942E-4    3.592488948350780E-3    4.333239825164412E-1   -1.186739568350135E-1
 8.116264813550000E9     5.056065355556879E-1    3.829732926918166E-2    3.850858303685207E-4    3.528011452135450E-3    4.276629132027526E-4    3.596933861596306E-3    4.332831823728372E-1   -1.192442129835188E-1
 8.116271822600000E9     5.056157872522946E-1    3.782508796641446E-2    4.039150862149946E-4    3.536234388632198E-3    4.161417600834193E-4    3.570776008754429E-3    4.330819732200020E-1   -1.197532095402844E-1
 8.116278831650000E9     5.056485796483530E-1    3.731778189864689E-2    3.915394615478733E-4    3.534425320883460E-3    4.497682638519370E-4    3.593396515286465E-3    4.330755486153718E-1   -1.199889082150855E-1
 8.116285840700000E9     5.056334625725518E-1    3.676949890098655E-2    3.933248252416258E-4    3.523509471325363E-3    4.317405004496774E-4    3.578740589772858E-3    4.330864524147590E-1   -1.205338671223440E-1
 8.116292849750000E9     5.056523843489081E-1    3.627252198586544E-2    4.051320604771045E-4    3.566803537334086E-3    4.308345851644909E-4    3.576093721919694E-3    4.328289666797827E-1   -1.210264367095908E-1
 8.116299858800000E9     5.055976166503351E-1    3.573961280391632E-2    4.076322377517876E-4    3.550259421380226E-3    4.791700618089882E-4    3.587458161248010E-3    4.326203318300929E-1   -1.214734727637392E-1
 8.116306867850000E9     5.058349436161265E-1    3.509615182275302E-2    4.201496539196374E-4    3.527867939978961E-3    4.554701403975534E-4    3.585734551610234E-3    4.326026707060161E-1   -1.218949480144443E-1
 8.116313876900000E9     5.057575921148639E-1    3.468890869033456E-2    3.789255624243818E-4    3.534525478270223E-3    4.533823108307639E-4    3.618320664393877E-3    4.324861153647708E-1   -1.225361080260597E-1
 8.116320885950000E9     5.059054785747581E-1    3.423526805740819E-2    3.854813992573420E-4    3.540483726459232E-3    4.882390637453648E-4    3.607474943031885E-3    4.324864139565530E-1   -1.229297156854561E-1
 8.116327895000000E9     5.057587311968650E-1    3.364211437394950E-2    3.891593108249937E-4    3.556053403549912E-3    4.883913243352670E-4    3.589687109454917E-3    4.322672523101201E-1   -1.234494837092244E-1
 8.116334904050000E9     5.058546567182250E-1    3.315911035450200E-2    4.357216876711661E-4    3.564186521727112E-3    4.915525179837379E-4    3.595981888629201E-3    4.323047425486329E-1   -1.237035672782987E-1
 8.116341913100000E9     5.058317341716937E-1    3.262087957515319E-2    4.029756445085208E-4    3.569664989119650E-3    4.794764458387596E-4    3.614324705953720E-3    4.320668383314379E-1   -1.242907734809389E-1
 8.116348922150000E9     5.058666882717038E-1    3.215068354384390E-2    4.332618617339858E-4    3.587574243442901E-3    4.703101478855458E-4    3.616268071598790E-3    4.319355140859557E-1   -1.247452644148188E-1
 8.116355931200000E9     5.058751480397986E-1    3.158761953745776E-2    4.211084750638428E-4    3.565510598808335E-3    4.737720244761075E-4    3.610832689238139E-3    4.319127164310828E-1   -1.253360379940101E-1
 8.116362940250000E9     5.059139499939511E-1    3.101155516107181E-2    4.390152251557000E-4    3.557272109483894E-3    5.174537557037806E-4    3.626667189593972E-3    4.316166003739082E-1   -1.257060312615031E-1
 8.116369949300000E9     5.059841499964607E-1    3.039701345599624E-2    4.307142427343858E-4    3.542932617410503E-3    5.062405053662958E-4    3.615876893935436E-3    4.314810028959386E-1   -1.261527379139691E-1
 8.116376958350000E9     5.059802159170529E-1    2.989490768879272E-2    4.698895924179197E-4    3.569689981405642E-3    4.814850078062863E-4    3.581729803148775E-3    4.314458448339475E-1   -1.265755248477178E-1
 8.116383967400000E9     5.060167310889141E-1    2.944556704892769E-2    4.467256276174735E-4    3.575268775188461E-3    5.147033107161486E-4    3.604196398098231E-3    4.314502656522797E-1   -1.272944718947175E-1
 8.116390976450000E9     5.059838427199060E-1    2.879844530475570E-2    4.623194660851342E-4    3.555689647330247E-3    5.327658059808656E-4    3.594374540861276E-3    4.312440426082612E-1   -1.275941072201069E-1
 8.116397985500000E9     5.059651400248338E-1    2.835875564871751E-2    4.536456386155431E-4    3.589819677656242E-3    4.763485809524193E-4    3.630320285727672E-3    4.310430115689897E-1   -1.281112416484813E-1
 8.116404994550000E9     5.060618468941195E-1    2.784028510467534E-2    4.552809111933227E-4    3.581882371099273E-3    5.160980329818380E-4    3.607743544302565E-3    4.309481081747452E-1   -1.284624123229397E-1
 8.116412003600000E9     5.060523535023410E-1    2.726002818055168E-2    4.649677953890838E-4    3.572649922707509E-3    5.175128725156493E-4    3.618770382051591E-3    4.307971998616694E-1   -1.290697597157705E-1
 8.116419012650000E9     5.060500368995249E-1    2.669985159713431E-2    5.062363608955475E-4    3.552197139188537E-3    5.464983965198678E-4    3.626311902987032E-3    4.307096577428944E-1   -1.295439535728586E-1
 8.116426021700000E9     5.060426378900876E-1    2.629452443977536E-2    4.768116195588151E-4    3.557947683137697E-3    5.599497707619172E-4    3.583332113082046E-3    4.306268849205545E-1   -1.299323204517747E-1
 8.116433030750000E9     5.060027919757359E-1    2.568030560189944E-2    4.765337483581632E-4    3.580158338721578E-3    5.265902462871470E-4    3.623436934273912E-3    4.304984207317498E-1   -1.305379200945737E-1
 8.116440039800000E9     5.061144485754054E-1    2.517784994346452E-2    4.934037663538555E-4    3.579763150680251E-3    5.532978416293553E-4    3.586900130682906E-3    4.303751555011346E-1   -1.307774693778670E-1
 8.116447048850000E9     5.061154754074288E-1    2.460553893213137E-2    4.912463165313137E-4    3.559984400987628E-3    5.498585057015445E-4    3.658952506230299E-3    4.302288703146200E-1   -1.312619537246973E-1
 8.116454057900000E9     5.061692931733472E-1    2.408857428440210E-2    4.990459709570434E-4    3.573791514464975E-3    5.502496119993372E-4    3.640455121387662E-3    4.300069832648770E-1   -1.318926732209439E-1
 8.116461066950000E9     5.061628706823995E-1    2.359130779701945E-2    4.919878413090560E-4    3.563502549759538E-3    5.597970042689879E-4    3.609668363688772E-3    4.299222829250604E-1   -1.322081131938672E-1
 8.116468076000000E9     5.061223321820644E-1    2.309122104248459E-2    5.032214133464037E-4    3.572075326208810E-3    5.663528307514602E-4    3.638461023985635E-3    4.299208760808453E-1   -1.327549477870807E-1
 8.116475085050000E9     5.062055835426342E-1    2.248305735059437E-2    5.213489467145040E-4    3.577368690985187E-3    5.652139793897015E-4    3.619091354552840E-3    4.297038433336901E-1   -1.332437784762980E-1
 8.116482094100000E9     5.061521794791667E-1    2.211840918826031E-2    5.318726863556739E-4    3.597406816033872E-3    5.783793852441773E-4    3.648062337767707E-3    4.295940310861220E-1   -1.337192967365493E-1
 8.116489103150000E9     5.062022935786742E-1    2.144749322509047E-2    5.509476142615308E-4    3.587981875300884E-3    5.744810821155151E-4    3.601019443206382E-3    4.294636210190513E-1   -1.340303678201228E-1
 8.116496112200000E9     5.061230292623894E-1    2.097700426606207E-2    5.437863025790671E-4    3.584603759771302E-3    5.987022142241325E-4    3.629719533008489E-3    4.293724118955073E-1   -1.347761025095293E-1
 8.116503121250000E9     5.062206995918878E-1    2.041301206108587E-2    5.283162863110060E-4    3.586178879449137E-3    6.076129564015866E-4    3.645205583093771E-3    4.293490702974541E-1   -1.351874707861862E-1
 8.116510130300000E9     5.062625618450057E-1    1.997058790290105E-2    5.099677273761896E-4    3.603048889413719E-3    6.028864915667945E-4    3.650128449144815E-3    4.291701196348129E-1   -1.356334555278003E-1
 8.116517139350000E9     5.062739221294001E-1    1.931869827814049E-2    5.369847796858569E-4    3.617108063553161E-3    5.793211719667833E-4    3.665917875460126E-3    4.290226909548472E-1   -1.362310081172320E-1
 8.116524148400000E9     5.062765819051562E-1    1.883790755906951E-2    5.591169908285792E-4    3.611166517191765E-3    6.176535910789875E-4    3.652648586570034E-3    4.287791771636134E-1   -1.364484753894386E-1
 8.116531157450000E9     5.063030258306129E-1    1.827287647917887E-2    5.652712617615959E-4    3.604068381071454E-3    6.041949849405629E-4    3.693889524700315E-3    4.287705363754052E-1   -1.371427537292866E-1
 8.116538166500000E9     5.062803149001841E-1    1.779483106073183E-2    5.491390667744620E-4    3.603577552580606E-3    6.228288710404778E-4    3.671622784415865E-3    4.284871184434497E-1   -1.375014990392914E-1
 8.116545175550000E9     5.063234945444575E-1    1.725084964071807E-2    5.590220912022700E-4    3.588523347850693E-3    6.174281785978141E-4    3.655822417622504E-3    4.284781715964990E-1   -1.378939569033144E-1
 8.116552184600000E9     5.063785127657409E-1    1.671247345463488E-2    5.576290191748241E-4    3.615024540129805E-3    6.284213144151485E-4    3.623745850591458E-3    4.282660662360332E-1   -1.384296731945392E-1
 8.116559193650000E9     5.062078379483770E-1    1.621304680687697E-2    5.422155544838856E-4    3.607915043930120E-3    6.477021864235055E-4    3.657046784069165E-3    4.281221072532622E-1   -1.387894066127108E-1
 8.116566202700000E9     5.062600583818397E-1    1.550586200669104E-2    5.680800434914524E-4    3.612490246719534E-3    6.220360406266800E-4    3.646348120026898E-3    4.279609756782363E-1   -1.393100838460994E-1
 8.116573211750000E9     5.062332061517560E-1    1.503376961417904E-2    5.527981533270036E-4    3.605583018877526E-3    6.225885044997961E-4    3.695462983185602E-3    4.278528550696119E-1   -1.397666413387726E-1
 8.116580220800000E9     5.062741212092150E-1    1.454272537799322E-2    5.986543248436922E-4    3.632703494196419E-3    6.362389361097394E-4    3.685677041741982E-3    4.277915344741318E-1   -1.403216651352169E-1
 8.116587229850000E9     5.063038200029277E-1    1.405515142465887E-2    6.028571543883587E-4    3.606428648280562E-3    6.257531164586644E-4    3.693458183830460E-3    4.275848897397692E-1   -1.407536876679725E-1
 8.116594238900000E9     5.063127248867465E-1    1.358612861572189E-2    5.931334832153442E-4    3.632617562376764E-3    6.413166856840940E-4    3.669140928906194E-3    4.275710351332841E-1   -1.413558168225928E-1
 8.116601247950000E9     5.063583284446221E-1    1.292525781602603E-2    6.163035892030588E-4    3.638738605463208E-3    6.634815924040881E-4    3.686772680390999E-3    4.274182616997644E-1   -1.417841258685990E-1
 8.116608257000000E9     5.063067981220937E-1    1.247471349412502E-2    6.390560797414156E-4    3.622117872783834E-3    6.337784809370535E-4    3.669854443871987E-3    4.273010359837123E-1   -1.422319947254034E-1
 8.116615266050000E9     5.064234495437193E-1    1.185089573370127E-2    6.112075545539235E-4    3.638951296656375E-3    6.875033636882099E-4    3.667784802431779E-3    4.271921843405910E-1   -1.427701688970293E-1
 8.116622275100000E9     5.062201840937907E-1    1.144848032405066E-2    5.776296199831288E-4    3.644315248569281E-3    6.795776866184542E-4    3.714676834489153E-3    4.270697447274207E-1   -1.431117768780474E-1
 8.116629284150000E9     5.062488559398528E-1    1.087565647425125E-2    6.347301429961194E-4    3.622866887694282E-3    6.674051225602027E-4    3.716058323753963E-3    4.267400169339299E-1   -1.436710622502340E-1
 8.116636293200000E9     5.062527177038054E-1    1.030759370382910E-2    6.226282574528334E-4    3.651171796120185E-3    6.717761338679563E-4    3.684363644083002E-3    4.266782276337256E-1   -1.439616606309440E-1
 8.116643302250000E9     5.062949765367020E-1    9.712266120329747E-3    6.108148785100565E-4    3.632675573815382E-3    6.938127677763014E-4    3.705732096175985E-3    4.265682190325064E-1   -1.445350524938698E-1
 8.116650311300000E9     5.062307572730010E-1    9.232888707838255E-3    6.345891403633376E-4    3.646618238548672E-3    6.881751995104768E-4    3.724960385639045E-3    4.263826824397401E-1   -1.448355229466982E-1
 8.116657320350000E9     5.062375454944404E-1    8.628485023310361E-3    6.397288966927959E-4    3.648670421090086E-3    6.739743194169681E-4    3.702638393668943E-3    4.262005936658620E-1   -1.454491451922572E-1
 8.116664329400000E9     5.063819726046284E-1    8.202384174641838E-3    6.278524929960896E-4    3.664416791532959E-3    7.106280777997621E-4    3.705941868101557E-3    4.261239579592321E-1   -1.458742209011686E-1
 8.116671338450000E9     5.063342755433435E-1    7.727886186964996E-3    6.593649050155488E-4    3.656148989851231E-3    7.024612500390331E-4    3.669877379088215E-3    4.260836406940229E-1   -1.463159717915999E-1
 8.116678347500000E9     5.063606548016825E-1    6.991959537541777E-3    6.655905472567484E-4    3.647696811230052E-3    7.062015186244048E-4    3.719237644906104E-3    4.259282364431247E-1   -1.468287020214281E-1
