#  HZ   S   RI   R     50.00 
! Rohde & Schwarz Vector Network Analyzer 
! Rohde-Schwarz,ZNB20-2Port,1311601062101988,3.16
! Created: UTC 3/20/2024, 11:53:07 AM
! freq[Hz]                re:S11                  im:S11                  re:S21                  im:S21                  re:S12                  im:S12                  re:S22                  im:S22
 8.116068527000000E9     5.045132586965041E-1    5.317569086877180E-2    2.678805375705384E-4    3.511848827680862E-3    3.299339272767724E-4    3.563147211679286E-3    4.363344530668860E-1   -1.058062231403425E-1
 8.116075450850000E9     5.044905045102455E-1    5.254092460014186E-2    2.707061414714985E-4    3.532351127857351E-3    3.525657711846598E-4    3.578971702638350E-3    4.360289589955858E-1   -1.062999528302373E-1
 8.116082374700000E9     5.044571847196599E-1    5.196628917242219E-2    2.726938884867829E-4    3.502766966272925E-3    3.331269036421546E-4    3.526578420852204E-3    4.359668245602920E-1   -1.067286651555019E-1
 8.116089298550000E9     5.045716511673459E-1    5.160116545209057E-2    2.722866784121782E-4    3.498881701139754E-3    3.324300135537668E-4    3.550669831564903E-3    4.358123994530498E-1   -1.072047242839608E-1
 8.116096222400000E9     5.046724740163232E-1    5.110443178317688E-2    2.887644617645351E-4    3.502202343528924E-3    3.335162116450444E-4    3.552036518551186E-3    4.357807124474625E-1   -1.076106639018803E-1
 8.116103146250000E9     5.046488657870630E-1    5.048745982209067E-2    2.752441497700850E-4    3.497551245383342E-3    3.417888701966287E-4    3.559455347523058E-3    4.357346562139158E-1   -1.080284101963335E-1
 8.116110070100000E9     5.046483489461489E-1    4.993027398553846E-2    2.982967376640201E-4    3.502674413360105E-3    3.920733107632918E-4    3.543719630340033E-3    4.355346575891806E-1   -1.086819109899913E-1
 8.116116993950000E9     5.048049288995607E-1    4.940091667552312E-2    3.055824349050030E-4    3.508314298524748E-3    3.754995867001205E-4    3.570668337056623E-3    4.354093722498686E-1   -1.090495943163856E-1
 8.116123917800000E9     5.048005618199591E-1    4.890616511052678E-2    3.232880020340940E-4    3.516999003876074E-3    3.757542958455150E-4    3.550710434830328E-3    4.353653711049118E-1   -1.095451547873200E-1
 8.116130841650000E9     5.048867006205056E-1    4.844978826061719E-2    3.061127377160916E-4    3.479877608761386E-3    3.696700663423197E-4    3.564385238191967E-3    4.353058881149398E-1   -1.100185521049253E-1
 8.116137765500000E9     5.049721605138802E-1    4.785028497104219E-2    3.165178533202870E-4    3.541006378588768E-3    3.588151075358019E-4    3.566530992430856E-3    4.352973144481256E-1   -1.104969354113003E-1
 8.116144689350000E9     5.048764991176348E-1    4.740632116576278E-2    3.048521448902707E-4    3.527527721710674E-3    3.719869306168954E-4    3.567161773625577E-3    4.350216750883171E-1   -1.109918373637213E-1
 8.116151613200000E9     5.050993749034594E-1    4.682053835598544E-2    3.120355962732168E-4    3.511156292732407E-3    3.527125081754053E-4    3.584102952271376E-3    4.348375696999975E-1   -1.114753795536887E-1
 8.116158537050000E9     5.049665613110368E-1    4.637506271139600E-2    3.148822025984422E-4    3.516746593276708E-3    3.802386608987775E-4    3.600780422830901E-3    4.349439754580418E-1   -1.121024747736118E-1
 8.116165460900000E9     5.049900402486635E-1    4.594363212974530E-2    3.299538654992220E-4    3.490818037395837E-3    3.775935476716767E-4    3.553613196160345E-3    4.346728843365936E-1   -1.122898003413137E-1
 8.116172384750000E9     5.051228504087907E-1    4.534717273617889E-2    3.449798303611742E-4    3.520010324359782E-3    3.747897204428096E-4    3.582659153237604E-3    4.347014997502155E-1   -1.129107404011192E-1
 8.116179308600000E9     5.051883115392235E-1    4.485126837927230E-2    3.406107727323803E-4    3.511361034837325E-3    4.118422975026347E-4    3.560471458921763E-3    4.345279195701766E-1   -1.133107699133087E-1
 8.116186232450000E9     5.051940627099205E-1    4.425884368375026E-2    3.465102043260032E-4    3.515582426197777E-3    3.718966515120372E-4    3.589286327037705E-3    4.343900517183847E-1   -1.137457508453169E-1
 8.116193156300000E9     5.051244935330507E-1    4.375022198877287E-2    3.382299595441332E-4    3.521971928062135E-3    4.152915161048395E-4    3.574464260259618E-3    4.344311374302259E-1   -1.141672710237831E-1
 8.116200080150000E9     5.052453195426901E-1    4.331355803320658E-2    3.564662632027910E-4    3.515411123555314E-3    3.765993141450667E-4    3.539778053353217E-3    4.343020258686961E-1   -1.147044466626790E-1
 8.116207004000000E9     5.053330511302840E-1    4.284285020223893E-2    3.491313022232011E-4    3.514655737719150E-3    4.267323326692892E-4    3.585985810383338E-3    4.342087975136436E-1   -1.151962650791056E-1
 8.116213927850000E9     5.051939905350195E-1    4.219411570552065E-2    3.524295615237291E-4    3.504617609853345E-3    4.045770585830506E-4    3.575196403220329E-3    4.341399812043035E-1   -1.157592834139416E-1
 8.116220851700000E9     5.052762376980060E-1    4.175556636683595E-2    3.485465538518603E-4    3.503847867027774E-3    4.053089200771922E-4    3.587981849417805E-3    4.338957833849526E-1   -1.162955697116902E-1
 8.116227775550000E9     5.054278387835015E-1    4.107937023466368E-2    3.481154095598363E-4    3.527483938267695E-3    4.179936260368970E-4    3.576808954876880E-3    4.337557645000074E-1   -1.166313640451854E-1
 8.116234699400000E9     5.053911622202898E-1    4.072205520415175E-2    3.432559734225299E-4    3.526933024175226E-3    4.277248900570100E-4    3.539353025216086E-3    4.336469444012724E-1   -1.171056290445675E-1
 8.116241623250000E9     5.055513288999206E-1    4.018200208534669E-2    3.734173081732319E-4    3.509407573005857E-3    4.078086853941447E-4    3.593600385262722E-3    4.334971525358191E-1   -1.175648854365740E-1
 8.116248547100000E9     5.055244901433631E-1    3.972895806749790E-2    3.758716879601039E-4    3.520250799258582E-3    4.142221547378722E-4    3.563377751770594E-3    4.336327043212748E-1   -1.178760458356655E-1
 8.116255470950000E9     5.055213007118482E-1    3.909183672373859E-2    3.840489946470558E-4    3.503568313891774E-3    4.276160739035610E-4    3.565266970387703E-3    4.334316003961918E-1   -1.185850815568903E-1
 8.116262394800000E9     5.056470984316450E-1    3.861372547932745E-2    3.842986743739467E-4    3.549220100517382E-3    4.238101500764765E-4    3.554494739947729E-3    4.334004522715084E-1   -1.189104128036290E-1
 8.116269318650000E9     5.055372302023570E-1    3.800263066056458E-2    3.909554281607783E-4    3.513330924995114E-3    4.389764664099471E-4    3.585754947650152E-3    4.331219859160141E-1   -1.194558206482978E-1
 8.116276242500000E9     5.056137244524664E-1    3.745986792783653E-2    3.801196580325066E-4    3.544940162619920E-3    4.386696576916635E-4    3.591147408010065E-3    4.331783648314116E-1   -1.199419347729701E-1
 8.116283166350000E9     5.056448995254219E-1    3.696667907139030E-2    3.909073088386349E-4    3.537849807133963E-3    4.108810122405392E-4    3.546853747194097E-3    4.330824548023210E-1   -1.203974224043180E-1
 8.116290090200000E9     5.056456553114059E-1    3.643992906787169E-2    3.951403375770115E-4    3.537956035503474E-3    4.455825689746084E-4    3.584396076879546E-3    4.329058855921810E-1   -1.208201247670904E-1
 8.116297014050000E9     5.057284314980034E-1    3.594764986528174E-2    4.038500368989205E-4    3.527295541713250E-3    4.575353637873349E-4    3.592576271151590E-3    4.327223996196393E-1   -1.212206337680840E-1
 8.116303937900000E9     5.056916981218695E-1    3.550180335767075E-2    4.070023343924789E-4    3.555306542167310E-3    4.549836267539215E-4    3.607166039984645E-3    4.326541938259537E-1   -1.218612550595456E-1
 8.116310861750000E9     5.056911076924733E-1    3.485787152884793E-2    4.090648369542916E-4    3.542812139300333E-3    4.677594809553763E-4    3.598920823341367E-3    4.326430318175499E-1   -1.221001143680819E-1
 8.116317785600000E9     5.057955980420135E-1    3.431437793163840E-2    3.955774891276332E-4    3.551300940530282E-3    4.583281932813306E-4    3.593977578116624E-3    4.323327298579799E-1   -1.226214890036975E-1
 8.116324709450000E9     5.058001920592358E-1    3.389802806498865E-2    4.170408651095684E-4    3.530756522087806E-3    4.810453257532656E-4    3.621782291189952E-3    4.323739252371405E-1   -1.230634211295203E-1
 8.116331633300000E9     5.058113360088188E-1    3.334873401435296E-2    3.998867824538208E-4    3.574300808301284E-3    4.799575765196807E-4    3.585615524075081E-3    4.322281208905108E-1   -1.235712038863326E-1
 8.116338557150000E9     5.058348442676038E-1    3.283198806873156E-2    4.249360018742712E-4    3.531444611986319E-3    4.687515194328704E-4    3.614892959402159E-3    4.320306914902082E-1   -1.241893006961457E-1
 8.116345481000000E9     5.058806801956582E-1    3.232159105526215E-2    3.890197978722050E-4    3.551627881254587E-3    4.672392926174113E-4    3.602947142416592E-3    4.320413364468150E-1   -1.245424710909024E-1
 8.116352404850000E9     5.059465466806792E-1    3.174261584157421E-2    4.508408152935221E-4    3.525196666224099E-3    4.943381040505228E-4    3.608509060702216E-3    4.319844593541413E-1   -1.250415316566665E-1
 8.116359328700000E9     5.058686230109455E-1    3.124520498616571E-2    4.259206083648822E-4    3.560363328273456E-3    4.699262468989396E-4    3.617275527850699E-3    4.317271110788508E-1   -1.254477570395197E-1
 8.116366252550000E9     5.059463795815753E-1    3.077109311288275E-2    4.603876697139083E-4    3.536810222292975E-3    4.587910924852583E-4    3.616000282065214E-3    4.316915816782836E-1   -1.260088510194723E-1
 8.116373176400000E9     5.058883429771894E-1    3.018471098733191E-2    4.572809465107481E-4    3.541002879588110E-3    4.720359249366912E-4    3.639267209130675E-3    4.314293277662528E-1   -1.263771536994722E-1
 8.116380100250000E9     5.059617599447447E-1    2.986710170429762E-2    4.260134940213502E-4    3.569333125723155E-3    5.291862363003624E-4    3.616544293714209E-3    4.313370326968626E-1   -1.268726765294370E-1
 8.116387024100000E9     5.059990096796757E-1    2.907578856804647E-2    4.577117830603041E-4    3.579877703923268E-3    5.284466448197054E-4    3.614550183601006E-3    4.311811521249438E-1   -1.272364596450094E-1
 8.116393947950000E9     5.059636193986791E-1    2.859150111100389E-2    4.368471487758659E-4    3.547969442711074E-3    5.491553173023633E-4    3.603266162824991E-3    4.310366659499255E-1   -1.277204897752561E-1
 8.116400871800000E9     5.060756398677468E-1    2.812314990134599E-2    4.505119647521657E-4    3.573802728271130E-3    5.278249825478956E-4    3.602475601549650E-3    4.311929963155267E-1   -1.283882452553378E-1
 8.116407795650000E9     5.060924482626153E-1    2.764684053745469E-2    4.684257751777398E-4    3.547329063413591E-3    4.888588134847748E-4    3.582104250611750E-3    4.309309615806611E-1   -1.288382586698030E-1
 8.116414719500000E9     5.060697502156249E-1    2.702395870276573E-2    4.798732394852720E-4    3.555149374701805E-3    5.045625332855761E-4    3.621713533208986E-3    4.308162142609857E-1   -1.291523481584616E-1
 8.116421643350000E9     5.060776689368874E-1    2.658954146831590E-2    4.711233482717520E-4    3.559283589111055E-3    5.286657737312770E-4    3.612685753002881E-3    4.306209768838798E-1   -1.297924249219361E-1
 8.116428567200000E9     5.060854872863568E-1    2.612830706196818E-2    4.937211383200164E-4    3.559811137864003E-3    5.350723554326918E-4    3.625666494092341E-3    4.305316434661750E-1   -1.300980595172420E-1
 8.116435491050000E9     5.061097343140551E-1    2.547342224386352E-2    5.140162608362262E-4    3.593360235788655E-3    5.288534406097980E-4    3.632073727214646E-3    4.304905006899413E-1   -1.306602070752054E-1
 8.116442414900000E9     5.060584701525077E-1    2.504145560322564E-2    5.171537182328045E-4    3.554881886905567E-3    5.483435272355235E-4    3.628236771251121E-3    4.303855837368147E-1   -1.310990494329337E-1
 8.116449338750000E9     5.061349010907159E-1    2.445785295845641E-2    4.963940633781493E-4    3.584355059902828E-3    5.555018958174440E-4    3.671486538477906E-3    4.300707782756296E-1   -1.316060245332040E-1
 8.116456262600000E9     5.061296000819114E-1    2.396918243118427E-2    4.809500059165370E-4    3.559363606899971E-3    5.450862085429751E-4    3.627261229431805E-3    4.300256781823565E-1   -1.320819124092078E-1
 8.116463186450000E9     5.061456480888121E-1    2.341280801733723E-2    4.803356379509900E-4    3.563707210254851E-3    5.222563536352421E-4    3.647064421592250E-3    4.299071407655489E-1   -1.324912314629812E-1
 8.116470110300000E9     5.061558516508319E-1    2.289986036475071E-2    5.363569079427040E-4    3.589339807981890E-3    5.659237888966899E-4    3.656265630187648E-3    4.298459282207422E-1   -1.330377277985476E-1
 8.116477034150000E9     5.062015830826235E-1    2.246648696424842E-2    4.835289834792368E-4    3.574974688674739E-3    5.670710376979337E-4    3.603980611891167E-3    4.297209704680480E-1   -1.334781153736158E-1
 8.116483958000000E9     5.062819794691427E-1    2.175323450359059E-2    5.111835305313728E-4    3.609554367443324E-3    5.558385621587786E-4    3.640388619237676E-3    4.296242647624102E-1   -1.337716070177639E-1
 8.116490881850000E9     5.062196304048959E-1    2.132110826800738E-2    5.215717445756608E-4    3.608045589579771E-3    5.848594693320409E-4    3.671877504387659E-3    4.294658809020603E-1   -1.343330468866268E-1
 8.116497805700000E9     5.061986922757428E-1    2.088082234588609E-2    5.409299639396772E-4    3.600191279608770E-3    5.798196091047324E-4    3.619297722184697E-3    4.292601522653428E-1   -1.348461340679150E-1
 8.116504729550000E9     5.062446358339699E-1    2.037647414275017E-2    5.330170188758270E-4    3.610715217545482E-3    6.133716970622766E-4    3.614477719523486E-3    4.291243293848336E-1   -1.352577873076581E-1
 8.116511653400000E9     5.062609064289949E-1    1.976345382601276E-2    5.322568020123195E-4    3.603363178612797E-3    5.895833948737233E-4    3.635215978337432E-3    4.291327220035394E-1   -1.357812380814372E-1
 8.116518577250000E9     5.062627028480848E-1    1.929263082721196E-2    5.104623323729150E-4    3.577760476516450E-3    5.952794652125936E-4    3.650367425627853E-3    4.289648661823113E-1   -1.362113464793448E-1
 8.116525501100000E9     5.062817575087347E-1    1.868866264134528E-2    5.457058686217572E-4    3.602159014386099E-3    5.804560562370257E-4    3.658689909905377E-3    4.288127306234648E-1   -1.366698812787565E-1
 8.116532424950000E9     5.063492260441872E-1    1.826012193084425E-2    5.581491469456130E-4    3.621505668955243E-3    6.213950873022980E-4    3.667433239166406E-3    4.287369386198745E-1   -1.371215868921834E-1
 8.116539348800000E9     5.061812805010898E-1    1.769992588876405E-2    5.545343630777805E-4    3.604970813594131E-3    6.088532007207007E-4    3.638755767576675E-3    4.284968820051955E-1   -1.376514600224920E-1
 8.116546272650000E9     5.063118865079680E-1    1.712227891473541E-2    5.548139117402569E-4    3.602633103033877E-3    6.209276810363386E-4    3.648827702030880E-3    4.284046066438233E-1   -1.379244492464816E-1
 8.116553196500000E9     5.062650614454789E-1    1.660170919753296E-2    5.740328513437585E-4    3.580711762415037E-3    6.136581924636149E-4    3.670770048139849E-3    4.282636290850579E-1   -1.384372007508039E-1
 8.116560120350000E9     5.063187392086586E-1    1.614432023433249E-2    5.720938550123528E-4    3.582223025562038E-3    6.136288026214339E-4    3.653440007060228E-3    4.280705336661506E-1   -1.389401849078512E-1
 8.116567044200000E9     5.063023237137361E-1    1.556620715347881E-2    5.380961144206760E-4    3.612968396527430E-3    6.345784940904506E-4    3.667579788667436E-3    4.280021925375791E-1   -1.394494736057259E-1
 8.116573968050000E9     5.062683794274764E-1    1.492118036249575E-2    5.819411631096369E-4    3.625932145241924E-3    6.433293641171069E-4    3.693036741341602E-3    4.279902181664538E-1   -1.398899977914806E-1
 8.116580891900000E9     5.063231966861554E-1    1.447895850539595E-2    5.709579492600275E-4    3.611886773435785E-3    6.209894975845681E-4    3.681079647623050E-3    4.277823210717014E-1   -1.404443487108317E-1
 8.116587815750000E9     5.064180675985323E-1    1.404545550371043E-2    5.910285849451575E-4    3.619076768428721E-3    6.451638753431821E-4    3.660885381133658E-3    4.275760967791102E-1   -1.407410729785414E-1
 8.116594739600000E9     5.063644497426886E-1    1.351533080350477E-2    5.975496675034047E-4    3.635625593098856E-3    6.486108930895641E-4    3.664508439226115E-3    4.275483961482007E-1   -1.412538199785505E-1
 8.116601663450000E9     5.063410372426698E-1    1.301534642662617E-2    5.847879891705635E-4    3.633963064707052E-3    6.447303283671221E-4    3.690385166893463E-3    4.275318694513840E-1   -1.417149721557339E-1
 8.116608587300000E9     5.063546033734144E-1    1.248359154490175E-2    5.880809230979523E-4    3.614465143649932E-3    6.449384520424488E-4    3.739882743281125E-3    4.273080645258333E-1   -1.421798574704549E-1
 8.116615511150000E9     5.064131723128088E-1    1.191015555548611E-2    6.099135350561427E-4    3.619341234332559E-3    6.608678612311519E-4    3.637688978562612E-3    4.271447702205136E-1   -1.425607474244213E-1
 8.116622435000000E9     5.062846494932575E-1    1.133535727908246E-2    6.115639338727438E-4    3.635786500287458E-3    6.669568118702498E-4    3.664485014419346E-3    4.268780885077947E-1   -1.431589475263876E-1
 8.116629358850000E9     5.063314820536136E-1    1.072050999497326E-2    6.257203298981447E-4    3.642358182066319E-3    6.715938952127766E-4    3.722294977157592E-3    4.268061265884360E-1   -1.436995564156062E-1
 8.116636282700000E9     5.062675449460973E-1    1.031419043126732E-2    6.303571514868800E-4    3.651924764187440E-3    6.904386401360086E-4    3.670082736347098E-3    4.266809193133299E-1   -1.440273955523876E-1
 8.116643206550000E9     5.062745026955308E-1    9.784231789850863E-3    6.269860310937405E-4    3.629472736366676E-3    6.943183605998885E-4    3.691273763647472E-3    4.265663149296127E-1   -1.445956954398555E-1
 8.116650130400000E9     5.063850849995717E-1    9.248766985235971E-3    6.086477801690489E-4    3.657815352442174E-3    6.779999946263841E-4    3.689618575988382E-3    4.263352650692555E-1   -1.450020460324794E-1
 8.116657054250000E9     5.063583702757215E-1    8.787864339782197E-3    6.218879684434857E-4    3.639330025100586E-3    6.851940409548690E-4    3.729421381828199E-3    4.263009293413558E-1   -1.454557088463461E-1
 8.116663978100000E9     5.063575923340042E-1    8.241404077024459E-3    6.325657760812294E-4    3.631970231160863E-3    7.462722277057600E-4    3.716718359738213E-3    4.262205344699970E-1   -1.458810634201155E-1
 8.116670901950000E9     5.063002532745174E-1    7.617310463504810E-3    6.434354573239388E-4    3.651365478803011E-3    6.824953736918236E-4    3.713984983579817E-3    4.259428676740450E-1   -1.463181259158463E-1
 8.116677825800000E9     5.063441667511424E-1    7.102062056317179E-3    6.343685980967716E-4    3.647972576500575E-3    7.029691862535273E-4    3.673817024112660E-3    4.259729134245459E-1   -1.468825451885869E-1
 8.116684749650000E9     5.063295820869209E-1    6.524338294258011E-3    6.614149504734859E-4    3.655807144458169E-3    7.044693457398927E-4    3.696436343981173E-3    4.257685168637991E-1   -1.472549625748355E-1
 8.116691673500000E9     5.062845110257087E-1    6.243029553099556E-3    6.480240924144875E-4    3.665760648399290E-3    6.980567666524191E-4    3.714749295578382E-3    4.255344070183631E-1   -1.477903781383672E-1
