#  HZ   S   RI   R     50.00 
! Rohde & Schwarz Vector Network Analyzer 
! Rohde-Schwarz,ZNB20-2Port,1311601062101988,3.16
! Created: UTC 3/20/2024, 11:54:34 AM
! freq[Hz]                re:S11                  im:S11                  re:S21                  im:S21                  re:S12                  im:S12                  re:S22                  im:S22
 8.116268958000000E9     5.056164406861438E-1    3.839845895328983E-2    3.633709382285674E-4    3.528137443972405E-3    4.177255620328377E-4    3.568160899469758E-3    4.331826445080486E-1   -1.194470015940395E-1
 8.116275088550000E9     5.056654612054627E-1    3.789856213838452E-2    3.958222609507954E-4    3.528431167635545E-3    4.310730936938348E-4    3.594817020783265E-3    4.332874834520774E-1   -1.198083239716261E-1
 8.116281219100000E9     5.056349244734266E-1    3.754739393072267E-2    3.841663017181387E-4    3.537593544048474E-3    4.382163587812375E-4    3.560013566342867E-3    4.331340207856090E-1   -1.201720227001462E-1
 8.116287349650000E9     5.057017125401242E-1    3.688757841946676E-2    3.958450624535654E-4    3.549201635360575E-3    4.297803374867775E-4    3.579652499113020E-3    4.331056069605852E-1   -1.206469028674943E-1
 8.116293480200000E9     5.055890455037982E-1    3.654920480722184E-2    3.793610084800916E-4    3.516635787310700E-3    4.504875403149779E-4    3.595222934329300E-3    4.329076495631344E-1   -1.209010615413217E-1
 8.116299610750000E9     5.058087897545841E-1    3.602418590830679E-2    3.996139939990161E-4    3.527660099808227E-3    4.472913554126047E-4    3.601779645223141E-3    4.328468978936728E-1   -1.214748261305758E-1
 8.116305741300000E9     5.058721309917514E-1    3.538391941666944E-2    4.103641804468265E-4    3.541225791603602E-3    4.565589341945869E-4    3.590380117778918E-3    4.327313607931479E-1   -1.217359658042260E-1
 8.116311871850000E9     5.057866064768896E-1    3.493202997776882E-2    3.910633237884144E-4    3.499785294704158E-3    4.731881479080940E-4    3.596809237206480E-3    4.325804437859784E-1   -1.222010281679147E-1
 8.116318002400000E9     5.057737513060505E-1    3.466773668227689E-2    4.176174706939734E-4    3.545508698639681E-3    4.813503404222123E-4    3.558161633909335E-3    4.326272136116240E-1   -1.227201188347244E-1
 8.116324132950000E9     5.057887615720968E-1    3.418575820251593E-2    4.252913575032046E-4    3.549297742450355E-3    4.462551774647722E-4    3.640023786001805E-3    4.323862970331354E-1   -1.230252390482404E-1
 8.116330263500000E9     5.058508166526706E-1    3.361289763958296E-2    4.373825402309736E-4    3.575909491788974E-3    4.549577773786885E-4    3.580720443203603E-3    4.322662830777367E-1   -1.235872840772152E-1
 8.116336394050000E9     5.059937017070057E-1    3.315639422255959E-2    3.994735392092639E-4    3.548991543827578E-3    4.798091450526134E-4    3.573221550204163E-3    4.323427490289525E-1   -1.240944892867837E-1
 8.116342524600000E9     5.059794396899937E-1    3.289604544882353E-2    4.220725923681925E-4    3.552826079555752E-3    4.873398546119479E-4    3.578641622482232E-3    4.321185245563369E-1   -1.242996185907141E-1
 8.116348655150000E9     5.059976650644763E-1    3.237331028274239E-2    4.553083542756003E-4    3.524276704843280E-3    4.766103860742231E-4    3.571671672393205E-3    4.321302139865504E-1   -1.247520269456334E-1
 8.116354785700000E9     5.060126849768370E-1    3.175181340975017E-2    4.236052883928136E-4    3.532593525400691E-3    4.957743759566215E-4    3.603062628092762E-3    4.320481135420958E-1   -1.251606436383744E-1
 8.116360916250000E9     5.061176098192841E-1    3.146364065180182E-2    4.592975102785129E-4    3.522611420406672E-3    4.953456734700137E-4    3.574997759263587E-3    4.317914314546781E-1   -1.255477554832071E-1
 8.116367046800000E9     5.059953718992137E-1    3.092258412765377E-2    4.126108996267717E-4    3.529204718940529E-3    4.811881759523405E-4    3.592588695871243E-3    4.317632707565806E-1   -1.260899196271865E-1
 8.116373177350000E9     5.061284465072490E-1    3.042240829030756E-2    4.380995014844727E-4    3.541253408375425E-3    4.839410281660720E-4    3.594460365996026E-3    4.315315722051936E-1   -1.264131639566601E-1
 8.116379307900000E9     5.060383292292329E-1    3.004774458243345E-2    4.365810439389432E-4    3.531767037733700E-3    5.054337626332029E-4    3.607029305481679E-3    4.315659849294179E-1   -1.267613433713335E-1
 8.116385438450000E9     5.060834346277541E-1    2.942489105362587E-2    4.480810788512181E-4    3.540043007964434E-3    5.153131636397031E-4    3.599970131522675E-3    4.313162047480490E-1   -1.271158758865785E-1
 8.116391569000000E9     5.061585705809818E-1    2.907375998438372E-2    4.454980586886892E-4    3.542852485556829E-3    4.929532147764038E-4    3.623192484741298E-3    4.311824781538581E-1   -1.276326773887125E-1
 8.116397699550000E9     5.060766342280962E-1    2.853468345195918E-2    4.661362008710990E-4    3.540119003004347E-3    5.012743806749368E-4    3.578916619747659E-3    4.312568316489639E-1   -1.280796624132208E-1
 8.116403830100000E9     5.061755091692129E-1    2.811321506484990E-2    4.768141799169813E-4    3.562174431924524E-3    5.270284109103438E-4    3.607948622405989E-3    4.311720923447627E-1   -1.286402600985440E-1
 8.116409960650000E9     5.061263410863918E-1    2.764010628244687E-2    4.487440074740265E-4    3.559287272626421E-3    5.068132817545721E-4    3.610673113860777E-3    4.309476111750315E-1   -1.286874154182319E-1
 8.116416091200000E9     5.061621314515725E-1    2.729227315797307E-2    4.803883662881144E-4    3.537505555927190E-3    5.437544077729827E-4    3.623380748729898E-3    4.308774381049897E-1   -1.293184300812983E-1
 8.116422221750000E9     5.061920341554101E-1    2.659625910772715E-2    4.727316185043505E-4    3.558951842481520E-3    5.203371216575437E-4    3.627695186733583E-3    4.308731670821129E-1   -1.295995028642289E-1
 8.116428352300000E9     5.063444443271065E-1    2.624257089677871E-2    4.677622359558868E-4    3.557399034214474E-3    5.307600018433228E-4    3.600596614567490E-3    4.307153315345982E-1   -1.301466969697825E-1
 8.116434482850000E9     5.061288966557641E-1    2.580585533229773E-2    4.831186185216260E-4    3.565548391422838E-3    5.530892430097831E-4    3.588171704679506E-3    4.306057126182898E-1   -1.305456365531868E-1
 8.116440613400000E9     5.062550160888438E-1    2.538306847225575E-2    4.706476244553937E-4    3.572470878590164E-3    5.139106179201702E-4    3.587062961769336E-3    4.304529764148767E-1   -1.308740410136269E-1
 8.116446743950000E9     5.060985767480810E-1    2.495109029865281E-2    4.809062582835505E-4    3.567199622292980E-3    5.305966759477726E-4    3.623989527775674E-3    4.304832435155550E-1   -1.313649488604055E-1
 8.116452874500000E9     5.062557805247763E-1    2.443593962593993E-2    4.783350660590504E-4    3.557629073275523E-3    5.360722130095364E-4    3.607982335361710E-3    4.302854474391854E-1   -1.317814155596738E-1
 8.116459005050000E9     5.062188677513100E-1    2.408099002953641E-2    5.031305380684171E-4    3.559180005681399E-3    5.312936447891346E-4    3.647851939372391E-3    4.301776574649499E-1   -1.321572787897088E-1
 8.116465135600000E9     5.063075642164394E-1    2.353959159578224E-2    4.819785309768843E-4    3.564449022290288E-3    5.632761852768674E-4    3.611751785256270E-3    4.299775710022034E-1   -1.325807580089509E-1
 8.116471266150000E9     5.063161242006687E-1    2.304472295504227E-2    5.191599908406559E-4    3.576378854192155E-3    5.660247227752024E-4    3.607155784501206E-3    4.298795533998359E-1   -1.330426808245837E-1
 8.116477396700000E9     5.063403336905864E-1    2.267711415462901E-2    5.147698539069300E-4    3.594831255126877E-3    5.501932271538215E-4    3.638213045804617E-3    4.298363144352770E-1   -1.333975890639015E-1
 8.116483527250000E9     5.063078577406894E-1    2.204322826098734E-2    5.078444944985793E-4    3.566467807492877E-3    5.516755173494568E-4    3.637534213517988E-3    4.296249177355899E-1   -1.337821206420082E-1
 8.116489657800000E9     5.062863931579430E-1    2.164086906780802E-2    5.092259849664852E-4    3.570967059967324E-3    5.821977593152640E-4    3.624117550413660E-3    4.296586974686564E-1   -1.341232262922231E-1
 8.116495788350000E9     5.063726203231380E-1    2.115890023204214E-2    5.138914409309606E-4    3.587849525807204E-3    5.669733501220448E-4    3.637120571715971E-3    4.295170612109410E-1   -1.346500341428841E-1
 8.116501918900000E9     5.062361902976044E-1    2.070824366981766E-2    5.064856059392344E-4    3.579452136654890E-3    5.850510359671134E-4    3.657795784291443E-3    4.294708794998581E-1   -1.350432734355767E-1
 8.116508049450000E9     5.063378388475668E-1    2.027104571782955E-2    5.188047908439684E-4    3.604801835514603E-3    5.859887401352605E-4    3.657144262451954E-3    4.293489877584977E-1   -1.354022688734786E-1
 8.116514180000000E9     5.063318129572838E-1    1.982167104659819E-2    5.153295879453699E-4    3.589509524441898E-3    5.728120561029575E-4    3.631235493230685E-3    4.290506612189979E-1   -1.359803207528566E-1
 8.116520310550000E9     5.062459623954534E-1    1.929841848607617E-2    5.259959757602682E-4    3.608378026198009E-3    5.806811657458824E-4    3.626915276242626E-3    4.290928245329934E-1   -1.362682873668029E-1
 8.116526441100000E9     5.064516303514714E-1    1.884091685232904E-2    5.459031229597620E-4    3.605927510118618E-3    6.010405705949095E-4    3.648701163779916E-3    4.289235430379331E-1   -1.367629929254752E-1
 8.116532571650000E9     5.063718415103363E-1    1.839346318903486E-2    5.303281432535041E-4    3.607578628310878E-3    6.027995731210234E-4    3.667894554327007E-3    4.288243960370786E-1   -1.369038423299838E-1
 8.116538702200000E9     5.063865850098456E-1    1.786801409006102E-2    5.432234035987368E-4    3.585116636970865E-3    5.950055503809067E-4    3.655223945136787E-3    4.286828130408529E-1   -1.373706222070001E-1
 8.116544832750000E9     5.064630941192121E-1    1.748422143503828E-2    5.574295912454931E-4    3.577783431111205E-3    6.261645964962742E-4    3.662269800613257E-3    4.287057972578914E-1   -1.378248942266522E-1
 8.116550963300000E9     5.063013429453124E-1    1.697937284724090E-2    5.480772751210319E-4    3.582975745166634E-3    6.281778189410072E-4    3.655508250982310E-3    4.284208389405151E-1   -1.382674400986308E-1
 8.116557093850000E9     5.064889863846345E-1    1.644771022350786E-2    5.342695115784005E-4    3.607889965180160E-3    6.123916622346892E-4    3.658537071866588E-3    4.282000811564939E-1   -1.387691593229319E-1
 8.116563224400000E9     5.064760920214042E-1    1.606309188935449E-2    5.492644551270982E-4    3.581676622265941E-3    6.338283834642086E-4    3.679057522067760E-3    4.281840756196224E-1   -1.392293673440525E-1
 8.116569354950000E9     5.064717810657564E-1    1.558741011772515E-2    5.897830800851497E-4    3.586159742793603E-3    6.180132298965299E-4    3.643828112576219E-3    4.280393120190561E-1   -1.394440541527248E-1
 8.116575485500000E9     5.064586898529592E-1    1.524649532713109E-2    5.865580596246597E-4    3.602122283360977E-3    6.385609761436845E-4    3.659442472703621E-3    4.279577128751432E-1   -1.400257340303885E-1
 8.116581616050000E9     5.063826764151929E-1    1.463465925888444E-2    5.675243550501215E-4    3.605361388633969E-3    6.359414893523700E-4    3.660723106823902E-3    4.278993912254009E-1   -1.403418585173480E-1
 8.116587746600000E9     5.065192119924435E-1    1.427123654558421E-2    5.746204850459409E-4    3.632842990695943E-3    5.898323763927673E-4    3.662914033482301E-3    4.276576629471575E-1   -1.408782935912546E-1
 8.116593877150000E9     5.063891649707519E-1    1.377398994279710E-2    5.751845653438484E-4    3.623276532096338E-3    6.487241727302396E-4    3.675499528339964E-3    4.276219182848627E-1   -1.410683037591325E-1
 8.116600007700000E9     5.063762078534475E-1    1.324906666989116E-2    5.559997394797673E-4    3.633476834809737E-3    6.430665689891703E-4    3.659790586566812E-3    4.273997800259031E-1   -1.417458857008282E-1
 8.116606138250000E9     5.065003570555089E-1    1.279591330588432E-2    5.988231835781629E-4    3.608983490116294E-3    6.335230701887350E-4    3.673227700739154E-3    4.272716920329337E-1   -1.420318154295701E-1
 8.116612268800000E9     5.064321238342322E-1    1.232148441176734E-2    6.079016140305473E-4    3.619569500861743E-3    6.621272932276387E-4    3.637309438595184E-3    4.272649784714531E-1   -1.425139769805866E-1
 8.116618399350000E9     5.064580764283119E-1    1.195756166726352E-2    6.096369287417667E-4    3.632061279778107E-3    6.675957871329852E-4    3.647750373318403E-3    4.273000256859625E-1   -1.427637914825314E-1
 8.116624529900000E9     5.064609498726186E-1    1.145339418025310E-2    6.163742568947879E-4    3.638028659727970E-3    6.491983060062191E-4    3.667526411267738E-3    4.270264319226297E-1   -1.431390534416866E-1
 8.116630660450000E9     5.065129836363484E-1    1.103229174926444E-2    5.907071699843268E-4    3.615092650152046E-3    6.950132772235907E-4    3.673446238395849E-3    4.269559094953513E-1   -1.437316923386930E-1
 8.116636791000000E9     5.065438111927704E-1    1.055616333549812E-2    5.917905022204675E-4    3.620293157906140E-3    6.498022461693313E-4    3.676715399182192E-3    4.268514624427756E-1   -1.440533678477632E-1
 8.116642921550000E9     5.064762785532423E-1    1.001936384370545E-2    6.260257220689504E-4    3.636804002993831E-3    6.517815619794011E-4    3.698615630839341E-3    4.267827086811862E-1   -1.445426665867779E-1
 8.116649052100000E9     5.064791186834786E-1    9.556138502615556E-3    6.291995719001181E-4    3.623743886746116E-3    6.750653514782643E-4    3.686736834070452E-3    4.265816734320078E-1   -1.448145925408054E-1
 8.116655182650000E9     5.066185335953400E-1    9.135211716702129E-3    6.299844799556427E-4    3.650072747793238E-3    6.614059455468473E-4    3.677338224787740E-3    4.264036737474645E-1   -1.452187105776599E-1
 8.116661313200000E9     5.064792214767206E-1    8.610043367997982E-3    6.250976199063175E-4    3.633909746257169E-3    6.580427723480945E-4    3.692322696264774E-3    4.262661214616050E-1   -1.457959045127314E-1
 8.116667443750000E9     5.065040425733706E-1    8.085715041239065E-3    6.058604540298922E-4    3.628878979875248E-3    7.078606174934580E-4    3.730366761225186E-3    4.261742428069101E-1   -1.460271802519957E-1
 8.116673574300000E9     5.064572699451506E-1    7.689897261431487E-3    6.491264480344116E-4    3.641739070883704E-3    6.974134013357278E-4    3.711002501801712E-3    4.261097061872280E-1   -1.465457407361275E-1
 8.116679704850000E9     5.064247735617700E-1    7.197789209890048E-3    6.481348006136557E-4    3.631474418278663E-3    7.218974417179866E-4    3.699116935753334E-3    4.258721490957850E-1   -1.469885944371465E-1
 8.116685835400000E9     5.064240219004299E-1    6.736323624228103E-3    6.239376061728230E-4    3.664612370435212E-3    7.041905725032396E-4    3.696223713625796E-3    4.258630149163535E-1   -1.473566260374217E-1
 8.116691965950000E9     5.064927075544760E-1    6.292265424982671E-3    6.647753121819982E-4    3.638150053455692E-3    6.948798347000806E-4    3.702835092068634E-3    4.256129977206652E-1   -1.477838006637884E-1
 8.116698096500000E9     5.062729492697430E-1    5.783683822645556E-3    6.480864706192196E-4    3.657985371344231E-3    7.338352216575458E-4    3.665138463668165E-3    4.255655505713370E-1   -1.480147712873824E-1
 8.116704227050000E9     5.064170529561587E-1    5.373156548746528E-3    6.817814271641395E-4    3.660370696698368E-3    7.192055258181080E-4    3.696923386769262E-3    4.253935258977921E-1   -1.484730316122750E-1
 8.116710357600000E9     5.064403313757666E-1    4.952252552985642E-3    6.551012472139202E-4    3.666455633833764E-3    7.279191456206056E-4    3.704743785467173E-3    4.252003906186729E-1   -1.489998096941069E-1
 8.116716488150000E9     5.064470484005785E-1    4.368705042720820E-3    6.558416685241372E-4    3.681959907016363E-3    7.128684301470358E-4    3.723956228909136E-3    4.252068987864318E-1   -1.492680368493320E-1
 8.116722618700000E9     5.063914042136723E-1    3.973762151193632E-3    6.670129393743562E-4    3.657503361562487E-3    7.433515677013280E-4    3.729187909974506E-3    4.250693541685184E-1   -1.498760438522377E-1
 8.116728749250000E9     5.064345940922276E-1    3.483857484405917E-3    6.778923498455571E-4    3.663701681482262E-3    7.316300152239618E-4    3.729696395859407E-3    4.249795710924713E-1   -1.502083753033497E-1
 8.116734879800000E9     5.063683651662146E-1    3.054188264411077E-3    6.684506294347588E-4    3.627493544725895E-3    7.180285427724469E-4    3.730543322700328E-3    4.248237682264263E-1   -1.505927874287823E-1
 8.116741010350000E9     5.063230166149548E-1    2.544906223028303E-3    6.852738635913893E-4    3.682694511987925E-3    7.631086513870991E-4    3.708821767311404E-3    4.246992425559831E-1   -1.508475835856231E-1
 8.116747140900000E9     5.064119023886390E-1    2.042569357700399E-3    7.023301276104172E-4    3.688655992345122E-3    7.792228864397165E-4    3.718900205432060E-3    4.245252198566601E-1   -1.513566321942933E-1
 8.116753271450000E9     5.063365869245635E-1    1.574574438548336E-3    6.984088984097615E-4    3.686530556772803E-3    7.270477060500539E-4    3.736299577795148E-3    4.244117950418779E-1   -1.517692592281841E-1
 8.116759402000000E9     5.063414994285538E-1    1.095009031245245E-3    7.244403777540439E-4    3.672163170560603E-3    7.690920079283215E-4    3.722054029598694E-3    4.243366628456145E-1   -1.521259738056567E-1
 8.116765532550000E9     5.062919940242663E-1    6.900660361124696E-4    7.031788650601347E-4    3.694434581654508E-3    7.956575053943205E-4    3.729351612393658E-3    4.240900898964513E-1   -1.527191910007977E-1
 8.116771663100000E9     5.063139177496129E-1    1.793409453658989E-4    7.198899251379512E-4    3.689117210853909E-3    8.197298962885480E-4    3.737887300325751E-3    4.241082736445023E-1   -1.531097204259955E-1
 8.116777793650000E9     5.063766411940068E-1   -1.375317032034014E-4    6.973228487969058E-4    3.676408212847732E-3    8.075827025964702E-4    3.746458789140034E-3    4.238062842022379E-1   -1.535571575792064E-1
 8.116783924200000E9     5.064398787351386E-1   -7.409757534464489E-4    7.370797070775406E-4    3.690420669561281E-3    7.422868228251867E-4    3.760644501709012E-3    4.239078711890877E-1   -1.538181967310245E-1
 8.116790054750000E9     5.062107109696310E-1   -1.210920526871832E-3    7.559818957964901E-4    3.710951110521843E-3    7.784021690618050E-4    3.745277592042628E-3    4.236076974727328E-1   -1.542371146994685E-1
 8.116796185300000E9     5.062753694263677E-1   -1.648148095003947E-3    7.409469923600619E-4    3.707971240093725E-3    7.886972181402728E-4    3.768813676347248E-3    4.236723909089491E-1   -1.546402632111370E-1
 8.116802315850000E9     5.062411045029571E-1   -2.101736497666415E-3    7.258590197720786E-4    3.700294493189505E-3    7.909051340958773E-4    3.791346291142994E-3    4.235757542469882E-1   -1.551084881801827E-1
 8.116808446400000E9     5.061614664145392E-1   -2.591338049020977E-3    7.496577614020385E-4    3.721944667737492E-3    8.242442019551745E-4    3.749823860776305E-3    4.233602389206150E-1   -1.555378204987735E-1
 8.116814576950000E9     5.062948968123748E-1   -3.211747583757082E-3    7.415361873257174E-4    3.714622547794612E-3    7.897832860325590E-4    3.755775628988383E-3    4.230696619585234E-1   -1.559313341780826E-1
 8.116820707500000E9     5.062198959233084E-1   -3.555563030933009E-3    7.557885820407327E-4    3.738220299931053E-3    8.542125813637706E-4    3.768726261597331E-3    4.230485690699374E-1   -1.563159544030139E-1
