#  HZ   S   RI   R     50.00 
! Rohde & Schwarz Vector Network Analyzer 
! Rohde-Schwarz,ZNB20-2Port,1311601062101988,3.16
! Created: UTC 3/20/2024, 11:54:51 AM
! freq[Hz]                re:S11                  im:S11                  re:S21                  im:S21                  re:S12                  im:S12                  re:S22                  im:S22
 8.116321972000000E9     5.058331360919575E-1    3.443800989564336E-2    4.339711455568439E-4    3.533135510166663E-3    4.611418932300081E-4    3.602634410380783E-3    4.324494370200069E-1   -1.229855809857107E-1
 8.116327887925000E9     5.058944633153374E-1    3.396218889134886E-2    4.244358698742959E-4    3.521915471466954E-3    4.583081386655452E-4    3.594244107840682E-3    4.325207555858391E-1   -1.234789903932125E-1
 8.116333803850000E9     5.058620523073529E-1    3.357047688591426E-2    4.045530586299475E-4    3.529774461170219E-3    4.903689938573146E-4    3.640998666421736E-3    4.322427821396589E-1   -1.237811495346947E-1
 8.116339719775000E9     5.058208370442884E-1    3.302361019036784E-2    4.386124768754117E-4    3.530488532110937E-3    4.595366240404478E-4    3.565072835945310E-3    4.323187600173839E-1   -1.241035694247398E-1
 8.116345635700000E9     5.059431398080065E-1    3.267784112865821E-2    4.312278292282111E-4    3.544806670270388E-3    4.565100189909089E-4    3.582057696678820E-3    4.320062099284541E-1   -1.245482897063614E-1
 8.116351551625000E9     5.059799043003411E-1    3.217806682420263E-2    4.358381921788473E-4    3.529158537603210E-3    4.813837418017946E-4    3.619302972453511E-3    4.319996201262687E-1   -1.249802278934645E-1
 8.116357467550000E9     5.060093921391989E-1    3.176089653306808E-2    4.191983866245763E-4    3.574377481932943E-3    4.797492651793922E-4    3.600835504143320E-3    4.321319048214010E-1   -1.252781359861382E-1
 8.116363383475000E9     5.060600872477171E-1    3.125864144047765E-2    4.310986924265816E-4    3.534873375856815E-3    4.836120226415633E-4    3.601712822264185E-3    4.317935569343406E-1   -1.256700550486553E-1
 8.116369299400000E9     5.060312876659255E-1    3.072202863316968E-2    4.259375464348825E-4    3.566408667287594E-3    5.099537848358935E-4    3.624391689896868E-3    4.317943430519231E-1   -1.262442936355276E-1
 8.116375215325000E9     5.059711203250824E-1    3.030918018065317E-2    4.453865827220545E-4    3.565320594801336E-3    4.831046414423728E-4    3.592028593828043E-3    4.317190759942487E-1   -1.266040467487855E-1
 8.116381131250000E9     5.061645855320106E-1    2.988415701563590E-2    4.567183684618800E-4    3.560353755878300E-3    5.111838441177443E-4    3.612996691442333E-3    4.315956095082858E-1   -1.270089984060457E-1
 8.116387047175000E9     5.060458863125228E-1    2.936410294162028E-2    4.339225276111391E-4    3.579154839775408E-3    5.148730741462580E-4    3.616164335850726E-3    4.314934868281044E-1   -1.274342254037458E-1
 8.116392963100000E9     5.061178194485376E-1    2.896771660450590E-2    4.623514039751900E-4    3.570356780359686E-3    5.315261970890782E-4    3.565931025960817E-3    4.314144598496936E-1   -1.277852532849046E-1
 8.116398879025000E9     5.061452768452410E-1    2.840834894003784E-2    4.463460647188580E-4    3.556252620991207E-3    4.932329214231788E-4    3.606446670948144E-3    4.312265921844750E-1   -1.282102763835538E-1
 8.116404794950000E9     5.061416334359182E-1    2.801295954754206E-2    4.592568232943191E-4    3.546945491820930E-3    5.035475912360965E-4    3.641928045837162E-3    4.312551582419100E-1   -1.284739026473760E-1
 8.116410710875000E9     5.061976954556944E-1    2.760020777258270E-2    4.605880136457101E-4    3.572438443344623E-3    5.293566944492488E-4    3.570690275972130E-3    4.309432774104355E-1   -1.290987994176409E-1
 8.116416626800000E9     5.062581656979137E-1    2.721205768848869E-2    4.861713833522004E-4    3.543679828319717E-3    5.197958361486062E-4    3.620373449826537E-3    4.308782347628612E-1   -1.294637685272496E-1
 8.116422542725000E9     5.061695404577631E-1    2.672576013955397E-2    4.632413053611888E-4    3.547114559169194E-3    5.356407158994558E-4    3.597529713398427E-3    4.309029246977751E-1   -1.297766632114029E-1
 8.116428458650000E9     5.063164964939816E-1    2.639919972828477E-2    4.946720200114366E-4    3.581241333340562E-3    5.012203960759089E-4    3.590463209153642E-3    4.307008260990829E-1   -1.302348851463066E-1
 8.116434374575000E9     5.061974768982075E-1    2.572434426501259E-2    4.565555980991328E-4    3.566665582387791E-3    5.169363713261491E-4    3.593951625632918E-3    4.305689905731968E-1   -1.306225360317370E-1
 8.116440290500000E9     5.063285202222717E-1    2.533973908927520E-2    4.685614940273349E-4    3.564076853122914E-3    5.470178972131231E-4    3.630257421494101E-3    4.304855963384308E-1   -1.308169994572996E-1
 8.116446206425000E9     5.061547149860003E-1    2.506138353332102E-2    4.759359270863041E-4    3.569521070674187E-3    5.679508952729985E-4    3.587451585729382E-3    4.304419650589569E-1   -1.313874637212168E-1
 8.116452122350000E9     5.063039142858575E-1    2.454223041316771E-2    4.749680402433151E-4    3.565602324878133E-3    5.351436053119311E-4    3.595676934820807E-3    4.303689013014823E-1   -1.316641637631695E-1
 8.116458038275000E9     5.062900032893852E-1    2.403831080240445E-2    4.744446730234764E-4    3.571037080251722E-3    5.583908099257592E-4    3.593618457255971E-3    4.302234935940497E-1   -1.322704539602260E-1
 8.116463954200000E9     5.063703790987574E-1    2.368320227456097E-2    4.811255156279599E-4    3.550728632019380E-3    5.314794080082286E-4    3.609391409157492E-3    4.299679362328238E-1   -1.323869956031058E-1
 8.116469870125000E9     5.063674286303378E-1    2.320074877381065E-2    5.256068891789635E-4    3.597042810375070E-3    5.460361494273068E-4    3.652124571997231E-3    4.300174194549784E-1   -1.328509880032618E-1
 8.116475786050000E9     5.063701470431099E-1    2.274252090650028E-2    5.078244896090261E-4    3.586721124369326E-3    5.345030634193599E-4    3.612288011466404E-3    4.298991661670091E-1   -1.333372911808232E-1
 8.116481701975000E9     5.063668792611032E-1    2.231038875740669E-2    4.982891227751429E-4    3.578745028420669E-3    5.754148476909818E-4    3.642734369563460E-3    4.297621237924883E-1   -1.337990996599736E-1
 8.116487617900000E9     5.062912295205716E-1    2.182079876284142E-2    4.963039409183799E-4    3.592083863924050E-3    5.812645949501796E-4    3.621512216675348E-3    4.297318992630192E-1   -1.340694100084554E-1
 8.116493533825000E9     5.062731584752379E-1    2.135291923507983E-2    5.278249280143467E-4    3.569905748571306E-3    5.718220049848758E-4    3.630015069125639E-3    4.296765602679338E-1   -1.344973813785894E-1
 8.116499449750000E9     5.062886449460915E-1    2.086011559531728E-2    5.204968029744989E-4    3.558609150051655E-3    5.576639429220214E-4    3.619412022139548E-3    4.295004655228367E-1   -1.349995136325486E-1
 8.116505365675000E9     5.064282421798626E-1    2.047427195890953E-2    5.112111638412491E-4    3.573352662533473E-3    5.628474987948410E-4    3.624666732229912E-3    4.293450872204117E-1   -1.354521489486828E-1
 8.116511281600000E9     5.063963772884396E-1    1.993616660550203E-2    5.026395819198016E-4    3.564137422540239E-3    5.867188458080084E-4    3.642061075746101E-3    4.292225880292484E-1   -1.356762363061612E-1
 8.116517197525000E9     5.064244157802826E-1    1.967291585180131E-2    5.149332599083415E-4    3.590038637344718E-3    5.876711483433036E-4    3.633081750374495E-3    4.291294293135112E-1   -1.360533734312817E-1
 8.116523113450000E9     5.064232057159855E-1    1.919294261129556E-2    5.218066454471964E-4    3.586741128144459E-3    5.891317353708228E-4    3.654612964602403E-3    4.290040766513339E-1   -1.364877699636975E-1
 8.116529029375000E9     5.064673268180336E-1    1.864326216699664E-2    5.428773699621100E-4    3.592555537394364E-3    5.974472507376807E-4    3.625605331238694E-3    4.289412332382590E-1   -1.367748995009975E-1
 8.116534945300000E9     5.063941864731897E-1    1.824688233382329E-2    5.597622948065183E-4    3.600864778127991E-3    6.033362222446964E-4    3.609639863103522E-3    4.286505091762700E-1   -1.372091170333577E-1
 8.116540861225000E9     5.063406259861665E-1    1.779020647413206E-2    5.440277132343891E-4    3.587121883819121E-3    5.794958406668966E-4    3.619173795402305E-3    4.286270682106589E-1   -1.377005177621797E-1
 8.116546777150000E9     5.063941769183841E-1    1.734151490769904E-2    5.473003354496264E-4    3.608382895344515E-3    6.039571536656608E-4    3.635832966111893E-3    4.286139833369653E-1   -1.382161474419055E-1
 8.116552693075000E9     5.063491162287800E-1    1.690292145526577E-2    5.605472817483141E-4    3.602699182473629E-3    5.869256308349647E-4    3.642878315633822E-3    4.285322745744976E-1   -1.385829832493449E-1
 8.116558609000000E9     5.064463180519091E-1    1.641762848133729E-2    5.593882815573318E-4    3.576435981249346E-3    6.395274387986926E-4    3.637979171045502E-3    4.283188226861060E-1   -1.389134447925298E-1
 8.116564524925000E9     5.063004066826334E-1    1.599183130292328E-2    5.377164135638289E-4    3.595928913682416E-3    6.175694102958986E-4    3.674629651233338E-3    4.282992920441924E-1   -1.392871525268431E-1
 8.116570440850000E9     5.064582846187963E-1    1.549035805936085E-2    5.606089867103130E-4    3.609037068091456E-3    6.019767289591022E-4    3.662855579740270E-3    4.281608656949716E-1   -1.396727222377471E-1
 8.116576356775000E9     5.065270956844804E-1    1.517216880629520E-2    5.619351016502793E-4    3.594069052071633E-3    6.304191289059313E-4    3.642267067094625E-3    4.280560536909514E-1   -1.400608519435269E-1
 8.116582272700000E9     5.065533866006594E-1    1.457357279709520E-2    5.585993202163904E-4    3.615430801983954E-3    6.211541965822009E-4    3.648879154877096E-3    4.278079357608788E-1   -1.404161161689970E-1
 8.116588188625000E9     5.064612298204773E-1    1.421066580439231E-2    5.772299558328457E-4    3.609368247586165E-3    6.462814379245112E-4    3.666324133220025E-3    4.277839344725322E-1   -1.408235361730467E-1
 8.116594104550000E9     5.064494073532407E-1    1.370135235143262E-2    5.710793411453466E-4    3.617209936608093E-3    6.480710642636669E-4    3.629130648674993E-3    4.276894789093235E-1   -1.412183685936652E-1
 8.116600020475000E9     5.063774442317498E-1    1.333691176979376E-2    5.907773277582037E-4    3.636918712177030E-3    6.346696766733730E-4    3.644301037960213E-3    4.274501339825761E-1   -1.416159183475517E-1
 8.116605936400000E9     5.065170233047587E-1    1.286795098933257E-2    5.759333148783956E-4    3.614210705200978E-3    6.485507502384396E-4    3.682206155426282E-3    4.274280570966609E-1   -1.421288130408929E-1
 8.116611852325000E9     5.064975170467558E-1    1.235984724380781E-2    5.989361641492541E-4    3.626258163944670E-3    6.270816690457261E-4    3.672356553356981E-3    4.273596554052375E-1   -1.424764456978949E-1
 8.116617768250000E9     5.064091792708810E-1    1.187471735171680E-2    5.786937324905081E-4    3.620363037203261E-3    6.342229939181014E-4    3.663018091764693E-3    4.271613647692273E-1   -1.429251313043705E-1
 8.116623684175000E9     5.065170379608156E-1    1.149253485557118E-2    6.072370083772783E-4    3.616437433441804E-3    6.725062891524268E-4    3.673484554896862E-3    4.270790659113914E-1   -1.432544644207139E-1
 8.116629600100000E9     5.065609958243611E-1    1.109316939169295E-2    5.966647000154585E-4    3.630854876646227E-3    6.722642117887463E-4    3.695041831008387E-3    4.270138820672913E-1   -1.436020847715409E-1
 8.116635516025000E9     5.064780306049498E-1    1.068166513068150E-2    6.226400130839118E-4    3.626472337512564E-3    6.772880824428122E-4    3.716120506150377E-3    4.268546445187753E-1   -1.441181714857909E-1
 8.116641431950000E9     5.065448506500144E-1    1.023514173825868E-2    6.343883583662429E-4    3.612118558933232E-3    6.576944729922420E-4    3.683902857111240E-3    4.265898973645790E-1   -1.443557267310122E-1
 8.116647347875000E9     5.064340746305596E-1    9.761686494852071E-3    6.407307007743123E-4    3.625446933574647E-3    6.680935739806818E-4    3.670245869842394E-3    4.266080579896193E-1   -1.448943894855029E-1
 8.116653263800000E9     5.065028413073559E-1    9.217301667153672E-3    6.195447531518792E-4    3.611443052645498E-3    6.428744064863254E-4    3.694108098971395E-3    4.266243340430713E-1   -1.452107607745179E-1
 8.116659179725000E9     5.065285403399935E-1    8.787138672457112E-3    6.193492482542736E-4    3.649774097860191E-3    6.885276962739380E-4    3.676393791085088E-3    4.263973608636225E-1   -1.456780829160183E-1
 8.116665095650000E9     5.066108025720688E-1    8.396433825553950E-3    6.421746487416439E-4    3.623508996750583E-3    7.138064888314946E-4    3.697081010830397E-3    4.264036479161243E-1   -1.459604615722097E-1
 8.116671011575000E9     5.065011913702938E-1    7.862379316116375E-3    6.214448689728224E-4    3.631133259744976E-3    6.695793380419896E-4    3.683241827208062E-3    4.260952003899016E-1   -1.464009886539357E-1
 8.116676927500000E9     5.065129572203209E-1    7.556747615042452E-3    6.224667304382317E-4    3.661711584741691E-3    7.019702818228612E-4    3.708654324154222E-3    4.260722968849316E-1   -1.467445004475183E-1
 8.116682843425000E9     5.064643096191288E-1    7.002869616759496E-3    6.302948378205108E-4    3.646000453197911E-3    6.905478915325214E-4    3.682893237870328E-3    4.259323498094394E-1   -1.472025663587660E-1
 8.116688759350000E9     5.065192072489874E-1    6.643790091056741E-3    6.467905408411343E-4    3.647011539914008E-3    6.993192690073778E-4    3.675123134855311E-3    4.258108862802393E-1   -1.474848010273203E-1
 8.116694675275000E9     5.064182159438342E-1    6.104012446825705E-3    6.587892330214759E-4    3.664667981869889E-3    7.234949935176790E-4    3.705484280589175E-3    4.256849484297167E-1   -1.479084674080596E-1
 8.116700591200000E9     5.065656607218373E-1    5.711255322648297E-3    6.803681036565288E-4    3.635008421007572E-3    7.205254930784863E-4    3.702007656797371E-3    4.256406118663871E-1   -1.483015905925593E-1
 8.116706507125000E9     5.065179674225744E-1    5.351526987346219E-3    6.570184519814021E-4    3.661924209067195E-3    7.089032615638700E-4    3.724341693058389E-3    4.254786114125927E-1   -1.488050031159173E-1
 8.116712423050000E9     5.064700663633721E-1    4.774284824224393E-3    6.605136956941074E-4    3.670582903893557E-3    7.122861550122574E-4    3.680385734214512E-3    4.252645949451004E-1   -1.490836434712955E-1
 8.116718338975000E9     5.065162035602682E-1    4.327214414101326E-3    6.680795363352537E-4    3.663923471838656E-3    7.126439896992247E-4    3.718953646416754E-3    4.252332689274922E-1   -1.495965140176888E-1
 8.116724254900000E9     5.063780979643022E-1    3.857739157963456E-3    6.714436234610537E-4    3.657166749009965E-3    7.628802732038449E-4    3.712690856419360E-3    4.250337809950070E-1   -1.499259661497807E-1
 8.116730170825000E9     5.063938798465207E-1    3.373714198557056E-3    6.863085699070918E-4    3.660205508180158E-3    7.210501910644396E-4    3.722682789440886E-3    4.248956048823800E-1   -1.504659773840123E-1
 8.116736086750000E9     5.064765138362377E-1    2.946378000491314E-3    7.009828353376132E-4    3.642408131056454E-3    7.391225604984490E-4    3.696458372685230E-3    4.247132858125987E-1   -1.507214386619335E-1
 8.116742002675000E9     5.064716754991975E-1    2.483461558578641E-3    7.178330050347698E-4    3.678249864226235E-3    7.473539587170615E-4    3.726294770709720E-3    4.246273210870917E-1   -1.510541926873785E-1
 8.116747918600000E9     5.064594206385693E-1    2.024896734804140E-3    6.647075566975234E-4    3.667887796828397E-3    7.407893699296758E-4    3.742424604020965E-3    4.244753924871972E-1   -1.516080242294869E-1
 8.116753834525000E9     5.063864947274186E-1    1.596251345156006E-3    6.957865052013995E-4    3.663371333228328E-3    7.501077403372263E-4    3.723604659375851E-3    4.244536723841341E-1   -1.518105926633150E-1
 8.116759750450000E9     5.063789784435124E-1    1.233734896579418E-3    6.721073795841692E-4    3.688301981402627E-3    7.642615759783633E-4    3.728838593649725E-3    4.241869392943875E-1   -1.523562941503968E-1
 8.116765666375000E9     5.064686858047770E-1    7.192335367113859E-4    6.803807835504478E-4    3.667950790233322E-3    7.660387696088546E-4    3.776075816263142E-3    4.242518481006854E-1   -1.526026042332516E-1
 8.116771582300000E9     5.063056897529732E-1    1.458435347268711E-4    7.110214721768528E-4    3.669716236100265E-3    7.710212434307626E-4    3.765536891000777E-3    4.241345538253077E-1   -1.531085898768380E-1
 8.116777498225000E9     5.062423515485344E-1   -1.843857594216258E-4    7.038380497587467E-4    3.689789981954608E-3    7.952141192961040E-4    3.746000805894783E-3    4.238359453441359E-1   -1.534053103770206E-1
 8.116783414150000E9     5.063408023852782E-1   -7.290616234512690E-4    7.237369539324296E-4    3.689943257617031E-3    7.879267731221386E-4    3.719779645328952E-3    4.238592739607127E-1   -1.539193475367873E-1
 8.116789330075000E9     5.062998498429644E-1   -1.135019004381728E-3    7.202833109694999E-4    3.663297005432026E-3    7.751692365175826E-4    3.746603351778903E-3    4.236054939966694E-1   -1.542835474604658E-1
 8.116795246000000E9     5.063534648510619E-1   -1.621306529342582E-3    7.327735460597452E-4    3.697437083849429E-3    7.792797250864794E-4    3.769110122383213E-3    4.235117978874069E-1   -1.545308698046111E-1
 8.116801161925000E9     5.063105173557164E-1   -1.996729535276054E-3    7.215754127152431E-4    3.708558845870218E-3    7.981578285165447E-4    3.783644377248436E-3    4.234817108841049E-1   -1.550118325834187E-1
 8.116807077850000E9     5.063288015394647E-1   -2.610891282878888E-3    7.519249656678356E-4    3.701307317215625E-3    7.931077583865190E-4    3.727313038447203E-3    4.234354516220853E-1   -1.555582598051828E-1
 8.116812993775000E9     5.062577279270767E-1   -3.004695408763806E-3    7.470837356173375E-4    3.689075666810062E-3    8.032381015045366E-4    3.768924360186261E-3    4.232433089570514E-1   -1.559362909985873E-1
 8.116818909700000E9     5.062657047188577E-1   -3.433964736999500E-3    7.810325637665513E-4    3.692389627991415E-3    8.220069205888671E-4    3.774338812559270E-3    4.229541338107610E-1   -1.562029557829455E-1
 8.116824825625000E9     5.061730201827711E-1   -3.832528473080686E-3    7.357937302795329E-4    3.715102484937503E-3    8.451040715963198E-4    3.753258347250261E-3    4.230544528520138E-1   -1.567569663964679E-1
 8.116830741550000E9     5.062296507390041E-1   -4.314999573044073E-3    7.554668713310907E-4    3.707661771043115E-3    8.089591631030011E-4    3.799974853656268E-3    4.228002525486331E-1   -1.568858077178505E-1
 8.116836657475000E9     5.062100101336525E-1   -4.822386005901898E-3    7.796637852574964E-4    3.734271352718782E-3    8.372166779634598E-4    3.761023952519320E-3    4.226676130996841E-1   -1.573625464290570E-1
 8.116842573400000E9     5.063420567393713E-1   -5.256264914434219E-3    7.417421732515720E-4    3.733923905846875E-3    8.197467417054880E-4    3.773309622313934E-3    4.225145457530934E-1   -1.578655465632310E-1
 8.116848489325000E9     5.061941389686619E-1   -5.651344286354610E-3    7.929222808846089E-4    3.727592381410145E-3    8.431221196684652E-4    3.760409446433119E-3    4.223281800462217E-1   -1.581191958810498E-1
 8.116854405250000E9     5.062452845771620E-1   -6.146764319251586E-3    7.928771890661542E-4    3.740613164710276E-3    8.850657250965044E-4    3.750599665054400E-3    4.223150261719750E-1   -1.586720412391678E-1
