#  HZ   S   RI   R     50.00 
! Rohde & Schwarz Vector Network Analyzer 
! Rohde-Schwarz,ZNB20-2Port,1311601062101988,3.16
! Created: UTC 3/20/2024, 11:54:56 AM
! freq[Hz]                re:S11                  im:S11                  re:S21                  im:S21                  re:S12                  im:S12                  re:S22                  im:S22
 8.116329363000000E9     5.060074982446348E-1    3.393466282232204E-2    4.347393151672082E-4    3.545865678784951E-3    4.498263286976330E-4    3.619268010069058E-3    4.324324203163089E-1   -1.234878817920038E-1
 8.116335255175000E9     5.059267588364900E-1    3.343627916580658E-2    4.346096601258596E-4    3.537169170751480E-3    4.553137880818130E-4    3.608066209389083E-3    4.322715994834793E-1   -1.238914414869944E-1
 8.116341147350000E9     5.059654848985141E-1    3.289825923903907E-2    4.366037793173349E-4    3.530320036058083E-3    4.722008176222647E-4    3.583594726000216E-3    4.322515951818910E-1   -1.242077000108718E-1
 8.116347039525000E9     5.059417670055545E-1    3.256472679557568E-2    4.400283504908497E-4    3.540569915828678E-3    4.608919436723151E-4    3.575681957132018E-3    4.320465315683598E-1   -1.245560069465364E-1
 8.116352931700000E9     5.060267815394495E-1    3.205337577429259E-2    4.333028327833475E-4    3.550584826389349E-3    4.947871663338230E-4    3.566646181936047E-3    4.320859329398965E-1   -1.250777021649872E-1
 8.116358823875000E9     5.059473103672052E-1    3.160838893738206E-2    4.112474170913584E-4    3.548674961858050E-3    5.157542426131271E-4    3.580476298885712E-3    4.318637574461826E-1   -1.254370890220658E-1
 8.116364716050000E9     5.060621855982151E-1    3.108889926765514E-2    4.415572178981437E-4    3.545578802237412E-3    5.089818761454579E-4    3.594009873611333E-3    4.317965867134816E-1   -1.259276330811248E-1
 8.116370608225000E9     5.060579250264698E-1    3.061149456885396E-2    4.305569711737683E-4    3.562526619546908E-3    5.152309978818006E-4    3.600738541337751E-3    4.317431739535222E-1   -1.261887510131265E-1
 8.116376500400000E9     5.060985210752579E-1    3.030539203937484E-2    4.578819034133403E-4    3.570348872683476E-3    5.100901710380057E-4    3.579552130759847E-3    4.316698134860356E-1   -1.265803617195984E-1
 8.116382392575000E9     5.061036637733093E-1    2.979311681209843E-2    4.499426819807962E-4    3.542632796945127E-3    4.761884219656345E-4    3.589269447415801E-3    4.316190126811629E-1   -1.271362486645496E-1
 8.116388284750000E9     5.061744369247690E-1    2.936611548123498E-2    4.539427653167653E-4    3.539897506613280E-3    5.022767117834480E-4    3.602412287505836E-3    4.313810821070674E-1   -1.274083048919400E-1
 8.116394176925000E9     5.061508371251252E-1    2.900570847713836E-2    4.398469216994818E-4    3.554448474801793E-3    5.115107448864720E-4    3.611084567923823E-3    4.312720373966887E-1   -1.277796527408079E-1
 8.116400069100000E9     5.060760422411035E-1    2.841367118389357E-2    4.497123890835694E-4    3.566590745772568E-3    5.124943240245260E-4    3.604055981534857E-3    4.312498705660588E-1   -1.280117174926412E-1
 8.116405961275000E9     5.060285314804213E-1    2.807477369585039E-2    4.547090494715578E-4    3.551450113031588E-3    4.888184962494440E-4    3.611295420566140E-3    4.310753003315597E-1   -1.285815902682396E-1
 8.116411853450000E9     5.062345593872146E-1    2.767170665660616E-2    4.724286385836142E-4    3.541353959757684E-3    5.349979620476968E-4    3.614571603112162E-3    4.309156836961416E-1   -1.291441003193231E-1
 8.116417745625000E9     5.063602736363164E-1    2.706654764832206E-2    4.768074189869908E-4    3.559932768842844E-3    5.303545748855065E-4    3.588451822226061E-3    4.308032583992241E-1   -1.293856884531876E-1
 8.116423637800000E9     5.061724801261381E-1    2.673326006551914E-2    4.650247074874148E-4    3.562495445604572E-3    5.693760338384064E-4    3.589689439699229E-3    4.306751984712173E-1   -1.297917088021762E-1
 8.116429529975000E9     5.062344204031460E-1    2.626357025043480E-2    4.821646591318802E-4    3.556608442276582E-3    5.087507844519302E-4    3.616243263203553E-3    4.306945637878386E-1   -1.302793160145483E-1
 8.116435422150000E9     5.063408727568606E-1    2.578531485820904E-2    4.622639676608945E-4    3.556202411397225E-3    5.299653175709352E-4    3.626780630321320E-3    4.305595859473185E-1   -1.305597828571496E-1
 8.116441314325000E9     5.063048939430160E-1    2.533145993350135E-2    4.861860914191771E-4    3.556620360215583E-3    5.300215372142710E-4    3.600872700054686E-3    4.305301756024975E-1   -1.309940553291808E-1
 8.116447206500000E9     5.062612601328793E-1    2.491173109823505E-2    4.868005500276583E-4    3.543878116101268E-3    5.481818691588541E-4    3.599627891535580E-3    4.303864904284126E-1   -1.315230924282335E-1
 8.116453098675000E9     5.062950877033223E-1    2.449687326432832E-2    4.986026067944170E-4    3.600623862297156E-3    5.314418961785631E-4    3.630173190489870E-3    4.303152108254389E-1   -1.318128860173322E-1
 8.116458990850000E9     5.063352739610932E-1    2.414051948687358E-2    5.118393485038519E-4    3.562650026609255E-3    5.396878022065376E-4    3.607407666243604E-3    4.302216648055581E-1   -1.322206235888730E-1
 8.116464883025000E9     5.062153226572857E-1    2.359129499300425E-2    5.081957742184809E-4    3.592068124130330E-3    5.671028792425402E-4    3.603117657388973E-3    4.300802453328912E-1   -1.327081823861578E-1
 8.116470775200000E9     5.063887906535152E-1    2.308345741095221E-2    4.946555272775236E-4    3.587350612798793E-3    5.760340541652257E-4    3.648190240476556E-3    4.298980789159898E-1   -1.329427056755235E-1
 8.116476667375000E9     5.063283664904098E-1    2.265430221697298E-2    4.904963850248866E-4    3.577025637099026E-3    5.695997778530233E-4    3.627109079345538E-3    4.297459720621150E-1   -1.334361940538844E-1
 8.116482559550000E9     5.064276990942925E-1    2.233504090456730E-2    5.165209992226545E-4    3.587556623412593E-3    5.371386981697100E-4    3.620185681854515E-3    4.297277952672465E-1   -1.337982777007830E-1
 8.116488451725000E9     5.064427137852198E-1    2.180897587319163E-2    5.003788665351906E-4    3.553931601759415E-3    5.843170719282948E-4    3.624767537435419E-3    4.296576994240962E-1   -1.341443137826880E-1
 8.116494343900000E9     5.063267264578646E-1    2.136445313863373E-2    5.069944902366652E-4    3.590231032138112E-3    5.625392073659199E-4    3.615900229518947E-3    4.294879503906270E-1   -1.344302871673415E-1
 8.116500236075000E9     5.063815543708002E-1    2.095018025975338E-2    5.103286300397818E-4    3.574223807363388E-3    5.977223600159780E-4    3.653414149186955E-3    4.293718274242659E-1   -1.349567177247939E-1
 8.116506128250000E9     5.062169471117530E-1    2.044674178616365E-2    5.115291275679506E-4    3.578119496865882E-3    5.801540782001275E-4    3.665620712741242E-3    4.293314493162024E-1   -1.355168840030937E-1
 8.116512020425000E9     5.063556001357329E-1    2.002856066542837E-2    5.281020973555281E-4    3.607179084469102E-3    5.832961585611777E-4    3.624045560551125E-3    4.292804057556295E-1   -1.357312990164014E-1
 8.116517912600000E9     5.064123323690572E-1    1.957851040441282E-2    5.392208287373615E-4    3.590292451681017E-3    5.635595435865781E-4    3.629415688130423E-3    4.290664879035014E-1   -1.361424041462355E-1
 8.116523804775000E9     5.064035230418555E-1    1.912676942009536E-2    5.310615361235407E-4    3.586239588282551E-3    5.951113618473372E-4    3.644057392601477E-3    4.290957287897906E-1   -1.364830615938327E-1
 8.116529696950000E9     5.064402177229423E-1    1.869831253259032E-2    5.290511217963378E-4    3.583287015032476E-3    5.719514822638816E-4    3.613557536764476E-3    4.288597504654292E-1   -1.370757190260480E-1
 8.116535589125000E9     5.063781607229576E-1    1.834157917522688E-2    5.258752006836332E-4    3.593841809455356E-3    5.920618221606051E-4    3.641567150469456E-3    4.286926215692173E-1   -1.373526256983055E-1
 8.116541481300000E9     5.064224993643058E-1    1.775848863415309E-2    5.505782264395658E-4    3.616306713362571E-3    6.214201093252262E-4    3.629166915495047E-3    4.287660112413544E-1   -1.377065120366219E-1
 8.116547373475000E9     5.064246728995744E-1    1.729744690392048E-2    5.231961049125153E-4    3.598416520336806E-3    5.916716421525955E-4    3.611130055167342E-3    4.286095134709745E-1   -1.379616276303873E-1
 8.116553265650000E9     5.064881270223835E-1    1.699682227473961E-2    5.368137263530313E-4    3.606641003705216E-3    5.921960623003412E-4    3.658109101738923E-3    4.284362420962378E-1   -1.384251896736990E-1
 8.116559157825000E9     5.064011550566117E-1    1.644212428871780E-2    5.451101616115238E-4    3.585072057524594E-3    6.383001608450754E-4    3.634346336655628E-3    4.283688341731224E-1   -1.387970615098305E-1
 8.116565050000000E9     5.064562268846603E-1    1.619217798602198E-2    5.757161174409398E-4    3.610456087869311E-3    5.862296169868254E-4    3.637892069892988E-3    4.281992087120879E-1   -1.392976793361927E-1
 8.116570942175000E9     5.065122256339432E-1    1.559502824393429E-2    5.567813757887301E-4    3.622241905198961E-3    6.060709313402676E-4    3.672657861890433E-3    4.280536408760992E-1   -1.397572015390050E-1
 8.116576834350000E9     5.065858924497380E-1    1.506768070223940E-2    5.661903499441111E-4    3.601181079128200E-3    6.361258322397223E-4    3.625415396094662E-3    4.281090242165617E-1   -1.400753926974688E-1
 8.116582726525000E9     5.065007779744440E-1    1.466521164037828E-2    5.955943303202633E-4    3.592158612278076E-3    6.363348615942348E-4    3.675269384692441E-3    4.278758055118964E-1   -1.405029932437119E-1
 8.116588618700000E9     5.063831297277052E-1    1.423165427552019E-2    6.021465065586128E-4    3.600710677605326E-3    6.145696886168927E-4    3.658570056515107E-3    4.277892568568329E-1   -1.408445563200939E-1
 8.116594510875000E9     5.065121409371788E-1    1.376200596335136E-2    5.926649810711487E-4    3.598972103833936E-3    6.355708022210748E-4    3.666946614640928E-3    4.276048469073552E-1   -1.412661839238755E-1
 8.116600403050000E9     5.065640854157090E-1    1.328766666513225E-2    5.930448470950055E-4    3.589452573886322E-3    6.475501996977496E-4    3.693960493679105E-3    4.274809082811881E-1   -1.416418002105828E-1
 8.116606295225000E9     5.064118788380831E-1    1.288586660687951E-2    5.813393734917719E-4    3.603994559402547E-3    6.334548911239271E-4    3.681428657809884E-3    4.274132884186338E-1   -1.420853572487384E-1
 8.116612187400000E9     5.064991879907299E-1    1.249975399393437E-2    6.117206828951950E-4    3.627295531385028E-3    6.585368623376736E-4    3.694474001582724E-3    4.272891656738520E-1   -1.424966472829632E-1
 8.116618079575000E9     5.064821766916013E-1    1.196906405627235E-2    5.860030305414087E-4    3.604406823889530E-3    6.788539680805249E-4    3.679395326828878E-3    4.272053062588969E-1   -1.428963820279447E-1
 8.116623971750000E9     5.064599269102964E-1    1.152871204944206E-2    6.012498294073939E-4    3.603040150910255E-3    6.787735991384886E-4    3.691914547956002E-3    4.270343957821271E-1   -1.432407617209615E-1
 8.116629863925000E9     5.065390434691989E-1    1.108615498133743E-2    6.206366980837870E-4    3.609394278124715E-3    6.632030146475661E-4    3.680069453488467E-3    4.269217450192120E-1   -1.435219990407557E-1
 8.116635756100000E9     5.065447883760632E-1    1.057771555835761E-2    6.024079868561821E-4    3.634991104355064E-3    6.541003395258686E-4    3.636999866140988E-3    4.268805445157461E-1   -1.440441980939354E-1
 8.116641648275000E9     5.064856928838934E-1    1.006504485637583E-2    6.156835947052617E-4    3.634243016078588E-3    6.725406376124140E-4    3.684274820706783E-3    4.268070802742103E-1   -1.443483625361835E-1
 8.116647540450000E9     5.064726900137049E-1    9.658374434201835E-3    6.385076014008266E-4    3.627920332702484E-3    6.717469278208059E-4    3.683076316530394E-3    4.264992156267839E-1   -1.449744665715927E-1
 8.116653432625000E9     5.065791535458960E-1    9.251261129788281E-3    6.166812741139990E-4    3.633455000476080E-3    7.023368119380557E-4    3.694313910412900E-3    4.264918798164850E-1   -1.454445336640150E-1
 8.116659324800000E9     5.064995213566654E-1    8.932065124699247E-3    6.328683752423790E-4    3.616521931295036E-3    6.673860545799769E-4    3.684664151961768E-3    4.264016242759149E-1   -1.455924134181287E-1
 8.116665216975000E9     5.065022854213128E-1    8.435615016632233E-3    6.397914715026471E-4    3.634862483644479E-3    6.925899056608893E-4    3.684503184963693E-3    4.261446563663131E-1   -1.458264566696542E-1
 8.116671109150000E9     5.065736983326679E-1    7.977379590914947E-3    6.453541034969871E-4    3.642366071138041E-3    6.806858824399574E-4    3.702724590717216E-3    4.262795125123259E-1   -1.463624559311921E-1
 8.116677001325000E9     5.064665888862563E-1    7.472471929549111E-3    6.351905570319283E-4    3.619834108265231E-3    6.860094053103673E-4    3.657967598522176E-3    4.259708577719262E-1   -1.468033752720276E-1
 8.116682893500000E9     5.065333026681009E-1    6.978355307761979E-3    6.461077902698473E-4    3.658285245793357E-3    6.875155514085319E-4    3.679228729354325E-3    4.260516054497726E-1   -1.470933843167202E-1
 8.116688785675000E9     5.064166065986888E-1    6.531808753505956E-3    6.588580673053060E-4    3.629459657384663E-3    7.058904424294525E-4    3.690631342690353E-3    4.258017546085580E-1   -1.475636670436971E-1
 8.116694677850000E9     5.065598861154568E-1    6.143064672496481E-3    6.395861799138462E-4    3.657626493349339E-3    7.324725101871079E-4    3.703027509430567E-3    4.256386979014504E-1   -1.479570403253823E-1
 8.116700570025000E9     5.065110012722139E-1    5.765239173385722E-3    6.383702076203314E-4    3.626536648799552E-3    7.118057055622555E-4    3.677271923327982E-3    4.255227265287563E-1   -1.484818701663695E-1
 8.116706462200000E9     5.064948091097541E-1    5.140942517641780E-3    6.742219400675104E-4    3.626592738634441E-3    7.411549535343337E-4    3.700655567986321E-3    4.254928593537546E-1   -1.487500427269331E-1
 8.116712354375000E9     5.065417672586472E-1    4.697694851058355E-3    6.719196293915555E-4    3.644973155459869E-3    7.197149649567875E-4    3.706648158965130E-3    4.252877776600513E-1   -1.492143814169970E-1
 8.116718246550000E9     5.064972489516617E-1    4.332108301929987E-3    6.819377140731930E-4    3.654367427824807E-3    7.179319335540578E-4    3.737855930168364E-3    4.252462808853619E-1   -1.494436178471469E-1
 8.116724138725000E9     5.064035510789379E-1    3.782555535111998E-3    6.841527197793891E-4    3.675273549601263E-3    7.296542880196871E-4    3.733646192577490E-3    4.250867398256072E-1   -1.498729178938506E-1
 8.116730030900000E9     5.065206139629810E-1    3.437267766134566E-3    6.726190847575629E-4    3.670292043236976E-3    7.227199231193445E-4    3.705249150658961E-3    4.248908891809504E-1   -1.502999733496543E-1
 8.116735923075000E9     5.064568594101656E-1    2.993799329895324E-3    6.943388927802256E-4    3.669051735164876E-3    7.512521944495564E-4    3.715764355177188E-3    4.247321501301134E-1   -1.507173302048992E-1
 8.116741815250000E9     5.064952988743195E-1    2.542753320671284E-3    6.918155807497467E-4    3.665613481218066E-3    7.454699811746346E-4    3.736151422184402E-3    4.247571938392087E-1   -1.511543812572933E-1
 8.116747707425000E9     5.065205821240975E-1    2.042672388757585E-3    7.219188604718882E-4    3.670545928197252E-3    7.520028582244977E-4    3.736493564248061E-3    4.246109171735359E-1   -1.515976182909392E-1
 8.116753599600000E9     5.064912842813182E-1    1.598901201394102E-3    6.963088351579384E-4    3.686014340561634E-3    7.573071473632400E-4    3.748267069639958E-3    4.245017277277485E-1   -1.518772302300929E-1
 8.116759491775000E9     5.065116354773721E-1    1.093178582189575E-3    6.885716300726369E-4    3.673589354910638E-3    7.266119056206806E-4    3.741729023620211E-3    4.242777985073992E-1   -1.521916230842992E-1
 8.116765383950000E9     5.064558687930262E-1    8.018783694525698E-4    7.368474558002031E-4    3.651563877924354E-3    7.167722419156287E-4    3.702282144984137E-3    4.242119777597668E-1   -1.525784323958746E-1
 8.116771276125000E9     5.064039777287003E-1    2.290292456804834E-4    7.169680371082337E-4    3.682175438803445E-3    7.655318702535402E-4    3.718030424741904E-3    4.240028517598600E-1   -1.532141892100061E-1
 8.116777168300000E9     5.063983273232969E-1   -1.736851890645699E-4    7.048978545418308E-4    3.701165066986774E-3    7.968296281664915E-4    3.733685481189785E-3    4.239120722425176E-1   -1.534119138082630E-1
 8.116783060475000E9     5.064153343528918E-1   -6.324880342336069E-4    7.199029987694847E-4    3.707285551491776E-3    7.542216860910258E-4    3.765174753128953E-3    4.238839858958429E-1   -1.538991222640755E-1
 8.116788952650000E9     5.063396497875341E-1   -1.071551491486077E-3    7.245205490982373E-4    3.691425194800627E-3    7.769537741103248E-4    3.763669801001111E-3    4.237335260916285E-1   -1.542403952372223E-1
 8.116794844825000E9     5.062612375555746E-1   -1.492677094591462E-3    7.242262461882765E-4    3.713747451348686E-3    7.903634112718031E-4    3.746803493370376E-3    4.236659001084763E-1   -1.546537485822374E-1
 8.116800737000000E9     5.063204589470112E-1   -1.940612350651777E-3    7.321220548108754E-4    3.695252385903986E-3    8.469766437496616E-4    3.750863485895877E-3    4.234510840675337E-1   -1.550064724972894E-1
 8.116806629175000E9     5.064301614894234E-1   -2.597873584936679E-3    7.562760947872467E-4    3.668857208385488E-3    7.788290717223679E-4    3.760227504674870E-3    4.233564708597211E-1   -1.554161363703550E-1
 8.116812521350000E9     5.064092613415964E-1   -2.850577855908992E-3    7.656810915690018E-4    3.720025985744311E-3    8.319813529274654E-4    3.742161142195245E-3    4.231620498037889E-1   -1.557904432677520E-1
 8.116818413525000E9     5.062041369934247E-1   -3.396288332496192E-3    7.387256878689952E-4    3.672335528032228E-3    8.169223924939890E-4    3.765799350388716E-3    4.230991037774301E-1   -1.562529184952175E-1
 8.116824305700000E9     5.063204475593623E-1   -3.784653930887803E-3    7.406256850978970E-4    3.725343479255423E-3    8.561729122799187E-4    3.782920594051715E-3    4.229742071164055E-1   -1.566926180961668E-1
 8.116830197875000E9     5.062589045991567E-1   -4.307344223242307E-3    7.718005839889356E-4    3.702039898336808E-3    7.968302053948891E-4    3.739061465511987E-3    4.228237727526801E-1   -1.570042427755428E-1
 8.116836090050000E9     5.062079330322721E-1   -4.673865896533763E-3    7.736596302495087E-4    3.724762689694015E-3    8.182106381410558E-4    3.802693713068089E-3    4.226998013348539E-1   -1.572667479627594E-1
 8.116841982225000E9     5.061335430636037E-1   -5.174112032887598E-3    7.715666083887480E-4    3.748817654137057E-3    8.036510966035536E-4    3.805148736705728E-3    4.225113802101744E-1   -1.576129879849627E-1
 8.116847874400000E9     5.062258866586833E-1   -5.622679091033747E-3    7.777574916200678E-4    3.726858112997690E-3    8.283797919370759E-4    3.790383123780146E-3    4.224679099710810E-1   -1.580050382111037E-1
 8.116853766575000E9     5.062422611480712E-1   -6.144653124287424E-3    7.918228897023208E-4    3.711809475242003E-3    8.421706877768376E-4    3.799182346405375E-3    4.221968861056348E-1   -1.585468841827433E-1
 8.116859658750000E9     5.061992908262067E-1   -6.453960466756213E-3    7.762627915705054E-4    3.724144604213568E-3    8.598575871077036E-4    3.786578648521815E-3    4.222347002025226E-1   -1.588565597005893E-1
