#  HZ   S   RI   R     50.00 
! Rohde & Schwarz Vector Network Analyzer 
! Rohde-Schwarz,ZNB20-2Port,1311601062101988,3.16
! Created: UTC 3/20/2024, 11:37:54 AM
! freq[Hz]                re:S11                  im:S11                  re:S21                  im:S21                  re:S12                  im:S12                  re:S22                  im:S22
 8.117518615000000E9     5.014880164526244E-1   -5.966655401448084E-2    1.506385867130230E-3    4.590447651527932E-3    1.619844548827611E-3    4.628726499351365E-3    4.039328042630466E-1   -2.029200239944595E-1
 8.117519941650000E9     5.013858206036357E-1   -5.982956082156760E-2    1.516385208819940E-3    4.576141969101726E-3    1.597031640763884E-3    4.660489754908148E-3    4.037451606254266E-1   -2.031428714206445E-1
 8.117521268300000E9     5.014594435010923E-1   -6.002707395768057E-2    1.543343904116686E-3    4.598212312459774E-3    1.584601033600002E-3    4.640056595539900E-3    4.039337866511119E-1   -2.032577392614390E-1
 8.117522594950000E9     5.013443413627818E-1   -6.015819941843960E-2    1.539380272685631E-3    4.609259326956391E-3    1.607774973363281E-3    4.638839716368167E-3    4.039427767483335E-1   -2.033912871863920E-1
 8.117523921600000E9     5.014326995074666E-1   -6.026740072583173E-2    1.539592243053516E-3    4.619641488407726E-3    1.617355913103559E-3    4.673625678766795E-3    4.038972501825245E-1   -2.034539455449822E-1
 8.117525248250000E9     5.013044599194814E-1   -6.035385275329744E-2    1.553534698854671E-3    4.607834855685131E-3    1.607285217536762E-3    4.663634212790703E-3    4.038680758352239E-1   -2.035102729220698E-1
 8.117526574900000E9     5.012383097667377E-1   -6.065732706104227E-2    1.530729986844137E-3    4.630878481388196E-3    1.637036695591210E-3    4.715877589470124E-3    4.037331508636252E-1   -2.036920110946314E-1
 8.117527901550000E9     5.011983311998429E-1   -6.072658600148138E-2    1.537608259760899E-3    4.623773527493232E-3    1.622071225366041E-3    4.688116311219282E-3    4.036408346313956E-1   -2.036417208490611E-1
 8.117529228200000E9     5.011816597696980E-1   -6.083250594223508E-2    1.547000597953449E-3    4.648826535415412E-3    1.623213702210481E-3    4.716288612213921E-3    4.036509177996802E-1   -2.039067080264095E-1
 8.117530554850000E9     5.011955731358614E-1   -6.099123760799104E-2    1.572923648505260E-3    4.639919701312570E-3    1.650866931972867E-3    4.707842986740647E-3    4.037180932038876E-1   -2.040287167091556E-1
 8.117531881500000E9     5.011929431910216E-1   -6.114988916700279E-2    1.590490753066385E-3    4.641794659142175E-3    1.630370171705879E-3    4.745225375213095E-3    4.034996358995779E-1   -2.040164878644676E-1
 8.117533208150000E9     5.011749167670435E-1   -6.137314925169307E-2    1.557738413623593E-3    4.663282393446048E-3    1.633406209758702E-3    4.748264095266842E-3    4.035503430756068E-1   -2.040881697691076E-1
 8.117534534800000E9     5.010886752578900E-1   -6.150082314762362E-2    1.568332508371187E-3    4.653889160636377E-3    1.633442819000447E-3    4.723375240659748E-3    4.035774106391479E-1   -2.042816091187733E-1
 8.117535861450000E9     5.012374109905653E-1   -6.161471568481418E-2    1.587305252539406E-3    4.645862729747012E-3    1.676934450733436E-3    4.750949983517382E-3    4.034745706606078E-1   -2.042809532650414E-1
 8.117537188100000E9     5.010368863705090E-1   -6.182925442664831E-2    1.587564180122680E-3    4.704299310294310E-3    1.671577308116335E-3    4.745925417569107E-3    4.033598824934598E-1   -2.042377954573191E-1
 8.117538514750000E9     5.010394501205555E-1   -6.195262078749643E-2    1.585722549034183E-3    4.665401837747222E-3    1.669490829616649E-3    4.784340423023015E-3    4.034261393886581E-1   -2.045561246289322E-1
 8.117539841400000E9     5.010042933873814E-1   -6.206690784594596E-2    1.565624940564791E-3    4.694655729897549E-3    1.683818651100385E-3    4.742412202558413E-3    4.033285478168850E-1   -2.044821253589498E-1
 8.117541168050000E9     5.009847044862341E-1   -6.212843989458550E-2    1.600630076642147E-3    4.714798976629304E-3    1.675772972817438E-3    4.747340092976475E-3    4.031938217711006E-1   -2.045465447091356E-1
 8.117542494700000E9     5.009032407830920E-1   -6.237756085732236E-2    1.595935838767856E-3    4.695119875550878E-3    1.698514493947802E-3    4.775393703105020E-3    4.033290395234128E-1   -2.047919597008071E-1
 8.117543821350000E9     5.009623921066356E-1   -6.248997885615109E-2    1.620164919719372E-3    4.729267805230412E-3    1.693290497870798E-3    4.769552117157737E-3    4.033372038514663E-1   -2.048191772935936E-1
 8.117545148000000E9     5.007874365293666E-1   -6.275632498433355E-2    1.619662839789183E-3    4.742908852406787E-3    1.706614745874957E-3    4.826902755222654E-3    4.032356596389288E-1   -2.048786481265695E-1
 8.117546474650000E9     5.007601476528252E-1   -6.277363007796495E-2    1.626372066054049E-3    4.743372928239866E-3    1.697639540032062E-3    4.829161342211949E-3    4.031890547860111E-1   -2.048587624215723E-1
 8.117547801300000E9     5.007586703068055E-1   -6.293511652373870E-2    1.634367999850127E-3    4.770032419224197E-3    1.754616426741774E-3    4.834486141861172E-3    4.030086498841801E-1   -2.051654286074162E-1
 8.117549127950000E9     5.008113383116577E-1   -6.307053130558798E-2    1.638154839818139E-3    4.753333438469245E-3    1.735183071764085E-3    4.820130233095768E-3    4.030859518908249E-1   -2.051622027838587E-1
 8.117550454600000E9     5.007955809873291E-1   -6.321449096061978E-2    1.665468862720830E-3    4.752626260864725E-3    1.725812670949500E-3    4.812752032048494E-3    4.030389716572396E-1   -2.051819815809175E-1
 8.117551781250000E9     5.007487580606985E-1   -6.334700381725064E-2    1.643962541929327E-3    4.776352042753671E-3    1.726417064369848E-3    4.830717153305355E-3    4.030092245472272E-1   -2.053536247726327E-1
 8.117553107900000E9     5.006622344596965E-1   -6.335380288692305E-2    1.663302638556093E-3    4.783048835119355E-3    1.733421553728406E-3    4.852412498776435E-3    4.029355395336408E-1   -2.053655972239875E-1
 8.117554434550000E9     5.007800655384888E-1   -6.351007121787461E-2    1.643927631761970E-3    4.781071979613029E-3    1.713747316258973E-3    4.857949065471919E-3    4.029215078735939E-1   -2.053608900098399E-1
 8.117555761200000E9     5.006258431377897E-1   -6.369655524963341E-2    1.678177302302796E-3    4.811354581485675E-3    1.739313987428232E-3    4.857423595049717E-3    4.029305285369856E-1   -2.056383800364231E-1
 8.117557087850000E9     5.007237001586707E-1   -6.385012915194768E-2    1.654096872155171E-3    4.802396942397180E-3    1.753567777021081E-3    4.889911154393844E-3    4.028347528360325E-1   -2.055842711387675E-1
 8.117558414500000E9     5.006353893105274E-1   -6.406033960241869E-2    1.661940014293861E-3    4.823609156785468E-3    1.755770837158770E-3    4.895796546571998E-3    4.029356352208774E-1   -2.057834121713913E-1
 8.117559741150000E9     5.005470753525951E-1   -6.424578620814454E-2    1.683520838113699E-3    4.831624810986815E-3    1.755480394606466E-3    4.894870581198235E-3    4.028533826204769E-1   -2.057196997932961E-1
 8.117561067800000E9     5.005828782642748E-1   -6.436003056799067E-2    1.704046939091510E-3    4.822629585012859E-3    1.742167504466646E-3    4.902125442857923E-3    4.028407866630744E-1   -2.060013778522761E-1
 8.117562394450000E9     5.005492416431840E-1   -6.450229426773944E-2    1.699412508480860E-3    4.826639684286468E-3    1.764473384821589E-3    4.915605050342524E-3    4.027531867031158E-1   -2.060452239398312E-1
 8.117563721100000E9     5.004663103788770E-1   -6.453692618270726E-2    1.696345585054668E-3    4.832280122192820E-3    1.779335927664484E-3    4.934827336537641E-3    4.026039986245530E-1   -2.059955498941307E-1
 8.117565047750000E9     5.005093329811531E-1   -6.470321054148977E-2    1.698740020779305E-3    4.885222535525487E-3    1.795296499624242E-3    4.918400481323040E-3    4.025967799876914E-1   -2.061392090860763E-1
 8.117566374400000E9     5.004600893062764E-1   -6.483427676399175E-2    1.718373819115039E-3    4.890337197344335E-3    1.828506103743931E-3    4.936744505708395E-3    4.025542663695836E-1   -2.062040010213831E-1
 8.117567701050000E9     5.002789952195100E-1   -6.505891624518387E-2    1.712737615414233E-3    4.894394350426295E-3    1.831066499650755E-3    4.981526895253038E-3    4.025895013071322E-1   -2.064005007194715E-1
 8.117569027700000E9     5.002800660009328E-1   -6.509628883728062E-2    1.710850243428215E-3    4.888075180310607E-3    1.783022387802420E-3    4.946665823211948E-3    4.024697018487282E-1   -2.064326218531119E-1
 8.117570354350000E9     5.002909242347399E-1   -6.531604040924041E-2    1.735714649305059E-3    4.896564697172507E-3    1.830988795386437E-3    4.979691770381860E-3    4.023507777251237E-1   -2.064814441126445E-1
 8.117571681000000E9     5.003499512281279E-1   -6.544593753654253E-2    1.717078340307434E-3    4.895791633890392E-3    1.814805002059920E-3    5.011870429013800E-3    4.024789325536188E-1   -2.065837259590951E-1
 8.117573007650000E9     5.001702184528369E-1   -6.563921721306736E-2    1.725960576742954E-3    4.908497683879386E-3    1.855651742563439E-3    4.999566223499418E-3    4.023438186018155E-1   -2.067155029268375E-1
 8.117574334300000E9     5.002350145637237E-1   -6.583207793388329E-2    1.746105125871928E-3    4.926138927238657E-3    1.860662302403848E-3    5.007991466709858E-3    4.023533302482333E-1   -2.068370242659851E-1
 8.117575660950000E9     5.001358802054250E-1   -6.594816256735267E-2    1.764649252697355E-3    4.939132641416583E-3    1.874451926709390E-3    5.009388417161639E-3    4.022699955717414E-1   -2.069139517616410E-1
 8.117576987600000E9     5.000978447886389E-1   -6.611687275938094E-2    1.769076296104332E-3    4.950553962079781E-3    1.838968056788861E-3    4.993713424226245E-3    4.021807453621461E-1   -2.068289590432511E-1
 8.117578314250000E9     5.001016092229855E-1   -6.623649978628740E-2    1.779546279475288E-3    4.988628001248970E-3    1.868266165893473E-3    5.035968275717947E-3    4.021543562964211E-1   -2.069700085959464E-1
 8.117579640900000E9     5.000697530175531E-1   -6.635857459832398E-2    1.806936909846946E-3    4.985649123031668E-3    1.836687754105638E-3    5.057317606283643E-3    4.021262326657978E-1   -2.071429360304584E-1
 8.117580967550000E9     5.000614593683181E-1   -6.648915941117703E-2    1.802547838936501E-3    4.969208743128577E-3    1.872109863780926E-3    5.094679891608639E-3    4.022258710977220E-1   -2.071826436082823E-1
 8.117582294200000E9     5.000253656798932E-1   -6.664559345487006E-2    1.822390913434604E-3    4.978648394824868E-3    1.891299887944248E-3    5.056384390114745E-3    4.021972216678359E-1   -2.072144033388099E-1
 8.117583620850000E9     4.998250202475503E-1   -6.684194776676176E-2    1.809972427735043E-3    5.017214560903382E-3    1.900516746414072E-3    5.090077441724391E-3    4.020930336631300E-1   -2.074987803089794E-1
 8.117584947500000E9     4.998344107269573E-1   -6.706654526324200E-2    1.825142343452439E-3    5.008824654074897E-3    1.891032416103120E-3    5.095927077555056E-3    4.020885273996217E-1   -2.073820914326738E-1
 8.117586274150000E9     4.998615265700640E-1   -6.722457446132209E-2    1.827054810300302E-3    5.022704122083380E-3    1.881681223467494E-3    5.108977251065299E-3    4.019841452706290E-1   -2.075380013646562E-1
 8.117587600800000E9     4.998568867370732E-1   -6.727928464457607E-2    1.837981826892891E-3    5.034377968001266E-3    1.968222457023333E-3    5.123220575682428E-3    4.019905431100242E-1   -2.077338563604080E-1
 8.117588927450000E9     4.998077891194191E-1   -6.762464294517817E-2    1.837449863511840E-3    5.057005275991227E-3    1.925653637296451E-3    5.136346321990870E-3    4.018331863631970E-1   -2.077297580571814E-1
 8.117590254100000E9     4.997785470884730E-1   -6.763472983494800E-2    1.816674514446670E-3    5.074354054745250E-3    1.899563134982977E-3    5.138293376086856E-3    4.019940103243457E-1   -2.078305783997196E-1
 8.117591580750000E9     4.997768763223759E-1   -6.774949584515601E-2    1.855856345028737E-3    5.075480214900714E-3    1.946591649484114E-3    5.139675399787647E-3    4.017627021279188E-1   -2.079188647692490E-1
 8.117592907400000E9     4.997052837272102E-1   -6.800263167557759E-2    1.864627587446915E-3    5.086321770671963E-3    1.943232522439744E-3    5.181837995317648E-3    4.018067049761887E-1   -2.079624590596512E-1
 8.117594234050000E9     4.995825284366427E-1   -6.817742077246983E-2    1.862085378940295E-3    5.085362888048563E-3    1.981486337167762E-3    5.205052042506922E-3    4.017059764266525E-1   -2.081602664684976E-1
 8.117595560700000E9     4.995642978757925E-1   -6.839792958450025E-2    1.873989594269735E-3    5.103110949621402E-3    1.956208483666672E-3    5.182096546271870E-3    4.015980810810064E-1   -2.080598578718916E-1
 8.117596887350000E9     4.995826146506633E-1   -6.840484936192134E-2    1.907216290990342E-3    5.125710980453222E-3    1.943367386220225E-3    5.207661162976679E-3    4.017073604277452E-1   -2.083477201062275E-1
 8.117598214000000E9     4.994658134827566E-1   -6.862800040266338E-2    1.897161243205823E-3    5.126891441066570E-3    1.992885160386341E-3    5.176941529564614E-3    4.016350780789807E-1   -2.082635820849809E-1
 8.117599540650000E9     4.993334960692238E-1   -6.869701751054108E-2    1.896965618313877E-3    5.158681901646796E-3    1.979023149432993E-3    5.250391740495129E-3    4.016539172352960E-1   -2.083398712249804E-1
 8.117600867300000E9     4.994546035415105E-1   -6.898826879767370E-2    1.904305739845421E-3    5.173213774941716E-3    1.987400135544331E-3    5.249896891842691E-3    4.015473682110177E-1   -2.084500339990361E-1
 8.117602193950000E9     4.993318349902620E-1   -6.920303703310365E-2    1.939015611704568E-3    5.199303237814371E-3    1.992522295130494E-3    5.262845201208295E-3    4.015316635558615E-1   -2.085168295576495E-1
 8.117603520600000E9     4.993328904576849E-1   -6.925222397968500E-2    1.937552504965113E-3    5.185942773847489E-3    2.041106548191875E-3    5.281013773538289E-3    4.014250381391432E-1   -2.086050997847762E-1
 8.117604847250000E9     4.992924482956776E-1   -6.947211341728189E-2    1.958889239924929E-3    5.197995388899894E-3    2.041188848954082E-3    5.301082733619988E-3    4.014321400860507E-1   -2.087218502828421E-1
 8.117606173900000E9     4.991547196464847E-1   -6.973662392765871E-2    1.940981819195274E-3    5.240530566039236E-3    2.084501633373148E-3    5.272459703954372E-3    4.013271792321134E-1   -2.087510764989287E-1
 8.117607500550000E9     4.991874246041399E-1   -6.981959698909150E-2    1.992853632610093E-3    5.221255520767777E-3    2.073743177404780E-3    5.329970127696185E-3    4.013572181473596E-1   -2.088572045582262E-1
 8.117608827200000E9     4.991089522885031E-1   -7.006004071653590E-2    1.979880162397741E-3    5.279184583044341E-3    2.073695028782252E-3    5.312702343139164E-3    4.011630073427548E-1   -2.091263916347316E-1
 8.117610153850000E9     4.991065671808018E-1   -7.016793327650075E-2    1.996449227503477E-3    5.249154847836192E-3    2.064625582530974E-3    5.337842263026514E-3    4.012265431740828E-1   -2.091654529564118E-1
 8.117611480500000E9     4.989369952488560E-1   -7.034296562433467E-2    2.006032899054964E-3    5.305841210541469E-3    2.107065452264482E-3    5.344481615742627E-3    4.012304854499723E-1   -2.090837429187268E-1
 8.117612807150000E9     4.990330406097744E-1   -7.050457777412970E-2    2.018234704244459E-3    5.287731322970491E-3    2.124498142921908E-3    5.386456962978001E-3    4.012150140634284E-1   -2.093072493368591E-1
 8.117614133800000E9     4.988809177998949E-1   -7.072110905889267E-2    2.021036471330260E-3    5.293688687388675E-3    2.106568714592951E-3    5.385642914254120E-3    4.011218652336713E-1   -2.094515126262639E-1
 8.117615460450000E9     4.988747773891096E-1   -7.093499875775991E-2    2.049589361012784E-3    5.328613361600545E-3    2.124886420468891E-3    5.425652178617475E-3    4.011557959017569E-1   -2.094460917931607E-1
 8.117616787100000E9     4.988688997816424E-1   -7.103248629619396E-2    2.029799210336514E-3    5.351346283479435E-3    2.135879949649837E-3    5.426173695258993E-3    4.011416267579341E-1   -2.095173682686690E-1
 8.117618113750000E9     4.987127546502405E-1   -7.115959116330546E-2    2.068504135463103E-3    5.326463343348935E-3    2.149164917419796E-3    5.445971805951751E-3    4.010165583834706E-1   -2.096510683313045E-1
 8.117619440400000E9     4.986998809371940E-1   -7.144886964312432E-2    2.057210044148351E-3    5.357646419252826E-3    2.181072507586655E-3    5.415744584098641E-3    4.009033416688356E-1   -2.096866913525573E-1
 8.117620767050000E9     4.986120646392159E-1   -7.164090578741172E-2    2.083973675595912E-3    5.375108508540440E-3    2.144995099945350E-3    5.480453491166433E-3    4.009735697628972E-1   -2.097583214431213E-1
 8.117622093700000E9     4.985788185458779E-1   -7.180006246188593E-2    2.101116722060428E-3    5.431080294136875E-3    2.182545789372626E-3    5.491788339951521E-3    4.008564167324117E-1   -2.097787281491477E-1
 8.117623420350000E9     4.985416701721639E-1   -7.192925125866231E-2    2.110941088105411E-3    5.395510589753197E-3    2.213603266522548E-3    5.519105026132163E-3    4.007496272150385E-1   -2.100785414598827E-1
 8.117624747000000E9     4.983389010985414E-1   -7.205501830165054E-2    2.148523676378284E-3    5.418900875231796E-3    2.206803472868761E-3    5.500165899410826E-3    4.007877377073900E-1   -2.100785579820164E-1
 8.117626073650000E9     4.983777440956171E-1   -7.237165135044077E-2    2.124221587424265E-3    5.465995604526169E-3    2.183471984520078E-3    5.561672484200347E-3    4.007939139147679E-1   -2.101112742701172E-1
 8.117627400300000E9     4.984046610022245E-1   -7.253868963792616E-2    2.154243231700697E-3    5.448491965301109E-3    2.231527101672124E-3    5.559989992895376E-3    4.005805549722785E-1   -2.102515305964752E-1
 8.117628726950000E9     4.982486216249255E-1   -7.272551437506365E-2    2.190336453211017E-3    5.484253576682390E-3    2.250399577042591E-3    5.571978662320541E-3    4.006274842333173E-1   -2.103805132962381E-1
 8.117630053600000E9     4.982147400917473E-1   -7.302510040837379E-2    2.180577317928146E-3    5.516514894244911E-3    2.256800808577738E-3    5.575894909970427E-3    4.005872881573533E-1   -2.104068366811832E-1
 8.117631380250000E9     4.981310592825302E-1   -7.317181178894715E-2    2.193934265794383E-3    5.532062569076631E-3    2.287544244994197E-3    5.596026210106538E-3    4.004449710444700E-1   -2.103848477930425E-1
 8.117632706900000E9     4.980597091053903E-1   -7.334022801042384E-2    2.220192469696735E-3    5.568261896160939E-3    2.302367936920731E-3    5.671586285090842E-3    4.005786719311064E-1   -2.104726007028059E-1
 8.117634033550000E9     4.980485256497402E-1   -7.344537056727470E-2    2.229293484355912E-3    5.552014820259263E-3    2.322620392091693E-3    5.640669410117794E-3    4.005448862390359E-1   -2.106013740324512E-1
 8.117635360200000E9     4.978901441480292E-1   -7.371612414431998E-2    2.237302616217402E-3    5.595814382006369E-3    2.338465855042780E-3    5.691915799605349E-3    4.005059928193028E-1   -2.106292867774159E-1
 8.117636686850000E9     4.978474773218345E-1   -7.408176641740837E-2    2.234128468622858E-3    5.591442879465855E-3    2.320251933410680E-3    5.665489735361090E-3    4.005224604285861E-1   -2.109172526445929E-1
 8.117638013500000E9     4.977759976118338E-1   -7.412297194335979E-2    2.266597644326342E-3    5.633120875043119E-3    2.374934820177663E-3    5.709470172813632E-3    4.002382428416368E-1   -2.108088596272334E-1
