#  HZ   S   RI   R     50.00 
! Rohde & Schwarz Vector Network Analyzer 
! Rohde-Schwarz,ZNB20-2Port,1311601062101988,3.16
! Created: UTC 3/20/2024, 11:55:48 AM
! freq[Hz]                re:S11                  im:S11                  re:S21                  im:S21                  re:S12                  im:S12                  re:S22                  im:S22
 8.116441689000000E9     5.065850084138903E-1    2.598077899462977E-2    4.823964218331031E-4    3.573760288356184E-3    5.201960297187225E-4    3.608188503718871E-3    4.305316652922025E-1   -1.310677035246933E-1
 8.116447155900000E9     5.065419989217024E-1    2.553141845159639E-2    4.725488995926431E-4    3.535692129981268E-3    5.252630631464323E-4    3.628982226943810E-3    4.303434676827929E-1   -1.314860004832807E-1
 8.116452622800000E9     5.066893985348677E-1    2.499337874165816E-2    4.665275525561840E-4    3.536891986565985E-3    5.515088331979066E-4    3.624069817802009E-3    4.301567942052065E-1   -1.318864126188005E-1
 8.116458089700000E9     5.065309390259586E-1    2.460882424663879E-2    4.768134653142483E-4    3.542317759687070E-3    5.508546512810682E-4    3.598476564406683E-3    4.301933657873541E-1   -1.321878667277477E-1
 8.116463556600000E9     5.067594479902773E-1    2.416288380256233E-2    4.820542983877850E-4    3.564799661624344E-3    5.691904888197574E-4    3.614299253209045E-3    4.300045314651983E-1   -1.325505869668041E-1
 8.116469023500000E9     5.067015909850032E-1    2.383392677811845E-2    5.097966321670341E-4    3.550391045001623E-3    5.578569611256607E-4    3.624286324194776E-3    4.300055708232515E-1   -1.329964563200865E-1
 8.116474490400000E9     5.065715082929841E-1    2.333547131177945E-2    4.971066468337523E-4    3.565910078259757E-3    5.583354699370888E-4    3.626259785168723E-3    4.299258052131744E-1   -1.333705463610348E-1
 8.116479957300000E9     5.067780042425054E-1    2.296565314736577E-2    4.983800723060061E-4    3.567290796865800E-3    5.595477225348899E-4    3.635086793680269E-3    4.297280771624392E-1   -1.336770124424797E-1
 8.116485424200000E9     5.068254503935861E-1    2.255144394752944E-2    5.250804747906725E-4    3.553323691805959E-3    5.679285179323939E-4    3.629574880173394E-3    4.297619408453516E-1   -1.339252026873440E-1
 8.116490891100000E9     5.069080846162468E-1    2.207201577733949E-2    5.140488540382109E-4    3.608894443439756E-3    5.262571441672451E-4    3.624182757471087E-3    4.296027254089446E-1   -1.343911809173883E-1
 8.116496358000000E9     5.067760930708983E-1    2.179301707707861E-2    4.881341957154637E-4    3.571235040763023E-3    5.523866040629523E-4    3.627287984829944E-3    4.295522063997657E-1   -1.348568658318416E-1
 8.116501824900000E9     5.067743587881952E-1    2.124725646685870E-2    5.425423109861160E-4    3.577283450597434E-3    6.083074177045362E-4    3.644375019950531E-3    4.294532856232780E-1   -1.351545653555784E-1
 8.116507291800000E9     5.068425247570862E-1    2.081873999614032E-2    5.125114140787883E-4    3.574751590588556E-3    5.677273108750608E-4    3.653129034754233E-3    4.292846817489095E-1   -1.354849974000051E-1
 8.116512758700000E9     5.068718325363691E-1    2.041763535108049E-2    5.583743096014987E-4    3.559213691889634E-3    5.871703605931048E-4    3.655965645240508E-3    4.292132216994560E-1   -1.357908819306716E-1
 8.116518225600000E9     5.068300288932391E-1    2.000616042749536E-2    5.330056317128020E-4    3.572640889354127E-3    5.950421926459887E-4    3.644051261802907E-3    4.292121106334974E-1   -1.362226582569200E-1
 8.116523692500000E9     5.068761651084921E-1    1.946369645736490E-2    5.202696744140893E-4    3.579945362163505E-3    5.760870108256916E-4    3.605053499481440E-3    4.289599702192894E-1   -1.366269869894187E-1
 8.116529159400000E9     5.068182918857682E-1    1.911771581484291E-2    5.244372224006170E-4    3.565098097857451E-3    5.524381301206025E-4    3.609929688622164E-3    4.288988496225856E-1   -1.368934292903860E-1
 8.116534626300000E9     5.068935104292445E-1    1.875979155287843E-2    5.619688833810061E-4    3.584938865492590E-3    5.854628918079539E-4    3.661209806812556E-3    4.287290812628768E-1   -1.373275800347396E-1
 8.116540093200000E9     5.069197304622357E-1    1.832775662482380E-2    5.348792721330146E-4    3.579228620998075E-3    6.103548298004235E-4    3.642985081838744E-3    4.286194234381584E-1   -1.376572866637677E-1
 8.116545560100000E9     5.067380560966515E-1    1.798760777082561E-2    5.733271362832605E-4    3.591239728757592E-3    6.268346682768900E-4    3.630340135026636E-3    4.285880557811744E-1   -1.381641780688862E-1
 8.116551027000000E9     5.069035234963006E-1    1.752153802195292E-2    5.539543443332077E-4    3.588409162766595E-3    6.092171278344954E-4    3.611572343324824E-3    4.284678258379110E-1   -1.383375892828561E-1
 8.116556493900000E9     5.068455007043379E-1    1.715470899868447E-2    5.610105398124138E-4    3.599329131652513E-3    6.194785824957459E-4    3.650466168870731E-3    4.284058685410945E-1   -1.388130085753095E-1
 8.116561960800000E9     5.068068050214130E-1    1.671907513808729E-2    5.562285055812442E-4    3.588422844710822E-3    5.636281780710718E-4    3.639473059940568E-3    4.283844629821079E-1   -1.391377722136228E-1
 8.116567427700000E9     5.069004963241599E-1    1.614616924704518E-2    5.637976495411853E-4    3.603325746276327E-3    6.179766273904345E-4    3.653473455830980E-3    4.281770466116232E-1   -1.395250400414651E-1
 8.116572894600000E9     5.067833679702015E-1    1.588511159469556E-2    5.716715187563428E-4    3.609462687738225E-3    6.479579984469796E-4    3.648954396921832E-3    4.280938489340675E-1   -1.399300962456203E-1
 8.116578361500000E9     5.069104883443041E-1    1.546270567144964E-2    5.745903564670690E-4    3.579190405722067E-3    6.088198790731586E-4    3.640523089079791E-3    4.280470283613773E-1   -1.403735314412548E-1
 8.116583828400000E9     5.068316970801593E-1    1.508131880740554E-2    5.778118177710771E-4    3.588666803408381E-3    6.271592314904880E-4    3.649439918102807E-3    4.279112084165032E-1   -1.406549725291501E-1
 8.116589295300000E9     5.069451633428083E-1    1.458862610146986E-2    5.782275224723252E-4    3.581253225894577E-3    5.976344785996633E-4    3.623154352353140E-3    4.277791144738787E-1   -1.409144675438649E-1
 8.116594762200000E9     5.069770638669453E-1    1.429659165393926E-2    5.927495449147037E-4    3.605175917021629E-3    6.404739544655304E-4    3.655029651112653E-3    4.277395780399914E-1   -1.414356543254665E-1
 8.116600229100000E9     5.068053610061206E-1    1.381018342159330E-2    5.732624683064166E-4    3.590496326343466E-3    6.339213312241507E-4    3.652464095585197E-3    4.275110500723765E-1   -1.418040143682230E-1
 8.116605696000000E9     5.068994702236084E-1    1.343939895792770E-2    5.919479809236954E-4    3.618177568046283E-3    6.488379115822040E-4    3.639131009744241E-3    4.274496566738679E-1   -1.420410557369589E-1
 8.116611162900000E9     5.069106934733875E-1    1.297599787997939E-2    5.917495800287304E-4    3.587149312005522E-3    6.584690651303715E-4    3.624107873333325E-3    4.274338226760758E-1   -1.424134630725447E-1
 8.116616629800000E9     5.068159054702279E-1    1.251808284744663E-2    5.706855030880398E-4    3.594972811998010E-3    6.741482470673944E-4    3.646397678300706E-3    4.271950414344835E-1   -1.428657737265986E-1
 8.116622096700000E9     5.069079745561710E-1    1.220743197753147E-2    5.967659156821825E-4    3.596560717423129E-3    6.170791701788360E-4    3.689368200836256E-3    4.270693883330038E-1   -1.432089514371859E-1
 8.116627563600000E9     5.068690420080814E-1    1.167605628832354E-2    6.167373046446426E-4    3.618488209682808E-3    6.845312934060789E-4    3.667861819480093E-3    4.269656558195986E-1   -1.435768467127431E-1
 8.116633030500000E9     5.069895360452930E-1    1.128027480169534E-2    5.953198361845853E-4    3.596449361982755E-3    6.707772150955930E-4    3.672270232520876E-3    4.269590199632716E-1   -1.438220963846037E-1
 8.116638497400000E9     5.069589644232749E-1    1.087055587706659E-2    6.095060195461638E-4    3.587727736465229E-3    6.645638597242305E-4    3.659846206616201E-3    4.268983641370044E-1   -1.442534754484513E-1
 8.116643964300000E9     5.069719067201521E-1    1.044602519236107E-2    6.034115617143189E-4    3.621887917026192E-3    6.806064339253894E-4    3.696057825929946E-3    4.265785792265626E-1   -1.445874530013561E-1
 8.116649431200000E9     5.068506278569842E-1    1.000870858396165E-2    6.116845423756118E-4    3.595620589920782E-3    6.778359462211380E-4    3.679396924923142E-3    4.267092741063492E-1   -1.449593599260389E-1
 8.116654898100000E9     5.068930778842984E-1    9.596012302269695E-3    6.070059508538562E-4    3.618146311819723E-3    6.824186877947859E-4    3.672148528973350E-3    4.264895984349493E-1   -1.453695125680541E-1
 8.116660365000000E9     5.068606467729885E-1    9.118488718468300E-3    6.369099413131955E-4    3.616568583059233E-3    6.799684250661929E-4    3.690225167020791E-3    4.264593321267339E-1   -1.457159460489539E-1
 8.116665831900000E9     5.070051791058836E-1    8.691762029921855E-3    6.466074821169435E-4    3.635192503016030E-3    7.151402020416028E-4    3.676597537296280E-3    4.262769591431653E-1   -1.460953719718534E-1
 8.116671298800000E9     5.069079228286227E-1    8.311922171909226E-3    6.300577254633197E-4    3.646844924172570E-3    7.236433037567396E-4    3.699688789765820E-3    4.262619557381253E-1   -1.462674140217383E-1
 8.116676765700000E9     5.069161343914362E-1    7.934854469813306E-3    6.473932349063572E-4    3.609608556711428E-3    6.933029266312793E-4    3.714748818351907E-3    4.260996417932731E-1   -1.468735888339883E-1
 8.116682232600000E9     5.069371338899780E-1    7.468593176100943E-3    6.387607723249777E-4    3.640177098780298E-3    7.070704674175392E-4    3.671197271485791E-3    4.259245103596557E-1   -1.472657019968570E-1
 8.116687699500000E9     5.070395788027374E-1    7.135162049458170E-3    6.318426765041526E-4    3.628997700284155E-3    6.721566795348662E-4    3.708811626582442E-3    4.257930910741035E-1   -1.475685980215134E-1
 8.116693166400000E9     5.068391321073452E-1    6.642967735531661E-3    6.526253852965841E-4    3.625907473465522E-3    7.103866647125908E-4    3.680148633224802E-3    4.256715344714962E-1   -1.480097689565811E-1
 8.116698633300000E9     5.068642908234186E-1    6.337674295217082E-3    6.548392727374911E-4    3.634530712851057E-3    7.107072713161590E-4    3.695859801120503E-3    4.255357622460446E-1   -1.480925282515312E-1
 8.116704100200000E9     5.069325851572554E-1    5.705837611954956E-3    6.532603976869933E-4    3.623296080661568E-3    7.173528700771122E-4    3.706476309410296E-3    4.255194090461774E-1   -1.487214292768231E-1
 8.116709567100000E9     5.068043786220009E-1    5.453755180275358E-3    6.710477061816567E-4    3.647821499360974E-3    7.169343909232321E-4    3.689953495822684E-3    4.254914917948355E-1   -1.489397690088395E-1
 8.116715034000000E9     5.069793877722787E-1    5.099498250375852E-3    6.293384140567863E-4    3.624648308180976E-3    7.507499119683614E-4    3.698562000620951E-3    4.252894913000720E-1   -1.495074572901616E-1
 8.116720500900000E9     5.068511295659367E-1    4.500708998975580E-3    6.492409477715746E-4    3.659208472289998E-3    7.295509314791138E-4    3.710802818854252E-3    4.252270957982874E-1   -1.496791990517359E-1
 8.116725967800000E9     5.068776323474005E-1    4.181295487597125E-3    6.598048675360114E-4    3.641425370634757E-3    7.383501791727654E-4    3.701357698019856E-3    4.250546427532962E-1   -1.500877605906287E-1
 8.116731434700000E9     5.069733947872259E-1    3.671525068227278E-3    6.766112083114236E-4    3.658454667509639E-3    7.189950119789243E-4    3.707874219281492E-3    4.248721596290257E-1   -1.505857020017502E-1
 8.116736901600000E9     5.068827263018290E-1    3.363772334642463E-3    6.596479274071407E-4    3.649522316539765E-3    7.359360092330162E-4    3.698982966775996E-3    4.248874887532416E-1   -1.509661257442329E-1
 8.116742368500000E9     5.068306263771113E-1    2.851614653491577E-3    7.005625785280576E-4    3.678744038664253E-3    7.167764600273708E-4    3.725520360379060E-3    4.247877640763461E-1   -1.512627293552411E-1
 8.116747835400000E9     5.069037446700155E-1    2.483722013177939E-3    6.757032081803863E-4    3.652893134760456E-3    7.315142185633837E-4    3.730818729098040E-3    4.245373752662450E-1   -1.516040926108208E-1
 8.116753302300000E9     5.068779560013430E-1    2.157340299140463E-3    7.066748261218950E-4    3.649529343954176E-3    7.556880577991578E-4    3.709183774407591E-3    4.244569295329021E-1   -1.519190210060525E-1
 8.116758769200000E9     5.068720137083598E-1    1.698543731059717E-3    6.880152462836518E-4    3.673074069895512E-3    7.178672531017199E-4    3.717646684893454E-3    4.243935336121367E-1   -1.522134882424443E-1
 8.116764236100000E9     5.068564802037934E-1    1.171060317035227E-3    6.873882359101201E-4    3.677601580352423E-3    7.814869927040202E-4    3.711027716584032E-3    4.241717477600784E-1   -1.525871685095792E-1
 8.116769703000000E9     5.068452821950541E-1    7.705192237318479E-4    7.046906072024306E-4    3.648331164177486E-3    7.653551621147345E-4    3.747920075663868E-3    4.241797359991911E-1   -1.528923779852477E-1
 8.116775169900000E9     5.067768321465871E-1    3.724961033445789E-4    7.178921289247976E-4    3.675951164233367E-3    7.521439456065674E-4    3.754520519031129E-3    4.240889394661552E-1   -1.534389362968011E-1
 8.116780636800000E9     5.068748645072600E-1   -9.290184716912831E-6    7.092988771025326E-4    3.667164349305154E-3    7.633995403603415E-4    3.749443460413618E-3    4.238910879574465E-1   -1.538245903528060E-1
 8.116786103700000E9     5.067052128294195E-1   -3.200443103854778E-4    7.300034854360533E-4    3.685167841854358E-3    7.829392780577437E-4    3.783741240577369E-3    4.238069903012834E-1   -1.541514354000920E-1
 8.116791570600000E9     5.067375995990540E-1   -8.054028255749039E-4    6.885109294027972E-4    3.677029018596283E-3    7.798036168315760E-4    3.756736934093389E-3    4.236914315585040E-1   -1.543485075374539E-1
 8.116797037500000E9     5.067251060218652E-1   -1.376084504680560E-3    7.245720388618358E-4    3.680434704531495E-3    7.721495753852915E-4    3.761839772223967E-3    4.235915414465675E-1   -1.547254412051010E-1
 8.116802504400000E9     5.066894434508354E-1   -1.793045941434100E-3    7.321064515991974E-4    3.669054873444171E-3    7.453446753095810E-4    3.769871129731536E-3    4.233790993724311E-1   -1.551432846513377E-1
 8.116807971300000E9     5.067356842165228E-1   -2.022560636490289E-3    7.416986806371389E-4    3.690513025637243E-3    7.857916634964827E-4    3.742234020025188E-3    4.233323437743950E-1   -1.556032911668653E-1
 8.116813438200000E9     5.068008394437414E-1   -2.535095574204233E-3    7.500089545016471E-4    3.676399995210145E-3    7.621909049537840E-4    3.746325181388834E-3    4.234190564728330E-1   -1.560819156722223E-1
 8.116818905100000E9     5.066673790193335E-1   -2.927509981463127E-3    7.588891883787625E-4    3.693500327148167E-3    8.049150134623001E-4    3.721492113225291E-3    4.230146765845222E-1   -1.562722151786692E-1
 8.116824372000000E9     5.067288422699415E-1   -3.251441169390942E-3    7.305187821430612E-4    3.703612818094231E-3    8.201262241063244E-4    3.765264211183276E-3    4.230040518486010E-1   -1.566784954778198E-1
 8.116829838900000E9     5.066305406171290E-1   -3.883070246693894E-3    7.433149336596864E-4    3.696705512424491E-3    8.152964111085263E-4    3.768436003747422E-3    4.227261112182946E-1   -1.570559982548246E-1
 8.116835305800000E9     5.066790167191121E-1   -4.221126575628731E-3    7.462840313546850E-4    3.712647974398736E-3    8.035255325451719E-4    3.772802068810989E-3    4.227099684266230E-1   -1.574130649011119E-1
 8.116840772700000E9     5.067419350049368E-1   -4.689262561589769E-3    7.540780852919958E-4    3.690264354907256E-3    7.982964750091364E-4    3.795673996629272E-3    4.227046131975399E-1   -1.577063843452812E-1
 8.116846239600000E9     5.066813737838796E-1   -5.023179967760966E-3    7.571153934246360E-4    3.706140920461600E-3    8.277090525376970E-4    3.779438710235390E-3    4.225054695046079E-1   -1.580235256610472E-1
 8.116851706500000E9     5.066431717183396E-1   -5.447147715042855E-3    7.546958587933356E-4    3.707952116556218E-3    8.208943832792246E-4    3.756509782112082E-3    4.223292636080964E-1   -1.585166283967902E-1
 8.116857173400000E9     5.067150977564603E-1   -6.042922048354023E-3    7.815205161476299E-4    3.729827888072200E-3    8.532606195064367E-4    3.783835533579364E-3    4.223628995302583E-1   -1.587843128100586E-1
 8.116862640300000E9     5.065742708882893E-1   -6.438841679408601E-3    7.747300613248980E-4    3.704896759673824E-3    8.723153298642575E-4    3.795695722925733E-3    4.220101784635242E-1   -1.592206493587752E-1
 8.116868107200000E9     5.066767124151779E-1   -6.807922028084780E-3    7.605196524959111E-4    3.730533337106032E-3    8.488078876145218E-4    3.776331854565712E-3    4.219460694447412E-1   -1.595934827974538E-1
 8.116873574100000E9     5.065923831531653E-1   -7.190691040584422E-3    7.926719064238024E-4    3.726034027739633E-3    8.314036376483942E-4    3.792956274146677E-3    4.218413474806857E-1   -1.599092650889620E-1
 8.116879041000000E9     5.065230582603792E-1   -7.587920299189374E-3    7.939755835218071E-4    3.743044938278549E-3    8.626608779321209E-4    3.792997843430244E-3    4.218279232485545E-1   -1.603322921688627E-1
 8.116884507900000E9     5.065449914137643E-1   -8.019510837361641E-3    8.121173060882110E-4    3.735232974384225E-3    8.487705437332826E-4    3.801669895163025E-3    4.216161033277459E-1   -1.606739670522346E-1
 8.116889974800000E9     5.064794017972638E-1   -8.507961941707783E-3    7.850130510308166E-4    3.760216818791082E-3    8.867819121008101E-4    3.798465875395285E-3    4.215611130908501E-1   -1.610626259406759E-1
 8.116895441700000E9     5.065389306705136E-1   -8.858922379302884E-3    8.173907677260629E-4    3.752652871697168E-3    8.460671391808849E-4    3.781422577461736E-3    4.214278824425289E-1   -1.614126316758645E-1
 8.116900908600000E9     5.064786327532101E-1   -9.365536744907596E-3    8.222105826609394E-4    3.732948427161730E-3    8.889807233611554E-4    3.775188560660114E-3    4.212950001173017E-1   -1.616429535594280E-1
 8.116906375500000E9     5.064355520950370E-1   -9.685286847083653E-3    8.284499532551025E-4    3.756397452825846E-3    8.823132569140262E-4    3.842460713986314E-3    4.211814394541017E-1   -1.621372315057051E-1
 8.116911842400000E9     5.064499875575058E-1   -1.010543221054061E-2    8.329134673411555E-4    3.762603016867669E-3    8.820076304061553E-4    3.818679934676108E-3    4.210139401315389E-1   -1.624700633108528E-1
 8.116917309300000E9     5.064750923890698E-1   -1.050789879245066E-2    8.198524454374246E-4    3.770016819552975E-3    8.750983693112418E-4    3.804019611342682E-3    4.209985614634130E-1   -1.627931070153195E-1
 8.116922776200000E9     5.063976787917680E-1   -1.094734502717461E-2    8.385285304663814E-4    3.765093292065777E-3    9.093820200499942E-4    3.816449083426917E-3    4.208757251620497E-1   -1.631099211780163E-1
 8.116928243100000E9     5.063346694434522E-1   -1.140188296961891E-2    8.259363916999489E-4    3.772917245276647E-3    8.544226596843846E-4    3.794231965307178E-3    4.205659725251743E-1   -1.633057934027024E-1
 8.116933710000000E9     5.064551997629431E-1   -1.194657363495044E-2    8.491390797581339E-4    3.772534830512740E-3    8.717810991221405E-4    3.806003458680506E-3    4.204701350931159E-1   -1.638641259469284E-1
