#  HZ   S   RI   R     50.00 
! Rohde & Schwarz Vector Network Analyzer 
! Rohde-Schwarz,ZNB20-2Port,1311601062101988,3.16
! Created: UTC 3/20/2024, 11:56:05 AM
! freq[Hz]                re:S11                  im:S11                  re:S21                  im:S21                  re:S12                  im:S12                  re:S22                  im:S22
 8.116487426000000E9     5.066932423711078E-1    2.249282862399244E-2    5.092313521983936E-4    3.545632998861489E-3    5.800928686969565E-4    3.640191606743426E-3    4.295146211187169E-1   -1.341204608177454E-1
 8.116492714625000E9     5.066791754208317E-1    2.206810701487290E-2    5.028116253538422E-4    3.548192453489634E-3    5.619415609398090E-4    3.621036448242627E-3    4.295808307715121E-1   -1.344497175598231E-1
 8.116498003250000E9     5.067421653354640E-1    2.171364363164049E-2    4.951530683973140E-4    3.563597466036224E-3    5.716322024096735E-4    3.591132958199590E-3    4.294363885719055E-1   -1.349621600387441E-1
 8.116503291875000E9     5.067411136608445E-1    2.123874360438765E-2    5.081765662098007E-4    3.562024820029320E-3    5.477637038404464E-4    3.626836179778866E-3    4.292613672484230E-1   -1.352990756480781E-1
 8.116508580500000E9     5.067492285527487E-1    2.085143835035267E-2    5.369265411396291E-4    3.587974012722574E-3    5.731962237182522E-4    3.635388630697562E-3    4.293402635407789E-1   -1.355591728527083E-1
 8.116513869125000E9     5.066991022667945E-1    2.060039727237388E-2    5.031433780906517E-4    3.574472898000526E-3    6.040458670231913E-4    3.625506031115827E-3    4.291791364798023E-1   -1.359934140006891E-1
 8.116519157750000E9     5.067652680107394E-1    2.010793154261014E-2    5.297443401929614E-4    3.568887700192096E-3    6.062610905471857E-4    3.640212681084411E-3    4.290028138991662E-1   -1.361996892877588E-1
 8.116524446375000E9     5.067540306662973E-1    1.964876868497803E-2    5.163196892767452E-4    3.585870476273678E-3    5.501708493404146E-4    3.624200316849075E-3    4.288738886635967E-1   -1.366320814699867E-1
 8.116529735000000E9     5.068052224004387E-1    1.921608354844902E-2    5.366011428675411E-4    3.555646512183986E-3    6.107575850974104E-4    3.587079351833969E-3    4.287589325001632E-1   -1.369952487516362E-1
 8.116535023625000E9     5.067900399306370E-1    1.878777741753911E-2    5.325679384030699E-4    3.571986854121660E-3    5.864118698026244E-4    3.666452060506458E-3    4.287263269975338E-1   -1.373914566950588E-1
 8.116540312250000E9     5.067701683546917E-1    1.847299028022606E-2    5.585130748958566E-4    3.574536975491163E-3    6.086052607614692E-4    3.658441481340738E-3    4.287483630583815E-1   -1.377734236577067E-1
 8.116545600875000E9     5.068561646597273E-1    1.805195836497179E-2    5.279089707124935E-4    3.543253392075226E-3    5.657392410428422E-4    3.613716752140933E-3    4.285283776236816E-1   -1.380351667260295E-1
 8.116550889500000E9     5.067791865709845E-1    1.772814096002945E-2    5.725041502456632E-4    3.575323193115371E-3    6.201553052754100E-4    3.664609135702687E-3    4.284462456807789E-1   -1.383451134854492E-1
 8.116556178125000E9     5.068411711179006E-1    1.733715283883377E-2    5.511400602237999E-4    3.596358837250526E-3    6.328812230396495E-4    3.651605622899846E-3    4.284909344968191E-1   -1.386453568903970E-1
 8.116561466750000E9     5.068298350456253E-1    1.688187347778843E-2    5.614944083489304E-4    3.581003321544885E-3    6.497143347073373E-4    3.624375440110578E-3    4.282137560431306E-1   -1.391783214547133E-1
 8.116566755375000E9     5.067304051909004E-1    1.634623150334728E-2    5.473046634451729E-4    3.577744052413891E-3    5.785192090178177E-4    3.659108896083325E-3    4.282524561679178E-1   -1.394952348570555E-1
 8.116572044000000E9     5.069104904376256E-1    1.601600537100758E-2    5.518618479622494E-4    3.625880974883460E-3    6.154682508314381E-4    3.673702868143165E-3    4.280202812372428E-1   -1.396793915729443E-1
 8.116577332625000E9     5.068963096002349E-1    1.562334818708823E-2    5.543173912553216E-4    3.598170191828248E-3    6.257567713720698E-4    3.642264107702624E-3    4.279836755636903E-1   -1.402014280011949E-1
 8.116582621250000E9     5.067507193188898E-1    1.518915552926226E-2    5.698317636898658E-4    3.575603630130844E-3    6.059104563866398E-4    3.648661953690359E-3    4.279421970724260E-1   -1.406065472199482E-1
 8.116587909875000E9     5.067952600082213E-1    1.473188384796606E-2    5.637886019059452E-4    3.599537346479481E-3    6.035666599181240E-4    3.679287504647818E-3    4.277640608179433E-1   -1.409276437194172E-1
 8.116593198500000E9     5.067919208761057E-1    1.444395551836093E-2    5.910145724290526E-4    3.615073996693360E-3    6.536102721236156E-4    3.627890484080314E-3    4.276992606685196E-1   -1.412726146293720E-1
 8.116598487125000E9     5.068720363066963E-1    1.405313162179944E-2    6.081972582023043E-4    3.601120974393652E-3    6.541627916803236E-4    3.685104921172542E-3    4.276535193085078E-1   -1.415416517656476E-1
 8.116603775750000E9     5.069539143354637E-1    1.359627067851250E-2    5.850166895854398E-4    3.609096824950142E-3    6.494669050101423E-4    3.662205030251035E-3    4.276160649400703E-1   -1.420159547696302E-1
 8.116609064375000E9     5.069132857058548E-1    1.322359688628738E-2    6.045639341787240E-4    3.593103029124345E-3    6.138650061392354E-4    3.628471652730100E-3    4.275215221246889E-1   -1.422470592794569E-1
 8.116614353000000E9     5.069164633968176E-1    1.277116008059045E-2    5.885287553568780E-4    3.613240533042871E-3    6.362113316554982E-4    3.641440792321379E-3    4.271991513425016E-1   -1.428237759759779E-1
 8.116619641625000E9     5.069146803486287E-1    1.244860398732377E-2    6.000201060861569E-4    3.601548106347799E-3    6.350106533048078E-4    3.672158804432116E-3    4.272623907312008E-1   -1.428898620630954E-1
 8.116624930250000E9     5.068571382553657E-1    1.197708300154824E-2    5.983084422144562E-4    3.627246835130870E-3    6.940748623990978E-4    3.654030978237073E-3    4.271309623061913E-1   -1.432940724265706E-1
 8.116630218875000E9     5.068606529429821E-1    1.169551006194758E-2    6.073427321637311E-4    3.595112848066062E-3    6.621989000659062E-4    3.677090138375087E-3    4.270180247053608E-1   -1.437243234582280E-1
 8.116635507500000E9     5.069260147404527E-1    1.117614392385256E-2    6.277401080039732E-4    3.617458503670859E-3    6.610436366943620E-4    3.674691002290867E-3    4.268728300906309E-1   -1.439568835188012E-1
 8.116640796125000E9     5.068335649713631E-1    1.086921021103018E-2    6.001045404345760E-4    3.591992104998226E-3    6.815186421411977E-4    3.690353732370462E-3    4.267361506885285E-1   -1.444160378021580E-1
 8.116646084750000E9     5.068650970521010E-1    1.050073305311085E-2    6.268203827086513E-4    3.604641461838050E-3    6.703422084482556E-4    3.656025089403193E-3    4.264501880630674E-1   -1.447791674963743E-1
 8.116651373375000E9     5.069945791373552E-1    1.010259120633436E-2    6.172132190906460E-4    3.621807070000306E-3    6.860700111585816E-4    3.683496116548332E-3    4.265559763943740E-1   -1.452196133218712E-1
 8.116656662000000E9     5.068722272311378E-1    9.598053617115531E-3    6.171777959704405E-4    3.636840366763869E-3    6.782822799850244E-4    3.671020493390978E-3    4.264486512200519E-1   -1.455449368866389E-1
 8.116661950625000E9     5.067930741333968E-1    9.219531847028910E-3    5.970302976758578E-4    3.641562196992504E-3    6.939203589430051E-4    3.716301492895101E-3    4.263316152087773E-1   -1.458432234588487E-1
 8.116667239250000E9     5.069180370582835E-1    8.817654046461730E-3    6.487683991085296E-4    3.616940781647406E-3    6.825166244171051E-4    3.690569766426263E-3    4.262798058661686E-1   -1.461648459372759E-1
 8.116672527875000E9     5.068825668185606E-1    8.382065034229584E-3    6.587220160726725E-4    3.634684866325074E-3    6.791998380791726E-4    3.670645676179641E-3    4.261208604738749E-1   -1.464573333798279E-1
 8.116677816500000E9     5.068666417947427E-1    7.963677256796238E-3    6.280128297886934E-4    3.632062561499085E-3    7.033995363706603E-4    3.684369510202108E-3    4.260390269228265E-1   -1.468260770192133E-1
 8.116683105125000E9     5.069313815143208E-1    7.485475168987162E-3    6.188625039416589E-4    3.628211958973409E-3    7.190411458240052E-4    3.677829416120867E-3    4.257757328797731E-1   -1.473902854693754E-1
 8.116688393750000E9     5.069012752187843E-1    7.117519341275943E-3    6.564031955974624E-4    3.628979051027910E-3    7.201487830363352E-4    3.685310901931511E-3    4.256971314795848E-1   -1.475175024850002E-1
 8.116693682375000E9     5.069438375602902E-1    6.629997324188452E-3    6.485756777256999E-4    3.634541231801625E-3    6.954971467436829E-4    3.689965361999920E-3    4.257310645377604E-1   -1.479512579169584E-1
 8.116698971000000E9     5.068372617043951E-1    6.308117800820131E-3    6.599777798051617E-4    3.622158411953469E-3    6.795865988642058E-4    3.683698958155720E-3    4.257090779405310E-1   -1.483302156002856E-1
 8.116704259625000E9     5.067901423250731E-1    5.852108048752225E-3    6.399021441977574E-4    3.628179207017617E-3    7.520079073031676E-4    3.728455414762820E-3    4.255377516142845E-1   -1.487101772527850E-1
 8.116709548250000E9     5.067845141438120E-1    5.660228122272510E-3    6.261317881893230E-4    3.629141891435653E-3    6.804981206273470E-4    3.711537541885649E-3    4.254155276064627E-1   -1.490540057276326E-1
 8.116714836875000E9     5.068949440088683E-1    5.205289979133628E-3    6.609822769653580E-4    3.649093279567386E-3    7.178955829877971E-4    3.708628925489017E-3    4.252608973525643E-1   -1.493359114055712E-1
 8.116720125500000E9     5.068132852567762E-1    4.804607991709832E-3    6.499994854259953E-4    3.653541874743751E-3    7.097756547165568E-4    3.705675845704946E-3    4.251542004184292E-1   -1.497022086318603E-1
 8.116725414125000E9     5.067692952800867E-1    4.307432762734792E-3    6.687048441170451E-4    3.648178481415519E-3    7.434419216556171E-4    3.731194707591242E-3    4.250985839418079E-1   -1.500722926075056E-1
 8.116730702750000E9     5.067635250754355E-1    4.015491414845890E-3    6.902052286677430E-4    3.651414492333839E-3    7.536694291480953E-4    3.712110704385214E-3    4.249551522879987E-1   -1.504776317395709E-1
 8.116735991375000E9     5.068510106251310E-1    3.475113119817665E-3    6.579469398476602E-4    3.644985486747665E-3    7.328846608689528E-4    3.715907698097372E-3    4.248354847084952E-1   -1.506991289446402E-1
 8.116741280000000E9     5.066825688258020E-1    3.164968951597648E-3    6.842691100035107E-4    3.666330964874190E-3    7.318885763102150E-4    3.732437000334946E-3    4.246427641171947E-1   -1.508982154580714E-1
 8.116746568625000E9     5.067430398169437E-1    2.768419463099920E-3    6.701573136608350E-4    3.656753167098816E-3    7.275399362774448E-4    3.703076835977573E-3    4.245139182378413E-1   -1.513802726136919E-1
 8.116751857250000E9     5.067781030907107E-1    2.378641537734180E-3    6.884103164704493E-4    3.662711653957961E-3    7.392156104340752E-4    3.686885223078851E-3    4.245585465655627E-1   -1.518873295791753E-1
 8.116757145875000E9     5.067862504946580E-1    1.840663819402665E-3    6.887988516880689E-4    3.644102924758434E-3    7.468560502351367E-4    3.732775361592221E-3    4.244157035137942E-1   -1.520295404531168E-1
 8.116762434500000E9     5.067088173205369E-1    1.445315210045783E-3    7.133505477947823E-4    3.652377667449124E-3    7.158042215984985E-4    3.683914598587411E-3    4.242851784104784E-1   -1.525350162864873E-1
 8.116767723125000E9     5.068487387636504E-1    1.147447048999606E-3    7.135325397759728E-4    3.658429009935920E-3    7.374015097724480E-4    3.701197684185158E-3    4.241266625761422E-1   -1.529832239066187E-1
 8.116773011750000E9     5.066942963349178E-1    7.674014394852193E-4    7.075252314789287E-4    3.653385664901464E-3    7.571547946019156E-4    3.741384852622700E-3    4.240878607385591E-1   -1.531556598583970E-1
 8.116778300375000E9     5.067605401913314E-1    3.747820844857003E-4    7.488208709487334E-4    3.682226635704707E-3    7.344882217098690E-4    3.751386319152862E-3    4.238404705669813E-1   -1.536067523707557E-1
 8.116783589000000E9     5.067527014238772E-1   -1.539604725441673E-4    7.150363768038176E-4    3.696441111647087E-3    7.548268632983707E-4    3.731008471242214E-3    4.240168275209512E-1   -1.540335571676631E-1
 8.116788877625000E9     5.067452588511261E-1   -5.119790941028550E-4    7.222959554171086E-4    3.657769501542717E-3    7.707226024889589E-4    3.748109464799419E-3    4.236955982225693E-1   -1.543158776367536E-1
 8.116794166250000E9     5.068066080753075E-1   -1.026825627419555E-3    7.122264817750739E-4    3.675390846355014E-3    7.758722247163046E-4    3.742014667928109E-3    4.236826709142912E-1   -1.546701725674577E-1
 8.116799454875000E9     5.067456294631350E-1   -1.360971134560215E-3    7.317732519387829E-4    3.671580447952983E-3    7.759295234814891E-4    3.740803915793301E-3    4.235543512489399E-1   -1.550450977245415E-1
 8.116804743500000E9     5.068380818496365E-1   -1.895901155141431E-3    7.488552851708998E-4    3.675804820681086E-3    7.639069687663027E-4    3.721418566447894E-3    4.233616497375400E-1   -1.554206997029196E-1
 8.116810032125000E9     5.066567005027257E-1   -2.208592435377846E-3    7.256740130115450E-4    3.655212539734471E-3    7.936498930289505E-4    3.742508145310458E-3    4.232586546035154E-1   -1.556316548804717E-1
 8.116815320750000E9     5.067736129871128E-1   -2.554701752805556E-3    7.496041991267842E-4    3.689684342152248E-3    8.254135030022753E-4    3.763045262634866E-3    4.232547576514663E-1   -1.560722671238536E-1
 8.116820609375000E9     5.066086110920029E-1   -3.034497833860506E-3    7.455928359006863E-4    3.687285496893275E-3    8.083187880706893E-4    3.740956019792512E-3    4.229427259624201E-1   -1.563520185423022E-1
 8.116825898000000E9     5.066845896183593E-1   -3.455082217272771E-3    7.417315624903116E-4    3.688448820039999E-3    7.757365321362642E-4    3.749784856982281E-3    4.229829972597594E-1   -1.567787431341568E-1
 8.116831186625000E9     5.066640294386949E-1   -3.663922736666900E-3    7.277559564596648E-4    3.697585308988417E-3    8.268068065995618E-4    3.770163603709384E-3    4.228493348760359E-1   -1.570350581157965E-1
 8.116836475250000E9     5.066798077817506E-1   -4.232886809149159E-3    7.637631500261213E-4    3.705750468827316E-3    7.975175047994894E-4    3.793861505272905E-3    4.226669518178472E-1   -1.575348435605090E-1
 8.116841763875000E9     5.066204042548882E-1   -4.670831031597913E-3    7.595485061623770E-4    3.688255753329259E-3    8.029457974174785E-4    3.744497879899882E-3    4.226402373870224E-1   -1.578723927458033E-1
 8.116847052500000E9     5.064486944162403E-1   -4.983401715168429E-3    7.635562065112144E-4    3.689009386708609E-3    8.346779450497041E-4    3.745212442426668E-3    4.223307746003888E-1   -1.581595233656156E-1
 8.116852341125000E9     5.067281174177997E-1   -5.492865328833443E-3    7.816923770175379E-4    3.706268755985921E-3    8.007999955359987E-4    3.777391052145883E-3    4.223851014451441E-1   -1.584250212677593E-1
 8.116857629750000E9     5.064978027858587E-1   -5.795950782400568E-3    7.654404696271929E-4    3.718905710589345E-3    8.376193938950722E-4    3.791286678077483E-3    4.221831970423329E-1   -1.588406108201157E-1
 8.116862918375000E9     5.065111260647164E-1   -6.287270388510294E-3    7.745402670918633E-4    3.711956287786997E-3    8.097560716269675E-4    3.781530916355909E-3    4.220657009299219E-1   -1.591546847459157E-1
 8.116868207000000E9     5.065819787987556E-1   -6.675432062441822E-3    7.714801441052367E-4    3.738653033086737E-3    8.371437261614252E-4    3.790859211771155E-3    4.221175977783678E-1   -1.595189356535216E-1
 8.116873495625000E9     5.065118935018543E-1   -7.092245448922666E-3    7.698434668788282E-4    3.727592028780953E-3    8.455051903443711E-4    3.791078055590902E-3    4.219531183317574E-1   -1.599094702621910E-1
 8.116878784250000E9     5.064684069812011E-1   -7.503910741036923E-3    7.800072955691734E-4    3.715071758979989E-3    8.337533770593698E-4    3.796236016961402E-3    4.215718848751801E-1   -1.603749975201288E-1
 8.116884072875000E9     5.064640331491157E-1   -7.873485526430355E-3    7.772005301031592E-4    3.731989648979679E-3    8.339748303667230E-4    3.765650556502881E-3    4.215534757857517E-1   -1.604590488659424E-1
 8.116889361500000E9     5.063544659142351E-1   -8.335692209416176E-3    8.139330622692776E-4    3.715124632941661E-3    8.280879826148426E-4    3.814498846768019E-3    4.215220982958856E-1   -1.609000535563542E-1
 8.116894650125000E9     5.064845005828723E-1   -8.709378736611229E-3    8.046050351997790E-4    3.720882591753562E-3    8.384084861460517E-4    3.762003560557490E-3    4.213281628492538E-1   -1.612170083050939E-1
 8.116899938750000E9     5.064578830905491E-1   -9.176203680796254E-3    7.899828434357337E-4    3.743458124862671E-3    8.949204754964596E-4    3.846850626589762E-3    4.213814288650868E-1   -1.616947890763736E-1
 8.116905227375000E9     5.063455330961587E-1   -9.503482678516985E-3    8.197336368935182E-4    3.761206741739612E-3    8.715414119675396E-4    3.800540143756461E-3    4.211596121834602E-1   -1.619777030254465E-1
 8.116910516000000E9     5.063577834270740E-1   -9.901504217195670E-3    7.970924074018300E-4    3.750662508729019E-3    9.020472994985004E-4    3.782037862400784E-3    4.210501061904205E-1   -1.623789970107193E-1
 8.116915804625000E9     5.064289093817673E-1   -1.033248192593369E-2    8.191521027205383E-4    3.757635861204268E-3    8.912706792477897E-4    3.802318266028907E-3    4.208185885051893E-1   -1.626483100320371E-1
 8.116921093250000E9     5.063641302129719E-1   -1.075353591275907E-2    8.136465428318383E-4    3.771620861857931E-3    8.575168259685450E-4    3.795792170736996E-3    4.207020068939818E-1   -1.630783435182964E-1
 8.116926381875000E9     5.062119235838382E-1   -1.107360109512853E-2    8.442346414351042E-4    3.794976316675098E-3    9.068472935872217E-4    3.816134729362517E-3    4.206514037911835E-1   -1.634108667608017E-1
 8.116931670500000E9     5.062744276315837E-1   -1.156677600459725E-2    8.455994546070041E-4    3.743399778337974E-3    9.117163708577663E-4    3.799346009486994E-3    4.205597279081695E-1   -1.637491803610942E-1
 8.116936959125000E9     5.063116712644450E-1   -1.200906406093167E-2    8.294294186914806E-4    3.768414764889782E-3    8.654487028471330E-4    3.851487134289565E-3    4.203756833665394E-1   -1.640038104688759E-1
 8.116942247750000E9     5.062821080173282E-1   -1.244263056031566E-2    8.901687627611116E-4    3.763670970006325E-3    9.076705049302488E-4    3.831903043158104E-3    4.202989383371554E-1   -1.644182869442760E-1
 8.116947536375000E9     5.062249832978200E-1   -1.290877924352375E-2    8.700489585087485E-4    3.803201081188405E-3    9.175479263197890E-4    3.826888750633030E-3    4.202773620671386E-1   -1.646718737829440E-1
 8.116952825000000E9     5.063291717158780E-1   -1.332348586499862E-2    8.607456770938823E-4    3.761509535203746E-3    9.402829928991162E-4    3.866394011593963E-3    4.201151628239550E-1   -1.651129892570424E-1
 8.116958113625000E9     5.063164009331852E-1   -1.366133411120344E-2    8.414561011935173E-4    3.789235734771138E-3    9.125507490049117E-4    3.813274180200949E-3    4.199434709239885E-1   -1.655532042177326E-1
 8.116963402250000E9     5.061608919289735E-1   -1.407593501880639E-2    8.713002578103951E-4    3.781125726892633E-3    9.491718827761628E-4    3.856857255478516E-3    4.197850899272946E-1   -1.658727509761898E-1
