#  HZ   S   RI   R     50.00 
! Rohde & Schwarz Vector Network Analyzer 
! Rohde-Schwarz,ZNB20-2Port,1311601062101988,3.16
! Created: UTC 3/20/2024, 11:56:33 AM
! freq[Hz]                re:S11                  im:S11                  re:S21                  im:S21                  re:S12                  im:S12                  re:S22                  im:S22
 8.116527439000000E9     5.068786874108731E-1    1.977579476855676E-2    5.246192225615220E-4    3.552178088411319E-3    6.006789421918053E-4    3.605856847933735E-3    4.290425084416422E-1   -1.369962952344137E-1
 8.116532592700000E9     5.069269825224653E-1    1.936162669783671E-2    5.335557015287049E-4    3.560959606917213E-3    5.804290311120749E-4    3.623950923935550E-3    4.286965624292463E-1   -1.370455631234660E-1
 8.116537746400000E9     5.068982850433063E-1    1.884994769090184E-2    5.256603193744785E-4    3.577257182268557E-3    5.551059690781583E-4    3.605545266196829E-3    4.287295525459836E-1   -1.375811488689292E-1
 8.116542900100000E9     5.069478274476458E-1    1.854264769884892E-2    5.291416401313622E-4    3.562843540515631E-3    5.787172577645057E-4    3.611039689440983E-3    4.286919333890529E-1   -1.381020389686205E-1
 8.116548053800000E9     5.069958384707326E-1    1.813501855620854E-2    5.309242254056398E-4    3.582440061648304E-3    6.036542277683827E-4    3.631670401328169E-3    4.284655755818978E-1   -1.382895155716635E-1
 8.116553207500000E9     5.069881577114984E-1    1.771511328836458E-2    5.540571033123083E-4    3.549868151194357E-3    5.551743779466981E-4    3.609458487014894E-3    4.282222016642845E-1   -1.387089451468210E-1
 8.116558361200000E9     5.070475706994980E-1    1.730945609892982E-2    5.443100515779515E-4    3.575258626722956E-3    6.096669223804443E-4    3.634729632538961E-3    4.282821491135724E-1   -1.390591751535866E-1
 8.116563514900000E9     5.069487210862967E-1    1.693645040381318E-2    5.682798344572557E-4    3.576745783215421E-3    5.808741839240729E-4    3.619431278325407E-3    4.283100441342361E-1   -1.393150093692217E-1
 8.116568668600000E9     5.069953581563724E-1    1.655109155887225E-2    5.333505069241212E-4    3.581758410519558E-3    5.963478467886976E-4    3.643975451017563E-3    4.281518290244429E-1   -1.396970780577230E-1
 8.116573822300000E9     5.070685786697384E-1    1.624941608598813E-2    5.673822253860001E-4    3.569743883026911E-3    6.292265624545387E-4    3.672705054939355E-3    4.281864564000176E-1   -1.399585344548532E-1
 8.116578976000000E9     5.070058744421332E-1    1.581189612723797E-2    5.731225702003287E-4    3.585214759227858E-3    6.100978374322742E-4    3.653885896946688E-3    4.279829194466113E-1   -1.403342913168802E-1
 8.116584129700000E9     5.070353721999917E-1    1.542447370012645E-2    5.854750232773624E-4    3.596672132621724E-3    6.100161602494746E-4    3.675218578670403E-3    4.277517288411533E-1   -1.406192915396970E-1
 8.116589283400000E9     5.070328077526447E-1    1.496458834200605E-2    5.753094013129901E-4    3.591487584116444E-3    6.665502157327384E-4    3.653161056981201E-3    4.276874101211793E-1   -1.409336513439700E-1
 8.116594437100000E9     5.070636420925502E-1    1.453058417860433E-2    5.593412234345972E-4    3.571559859687142E-3    6.513352329331430E-4    3.634479789605368E-3    4.275685559863520E-1   -1.413647965493408E-1
 8.116599590800000E9     5.070220324575206E-1    1.418723413971436E-2    6.017955520713857E-4    3.594924818331116E-3    6.160836941314752E-4    3.670803973604628E-3    4.275574352704610E-1   -1.417528322273018E-1
 8.116604744500000E9     5.071689290767293E-1    1.387100468830452E-2    5.676297434175903E-4    3.593750628647369E-3    6.520154216981817E-4    3.696107162256290E-3    4.274132794785771E-1   -1.419513637308485E-1
 8.116609898200000E9     5.069865867828512E-1    1.342867861019706E-2    6.164224970397050E-4    3.613402233953324E-3    6.516718863907190E-4    3.651568521861517E-3    4.273626588596593E-1   -1.423535723705242E-1
 8.116615051900000E9     5.071384720432518E-1    1.300425029515691E-2    5.926764659290863E-4    3.573570514644568E-3    6.434653222557752E-4    3.649358711324951E-3    4.272499728725033E-1   -1.427742039584254E-1
 8.116620205600000E9     5.070140638131978E-1    1.253313236902190E-2    5.996905240165464E-4    3.591407759725702E-3    6.514035463112787E-4    3.601022556854989E-3    4.270896728695130E-1   -1.431754229657378E-1
 8.116625359300000E9     5.070132307397308E-1    1.224497124226307E-2    5.793937761569927E-4    3.596795596876546E-3    6.575767159799487E-4    3.640558708169021E-3    4.270046536578576E-1   -1.432907811138859E-1
 8.116630513000000E9     5.070750413689294E-1    1.181388840980419E-2    5.957406819616169E-4    3.588370368412614E-3    6.177652272411972E-4    3.670323821606932E-3    4.268385985558291E-1   -1.437193977073447E-1
 8.116635666700000E9     5.070763831007903E-1    1.138976454933604E-2    6.139590212839808E-4    3.611471353582177E-3    6.455708959207577E-4    3.664268438014015E-3    4.268279566453213E-1   -1.441085198707657E-1
 8.116640820400000E9     5.070266386552090E-1    1.116559425402283E-2    5.981458082062011E-4    3.608804589592209E-3    6.696807550961600E-4    3.636806445997841E-3    4.267524595366167E-1   -1.443334862239539E-1
 8.116645974100000E9     5.070684672463777E-1    1.070913573182589E-2    6.224874159826301E-4    3.606969937085798E-3    6.604963087847936E-4    3.696445620107533E-3    4.267001166214218E-1   -1.448341556619757E-1
 8.116651127800000E9     5.070335091201625E-1    1.025911954431424E-2    5.692557218232398E-4    3.620597517399975E-3    6.820413750817829E-4    3.648122537495152E-3    4.264600267859306E-1   -1.450472474850047E-1
 8.116656281500000E9     5.070474172697839E-1    9.932833558948605E-3    6.106688575783871E-4    3.620221110475718E-3    6.607242079095755E-4    3.713438646182527E-3    4.262951649931275E-1   -1.453998548143387E-1
 8.116661435200000E9     5.070564781832980E-1    9.419938759707024E-3    6.254118160697599E-4    3.620818594178379E-3    6.681768863940376E-4    3.667757689998955E-3    4.264147700090397E-1   -1.457886971243650E-1
 8.116666588900000E9     5.070245656537608E-1    9.054109482247399E-3    6.108146379285919E-4    3.608441529151048E-3    6.578894998980309E-4    3.640718470729996E-3    4.263291474122092E-1   -1.462348562154020E-1
 8.116671742600000E9     5.070659209360233E-1    8.651372205842155E-3    6.383864314408943E-4    3.619944131217684E-3    6.832671327796047E-4    3.616192189232338E-3    4.260883173810172E-1   -1.465640464987109E-1
 8.116676896300000E9     5.070557749107314E-1    8.238416809252597E-3    6.545779044175806E-4    3.621496434312732E-3    6.544132221273191E-4    3.698668501714016E-3    4.261744624620580E-1   -1.469152027823868E-1
 8.116682050000000E9     5.070573567357556E-1    7.900475169633681E-3    6.159635902815276E-4    3.616485480478344E-3    6.850848339374093E-4    3.666887879647722E-3    4.259595090479957E-1   -1.472093615700447E-1
 8.116687203700000E9     5.070005752380546E-1    7.426244310855846E-3    6.112010872863372E-4    3.654602377265921E-3    7.390430999855028E-4    3.691342984374857E-3    4.257042780185178E-1   -1.475560321071661E-1
 8.116692357400000E9     5.070724456211207E-1    7.126084783234714E-3    6.450963829565354E-4    3.623440777610724E-3    6.822026793996516E-4    3.691816440756066E-3    4.257679998152018E-1   -1.479155271080367E-1
 8.116697511100000E9     5.069720114104000E-1    6.581211260244998E-3    6.610730739823352E-4    3.631855995656910E-3    7.573044702609618E-4    3.686178101461493E-3    4.256767520706866E-1   -1.482328049753665E-1
 8.116702664800000E9     5.071156537253829E-1    6.257512226530288E-3    6.373398345381595E-4    3.637945364828874E-3    7.308193057014998E-4    3.694581117869555E-3    4.255914073134333E-1   -1.486127021619311E-1
 8.116707818500000E9     5.070602929645920E-1    5.843866425105695E-3    6.341784857870629E-4    3.621865866904795E-3    7.063658861299085E-4    3.701098086892915E-3    4.253844886594947E-1   -1.489653333545406E-1
 8.116712972200000E9     5.070458900843799E-1    5.525789143468516E-3    6.591073528426518E-4    3.654262219902446E-3    7.176443666243407E-4    3.681522366456678E-3    4.251740282860101E-1   -1.493144175739753E-1
 8.116718125900000E9     5.070227645523921E-1    5.095801871064412E-3    6.689353838479519E-4    3.641602295980868E-3    7.161972426557237E-4    3.690913373378053E-3    4.251284204799800E-1   -1.496377203003577E-1
 8.116723279600000E9     5.070315008829769E-1    4.740692918448423E-3    6.530148555744275E-4    3.648011237445415E-3    6.896679823886299E-4    3.691295552274595E-3    4.249856106680413E-1   -1.500219092266423E-1
 8.116728433300000E9     5.069836368124524E-1    4.327492536703476E-3    6.471930854829468E-4    3.629421466108898E-3    6.852684023982479E-4    3.713424149311693E-3    4.249345366888551E-1   -1.503613616970306E-1
 8.116733587000000E9     5.070062439378393E-1    3.804415176806157E-3    6.537455673345187E-4    3.649432807640468E-3    7.230340581192513E-4    3.721087525366662E-3    4.248920658046921E-1   -1.505839432378283E-1
 8.116738740700000E9     5.070120218824168E-1    3.577663366931377E-3    6.609711974381112E-4    3.608505966865367E-3    7.723568664276307E-4    3.683998003377396E-3    4.246714900867156E-1   -1.509254391675597E-1
 8.116743894400000E9     5.070648783661234E-1    3.152788055354330E-3    6.692247085806476E-4    3.648674944848356E-3    7.115865465482230E-4    3.722951165806399E-3    4.245748696268354E-1   -1.514053702314379E-1
 8.116749048100000E9     5.070335436727593E-1    2.696744808660424E-3    6.738224497207958E-4    3.642586556131351E-3    7.588023672678311E-4    3.739974897478905E-3    4.244650027404261E-1   -1.515320452696031E-1
 8.116754201800000E9     5.070182738527111E-1    2.404053681017626E-3    6.878729347789577E-4    3.659787413363260E-3    7.484670624754653E-4    3.716153221420519E-3    4.245239745618631E-1   -1.520459889888114E-1
 8.116759355500000E9     5.069436191183136E-1    1.839836549062249E-3    7.037610857626825E-4    3.638240218686062E-3    7.663399072208134E-4    3.716896629359377E-3    4.243097511117321E-1   -1.523411228588831E-1
 8.116764509200000E9     5.069290078285653E-1    1.449932331108523E-3    6.771095673967986E-4    3.644065805596613E-3    7.437475271687067E-4    3.734750333353851E-3    4.241396459006825E-1   -1.527127028919741E-1
 8.116769662900000E9     5.069510433869039E-1    1.135385948323681E-3    7.138751036580785E-4    3.660870322060210E-3    7.880234906375766E-4    3.669266920151356E-3    4.240980532683580E-1   -1.530080629944617E-1
 8.116774816600000E9     5.069824928290939E-1    7.752961791474281E-4    6.933851001289210E-4    3.665710177230088E-3    7.454424781370659E-4    3.748555410492075E-3    4.239770755427973E-1   -1.532650531886957E-1
 8.116779970300000E9     5.070050680083150E-1    3.631827827775439E-4    7.229753494245243E-4    3.678465547412895E-3    7.275738244837349E-4    3.735157857675521E-3    4.237766145607375E-1   -1.536910081576483E-1
 8.116785124000000E9     5.070508234880768E-1   -1.235053652731260E-5    7.077519853253842E-4    3.683808849020839E-3    7.064468283294529E-4    3.764926461696971E-3    4.237056475536430E-1   -1.541033806903624E-1
 8.116790277700000E9     5.070113195894869E-1   -4.293718035740350E-4    7.072577241832299E-4    3.683698048574245E-3    8.003250308457282E-4    3.718237808270679E-3    4.235823970471915E-1   -1.543771882674849E-1
 8.116795431400000E9     5.069779286049946E-1   -8.280924766667588E-4    7.054057384663295E-4    3.651340375544946E-3    7.718308130112534E-4    3.757336045533791E-3    4.236625258680866E-1   -1.547870151269979E-1
 8.116800585100000E9     5.068636688102710E-1   -1.259775138688396E-3    7.144069944946930E-4    3.708894820683585E-3    7.688823236625163E-4    3.736122724017693E-3    4.234897715590380E-1   -1.549650902770710E-1
 8.116805738800000E9     5.068197239808534E-1   -1.651782671650522E-3    7.392125669332130E-4    3.676851479533364E-3    8.072656172422067E-4    3.697814110875041E-3    4.233618661937146E-1   -1.554865363803703E-1
 8.116810892500000E9     5.068967869379039E-1   -1.939252274622780E-3    7.149877586491399E-4    3.668562742868093E-3    8.006526349475493E-4    3.729155313608646E-3    4.234092179890737E-1   -1.556741464355128E-1
 8.116816046200000E9     5.068442999741736E-1   -2.421910903170212E-3    7.330466929106084E-4    3.706343612327921E-3    7.671957524898566E-4    3.753518467297474E-3    4.231381570327182E-1   -1.560888958793838E-1
 8.116821199900000E9     5.068498159998599E-1   -2.711092429190850E-3    7.602700727652846E-4    3.694530535205325E-3    7.815116695319973E-4    3.743518843309630E-3    4.229793265891358E-1   -1.564322181729631E-1
 8.116826353600000E9     5.068262574181829E-1   -3.173233120606728E-3    7.630350386219135E-4    3.677695429960610E-3    7.993416692883332E-4    3.741395652466303E-3    4.229855732555353E-1   -1.566913772286047E-1
 8.116831507300000E9     5.068637890128165E-1   -3.581188652878786E-3    7.704514874873601E-4    3.725647907462720E-3    7.707335180160529E-4    3.751028828259037E-3    4.227044367062157E-1   -1.571941870629371E-1
 8.116836661000000E9     5.069020088346162E-1   -4.092119733904108E-3    7.671983502625808E-4    3.713365630602233E-3    8.092363121708968E-4    3.769562736285786E-3    4.227342646356290E-1   -1.573491277240290E-1
 8.116841814700000E9     5.068279910928708E-1   -4.352996504715129E-3    7.597204202359225E-4    3.695555476115075E-3    8.020612031711397E-4    3.783321329723814E-3    4.226007172525850E-1   -1.578073513448853E-1
 8.116846968400000E9     5.068468768956650E-1   -4.845582391128949E-3    7.527894445429915E-4    3.695675122007646E-3    8.238291609889856E-4    3.735784269330112E-3    4.224958307045951E-1   -1.582668607205478E-1
 8.116852122100000E9     5.068028395292667E-1   -5.176004385983366E-3    7.673099140816615E-4    3.714937718028607E-3    8.221194179039943E-4    3.752242274832482E-3    4.223649139642486E-1   -1.584739534064913E-1
 8.116857275800000E9     5.067867166873991E-1   -5.459299715288226E-3    7.590482889283822E-4    3.716496417456578E-3    8.235000210532952E-4    3.798432676586150E-3    4.220880056950633E-1   -1.588519896541613E-1
 8.116862429500000E9     5.068472538502389E-1   -6.013222299741083E-3    7.638990946924824E-4    3.713901246048130E-3    8.447998250348696E-4    3.784440886676118E-3    4.221483545528885E-1   -1.592350974798200E-1
 8.116867583200000E9     5.067461558785310E-1   -6.451239530471057E-3    7.857955316445689E-4    3.719567057680534E-3    8.156682391402858E-4    3.771992473838237E-3    4.219975555388472E-1   -1.594485991858300E-1
 8.116872736900000E9     5.066375474328777E-1   -6.833276139667092E-3    7.927362802772346E-4    3.719438320368855E-3    8.385145622729265E-4    3.782241925448071E-3    4.218708815500595E-1   -1.599271090204802E-1
 8.116877890600000E9     5.067284224483823E-1   -7.269945848334487E-3    7.607376904271882E-4    3.734329018044118E-3    8.083348406748330E-4    3.780080669695764E-3    4.217717176844056E-1   -1.603103953372150E-1
 8.116883044300000E9     5.066159447489189E-1   -7.584770965492591E-3    7.862881245616556E-4    3.706507304884097E-3    8.494951893273059E-4    3.803401874202430E-3    4.216719743045478E-1   -1.606104856226285E-1
 8.116888198000000E9     5.066205298489498E-1   -7.976353462032442E-3    8.254154171594735E-4    3.740262646805769E-3    8.775319005536158E-4    3.758994129260040E-3    4.215031537273572E-1   -1.610025770156512E-1
 8.116893351700000E9     5.067894670103692E-1   -8.358336371242472E-3    8.233905175201746E-4    3.736614860676809E-3    8.599349222237607E-4    3.774561896795483E-3    4.214225901653241E-1   -1.611891023639919E-1
 8.116898505400000E9     5.066687456151365E-1   -8.799298272474654E-3    8.240260811655252E-4    3.759673352242858E-3    8.121680090684470E-4    3.787275159954161E-3    4.214195963417299E-1   -1.615774131557840E-1
 8.116903659100000E9     5.066469485562390E-1   -9.222249303008648E-3    7.905514579911372E-4    3.749398299816614E-3    9.051048419360656E-4    3.814025185758795E-3    4.212219692917091E-1   -1.618256407306149E-1
 8.116908812800000E9     5.067303556754066E-1   -9.597025739235826E-3    8.126935726517339E-4    3.730965271755649E-3    8.374050714277803E-4    3.840150922053756E-3    4.209029985442672E-1   -1.622569633984319E-1
 8.116913966500000E9     5.066798187085235E-1   -1.008687574207749E-2    7.938742846541131E-4    3.748816115310903E-3    8.959319225930466E-4    3.783897343931559E-3    4.209436852137478E-1   -1.625522334465281E-1
 8.116919120200000E9     5.066506188045090E-1   -1.036847763597456E-2    8.279818901650311E-4    3.724450696501040E-3    9.083858185140970E-4    3.832939711438133E-3    4.207491098372241E-1   -1.629503150268647E-1
 8.116924273900000E9     5.065432097005721E-1   -1.064525640804788E-2    8.309637916066321E-4    3.727902089304415E-3    8.941190961281386E-4    3.834991260938685E-3    4.207416869169388E-1   -1.631456567557497E-1
 8.116929427600000E9     5.065972679479697E-1   -1.111642804571958E-2    8.167834726002922E-4    3.728269468879931E-3    8.697224174357831E-4    3.838144103675666E-3    4.206234343520924E-1   -1.634802941408764E-1
 8.116934581300000E9     5.065219443005891E-1   -1.159006229391266E-2    8.178109310823726E-4    3.759818301918735E-3    9.387563502151033E-4    3.820560913460266E-3    4.205427168930276E-1   -1.639836231465160E-1
 8.116939735000000E9     5.066537108847688E-1   -1.198316022410330E-2    8.472728521511723E-4    3.782054617759502E-3    8.862587038105894E-4    3.822954852946287E-3    4.204315326064125E-1   -1.642997348282659E-1
 8.116944888700000E9     5.065350989629482E-1   -1.235969601959633E-2    8.526387730204928E-4    3.772922134619514E-3    8.553613378862070E-4    3.815305742695856E-3    4.202527724986789E-1   -1.645453115540998E-1
 8.116950042400000E9     5.065678887926165E-1   -1.270320040310668E-2    8.545700615009017E-4    3.773018310809333E-3    9.115959841664085E-4    3.865294589867890E-3    4.201682559540318E-1   -1.650080589689179E-1
 8.116955196100000E9     5.064729822011119E-1   -1.319552410175175E-2    8.554284020485176E-4    3.788433852721753E-3    9.293067409347331E-4    3.854910521310635E-3    4.200589205340649E-1   -1.652440605631348E-1
 8.116960349800000E9     5.064191387605964E-1   -1.355702274897407E-2    8.638937569174723E-4    3.774629996302184E-3    8.813793690089380E-4    3.818858989165716E-3    4.198849670448045E-1   -1.656498402869278E-1
 8.116965503500000E9     5.064391584998527E-1   -1.399563067642094E-2    8.694329139730498E-4    3.781747057291591E-3    8.891404217337900E-4    3.803340826854689E-3    4.198103238900229E-1   -1.659135775795331E-1
 8.116970657200000E9     5.064264742871791E-1   -1.436989324932544E-2    8.944709186935901E-4    3.782960418054736E-3    9.307068085376865E-4    3.852814527730506E-3    4.196693959740250E-1   -1.664072320365213E-1
 8.116975810900000E9     5.064300874638197E-1   -1.484515966784554E-2    8.755748719649526E-4    3.794665261091506E-3    9.566584033592094E-4    3.824636891873175E-3    4.194872238546188E-1   -1.666419902317803E-1
 8.116980964600000E9     5.063486477266385E-1   -1.517603411066532E-2    8.717260122558995E-4    3.768738729378118E-3    9.404752958391905E-4    3.861284164266416E-3    4.193671896106299E-1   -1.669942345558824E-1
 8.116986118300000E9     5.063392218971177E-1   -1.566429079003990E-2    9.033795191595912E-4    3.781910484255076E-3    9.254051579348685E-4    3.835046578095814E-3    4.192640859626359E-1   -1.673712293167990E-1
 8.116991272000000E9     5.063232647522005E-1   -1.592627128731208E-2    8.909340133529343E-4    3.814126387579670E-3    9.545282997453047E-4    3.863735789014006E-3    4.192318528028144E-1   -1.675806458589480E-1
