#  HZ   S   RI   R     50.00 
! Rohde & Schwarz Vector Network Analyzer 
! Rohde-Schwarz,ZNB20-2Port,1311601062101988,3.16
! Created: UTC 3/20/2024, 11:57:02 AM
! freq[Hz]                re:S11                  im:S11                  re:S21                  im:S21                  re:S12                  im:S12                  re:S22                  im:S22
 8.116590520000000E9     5.073920826116978E-1    1.557379282672660E-2    5.572282056866792E-4    3.599835037862291E-3    6.086212115793023E-4    3.635334852909719E-3    4.277062559852653E-1   -1.411702619722733E-1
 8.116595434025000E9     5.074924380812231E-1    1.508727116277393E-2    5.731721558188232E-4    3.601019070838078E-3    6.661273505742805E-4    3.597237290374040E-3    4.274948017885659E-1   -1.414193127104815E-1
 8.116600348050000E9     5.074383404270488E-1    1.459152206760662E-2    5.746498600750553E-4    3.572073163880054E-3    6.277822388607629E-4    3.631303193025622E-3    4.275313204462337E-1   -1.417455522822852E-1
 8.116605262075000E9     5.075268912081232E-1    1.440638212932236E-2    5.649687470775760E-4    3.595476323214527E-3    6.449081885010238E-4    3.656010113593212E-3    4.274912314431177E-1   -1.420193022971348E-1
 8.116610176100000E9     5.074710571406293E-1    1.395307347534508E-2    5.949133178401793E-4    3.616237600733674E-3    7.059466807351541E-4    3.692409571283031E-3    4.273188650013753E-1   -1.426065496778889E-1
 8.116615090125000E9     5.074771566542599E-1    1.350848705992002E-2    5.740993537454335E-4    3.602571734880614E-3    6.754916964189691E-4    3.633520857869413E-3    4.272765119533725E-1   -1.428915179658608E-1
 8.116620004150000E9     5.074399544895035E-1    1.333835747061186E-2    5.601285802228916E-4    3.580008174207892E-3    6.652698073972331E-4    3.642250114255907E-3    4.270863688544611E-1   -1.431130324392288E-1
 8.116624918175000E9     5.074968480622402E-1    1.287977688874020E-2    6.000625970325998E-4    3.582616845277987E-3    6.232521666956673E-4    3.668303238086983E-3    4.269635411798747E-1   -1.434223392806140E-1
 8.116629832200000E9     5.075412363083024E-1    1.239782762588074E-2    5.919293966270289E-4    3.611798571648760E-3    6.762287762666045E-4    3.672677137286002E-3    4.268227427747125E-1   -1.437567976282203E-1
 8.116634746225000E9     5.074522153810697E-1    1.212142785101212E-2    5.677383143613975E-4    3.603519701717082E-3    6.688232211054476E-4    3.677728488486726E-3    4.268338188687286E-1   -1.440829124218959E-1
 8.116639660250000E9     5.075034068468383E-1    1.168544067863539E-2    5.950036551408367E-4    3.605623957140037E-3    6.588364987191845E-4    3.639442352388336E-3    4.266247527780860E-1   -1.443353991117106E-1
 8.116644574275000E9     5.075905445911638E-1    1.123548424849030E-2    6.146102318753293E-4    3.607091629464272E-3    6.579085605204755E-4    3.694093113397346E-3    4.267184267370487E-1   -1.446315086967773E-1
 8.116649488300000E9     5.075541089082551E-1    1.088392061057676E-2    5.906294261137238E-4    3.600569803315734E-3    6.908776329272654E-4    3.672438573053552E-3    4.265488754278767E-1   -1.449346190120625E-1
 8.116654402325000E9     5.075841053038319E-1    1.054828453922697E-2    5.899849739297498E-4    3.593478106400048E-3    6.765416948754942E-4    3.672949222400452E-3    4.264756373488757E-1   -1.452365124459955E-1
 8.116659316350000E9     5.075120250779241E-1    1.010600463351435E-2    6.127189811785068E-4    3.607722662585924E-3    6.805357747094424E-4    3.662416123600503E-3    4.264081065428932E-1   -1.455988938185996E-1
 8.116664230375000E9     5.075326732709434E-1    9.744962148411434E-3    6.496066193300996E-4    3.602168248983902E-3    6.551826201365944E-4    3.711342726422874E-3    4.260476900134453E-1   -1.461004256881632E-1
 8.116669144400000E9     5.074184610215615E-1    9.288826722826445E-3    6.066873376540711E-4    3.625458039318026E-3    6.699121089179244E-4    3.653991479897523E-3    4.263044162307900E-1   -1.464162675068022E-1
 8.116674058425000E9     5.075064798153909E-1    9.067886261782464E-3    6.518411265418408E-4    3.601488460389164E-3    6.822320720210867E-4    3.671574160585319E-3    4.260646450003477E-1   -1.467023806308400E-1
 8.116678972450000E9     5.074801921106115E-1    8.586349696519353E-3    6.595594407837955E-4    3.636669549147667E-3    6.643357262253728E-4    3.688068327511800E-3    4.259133864217323E-1   -1.471250531760919E-1
 8.116683886475000E9     5.075199276139830E-1    8.353427372198876E-3    6.521384999029311E-4    3.611433667071220E-3    6.475622490522648E-4    3.641812001843987E-3    4.257831535467538E-1   -1.474926147986848E-1
 8.116688800500000E9     5.075263515813552E-1    7.940774633240747E-3    6.126026043968108E-4    3.609062008505616E-3    6.997848072458564E-4    3.650983308333508E-3    4.257843076938240E-1   -1.476052960504393E-1
 8.116693714525000E9     5.075422124204225E-1    7.657486220185639E-3    6.430511574981090E-4    3.618279130999988E-3    7.357957011244199E-4    3.651540758043607E-3    4.257165292469580E-1   -1.479751410839392E-1
 8.116698628550000E9     5.074756390613023E-1    7.211861962826153E-3    6.476426520121900E-4    3.628499818509995E-3    7.091050184799172E-4    3.698286603556156E-3    4.255209708816711E-1   -1.484471540128403E-1
 8.116703542575000E9     5.075668743229875E-1    6.815985649975292E-3    6.468961782084731E-4    3.635757111791729E-3    7.049123405390659E-4    3.725800011292457E-3    4.253503707971484E-1   -1.487230983328442E-1
 8.116708456600000E9     5.075734806994394E-1    6.416969635812583E-3    6.497941151252667E-4    3.633410445972359E-3    7.118154658579952E-4    3.724322347642807E-3    4.254133794422094E-1   -1.489596181965734E-1
 8.116713370625000E9     5.075182313296958E-1    6.047506301003819E-3    6.633247883674381E-4    3.652156196360234E-3    7.175929639688532E-4    3.702773904932373E-3    4.251622517058924E-1   -1.493312467645664E-1
 8.116718284650000E9     5.075076469452157E-1    5.598687270479079E-3    6.280373690883071E-4    3.662659737199785E-3    6.752624448578944E-4    3.679285735847567E-3    4.251913166408864E-1   -1.497672657652550E-1
 8.116723198675000E9     5.075403687795849E-1    5.261334691463252E-3    6.805961625660134E-4    3.636232501773880E-3    7.028242662322105E-4    3.750116089449437E-3    4.251054561643945E-1   -1.499128706847651E-1
 8.116728112700000E9     5.075379564118799E-1    4.899680516592534E-3    6.650647996881460E-4    3.618577208510671E-3    7.349605831883613E-4    3.652448220538201E-3    4.248651176092753E-1   -1.504205646664691E-1
 8.116733026725000E9     5.074832715363704E-1    4.531904619273113E-3    6.574910919482033E-4    3.659073983488754E-3    7.172204393485498E-4    3.731058491331369E-3    4.249398872296135E-1   -1.507734051631204E-1
 8.116737940750000E9     5.074571961913976E-1    4.219368376442664E-3    6.605472925142970E-4    3.635115245903396E-3    6.849236023446581E-4    3.675016334894398E-3    4.246310172289764E-1   -1.509542834242003E-1
 8.116742854775000E9     5.074639269753889E-1    3.863401640693433E-3    6.484853347225934E-4    3.646013667399020E-3    7.299326857924110E-4    3.684362504776691E-3    4.247500900706309E-1   -1.514139831573394E-1
 8.116747768800000E9     5.074864272902535E-1    3.372062138226935E-3    6.855172664323463E-4    3.635830346825955E-3    7.649080912436599E-4    3.692109707583110E-3    4.246228317675896E-1   -1.515316200749026E-1
 8.116752682825000E9     5.075023994191573E-1    2.976635146140058E-3    6.696661190998467E-4    3.636291278327732E-3    7.541981358687651E-4    3.707244381057171E-3    4.244374387229243E-1   -1.519970168615339E-1
 8.116757596850000E9     5.074734393217878E-1    2.618094064126731E-3    6.532204404371836E-4    3.635294327747444E-3    7.157098455270877E-4    3.721577572339400E-3    4.243705489206975E-1   -1.523713791804485E-1
 8.116762510875000E9     5.074931886138317E-1    2.237326054143584E-3    6.858072956144454E-4    3.646478259290281E-3    7.272184628918644E-4    3.673202993050790E-3    4.241668270674495E-1   -1.524170785127170E-1
 8.116767424900000E9     5.073525150284341E-1    1.967037115792946E-3    6.799936293282982E-4    3.664491225639607E-3    7.649323974066259E-4    3.698903426235291E-3    4.241250500733055E-1   -1.527412653474224E-1
 8.116772338925000E9     5.074317327152614E-1    1.518533759095143E-3    6.987236918223812E-4    3.663865761277447E-3    7.225205099715607E-4    3.702906707610973E-3    4.239664020666203E-1   -1.531243174081104E-1
 8.116777252950000E9     5.075788483163054E-1    1.152836453915618E-3    7.265080673812792E-4    3.641387523854923E-3    7.408579048892321E-4    3.704754174451820E-3    4.239230061311187E-1   -1.534474342754677E-1
 8.116782166975000E9     5.075553923660265E-1    6.970436809256008E-4    6.688375213438389E-4    3.657581161421853E-3    7.350755804938677E-4    3.706291203109432E-3    4.237086064966294E-1   -1.537752897773519E-1
 8.116787081000000E9     5.073843554418902E-1    3.782419255020013E-4    7.043301735559995E-4    3.679457079169113E-3    7.203956615529808E-4    3.724234163478664E-3    4.237835737392650E-1   -1.541136690589661E-1
 8.116791995025000E9     5.073933452206458E-1   -6.735858344769630E-5    7.244468730205680E-4    3.670920183627402E-3    7.331284723470850E-4    3.748825651025053E-3    4.236895824745814E-1   -1.547182540876115E-1
 8.116796909050000E9     5.074298804551514E-1   -4.100170644513345E-4    7.234463930238543E-4    3.675771216547736E-3    7.405899636914243E-4    3.701667212205669E-3    4.235205623649611E-1   -1.548283163737920E-1
 8.116801823075000E9     5.073642749664956E-1   -7.989002547155974E-4    7.124747197886373E-4    3.687103780680725E-3    7.881968040938939E-4    3.762879762909560E-3    4.234500533552606E-1   -1.551834879493441E-1
 8.116806737100000E9     5.074966302011883E-1   -1.179053941033249E-3    7.448040667030672E-4    3.687792919127142E-3    7.906892830045391E-4    3.739577787149820E-3    4.232918157821406E-1   -1.555238736741360E-1
 8.116811651125000E9     5.074784717638183E-1   -1.610593711352030E-3    7.452373187851937E-4    3.641670683489260E-3    8.422496749431616E-4    3.771120540812936E-3    4.232412933905519E-1   -1.557608449652361E-1
 8.116816565150000E9     5.072632832209799E-1   -1.899160458467781E-3    7.333489246147381E-4    3.656699841171089E-3    8.004741417604792E-4    3.758316636658867E-3    4.229160698952777E-1   -1.561438817191890E-1
 8.116821479175000E9     5.073229609851948E-1   -2.248991456645692E-3    7.381015183045413E-4    3.648521433736578E-3    7.841332451962776E-4    3.746453519923842E-3    4.230715404094452E-1   -1.565589665134901E-1
 8.116826393200000E9     5.072496502868907E-1   -2.633524195113791E-3    7.297963691552336E-4    3.696890852232386E-3    8.420667872848239E-4    3.747813610897037E-3    4.228115008394267E-1   -1.566423260661704E-1
 8.116831307225000E9     5.075302014965605E-1   -3.089770993789381E-3    7.492642869426925E-4    3.677652276076157E-3    8.296142408936263E-4    3.732412504808191E-3    4.226951481350255E-1   -1.571409728830154E-1
 8.116836221250000E9     5.073598908266216E-1   -3.273566592567567E-3    7.477348517084225E-4    3.683957041678010E-3    7.642620094310781E-4    3.745824986070382E-3    4.227420644426664E-1   -1.574421076234693E-1
 8.116841135275000E9     5.073417695636223E-1   -3.822994201933318E-3    7.525772611499683E-4    3.698542921746168E-3    8.529284229814084E-4    3.742321304039742E-3    4.225706043498950E-1   -1.576738054338171E-1
 8.116846049300000E9     5.071812857070233E-1   -4.128622860820795E-3    7.377299896166788E-4    3.711832729252399E-3    8.422789397160856E-4    3.743256821455418E-3    4.224263123611256E-1   -1.580963476918817E-1
 8.116850963325000E9     5.072384647852144E-1   -4.544945954762475E-3    7.499010031205501E-4    3.710940356466671E-3    8.485483156398214E-4    3.807336458164970E-3    4.224159343085886E-1   -1.584326744965009E-1
 8.116855877350000E9     5.073205120133474E-1   -4.817369204551005E-3    7.728461247708175E-4    3.692596066233442E-3    7.913195588428525E-4    3.760091101858209E-3    4.221309899284765E-1   -1.588448288377779E-1
 8.116860791375000E9     5.072872781573540E-1   -5.387270985258230E-3    7.789171368741218E-4    3.688115035122325E-3    8.012563990160670E-4    3.743057456048595E-3    4.222250108772810E-1   -1.591598163245510E-1
 8.116865705400000E9     5.072945952855102E-1   -5.704980249820794E-3    7.692753064602307E-4    3.730443934611957E-3    8.677540721825410E-4    3.768941311754005E-3    4.219356557928252E-1   -1.595141442567214E-1
 8.116870619425000E9     5.071664358011989E-1   -6.016089448327672E-3    7.559063366168204E-4    3.714059475409097E-3    8.253154188701969E-4    3.782980460137148E-3    4.217702833563265E-1   -1.597319308830105E-1
 8.116875533450000E9     5.072070435793959E-1   -6.518974939018778E-3    7.940533653670132E-4    3.706863573280527E-3    8.436051597631396E-4    3.767359242888398E-3    4.217762805644884E-1   -1.598755965889805E-1
 8.116880447475000E9     5.071585281402911E-1   -6.874492937479570E-3    7.972609850572733E-4    3.702180221748642E-3    8.708908502008511E-4    3.828752368020718E-3    4.216633685513935E-1   -1.603176015898261E-1
 8.116885361500000E9     5.072180326383243E-1   -7.391325540381568E-3    7.744553260044022E-4    3.735055605769839E-3    8.740574997777021E-4    3.784990571760659E-3    4.215055843835172E-1   -1.607998003511254E-1
 8.116890275525000E9     5.072267570083139E-1   -7.592287848138858E-3    7.896502952700559E-4    3.722148133040587E-3    8.328931596933396E-4    3.737000640343921E-3    4.213934495943641E-1   -1.610116352243241E-1
 8.116895189550000E9     5.072132719285766E-1   -8.029305830432820E-3    7.832063057055276E-4    3.729615878849300E-3    8.223367166841955E-4    3.822992230059260E-3    4.213881122597300E-1   -1.613380612484344E-1
 8.116900103575000E9     5.071526414626323E-1   -8.247031428170461E-3    7.989331202893817E-4    3.727722174292345E-3    8.066350903554289E-4    3.739711648693717E-3    4.213174758126322E-1   -1.616933191917300E-1
 8.116905017600000E9     5.071814733651744E-1   -8.699391200381788E-3    8.017317236861659E-4    3.720846226897886E-3    8.671484244747020E-4    3.755072830461839E-3    4.210346307767843E-1   -1.619430769880782E-1
 8.116909931625000E9     5.072533100887153E-1   -9.066445954409729E-3    7.966295769248943E-4    3.736316957528174E-3    8.245634051857853E-4    3.789805997556620E-3    4.208837971547631E-1   -1.625854460001399E-1
 8.116914845650000E9     5.072187384285463E-1   -9.483217243834571E-3    7.885271044878269E-4    3.709916042218867E-3    8.751887280840714E-4    3.772844467525908E-3    4.207871622879869E-1   -1.625339172529979E-1
 8.116919759675000E9     5.071125748512095E-1   -9.875069852239729E-3    8.032664344470332E-4    3.727409655482015E-3    8.423233446183298E-4    3.804160054144193E-3    4.207986148753376E-1   -1.631297738527301E-1
 8.116924673700000E9     5.070456353406912E-1   -1.022523682487806E-2    8.236346712317330E-4    3.711568526726331E-3    8.623223763129447E-4    3.789803998945156E-3    4.206518172200133E-1   -1.633096317177937E-1
 8.116929587725000E9     5.070739135992786E-1   -1.063303944591870E-2    8.482556891221782E-4    3.733580369335998E-3    8.786321040846808E-4    3.794894138754411E-3    4.205583118750891E-1   -1.636734237176926E-1
 8.116934501750000E9     5.070199578463649E-1   -1.117282697516924E-2    8.491127960049140E-4    3.735272694203355E-3    8.650096233612231E-4    3.881984756666781E-3    4.204647547156128E-1   -1.638667018865120E-1
 8.116939415775000E9     5.071601675986276E-1   -1.147609074078962E-2    8.278900484410652E-4    3.757505995233816E-3    9.068780646635902E-4    3.793180193199240E-3    4.203312965254861E-1   -1.642538019649083E-1
 8.116944329800000E9     5.069213497304531E-1   -1.185634282825272E-2    8.307412428328638E-4    3.755746549171213E-3    8.793980453126099E-4    3.861163658350970E-3    4.202800473115782E-1   -1.647195017590196E-1
 8.116949243825000E9     5.068632150021414E-1   -1.212167199037773E-2    8.481924255755690E-4    3.760748921696130E-3    8.929046015884948E-4    3.871199877156733E-3    4.202177488552097E-1   -1.649834091734197E-1
 8.116954157850000E9     5.069702531336716E-1   -1.264344023811215E-2    8.503415212590843E-4    3.742014160507031E-3    8.992673884837644E-4    3.824290322754077E-3    4.201728118098423E-1   -1.653698529570831E-1
 8.116959071875000E9     5.068409093792166E-1   -1.309421056527807E-2    8.330331222806930E-4    3.737340153225155E-3    9.341745065046530E-4    3.820353327938675E-3    4.198950703874148E-1   -1.655997857431898E-1
 8.116963985900000E9     5.068251666582242E-1   -1.342812366071571E-2    8.417006703607215E-4    3.778709680544513E-3    9.015405405418507E-4    3.832465009970806E-3    4.199298221778376E-1   -1.659499109519493E-1
 8.116968899925000E9     5.068490186392121E-1   -1.373565616081661E-2    8.616052235573481E-4    3.779969572206173E-3    8.924016266641110E-4    3.874435026940765E-3    4.195427107967704E-1   -1.663123031017347E-1
 8.116973813950000E9     5.069075764083838E-1   -1.402337419683665E-2    8.596411694405641E-4    3.799174029051608E-3    9.641085194179186E-4    3.856649465136767E-3    4.194336808741669E-1   -1.666458071943254E-1
 8.116978727975000E9     5.068868100968736E-1   -1.444730562371908E-2    8.862139386634014E-4    3.799645206445596E-3    9.233129653391482E-4    3.836115547535976E-3    4.196114898731250E-1   -1.669383994400440E-1
 8.116983642000000E9     5.068941233685975E-1   -1.481597570616425E-2    8.821405151323124E-4    3.781609156326122E-3    9.701892904211091E-4    3.843559203556875E-3    4.192507623223458E-1   -1.673132440720612E-1
 8.116988556025000E9     5.068516181507495E-1   -1.518322525982249E-2    8.726997409398947E-4    3.822194235164153E-3    9.239057987412608E-4    3.868493733953121E-3    4.193351421861323E-1   -1.675977060196978E-1
 8.116993470050000E9     5.067932804497312E-1   -1.574861137505783E-2    8.895411282814435E-4    3.802050929642293E-3    9.670834699432683E-4    3.884801857040641E-3    4.192126182911363E-1   -1.677855371796256E-1
 8.116998384075000E9     5.068434729195124E-1   -1.601425678000737E-2    8.728505547112803E-4    3.836359164446993E-3    9.243347547806174E-4    3.897899220908671E-3    4.189180496781996E-1   -1.681257926646817E-1
 8.117003298100000E9     5.066461201971904E-1   -1.642583493678484E-2    8.846048789648007E-4    3.788162489802032E-3    9.152773397967833E-4    3.860087989367299E-3    4.188105165275388E-1   -1.685296034893151E-1
 8.117008212125000E9     5.067753973910389E-1   -1.673603704308961E-2    8.966600129970570E-4    3.801251393552973E-3    9.480302919466814E-4    3.882178650784458E-3    4.187250001459525E-1   -1.689154884077803E-1
 8.117013126150000E9     5.067289182206148E-1   -1.720523827089094E-2    8.978552247091768E-4    3.819275040157639E-3    9.485239457625035E-4    3.782179491423347E-3    4.185737453127218E-1   -1.691540014063757E-1
 8.117018040175000E9     5.066616101628965E-1   -1.769254023902481E-2    9.125719141334432E-4    3.816128364705806E-3    9.545386436951736E-4    3.866646943365744E-3    4.185311779588559E-1   -1.693804083924212E-1
 8.117022954200000E9     5.066632787977796E-1   -1.795244311771165E-2    8.940602598941617E-4    3.839282753598536E-3    9.750951919402846E-4    3.879400881355948E-3    4.183709172212855E-1   -1.698627191106931E-1
 8.117027868225000E9     5.066749253230748E-1   -1.841959093924799E-2    9.193479819074874E-4    3.830089178737028E-3    1.031522734177524E-3    3.849293905211113E-3    4.183350744664746E-1   -1.701474728943954E-1
 8.117032782250000E9     5.065786145125883E-1   -1.880658637859472E-2    9.248008351002979E-4    3.823958578081996E-3    9.395298302241774E-4    3.893897963732178E-3    4.182742424561693E-1   -1.704284027269165E-1
