#  HZ   S   RI   R     50.00 
! Rohde & Schwarz Vector Network Analyzer 
! Rohde-Schwarz,ZNB20-2Port,1311601062101988,3.16
! Created: UTC 3/20/2024, 11:57:30 AM
! freq[Hz]                re:S11                  im:S11                  re:S21                  im:S21                  re:S12                  im:S12                  re:S22                  im:S22
 8.116625159000000E9     5.068699584545857E-1    1.245075701401431E-2    5.857023724881466E-4    3.570895227107433E-3    6.390601827930861E-4    3.658472311519934E-3    4.269233042730876E-1   -1.434419964064795E-1
 8.116629953275000E9     5.069196417935559E-1    1.203344736344260E-2    5.838734818940749E-4    3.586485575991569E-3    6.291080153618175E-4    3.630851779179251E-3    4.269543426908083E-1   -1.437118516317359E-1
 8.116634747550000E9     5.068981655001398E-1    1.167465452791445E-2    5.816769528194519E-4    3.591439034992487E-3    6.875628479952645E-4    3.668957348581060E-3    4.267093368370534E-1   -1.440077066082697E-1
 8.116639541825000E9     5.068525751767897E-1    1.130844426734879E-2    6.151424481071358E-4    3.597494234152568E-3    6.418898971520203E-4    3.679631949290931E-3    4.265644567729911E-1   -1.443709084605610E-1
 8.116644336100000E9     5.069052388396922E-1    1.093048785600836E-2    6.185152062306570E-4    3.581974415725947E-3    6.369106542966018E-4    3.691348345837608E-3    4.265355420239266E-1   -1.448818224112386E-1
 8.116649130375000E9     5.067796201982229E-1    1.053509502383077E-2    6.096705823568280E-4    3.574875715629823E-3    6.679567226531634E-4    3.663809062474360E-3    4.264946697709145E-1   -1.451452626913619E-1
 8.116653924650000E9     5.069213413096837E-1    1.019815914728834E-2    6.083354005087913E-4    3.601231263363973E-3    6.396947855386425E-4    3.680960163310292E-3    4.262208754261382E-1   -1.453307782177317E-1
 8.116658718925000E9     5.069217053105909E-1    9.775591670327129E-3    5.962042586592490E-4    3.604470297996491E-3    6.490993422729793E-4    3.653070313265267E-3    4.262952813163459E-1   -1.456204321154101E-1
 8.116663513200000E9     5.069095738025704E-1    9.551511686807354E-3    6.430729322241381E-4    3.615714429358177E-3    6.637672020268932E-4    3.694609215702499E-3    4.260498411978312E-1   -1.460244365327610E-1
 8.116668307475000E9     5.068790509785442E-1    9.082154555559344E-3    6.329115338806030E-4    3.604979696450906E-3    6.745280038606286E-4    3.659213285390566E-3    4.261499394107606E-1   -1.464720242116122E-1
 8.116673101750000E9     5.069106987206375E-1    8.777058556344945E-3    6.108647481020977E-4    3.617829327117421E-3    6.812796932228447E-4    3.653502621445275E-3    4.258293287446903E-1   -1.466839386113062E-1
 8.116677896025000E9     5.070290223244621E-1    8.306161080189700E-3    6.238418418345046E-4    3.600756508043383E-3    6.684373033412488E-4    3.669547200543528E-3    4.258994056893988E-1   -1.469170974823182E-1
 8.116682690300000E9     5.068787196731666E-1    7.972580176280124E-3    6.334664605962473E-4    3.598331562045787E-3    6.742202153388375E-4    3.662181099805616E-3    4.257469367732911E-1   -1.473618488697092E-1
 8.116687484575000E9     5.070423079350679E-1    7.664359178102806E-3    6.194848580048108E-4    3.610618417797808E-3    6.990219551864519E-4    3.664896639658071E-3    4.256822335131257E-1   -1.475603167150179E-1
 8.116692278850000E9     5.069724415002094E-1    7.249171680816878E-3    6.471015359460414E-4    3.608158226934773E-3    6.832408017819728E-4    3.670533838181895E-3    4.254514366611017E-1   -1.480897549295498E-1
 8.116697073125000E9     5.070057246107058E-1    6.840537031365963E-3    6.299132284942316E-4    3.594368304511194E-3    6.909733566930592E-4    3.651294558596119E-3    4.254706646919449E-1   -1.482136069851333E-1
 8.116701867400000E9     5.068585573771066E-1    6.493687388338063E-3    6.543377140140684E-4    3.625180195885922E-3    6.900043939173473E-4    3.682868326870502E-3    4.254229432243027E-1   -1.485855686179566E-1
 8.116706661675000E9     5.068169988224269E-1    6.187127159164558E-3    6.452580743342545E-4    3.614493841535241E-3    6.722010383298230E-4    3.671370218815524E-3    4.252040259196562E-1   -1.489748900558754E-1
 8.116711455950000E9     5.069118731810410E-1    5.832819627954517E-3    6.475967003492285E-4    3.614802653783076E-3    6.828645621816910E-4    3.680705034781054E-3    4.251875976515503E-1   -1.491672040667421E-1
 8.116716250225000E9     5.069568582106087E-1    5.343561823653043E-3    6.610440700886391E-4    3.635521356663397E-3    7.263058063190600E-4    3.661305211227509E-3    4.250802249453199E-1   -1.495472249287263E-1
 8.116721044500000E9     5.069517682134962E-1    5.052934735572438E-3    6.730299018547956E-4    3.629796820204857E-3    7.017943475408835E-4    3.675027225543363E-3    4.248697806517056E-1   -1.497755944313328E-1
 8.116725838775000E9     5.069704417172282E-1    4.513072239126492E-3    6.621107341768130E-4    3.640695863426124E-3    6.831177561676156E-4    3.710130320859849E-3    4.248486963019351E-1   -1.500885407589526E-1
 8.116730633050000E9     5.068244846091460E-1    4.244903293425329E-3    6.443401301105487E-4    3.612904068564726E-3    7.167409569168025E-4    3.681375158841031E-3    4.247965512333933E-1   -1.505768169806781E-1
 8.116735427325000E9     5.069590214751770E-1    3.848916513496396E-3    6.739802406736706E-4    3.626678304481115E-3    7.576869064501441E-4    3.667342139048504E-3    4.246118654631598E-1   -1.508563061646638E-1
 8.116740221600000E9     5.069192765597839E-1    3.526435145004965E-3    6.613996376276593E-4    3.638612820148374E-3    7.225406557004159E-4    3.685733273902518E-3    4.245670409136879E-1   -1.509916446296120E-1
 8.116745015875000E9     5.069276772052307E-1    3.162544534258269E-3    6.721387657111338E-4    3.639182378920084E-3    7.390350347573506E-4    3.697436721977144E-3    4.245300141610965E-1   -1.515283373895478E-1
 8.116749810150000E9     5.069690613711968E-1    2.933491411848847E-3    6.609550141926118E-4    3.643050246299673E-3    7.291447598943541E-4    3.707516477341334E-3    4.242890454754579E-1   -1.518590485103279E-1
 8.116754604425000E9     5.069083014631945E-1    2.444716986873708E-3    6.911417098095361E-4    3.656857206543088E-3    7.217377130820238E-4    3.690580819249861E-3    4.242657275922219E-1   -1.520404574330365E-1
 8.116759398700000E9     5.068458671977437E-1    2.239644886644561E-3    6.707120695683166E-4    3.653842480591651E-3    7.545026272866688E-4    3.698463089464846E-3    4.242310342002801E-1   -1.523341532168220E-1
 8.116764192975000E9     5.068445243144788E-1    1.802951187767691E-3    6.746314646859702E-4    3.653385683235429E-3    7.501578715454928E-4    3.692769476956099E-3    4.241151773264509E-1   -1.526450892772815E-1
 8.116768987250000E9     5.068664100666153E-1    1.336557313253608E-3    6.859100439717137E-4    3.660435558254823E-3    7.397144172297140E-4    3.680277217326231E-3    4.239941295488988E-1   -1.530708689246671E-1
 8.116773781525000E9     5.067748983298159E-1    1.111774027141326E-3    6.904945765134347E-4    3.652323566036414E-3    7.324609929235357E-4    3.688360560542431E-3    4.238591116049523E-1   -1.533912898740348E-1
 8.116778575800000E9     5.068611252820359E-1    5.974426819009780E-4    6.967774316508136E-4    3.675005393272007E-3    7.282958888036260E-4    3.693964900074035E-3    4.237277848192155E-1   -1.536491372676472E-1
 8.116783370075000E9     5.069018161752070E-1    1.968093877381422E-4    6.976674966220655E-4    3.632262099240111E-3    7.597821153468132E-4    3.676393458900782E-3    4.236177912306220E-1   -1.540446521812688E-1
 8.116788164350000E9     5.068114758668389E-1   -1.524255570727629E-4    7.047838511111533E-4    3.649817737924137E-3    7.849520952905359E-4    3.689181164364884E-3    4.235589482583023E-1   -1.543460086039548E-1
 8.116792958625000E9     5.066668281312555E-1   -4.360437485003556E-4    7.292861112505401E-4    3.636571369155300E-3    7.668103429613614E-4    3.697775418865494E-3    4.234186497425751E-1   -1.546977299090145E-1
 8.116797752900000E9     5.067834083759080E-1   -9.012191266571526E-4    7.387084837863964E-4    3.681799484144778E-3    7.774783299850503E-4    3.744940392875344E-3    4.233301587769639E-1   -1.549068304069416E-1
 8.116802547175000E9     5.067360387360997E-1   -1.237625413044682E-3    7.174334436937723E-4    3.654630551545314E-3    7.262681821243556E-4    3.711159831178744E-3    4.231646642274798E-1   -1.554249132976788E-1
 8.116807341450000E9     5.067286551032099E-1   -1.464122760009028E-3    7.032943874585070E-4    3.678512882057083E-3    7.711864534290212E-4    3.685661149638111E-3    4.232487141041720E-1   -1.555439042125514E-1
 8.116812135725000E9     5.067272592986626E-1   -2.042159273493415E-3    7.154716930967528E-4    3.680822950064710E-3    7.451231430546964E-4    3.749565400929757E-3    4.231293997952152E-1   -1.561034338966940E-1
 8.116816930000000E9     5.067206431684124E-1   -2.281364299649417E-3    7.147554814773314E-4    3.670198238629257E-3    7.767498249866361E-4    3.728895183892509E-3    4.230575620966741E-1   -1.562160856296975E-1
 8.116821724275000E9     5.066626349732544E-1   -2.716759072173949E-3    7.179937254717544E-4    3.666173327472762E-3    7.854038406142734E-4    3.752964957944676E-3    4.228181055326699E-1   -1.565914021067931E-1
 8.116826518550000E9     5.067849323057406E-1   -3.016834742666524E-3    7.604221200540357E-4    3.622280582878515E-3    8.321422284017498E-4    3.726055482484608E-3    4.227369145969642E-1   -1.570489870983289E-1
 8.116831312825000E9     5.067219619541168E-1   -3.424062895238527E-3    7.501056240454189E-4    3.681296164881438E-3    7.933341326319778E-4    3.760624011500162E-3    4.226518857320562E-1   -1.570484856841381E-1
 8.116836107100000E9     5.067414384066258E-1   -3.890819205508893E-3    7.228725529198309E-4    3.669078836870763E-3    8.328156891268419E-4    3.731669161835606E-3    4.224711984681861E-1   -1.575021850802661E-1
 8.116840901375000E9     5.066715384872044E-1   -4.206479776845205E-3    7.478376165693679E-4    3.717758038265780E-3    8.409068165577696E-4    3.753256441857016E-3    4.224305984097227E-1   -1.578585123379672E-1
 8.116845695650000E9     5.066314180295628E-1   -4.630305827019889E-3    7.292908566382311E-4    3.686298433317251E-3    7.907740114767079E-4    3.746720292774476E-3    4.222729221674852E-1   -1.581325153290108E-1
 8.116850489925000E9     5.065683527842221E-1   -4.944494485980666E-3    7.526517166744759E-4    3.688332418352671E-3    7.905106381760224E-4    3.757682957310366E-3    4.222083974025386E-1   -1.584245012104191E-1
 8.116855284200000E9     5.067060436320160E-1   -5.292179241810110E-3    7.395497428755931E-4    3.697996248834189E-3    8.332656565038236E-4    3.728194106385097E-3    4.221810441106374E-1   -1.587896365304738E-1
 8.116860078475000E9     5.066504433106229E-1   -5.627175676223533E-3    7.703655331254165E-4    3.671286709505701E-3    8.338123145186984E-4    3.757300286074480E-3    4.219201776411107E-1   -1.590556324340719E-1
 8.116864872750000E9     5.066397227312032E-1   -6.093898154814327E-3    7.963881409305108E-4    3.699540225613573E-3    8.205211840595323E-4    3.754899681348904E-3    4.218170710669292E-1   -1.593765517416204E-1
 8.116869667025000E9     5.066782555701973E-1   -6.431781040861853E-3    7.741084312787903E-4    3.701029493211151E-3    7.977146318748965E-4    3.750261091361132E-3    4.217848361063352E-1   -1.597332191241546E-1
 8.116874461300000E9     5.066028341465368E-1   -6.764723789403044E-3    7.770269606031557E-4    3.710917996943035E-3    8.281926887997379E-4    3.752568627312312E-3    4.215594545790272E-1   -1.601356916050330E-1
 8.116879255575000E9     5.065863739056534E-1   -7.115760792815222E-3    7.652044745677466E-4    3.699458595001984E-3    8.370493290183289E-4    3.757890410724297E-3    4.215582174625697E-1   -1.603485884946924E-1
 8.116884049850000E9     5.065910550814371E-1   -7.516846944552544E-3    7.680232788510714E-4    3.719649418396643E-3    8.190420622079692E-4    3.790261402660000E-3    4.213925400988018E-1   -1.605811033857616E-1
 8.116888844125000E9     5.066776999698462E-1   -7.782781426394966E-3    7.633766143027354E-4    3.707107612270746E-3    8.246876147308937E-4    3.779579867496408E-3    4.212566033224849E-1   -1.609072906016271E-1
 8.116893638400000E9     5.065996410987074E-1   -8.160704434010770E-3    7.844402117940315E-4    3.724950702263535E-3    8.603316318824151E-4    3.759764581264326E-3    4.212322728127298E-1   -1.612318984398367E-1
 8.116898432675000E9     5.066334756700130E-1   -8.583531809250550E-3    7.987141379371015E-4    3.706717146561128E-3    8.643285679289047E-4    3.766127359714727E-3    4.211642996341599E-1   -1.615255016325863E-1
 8.116903226950000E9     5.065646658800406E-1   -8.954717310807971E-3    7.700205191379115E-4    3.700597781153332E-3    8.582049415648451E-4    3.790856002631723E-3    4.212414140509474E-1   -1.619038804122422E-1
 8.116908021225000E9     5.065186954745764E-1   -9.364495293181275E-3    7.996272804347887E-4    3.713655072567316E-3    8.438534402748750E-4    3.789289705013790E-3    4.209566371760756E-1   -1.622605994147673E-1
 8.116912815500000E9     5.064894442842514E-1   -9.793981190515494E-3    7.900326223924749E-4    3.727367022548004E-3    8.514183718915481E-4    3.793403222605211E-3    4.208319214197675E-1   -1.624861071598939E-1
 8.116917609775000E9     5.065460586925442E-1   -1.009395567463325E-2    7.999478648235614E-4    3.717159217700687E-3    8.644031262613884E-4    3.843867812505528E-3    4.207987951213258E-1   -1.629586717254489E-1
 8.116922404050000E9     5.066422553402975E-1   -1.050753074977529E-2    7.966183252791312E-4    3.707867739952523E-3    8.823491872924208E-4    3.788495115459385E-3    4.205635627206316E-1   -1.632032929122969E-1
 8.116927198325000E9     5.065170902544869E-1   -1.079933013049499E-2    8.021721235437629E-4    3.732515555186537E-3    8.812713426464664E-4    3.793400335394502E-3    4.204542165856412E-1   -1.635419978444254E-1
 8.116931992600000E9     5.065189997099908E-1   -1.122029716917148E-2    7.974263219222506E-4    3.728024110873113E-3    8.689647895512228E-4    3.791951048648531E-3    4.203589380747109E-1   -1.636497733999655E-1
 8.116936786875000E9     5.063414464983305E-1   -1.160852477393665E-2    8.094789581888724E-4    3.749050796724297E-3    8.602443579852446E-4    3.800809805916210E-3    4.203273250129824E-1   -1.641107661461360E-1
 8.116941581150000E9     5.063505079113538E-1   -1.200776022070411E-2    8.216295316409526E-4    3.724461116479221E-3    8.875339449372104E-4    3.801695779819003E-3    4.201211277269548E-1   -1.645413913814015E-1
 8.116946375425000E9     5.062869535226520E-1   -1.230707993789421E-2    8.366184140265095E-4    3.732167558041094E-3    8.757334091363443E-4    3.845281536366298E-3    4.200092396702881E-1   -1.647516530926679E-1
 8.116951169700000E9     5.063860342193096E-1   -1.269054062739801E-2    8.169810412837672E-4    3.767838306327483E-3    8.791319485739377E-4    3.802098607103752E-3    4.199829887228220E-1   -1.651160458719221E-1
 8.116955963975000E9     5.063889072058658E-1   -1.304927779950202E-2    8.529511282618822E-4    3.756193067456985E-3    9.150948256246045E-4    3.818963434555214E-3    4.197959224671976E-1   -1.653921183902689E-1
 8.116960758250000E9     5.063576985459978E-1   -1.354474025113318E-2    8.570057195193620E-4    3.738278260103878E-3    9.237653740573047E-4    3.821518436704607E-3    4.196000617550052E-1   -1.657689065806025E-1
 8.116965552525000E9     5.062160747826292E-1   -1.386339488818253E-2    8.552238926064321E-4    3.761501225313646E-3    8.737281618466354E-4    3.805955819370978E-3    4.196323665554528E-1   -1.659501443864242E-1
 8.116970346800000E9     5.063165801509543E-1   -1.425370961904344E-2    8.580225480519537E-4    3.772983812964998E-3    8.814410069312365E-4    3.810088857277970E-3    4.195124222309193E-1   -1.663907291663073E-1
 8.116975141075000E9     5.062953959797838E-1   -1.456411078162341E-2    8.570042186690865E-4    3.782985972026709E-3    8.955311043706315E-4    3.829064252808939E-3    4.193605095543259E-1   -1.665809776284464E-1
 8.116979935350000E9     5.063609741462662E-1   -1.499539036126976E-2    8.627189801180375E-4    3.758939101353938E-3    9.453480915623630E-4    3.808107031081846E-3    4.192452640568807E-1   -1.671348520076836E-1
 8.116984729625000E9     5.062468533956038E-1   -1.538006384691237E-2    8.727510317826909E-4    3.776755195851896E-3    9.392773553831035E-4    3.846175335953714E-3    4.191718794432046E-1   -1.673509270567657E-1
 8.116989523900000E9     5.061248645317762E-1   -1.576805463658513E-2    8.860747614199002E-4    3.811852494619757E-3    9.628470467862575E-4    3.824456637799225E-3    4.190555365494453E-1   -1.676488410815834E-1
 8.116994318175000E9     5.061604975039642E-1   -1.606996535106993E-2    8.794225463216121E-4    3.794976346156125E-3    8.969558989285879E-4    3.856603883889722E-3    4.189166095166665E-1   -1.678878038435778E-1
 8.116999112450000E9     5.061716361342956E-1   -1.644074483752116E-2    9.009512083950302E-4    3.813343322378595E-3    9.447887381204089E-4    3.853855635840257E-3    4.186598746832268E-1   -1.681204255069976E-1
 8.117003906725000E9     5.062132375144474E-1   -1.670334892093383E-2    9.091820064238860E-4    3.784073641995868E-3    9.256223789465734E-4    3.858851245263978E-3    4.187551357861196E-1   -1.684791739201043E-1
 8.117008701000000E9     5.061287490724655E-1   -1.721841555401320E-2    9.035752028297858E-4    3.831542272785809E-3    9.403203859446226E-4    3.839817966131880E-3    4.187745107751208E-1   -1.689596725201084E-1
 8.117013495275000E9     5.060336212034539E-1   -1.760940033509672E-2    8.894379431766175E-4    3.795284701922491E-3    9.420046492506101E-4    3.880473198657909E-3    4.184871597985731E-1   -1.691020937706780E-1
 8.117018289550000E9     5.061920918550383E-1   -1.812497668537327E-2    8.859731673063965E-4    3.849226881852243E-3    9.752166964643972E-4    3.901959124417452E-3    4.183255462349679E-1   -1.695371614346231E-1
 8.117023083825000E9     5.060332091453247E-1   -1.837489683703892E-2    8.872169025439305E-4    3.827497434187914E-3    9.392856564564843E-4    3.901337161808204E-3    4.183943827902022E-1   -1.697987712510317E-1
 8.117027878100000E9     5.061532659070030E-1   -1.881401123162260E-2    9.254111605812857E-4    3.836655609320352E-3    9.661070276730134E-4    3.890194526094020E-3    4.182408191734348E-1   -1.701279643273089E-1
 8.117032672375000E9     5.060075203664506E-1   -1.915097006603970E-2    9.064672639398666E-4    3.814170592644306E-3    9.621201117961422E-4    3.922257317144750E-3    4.179554392946997E-1   -1.703400316243021E-1
 8.117037466650000E9     5.059305021869395E-1   -1.945577078147747E-2    8.923658463549481E-4    3.814016403284809E-3    9.616996391096557E-4    3.882791198901937E-3    4.180025832814923E-1   -1.707302963226558E-1
 8.117042260925000E9     5.060392033248045E-1   -1.985671811381659E-2    9.507047868005604E-4    3.830046757477082E-3    1.001136110993906E-3    3.902419311565373E-3    4.177512279993323E-1   -1.710868931016795E-1
 8.117047055200000E9     5.058730782797505E-1   -2.041228277542695E-2    9.429713463612594E-4    3.824691283392309E-3    9.955243892924739E-4    3.901757023793814E-3    4.177179210364441E-1   -1.714616636054980E-1
 8.117051849475000E9     5.059231727067991E-1   -2.067692237054520E-2    9.428975767286882E-4    3.839834940130543E-3    9.881340149515100E-4    3.903469100943828E-3    4.175424158124820E-1   -1.717365960226556E-1
 8.117056643750000E9     5.058852201509751E-1   -2.109221414652312E-2    9.378956506377246E-4    3.848068395537643E-3    9.915491788679920E-4    3.916012236971566E-3    4.175380863127418E-1   -1.719912793272366E-1
