#  HZ   S   RI   R     50.00 
! Rohde & Schwarz Vector Network Analyzer 
! Rohde-Schwarz,ZNB20-2Port,1311601062101988,3.16
! Created: UTC 3/20/2024, 11:58:04 AM
! freq[Hz]                re:S11                  im:S11                  re:S21                  im:S21                  re:S12                  im:S12                  re:S22                  im:S22
 8.116721247000000E9     5.069669865132089E-1    5.307435800340697E-3    6.414270205678755E-4    3.637737317354035E-3    7.144415190832394E-4    3.662002489907903E-3    4.249122388293121E-1   -1.498850885449261E-1
 8.116725667800000E9     5.068303508549690E-1    4.811268464866583E-3    6.380828783099943E-4    3.642777537558017E-3    7.352505306662661E-4    3.709659954898958E-3    4.246884799278214E-1   -1.502401701855685E-1
 8.116730088600000E9     5.068897019076227E-1    4.497223839128763E-3    6.517432397334783E-4    3.625465951680023E-3    7.153914257045249E-4    3.637472660931645E-3    4.246199267043925E-1   -1.505320706565650E-1
 8.116734509400000E9     5.068639928665235E-1    4.274363183547684E-3    6.698612522330803E-4    3.629719190333535E-3    7.271054504577380E-4    3.705250349778539E-3    4.246968504820097E-1   -1.507559850485849E-1
 8.116738930200000E9     5.068559455058429E-1    3.899163378667428E-3    6.487327441182094E-4    3.619754108468513E-3    7.076271730685943E-4    3.723835949627556E-3    4.245186899737985E-1   -1.510444312132520E-1
 8.116743351000000E9     5.069030430220876E-1    3.595316433654702E-3    6.646737225527979E-4    3.611995058725594E-3    7.238490191745251E-4    3.699421110760587E-3    4.246329430862936E-1   -1.513395800797612E-1
 8.116747771800000E9     5.068565660366190E-1    3.199752684697773E-3    6.486852725751570E-4    3.629910330660054E-3    7.065118248458906E-4    3.651385207288897E-3    4.243613259096849E-1   -1.516818038736077E-1
 8.116752192600000E9     5.068924434128644E-1    2.841504349442902E-3    6.787781659245849E-4    3.610703069550986E-3    7.379466579273378E-4    3.675094961702045E-3    4.242888415412239E-1   -1.518739529545325E-1
 8.116756613400000E9     5.069042661745321E-1    2.508666192403688E-3    6.483208520759106E-4    3.614262400529721E-3    7.519436453245059E-4    3.654354119611037E-3    4.241810033072980E-1   -1.522854184206819E-1
 8.116761034200000E9     5.069981932238705E-1    2.160428947152598E-3    6.987208561613548E-4    3.617637372010499E-3    7.586356311045426E-4    3.689498366718236E-3    4.239016213690772E-1   -1.526271949508699E-1
 8.116765455000000E9     5.068637833573054E-1    1.887965922964153E-3    6.524173269164394E-4    3.622010813579726E-3    7.308423060755026E-4    3.672893220702413E-3    4.240758640756347E-1   -1.528361519101849E-1
 8.116769875800000E9     5.069153173327637E-1    1.541837528664469E-3    6.879616859093222E-4    3.633182331997243E-3    7.716349790459363E-4    3.692082969867068E-3    4.238842423013406E-1   -1.531875807765411E-1
 8.116774296600000E9     5.068447304331281E-1    1.253210764255866E-3    6.917237490412004E-4    3.633685334057843E-3    7.144333368149931E-4    3.692568931251106E-3    4.239283964997933E-1   -1.534398526090019E-1
 8.116778717400000E9     5.069786967476150E-1    7.104588797146454E-4    6.820762040363674E-4    3.638664327213182E-3    7.305754843203632E-4    3.731901670880510E-3    4.236396009191168E-1   -1.537012926571246E-1
 8.116783138200000E9     5.068187770388654E-1    5.053201670270629E-4    6.945246935727115E-4    3.664586543890991E-3    7.492804502155509E-4    3.739964895821726E-3    4.235916792123626E-1   -1.540817661499383E-1
 8.116787559000000E9     5.068332664102029E-1    9.001600426295793E-5    7.140812558183016E-4    3.646285442643907E-3    7.487122109013346E-4    3.704984208224538E-3    4.236094701496245E-1   -1.543198704088639E-1
 8.116791979800000E9     5.068467273496801E-1   -2.494358437062736E-4    6.919168969632937E-4    3.614094086406595E-3    7.545428014913166E-4    3.720288901715872E-3    4.234730074050686E-1   -1.545266939596078E-1
 8.116796400600000E9     5.067639608539178E-1   -5.596047446261034E-4    6.893562808130397E-4    3.653890599746179E-3    7.836554921192158E-4    3.740850448753506E-3    4.233309125225519E-1   -1.549053991409129E-1
 8.116800821400000E9     5.067881443481805E-1   -8.529286011662206E-4    7.353492379930061E-4    3.664216035766986E-3    7.625555219979308E-4    3.723587131523215E-3    4.233018681012494E-1   -1.551601819481231E-1
 8.116805242200000E9     5.068668600442854E-1   -1.329252989474286E-3    7.218066242000985E-4    3.655962621376109E-3    7.350010809024104E-4    3.705795622363599E-3    4.231913917585837E-1   -1.555221417441832E-1
 8.116809663000000E9     5.067535822909625E-1   -1.563361079394714E-3    7.029888183621687E-4    3.669331712268565E-3    7.375346689463071E-4    3.720148634412262E-3    4.230631017591795E-1   -1.557763021934658E-1
 8.116814083800000E9     5.069266134044083E-1   -1.913184872484980E-3    7.181453848335538E-4    3.663844706463265E-3    7.998182395026650E-4    3.719583791884657E-3    4.228864810096588E-1   -1.560784382283633E-1
 8.116818504600000E9     5.067215309679636E-1   -2.357678206513521E-3    7.307693760734523E-4    3.668122770935734E-3    7.905072687937151E-4    3.751156449666017E-3    4.228728987718409E-1   -1.563378948250006E-1
 8.116822925400000E9     5.067120036709026E-1   -2.532731001687411E-3    7.199524474712988E-4    3.665235357707515E-3    7.713822751553773E-4    3.751079964287223E-3    4.228334465742375E-1   -1.565143593514499E-1
 8.116827346200000E9     5.066674298087084E-1   -2.921854993111650E-3    7.174891407174813E-4    3.658830792774668E-3    7.804705478535211E-4    3.729085888286676E-3    4.227224795429951E-1   -1.569436502357020E-1
 8.116831767000000E9     5.066603468795626E-1   -3.301770671276737E-3    7.319698910097887E-4    3.661876284642934E-3    7.788078604002094E-4    3.702855077264882E-3    4.225614325773638E-1   -1.572543623812609E-1
 8.116836187800000E9     5.067582238622352E-1   -3.640693084942848E-3    7.509445191174198E-4    3.684343393177615E-3    7.929300839525058E-4    3.713270102426682E-3    4.225921404540576E-1   -1.574884020341073E-1
 8.116840608600000E9     5.066444920397304E-1   -3.977884470657619E-3    7.190149513819363E-4    3.677482399475536E-3    7.848064032558613E-4    3.748701832489681E-3    4.224567739396811E-1   -1.577528946033375E-1
 8.116845029400000E9     5.067063137927201E-1   -4.310943066817317E-3    7.593401166447958E-4    3.675363735353150E-3    7.962965538955924E-4    3.721318704186889E-3    4.222133113516710E-1   -1.580826962218292E-1
 8.116849450200000E9     5.067371177921698E-1   -4.692190795047254E-3    7.638949565359853E-4    3.677041536990547E-3    7.994241340228970E-4    3.778676254438430E-3    4.222582875199247E-1   -1.584272814271941E-1
 8.116853871000000E9     5.067601752293609E-1   -4.889608200606976E-3    7.599546101361642E-4    3.690557518995327E-3    7.856203366446620E-4    3.744632298404384E-3    4.220944831647780E-1   -1.586773345795039E-1
 8.116858291800000E9     5.066456943604287E-1   -5.302601513890243E-3    7.317941337205902E-4    3.693605703603888E-3    7.793241178474051E-4    3.754342460708097E-3    4.219220612176028E-1   -1.589636873437524E-1
 8.116862712600000E9     5.066827256201033E-1   -5.648038661211731E-3    7.604930515933418E-4    3.684754905688988E-3    8.337802958865376E-4    3.745249048297384E-3    4.218648006524049E-1   -1.593037263109299E-1
 8.116867133400000E9     5.066840282916265E-1   -6.060282460734610E-3    7.494534168185868E-4    3.681211514421015E-3    7.986185018783640E-4    3.737791667291265E-3    4.218956511651305E-1   -1.596009910176486E-1
 8.116871554200000E9     5.066219211223537E-1   -6.383872939616571E-3    7.898108769020984E-4    3.686330632710658E-3    8.278197646499740E-4    3.711333505636999E-3    4.217325856834538E-1   -1.600191352089497E-1
 8.116875975000000E9     5.066720982903189E-1   -6.728448611594451E-3    7.490045361039428E-4    3.681447742906903E-3    8.220125671462255E-4    3.785560136223206E-3    4.216418121051948E-1   -1.602728269700590E-1
 8.116880395800000E9     5.066436543486486E-1   -7.052590432608551E-3    7.680486424860227E-4    3.708224242129776E-3    8.471919025249622E-4    3.762253933561805E-3    4.216833994994134E-1   -1.605427770495155E-1
 8.116884816600000E9     5.065651170578298E-1   -7.468076353188210E-3    7.857250015513955E-4    3.720513016969990E-3    8.478371631538697E-4    3.762848217874694E-3    4.213849918956508E-1   -1.606679392639261E-1
 8.116889237400000E9     5.065385244355487E-1   -7.748356328478111E-3    7.823543264950408E-4    3.698996620130014E-3    8.166731504068650E-4    3.805203199859311E-3    4.212208021809743E-1   -1.609670069951920E-1
 8.116893658200000E9     5.065976236655240E-1   -8.043635076223637E-3    7.897858997063518E-4    3.703905475228895E-3    8.387184406726374E-4    3.758935514224158E-3    4.212518325740267E-1   -1.614244562947736E-1
 8.116898079000000E9     5.065684423148348E-1   -8.365919505712456E-3    7.688484477711245E-4    3.699128704725368E-3    8.421431239913927E-4    3.787284879758109E-3    4.210958716771248E-1   -1.614849284097970E-1
 8.116902499800000E9     5.066270482112907E-1   -8.716996388530180E-3    7.588717217852048E-4    3.700988366065272E-3    8.539428078419824E-4    3.775385150612438E-3    4.210379598181549E-1   -1.619366189605747E-1
 8.116906920600000E9     5.066220964371505E-1   -9.187389569964925E-3    7.936560587433482E-4    3.712522017190367E-3    8.465445205335122E-4    3.737108907563214E-3    4.208985033650270E-1   -1.621834065095452E-1
 8.116911341400000E9     5.065953527043164E-1   -9.383978335187712E-3    7.749934213999284E-4    3.703130639578357E-3    8.562082876089486E-4    3.762229876884616E-3    4.209154316532228E-1   -1.625313938193859E-1
 8.116915762200000E9     5.065076296261694E-1   -9.781981976272178E-3    8.093500759900317E-4    3.742497421842325E-3    8.137521052384447E-4    3.773974242453630E-3    4.207246525209193E-1   -1.628746774022460E-1
 8.116920183000000E9     5.064922371686508E-1   -1.012721909574257E-2    7.958952408854001E-4    3.721139041496372E-3    8.557142975879466E-4    3.770054048864845E-3    4.206408375278368E-1   -1.631007484645995E-1
 8.116924603800000E9     5.064658958538576E-1   -1.047760805154335E-2    8.253655939524330E-4    3.717047251679268E-3    8.558449620584350E-4    3.820356054049985E-3    4.203952838026835E-1   -1.633503361692103E-1
 8.116929024600000E9     5.064301335064040E-1   -1.081277895327513E-2    7.981439138141701E-4    3.713417423484458E-3    8.418313315057389E-4    3.803816349680600E-3    4.204597080877247E-1   -1.637361367345980E-1
 8.116933445400000E9     5.064442671077393E-1   -1.113268133661624E-2    8.196986637792383E-4    3.726783042862490E-3    9.035890827009690E-4    3.773605275712832E-3    4.203304228547921E-1   -1.639483654997636E-1
 8.116937866200000E9     5.063571198416656E-1   -1.154144007442380E-2    7.906861979301569E-4    3.732777487045072E-3    8.670330808824455E-4    3.789098608053640E-3    4.202387290172360E-1   -1.641708281267361E-1
 8.116942287000000E9     5.063881032701015E-1   -1.182411189266409E-2    8.011434683719887E-4    3.744337084003134E-3    8.908205907919252E-4    3.782677618423758E-3    4.201572178920108E-1   -1.644989921926961E-1
 8.116946707800000E9     5.063844351456467E-1   -1.226267783448955E-2    8.236525102349577E-4    3.733836459905111E-3    8.941250276866578E-4    3.822125601069814E-3    4.199078027668680E-1   -1.648967767503926E-1
 8.116951128600000E9     5.063765099948139E-1   -1.249928152787924E-2    8.012921806165984E-4    3.726102071439225E-3    9.024972377452320E-4    3.814403795076810E-3    4.198711159383537E-1   -1.650846806414373E-1
 8.116955549400000E9     5.064642872042727E-1   -1.303364132713148E-2    8.120885148674426E-4    3.752913827579059E-3    8.985518100713171E-4    3.808208191136401E-3    4.198285817666041E-1   -1.654343489369429E-1
 8.116959970200000E9     5.064730066893099E-1   -1.317651379652371E-2    8.485317952176963E-4    3.749119411228987E-3    9.193891282900578E-4    3.829874946141423E-3    4.197077625681436E-1   -1.657012270424336E-1
 8.116964391000000E9     5.063258770419847E-1   -1.360356198973921E-2    8.357858593987718E-4    3.759064469418975E-3    8.435955901040594E-4    3.823127529740696E-3    4.195371246011923E-1   -1.660898495073278E-1
 8.116968811800000E9     5.061854897912196E-1   -1.392896751323276E-2    8.555647862745101E-4    3.751264418516699E-3    8.913061660167702E-4    3.765657504801233E-3    4.195338960069244E-1   -1.662581821756570E-1
 8.116973232600000E9     5.062550013416169E-1   -1.424379757814333E-2    8.217280524229288E-4    3.750945838936510E-3    8.839478879122550E-4    3.817393625864486E-3    4.195486951174729E-1   -1.665580967041998E-1
 8.116977653400000E9     5.062466349238955E-1   -1.458153035604198E-2    8.448625137343525E-4    3.764166224050212E-3    9.141521021702973E-4    3.812158747916856E-3    4.193391490684437E-1   -1.669131114345692E-1
 8.116982074200000E9     5.061750319438495E-1   -1.509047235232807E-2    8.697021794421049E-4    3.751785959013956E-3    9.272892012471815E-4    3.814794132212123E-3    4.192013467324457E-1   -1.671934911139076E-1
 8.116986495000000E9     5.062312290200176E-1   -1.517712759939843E-2    8.662885401807593E-4    3.761767255622666E-3    8.833593676763871E-4    3.822112048617993E-3    4.191525013503370E-1   -1.675480333893895E-1
 8.116990915800000E9     5.062924909760393E-1   -1.577762396369856E-2    8.755400682804416E-4    3.772213841588139E-3    9.353409805200303E-4    3.825917366376567E-3    4.189459604219687E-1   -1.677799009401437E-1
 8.116995336600000E9     5.060979895602077E-1   -1.594491847618709E-2    8.633039052402885E-4    3.759307934745981E-3    9.222011982486271E-4    3.842886003935000E-3    4.189612391437134E-1   -1.680802872843966E-1
 8.116999757400000E9     5.061326991512738E-1   -1.638813546222332E-2    8.688123329501401E-4    3.757325830473973E-3    9.171508843818097E-4    3.844255780848286E-3    4.187165862958098E-1   -1.682078776321881E-1
 8.117004178200000E9     5.062025761311647E-1   -1.672899181316931E-2    8.682197087072028E-4    3.790412482283272E-3    9.352106338462989E-4    3.841840220681208E-3    4.188228088968925E-1   -1.686701124388690E-1
 8.117008599000000E9     5.061601123132875E-1   -1.698782143002753E-2    9.132862479261501E-4    3.791561340866221E-3    9.375825364303208E-4    3.843881212116042E-3    4.185735170729266E-1   -1.690314715172044E-1
 8.117013019800000E9     5.061222072050475E-1   -1.747705256815552E-2    8.843321184612005E-4    3.793504514680156E-3    9.789558694924601E-4    3.838122837441106E-3    4.184545619106068E-1   -1.691868505641088E-1
 8.117017440600000E9     5.061407209572995E-1   -1.772558246405109E-2    8.862273174915362E-4    3.814378890050973E-3    9.689545600894651E-4    3.860648155992890E-3    4.184056152177920E-1   -1.696020234763559E-1
 8.117021861400000E9     5.061227847589611E-1   -1.804089850132941E-2    8.978878571759557E-4    3.786772730121511E-3    9.907256429941083E-4    3.872957430711116E-3    4.183170724689538E-1   -1.696446742518120E-1
 8.117026282200000E9     5.061302514285059E-1   -1.855337223096457E-2    9.001775302566171E-4    3.813020212792475E-3    9.976075796947512E-4    3.863888676378167E-3    4.181342329838184E-1   -1.701490589961667E-1
 8.117030703000000E9     5.061510228236294E-1   -1.869458408653776E-2    8.875826214433869E-4    3.812287064350586E-3    9.885587448057738E-4    3.891043406703267E-3    4.181069673024209E-1   -1.703927070505930E-1
 8.117035123800000E9     5.060118115321430E-1   -1.915360698383863E-2    9.095740447092324E-4    3.812392380554030E-3    9.582672174129220E-4    3.892453060285873E-3    4.180416123029084E-1   -1.705795600999638E-1
 8.117039544600000E9     5.059761615066024E-1   -1.934009576571791E-2    9.061135329224673E-4    3.810029018351534E-3    9.610471716125125E-4    3.876836310666619E-3    4.177787746962058E-1   -1.708761742779450E-1
 8.117043965400000E9     5.060669921808363E-1   -1.986862748418619E-2    9.231097687637273E-4    3.807941221759593E-3    9.536779713717705E-4    3.872018452016423E-3    4.176742524440631E-1   -1.712829974618432E-1
 8.117048386200000E9     5.059804201560157E-1   -2.019482162195605E-2    9.235656415633048E-4    3.807512321021041E-3    1.008620643261173E-3    3.847997194875859E-3    4.175879358190788E-1   -1.715531832765239E-1
 8.117052807000000E9     5.060030962100186E-1   -2.060496745004804E-2    9.360184132818270E-4    3.854043415622799E-3    9.979219979301861E-4    3.902943921839258E-3    4.174532455726783E-1   -1.718386343712038E-1
 8.117057227800000E9     5.059239298730706E-1   -2.081683898098268E-2    9.607303007855508E-4    3.821343607735688E-3    9.986288346511224E-4    3.869540750037423E-3    4.174407920988785E-1   -1.720531830676416E-1
 8.117061648600000E9     5.059263227390368E-1   -2.123954563029305E-2    9.627172628370599E-4    3.850501408185506E-3    1.000605751710465E-3    3.912038199458261E-3    4.171896013504032E-1   -1.723579627068197E-1
 8.117066069400000E9     5.058687477639647E-1   -2.152440842608948E-2    9.420410758618853E-4    3.837855380459607E-3    1.005173092128989E-3    3.890356222725275E-3    4.171961918960753E-1   -1.727611034586348E-1
 8.117070490200000E9     5.057759704692667E-1   -2.193246405015897E-2    9.545106132407336E-4    3.849780436798133E-3    9.757738033160121E-4    3.887675387372642E-3    4.170900984336769E-1   -1.730601256181457E-1
 8.117074911000000E9     5.058488463977743E-1   -2.225061454923783E-2    9.476946834881739E-4    3.840344334460315E-3    1.006022287161928E-3    3.909630035513425E-3    4.171976519753731E-1   -1.731574694285153E-1
 8.117079331800000E9     5.057757227371800E-1   -2.250553487275225E-2    9.579417310603985E-4    3.849654132321260E-3    9.852513743956453E-4    3.884671878228599E-3    4.168521654663487E-1   -1.735310692626511E-1
 8.117083752600000E9     5.056853714878377E-1   -2.300375014224728E-2    9.421034439471848E-4    3.871047594640867E-3    1.021719708804454E-3    3.925511452750629E-3    4.167028082117919E-1   -1.738465748457794E-1
 8.117088173400000E9     5.056982985423835E-1   -2.336545140532470E-2    9.836640103454695E-4    3.833122550326819E-3    1.042569207563964E-3    3.924720423344982E-3    4.168207171609335E-1   -1.741014787790150E-1
 8.117092594200000E9     5.057017464229610E-1   -2.370486172974174E-2    9.930060789215291E-4    3.877350442106560E-3    1.004431855754962E-3    3.957482520146780E-3    4.165633824078862E-1   -1.745811042532270E-1
 8.117097015000000E9     5.056981978031456E-1   -2.410652627660021E-2    9.846919384126566E-4    3.882348687077887E-3    1.026619188269500E-3    3.965648703334903E-3    4.164179450690423E-1   -1.747293634274258E-1
 8.117101435800000E9     5.057260576297508E-1   -2.444686243985181E-2    1.026402069692566E-3    3.885958909504657E-3    1.045336870196032E-3    3.929517902765810E-3    4.163728702806755E-1   -1.750040151361868E-1
 8.117105856600000E9     5.055989039654847E-1   -2.470698819740219E-2    9.592087297327053E-4    3.883666082800337E-3    1.041571055152676E-3    3.952148504619169E-3    4.161937471983622E-1   -1.753899493876894E-1
 8.117110277400000E9     5.055651573016130E-1   -2.526622938276513E-2    1.015181080979170E-3    3.859783385231895E-3    1.063863334250327E-3    3.941639233330227E-3    4.161270781492363E-1   -1.755509115335022E-1
 8.117114698200000E9     5.056128832342700E-1   -2.545124132511659E-2    1.014844996050837E-3    3.896923583841163E-3    1.092789077267023E-3    3.949878299503885E-3    4.159966470911678E-1   -1.759517002581286E-1
 8.117119119000000E9     5.054747744518523E-1   -2.582115284324501E-2    1.019841656337146E-3    3.882557598695224E-3    1.055504014718161E-3    3.984706349273840E-3    4.158403896114665E-1   -1.762421336787586E-1
