#  HZ   S   RI   R     50.00 
! Rohde & Schwarz Vector Network Analyzer 
! Rohde-Schwarz,ZNB20-2Port,1311601062101988,3.16
! Created: UTC 3/20/2024, 11:58:44 AM
! freq[Hz]                re:S11                  im:S11                  re:S21                  im:S21                  re:S12                  im:S12                  re:S22                  im:S22
 8.116789490000000E9     5.067591303624052E-1    2.881391308925554E-4    7.070952480256190E-4    3.621949617429932E-3    7.484720127971141E-4    3.715434408988681E-3    4.235771523549653E-1   -1.543667852236834E-1
 8.116793669225000E9     5.067513841958494E-1   -2.191004162365388E-4    7.113407781235043E-4    3.661459551658543E-3    7.685859493433132E-4    3.728117291677317E-3    4.233638847886314E-1   -1.548152876461363E-1
 8.116797848450000E9     5.068704799468805E-1   -4.757203705283578E-4    7.151150815132866E-4    3.655949658133002E-3    7.427036234102182E-4    3.715165153852763E-3    4.233732787823085E-1   -1.549724091718497E-1
 8.116802027675000E9     5.068691612094884E-1   -7.284289027204222E-4    6.909459686295406E-4    3.654345785672194E-3    7.708078476203026E-4    3.714894743344014E-3    4.232567242656547E-1   -1.552358547236407E-1
 8.116806206900000E9     5.068266155850053E-1   -1.117938772130351E-3    7.093004581010600E-4    3.666411557419611E-3    7.158927844022416E-4    3.688012355873058E-3    4.231781578138582E-1   -1.554010937373147E-1
 8.116810386125000E9     5.067381338886222E-1   -1.417611984541532E-3    6.816097530273323E-4    3.644655903027148E-3    7.879419505884075E-4    3.701750655898332E-3    4.231428796921804E-1   -1.558533915082632E-1
 8.116814565350000E9     5.067704244380508E-1   -1.751974911209080E-3    7.290986156691630E-4    3.636017699002359E-3    7.825619412406830E-4    3.696668475626462E-3    4.229883604082096E-1   -1.561485783054818E-1
 8.116818744575000E9     5.067381605106700E-1   -2.079035109649927E-3    7.438498094585861E-4    3.649278508717521E-3    7.458687463912273E-4    3.715784620799687E-3    4.228201133805669E-1   -1.563913919220596E-1
 8.116822923800000E9     5.067848923987065E-1   -2.515842461084598E-3    7.103742267492104E-4    3.635942872001209E-3    7.661114747884030E-4    3.746314901484433E-3    4.228232355975101E-1   -1.567210291504450E-1
 8.116827103025000E9     5.067280544094128E-1   -2.761542462543592E-3    7.444893083479205E-4    3.673982648426001E-3    8.056197246936419E-4    3.697564978984213E-3    4.228783631903220E-1   -1.570151571986242E-1
 8.116831282250000E9     5.067859683951617E-1   -3.109258691037220E-3    7.502035811320898E-4    3.647629699752672E-3    7.732176715119598E-4    3.730595996079999E-3    4.226496289941962E-1   -1.572850637761973E-1
 8.116835461475000E9     5.067155943773592E-1   -3.391809882969457E-3    7.292530913926661E-4    3.669018715366935E-3    7.876747110624090E-4    3.701155982972065E-3    4.224527729647311E-1   -1.573807299293810E-1
 8.116839640700000E9     5.066449213755848E-1   -3.716630579317688E-3    7.464460205975139E-4    3.692936219847735E-3    7.850153002134554E-4    3.742619378893163E-3    4.224273866712466E-1   -1.577226459784564E-1
 8.116843819925000E9     5.065779550802225E-1   -4.072955690341443E-3    7.478123945872229E-4    3.681795189237279E-3    7.738470900426853E-4    3.725363295209520E-3    4.224584105937306E-1   -1.581212580599160E-1
 8.116847999150000E9     5.066129790925431E-1   -4.321920806602239E-3    7.473132976291249E-4    3.652536842018903E-3    7.954610149254513E-4    3.729343911830869E-3    4.223191820925835E-1   -1.581635998610092E-1
 8.116852178375000E9     5.066815344455231E-1   -4.591844953697560E-3    7.535962058337959E-4    3.680668823372959E-3    7.968516813616231E-4    3.755744180877762E-3    4.222259936517991E-1   -1.587097307522202E-1
 8.116856357600000E9     5.066853747565929E-1   -5.020967566979823E-3    7.463592846223985E-4    3.666031970040621E-3    7.934608751452988E-4    3.734013863364844E-3    4.220448585386383E-1   -1.589190699009236E-1
 8.116860536825000E9     5.066739624054767E-1   -5.403785122685215E-3    7.429972407474818E-4    3.674156414420113E-3    8.235818651904427E-4    3.730406003377829E-3    4.219767952167931E-1   -1.590978890443731E-1
 8.116864716050000E9     5.066266364734853E-1   -5.674899114106692E-3    7.631169354308719E-4    3.672894437412368E-3    8.202896438760504E-4    3.742753464641758E-3    4.218948706100254E-1   -1.595223325351087E-1
 8.116868895275000E9     5.065020974386290E-1   -5.982029982123570E-3    7.412445689021546E-4    3.666441833677826E-3    8.172509156637336E-4    3.732011251392407E-3    4.218922348324506E-1   -1.596172723982516E-1
 8.116873074500000E9     5.066500157689666E-1   -6.312328041093395E-3    7.743068130836361E-4    3.697731012283830E-3    8.099589686374675E-4    3.708569333399971E-3    4.217810975174603E-1   -1.599146837708689E-1
 8.116877253725000E9     5.065963508557501E-1   -6.485138984767421E-3    7.758184914486745E-4    3.693258087524696E-3    7.989252352398802E-4    3.750759342121632E-3    4.216101831165516E-1   -1.603305062025639E-1
 8.116881432950000E9     5.066158155705924E-1   -6.919784383392474E-3    7.712597013688889E-4    3.686262993006918E-3    8.153950264686141E-4    3.752757079301690E-3    4.213455834345203E-1   -1.605939503959396E-1
 8.116885612175000E9     5.066476302019300E-1   -7.278640604578458E-3    7.642304872403338E-4    3.691354366162139E-3    8.076851255369967E-4    3.736380210965499E-3    4.215772133125795E-1   -1.607651112781759E-1
 8.116889791400000E9     5.065308455904911E-1   -7.601828678953535E-3    7.866298557009092E-4    3.669924025124211E-3    8.422518098983311E-4    3.739291632873473E-3    4.212997135169269E-1   -1.611560849877665E-1
 8.116893970625000E9     5.064929208291513E-1   -7.975876014189094E-3    7.794444383727487E-4    3.693900495499440E-3    8.421610480590419E-4    3.754755382907341E-3    4.212617525884684E-1   -1.613400829368490E-1
 8.116898149850000E9     5.066067751341939E-1   -8.217581473181955E-3    7.680358246699761E-4    3.679622725684757E-3    8.526942243430790E-4    3.773527183878128E-3    4.213279884910952E-1   -1.616267091159864E-1
 8.116902329075000E9     5.065496646605259E-1   -8.538495588182404E-3    7.667854540596492E-4    3.702430353153419E-3    7.971487458487724E-4    3.780531708233976E-3    4.209807967832729E-1   -1.620964150490701E-1
 8.116906508300000E9     5.065681339894392E-1   -8.823771637681057E-3    7.778598072180985E-4    3.681958248657856E-3    8.521499752397918E-4    3.759072739803353E-3    4.210343067343847E-1   -1.622100981150352E-1
 8.116910687525000E9     5.064057657539367E-1   -9.227393757145255E-3    7.885229722164851E-4    3.705170151631615E-3    7.922211085953210E-4    3.753033817086164E-3    4.209300614698008E-1   -1.624667311844727E-1
 8.116914866750000E9     5.064261632531647E-1   -9.490197203800003E-3    7.734155230079708E-4    3.703770560702158E-3    8.524392618421249E-4    3.772309448063558E-3    4.207050476414739E-1   -1.627443849369016E-1
 8.116919045975000E9     5.064911267445834E-1   -9.950668737909519E-3    8.213193433551198E-4    3.751693113797562E-3    8.951525514540158E-4    3.758998036429604E-3    4.206820432877675E-1   -1.631164403857651E-1
 8.116923225200000E9     5.066132175880955E-1   -1.013253086085763E-2    7.926965609340956E-4    3.696476746934153E-3    8.298851819929092E-4    3.768478427772002E-3    4.206287004279971E-1   -1.633569047191670E-1
 8.116927404425000E9     5.065526935890619E-1   -1.043554541043184E-2    8.070599851749221E-4    3.720540226898341E-3    8.580770752152191E-4    3.773435937068630E-3    4.204279672197080E-1   -1.635239476507533E-1
 8.116931583650000E9     5.065112609076685E-1   -1.083577468939534E-2    8.214473107680337E-4    3.693830554068743E-3    8.651509910599296E-4    3.811259062920971E-3    4.203482270987375E-1   -1.639238693270222E-1
 8.116935762875000E9     5.064892522427046E-1   -1.117780157809401E-2    8.106847266933380E-4    3.713439653421907E-3    8.728631811122540E-4    3.765624334015399E-3    4.202213176694812E-1   -1.639905598192624E-1
 8.116939942100000E9     5.065514057239371E-1   -1.140668847565580E-2    8.349014544581626E-4    3.730533117696947E-3    8.789236729919373E-4    3.764776020067050E-3    4.202012529626640E-1   -1.644403029753181E-1
 8.116944121325000E9     5.063463993141696E-1   -1.177385778710592E-2    8.162304966811768E-4    3.712242830759393E-3    8.625020513643183E-4    3.760004627817726E-3    4.201619193790961E-1   -1.646650949715243E-1
 8.116948300550000E9     5.063899051806527E-1   -1.218518241235194E-2    8.271991665285553E-4    3.716198906444475E-3    9.065587665649412E-4    3.767477574148768E-3    4.201073166943673E-1   -1.649284067374039E-1
 8.116952479775000E9     5.063914246440510E-1   -1.236886454409529E-2    8.093796234710992E-4    3.743816594710278E-3    8.810337780422732E-4    3.811706868461620E-3    4.199356497878572E-1   -1.652420698238004E-1
 8.116956659000000E9     5.063341281373629E-1   -1.279689764346687E-2    8.351081531232426E-4    3.720705629087457E-3    8.860253667698576E-4    3.791761967998503E-3    4.198013632303720E-1   -1.654553166930662E-1
 8.116960838225000E9     5.063153744057862E-1   -1.317434665662467E-2    8.291515379679320E-4    3.743203462403629E-3    8.908107546764889E-4    3.772062779314464E-3    4.195921351442301E-1   -1.657216837700960E-1
 8.116965017450000E9     5.063783758586241E-1   -1.345298041157225E-2    8.515625494821029E-4    3.737813850485577E-3    9.104212413039628E-4    3.799893756888774E-3    4.196045664335598E-1   -1.660571343475554E-1
 8.116969196675000E9     5.063453945918073E-1   -1.386287196086682E-2    8.242224295432769E-4    3.735162227200102E-3    9.271807806082460E-4    3.792855909887066E-3    4.195906249663189E-1   -1.663542201744622E-1
 8.116973375900000E9     5.062821147988540E-1   -1.401927547735360E-2    8.293517718229678E-4    3.763495033650175E-3    8.991596987714875E-4    3.796521512603065E-3    4.194952178508359E-1   -1.666487954567213E-1
 8.116977555125000E9     5.063979533558493E-1   -1.427319204412954E-2    8.226727224614447E-4    3.725114998342111E-3    9.323942686159251E-4    3.805226212571008E-3    4.193957315439009E-1   -1.668870137188517E-1
 8.116981734350000E9     5.061891904294965E-1   -1.484025437897664E-2    8.731821183693705E-4    3.764157778552754E-3    9.163333825996007E-4    3.804971223313674E-3    4.193570455617346E-1   -1.670930263383467E-1
 8.116985913575000E9     5.062726949109170E-1   -1.506965049477253E-2    8.509906837997786E-4    3.782619718149529E-3    8.873736721316126E-4    3.809720546704917E-3    4.191240148512901E-1   -1.674487513058854E-1
 8.116990092800000E9     5.062040389422762E-1   -1.540623545384619E-2    8.537569850647428E-4    3.762731632733687E-3    9.071477014947559E-4    3.823496810990265E-3    4.189649128886502E-1   -1.676028650312819E-1
 8.116994272025000E9     5.062618576524501E-1   -1.570663268578865E-2    8.528856373157181E-4    3.745114079461031E-3    8.978070809956636E-4    3.817686622589483E-3    4.189735983080920E-1   -1.679865680046724E-1
 8.116998451250000E9     5.061565392364380E-1   -1.603324034283172E-2    8.741171658987455E-4    3.778221127548836E-3    9.250486218355677E-4    3.825175507073003E-3    4.189999300284600E-1   -1.682856259258542E-1
 8.117002630475000E9     5.061979994347959E-1   -1.642931416228659E-2    8.522220240637086E-4    3.758669281616924E-3    9.302494811206945E-4    3.823805118515316E-3    4.189333506349501E-1   -1.687229237929772E-1
 8.117006809700000E9     5.061139131415556E-1   -1.671084889034308E-2    8.740157169686817E-4    3.767117765016917E-3    9.231392476191484E-4    3.833731440869146E-3    4.187165638026857E-1   -1.687199366138414E-1
 8.117010988925000E9     5.060255319711687E-1   -1.707117236213988E-2    8.788045169479028E-4    3.773648291240737E-3    9.471260286366704E-4    3.848402160353050E-3    4.185240267081980E-1   -1.690837961375709E-1
 8.117015168150000E9     5.060661584518265E-1   -1.724491466573170E-2    8.803356065962091E-4    3.773907942099283E-3    9.484246947921873E-4    3.840333680418060E-3    4.185186988809557E-1   -1.692330963206816E-1
 8.117019347375000E9     5.060915998915363E-1   -1.782578509885372E-2    9.089292674449398E-4    3.795307536138327E-3    9.289235790336332E-4    3.829112096259875E-3    4.182942201633727E-1   -1.695785430729084E-1
 8.117023526600000E9     5.060403225696358E-1   -1.801590260651051E-2    8.763649850823380E-4    3.774443394666937E-3    9.437425737868508E-4    3.835603164575458E-3    4.181655883550757E-1   -1.700109627069439E-1
 8.117027705825000E9     5.060475751780646E-1   -1.849139371820202E-2    8.813393697772540E-4    3.814992334418892E-3    9.502642042016736E-4    3.834659944849747E-3    4.181757038299280E-1   -1.702428811965635E-1
 8.117031885050000E9     5.060960776734934E-1   -1.869830404844667E-2    8.895732108172387E-4    3.773000497816067E-3    9.698691666235696E-4    3.841184351806035E-3    4.181019547410422E-1   -1.703805407902110E-1
 8.117036064275000E9     5.060350769125407E-1   -1.909251443467232E-2    9.105429409891678E-4    3.823695100077254E-3    9.308361279788224E-4    3.866391747427171E-3    4.179151936252928E-1   -1.706873017074974E-1
 8.117040243500000E9     5.059931687798509E-1   -1.935627532806747E-2    8.873908202084848E-4    3.775624356236048E-3    9.278125809376118E-4    3.818154070741307E-3    4.178497397465072E-1   -1.710707480603804E-1
 8.117044422725000E9     5.059404533461681E-1   -1.977550995087031E-2    9.194520621513037E-4    3.798477592810282E-3    9.715988652422137E-4    3.875534129497592E-3    4.178062289504975E-1   -1.712324892916674E-1
 8.117048601950000E9     5.060882067788561E-1   -1.985600382229202E-2    9.193559898417747E-4    3.808337580492573E-3    9.488629408571221E-4    3.864499122690364E-3    4.177043529988090E-1   -1.715010999377919E-1
 8.117052781175000E9     5.058318552733815E-1   -2.033021920628630E-2    8.965466192372691E-4    3.805597176343222E-3    1.008769622305179E-3    3.876928622011233E-3    4.175303685773502E-1   -1.717417257208810E-1
 8.117056960400000E9     5.058977482367329E-1   -2.053791321541793E-2    9.434057512708552E-4    3.824497326456742E-3    9.804613099404661E-4    3.900667471245458E-3    4.174288490682012E-1   -1.722329043645230E-1
 8.117061139625000E9     5.058843171003131E-1   -2.106366118703481E-2    9.460326409071564E-4    3.799771025507142E-3    9.833942844706951E-4    3.872360767317835E-3    4.173684704547854E-1   -1.723679648074887E-1
 8.117065318850000E9     5.059150892449398E-1   -2.122405620918176E-2    9.238342536135034E-4    3.842656561745206E-3    9.890022120853062E-4    3.903770547575921E-3    4.172451256339522E-1   -1.725925002813821E-1
 8.117069498075000E9     5.059176640301241E-1   -2.160711227020001E-2    9.244528993109703E-4    3.825334257203568E-3    9.747007434099623E-4    3.883928817991017E-3    4.171919422482495E-1   -1.729209313743521E-1
 8.117073677300000E9     5.058534831006720E-1   -2.210373096965354E-2    9.405802061142851E-4    3.804607744989749E-3    1.014918283370252E-3    3.877070676014368E-3    4.170550869396302E-1   -1.730844977102834E-1
 8.117077856525000E9     5.057206000252727E-1   -2.228042283698969E-2    9.495922555768132E-4    3.829023053024165E-3    1.003871769116441E-3    3.903818320483304E-3    4.169691996140878E-1   -1.733620508521836E-1
 8.117082035750000E9     5.056687043632818E-1   -2.271133994122691E-2    9.632314762875871E-4    3.825971151990760E-3    9.947730170376341E-4    3.924016893450776E-3    4.168404252150170E-1   -1.738462311878494E-1
 8.117086214975000E9     5.056816758380629E-1   -2.296569659800101E-2    9.509190984671799E-4    3.822631413757670E-3    1.022251384166993E-3    3.908236211119816E-3    4.165582946225687E-1   -1.740756376191676E-1
 8.117090394200000E9     5.056524349719517E-1   -2.328576488620459E-2    9.241232094328061E-4    3.864742255216163E-3    1.010559494704169E-3    3.902641555376327E-3    4.165986409305030E-1   -1.743628238868725E-1
 8.117094573425000E9     5.058139347030958E-1   -2.364582915574547E-2    9.809009110251718E-4    3.840466872606354E-3    9.961596231563125E-4    3.905477405517587E-3    4.163830833533395E-1   -1.744729107494898E-1
 8.117098752650000E9     5.056052998826482E-1   -2.397302937380356E-2    9.749166097552741E-4    3.853665182507178E-3    1.028926417398977E-3    3.934471908331906E-3    4.164308654705800E-1   -1.747923449110035E-1
 8.117102931875000E9     5.057119686338989E-1   -2.429882823737451E-2    1.014643865618124E-3    3.862243914006846E-3    1.028163446316960E-3    3.894274088696153E-3    4.163668471655455E-1   -1.749872089733968E-1
 8.117107111100000E9     5.055540484256701E-1   -2.460713564517837E-2    9.600311464995102E-4    3.850534878374094E-3    1.033994938050681E-3    3.901615443594206E-3    4.163208432110042E-1   -1.755369188383983E-1
 8.117111290325000E9     5.055604810566855E-1   -2.502146176728099E-2    9.969931293870612E-4    3.862754711115511E-3    1.061189278229727E-3    3.952030025390905E-3    4.161058376582336E-1   -1.756829291842064E-1
 8.117115469550000E9     5.054634872280046E-1   -2.529074590254987E-2    9.819242399628154E-4    3.876826830023799E-3    1.055327134516212E-3    3.936045421575302E-3    4.160821014145696E-1   -1.759748379427585E-1
 8.117119648775000E9     5.055532840447099E-1   -2.566529053647936E-2    9.887899849858382E-4    3.860962023943963E-3    1.036684860433506E-3    3.958409090448172E-3    4.158715017359224E-1   -1.762957056214585E-1
 8.117123828000000E9     5.055117780721358E-1   -2.596292357883406E-2    1.010434649357888E-3    3.893201897043323E-3    1.090117613982952E-3    3.954501111961158E-3    4.158477753726917E-1   -1.764212816698244E-1
 8.117128007225000E9     5.055088079712624E-1   -2.625473828594056E-2    1.011451050727906E-3    3.882446510533544E-3    1.059562091964799E-3    3.942122016957268E-3    4.159110764143289E-1   -1.768124964714788E-1
 8.117132186450000E9     5.054036845058973E-1   -2.667790034345902E-2    1.033039643908557E-3    3.898073444008616E-3    1.053164017154537E-3    3.974294732859348E-3    4.157027797872341E-1   -1.770957977427239E-1
 8.117136365675000E9     5.053379922776011E-1   -2.696606157255757E-2    1.026120998714658E-3    3.907315959665899E-3    1.065545893642740E-3    3.945951000627656E-3    4.154329746702458E-1   -1.771928658828398E-1
 8.117140544900000E9     5.053446856543811E-1   -2.744376610654719E-2    1.018119598591640E-3    3.897480786750852E-3    1.091301125757818E-3    3.963722728052754E-3    4.154075690565620E-1   -1.775067211890180E-1
 8.117144724125000E9     5.053425100645270E-1   -2.756644061070514E-2    1.023312474270377E-3    3.899447296188252E-3    1.087699617475338E-3    3.973067199944377E-3    4.151902794025912E-1   -1.778309510866722E-1
 8.117148903350000E9     5.053141523288223E-1   -2.799558062256716E-2    1.052342034912345E-3    3.917588457828409E-3    1.090586882714018E-3    3.988863591208747E-3    4.152571966185739E-1   -1.779557718949226E-1
 8.117153082575000E9     5.052159267515602E-1   -2.831632384914434E-2    1.045957463789377E-3    3.920085799100566E-3    1.097152398453926E-3    4.019219890392172E-3    4.151364078639603E-1   -1.783925233861574E-1
 8.117157261800000E9     5.052703494532285E-1   -2.890050274598307E-2    1.041871209494076E-3    3.936237611921824E-3    1.085591248655395E-3    3.990416421992884E-3    4.149167445812121E-1   -1.787615550942936E-1
 8.117161441025000E9     5.052514605594368E-1   -2.908581791834005E-2    1.042528000632087E-3    3.919996147444055E-3    1.103661235167631E-3    3.983847466276952E-3    4.149660071156031E-1   -1.789011502879052E-1
 8.117165620250000E9     5.052595499883532E-1   -2.930714736560330E-2    1.052562021945684E-3    3.919273054743539E-3    1.137044347757568E-3    3.991359316587340E-3    4.147430755513783E-1   -1.792437666569078E-1
