#  HZ   S   RI   R     50.00 
! Rohde & Schwarz Vector Network Analyzer 
! Rohde-Schwarz,ZNB20-2Port,1311601062101988,3.16
! Created: UTC 3/20/2024, 11:59:13 AM
! freq[Hz]                re:S11                  im:S11                  re:S21                  im:S21                  re:S12                  im:S12                  re:S22                  im:S22
 8.116846758000000E9     5.068256400336753E-1   -3.941470960796642E-3    7.391079104685651E-4    3.669082709988341E-3    7.989540269551539E-4    3.698542364070633E-3    4.221769671595507E-1   -1.580958870587633E-1
 8.116850723250000E9     5.068465243734955E-1   -4.161427573909818E-3    7.381505304188367E-4    3.654794926405071E-3    7.908619303227372E-4    3.731609592424634E-3    4.221760694233764E-1   -1.586136310629106E-1
 8.116854688500000E9     5.068118079283627E-1   -4.564535367993874E-3    7.492570097395871E-4    3.679312472407879E-3    7.903480185541741E-4    3.728923011754023E-3    4.221815292368719E-1   -1.587530652481272E-1
 8.116858653750000E9     5.068529395325138E-1   -4.824793960653140E-3    7.256196952686072E-4    3.693523758478102E-3    7.974268032921806E-4    3.795083917961164E-3    4.220506983919313E-1   -1.591290195759985E-1
 8.116862619000000E9     5.068969780989345E-1   -5.138139719385248E-3    7.535045867673932E-4    3.685725289764806E-3    8.190479019959059E-4    3.702098031503820E-3    4.219219231979337E-1   -1.593184636648377E-1
 8.116866584250000E9     5.066881396169152E-1   -5.693495090888426E-3    7.634814280920531E-4    3.676457166662603E-3    8.028103937907915E-4    3.727367859718962E-3    4.219308944319310E-1   -1.595087449759424E-1
 8.116870549500000E9     5.067140280661917E-1   -5.893100228186831E-3    7.485858841292058E-4    3.701357762297729E-3    8.144105021826328E-4    3.688943628332315E-3    4.217522546818521E-1   -1.597256551053138E-1
 8.116874514750000E9     5.067810920952751E-1   -6.101785277501629E-3    7.533540255605542E-4    3.686456313709847E-3    7.773725954675395E-4    3.699870029815169E-3    4.216221241209300E-1   -1.600959314940671E-1
 8.116878480000000E9     5.068287353954817E-1   -6.474892262850599E-3    7.660337643077525E-4    3.687425104935031E-3    8.206992916438399E-4    3.721046224063411E-3    4.215502401568189E-1   -1.604814255052275E-1
 8.116882445250000E9     5.068183435681557E-1   -6.794313912957692E-3    7.415122414261959E-4    3.671793459397937E-3    8.382741450706134E-4    3.734974456513181E-3    4.215770797185864E-1   -1.605111991328146E-1
 8.116886410500000E9     5.066640472688573E-1   -7.100799697036378E-3    7.758281438739656E-4    3.683026528719355E-3    8.168218987137919E-4    3.770411478110166E-3    4.213067626243812E-1   -1.609258111752846E-1
 8.116890375750000E9     5.067707127419100E-1   -7.361235458183488E-3    7.667313093056490E-4    3.708648592516063E-3    8.294848632475528E-4    3.781363115239122E-3    4.214631544481353E-1   -1.611187236916083E-1
 8.116894341000000E9     5.067337929278733E-1   -7.660292752831750E-3    7.573696020921799E-4    3.713927689568680E-3    8.292430461346854E-4    3.726180358865075E-3    4.212735513303519E-1   -1.615027933464953E-1
 8.116898306250000E9     5.067000577461083E-1   -7.891259599139900E-3    7.845943109919016E-4    3.684098830703354E-3    8.232322022198753E-4    3.766644332904747E-3    4.211787432069782E-1   -1.616387457163673E-1
 8.116902271500000E9     5.067462944127811E-1   -8.220272320780223E-3    7.734358201351318E-4    3.703796239528695E-3    8.114155391665143E-4    3.756351059688371E-3    4.211042445603820E-1   -1.620217416790365E-1
 8.116906236750000E9     5.066809046148183E-1   -8.588731331386899E-3    7.669643476613743E-4    3.700617338642626E-3    8.321943867614392E-4    3.782840410049109E-3    4.209604486760625E-1   -1.621706768375778E-1
 8.116910202000000E9     5.065336595684193E-1   -8.931778874507247E-3    7.860909260819117E-4    3.709207200421800E-3    8.282213038000061E-4    3.726869747668757E-3    4.209136343851966E-1   -1.625103904506383E-1
 8.116914167250000E9     5.067123528792493E-1   -9.259069905730239E-3    8.247470295741371E-4    3.686949575123702E-3    8.218542204809116E-4    3.766579318300474E-3    4.207392058831832E-1   -1.626279351266248E-1
 8.116918132500000E9     5.065931668742909E-1   -9.508531224627617E-3    7.892873401392931E-4    3.682450515117435E-3    8.126359498421751E-4    3.760695561436973E-3    4.206325150120521E-1   -1.629002695475495E-1
 8.116922097750000E9     5.065939661378409E-1   -9.799685455474738E-3    7.834530681293518E-4    3.691796235420340E-3    8.476988345198308E-4    3.801620612434155E-3    4.203979837060765E-1   -1.632915296581797E-1
 8.116926063000000E9     5.066063869298771E-1   -1.009553610728690E-2    8.056576112410829E-4    3.714101547025453E-3    8.392046396852564E-4    3.787680400794965E-3    4.204837191160766E-1   -1.634767863733836E-1
 8.116930028250000E9     5.064931733719954E-1   -1.036861978135425E-2    8.022088584176075E-4    3.704282370368197E-3    8.744382667213573E-4    3.762488484369683E-3    4.204825239947549E-1   -1.637821540015063E-1
 8.116933993500000E9     5.066680938305755E-1   -1.075543896947925E-2    8.065577134199041E-4    3.719221184717021E-3    8.252491330771337E-4    3.737938132481445E-3    4.202799606031498E-1   -1.638947341443428E-1
 8.116937958750000E9     5.066410691024766E-1   -1.100624525049862E-2    8.144511418882315E-4    3.701860478239136E-3    8.217633745707957E-4    3.752150434119091E-3    4.203249813202826E-1   -1.642760698302259E-1
 8.116941924000000E9     5.065852015426624E-1   -1.139311466887873E-2    8.024384194903903E-4    3.722204364461209E-3    8.585503956669143E-4    3.777110622305611E-3    4.202824456327526E-1   -1.644220951732569E-1
 8.116945889250000E9     5.066007257987077E-1   -1.168617046416543E-2    8.304495149862881E-4    3.711004559293114E-3    8.982777704482420E-4    3.767922585553933E-3    4.202246679606755E-1   -1.647011993385246E-1
 8.116949854500000E9     5.064353164879024E-1   -1.192586682028209E-2    8.065232912569934E-4    3.709212988743408E-3    8.834166744100884E-4    3.788159705746552E-3    4.198872715987707E-1   -1.650143313322597E-1
 8.116953819750000E9     5.064569941457071E-1   -1.220273133256205E-2    8.180435587604965E-4    3.737113351218554E-3    8.666212032602796E-4    3.789333809424457E-3    4.198781243725879E-1   -1.653107938774278E-1
 8.116957785000000E9     5.065639699901621E-1   -1.258036369752489E-2    8.242501812229624E-4    3.738822188657728E-3    8.688601783835152E-4    3.790414532639698E-3    4.197740161686310E-1   -1.655496766145614E-1
 8.116961750250000E9     5.065231281901934E-1   -1.297844208954511E-2    8.136002040154272E-4    3.769576767960274E-3    8.922812957478218E-4    3.795596025528269E-3    4.197248404175395E-1   -1.657855666828724E-1
 8.116965715500000E9     5.064181856651110E-1   -1.330394251209218E-2    8.147789127265531E-4    3.714417563205404E-3    8.884052224543826E-4    3.786820485922102E-3    4.195526991057740E-1   -1.662337147988442E-1
 8.116969680750000E9     5.064601021155783E-1   -1.364195418209758E-2    8.449312693189173E-4    3.732896858126645E-3    8.980350678675948E-4    3.801476979404029E-3    4.195319827072150E-1   -1.663731753365115E-1
 8.116973646000000E9     5.064198258327274E-1   -1.382829444259078E-2    8.447982079503636E-4    3.735943520021836E-3    9.081668849398777E-4    3.796018107140382E-3    4.195635974483930E-1   -1.666014986684161E-1
 8.116977611250000E9     5.064588785697027E-1   -1.422802960747387E-2    8.518534988308606E-4    3.730918472945491E-3    9.368448442507196E-4    3.821656978083315E-3    4.193181709295471E-1   -1.668789623750625E-1
 8.116981576500000E9     5.063180515112468E-1   -1.449006307721772E-2    8.408600968622636E-4    3.722181930403445E-3    9.079787710241419E-4    3.832588494078622E-3    4.192723906621788E-1   -1.672201853726519E-1
 8.116985541750000E9     5.063777616385632E-1   -1.491787130643385E-2    8.105271560713088E-4    3.735928372095254E-3    8.928074750099227E-4    3.809355879898639E-3    4.190763820790780E-1   -1.675081984841712E-1
 8.116989507000000E9     5.064108454101032E-1   -1.500085942587282E-2    8.460641343160017E-4    3.749656027773583E-3    9.060545683001481E-4    3.819678635698843E-3    4.190380591816268E-1   -1.676429460338412E-1
 8.116993472250000E9     5.063921381887556E-1   -1.545287528065408E-2    8.772108799960556E-4    3.743332705008258E-3    9.401898883918640E-4    3.791123631573745E-3    4.190280171888411E-1   -1.680948761466668E-1
 8.116997437500000E9     5.064169162467703E-1   -1.572545198037826E-2    8.715717094885026E-4    3.760034762872145E-3    9.406163013221765E-4    3.809450670458674E-3    4.188794152545677E-1   -1.682389067590723E-1
 8.117001402750000E9     5.063649915159438E-1   -1.592528252542562E-2    8.722536342281852E-4    3.775529035630048E-3    9.371971069630943E-4    3.827407975832387E-3    4.187520295655101E-1   -1.685589123915321E-1
 8.117005368000000E9     5.062196577471966E-1   -1.631930013244278E-2    8.624597464685453E-4    3.755900882758592E-3    9.430651725619068E-4    3.833151111326566E-3    4.187203253126721E-1   -1.686967538077753E-1
 8.117009333250000E9     5.062342231539265E-1   -1.659748450374524E-2    8.672734240244956E-4    3.768855074503093E-3    8.923502279942446E-4    3.856850368983087E-3    4.185078270054394E-1   -1.690019494177232E-1
 8.117013298500000E9     5.062907363610132E-1   -1.703161350969794E-2    8.760270640832201E-4    3.774127837572451E-3    9.213330488090569E-4    3.852171066388009E-3    4.184768877690972E-1   -1.692789585248597E-1
 8.117017263750000E9     5.062377083438402E-1   -1.724547615460001E-2    9.047728842986563E-4    3.750882448382908E-3    9.383784321844886E-4    3.811837260223248E-3    4.184240217123167E-1   -1.694501169200336E-1
 8.117021229000000E9     5.062768401889884E-1   -1.761239407401066E-2    8.788516235008055E-4    3.775969258998090E-3    9.018589535570316E-4    3.816283375754898E-3    4.182000150884138E-1   -1.696594753429709E-1
 8.117025194250000E9     5.063328358832635E-1   -1.790278405830669E-2    8.666957277051046E-4    3.790465875628419E-3    9.520629442121344E-4    3.906531736954912E-3    4.182720548745452E-1   -1.699873096598879E-1
 8.117029159500000E9     5.061782560720686E-1   -1.829001401776341E-2    8.886331583760060E-4    3.784341445031370E-3    9.950179589023993E-4    3.852856227265107E-3    4.182992280070697E-1   -1.702410569995936E-1
 8.117033124750000E9     5.062283548562111E-1   -1.842399270527038E-2    8.928754989031599E-4    3.779135602928510E-3    9.274977424442047E-4    3.856588597583466E-3    4.180141980691479E-1   -1.705016137389748E-1
 8.117037090000000E9     5.061772133059834E-1   -1.888901536200523E-2    8.743698999186543E-4    3.771294051547614E-3    9.472867458044015E-4    3.848094647400900E-3    4.178516621205555E-1   -1.707546786512169E-1
 8.117041055250000E9     5.060789629836082E-1   -1.917435364372791E-2    9.162765879862821E-4    3.784969895512450E-3    9.588478880516692E-4    3.847156096946810E-3    4.178253779409446E-1   -1.710436435472759E-1
 8.117045020500000E9     5.061242231374193E-1   -1.956832159766916E-2    9.120008428108989E-4    3.792398423824379E-3    9.870232344699041E-4    3.819615121428549E-3    4.177154162854946E-1   -1.712581654321801E-1
 8.117048985750000E9     5.060284943003636E-1   -1.966006600353611E-2    9.086938494411260E-4    3.791647040583146E-3    9.699421961419721E-4    3.874178139901793E-3    4.177251826460356E-1   -1.714819936964427E-1
 8.117052951000000E9     5.059973389398986E-1   -2.008010267961231E-2    9.044612945312829E-4    3.795064110468238E-3    9.743930659144016E-4    3.863356135762463E-3    4.175845131916291E-1   -1.718036971745276E-1
 8.117056916250000E9     5.059590988824344E-1   -2.040650526256968E-2    9.116886993260105E-4    3.771233799920065E-3    9.909942568283104E-4    3.889468877373500E-3    4.174409677247606E-1   -1.721571818660913E-1
 8.117060881500000E9     5.061172694255549E-1   -2.081132277989985E-2    9.129177829424610E-4    3.834252169212096E-3    9.820073292309253E-4    3.846454777326657E-3    4.173615639025043E-1   -1.722878053770970E-1
 8.117064846750000E9     5.059914679654761E-1   -2.104929050986096E-2    9.387001683418579E-4    3.807769083630340E-3    9.827062805214542E-4    3.853202078189378E-3    4.173252447007764E-1   -1.724577209164571E-1
 8.117068812000000E9     5.060462354739291E-1   -2.136536082661441E-2    9.356418604844912E-4    3.839550374237077E-3    9.980647137697205E-4    3.874431525563149E-3    4.171514408069047E-1   -1.727511480943931E-1
 8.117072777250000E9     5.060212123598118E-1   -2.162717974806588E-2    9.303235725587915E-4    3.798863087958195E-3    9.918989829556459E-4    3.898419226220744E-3    4.171805422587870E-1   -1.731869205264225E-1
 8.117076742500000E9     5.058983429762441E-1   -2.208857802362038E-2    9.310576465793034E-4    3.848584364109541E-3    1.009290279321446E-3    3.881919387574036E-3    4.169910524729268E-1   -1.733849284133393E-1
 8.117080707750000E9     5.060373934091709E-1   -2.220997447956075E-2    9.111901954968791E-4    3.801480723353150E-3    1.018878566706612E-3    3.873068314161177E-3    4.167910137716264E-1   -1.735677418681109E-1
 8.117084673000000E9     5.059403961501219E-1   -2.258617636293094E-2    9.346238641788758E-4    3.830008434500410E-3    1.038844073448075E-3    3.906726229570051E-3    4.168206432833136E-1   -1.739715306881764E-1
 8.117088638250000E9     5.058809964878979E-1   -2.286083475496471E-2    9.447390579757336E-4    3.830817936154710E-3    1.006763034738814E-3    3.862888832070635E-3    4.165965618767807E-1   -1.743221896406018E-1
 8.117092603500000E9     5.059204995228271E-1   -2.331994433001934E-2    9.373755427399289E-4    3.834086237147389E-3    1.013462148684835E-3    3.906305908797134E-3    4.165794162481241E-1   -1.744656046395853E-1
 8.117096568750000E9     5.057797177460088E-1   -2.351120039761804E-2    9.489199068390905E-4    3.856968750333903E-3    9.923600686367871E-4    3.913359602609820E-3    4.165560507629082E-1   -1.746427992000276E-1
 8.117100534000000E9     5.058342721403402E-1   -2.390160298447719E-2    9.547743006003082E-4    3.859496456956132E-3    1.006146118190998E-3    3.881116966462215E-3    4.165290414001583E-1   -1.748912435892413E-1
 8.117104499250000E9     5.059386811202037E-1   -2.421803681847978E-2    9.788260415642652E-4    3.836536772345538E-3    1.024590702730935E-3    3.949346701529083E-3    4.163667883888356E-1   -1.752428087644000E-1
 8.117108464500000E9     5.057966095643828E-1   -2.443901858706697E-2    9.563371738108183E-4    3.859720818802032E-3    1.015387030372764E-3    3.916941957848007E-3    4.162099732138814E-1   -1.755354932605353E-1
 8.117112429750000E9     5.057139760921863E-1   -2.484818222133871E-2    9.658215685155024E-4    3.852295365031852E-3    1.002845928516538E-3    3.938745585541930E-3    4.161705202665750E-1   -1.757393873384198E-1
 8.117116395000000E9     5.057223278790413E-1   -2.514016069776255E-2    9.749213089830181E-4    3.839365455501338E-3    1.036568262941985E-3    3.984269580436213E-3    4.160167045432534E-1   -1.759579243204436E-1
 8.117120360250000E9     5.056078280932317E-1   -2.544634660695853E-2    9.763658345665883E-4    3.885759989062967E-3    1.047864598566525E-3    3.933947023175690E-3    4.158618735762972E-1   -1.762551875596984E-1
 8.117124325500000E9     5.056808444548451E-1   -2.576078279082475E-2    9.697136395653333E-4    3.876268327681880E-3    1.012423312546671E-3    3.943516799284200E-3    4.158098675169092E-1   -1.764503258157946E-1
 8.117128290750000E9     5.056317774578070E-1   -2.612172302776836E-2    9.805264884486494E-4    3.913164527026357E-3    1.042321874741578E-3    3.919072835254311E-3    4.156416317506186E-1   -1.767959933839726E-1
 8.117132256000000E9     5.056398652515962E-1   -2.639538950843464E-2    9.914838290808199E-4    3.867411438197722E-3    1.055777972550731E-3    3.940253091787341E-3    4.157319756996711E-1   -1.769531846044724E-1
 8.117136221250000E9     5.056239496083523E-1   -2.659382136280010E-2    9.838348593731441E-4    3.865466586528957E-3    1.037031431425870E-3    3.985521711840071E-3    4.154260823881885E-1   -1.771773704018812E-1
 8.117140186500000E9     5.055346300472415E-1   -2.690694955500276E-2    1.023262266827083E-3    3.897754051829889E-3    1.077044956050097E-3    3.966333170586980E-3    4.155118011158039E-1   -1.776404371670457E-1
 8.117144151750000E9     5.056650548861021E-1   -2.744355002756465E-2    9.956206675591349E-4    3.899217717043251E-3    1.090761090306511E-3    3.981994700846744E-3    4.153413324562660E-1   -1.776624383769890E-1
 8.117148117000000E9     5.055383366853857E-1   -2.771428867257513E-2    1.013827303041484E-3    3.902375907827778E-3    1.085890197897630E-3    3.959762088052082E-3    4.151413192130204E-1   -1.780632691193690E-1
 8.117152082250000E9     5.054495544998391E-1   -2.790223852055504E-2    1.008613912504617E-3    3.882404101022848E-3    1.037838616514896E-3    3.998607806016222E-3    4.151499350958513E-1   -1.783220443844576E-1
 8.117156047500000E9     5.054110128811841E-1   -2.833987861403393E-2    1.046403772293318E-3    3.896279457682260E-3    1.057580762773822E-3    3.948701773418235E-3    4.150542796729690E-1   -1.785667696450740E-1
 8.117160012750000E9     5.053920043877550E-1   -2.853457021080045E-2    1.054150504860639E-3    3.944396668447693E-3    1.048058544412875E-3    4.008364200361136E-3    4.149144098473471E-1   -1.788676676840722E-1
 8.117163978000000E9     5.054177784487869E-1   -2.897853521775154E-2    1.047892690977942E-3    3.899108658363381E-3    1.123889560247427E-3    3.988470519797328E-3    4.147285991596522E-1   -1.790700067682559E-1
 8.117167943250000E9     5.053131864948359E-1   -2.922626434600791E-2    1.049450957348666E-3    3.906206839024327E-3    1.082893318282859E-3    3.989776548122547E-3    4.146275714032817E-1   -1.793922488801550E-1
 8.117171908500000E9     5.052911258938748E-1   -2.962355138575511E-2    1.057840797337299E-3    3.928075746804841E-3    1.064446606362423E-3    4.035788914091486E-3    4.147810949825563E-1   -1.796828064845543E-1
 8.117175873750000E9     5.052633112082929E-1   -2.990784431542750E-2    1.034742889257400E-3    3.951207896087590E-3    1.121554254469727E-3    3.998765139046420E-3    4.146824953919411E-1   -1.798933189146054E-1
 8.117179839000000E9     5.052489350002489E-1   -3.027895292453273E-2    1.087997103885111E-3    3.946059415264697E-3    1.118153380419280E-3    4.027429371073358E-3    4.144671619308941E-1   -1.801848019960198E-1
 8.117183804250000E9     5.050974317689523E-1   -3.048792814209661E-2    1.049462850719656E-3    3.925995751723740E-3    1.151562082965679E-3    4.053949129007695E-3    4.143212396417211E-1   -1.803456822630104E-1
 8.117187769500000E9     5.052569907427897E-1   -3.090242149765885E-2    1.063980140306759E-3    3.963437717441891E-3    1.151413235678370E-3    4.030382842125414E-3    4.142158010099039E-1   -1.806496717100480E-1
 8.117191734750000E9     5.051390469616795E-1   -3.117439239366562E-2    1.088246415435418E-3    3.965925014732402E-3    1.121910113879330E-3    4.042987705972257E-3    4.141485547664356E-1   -1.809162267756388E-1
 8.117195700000000E9     5.051499963709196E-1   -3.154154772483266E-2    1.045781616176191E-3    3.950770207585870E-3    1.152920952545221E-3    4.025729707161870E-3    4.140221412671241E-1   -1.811345896985056E-1
 8.117199665250000E9     5.051009145280927E-1   -3.172566158640045E-2    1.092715498102772E-3    3.959680611305771E-3    1.126865248939581E-3    4.025930066654439E-3    4.139010961297598E-1   -1.813761387386636E-1
 8.117203630500000E9     5.051126224942588E-1   -3.208886496311524E-2    1.087491178781212E-3    3.987913900330012E-3    1.145547489382691E-3    4.034114676971569E-3    4.138118941711607E-1   -1.816811735422292E-1
