#  HZ   S   RI   R     50.00 
! Rohde & Schwarz Vector Network Analyzer 
! Rohde-Schwarz,ZNB20-2Port,1311601062101988,3.16
! Created: UTC 3/20/2024, 11:59:15 AM
! freq[Hz]                re:S11                  im:S11                  re:S21                  im:S21                  re:S12                  im:S12                  re:S22                  im:S22
 8.116847979000000E9     5.068716413102176E-1   -3.965467868590996E-3    7.185220790629505E-4    3.670814935304315E-3    8.097719292129544E-4    3.730180694620353E-3    4.223134358844270E-1   -1.582672086880814E-1
 8.116851942925000E9     5.069111348933597E-1   -4.328814557250953E-3    7.171698733191489E-4    3.679390982447781E-3    7.924413327449870E-4    3.725945973618113E-3    4.221919000134957E-1   -1.586108844921817E-1
 8.116855906850000E9     5.067586038798646E-1   -4.688478749844524E-3    7.256058749106458E-4    3.658131564084679E-3    7.734989883385335E-4    3.733588210217383E-3    4.221390357696646E-1   -1.588483182935723E-1
 8.116859870775000E9     5.067751571040505E-1   -5.017426469294919E-3    7.449708198186556E-4    3.668314690083357E-3    7.896170351978229E-4    3.731979740259580E-3    4.220232273507792E-1   -1.590803938726926E-1
 8.116863834700000E9     5.067105834865437E-1   -5.253550006877289E-3    7.549179499910226E-4    3.692080061274942E-3    8.476670153603113E-4    3.733995903969883E-3    4.218859683322312E-1   -1.593761870046866E-1
 8.116867798625000E9     5.066874585237525E-1   -5.527028576066727E-3    7.381636381253999E-4    3.687053619389495E-3    8.267036133345750E-4    3.728192953513939E-3    4.217666141619928E-1   -1.596503643717903E-1
 8.116871762550000E9     5.067397716720978E-1   -5.960495033337072E-3    7.797425231118916E-4    3.671027583125510E-3    8.244299967508721E-4    3.725424608098882E-3    4.217226942193840E-1   -1.599507320002732E-1
 8.116875726475000E9     5.067899823642534E-1   -6.190605952764407E-3    7.632153553821184E-4    3.683577245325646E-3    8.374460106985292E-4    3.750006808417266E-3    4.216712940330002E-1   -1.601164335805233E-1
 8.116879690400000E9     5.067855744731625E-1   -6.514154002828071E-3    7.841846224318638E-4    3.651307381650260E-3    7.953278548198653E-4    3.733980272110155E-3    4.214951648301339E-1   -1.603772696757142E-1
 8.116883654325000E9     5.067684460575358E-1   -6.773623309278647E-3    7.412284666825682E-4    3.684724727977772E-3    7.983363924471790E-4    3.719636289009570E-3    4.214563176820887E-1   -1.606405995663728E-1
 8.116887618250000E9     5.069019583814347E-1   -7.175778999781386E-3    7.941753576798465E-4    3.681305822125283E-3    8.501737736119035E-4    3.746172355257884E-3    4.213737486580338E-1   -1.610908536145551E-1
 8.116891582175000E9     5.066788469808200E-1   -7.501826623389006E-3    7.714190406173833E-4    3.682610648405369E-3    8.180446150590491E-4    3.734622935636383E-3    4.213616299031408E-1   -1.612787355026317E-1
 8.116895546100000E9     5.067521227052694E-1   -7.735281467067975E-3    7.794212928122430E-4    3.690694061119096E-3    8.163419375342551E-4    3.748385396194897E-3    4.211173712498540E-1   -1.613770889403562E-1
 8.116899510025000E9     5.066649752740912E-1   -8.194140093085164E-3    7.902398422034790E-4    3.677881948833286E-3    8.261335791485622E-4    3.730214311460211E-3    4.212129729040845E-1   -1.616958213823002E-1
 8.116903473950000E9     5.066587131502895E-1   -8.432620919646160E-3    8.008376435436697E-4    3.689277718040042E-3    7.954638799467811E-4    3.727288927159048E-3    4.210067841368820E-1   -1.621064300451224E-1
 8.116907437875000E9     5.066587138880928E-1   -8.724082803580016E-3    7.760134877029133E-4    3.694435918566004E-3    8.388324255773329E-4    3.747527985329447E-3    4.209598085304343E-1   -1.623821932909255E-1
 8.116911401800000E9     5.065538597342416E-1   -9.026943405994539E-3    7.904695135011753E-4    3.681137681921365E-3    8.701478828929784E-4    3.782663850075666E-3    4.208461350633712E-1   -1.624474124899881E-1
 8.116915365725000E9     5.065364064234521E-1   -9.304300586901734E-3    8.019883035261636E-4    3.704408580696601E-3    8.842592358839928E-4    3.767240104342791E-3    4.207961339842364E-1   -1.628149812763545E-1
 8.116919329650000E9     5.065929152490898E-1   -9.585273692336400E-3    7.809849627045701E-4    3.705251908186311E-3    8.114547294423139E-4    3.763463974173894E-3    4.205148937756063E-1   -1.631119366165623E-1
 8.116923293575000E9     5.066786684874650E-1   -9.870735106574099E-3    7.735924446542203E-4    3.714453600305906E-3    8.615852904009164E-4    3.784482477894224E-3    4.205562830628831E-1   -1.633798164825783E-1
 8.116927257500000E9     5.066472793594636E-1   -1.017427073999057E-2    7.933704657667098E-4    3.703761944945290E-3    8.828640011205118E-4    3.780827367552353E-3    4.206009272335314E-1   -1.635231975206085E-1
 8.116931221425000E9     5.065555638495461E-1   -1.055881251129530E-2    8.203159298987292E-4    3.708597208876198E-3    8.305435095021225E-4    3.776151856715075E-3    4.204767237247292E-1   -1.639642843680247E-1
 8.116935185350000E9     5.066420081617704E-1   -1.087492856693258E-2    8.052796986132651E-4    3.710453787176980E-3    8.580613867030266E-4    3.794726649497482E-3    4.202756451060704E-1   -1.640738090839695E-1
 8.116939149275000E9     5.064984119549659E-1   -1.129439589871542E-2    8.102632453035075E-4    3.721948394807287E-3    8.661022705953605E-4    3.757141821269442E-3    4.202954412526639E-1   -1.643923285532831E-1
 8.116943113200000E9     5.064906353787549E-1   -1.140762100558308E-2    8.346816444993105E-4    3.697296688717238E-3    9.051173025580196E-4    3.811219192950193E-3    4.200674514339214E-1   -1.645340104902524E-1
 8.116947077125000E9     5.064716502340091E-1   -1.178511338098736E-2    8.098605580705562E-4    3.691300384118786E-3    8.544304393170018E-4    3.793940061335584E-3    4.200516353467626E-1   -1.648175565852147E-1
 8.116951041050000E9     5.064673194745912E-1   -1.201769081408349E-2    8.037363134163955E-4    3.715516815467720E-3    8.538968635239144E-4    3.781791331378056E-3    4.200544282321667E-1   -1.650349461584084E-1
 8.116955004975000E9     5.064891187603241E-1   -1.238799772759798E-2    8.163265108054194E-4    3.713383967042020E-3    8.616198524734490E-4    3.815852724990836E-3    4.199032296085810E-1   -1.653625602413881E-1
 8.116958968900000E9     5.064844151223903E-1   -1.279019050053920E-2    8.141423576747067E-4    3.719491070406475E-3    8.562164366356796E-4    3.780192408946247E-3    4.198054027914697E-1   -1.656804486563394E-1
 8.116962932825000E9     5.063738245008216E-1   -1.295913776919806E-2    8.088825129645197E-4    3.736139043693614E-3    8.885051463586161E-4    3.798406690399808E-3    4.196642379835250E-1   -1.658264095543767E-1
 8.116966896750000E9     5.064881857605320E-1   -1.331200101108607E-2    8.433623104582225E-4    3.739324960571246E-3    8.985851764953860E-4    3.771535358423349E-3    4.196015670882431E-1   -1.661160012218934E-1
 8.116970860675000E9     5.065475724351445E-1   -1.361348957864172E-2    8.166045902153519E-4    3.748160306109825E-3    8.507183716077867E-4    3.763421339999935E-3    4.194281046322605E-1   -1.664589300145323E-1
 8.116974824600000E9     5.064249075631261E-1   -1.397425775697555E-2    8.519511437207463E-4    3.730458866748117E-3    8.936029199775512E-4    3.746289386186070E-3    4.193783368940582E-1   -1.666780269671239E-1
 8.116978788525000E9     5.063562986445400E-1   -1.415585763809607E-2    8.314517216659876E-4    3.754919951485991E-3    8.691461233899260E-4    3.811361595981887E-3    4.193537005737959E-1   -1.669489229132392E-1
 8.116982752450000E9     5.065159828130652E-1   -1.456619944726193E-2    8.558898568886814E-4    3.752531721581597E-3    8.884617860767834E-4    3.789787733006541E-3    4.191917273433449E-1   -1.672722282016645E-1
 8.116986716375000E9     5.064071975471989E-1   -1.486021953892674E-2    8.338171153099412E-4    3.742514392347353E-3    8.868643120113895E-4    3.825203716640509E-3    4.189983081527641E-1   -1.674916030159182E-1
 8.116990680300000E9     5.063970558660142E-1   -1.518697508600933E-2    8.503407475727803E-4    3.747407689676787E-3    9.121414532544145E-4    3.821666723039826E-3    4.190022859245287E-1   -1.677759122289617E-1
 8.116994644225000E9     5.063407449733893E-1   -1.550433769653572E-2    8.661387789120927E-4    3.748925778329967E-3    8.973014579557526E-4    3.828195117173008E-3    4.188830381270058E-1   -1.680468147632966E-1
 8.116998608150000E9     5.062329697992889E-1   -1.577616691655705E-2    8.373369534239274E-4    3.777991297301100E-3    9.098263599344830E-4    3.805096955733073E-3    4.187476044643148E-1   -1.683058318932652E-1
 8.117002572075000E9     5.063886162892174E-1   -1.607799314730610E-2    8.544379056166511E-4    3.755908217598400E-3    9.131902433670265E-4    3.869383265733572E-3    4.188149256555049E-1   -1.684645547309117E-1
 8.117006536000000E9     5.063393551318760E-1   -1.636739063137689E-2    9.112281621441151E-4    3.758161696368193E-3    9.018536851581056E-4    3.816039093253933E-3    4.185977189826278E-1   -1.688616222610922E-1
 8.117010499925000E9     5.062246796813967E-1   -1.674390990103193E-2    8.735007843583805E-4    3.755124071765864E-3    9.143428574398495E-4    3.848536673019675E-3    4.186159322764410E-1   -1.690036085557919E-1
 8.117014463850000E9     5.062704838767794E-1   -1.703157828580119E-2    8.704451355638983E-4    3.764692478979836E-3    9.351635503191848E-4    3.856827123607919E-3    4.183066671770739E-1   -1.691961142988049E-1
 8.117018427775000E9     5.062551988005488E-1   -1.733069548572972E-2    8.716854884834544E-4    3.767711108224562E-3    9.180853006784630E-4    3.813571175999132E-3    4.184870046474619E-1   -1.694854649492143E-1
 8.117022391700000E9     5.062585016590443E-1   -1.770750088441745E-2    8.813698094041635E-4    3.769699589063662E-3    9.314143071740861E-4    3.853171287554688E-3    4.182390140999362E-1   -1.698647848131301E-1
 8.117026355625000E9     5.062746593646280E-1   -1.800791030850037E-2    8.877509762024898E-4    3.797805599680609E-3    9.251725186904803E-4    3.889667872646149E-3    4.183105811157527E-1   -1.701761802916451E-1
 8.117030319550000E9     5.063835059900553E-1   -1.828990599793864E-2    8.889050263877242E-4    3.774342005392940E-3    9.422935742649731E-4    3.837560183474073E-3    4.181748266227737E-1   -1.703301550323925E-1
 8.117034283475000E9     5.061211911306136E-1   -1.855357212029357E-2    8.987139002141336E-4    3.787679663794740E-3    9.429308634949332E-4    3.846168431136535E-3    4.180618197376296E-1   -1.706181397858130E-1
 8.117038247400000E9     5.061839267109777E-1   -1.904189953138420E-2    8.901511905645157E-4    3.777559158408049E-3    9.781097265532657E-4    3.822913869211754E-3    4.179806110808044E-1   -1.709936371043708E-1
 8.117042211325000E9     5.061608108729406E-1   -1.927508433105854E-2    9.057753136693130E-4    3.796038719590001E-3    9.625907873262019E-4    3.851110083459606E-3    4.177403972117947E-1   -1.711958147958078E-1
 8.117046175250000E9     5.060801436066644E-1   -1.948931175151695E-2    8.938904417149137E-4    3.773480329976370E-3    9.421538971009870E-4    3.868929790794551E-3    4.178568118341748E-1   -1.714144252464654E-1
 8.117050139175000E9     5.060867152789960E-1   -1.990205724906440E-2    9.326536660781780E-4    3.803067749475985E-3    9.847668602454415E-4    3.819759845520256E-3    4.177013757771488E-1   -1.716420389637498E-1
 8.117054103100000E9     5.061198703830320E-1   -2.021729548289125E-2    9.069749266982145E-4    3.791489819056768E-3    9.659631420132351E-4    3.869459561223424E-3    4.175872522294050E-1   -1.718304015855068E-1
 8.117058067025000E9     5.060963472457345E-1   -2.044446760552019E-2    9.037195542813202E-4    3.805872792648623E-3    9.488520594251690E-4    3.842366017678944E-3    4.174789785545544E-1   -1.721765828669617E-1
 8.117062030950000E9     5.062252528005949E-1   -2.086477121971368E-2    9.361313540468846E-4    3.816542985943317E-3    9.662000865669422E-4    3.864260251415920E-3    4.174291480312845E-1   -1.724124124697928E-1
 8.117065994875000E9     5.060085206642034E-1   -2.120835291580933E-2    9.129851747130478E-4    3.806466254743227E-3    9.581716695235696E-4    3.893790431917219E-3    4.172871611572287E-1   -1.726511627714554E-1
 8.117069958800000E9     5.059456715135663E-1   -2.139236599611188E-2    9.499808383300806E-4    3.822594412358265E-3    9.908578510160564E-4    3.885955662062080E-3    4.170967796059004E-1   -1.730497285642172E-1
 8.117073922725000E9     5.059517051945031E-1   -2.181489093451042E-2    9.486505888316292E-4    3.830153308959330E-3    1.034861558143125E-3    3.904845360786692E-3    4.170812761940011E-1   -1.733329848577158E-1
 8.117077886650000E9     5.059450231250652E-1   -2.202973588762876E-2    9.732370441429681E-4    3.808370610897587E-3    9.834242016507030E-4    3.882084079248508E-3    4.170343249525799E-1   -1.735195214155335E-1
 8.117081850575000E9     5.059245898496539E-1   -2.240626668451013E-2    9.447535105424113E-4    3.852514625377848E-3    9.852727646357986E-4    3.850713924651268E-3    4.169647212808589E-1   -1.737731674419162E-1
 8.117085814500000E9     5.060088295962969E-1   -2.268398850572491E-2    9.575046617812684E-4    3.840235994267153E-3    1.022278827799903E-3    3.868599484456708E-3    4.167374670517759E-1   -1.739753439457763E-1
 8.117089778425000E9     5.058799038455440E-1   -2.300649502275544E-2    9.426907760980513E-4    3.811900355931463E-3    1.019465048738849E-3    3.908033221813779E-3    4.166744225677970E-1   -1.742358886609652E-1
 8.117093742350000E9     5.058521063533802E-1   -2.322882800230170E-2    9.351374871620038E-4    3.829867614758419E-3    1.015252000776102E-3    3.890857158899103E-3    4.165784536510440E-1   -1.745793188541158E-1
 8.117097706275000E9     5.058337080556286E-1   -2.372154489704002E-2    9.429569535575958E-4    3.837636602962941E-3    1.013031997822717E-3    3.912770018827526E-3    4.164456919021305E-1   -1.747205595897690E-1
 8.117101670200000E9     5.057818680414972E-1   -2.399219565184180E-2    9.488881428616417E-4    3.868444612076105E-3    1.029355529559330E-3    3.916005033610962E-3    4.165230983608559E-1   -1.750918580775759E-1
 8.117105634125000E9     5.058125346203718E-1   -2.423952912421490E-2    9.589725554797327E-4    3.835285669533321E-3    9.946631315375465E-4    3.904042365348321E-3    4.162671177797374E-1   -1.753320058274132E-1
 8.117109598050000E9     5.057540858038283E-1   -2.455664920100778E-2    9.711974678875855E-4    3.858019767055665E-3    1.031637005967990E-3    3.906543267572768E-3    4.162789303394336E-1   -1.755447788004666E-1
 8.117113561975000E9     5.058502388051691E-1   -2.488865398723889E-2    9.975593893691175E-4    3.865329153570113E-3    1.059265857847818E-3    3.927212899118081E-3    4.160142989474699E-1   -1.757578625287726E-1
 8.117117525900000E9     5.056531766831258E-1   -2.516390162515302E-2    9.891065736229090E-4    3.849164226267714E-3    1.027505197033996E-3    3.936405650138182E-3    4.159619542431620E-1   -1.761008418301778E-1
 8.117121489825000E9     5.057000892501521E-1   -2.534807037356407E-2    9.661784186326878E-4    3.870377773902756E-3    1.043855656328329E-3    3.950171319637822E-3    4.159294048178925E-1   -1.762473283996879E-1
 8.117125453750000E9     5.055434861688471E-1   -2.578394774437104E-2    9.829484632455938E-4    3.862910037310241E-3    1.059986590211657E-3    3.915234997245312E-3    4.158284539247956E-1   -1.765609693281797E-1
 8.117129417675000E9     5.056673387782993E-1   -2.617453826683465E-2    9.834985163046821E-4    3.869078230555114E-3    1.044869588560820E-3    3.920180593701797E-3    4.158239137911507E-1   -1.769097307407651E-1
 8.117133381600000E9     5.055443063050824E-1   -2.648417067831798E-2    9.912179833522466E-4    3.869697779651909E-3    1.059769457963380E-3    3.922249155487686E-3    4.157196754231987E-1   -1.771848450560240E-1
 8.117137345525000E9     5.055801577840373E-1   -2.669607090767707E-2    9.921505341855964E-4    3.888564253933233E-3    1.089499563450245E-3    3.967219925231672E-3    4.155650228368993E-1   -1.773696873953536E-1
 8.117141309450000E9     5.056736011384002E-1   -2.704174652079250E-2    1.021096616504201E-3    3.873000838369686E-3    1.039252402811494E-3    3.968579432464685E-3    4.154063288657349E-1   -1.776943001527052E-1
 8.117145273375000E9     5.056320125244218E-1   -2.733074155532680E-2    1.015043157154511E-3    3.893376947375140E-3    1.037784925908021E-3    3.958275716667320E-3    4.153629445546202E-1   -1.778397356250130E-1
 8.117149237300000E9     5.054595610777596E-1   -2.780216591260058E-2    1.014654905602636E-3    3.876175476223649E-3    1.092751437204422E-3    3.976903311130892E-3    4.151985482364828E-1   -1.780391069360742E-1
 8.117153201225000E9     5.054923387749476E-1   -2.806047530519774E-2    1.034760128697512E-3    3.913969372365880E-3    1.097749273991400E-3    3.978005662861005E-3    4.149602202292145E-1   -1.783156419368755E-1
 8.117157165150000E9     5.054278564933732E-1   -2.835020759158136E-2    9.870612880282657E-4    3.880140277767274E-3    1.072157773078084E-3    3.996583652872846E-3    4.150717735871955E-1   -1.786176788365107E-1
 8.117161129075000E9     5.054197535541179E-1   -2.872181544273002E-2    1.007556334164442E-3    3.915060287542877E-3    1.101772693468886E-3    3.952165389863353E-3    4.148328082102266E-1   -1.789147816931398E-1
 8.117165093000000E9     5.054218763213315E-1   -2.905122521945196E-2    1.043646692529026E-3    3.936157723690310E-3    1.114315020777703E-3    3.966144167885418E-3    4.147995621245311E-1   -1.791167556324423E-1
 8.117169056925000E9     5.052657172514406E-1   -2.924109607012407E-2    1.031595432633888E-3    3.947710334870827E-3    1.105162837386748E-3    3.990581128958112E-3    4.146409595000290E-1   -1.794113407189966E-1
 8.117173020850000E9     5.052617485625690E-1   -2.965822588006920E-2    1.035771106709740E-3    3.917171574195422E-3    1.083089495346607E-3    3.972347671360182E-3    4.146116392916233E-1   -1.797778582783205E-1
 8.117176984775000E9     5.052460531396396E-1   -2.994896937136800E-2    1.045936829568863E-3    3.903655729375983E-3    1.131042798678864E-3    4.003472771643473E-3    4.143403942481766E-1   -1.799268008004140E-1
 8.117180948700000E9     5.052257595364821E-1   -3.024261474347955E-2    1.055974103903360E-3    3.970589993839074E-3    1.110927851708832E-3    4.019101298267207E-3    4.144377789201062E-1   -1.802048885519331E-1
 8.117184912625000E9     5.053089015222078E-1   -3.062097768148646E-2    1.077423229782332E-3    3.940662439279735E-3    1.108020940633559E-3    4.022467598436255E-3    4.142765803636110E-1   -1.805568851020343E-1
 8.117188876550000E9     5.052750786942978E-1   -3.104764556756369E-2    1.061865976992456E-3    3.958676263173968E-3    1.160761339948116E-3    4.009701536501263E-3    4.141061696926086E-1   -1.806931221879296E-1
 8.117192840475000E9     5.050889613830045E-1   -3.116972167552213E-2    1.052132673955658E-3    3.938720842863338E-3    1.120941086456930E-3    4.049301525331998E-3    4.140880673994590E-1   -1.809990917556834E-1
 8.117196804400000E9     5.050800355054978E-1   -3.165063025757162E-2    1.125712214938657E-3    3.943717296753291E-3    1.136827206075503E-3    3.995672269990233E-3    4.140768813174346E-1   -1.811787986443861E-1
 8.117200768325000E9     5.050468890694247E-1   -3.191051330567914E-2    1.070996781001828E-3    3.976783033787259E-3    1.165719297824695E-3    4.028717535515030E-3    4.138339886749939E-1   -1.814564064047748E-1
 8.117204732250000E9     5.051015851484560E-1   -3.217480894051106E-2    1.098967980546895E-3    3.980428358843749E-3    1.144204078336215E-3    4.049381651852750E-3    4.137650697794764E-1   -1.817541788032980E-1
