#  HZ   S   RI   R     50.00 
! Rohde & Schwarz Vector Network Analyzer 
! Rohde-Schwarz,ZNB20-2Port,1311601062101988,3.16
! Created: UTC 3/20/2024, 12:00:05 PM
! freq[Hz]                re:S11                  im:S11                  re:S21                  im:S21                  re:S12                  im:S12                  re:S22                  im:S22
 8.116945941000000E9     5.065324598266151E-1   -1.142872021511582E-2    7.928851988941426E-4    3.722732416114701E-3    8.787435587909304E-4    3.765037977357141E-3    4.199530143123988E-1   -1.648917762935424E-1
 8.116949538325000E9     5.064936186545211E-1   -1.179603127506929E-2    8.044729611812702E-4    3.678602124201355E-3    8.576830143674958E-4    3.794851223322660E-3    4.199149643003569E-1   -1.651390248144413E-1
 8.116953135650000E9     5.064892071334343E-1   -1.205394823199572E-2    7.980406937542543E-4    3.724481769673851E-3    8.488654749793725E-4    3.800649073573607E-3    4.198730662375224E-1   -1.652830052940384E-1
 8.116956732975000E9     5.064776986724091E-1   -1.248647631703347E-2    7.979230443880803E-4    3.732620149558397E-3    8.418556702761502E-4    3.781169512209411E-3    4.195583940856022E-1   -1.655164363388032E-1
 8.116960330300000E9     5.063565092146659E-1   -1.262592641675444E-2    8.110126807322860E-4    3.726537924294093E-3    8.919484301738015E-4    3.789421678205785E-3    4.197925835857472E-1   -1.657270584992380E-1
 8.116963927625000E9     5.064536391600477E-1   -1.300157175226622E-2    8.471475582327888E-4    3.723465972439201E-3    8.840024952515926E-4    3.795860280501343E-3    4.196818459123860E-1   -1.659815822015826E-1
 8.116967524950000E9     5.064243202645877E-1   -1.331015232382350E-2    8.337744057839476E-4    3.715248234294937E-3    8.962905534167098E-4    3.767225439217784E-3    4.194444449160907E-1   -1.662083165761853E-1
 8.116971122275000E9     5.064511878140462E-1   -1.355255582494824E-2    8.457788193287465E-4    3.727914330064736E-3    8.689340631773065E-4    3.790879048251165E-3    4.195061923515853E-1   -1.665731479412074E-1
 8.116974719600000E9     5.063378897428162E-1   -1.378882283595931E-2    8.165051714597083E-4    3.717104501685127E-3    9.022293939348381E-4    3.797037226838017E-3    4.193586228016121E-1   -1.667188851268044E-1
 8.116978316925000E9     5.064834727275997E-1   -1.409480081546230E-2    8.413935345220133E-4    3.718069277589340E-3    8.641051964599023E-4    3.800070419402801E-3    4.193136104677072E-1   -1.670190903759039E-1
 8.116981914250000E9     5.063986810355826E-1   -1.438674445033203E-2    8.209662636180878E-4    3.711683699762185E-3    8.665760840405400E-4    3.808139958935676E-3    4.192647000984318E-1   -1.672208952302553E-1
 8.116985511575000E9     5.063236389239297E-1   -1.449025133598364E-2    8.262589815679112E-4    3.727089560510057E-3    8.841670764298365E-4    3.754270352908465E-3    4.191040471282354E-1   -1.674628738862978E-1
 8.116989108900000E9     5.063658159862336E-1   -1.494359283352144E-2    8.517902527276824E-4    3.733136270030665E-3    8.943117280803839E-4    3.774406754148481E-3    4.190649306777071E-1   -1.678260223712170E-1
 8.116992706225000E9     5.063587858320093E-1   -1.538360070266834E-2    8.667740170663187E-4    3.729418397473021E-3    8.996001050261282E-4    3.779844228349039E-3    4.189021227489239E-1   -1.678823242916276E-1
 8.116996303550000E9     5.062542163050830E-1   -1.553846297880903E-2    8.516206259553255E-4    3.742696207125844E-3    9.474649818259585E-4    3.824480503004942E-3    4.187430650758690E-1   -1.681651468848982E-1
 8.116999900875000E9     5.063237199626345E-1   -1.576711842344865E-2    8.567420719089929E-4    3.755941644775890E-3    9.220466773583030E-4    3.795527491330619E-3    4.186403116733742E-1   -1.684755410862262E-1
 8.117003498200000E9     5.062251313809517E-1   -1.601396823521412E-2    8.470656029341992E-4    3.745118035997020E-3    9.296279749085872E-4    3.777062106704548E-3    4.187425972151227E-1   -1.685772058567234E-1
 8.117007095525000E9     5.061384437263359E-1   -1.638687854304268E-2    8.809101511615024E-4    3.741320422153327E-3    8.665453744341296E-4    3.808162227404058E-3    4.186146149949403E-1   -1.689810433449914E-1
 8.117010692850000E9     5.062457974007074E-1   -1.668567593993237E-2    8.681252661361011E-4    3.745797119283830E-3    9.092560962873459E-4    3.809286024874635E-3    4.185098394186878E-1   -1.691957957885326E-1
 8.117014290175000E9     5.061874809318646E-1   -1.701965489005726E-2    8.993905377258036E-4    3.760278266360822E-3    9.111861167419077E-4    3.819608713147737E-3    4.183803877432334E-1   -1.694450792399518E-1
 8.117017887500000E9     5.061542410245138E-1   -1.726590818972292E-2    8.794908731036434E-4    3.745425888919878E-3    9.564908038350751E-4    3.813782588832677E-3    4.182420861386614E-1   -1.697282126089697E-1
 8.117021484825000E9     5.062011624159976E-1   -1.741923104615850E-2    8.600884929113787E-4    3.791206633917606E-3    9.042055022260066E-4    3.791971004824772E-3    4.181755812754911E-1   -1.699013488413079E-1
 8.117025082150000E9     5.061362183570002E-1   -1.781410033450094E-2    8.622619566233802E-4    3.762897733953424E-3    9.343749982033398E-4    3.818666802549527E-3    4.181768689701977E-1   -1.700845471815457E-1
 8.117028679475000E9     5.061416520365377E-1   -1.809267633935512E-2    8.887120494877204E-4    3.752488032817961E-3    9.201920433141288E-4    3.818128087898311E-3    4.181196754407647E-1   -1.703490982392818E-1
 8.117032276800000E9     5.062356921134610E-1   -1.838536303631487E-2    8.901682020032310E-4    3.755179482568156E-3    9.417659227535735E-4    3.813083064114556E-3    4.180172689150176E-1   -1.704560513497340E-1
 8.117035874125000E9     5.061000341022494E-1   -1.870181584932725E-2    8.837448632107202E-4    3.762696708636266E-3    9.582438344209898E-4    3.815026335484008E-3    4.180256050965170E-1   -1.708683657715149E-1
 8.117039471450000E9     5.060455247710219E-1   -1.889618582949201E-2    8.816332106456986E-4    3.768590937235187E-3    9.554906481643386E-4    3.810387768470576E-3    4.177638822694207E-1   -1.710158972237794E-1
 8.117043068775000E9     5.060855938206110E-1   -1.927140006414330E-2    8.918966550996637E-4    3.765200397907478E-3    9.464908606213591E-4    3.868589897011011E-3    4.177334074735565E-1   -1.712108657277746E-1
 8.117046666100000E9     5.060480473873737E-1   -1.954731823084588E-2    8.697668791704832E-4    3.762432402122041E-3    9.851462390449205E-4    3.823132901027867E-3    4.176474394136176E-1   -1.716376255229524E-1
 8.117050263425000E9     5.061092599636269E-1   -1.974967593536946E-2    9.136368885853715E-4    3.775046428847088E-3    9.412639098631045E-4    3.856850430906851E-3    4.176009226899278E-1   -1.717540785925018E-1
 8.117053860750000E9     5.059704787550311E-1   -2.000883356446480E-2    9.008487573620138E-4    3.770061591375443E-3    9.562735464051956E-4    3.843466109027798E-3    4.175221644104886E-1   -1.720133804216435E-1
 8.117057458075000E9     5.060848540185938E-1   -2.040114991257785E-2    8.676812410449537E-4    3.780459407975422E-3    9.619450685105342E-4    3.831729174809776E-3    4.173852137839684E-1   -1.722385268554521E-1
 8.117061055400000E9     5.060495320234782E-1   -2.071086917747001E-2    9.101071232890895E-4    3.798186259091047E-3    9.846395978703030E-4    3.836600710392733E-3    4.173475972731887E-1   -1.723732569169916E-1
 8.117064652725000E9     5.059106804951502E-1   -2.090083050018294E-2    9.212306991698010E-4    3.808082883346584E-3    9.557989832813886E-4    3.853297215175238E-3    4.172089655309265E-1   -1.727519484521754E-1
 8.117068250050000E9     5.059072810412758E-1   -2.115303006052154E-2    8.912564025218065E-4    3.814278408061515E-3    9.373725188051187E-4    3.833142235270652E-3    4.170240358177517E-1   -1.729619534366704E-1
 8.117071847375000E9     5.059676733494016E-1   -2.151700973196790E-2    9.302058291744826E-4    3.798658819078622E-3    9.254090673543253E-4    3.834332434334742E-3    4.169437569161704E-1   -1.732002607389874E-1
 8.117075444700000E9     5.059594065878007E-1   -2.171002985964205E-2    9.176738278218267E-4    3.774110552053238E-3    9.662340001623258E-4    3.836357099734676E-3    4.170906916658149E-1   -1.734366178213443E-1
 8.117079042025000E9     5.059683961206942E-1   -2.205738178179020E-2    9.107294006393624E-4    3.800120840929909E-3    9.434728704478090E-4    3.863321914538623E-3    4.168030449067949E-1   -1.735613181917549E-1
 8.117082639350000E9     5.058802583427456E-1   -2.241088826521350E-2    9.174995903233698E-4    3.826285268183579E-3    9.976859961629530E-4    3.840526920789689E-3    4.167521185506893E-1   -1.738078814392065E-1
 8.117086236675000E9     5.058154142476106E-1   -2.262080907087421E-2    9.450028215230066E-4    3.846698539021224E-3    9.967579628995837E-4    3.889366637713125E-3    4.167625633780190E-1   -1.739527317995144E-1
 8.117089834000000E9     5.057467468206813E-1   -2.284701615012842E-2    9.429330291880713E-4    3.793417762524200E-3    9.728458021598839E-4    3.871944498981678E-3    4.166248012020346E-1   -1.741679518043834E-1
 8.117093431325000E9     5.058310036033099E-1   -2.321496873442568E-2    9.283142522993576E-4    3.820144331191647E-3    9.904642498766894E-4    3.862277331550270E-3    4.164687258228574E-1   -1.745083198393313E-1
 8.117097028650000E9     5.058450774914979E-1   -2.349996320789447E-2    9.444393157861708E-4    3.823550587902663E-3    9.961770948594664E-4    3.893724556581581E-3    4.162707132315541E-1   -1.747767431807846E-1
 8.117100625975000E9     5.057311044119407E-1   -2.373765881937859E-2    9.525169830412533E-4    3.840120815608080E-3    9.772290804259756E-4    3.925693790525833E-3    4.163332644519705E-1   -1.751017664669670E-1
 8.117104223300000E9     5.057400036659793E-1   -2.409152403085120E-2    9.540009712651689E-4    3.827361961482844E-3    1.007189326096674E-3    3.893502842094103E-3    4.162851306564779E-1   -1.753313610842390E-1
 8.117107820625000E9     5.057182902061775E-1   -2.426100101388358E-2    9.623300971815390E-4    3.852636220245059E-3    1.026746833491167E-3    3.871885780562570E-3    4.162402318955751E-1   -1.755897584339864E-1
 8.117111417950000E9     5.056964026164086E-1   -2.455347806241654E-2    9.527055483515989E-4    3.845350499749075E-3    1.027276389204744E-3    3.930111407324418E-3    4.160473037012524E-1   -1.757308087902389E-1
 8.117115015275000E9     5.056217679483317E-1   -2.486157574829205E-2    9.690622513084548E-4    3.816318245397500E-3    9.902224220863056E-4    3.899007241788448E-3    4.160744273142413E-1   -1.759751797945549E-1
 8.117118612600000E9     5.056213143226017E-1   -2.521588954704845E-2    9.938416976371875E-4    3.829591025407191E-3    1.040887647433296E-3    3.870637110967152E-3    4.159165819244856E-1   -1.760589938988167E-1
 8.117122209925000E9     5.056115886148497E-1   -2.547621596998052E-2    9.592240551646115E-4    3.863730268669233E-3    1.024075886974455E-3    3.888039917388332E-3    4.158763020821711E-1   -1.765276630702037E-1
 8.117125807250000E9     5.056870962104564E-1   -2.582865422961389E-2    9.538861824911550E-4    3.831652769084069E-3    1.014179068750645E-3    3.922975762220708E-3    4.158586233962187E-1   -1.766606108266088E-1
 8.117129404575000E9     5.055380408761549E-1   -2.602505245736236E-2    9.643416539236319E-4    3.844159121705248E-3    1.035232933279468E-3    3.942970120109926E-3    4.155126318981460E-1   -1.770098537923875E-1
 8.117133001900000E9     5.055482068201936E-1   -2.635305845060656E-2    9.661005017629310E-4    3.862339091034324E-3    9.919595756650687E-4    3.915421814476478E-3    4.156540333872328E-1   -1.771835230597468E-1
 8.117136599225000E9     5.055521389932467E-1   -2.655617235464473E-2    1.026078151223925E-3    3.886537887545575E-3    1.045697286866543E-3    3.935541049110099E-3    4.154539436730183E-1   -1.773791984592083E-1
 8.117140196550000E9     5.054402952763614E-1   -2.692869057839791E-2    1.007459956199301E-3    3.844191509729904E-3    1.031499505242501E-3    3.923014343463102E-3    4.153127845009134E-1   -1.777329430939439E-1
 8.117143793875000E9     5.055681738016228E-1   -2.727766653052620E-2    1.002650504232170E-3    3.857315217275595E-3    1.060404294070867E-3    3.940465510566120E-3    4.151364894755958E-1   -1.777659068889604E-1
 8.117147391200000E9     5.054688714971828E-1   -2.756495214212602E-2    1.003972385846167E-3    3.870061408293662E-3    1.060381012016068E-3    3.959448146850280E-3    4.152046650188709E-1   -1.780266123459248E-1
 8.117150988525000E9     5.054488449052524E-1   -2.788434958434076E-2    1.027057692184332E-3    3.889255798274193E-3    1.080165965924601E-3    3.930257010732877E-3    4.150438027654257E-1   -1.782373796040896E-1
 8.117154585850000E9     5.053926905738282E-1   -2.811026468446745E-2    9.974351271238738E-4    3.891456278616713E-3    1.057148151432869E-3    3.924117429138456E-3    4.151170297631894E-1   -1.785726329896119E-1
 8.117158183175000E9     5.053690683238768E-1   -2.838581711112131E-2    1.024381429358221E-3    3.879657642039029E-3    1.052860851177035E-3    3.962130424118016E-3    4.149649640380687E-1   -1.786097589820314E-1
 8.117161780500000E9     5.053082964219339E-1   -2.858915457647271E-2    1.016493829294669E-3    3.905640053014374E-3    1.049888086618268E-3    3.946694358843034E-3    4.148692849468941E-1   -1.791255718345558E-1
 8.117165377825000E9     5.053948807681754E-1   -2.900982034701990E-2    1.029861696425471E-3    3.918964412776180E-3    1.086536172757547E-3    3.938456228804729E-3    4.147250953726110E-1   -1.792139242857041E-1
 8.117168975150000E9     5.052286893309008E-1   -2.928437376789648E-2    1.011700771747322E-3    3.890894087540259E-3    1.101057375356298E-3    3.987231403961790E-3    4.147155739084007E-1   -1.795094787542363E-1
 8.117172572475000E9     5.053420415246905E-1   -2.951875626586634E-2    1.042374032741365E-3    3.909574915313001E-3    1.095456980023031E-3    3.979786163000988E-3    4.144440714591413E-1   -1.796803019073573E-1
 8.117176169800000E9     5.052242733117351E-1   -2.988421884349125E-2    1.041375889238637E-3    3.914134598185143E-3    1.098636908331169E-3    3.995830121088699E-3    4.145502625299584E-1   -1.799213542436749E-1
 8.117179767125000E9     5.050659214842375E-1   -3.017387846322002E-2    1.038896965797437E-3    3.894703454510036E-3    1.100026447745618E-3    3.975150208968998E-3    4.145199776833197E-1   -1.802389941516692E-1
 8.117183364450000E9     5.052495600781965E-1   -3.045118480966679E-2    1.035777999411471E-3    3.906514352755830E-3    1.097852223985704E-3    4.030978772958125E-3    4.141685309716496E-1   -1.804516618982227E-1
 8.117186961775000E9     5.052178127696152E-1   -3.081050936369376E-2    1.054889438658987E-3    3.928551702896146E-3    1.120737888286663E-3    3.984844660478435E-3    4.142517486757922E-1   -1.805925935529875E-1
 8.117190559100000E9     5.051557357068833E-1   -3.096661473295847E-2    1.061630403479904E-3    3.924914772004596E-3    1.157636738838491E-3    4.024673571130167E-3    4.141619783093774E-1   -1.809831815665893E-1
 8.117194156425000E9     5.050080285916280E-1   -3.135344109020781E-2    1.070147590750192E-3    3.911703140982502E-3    1.121648421598427E-3    4.023878049132538E-3    4.140356022528720E-1   -1.811698158052521E-1
 8.117197753750000E9     5.051472784087476E-1   -3.154499254303299E-2    1.067249655621320E-3    3.933731229655947E-3    1.142117726816242E-3    4.000614637351478E-3    4.139386963667587E-1   -1.815372554006092E-1
 8.117201351075000E9     5.050356307116723E-1   -3.188503571753007E-2    1.046610568469547E-3    3.966997694637322E-3    1.125383010065638E-3    4.021473055340730E-3    4.138072864305084E-1   -1.816327609814243E-1
 8.117204948400000E9     5.049770041205407E-1   -3.216803969792541E-2    1.065663115918635E-3    3.935489485752571E-3    1.150720390743886E-3    4.012938421435002E-3    4.136709426977851E-1   -1.819612172292803E-1
 8.117208545725000E9     5.049722713424580E-1   -3.243840568829468E-2    1.081278609970574E-3    3.956136176244494E-3    1.165393001130509E-3    4.015300469799901E-3    4.135830448217923E-1   -1.821395509886381E-1
 8.117212143050000E9     5.049610872232030E-1   -3.261522490458852E-2    1.086608044867115E-3    3.947580184003348E-3    1.114290654625831E-3    4.002773133480862E-3    4.136850888063953E-1   -1.823169227431397E-1
 8.117215740375000E9     5.049591050775998E-1   -3.306205749884745E-2    1.095317629541836E-3    3.965119624250822E-3    1.132922329866559E-3    4.022545533025579E-3    4.135384506450445E-1   -1.825595719639813E-1
 8.117219337700000E9     5.048942097957664E-1   -3.336409889593644E-2    1.089239837801607E-3    3.995325025150418E-3    1.120094647544840E-3    4.031546182704503E-3    4.131798270250809E-1   -1.827269389233462E-1
 8.117222935025000E9     5.048205332360047E-1   -3.364465315008854E-2    1.087361833494389E-3    3.977725197660825E-3    1.181154019375147E-3    4.042481245714266E-3    4.132713489620226E-1   -1.828733297259651E-1
 8.117226532350000E9     5.050017695010003E-1   -3.389549325673822E-2    1.109329837436631E-3    3.989910446916236E-3    1.166143207090202E-3    4.024474806070198E-3    4.132393533785721E-1   -1.831790623263402E-1
 8.117230129675000E9     5.047968150528425E-1   -3.421739346852905E-2    1.119699423828326E-3    4.002760228427951E-3    1.163859978992927E-3    4.041046662375695E-3    4.129839505973965E-1   -1.834126079910708E-1
 8.117233727000000E9     5.049029738829943E-1   -3.445813708778436E-2    1.108578932101830E-3    4.002389949382150E-3    1.166573411672932E-3    4.035192948575238E-3    4.129764384146128E-1   -1.836500433267095E-1
 8.117237324325000E9     5.047232892486964E-1   -3.488973016106194E-2    1.112353928267290E-3    3.983452410837533E-3    1.176366980710423E-3    4.027867761352970E-3    4.129252394978413E-1   -1.839896947835098E-1
 8.117240921650000E9     5.046935824993565E-1   -3.519705305563783E-2    1.133776320374622E-3    4.030448602304002E-3    1.227441320407953E-3    4.067832286676887E-3    4.129447673032404E-1   -1.842279165420357E-1
 8.117244518975000E9     5.046759074169377E-1   -3.535533546673832E-2    1.115977854768276E-3    4.004186314880253E-3    1.201462834156648E-3    4.086436091162601E-3    4.125934615886549E-1   -1.845036860155158E-1
 8.117248116300000E9     5.047217982827724E-1   -3.571210255897735E-2    1.116477384688189E-3    4.018765886137185E-3    1.175510097435288E-3    4.088766340824689E-3    4.125905762572714E-1   -1.846971891246808E-1
 8.117251713625000E9     5.045895055481987E-1   -3.604975618101247E-2    1.152787346183019E-3    4.000769987195793E-3    1.239918358045278E-3    4.087216439986238E-3    4.124348101408822E-1   -1.849429671953319E-1
 8.117255310950000E9     5.045383219375521E-1   -3.638244048230686E-2    1.148653117741783E-3    4.039229376391377E-3    1.260742795722408E-3    4.050136309333209E-3    4.123417431403577E-1   -1.852466164559969E-1
 8.117258908275000E9     5.045255550894867E-1   -3.662586623262836E-2    1.180251381678107E-3    4.007756441966073E-3    1.183509789003588E-3    4.082766109865784E-3    4.123574272788618E-1   -1.852891761941858E-1
 8.117262505600000E9     5.045393465962462E-1   -3.689272803877196E-2    1.186319645716722E-3    4.034743587601300E-3    1.211503278870063E-3    4.089990664039229E-3    4.120897054772464E-1   -1.855532038593632E-1
 8.117266102925000E9     5.045630592584992E-1   -3.724255339814100E-2    1.162072050654301E-3    4.050067237448379E-3    1.257365879061492E-3    4.106414868130136E-3    4.121121859899945E-1   -1.858819015880041E-1
 8.117269700250000E9     5.045002417368595E-1   -3.746034023097229E-2    1.162011564769096E-3    4.044558901866513E-3    1.234521072985860E-3    4.107091222072968E-3    4.121101475991465E-1   -1.861348165378509E-1
