#  HZ   S   RI   R     50.00 
! Rohde & Schwarz Vector Network Analyzer 
! Rohde-Schwarz,ZNB20-2Port,1311601062101988,3.16
! Created: UTC 3/20/2024, 12:00:07 PM
! freq[Hz]                re:S11                  im:S11                  re:S21                  im:S21                  re:S12                  im:S12                  re:S22                  im:S22
 8.116974389000000E9     5.063825997483031E-1   -1.376673092151751E-2    8.290346895742040E-4    3.723123509032930E-3    8.420064988710641E-4    3.786439695686206E-3    4.194487748373651E-1   -1.667455903163511E-1
 8.116977856200000E9     5.063451065352930E-1   -1.402587941541467E-2    8.205505473630616E-4    3.742622519953922E-3    8.607276949385157E-4    3.754533252094848E-3    4.192339527332306E-1   -1.669628650031496E-1
 8.116981323400000E9     5.062767800242461E-1   -1.429812387837984E-2    8.518055350729720E-4    3.730803519094557E-3    9.024655981840482E-4    3.736305261134741E-3    4.192002259543190E-1   -1.672289824423374E-1
 8.116984790600000E9     5.062626507897566E-1   -1.461917611165636E-2    8.231011496110770E-4    3.720472194295248E-3    8.946354410097649E-4    3.798292305543895E-3    4.191219755235172E-1   -1.675496593293022E-1
 8.116988257800000E9     5.062150408604229E-1   -1.481000176566995E-2    8.380152256216959E-4    3.732012516880758E-3    8.930255954507696E-4    3.772557811917455E-3    4.190377215084847E-1   -1.677052982472892E-1
 8.116991725000000E9     5.063461531455468E-1   -1.511193205681111E-2    8.416139893044208E-4    3.718656992414805E-3    8.692739466167966E-4    3.816503215879664E-3    4.188545241238095E-1   -1.680086032366655E-1
 8.116995192200000E9     5.062942411726606E-1   -1.550572631255570E-2    8.422061037060620E-4    3.731570835590589E-3    8.844017972855989E-4    3.770762995218896E-3    4.189677153798764E-1   -1.680406113824524E-1
 8.116998659400000E9     5.063144755454927E-1   -1.565567345630309E-2    8.723877461935136E-4    3.713285129924368E-3    9.283251401775203E-4    3.810688293187555E-3    4.187100943490948E-1   -1.683939747017829E-1
 8.117002126600000E9     5.062664859468119E-1   -1.591118938134018E-2    8.423657261722115E-4    3.718038014972596E-3    9.005201523696911E-4    3.828031524097907E-3    4.187517042139188E-1   -1.686967447874231E-1
 8.117005593800000E9     5.062607697689241E-1   -1.626718282143096E-2    8.611433930888074E-4    3.766965057552068E-3    9.156912555553996E-4    3.819359900942435E-3    4.186054129602942E-1   -1.687784739850933E-1
 8.117009061000000E9     5.061681728592392E-1   -1.661069289096975E-2    8.460195844147384E-4    3.752475120062651E-3    9.454106087367680E-4    3.812216617392057E-3    4.186311151251020E-1   -1.690964302126639E-1
 8.117012528200000E9     5.061714464730716E-1   -1.678466307900504E-2    8.916330332936015E-4    3.770556738593197E-3    9.277212178969126E-4    3.827793976786651E-3    4.185951521082921E-1   -1.693744374417014E-1
 8.117015995400000E9     5.061968239148267E-1   -1.698177249879510E-2    8.654703652974421E-4    3.757893514083694E-3    9.150086515107796E-4    3.823748785215936E-3    4.183107847327605E-1   -1.694438780731769E-1
 8.117019462600000E9     5.062669001787834E-1   -1.732995055116865E-2    8.931718864399888E-4    3.774556116202215E-3    9.672303264953693E-4    3.799651282586110E-3    4.183014196915231E-1   -1.697308648224726E-1
 8.117022929800000E9     5.061603496171194E-1   -1.743741190008633E-2    8.532265748983587E-4    3.743366077326278E-3    9.214233157132737E-4    3.814857126945092E-3    4.183277760169163E-1   -1.699374223793130E-1
 8.117026397000000E9     5.060298828117820E-1   -1.787770856875475E-2    8.435402628032033E-4    3.765205039844677E-3    8.829966361877735E-4    3.817751291880576E-3    4.181357918799058E-1   -1.701534552637261E-1
 8.117029864200000E9     5.061552735648619E-1   -1.817643020181618E-2    8.859678015087828E-4    3.757290254436555E-3    9.633643862919757E-4    3.825975059515207E-3    4.180576399644061E-1   -1.704306980946396E-1
 8.117033331400000E9     5.061365175703024E-1   -1.838605715234024E-2    9.028814844867872E-4    3.772627870395675E-3    9.227756409911756E-4    3.794633932830934E-3    4.179558568642686E-1   -1.706490368965078E-1
 8.117036798600000E9     5.061653589158879E-1   -1.868126973158205E-2    8.709876528766916E-4    3.780110257264011E-3    9.355208186410022E-4    3.814981551785139E-3    4.179505097681553E-1   -1.707929259791388E-1
 8.117040265800000E9     5.061509414245531E-1   -1.896433896998054E-2    8.846499390144014E-4    3.798547848667446E-3    9.344511388543114E-4    3.804491508405391E-3    4.177430299170493E-1   -1.711875453706818E-1
 8.117043733000000E9     5.060164229809592E-1   -1.930089833302039E-2    8.841461109458452E-4    3.771686550461092E-3    9.587480030946884E-4    3.850437251840785E-3    4.177534291257778E-1   -1.714293696871674E-1
 8.117047200200000E9     5.060654553899243E-1   -1.961692707490980E-2    9.041039740897910E-4    3.798445078731124E-3    9.771685595952732E-4    3.827600374068956E-3    4.176756028269117E-1   -1.716185140302655E-1
 8.117050667400000E9     5.059792834347546E-1   -1.977726417519646E-2    9.050056977853000E-4    3.780715209865775E-3    9.403560217469979E-4    3.844287811877891E-3    4.174234181168550E-1   -1.718860600552260E-1
 8.117054134600000E9     5.060254828272616E-1   -2.006400849149147E-2    9.131782257404124E-4    3.777692727376625E-3    9.658583038632226E-4    3.849516310394725E-3    4.173809725737583E-1   -1.720973229291189E-1
 8.117057601800000E9     5.060397364522619E-1   -2.038138249170107E-2    9.109280527598852E-4    3.768344715748772E-3    9.746672322292476E-4    3.845477174283693E-3    4.172852041639419E-1   -1.723266596334566E-1
 8.117061069000000E9     5.058991560040635E-1   -2.059844226482574E-2    9.189132813262900E-4    3.798724952692806E-3    9.729697108671454E-4    3.849836238150447E-3    4.174392795403357E-1   -1.724534723204764E-1
 8.117064536200000E9     5.059894328716604E-1   -2.085818893684194E-2    8.922964849047125E-4    3.808238769400278E-3    9.955321851978843E-4    3.864935593599636E-3    4.172642161005748E-1   -1.727306677819541E-1
 8.117068003400000E9     5.060770715659558E-1   -2.117784136053034E-2    9.215048191396156E-4    3.784632403468140E-3    9.973191151434965E-4    3.850092815135909E-3    4.172788615511122E-1   -1.728505217859403E-1
 8.117071470600000E9     5.059134803549367E-1   -2.146045840564102E-2    9.221521684371437E-4    3.788843244890140E-3    9.521727948842408E-4    3.894947571436883E-3    4.170463080697229E-1   -1.731456811180804E-1
 8.117074937800000E9     5.058443312100995E-1   -2.160374628906786E-2    9.191557188750747E-4    3.817610417774478E-3    9.416330088608090E-4    3.860834862946307E-3    4.168765947218195E-1   -1.734240619041924E-1
 8.117078405000000E9     5.058791693063925E-1   -2.198638271828083E-2    9.278376486407908E-4    3.812014902394898E-3    1.006469749447452E-3    3.845049386099831E-3    4.169965232492830E-1   -1.735093929735396E-1
 8.117081872200000E9     5.058584779211838E-1   -2.230485363726348E-2    9.422400281321572E-4    3.790002508293637E-3    9.926820650097553E-4    3.862688872524144E-3    4.168434372550658E-1   -1.737387269655843E-1
 8.117085339400000E9     5.058001147543371E-1   -2.255112509545725E-2    9.237857513023528E-4    3.829241139019036E-3    9.911184372823143E-4    3.871477345257996E-3    4.166385295512942E-1   -1.740812326649303E-1
 8.117088806600000E9     5.058202759899282E-1   -2.276143520004600E-2    9.450793169363437E-4    3.822128660290445E-3    9.776668304272557E-4    3.875279511748274E-3    4.167339826561582E-1   -1.743618122697247E-1
 8.117092273800000E9     5.057431971285853E-1   -2.289938088107563E-2    9.250677834782859E-4    3.807552094450310E-3    1.014580429433884E-3    3.892272068638517E-3    4.165468895887814E-1   -1.745061005389379E-1
 8.117095741000000E9     5.057622727166095E-1   -2.344978119856727E-2    9.273790697978536E-4    3.818986210198712E-3    1.029431992909577E-3    3.894562922010336E-3    4.164252032342692E-1   -1.747170976440141E-1
 8.117099208200000E9     5.057908714703933E-1   -2.365821214414074E-2    9.474050154686951E-4    3.829657210423984E-3    1.041534432896762E-3    3.866735569234572E-3    4.163077025611665E-1   -1.750040647485599E-1
 8.117102675400000E9     5.057954515901176E-1   -2.390327709738213E-2    9.457949525852111E-4    3.818545676982256E-3    1.010868827085670E-3    3.895382060300013E-3    4.163790791153421E-1   -1.751168939928174E-1
 8.117106142600000E9     5.057546374169468E-1   -2.418177508983283E-2    9.408519497212622E-4    3.820366776741407E-3    1.011191298568069E-3    3.874841142153274E-3    4.161915922758802E-1   -1.754001581633288E-1
 8.117109609800000E9     5.056839819105018E-1   -2.454540585667439E-2    9.447713955364475E-4    3.837852369395120E-3    9.981210716283361E-4    3.894098067113868E-3    4.161580993562393E-1   -1.757029064489943E-1
 8.117113077000000E9     5.056223117986099E-1   -2.473782322188573E-2    9.688377735432211E-4    3.832840639856979E-3    1.046926380354721E-3    3.871060188257980E-3    4.160982114599738E-1   -1.758035279335613E-1
 8.117116544200000E9     5.056319700612889E-1   -2.505389587132907E-2    9.822625708979756E-4    3.822655734965792E-3    1.047616507228677E-3    3.965304250440026E-3    4.158475753787246E-1   -1.760446034987674E-1
 8.117120011400000E9     5.055889963541864E-1   -2.529630801349871E-2    9.791807178439894E-4    3.826468778347155E-3    1.008736159138178E-3    3.902109022980393E-3    4.159670402717164E-1   -1.762231215923517E-1
 8.117123478600000E9     5.055401389019639E-1   -2.558246564422501E-2    9.776657482986331E-4    3.833711138299751E-3    1.041069342113230E-3    3.891501086446714E-3    4.157805932985287E-1   -1.765998087886557E-1
 8.117126945800000E9     5.056219801537194E-1   -2.587102002758227E-2    9.667668759237673E-4    3.868348213225107E-3    9.953973990045716E-4    3.886304058611926E-3    4.156998628251627E-1   -1.767923150796358E-1
 8.117130413000000E9     5.055757556104193E-1   -2.618359580469223E-2    9.667729132272331E-4    3.859810571806217E-3    1.039195524101485E-3    3.916377813959590E-3    4.156156945838255E-1   -1.769387327045858E-1
 8.117133880200000E9     5.055948849985935E-1   -2.629529754697144E-2    9.764085665823532E-4    3.844641989337735E-3    1.036346057744203E-3    3.965939068946072E-3    4.154735808613724E-1   -1.772398064001984E-1
 8.117137347400000E9     5.054793787286560E-1   -2.672434491715713E-2    1.008507152500153E-3    3.871698969357430E-3    1.056924331521141E-3    3.880376226760586E-3    4.154654537650830E-1   -1.775046952082601E-1
 8.117140814600000E9     5.055361936064997E-1   -2.695427774812746E-2    1.012663086659326E-3    3.852645938155291E-3    1.042274440914135E-3    3.922878511631154E-3    4.152609117114189E-1   -1.778824119401890E-1
 8.117144281800000E9     5.055471892375694E-1   -2.715199820746602E-2    1.008451941520267E-3    3.855376180376759E-3    1.046940886389827E-3    3.922083756542845E-3    4.152560919513432E-1   -1.779543246062307E-1
 8.117147749000000E9     5.054972003846294E-1   -2.745293936799074E-2    9.884844180201699E-4    3.857671354589965E-3    1.072958621510430E-3    3.951765146932906E-3    4.152151646371958E-1   -1.781304346192131E-1
 8.117151216200000E9     5.053852006376559E-1   -2.781454294834297E-2    9.869720680424003E-4    3.885014888396931E-3    1.044603520468773E-3    3.959024945124508E-3    4.151653623842717E-1   -1.784095114330153E-1
 8.117154683400000E9     5.054851667745461E-1   -2.796739696452162E-2    1.015068588822060E-3    3.871342466214719E-3    1.106856893965307E-3    3.948577976652568E-3    4.151001139065075E-1   -1.786476269992407E-1
 8.117158150600000E9     5.053639479534169E-1   -2.839628641371652E-2    1.016106307440506E-3    3.895533942987277E-3    1.074874847986333E-3    3.953130108358262E-3    4.149973308067656E-1   -1.787359971819913E-1
 8.117161617800000E9     5.053022124633804E-1   -2.857960179290751E-2    1.010659101166989E-3    3.875650205609481E-3    1.081869151212744E-3    3.933685584751454E-3    4.147265678349694E-1   -1.791359266213423E-1
 8.117165085000000E9     5.053322610704101E-1   -2.897542234107990E-2    1.027063209135973E-3    3.903175344612806E-3    1.087795703939954E-3    3.934903696655816E-3    4.147662929300535E-1   -1.792380304426586E-1
 8.117168552200000E9     5.053440206802092E-1   -2.923996528351904E-2    1.014892968236758E-3    3.874339204570708E-3    1.084016560047710E-3    3.952083454740116E-3    4.144893874372744E-1   -1.794768264432742E-1
 8.117172019400000E9     5.052547816661359E-1   -2.941838446343040E-2    1.035541276910829E-3    3.902709366400264E-3    1.074709309692418E-3    3.946600250418602E-3    4.146983674940595E-1   -1.797322880027122E-1
 8.117175486600000E9     5.051648653525609E-1   -2.971897186038431E-2    1.047626161610739E-3    3.906697439660887E-3    1.094149784549837E-3    3.961975465056567E-3    4.145204301145725E-1   -1.800711732472991E-1
 8.117178953800000E9     5.052666820651238E-1   -3.010005597570361E-2    1.025526086682535E-3    3.930423556455351E-3    1.099046462315178E-3    4.010042692502223E-3    4.143146745298330E-1   -1.802398997474168E-1
 8.117182421000000E9     5.052480213622554E-1   -3.043150003636945E-2    1.022719826556417E-3    3.913904513428489E-3    1.062886817449895E-3    3.950177505752530E-3    4.142532489126352E-1   -1.803064462369550E-1
 8.117185888200000E9     5.051890511720780E-1   -3.055312662919776E-2    1.048277887633295E-3    3.940215805408789E-3    1.106888379655916E-3    4.010899985486554E-3    4.143197598241365E-1   -1.806079199705275E-1
 8.117189355400000E9     5.052126836205418E-1   -3.092278274008281E-2    1.048292507125006E-3    3.929341982187909E-3    1.111951437969992E-3    3.960288300478314E-3    4.140276289818310E-1   -1.808297746829962E-1
 8.117192822600000E9     5.051730988592300E-1   -3.120064515439077E-2    1.060274488235307E-3    3.923107184990381E-3    1.147372379668638E-3    4.005023897997499E-3    4.140180207897123E-1   -1.812258026336991E-1
 8.117196289800000E9     5.051128836698602E-1   -3.132450822282543E-2    1.059989076779751E-3    3.913633636726120E-3    1.098655299356054E-3    3.976463111398139E-3    4.138336597930565E-1   -1.814452785496363E-1
 8.117199757000000E9     5.050752007424896E-1   -3.167312965259207E-2    1.058443598876166E-3    3.925905304094118E-3    1.141695293865861E-3    4.010500467983209E-3    4.138303969354895E-1   -1.815605338348946E-1
 8.117203224200000E9     5.049944693250555E-1   -3.211499967664668E-2    1.062209009249182E-3    3.957324742591624E-3    1.125060246732102E-3    4.004952923750371E-3    4.139134535683301E-1   -1.818030878661566E-1
 8.117206691400000E9     5.049027741580645E-1   -3.223111687088366E-2    1.070616341490431E-3    3.955731184767449E-3    1.122838152980794E-3    3.992855992671656E-3    4.137933762656285E-1   -1.820302571549365E-1
 8.117210158600000E9     5.049233644100669E-1   -3.256377331211126E-2    1.079668471944608E-3    3.968130080399630E-3    1.092889158845077E-3    3.991204380996841E-3    4.135388668894483E-1   -1.821179013230261E-1
 8.117213625800000E9     5.049123165287012E-1   -3.289563321375979E-2    1.096964991325652E-3    3.952539817823576E-3    1.169636803221532E-3    4.012230109418941E-3    4.134976878334103E-1   -1.825348816862618E-1
 8.117217093000000E9     5.049191223756145E-1   -3.307117818983826E-2    1.079335858039315E-3    3.964003702475240E-3    1.173085075610529E-3    4.023119143024397E-3    4.134858471014283E-1   -1.825880299943133E-1
 8.117220560200000E9     5.049464906892820E-1   -3.345628763111735E-2    1.123150279570510E-3    3.972627605589636E-3    1.155940914017782E-3    4.025444497377565E-3    4.131644797314609E-1   -1.829463671035904E-1
 8.117224027400000E9     5.049147100865702E-1   -3.371006310300613E-2    1.119020273568029E-3    3.963231171722175E-3    1.160696858312221E-3    4.046051911144162E-3    4.132851614664606E-1   -1.831952608957334E-1
 8.117227494600000E9     5.048672117370008E-1   -3.398649595460203E-2    1.101874990849642E-3    3.995303680872165E-3    1.178933244526036E-3    4.041186881201331E-3    4.132189089822665E-1   -1.833470208398728E-1
 8.117230961800000E9     5.048482637736240E-1   -3.421974500189589E-2    1.103095181894767E-3    3.994560878409285E-3    1.154045544235217E-3    4.052036179393330E-3    4.130451365749040E-1   -1.835635499236860E-1
 8.117234429000000E9     5.049137680892988E-1   -3.461102685139901E-2    1.121187325347803E-3    3.988689266681963E-3    1.188149033297575E-3    4.026048963266254E-3    4.129604849451837E-1   -1.838962938068169E-1
 8.117237896200000E9     5.046938930800813E-1   -3.476137012302190E-2    1.133810955017894E-3    3.974253909238190E-3    1.138841736311755E-3    4.052786511124149E-3    4.128617819112623E-1   -1.839808335149808E-1
 8.117241363400000E9     5.046608837920646E-1   -3.514009503294892E-2    1.131460461505967E-3    3.986387510237253E-3    1.190361589483595E-3    4.052817008496601E-3    4.126998901093378E-1   -1.841590294282518E-1
 8.117244830600000E9     5.046138794924311E-1   -3.548406612107453E-2    1.146357597603289E-3    4.005557401219730E-3    1.157229370269836E-3    4.053634017582236E-3    4.127209607527279E-1   -1.845593215954158E-1
 8.117248297800000E9     5.047326670280144E-1   -3.576326434029492E-2    1.144102143038302E-3    4.008502420189129E-3    1.213324189428834E-3    4.064095428825412E-3    4.127056401795586E-1   -1.848077084442155E-1
 8.117251765000000E9     5.045872029436195E-1   -3.597479284884995E-2    1.138913837188713E-3    4.041904436654404E-3    1.217249988420404E-3    4.041236976466932E-3    4.124741846207460E-1   -1.849709919363183E-1
 8.117255232200000E9     5.046520854771358E-1   -3.630947127499637E-2    1.167543390448094E-3    4.008098047895972E-3    1.230690137777901E-3    4.125988984707513E-3    4.123518897280007E-1   -1.851510596141356E-1
 8.117258699400000E9     5.044598526553933E-1   -3.661650766097296E-2    1.160121287557759E-3    4.017498773256773E-3    1.217915006873913E-3    4.097383887784175E-3    4.122973898424424E-1   -1.853312056198773E-1
 8.117262166600000E9     5.045503023319020E-1   -3.688162122064912E-2    1.156571184281098E-3    4.034903731838502E-3    1.208829435162559E-3    4.116928246335872E-3    4.121987531296589E-1   -1.855581240272438E-1
 8.117265633800000E9     5.044369876503583E-1   -3.707376883395509E-2    1.152825889077818E-3    4.066216725161376E-3    1.263963914463932E-3    4.108888655957044E-3    4.121763252705453E-1   -1.858911788747318E-1
 8.117269101000000E9     5.045027965788955E-1   -3.749213150785401E-2    1.164340353827564E-3    4.035808627979254E-3    1.227879630754290E-3    4.134553670533997E-3    4.119316871766396E-1   -1.861519199505169E-1
 8.117272568200000E9     5.044992650124823E-1   -3.777692941994600E-2    1.169206152621632E-3    4.046811191068866E-3    1.241540231619954E-3    4.105182942704057E-3    4.118702346481365E-1   -1.863043460134230E-1
 8.117276035400000E9     5.043111108411388E-1   -3.811167952208989E-2    1.221077037740456E-3    4.059459317478952E-3    1.247033860558444E-3    4.128633644719572E-3    4.118163019310736E-1   -1.865531619592488E-1
 8.117279502600000E9     5.043014721756602E-1   -3.829495607167883E-2    1.176651002820168E-3    4.050040896731086E-3    1.249195339697175E-3    4.158318320571015E-3    4.116859919419116E-1   -1.867778492793937E-1
 8.117282969800000E9     5.042488592312614E-1   -3.865013917529298E-2    1.177666806894466E-3    4.089441057163985E-3    1.269305709745380E-3    4.160940025736339E-3    4.118053407644569E-1   -1.867995313632745E-1
 8.117286437000000E9     5.042290560780515E-1   -3.897189606248739E-2    1.197672612698591E-3    4.067533728239058E-3    1.267332284436746E-3    4.166693506537405E-3    4.115301380598995E-1   -1.871058452165362E-1
