#  HZ   S   RI   R     50.00 
! Rohde & Schwarz Vector Network Analyzer 
! Rohde-Schwarz,ZNB20-2Port,1311601062101988,3.16
! Created: UTC 3/20/2024, 12:01:06 PM
! freq[Hz]                re:S11                  im:S11                  re:S21                  im:S21                  re:S12                  im:S12                  re:S22                  im:S22
 8.117072174000000E9     5.062714190932913E-1   -2.094810206982325E-2    9.065007101319656E-4    3.772499985615929E-3    9.637945642597846E-4    3.882567141681551E-3    4.170254476594488E-1   -1.732887795264408E-1
 8.117075296025000E9     5.063530358681777E-1   -2.121106250233820E-2    9.063225938881476E-4    3.792459976207591E-3    9.594101966711653E-4    3.880121084176237E-3    4.169365646252499E-1   -1.733602114210389E-1
 8.117078418050000E9     5.062407776277881E-1   -2.149015774974268E-2    9.157178880269866E-4    3.790045888568460E-3    9.621248073558191E-4    3.876475439547316E-3    4.168518311864420E-1   -1.735851589160499E-1
 8.117081540075000E9     5.062725107595304E-1   -2.185803992744490E-2    9.381370938935557E-4    3.796649603420281E-3    9.565684696807190E-4    3.833232803900672E-3    4.167825311171689E-1   -1.738051555185183E-1
 8.117084662100000E9     5.062690813031765E-1   -2.196737198452504E-2    9.083497173214775E-4    3.769460242548681E-3    9.437701630450794E-4    3.866248862148812E-3    4.167397549851781E-1   -1.739762442065790E-1
 8.117087784125000E9     5.062018964319565E-1   -2.226156544385926E-2    9.277102880846789E-4    3.776667151761074E-3    9.599152608149639E-4    3.843911029529825E-3    4.166478392250092E-1   -1.743065137239387E-1
 8.117090906150000E9     5.063032440105043E-1   -2.247341818845936E-2    9.165995847672788E-4    3.776603083118874E-3    9.495162175026552E-4    3.867724286063406E-3    4.165153041589806E-1   -1.744607611532376E-1
 8.117094028175000E9     5.062394914387931E-1   -2.279417001999894E-2    9.164979663645766E-4    3.776073455773973E-3    1.008336693399062E-3    3.836931860738588E-3    4.163700387003950E-1   -1.748221527886617E-1
 8.117097150200000E9     5.062509831905854E-1   -2.294939992343641E-2    9.226651084669851E-4    3.817383182092943E-3    9.431785150889611E-4    3.839134664825568E-3    4.163855338724750E-1   -1.749276219956147E-1
 8.117100272225000E9     5.061209443482908E-1   -2.333280461260960E-2    9.236229382485688E-4    3.799099065626188E-3    9.771987152194623E-4    3.855280509513058E-3    4.163032652266651E-1   -1.750232325898731E-1
 8.117103394250000E9     5.060004151453406E-1   -2.336337944177603E-2    9.170819973129685E-4    3.819946136065653E-3    1.014560902189185E-3    3.885251201833580E-3    4.163192190650672E-1   -1.753412650228771E-1
 8.117106516275000E9     5.061129525956070E-1   -2.374161420108882E-2    9.369013382557384E-4    3.782413500541199E-3    9.575462071040576E-4    3.897375379324098E-3    4.161336388695226E-1   -1.753904224470657E-1
 8.117109638300000E9     5.061765323448604E-1   -2.399457313637577E-2    9.230311326117759E-4    3.798799198741849E-3    9.543852826018032E-4    3.864454016210087E-3    4.161923022195543E-1   -1.755826787406167E-1
 8.117112760325000E9     5.061979714739682E-1   -2.419666456873103E-2    9.247607797796698E-4    3.804724856814757E-3    1.028589375846436E-3    3.878896505055600E-3    4.160552641827616E-1   -1.759086621298880E-1
 8.117115882350000E9     5.061776211244151E-1   -2.451670160120953E-2    9.514967292217219E-4    3.811292375877511E-3    9.863760029866909E-4    3.904474385190281E-3    4.159298740199638E-1   -1.759715286565277E-1
 8.117119004375000E9     5.060453307128039E-1   -2.471190147905845E-2    9.428334462279018E-4    3.815934691686571E-3    9.962272743608642E-4    3.869237774363769E-3    4.158994440101708E-1   -1.762672494397812E-1
 8.117122126400000E9     5.060360877610652E-1   -2.491947625902544E-2    9.675838158879256E-4    3.830045266124980E-3    1.034752526243596E-3    3.892725100308357E-3    4.156207863537007E-1   -1.764446445786754E-1
 8.117125248425000E9     5.060101085855463E-1   -2.525831031785264E-2    9.533317159226910E-4    3.824785029089888E-3    1.021890423161035E-3    3.924764317255771E-3    4.156695229791057E-1   -1.766572656640987E-1
 8.117128370450000E9     5.059506539481473E-1   -2.544550282097693E-2    9.549560422177860E-4    3.834466183949448E-3    1.024695851220402E-3    3.881059435738414E-3    4.156069896451959E-1   -1.769617672382816E-1
 8.117131492475000E9     5.059414224772474E-1   -2.573785874792741E-2    9.592136017002507E-4    3.835068165309419E-3    1.000151278455180E-3    3.928523380245834E-3    4.155599346267640E-1   -1.769762298502013E-1
 8.117134614500000E9     5.059239954963232E-1   -2.603017756600746E-2    9.806949586592343E-4    3.848348144965681E-3    9.954001704695666E-4    3.893247100476512E-3    4.154813992935970E-1   -1.773111616795625E-1
 8.117137736525000E9     5.059684843004633E-1   -2.631385983909514E-2    9.655569776604135E-4    3.853208409772315E-3    1.067095483809050E-3    3.891126143747537E-3    4.153743733349676E-1   -1.775172590928886E-1
 8.117140858550000E9     5.058350953360257E-1   -2.642679093112502E-2    9.788483050956729E-4    3.851648258686397E-3    1.041740872509001E-3    3.882849912788248E-3    4.153780705589290E-1   -1.777051956487859E-1
 8.117143980575000E9     5.058294326069955E-1   -2.676626843770609E-2    9.828877990086871E-4    3.827740332492524E-3    1.006860743887987E-3    3.896035020488328E-3    4.151977086675010E-1   -1.780228699622340E-1
 8.117147102600000E9     5.058537671573944E-1   -2.710191260411191E-2    9.584209984289723E-4    3.852090239170286E-3    1.028923349645235E-3    3.915988296270234E-3    4.151787587847434E-1   -1.780698643185129E-1
 8.117150224625000E9     5.057918890997383E-1   -2.723258930870441E-2    9.884557987716877E-4    3.859820580792618E-3    1.025339348234719E-3    3.922197448988772E-3    4.149802147684833E-1   -1.783798567649393E-1
 8.117153346650000E9     5.058516106155784E-1   -2.763917867311808E-2    9.995027914854425E-4    3.838038708553029E-3    1.001968371570332E-3    3.934220360093897E-3    4.149659034934575E-1   -1.784439493020514E-1
 8.117156468675000E9     5.057986617964003E-1   -2.775040757373726E-2    9.886723861688876E-4    3.851931945717557E-3    1.059620026572922E-3    3.941458198310965E-3    4.149741854126512E-1   -1.787896208409330E-1
 8.117159590700000E9     5.057813573434485E-1   -2.810397207573451E-2    1.012285351650342E-3    3.854658565735462E-3    1.024242657262814E-3    3.961417074482073E-3    4.149062989835958E-1   -1.789865770145533E-1
 8.117162712725000E9     5.058154358196248E-1   -2.834278286755536E-2    9.904990451225805E-4    3.847777006239657E-3    1.081759863254425E-3    3.940780671847717E-3    4.147674855618542E-1   -1.792745760336361E-1
 8.117165834750000E9     5.056922148929351E-1   -2.851306471776911E-2    9.908948552130369E-4    3.862166135611690E-3    1.038458188520025E-3    3.914039882515779E-3    4.146969234170404E-1   -1.794806710840329E-1
 8.117168956775000E9     5.057781117220270E-1   -2.872616080555210E-2    9.957490941827391E-4    3.890961739524690E-3    1.046383934302885E-3    3.943311962808301E-3    4.147498779198206E-1   -1.794677721797860E-1
 8.117172078800000E9     5.058508941814402E-1   -2.910667372862334E-2    1.006690537935388E-3    3.872427329169884E-3    1.038366891805003E-3    3.951028349675215E-3    4.146449576285413E-1   -1.797556104322622E-1
 8.117175200825000E9     5.056477544647260E-1   -2.915130349725329E-2    1.010922402403789E-3    3.860617905284173E-3    1.078418837661305E-3    3.969396947152020E-3    4.145087079832491E-1   -1.800597793285908E-1
 8.117178322850000E9     5.056296375539461E-1   -2.950563562680059E-2    1.015619450122222E-3    3.873762285837298E-3    1.087624867150044E-3    3.929037539353508E-3    4.143844193545639E-1   -1.801542487552359E-1
 8.117181444875000E9     5.056209076539097E-1   -2.984898507135388E-2    1.007160438385057E-3    3.905302137666413E-3    1.074138862981409E-3    3.964095265770185E-3    4.143564406230387E-1   -1.804082053991042E-1
 8.117184566900000E9     5.056634368196566E-1   -3.000887960430369E-2    1.032276439448496E-3    3.879103767215714E-3    1.087509321597313E-3    3.965309052979546E-3    4.142444454499659E-1   -1.806021001978710E-1
 8.117187688925000E9     5.055263338129520E-1   -3.030669051714618E-2    1.039301346237559E-3    3.876835523277873E-3    1.041633624293287E-3    3.920840676211366E-3    4.140612832106810E-1   -1.807637000366422E-1
 8.117190810950000E9     5.055336432751384E-1   -3.061318533089726E-2    1.023229511635814E-3    3.890529647208303E-3    1.106179225259560E-3    4.005427694164817E-3    4.141529818376848E-1   -1.809746027244535E-1
 8.117193932975000E9     5.054634076655996E-1   -3.083402643158832E-2    1.039192655159495E-3    3.888942432618718E-3    1.121313678937388E-3    3.939460856529976E-3    4.139533824398501E-1   -1.811237970454326E-1
 8.117197055000000E9     5.055499600845303E-1   -3.106407222061326E-2    1.049079992450829E-3    3.905207313604424E-3    1.109815149090003E-3    3.964879543022766E-3    4.139023079463127E-1   -1.815585183362002E-1
 8.117200177025000E9     5.055281033096252E-1   -3.125866497642179E-2    1.054229039296434E-3    3.905053288336958E-3    1.142941943005630E-3    3.997443662706545E-3    4.137985116855653E-1   -1.816852554828380E-1
 8.117203299050000E9     5.054196189805794E-1   -3.154806795459610E-2    1.037970946289281E-3    3.889533380022494E-3    1.085380243523501E-3    3.982601491989450E-3    4.136509704576242E-1   -1.818131913020037E-1
 8.117206421075000E9     5.054453325079239E-1   -3.176183524133407E-2    1.048266753829343E-3    3.900836737293203E-3    1.119484661981163E-3    4.002076516294128E-3    4.135324790365231E-1   -1.819665533556232E-1
 8.117209543100000E9     5.054479375839831E-1   -3.208086642785424E-2    1.049621685289568E-3    3.945359649739473E-3    1.141630117014723E-3    3.982160043897600E-3    4.135689503001413E-1   -1.822070504171485E-1
 8.117212665125000E9     5.053568480174323E-1   -3.237326830843102E-2    1.077821724688981E-3    3.947980373765833E-3    1.118147165520592E-3    4.033117811495622E-3    4.132496003415692E-1   -1.824299296768075E-1
 8.117215787150000E9     5.054092821703855E-1   -3.264511360872739E-2    1.061235659460720E-3    3.940778291486821E-3    1.134740981400528E-3    3.966299354041865E-3    4.134577119824824E-1   -1.826134284165768E-1
 8.117218909175000E9     5.053219433898778E-1   -3.276556044337364E-2    1.086406932694181E-3    3.952804270206410E-3    1.123825183266606E-3    3.969614720332221E-3    4.132863298735621E-1   -1.827707134323832E-1
 8.117222031200000E9     5.052625883086221E-1   -3.302615114713837E-2    1.049254126970882E-3    3.952976682959131E-3    1.110568348109895E-3    4.010738585353517E-3    4.133375080550773E-1   -1.829163446273326E-1
 8.117225153225000E9     5.052318536895248E-1   -3.327809254896998E-2    1.073857601915078E-3    3.945429186085062E-3    1.130246915528163E-3    3.999431404949224E-3    4.132273975894302E-1   -1.832829704444632E-1
 8.117228275250000E9     5.052955985146166E-1   -3.352612617761410E-2    1.060739724249149E-3    3.921351701387646E-3    1.111893691720303E-3    4.006450320710801E-3    4.130262514645094E-1   -1.834953125820194E-1
 8.117231397275000E9     5.052394610208882E-1   -3.390026658503342E-2    1.095391596685071E-3    3.960733318001885E-3    1.142848195605319E-3    4.043541255513689E-3    4.130239291501904E-1   -1.837315321896023E-1
 8.117234519300000E9     5.052070504607258E-1   -3.410929742958852E-2    1.080278308772981E-3    3.974293806667681E-3    1.173643382897055E-3    4.023771584331401E-3    4.130101598632998E-1   -1.837700083379527E-1
 8.117237641325000E9     5.052683041392223E-1   -3.438265579797777E-2    1.090316298283098E-3    3.945047229799232E-3    1.160944026714543E-3    4.020890033588514E-3    4.127503554898042E-1   -1.841411063757628E-1
 8.117240763350000E9     5.052027582554328E-1   -3.456209335434572E-2    1.123992029026891E-3    3.964652300671259E-3    1.157174905025327E-3    4.025767926658996E-3    4.128333185000364E-1   -1.842895252401489E-1
 8.117243885375000E9     5.051102554776141E-1   -3.485493090678239E-2    1.080730889852405E-3    3.958455855523279E-3    1.117640999217868E-3    4.021710944793751E-3    4.125897249856550E-1   -1.844634780482146E-1
 8.117247007400000E9     5.051665875363204E-1   -3.503923332849236E-2    1.113146450815313E-3    3.984897117498944E-3    1.155934835862786E-3    4.052797044948187E-3    4.125902360442513E-1   -1.847040733129475E-1
 8.117250129425000E9     5.050864221098751E-1   -3.542533458769697E-2    1.106630432284595E-3    3.989578490630996E-3    1.192729257800382E-3    4.026947777768528E-3    4.124005735495225E-1   -1.848839109018056E-1
 8.117253251450000E9     5.050786625959894E-1   -3.560608271783682E-2    1.120004836713641E-3    4.000585586977361E-3    1.120606669619107E-3    4.054024544753265E-3    4.123586056061431E-1   -1.851048566388264E-1
 8.117256373475000E9     5.050088725890686E-1   -3.583861435028023E-2    1.145571959646017E-3    3.994481335097231E-3    1.187981624738142E-3    4.020847349154512E-3    4.124238865960769E-1   -1.854043915090477E-1
 8.117259495500000E9     5.050343886091508E-1   -3.611394426392326E-2    1.095643364628464E-3    4.005449861362493E-3    1.193278296123871E-3    4.081736156813518E-3    4.123520201817268E-1   -1.854380487797797E-1
 8.117262617525000E9     5.049384465618418E-1   -3.641218590302096E-2    1.144846163488334E-3    3.986636599052579E-3    1.196173478251798E-3    4.065309102362919E-3    4.122243155333439E-1   -1.855058653844988E-1
 8.117265739550000E9     5.050318996214749E-1   -3.667073312994491E-2    1.160526066467100E-3    4.012106377278419E-3    1.143094732109827E-3    4.079186051765441E-3    4.120645938450007E-1   -1.858459802777337E-1
 8.117268861575000E9     5.048709074047623E-1   -3.697580058707742E-2    1.135965473221824E-3    4.039202312239901E-3    1.211915494999688E-3    4.078306088075444E-3    4.121704475193687E-1   -1.859739404299666E-1
 8.117271983600000E9     5.048491341903838E-1   -3.722682786976180E-2    1.153742538018502E-3    4.047386876314213E-3    1.200846434941159E-3    4.067151445560450E-3    4.119136417538367E-1   -1.863906790355788E-1
 8.117275105625000E9     5.048893760068732E-1   -3.747639488083976E-2    1.157631273377970E-3    4.010632382158965E-3    1.192085709149309E-3    4.103469389274897E-3    4.118122384891138E-1   -1.864343993896605E-1
 8.117278227650000E9     5.048808155949256E-1   -3.773173965693129E-2    1.145206601654656E-3    4.033819939984199E-3    1.209188482216431E-3    4.097397227785370E-3    4.117566133781974E-1   -1.867307176181243E-1
 8.117281349675000E9     5.047605126642118E-1   -3.799434678549572E-2    1.178068314577693E-3    4.041166959416331E-3    1.216036368304166E-3    4.091303991187565E-3    4.116952031468676E-1   -1.868380137962342E-1
 8.117284471700000E9     5.046841587179713E-1   -3.824108915175877E-2    1.141717868997704E-3    4.036603355340751E-3    1.264263244083521E-3    4.131282791560030E-3    4.115445345745385E-1   -1.872193542424230E-1
 8.117287593725000E9     5.048243516649077E-1   -3.845312597931654E-2    1.178721218090967E-3    4.051259782255740E-3    1.188337290977577E-3    4.106211040931678E-3    4.115843533460414E-1   -1.872487143895425E-1
 8.117290715750000E9     5.046757777026493E-1   -3.859594933247765E-2    1.146348659062977E-3    4.060522398335091E-3    1.219112735372467E-3    4.134569121383269E-3    4.114658961842638E-1   -1.875913638660878E-1
 8.117293837775000E9     5.047081000170828E-1   -3.910753441315004E-2    1.172774106051888E-3    4.048662877273917E-3    1.232149544802798E-3    4.117369659830359E-3    4.114027703610725E-1   -1.877078912281272E-1
 8.117296959800000E9     5.046346058207638E-1   -3.930342754347271E-2    1.191200088981038E-3    4.047272594831973E-3    1.238285746890381E-3    4.133125352795667E-3    4.113529806854809E-1   -1.878902722271656E-1
 8.117300081825000E9     5.046188665842685E-1   -3.946202293191186E-2    1.186880906043356E-3    4.052113084620341E-3    1.238146228181478E-3    4.112030777833532E-3    4.112203642016227E-1   -1.881104512488231E-1
 8.117303203850000E9     5.045465215636779E-1   -3.992884323387228E-2    1.170420295719882E-3    4.084302188657106E-3    1.257298034633970E-3    4.144911548875455E-3    4.112685165549345E-1   -1.882782936548481E-1
 8.117306325875000E9     5.044897204826146E-1   -4.003465383218556E-2    1.202788423473868E-3    4.074950898443769E-3    1.206457823654544E-3    4.160701155547492E-3    4.110369579968485E-1   -1.884551661476707E-1
 8.117309447900000E9     5.044339300144737E-1   -4.036500452055824E-2    1.198490776017127E-3    4.069155004977142E-3    1.253109426029867E-3    4.171252453031272E-3    4.110036828808033E-1   -1.887702980736898E-1
 8.117312569925000E9     5.044276013443866E-1   -4.055438678683222E-2    1.216922492517161E-3    4.086787997275015E-3    1.227603258032924E-3    4.193439260174136E-3    4.108733869920547E-1   -1.889776782537265E-1
 8.117315691950000E9     5.044346057797962E-1   -4.089048128730270E-2    1.223398722999084E-3    4.105717317769934E-3    1.290892348096846E-3    4.179638253409837E-3    4.108931663078036E-1   -1.891190949050544E-1
 8.117318813975000E9     5.043461272375880E-1   -4.115442540755720E-2    1.200908114131824E-3    4.114290244566519E-3    1.286138038057382E-3    4.154544222335956E-3    4.106650717094827E-1   -1.892024658845460E-1
 8.117321936000000E9     5.042737752040470E-1   -4.144592158838982E-2    1.202739189311433E-3    4.093632760199778E-3    1.303782080044006E-3    4.176146103066621E-3    4.106819700978094E-1   -1.896220147946379E-1
 8.117325058025000E9     5.043538193110999E-1   -4.161462355175226E-2    1.253147998553510E-3    4.131998996821097E-3    1.287591470286864E-3    4.231133321819816E-3    4.105004852615856E-1   -1.896320762036744E-1
 8.117328180050000E9     5.042120294369457E-1   -4.204567196000279E-2    1.264355029049751E-3    4.134792418662238E-3    1.283321948655698E-3    4.208101191111376E-3    4.103112006171707E-1   -1.899254113677741E-1
 8.117331302075000E9     5.041445121754509E-1   -4.219221591987530E-2    1.256707618232597E-3    4.143474497833700E-3    1.296840435249004E-3    4.237851255621466E-3    4.103253691441991E-1   -1.902224130840331E-1
 8.117334424100000E9     5.042320793829577E-1   -4.250256034597945E-2    1.257095243127319E-3    4.168975918196427E-3    1.316020923782392E-3    4.197677713718932E-3    4.101930713589527E-1   -1.903029045073026E-1
 8.117337546125000E9     5.041753161902744E-1   -4.283887616902709E-2    1.263276591508090E-3    4.166008157933912E-3    1.333034902494860E-3    4.194389693079597E-3    4.101251117654157E-1   -1.904714947037789E-1
 8.117340668150000E9     5.040718602779493E-1   -4.311682980349813E-2    1.275221983795029E-3    4.134767153546499E-3    1.283599487124560E-3    4.243417338132466E-3    4.101377855584946E-1   -1.908506462282388E-1
 8.117343790175000E9     5.040596676900604E-1   -4.322665738959020E-2    1.277804516457056E-3    4.175510294962893E-3    1.325037217462902E-3    4.221935032074526E-3    4.100864544277013E-1   -1.909211001732037E-1
 8.117346912200000E9     5.039629805476910E-1   -4.361510272241288E-2    1.294199998890286E-3    4.167410715629742E-3    1.328341964928675E-3    4.264866944510686E-3    4.098767232191195E-1   -1.911794253345571E-1
 8.117350034225000E9     5.040475692583531E-1   -4.382543791143645E-2    1.268889648612382E-3    4.185165455430272E-3    1.358236644557084E-3    4.309202003015790E-3    4.098998221793883E-1   -1.913365030872433E-1
 8.117353156250000E9     5.039779732033117E-1   -4.406490577547938E-2    1.289134553094537E-3    4.165904391916374E-3    1.363957290400986E-3    4.299997944417671E-3    4.098205833637110E-1   -1.915738113029603E-1
