#  HZ   S   RI   R     50.00 
! Rohde & Schwarz Vector Network Analyzer 
! Rohde-Schwarz,ZNB20-2Port,1311601062101988,3.16
! Created: UTC 3/20/2024, 12:01:16 PM
! freq[Hz]                re:S11                  im:S11                  re:S21                  im:S21                  re:S12                  im:S12                  re:S22                  im:S22
 8.117091899000000E9     5.063877139167167E-1   -2.226584363361561E-2    9.005676078760298E-4    3.793449207405031E-3    9.748355429143982E-4    3.887862340184859E-3    4.165357274046407E-1   -1.746088925082743E-1
 8.117094940475000E9     5.063063562813100E-1   -2.258109973651728E-2    9.179054653801246E-4    3.766734245487293E-3    9.497940993242956E-4    3.852287579399727E-3    4.163088902641087E-1   -1.746438639137539E-1
 8.117097981950000E9     5.063237307009547E-1   -2.283931440435811E-2    9.405563470363701E-4    3.796827634308158E-3    9.876270983299313E-4    3.868342145541816E-3    4.162104102706213E-1   -1.749740407028940E-1
 8.117101023425000E9     5.064557789310381E-1   -2.304060563260517E-2    9.405427476109137E-4    3.798899418643272E-3    9.505019702386224E-4    3.875426678058859E-3    4.164330919542358E-1   -1.752033418577148E-1
 8.117104064900000E9     5.063487559192372E-1   -2.334296218761701E-2    9.189925640302474E-4    3.794894262168556E-3    9.979722940796586E-4    3.894951192113586E-3    4.161723864825491E-1   -1.754475017943033E-1
 8.117107106375000E9     5.062708469779635E-1   -2.357045697237714E-2    9.303534037727032E-4    3.803834370700028E-3    9.975191109135694E-4    3.824559434729872E-3    4.162107136954100E-1   -1.753616225524046E-1
 8.117110147850000E9     5.063541732793410E-1   -2.376965451508769E-2    9.306318135640030E-4    3.797528424251808E-3    9.647187382416073E-4    3.898364101108063E-3    4.159811190784874E-1   -1.758630994159615E-1
 8.117113189325000E9     5.063234242443512E-1   -2.402421230383314E-2    9.445779410059166E-4    3.803935487268191E-3    1.036036899903259E-3    3.866633882911060E-3    4.160100898142380E-1   -1.759008049420389E-1
 8.117116230800000E9     5.063691032916503E-1   -2.431363311230170E-2    9.331510384884425E-4    3.813087999593799E-3    9.931342596717857E-4    3.889507932551696E-3    4.159186157455361E-1   -1.761628622951340E-1
 8.117119272275000E9     5.062910408646047E-1   -2.458631253923928E-2    9.299911889987358E-4    3.805332988965647E-3    1.001738151611372E-3    3.849812862278278E-3    4.158299479662690E-1   -1.764993489894934E-1
 8.117122313750000E9     5.063175004676161E-1   -2.496472257844009E-2    9.524134471155310E-4    3.806631785921854E-3    1.008585064356998E-3    3.954347298274893E-3    4.157510369562702E-1   -1.765476492983930E-1
 8.117125355225000E9     5.062249147965703E-1   -2.507647376825898E-2    9.540506121410499E-4    3.819814455099204E-3    9.798506438672063E-4    3.913224928546568E-3    4.158141359324929E-1   -1.766468925998575E-1
 8.117128396700000E9     5.062417690819806E-1   -2.531081477768235E-2    9.473277706953886E-4    3.839264551474098E-3    9.912678511512895E-4    3.846991239903680E-3    4.157399584053310E-1   -1.769361472328782E-1
 8.117131438175000E9     5.061204867848605E-1   -2.560392148946720E-2    9.806822488375182E-4    3.828683213885719E-3    1.023732292089516E-3    3.903224687875429E-3    4.154398117517196E-1   -1.771501290668621E-1
 8.117134479650000E9     5.060706479397445E-1   -2.571716467019875E-2    9.716685399309828E-4    3.833446940225010E-3    9.737464543642750E-4    3.916298782264637E-3    4.154224426810416E-1   -1.774341938049546E-1
 8.117137521125000E9     5.061569851196831E-1   -2.605388452004952E-2    1.008261458428449E-3    3.828460754307670E-3    9.764627212235297E-4    3.897230801093891E-3    4.155184215083207E-1   -1.774315166984582E-1
 8.117140562600000E9     5.060980150047724E-1   -2.627846122787733E-2    9.673319163649095E-4    3.842137558601372E-3    1.004941717357019E-3    3.895560496095931E-3    4.152895048768810E-1   -1.777294257026504E-1
 8.117143604075000E9     5.060254973998427E-1   -2.644861901261331E-2    9.672443059727704E-4    3.845443028583615E-3    9.724937775358429E-4    3.862891897582339E-3    4.152602463044862E-1   -1.779113786441487E-1
 8.117146645550000E9     5.060981340929764E-1   -2.674115590080213E-2    9.619915567543334E-4    3.828035856446908E-3    1.013436581299096E-3    3.912322740821631E-3    4.152301992845739E-1   -1.781301307158937E-1
 8.117149687025000E9     5.059413455847739E-1   -2.695305411934110E-2    9.530526754353932E-4    3.855572537878443E-3    1.018697651798962E-3    3.936199739673388E-3    4.150630885534026E-1   -1.783350600406442E-1
 8.117152728500000E9     5.060350353748131E-1   -2.727807125679807E-2    9.693606487154701E-4    3.845801385975865E-3    1.019130618771740E-3    3.927721579347391E-3    4.150058052610263E-1   -1.784603618785388E-1
 8.117155769975000E9     5.060099573008453E-1   -2.738556551169927E-2    1.014714056022607E-3    3.857251454328270E-3    1.039348952048509E-3    3.915929411906576E-3    4.149311742158039E-1   -1.786679266761054E-1
 8.117158811450000E9     5.060218597518105E-1   -2.773202987967550E-2    9.961842006195258E-4    3.885791005989863E-3    1.024674992011154E-3    3.921635960374556E-3    4.148690347115534E-1   -1.788116534916178E-1
 8.117161852925000E9     5.059950201699529E-1   -2.801210326286619E-2    9.831666091964354E-4    3.884159718582633E-3    1.069838619882542E-3    3.886618416793227E-3    4.148894440402844E-1   -1.791406890435399E-1
 8.117164894400000E9     5.059413225409111E-1   -2.827624252688425E-2    9.944544300256992E-4    3.856853905084719E-3    1.082768176559279E-3    3.942017432931102E-3    4.148175974266690E-1   -1.793077671216043E-1
 8.117167935875000E9     5.058521629385280E-1   -2.842404179268191E-2    9.954009854106396E-4    3.836880890237368E-3    1.028710541907267E-3    3.946797626056405E-3    4.146214197614857E-1   -1.795141809757723E-1
 8.117170977350000E9     5.059473401137129E-1   -2.874442864645193E-2    1.010154371477787E-3    3.850599881216009E-3    1.008199667115110E-3    3.947124019963394E-3    4.146926304422630E-1   -1.798159942739764E-1
 8.117174018825000E9     5.058731367969048E-1   -2.894959710021189E-2    1.023672196892621E-3    3.870878435103019E-3    1.049146733772341E-3    3.913623197740519E-3    4.144450381258943E-1   -1.799882741015540E-1
 8.117177060300000E9     5.058796985760168E-1   -2.930731525852969E-2    1.035920822486448E-3    3.868549179913386E-3    1.059500467627210E-3    3.971862578973256E-3    4.144751542428320E-1   -1.800386475848978E-1
 8.117180101775000E9     5.058011957063965E-1   -2.960431333060987E-2    9.996422813098851E-4    3.853145481998902E-3    1.063699367990849E-3    3.947092884245970E-3    4.143437553818653E-1   -1.803446785946068E-1
 8.117183143250000E9     5.057425122597632E-1   -2.967911546586023E-2    1.024890784635140E-3    3.901054194190419E-3    1.060418828555352E-3    3.961076469177723E-3    4.141771177842342E-1   -1.805276923855173E-1
 8.117186184725000E9     5.057673493475757E-1   -2.996077591555697E-2    1.009335783224190E-3    3.872808154181985E-3    1.075309756048133E-3    3.973102544288604E-3    4.142544254348911E-1   -1.808177575864199E-1
 8.117189226200000E9     5.058757718521580E-1   -3.018184860730055E-2    1.028089229393598E-3    3.898063371435534E-3    1.074842961277542E-3    3.971662148990559E-3    4.141719659135921E-1   -1.808888888225769E-1
 8.117192267675000E9     5.058225443066956E-1   -3.040799625773380E-2    1.018177024488105E-3    3.899822495020795E-3    1.063262787632604E-3    3.932026956202025E-3    4.140969473027150E-1   -1.811580736233648E-1
 8.117195309150000E9     5.058192106532567E-1   -3.063403248831880E-2    1.039798688411028E-3    3.906922413716639E-3    1.083213731703770E-3    3.952723922404218E-3    4.138865657799093E-1   -1.813148116213685E-1
 8.117198350625000E9     5.058861145901941E-1   -3.085847933227076E-2    1.036424419251032E-3    3.879209736600552E-3    1.055934606149229E-3    3.930585521529147E-3    4.138189756417580E-1   -1.814482569997043E-1
 8.117201392100000E9     5.056817358270569E-1   -3.123713952897853E-2    1.051450080199300E-3    3.919724752978681E-3    1.041373787246313E-3    3.970329261730545E-3    4.138166189103339E-1   -1.817780125133820E-1
 8.117204433575000E9     5.056582527512348E-1   -3.138427878115865E-2    1.038833336547360E-3    3.914346334304249E-3    1.089063034937235E-3    3.968962438525441E-3    4.137057000755231E-1   -1.818408629057283E-1
 8.117207475050000E9     5.056412762604556E-1   -3.174089404864543E-2    1.044708144760399E-3    3.931948020325247E-3    1.056310794787714E-3    3.979230643089689E-3    4.136951707167993E-1   -1.820329830947670E-1
 8.117210516525000E9     5.055521054786785E-1   -3.188087305088776E-2    1.057959658165408E-3    3.923746307031106E-3    1.136416156887891E-3    3.984784131063718E-3    4.134380922988320E-1   -1.822509562581259E-1
 8.117213558000000E9     5.056010958196637E-1   -3.211643574664014E-2    1.048674407127377E-3    3.920668232386871E-3    1.104339183093776E-3    3.996757461169994E-3    4.135424353444345E-1   -1.823875444082372E-1
 8.117216599475000E9     5.054811485405176E-1   -3.231703485954065E-2    1.067069418501259E-3    3.918433076443855E-3    1.108385812756185E-3    3.992676858124230E-3    4.133677804304917E-1   -1.826651137626221E-1
 8.117219640950000E9     5.056268740038633E-1   -3.260991479345843E-2    1.084447961686534E-3    3.944001979504359E-3    1.125629761227011E-3    3.987771406736929E-3    4.133815227829784E-1   -1.828777098919361E-1
 8.117222682425000E9     5.055863728434337E-1   -3.280169038261897E-2    1.080133042978329E-3    3.934498639082658E-3    1.122190538962157E-3    4.023555825101804E-3    4.132715758875941E-1   -1.830095655730519E-1
 8.117225723900000E9     5.054000833447920E-1   -3.322907078909674E-2    1.070240808793691E-3    3.929529323227081E-3    1.111728223032568E-3    4.005517616326590E-3    4.132311793346408E-1   -1.832229217730003E-1
 8.117228765375000E9     5.054989945841412E-1   -3.343584566243072E-2    1.098768867898616E-3    3.967524060195469E-3    1.137794327831711E-3    3.985079035310039E-3    4.131680342762138E-1   -1.834972608847567E-1
 8.117231806850000E9     5.054408281331221E-1   -3.353282708528738E-2    1.073281413071828E-3    3.936129171422496E-3    1.165986064051130E-3    4.001071652014533E-3    4.129157565618133E-1   -1.836491173639647E-1
 8.117234848325000E9     5.054272445354119E-1   -3.394704629468201E-2    1.083733991335622E-3    3.951988084740067E-3    1.138121045150470E-3    4.047678375303893E-3    4.128078360397045E-1   -1.838517515825117E-1
 8.117237889800000E9     5.053285336109606E-1   -3.414350850030912E-2    1.093804511717660E-3    3.944933302564772E-3    1.118742916492170E-3    4.044337878327294E-3    4.129091616224785E-1   -1.841354466030136E-1
 8.117240931275000E9     5.053300223075983E-1   -3.445550967762376E-2    1.099054964367370E-3    3.963070769189353E-3    1.096274882513138E-3    4.008256755397338E-3    4.127932804813944E-1   -1.842912380434095E-1
 8.117243972750000E9     5.054005221845200E-1   -3.455660146815128E-2    1.102261941968444E-3    3.969030057430612E-3    1.197196568199343E-3    4.073341997340666E-3    4.126928530420346E-1   -1.843891784826682E-1
 8.117247014225000E9     5.053645100417817E-1   -3.487693475950937E-2    1.092490360963393E-3    3.966808011415342E-3    1.139074107041886E-3    4.040391492232346E-3    4.125990589665875E-1   -1.846969900071938E-1
 8.117250055700000E9     5.052835517174848E-1   -3.503814923539719E-2    1.118537384667644E-3    3.964771087901087E-3    1.144560079224395E-3    4.083233647321380E-3    4.125356118337972E-1   -1.847938739244050E-1
 8.117253097175000E9     5.053509431922013E-1   -3.534596441910228E-2    1.106580982190724E-3    3.978678650825074E-3    1.220279985854168E-3    4.076902837376925E-3    4.124609932597408E-1   -1.851309060941104E-1
 8.117256138650000E9     5.053541067005873E-1   -3.573022732213210E-2    1.108939589938011E-3    3.995632577366186E-3    1.185073304396565E-3    4.001320342030646E-3    4.122895767539606E-1   -1.853131115285567E-1
 8.117259180125000E9     5.053359107060736E-1   -3.584539782333248E-2    1.131651573323466E-3    4.000870713788928E-3    1.142100957986381E-3    4.031488286988532E-3    4.122294715907113E-1   -1.855077251138452E-1
 8.117262221600000E9     5.052127959039120E-1   -3.613448565548622E-2    1.138147677872750E-3    3.974880312476095E-3    1.180734845621452E-3    4.102997184723331E-3    4.120981957075522E-1   -1.856585104511683E-1
 8.117265263075000E9     5.052585853705597E-1   -3.640997744087022E-2    1.136428922033287E-3    3.996921730461302E-3    1.190511900993401E-3    4.142627032129685E-3    4.122108594487648E-1   -1.858260261007681E-1
 8.117268304550000E9     5.051657566193524E-1   -3.660209036635319E-2    1.140141252081560E-3    3.999819724535393E-3    1.141986289023354E-3    4.041193775651407E-3    4.120883355307136E-1   -1.860839301873091E-1
 8.117271346025000E9     5.050439474046727E-1   -3.689200559794879E-2    1.101696253177429E-3    3.979922542880106E-3    1.215560908291515E-3    4.127431155653812E-3    4.117611043767334E-1   -1.863344035428777E-1
 8.117274387500000E9     5.051571317959498E-1   -3.716254054158642E-2    1.132402311919235E-3    3.990801675710212E-3    1.220719623850488E-3    4.072945526022395E-3    4.118505850377194E-1   -1.865040961215077E-1
 8.117277428975000E9     5.050927509431932E-1   -3.741627625775636E-2    1.144897984825198E-3    4.021488406478570E-3    1.215275532042155E-3    4.088624004529839E-3    4.118268725156439E-1   -1.866186616746778E-1
 8.117280470450000E9     5.049471879288338E-1   -3.771595898401662E-2    1.156134090431367E-3    4.040010531692972E-3    1.221063329175330E-3    4.073141303572336E-3    4.116939221041397E-1   -1.869044802228117E-1
 8.117283511925000E9     5.049902271048916E-1   -3.795379701939872E-2    1.155281509413803E-3    4.020013608065456E-3    1.189575882372697E-3    4.120703425862032E-3    4.115425345397111E-1   -1.869762483446855E-1
 8.117286553400000E9     5.050610124213161E-1   -3.829045999384267E-2    1.191071509619111E-3    4.027674199804133E-3    1.250117914144765E-3    4.084905867474699E-3    4.116856996971696E-1   -1.873034998036322E-1
 8.117289594875000E9     5.049024670437383E-1   -3.845525224388507E-2    1.174338396061043E-3    4.034221550185809E-3    1.234173388113887E-3    4.094815408351211E-3    4.115201479148191E-1   -1.874759647550233E-1
 8.117292636350000E9     5.049749413102198E-1   -3.866009084256420E-2    1.183711895293918E-3    4.036727986172779E-3    1.193597933311311E-3    4.135162511759588E-3    4.114054116136214E-1   -1.876298177947084E-1
 8.117295677825000E9     5.048115892695594E-1   -3.891413478012200E-2    1.167775428247650E-3    4.078580128359201E-3    1.249943290526827E-3    4.148057631623483E-3    4.114275916455798E-1   -1.878704100007013E-1
 8.117298719300000E9     5.049005399347686E-1   -3.908270145621625E-2    1.179349884431426E-3    4.056149670296344E-3    1.211030534357791E-3    4.114546159698499E-3    4.114769529855961E-1   -1.880353450454449E-1
 8.117301760775000E9     5.047961506517030E-1   -3.945927233927479E-2    1.181460153505769E-3    4.057534050378847E-3    1.252232174684673E-3    4.151897566289259E-3    4.111987788328081E-1   -1.882155798090267E-1
 8.117304802250000E9     5.047279360335744E-1   -3.967955280116685E-2    1.190742721137374E-3    4.062925385225597E-3    1.284811687328586E-3    4.145809685140676E-3    4.110002731329816E-1   -1.884071759915139E-1
 8.117307843725000E9     5.047296080395542E-1   -3.988447006376414E-2    1.183017022985196E-3    4.073112695583102E-3    1.262252743691940E-3    4.198493242255800E-3    4.110866532540169E-1   -1.886384189282723E-1
 8.117310885200000E9     5.047415831919358E-1   -4.015477654513683E-2    1.214847532654770E-3    4.067643412419344E-3    1.244554037993426E-3    4.145757828794272E-3    4.109041120946570E-1   -1.888067576531119E-1
 8.117313926675000E9     5.046969699347056E-1   -4.039007367393024E-2    1.200764672279767E-3    4.097230964583616E-3    1.229627582598571E-3    4.153890937382515E-3    4.109304224746366E-1   -1.891107925475867E-1
 8.117316968150000E9     5.046071984274254E-1   -4.067165671495878E-2    1.220537340140293E-3    4.074709042876748E-3    1.257090105926063E-3    4.087582493009593E-3    4.107712777630479E-1   -1.892141813827428E-1
 8.117320009625000E9     5.046739714006843E-1   -4.097068291959205E-2    1.233662040978356E-3    4.099449713776571E-3    1.252056257079348E-3    4.195072619610767E-3    4.107614515105693E-1   -1.894475550291802E-1
 8.117323051100000E9     5.044911790702565E-1   -4.121335366322777E-2    1.220903175905357E-3    4.130193939567048E-3    1.263283936612142E-3    4.227182885993119E-3    4.106825394859479E-1   -1.896749316082471E-1
 8.117326092575000E9     5.045040871654712E-1   -4.154816734746015E-2    1.225197973839336E-3    4.095606550979433E-3    1.277253889181870E-3    4.170184242015796E-3    4.105446028698700E-1   -1.897991617090096E-1
 8.117329134050000E9     5.044635533632561E-1   -4.179205238481013E-2    1.242296518815213E-3    4.115628136869560E-3    1.288169027069322E-3    4.163456611908473E-3    4.104047802110382E-1   -1.900674107748950E-1
 8.117332175525000E9     5.044674794110058E-1   -4.205051072491364E-2    1.224252463512361E-3    4.122940443899466E-3    1.281464322117972E-3    4.191789395474099E-3    4.102106758874197E-1   -1.902174569116309E-1
 8.117335217000000E9     5.043391731053767E-1   -4.221740251430567E-2    1.225889406597834E-3    4.136467838807269E-3    1.301843725727503E-3    4.205423654535624E-3    4.101574691607441E-1   -1.904674361872451E-1
 8.117338258475000E9     5.043550658550457E-1   -4.248715863232025E-2    1.224179409744655E-3    4.123792282615352E-3    1.310530900131927E-3    4.154110331864308E-3    4.102058110531830E-1   -1.904954556209740E-1
 8.117341299950000E9     5.044772424505024E-1   -4.273673356008707E-2    1.267036375297556E-3    4.145769207739791E-3    1.357781944801270E-3    4.228661376724698E-3    4.101836542803425E-1   -1.909406960675553E-1
 8.117344341425000E9     5.043369251221878E-1   -4.305167256626547E-2    1.259783223805262E-3    4.161177390401669E-3    1.325459742035547E-3    4.223343135175824E-3    4.099577674773836E-1   -1.910433631128316E-1
 8.117347382900000E9     5.043322804618726E-1   -4.333898281485406E-2    1.294246845230746E-3    4.138049290988941E-3    1.379735101581276E-3    4.244681258288662E-3    4.099996838144164E-1   -1.912153956489358E-1
 8.117350424375000E9     5.042388753007482E-1   -4.360847807340662E-2    1.282336502403574E-3    4.145407174797125E-3    1.362228937801863E-3    4.242416150586319E-3    4.098695380896192E-1   -1.914411525223161E-1
 8.117353465850000E9     5.041468035305088E-1   -4.388744484167950E-2    1.289064955122896E-3    4.166799322126759E-3    1.375086484243119E-3    4.223470236384795E-3    4.097640704469906E-1   -1.915608744576646E-1
 8.117356507325000E9     5.040476673777765E-1   -4.404281371928279E-2    1.299972153106680E-3    4.183652143790690E-3    1.345827355326122E-3    4.253337442466593E-3    4.096163239968338E-1   -1.917948690869208E-1
 8.117359548800000E9     5.039966946281917E-1   -4.447949456685858E-2    1.312463501790327E-3    4.205056930879180E-3    1.366299469036961E-3    4.273555369360510E-3    4.095285915922638E-1   -1.919906396163407E-1
 8.117362590275000E9     5.039351528388054E-1   -4.460235695603992E-2    1.343787645449482E-3    4.177155774785372E-3    1.390084286068732E-3    4.225915003798232E-3    4.096046706756142E-1   -1.921652909400021E-1
 8.117365631750000E9     5.041331447458515E-1   -4.480577885056948E-2    1.321014475716671E-3    4.208981028249546E-3    1.425347936694205E-3    4.334233280970032E-3    4.094906829624044E-1   -1.921826046655912E-1
