#  HZ   S   RI   R     50.00 
! Rohde & Schwarz Vector Network Analyzer 
! Rohde-Schwarz,ZNB20-2Port,1311601062101988,3.16
! Created: UTC 3/20/2024, 12:01:32 PM
! freq[Hz]                re:S11                  im:S11                  re:S21                  im:S21                  re:S12                  im:S12                  re:S22                  im:S22
 8.117112949000000E9     5.061135478213884E-1   -2.421643781527434E-2    9.378339853349100E-4    3.806357392902741E-3    9.867549768865056E-4    3.893492709168529E-3    4.159330803588227E-1   -1.760135432585795E-1
 8.117115924925000E9     5.060299131905187E-1   -2.455751351860292E-2    9.239100910722474E-4    3.790361002248435E-3    9.948334549805490E-4    3.912485284234960E-3    4.158733498884232E-1   -1.761397357207639E-1
 8.117118900850000E9     5.060491521690386E-1   -2.467746195386865E-2    9.625973965132652E-4    3.795205463114994E-3    9.873157303843041E-4    3.857623638418078E-3    4.158430879654734E-1   -1.763230606812854E-1
 8.117121876775000E9     5.058933872628248E-1   -2.485453545699208E-2    9.419161482457232E-4    3.817863356905738E-3    9.845869577363058E-4    3.851320003544409E-3    4.158963064096423E-1   -1.766251499136796E-1
 8.117124852700000E9     5.059076161706398E-1   -2.526428031058162E-2    9.477453903311152E-4    3.812063287626262E-3    9.740893945071161E-4    3.904971816635781E-3    4.156821116159613E-1   -1.767736235831250E-1
 8.117127828625000E9     5.059234927984985E-1   -2.540370266313497E-2    9.591670661572771E-4    3.811599430429251E-3    9.766705497668781E-4    3.888333624073272E-3    4.156633665030062E-1   -1.770102700912524E-1
 8.117130804550000E9     5.060314255088724E-1   -2.559249603384308E-2    9.561868902057142E-4    3.812878733915586E-3    1.030107130710546E-3    3.886652768787830E-3    4.156631610794265E-1   -1.770742661336472E-1
 8.117133780475000E9     5.058648918886879E-1   -2.592076072335380E-2    9.627109383917260E-4    3.825392418450672E-3    1.041756986350679E-3    3.856781312764268E-3    4.154049520538627E-1   -1.773372658613906E-1
 8.117136756400000E9     5.058977773145327E-1   -2.600076344426158E-2    9.829294015385221E-4    3.798937026114221E-3    1.031903668598026E-3    3.893751216976980E-3    4.153756924486120E-1   -1.775118468734601E-1
 8.117139732325000E9     5.059252918216974E-1   -2.628842476349282E-2    9.589000811820474E-4    3.816860429390198E-3    1.023087480044997E-3    3.896200546773438E-3    4.152630803443257E-1   -1.777001639424832E-1
 8.117142708250000E9     5.058511911373709E-1   -2.653305573671295E-2    9.367638863500518E-4    3.823132039614447E-3    1.010065906121338E-3    3.862188461552397E-3    4.152297449141482E-1   -1.779842352615900E-1
 8.117145684175000E9     5.058735599392679E-1   -2.676126555298038E-2    9.514819462491518E-4    3.840725360869433E-3    1.058733313762837E-3    3.931032745352753E-3    4.151827804638649E-1   -1.781662074571685E-1
 8.117148660100000E9     5.057892424794533E-1   -2.699464051894571E-2    9.685677325263295E-4    3.824638905163486E-3    1.017275939930416E-3    3.907703832722641E-3    4.151752187834255E-1   -1.782481072244136E-1
 8.117151636025000E9     5.057867330606958E-1   -2.728732798267047E-2    9.633461484509978E-4    3.837495134449991E-3    1.033854981451136E-3    3.891503387350720E-3    4.149982082377655E-1   -1.785837809475298E-1
 8.117154611950000E9     5.058040216106274E-1   -2.757677463555640E-2    9.689109657776804E-4    3.835062173951531E-3    1.039982913388115E-3    3.895213399886595E-3    4.149326207380227E-1   -1.786822808764804E-1
 8.117157587875000E9     5.057790275211831E-1   -2.793083567513768E-2    9.949815742468417E-4    3.851547512454995E-3    1.043795764020850E-3    3.919675585777214E-3    4.147983214746130E-1   -1.788210228230896E-1
 8.117160563800000E9     5.056485818655413E-1   -2.807535093697292E-2    9.736669366427100E-4    3.857077212990659E-3    1.081386113944872E-3    3.924756125120048E-3    4.148377994493643E-1   -1.790672187012119E-1
 8.117163539725000E9     5.056896240982485E-1   -2.824376686463088E-2    9.920523930554907E-4    3.841500621991086E-3    1.075178817700308E-3    3.876079360122793E-3    4.147456191029564E-1   -1.792848151227860E-1
 8.117166515650000E9     5.056587753906036E-1   -2.850192717621304E-2    1.002905566536560E-3    3.849547486655984E-3    1.022343450529958E-3    3.923712158052511E-3    4.147321939124417E-1   -1.794276295294878E-1
 8.117169491575000E9     5.056619150397960E-1   -2.880368273066087E-2    1.002214276006989E-3    3.845174577766926E-3    1.060035515519318E-3    3.893401796917028E-3    4.146742399234332E-1   -1.795935140341566E-1
 8.117172467500000E9     5.055914114907847E-1   -2.904787607899798E-2    9.920380961224624E-4    3.872305274436963E-3    1.019224887407894E-3    3.963003449041597E-3    4.144618833717003E-1   -1.798805264190825E-1
 8.117175443425000E9     5.056192126850321E-1   -2.923809059893343E-2    9.861086683810606E-4    3.856028480588328E-3    1.074804029152289E-3    3.879863123142976E-3    4.144635380814974E-1   -1.801213026704458E-1
 8.117178419350000E9     5.054869931996110E-1   -2.952352044339070E-2    9.755086597382898E-4    3.854444946483470E-3    1.095959360552911E-3    3.924049104799188E-3    4.143541525659580E-1   -1.802838352136685E-1
 8.117181395275000E9     5.056310171248868E-1   -2.981254348429692E-2    1.006207188783222E-3    3.890297932152800E-3    1.046010199413929E-3    3.944468724983934E-3    4.143228223885084E-1   -1.803604342251210E-1
 8.117184371200000E9     5.055452365488269E-1   -2.999817596928890E-2    1.032768604269399E-3    3.884885018037227E-3    1.062525434938331E-3    3.993036483443562E-3    4.142101518723938E-1   -1.806489503515885E-1
 8.117187347125000E9     5.055316094948092E-1   -3.031828867776409E-2    1.031159762976442E-3    3.892632207037311E-3    1.087186633694160E-3    3.970128025044230E-3    4.139480160044430E-1   -1.807753806712305E-1
 8.117190323050000E9     5.054756111066403E-1   -3.041494633756645E-2    9.943524068598381E-4    3.881769770670653E-3    1.044854211602688E-3    3.934990010944205E-3    4.140907110526255E-1   -1.810514440232788E-1
 8.117193298975000E9     5.054876724948486E-1   -3.073005208951188E-2    1.005459122726902E-3    3.892360563445892E-3    1.065968539098171E-3    3.951227392917586E-3    4.139203931684780E-1   -1.812975833921044E-1
 8.117196274900000E9     5.055247055768043E-1   -3.087761813054968E-2    1.030853220035951E-3    3.883265905253142E-3    1.078607840698295E-3    3.942522806759036E-3    4.139420151027855E-1   -1.814114694019232E-1
 8.117199250825000E9     5.054226675677274E-1   -3.116624229151794E-2    1.028644731784007E-3    3.893814400898780E-3    1.094074820300403E-3    3.965458296903830E-3    4.138244828805797E-1   -1.816529860273108E-1
 8.117202226750000E9     5.053834123331732E-1   -3.147914614034052E-2    1.037283959902823E-3    3.888475553316702E-3    1.078207726441367E-3    4.010585141654672E-3    4.136174568685840E-1   -1.817586939360787E-1
 8.117205202675000E9     5.054012616222713E-1   -3.171317812234648E-2    1.040452747096370E-3    3.886699125662090E-3    1.117915492035511E-3    3.963894011621892E-3    4.136709310495510E-1   -1.819073770437546E-1
 8.117208178600000E9     5.054763517244742E-1   -3.194120514387638E-2    1.048981443793695E-3    3.902913500336798E-3    1.123952028111007E-3    3.936660563545501E-3    4.136275635964671E-1   -1.821331935960231E-1
 8.117211154525000E9     5.053560199567083E-1   -3.219759932652643E-2    1.040177855572015E-3    3.937713489266822E-3    1.139031356936624E-3    4.000871720707650E-3    4.136342132555395E-1   -1.823929992629023E-1
 8.117214130450000E9     5.053670923325227E-1   -3.239953865002074E-2    1.053150659993487E-3    3.914541844819979E-3    1.122807318610186E-3    4.011565441494355E-3    4.135445431948903E-1   -1.826657640687252E-1
 8.117217106375000E9     5.052825996804533E-1   -3.264333126708215E-2    1.063620766227008E-3    3.919684204038308E-3    1.135409358028588E-3    3.968166401597849E-3    4.134280637264947E-1   -1.826764776411634E-1
 8.117220082300000E9     5.053874726553784E-1   -3.282785615673971E-2    1.067787622722078E-3    3.898121625883005E-3    1.117098517740302E-3    3.988221263843449E-3    4.131999927517698E-1   -1.831519906194510E-1
 8.117223058225000E9     5.052503613201301E-1   -3.310306708049649E-2    1.058489151181866E-3    3.930334089732041E-3    1.150830492217944E-3    4.001863167410268E-3    4.131217810674543E-1   -1.832377856283021E-1
 8.117226034150000E9     5.051586423395298E-1   -3.341222454829227E-2    1.065211767709624E-3    3.939848413436532E-3    1.128707614951985E-3    4.009920504505209E-3    4.131211070877120E-1   -1.833774364328996E-1
 8.117229010075000E9     5.053289514656264E-1   -3.361700666138367E-2    1.077883854473179E-3    3.930382337145773E-3    1.124424183638418E-3    3.978737519247468E-3    4.130178060629867E-1   -1.835940807347463E-1
 8.117231986000000E9     5.052292055470157E-1   -3.383081537699908E-2    1.085555661360990E-3    3.939695305923426E-3    1.139621929884568E-3    4.011852828563874E-3    4.130131647059851E-1   -1.837504849169417E-1
 8.117234961925000E9     5.052881505678281E-1   -3.406266595921056E-2    1.084642126369234E-3    3.943600079514137E-3    1.123239602778990E-3    3.996465450365954E-3    4.129276837581649E-1   -1.840287542003762E-1
 8.117237937850000E9     5.051725160451092E-1   -3.428931649385646E-2    1.084496518843179E-3    3.939266796162472E-3    1.132973233945797E-3    4.002147887729322E-3    4.128454447243696E-1   -1.839509442333458E-1
 8.117240913775000E9     5.051046305256809E-1   -3.454346367459118E-2    1.066739146614854E-3    3.962778888035891E-3    1.182270932586652E-3    4.048004074334512E-3    4.126353909709990E-1   -1.843917288607980E-1
 8.117243889700000E9     5.052016657474282E-1   -3.492594278453975E-2    1.069169465502273E-3    3.971118567014958E-3    1.147090959475768E-3    4.044100971323531E-3    4.126539101085962E-1   -1.845075248779159E-1
 8.117246865625000E9     5.050899778595608E-1   -3.512653597349178E-2    1.096384355510189E-3    3.971078023712713E-3    1.140575890183762E-3    4.030465024728000E-3    4.125100609872438E-1   -1.847505494679995E-1
 8.117249841550000E9     5.050551533228371E-1   -3.532407831464471E-2    1.092534413261655E-3    3.949534703722439E-3    1.118459630997109E-3    4.014046473470069E-3    4.124968676879717E-1   -1.848726760773949E-1
 8.117252817475000E9     5.049844345815554E-1   -3.557012254908221E-2    1.135996592506946E-3    3.954070320247137E-3    1.149194433373115E-3    4.020858841644049E-3    4.124052883350822E-1   -1.850783350497360E-1
 8.117255793400000E9     5.049125218130310E-1   -3.585300813470926E-2    1.108267847639445E-3    3.992366889784487E-3    1.118507354993645E-3    4.050544798476657E-3    4.125461103259112E-1   -1.853549712701802E-1
 8.117258769325000E9     5.049634804669130E-1   -3.597171795033922E-2    1.112237066664152E-3    3.978599140965280E-3    1.146592630726250E-3    4.080893874373523E-3    4.122418891879748E-1   -1.855013821031960E-1
 8.117261745250000E9     5.049364604314232E-1   -3.629328305772532E-2    1.126687962297428E-3    3.984062069868209E-3    1.212223787992103E-3    4.081490403700057E-3    4.122330033531998E-1   -1.857795131925557E-1
 8.117264721175000E9     5.049617604428103E-1   -3.654053085079797E-2    1.153422858541899E-3    3.999403818693925E-3    1.173390176278213E-3    4.080512834187157E-3    4.122111233330789E-1   -1.858314567169823E-1
 8.117267697100000E9     5.048828274163114E-1   -3.678736365360284E-2    1.128649041337319E-3    3.997175351501764E-3    1.184749125796360E-3    4.053925332513223E-3    4.120989755906737E-1   -1.859281146216610E-1
 8.117270673025000E9     5.048444403625419E-1   -3.695769933975529E-2    1.108929706445084E-3    4.004524657090575E-3    1.182970449857810E-3    4.105416119095381E-3    4.119533417685935E-1   -1.862321410800587E-1
 8.117273648950000E9     5.047873537445051E-1   -3.738119934069847E-2    1.115389518302323E-3    3.995335508015162E-3    1.175504245733029E-3    4.036154528152129E-3    4.119861474506467E-1   -1.864365162904527E-1
 8.117276624875000E9     5.048238341401776E-1   -3.753098954768399E-2    1.147427638889883E-3    4.013122499896294E-3    1.138361553710914E-3    4.082900406652270E-3    4.118634836286194E-1   -1.866134705297443E-1
 8.117279600800000E9     5.048217302490838E-1   -3.779413137024852E-2    1.143319360416518E-3    4.008924047106489E-3    1.177846250351290E-3    4.105865465064315E-3    4.117471988400574E-1   -1.868948174362571E-1
 8.117282576725000E9     5.046969414359359E-1   -3.799574557862017E-2    1.155723536157218E-3    4.021928471084636E-3    1.188835289784299E-3    4.036026463178993E-3    4.117351721178600E-1   -1.870393652484659E-1
 8.117285552650000E9     5.046703813135511E-1   -3.831770436527156E-2    1.143563806638001E-3    4.031849258453002E-3    1.214369892702841E-3    4.089351059721271E-3    4.114802206480451E-1   -1.872405755407208E-1
 8.117288528575000E9     5.046553467952011E-1   -3.851918074705626E-2    1.144022026627926E-3    3.995970940566285E-3    1.249166970306724E-3    4.138051505752629E-3    4.115210032596531E-1   -1.873909566698047E-1
 8.117291504500000E9     5.046053154249677E-1   -3.877548698908084E-2    1.163833219068577E-3    4.027666163389136E-3    1.212452254186680E-3    4.112256089800025E-3    4.113281046376683E-1   -1.875706105946400E-1
 8.117294480425000E9     5.046485738753788E-1   -3.899546961789043E-2    1.193239285004104E-3    4.036749635447170E-3    1.229812278572362E-3    4.094720508990349E-3    4.113446438406900E-1   -1.878586052344373E-1
 8.117297456350000E9     5.045767553500767E-1   -3.930108186041219E-2    1.185778980880631E-3    4.052128431617647E-3    1.200215530538139E-3    4.110019692462137E-3    4.112476812788298E-1   -1.880623718103299E-1
 8.117300432275000E9     5.045103820440164E-1   -3.939227085174738E-2    1.178461495239156E-3    4.037800702977539E-3    1.221423518126808E-3    4.134825387872117E-3    4.112691842595712E-1   -1.881238889174877E-1
 8.117303408200000E9     5.044497686907644E-1   -3.974092011138822E-2    1.209888140552860E-3    4.085610060199259E-3    1.227101432064095E-3    4.125412549489264E-3    4.111646616388019E-1   -1.882792728892892E-1
 8.117306384125000E9     5.044164449829429E-1   -3.999616050923194E-2    1.172992833099662E-3    4.067987591671151E-3    1.245938742717851E-3    4.170504582251960E-3    4.110028661783929E-1   -1.885882087435055E-1
 8.117309360050000E9     5.045530019471512E-1   -4.027004328804027E-2    1.205383187656639E-3    4.076231801849722E-3    1.246512306760652E-3    4.125561823285454E-3    4.108764000450230E-1   -1.886603573263669E-1
 8.117312335975000E9     5.044058957838298E-1   -4.045540840950861E-2    1.168806694856832E-3    4.100212829240272E-3    1.251524428664062E-3    4.125508323438496E-3    4.108752055650611E-1   -1.890321483440552E-1
 8.117315311900000E9     5.043821952474806E-1   -4.091706121202508E-2    1.209488910295347E-3    4.082508515059343E-3    1.254902755776910E-3    4.146244407229369E-3    4.107301922422212E-1   -1.892441357735736E-1
 8.117318287825000E9     5.042956584699242E-1   -4.104387603608128E-2    1.197071273134948E-3    4.100135365378992E-3    1.237275917486725E-3    4.177909584766220E-3    4.106839806302366E-1   -1.893312095936417E-1
 8.117321263750000E9     5.044069846852808E-1   -4.131858979685145E-2    1.204987539466917E-3    4.096371861208393E-3    1.275999557558364E-3    4.142410237933026E-3    4.105871162757187E-1   -1.894708100388490E-1
 8.117324239675000E9     5.043311777534599E-1   -4.155014230300667E-2    1.219293440831768E-3    4.097428057893388E-3    1.272831586392162E-3    4.113190909618903E-3    4.104330920178698E-1   -1.896921124613054E-1
 8.117327215600000E9     5.041047668331098E-1   -4.180299380259054E-2    1.210140413952654E-3    4.113256392471691E-3    1.250286399786088E-3    4.170167210317363E-3    4.104354212776294E-1   -1.899988484042928E-1
 8.117330191525000E9     5.042410918547257E-1   -4.209646909279242E-2    1.228120398733187E-3    4.131409813131100E-3    1.303673321484873E-3    4.152603402878718E-3    4.103320830200719E-1   -1.902045408560841E-1
 8.117333167450000E9     5.041260074283098E-1   -4.223743415958454E-2    1.228813992350333E-3    4.114243627242151E-3    1.280942544723218E-3    4.199806045527086E-3    4.103075535787863E-1   -1.903354907953471E-1
 8.117336143375000E9     5.042457864612735E-1   -4.257142257873753E-2    1.241295538787735E-3    4.111729064880762E-3    1.306447571720887E-3    4.228261385347184E-3    4.101195466660267E-1   -1.905847702829694E-1
 8.117339119300000E9     5.041727526312204E-1   -4.266723750048276E-2    1.244788748680472E-3    4.111861202825293E-3    1.265605891724508E-3    4.176139821501579E-3    4.102178663459941E-1   -1.906958456275334E-1
 8.117342095225000E9     5.041517341065510E-1   -4.305176187298612E-2    1.245491276576572E-3    4.141113815292577E-3    1.348035810877635E-3    4.235913147295096E-3    4.100171545417648E-1   -1.908726021654053E-1
 8.117345071150000E9     5.041606752273843E-1   -4.326940771414212E-2    1.302606023560413E-3    4.115757779505612E-3    1.342869991382887E-3    4.218990138797156E-3    4.100333622560165E-1   -1.912263733195435E-1
 8.117348047075000E9     5.040548149769211E-1   -4.354476814386422E-2    1.268363611093875E-3    4.145422831862578E-3    1.320191579400370E-3    4.219001375083409E-3    4.097534569115916E-1   -1.912901137982521E-1
 8.117351023000000E9     5.039141751753587E-1   -4.373558028751030E-2    1.286009829585191E-3    4.183546676296173E-3    1.301847372540907E-3    4.241519198819474E-3    4.098326124275657E-1   -1.915252558299313E-1
 8.117353998925000E9     5.039085074035162E-1   -4.409202187893088E-2    1.281000601846810E-3    4.158276142952455E-3    1.349413238312528E-3    4.236943944662491E-3    4.097889366225437E-1   -1.917345718408715E-1
 8.117356974850000E9     5.038888008688670E-1   -4.433547896141165E-2    1.267831526455874E-3    4.177119973885664E-3    1.326211639109017E-3    4.275512849142777E-3    4.096059000060299E-1   -1.918803167166265E-1
 8.117359950775000E9     5.039752567003865E-1   -4.458191596616221E-2    1.307419362518175E-3    4.199092248820069E-3    1.360974267539569E-3    4.266650091255646E-3    4.096858496796638E-1   -1.920889384406099E-1
 8.117362926700000E9     5.038867251146606E-1   -4.483348377793241E-2    1.326435218004238E-3    4.240979898486802E-3    1.335677108764663E-3    4.277041606602885E-3    4.095321465097467E-1   -1.922172384539911E-1
 8.117365902625000E9     5.037842219227917E-1   -4.515081376416422E-2    1.307498179247322E-3    4.207651366807241E-3    1.377594543378783E-3    4.277502239832871E-3    4.093136428796490E-1   -1.924180358352766E-1
 8.117368878550000E9     5.038036675794836E-1   -4.534655179776798E-2    1.309577829271490E-3    4.177236572764217E-3    1.337642948923253E-3    4.279574167451424E-3    4.093101909085036E-1   -1.926151573995725E-1
 8.117371854475000E9     5.037055159939080E-1   -4.562053406485596E-2    1.317143172674449E-3    4.210970503730985E-3    1.369206699353433E-3    4.294102186839668E-3    4.091814755197990E-1   -1.928693881907256E-1
 8.117374830400000E9     5.037501187914173E-1   -4.584002817008954E-2    1.311708589611577E-3    4.202982424555790E-3    1.386854773915255E-3    4.292667410879703E-3    4.091638091845511E-1   -1.930279396006995E-1
 8.117377806325000E9     5.038001023655087E-1   -4.615672380695303E-2    1.321747684303708E-3    4.231446292583130E-3    1.356718150315559E-3    4.288540781715278E-3    4.091268955876728E-1   -1.931945298931006E-1
 8.117380782250000E9     5.036858255378447E-1   -4.640786923119615E-2    1.335388742143348E-3    4.226783815869556E-3    1.398157215422776E-3    4.316675260027237E-3    4.090204043033261E-1   -1.933898637101577E-1
