#  HZ   S   RI   R     50.00 
! Rohde & Schwarz Vector Network Analyzer 
! Rohde-Schwarz,ZNB20-2Port,1311601062101988,3.16
! Created: UTC 3/20/2024, 12:01:54 PM
! freq[Hz]                re:S11                  im:S11                  re:S21                  im:S21                  re:S12                  im:S12                  re:S22                  im:S22
 8.117162830000000E9     5.059859370585447E-1   -2.793558478908858E-2    9.868756181901596E-4    3.824074457634840E-3    1.048609302741448E-3    3.904235357212557E-3    4.148775407134186E-1   -1.792490979052535E-1
 8.117165610650000E9     5.059108401069694E-1   -2.811855397826058E-2    9.706807504538527E-4    3.848223250324149E-3    1.026689004398254E-3    3.933575804008516E-3    4.147541149485989E-1   -1.794556182011944E-1
 8.117168391300000E9     5.058705581103691E-1   -2.835510803973370E-2    9.703640079853068E-4    3.856249871085145E-3    1.098721848151841E-3    3.896742202052854E-3    4.147055517601571E-1   -1.796354172314829E-1
 8.117171171950000E9     5.058516736130567E-1   -2.856100185289347E-2    9.914811817431605E-4    3.854679885987491E-3    1.031319751794230E-3    3.954071869279654E-3    4.145301514905512E-1   -1.797634070285908E-1
 8.117173952600000E9     5.058715834754303E-1   -2.888330714393529E-2    1.000527906404784E-3    3.836128790149786E-3    1.049875997910490E-3    3.914964752042798E-3    4.144833494327963E-1   -1.799347885886357E-1
 8.117176733250000E9     5.058856593173121E-1   -2.895042186343842E-2    9.873436589973386E-4    3.836957173559787E-3    1.044638563666572E-3    3.955117132744355E-3    4.145105092104203E-1   -1.801141546199008E-1
 8.117179513900000E9     5.057925686457695E-1   -2.918910174111922E-2    1.003525519581815E-3    3.871411694259600E-3    1.042839130932120E-3    3.923058964222372E-3    4.144959833893821E-1   -1.803977930225335E-1
 8.117182294550000E9     5.058324755927766E-1   -2.954902999429933E-2    9.882541832310541E-4    3.863879913804068E-3    1.084512393409089E-3    3.966943745354506E-3    4.144334576691968E-1   -1.804055618940126E-1
 8.117185075200000E9     5.058283563554423E-1   -2.976713480216768E-2    1.004048773780537E-3    3.862943166684588E-3    1.045882346216710E-3    3.952594624073087E-3    4.142353438459384E-1   -1.807287891264701E-1
 8.117187855850000E9     5.058500832168189E-1   -3.002177510303973E-2    1.013445866344942E-3    3.859447951363531E-3    1.102422578598492E-3    3.926707420051105E-3    4.141661009461383E-1   -1.808736121953154E-1
 8.117190636500000E9     5.057478092952862E-1   -3.007942566759531E-2    9.978906515501020E-4    3.864348493786283E-3    1.041237173483023E-3    3.939833327494782E-3    4.140836779478133E-1   -1.811263255905959E-1
 8.117193417150000E9     5.057380636169098E-1   -3.037696798102997E-2    1.029588298658050E-3    3.889119358345596E-3    1.062968335162954E-3    3.956634499698405E-3    4.141291489131535E-1   -1.813181248714251E-1
 8.117196197800000E9     5.057046756060884E-1   -3.063331863685460E-2    1.016060588266762E-3    3.900473789258794E-3    1.070228526574536E-3    3.973070630262020E-3    4.140167997600917E-1   -1.813404715037825E-1
 8.117198978450000E9     5.057199806073412E-1   -3.095876116621278E-2    1.023863916698206E-3    3.893581085016852E-3    1.072299654085948E-3    3.939255561945860E-3    4.139997810685874E-1   -1.817131230998337E-1
 8.117201759100000E9     5.057465502506936E-1   -3.107934490725864E-2    9.987977463045352E-4    3.903324012394310E-3    1.074001271917983E-3    3.942266892256724E-3    4.139321841813282E-1   -1.817295638777909E-1
 8.117204539750000E9     5.056199105949362E-1   -3.123895032365438E-2    1.035269301607307E-3    3.901411616612014E-3    1.145984546565423E-3    3.953037125403082E-3    4.136904061248441E-1   -1.819453308562362E-1
 8.117207320400000E9     5.056401022954986E-1   -3.155318828306378E-2    1.026510450033993E-3    3.904847625126535E-3    1.091354134117589E-3    3.980771313830809E-3    4.137132116561405E-1   -1.819874597612011E-1
 8.117210101050000E9     5.056412963645871E-1   -3.175076482981446E-2    1.031416655364633E-3    3.887058584122900E-3    1.081690899860243E-3    3.970558245673065E-3    4.135951010796896E-1   -1.822636067772828E-1
 8.117212881700000E9     5.055381772791849E-1   -3.210046011554771E-2    1.031038766199599E-3    3.886331441265422E-3    1.051214470714574E-3    3.955919642818707E-3    4.136696118790388E-1   -1.825154860935251E-1
 8.117215662350000E9     5.054948266289756E-1   -3.227128050619784E-2    1.047653855387884E-3    3.909851635431634E-3    1.074839456923845E-3    3.965273919315944E-3    4.134612784968167E-1   -1.826714359574037E-1
 8.117218443000000E9     5.056022334882014E-1   -3.256422912776773E-2    1.057668773409964E-3    3.890333583293240E-3    1.104934416828779E-3    3.991271714100382E-3    4.134307262970227E-1   -1.828358410791172E-1
 8.117221223650000E9     5.054813487397793E-1   -3.267287123088548E-2    1.060056160133729E-3    3.917591566759774E-3    1.123347088006361E-3    3.989218898801722E-3    4.133343237101963E-1   -1.830893010067199E-1
 8.117224004300000E9     5.055766000575533E-1   -3.284702021030908E-2    1.056393928858190E-3    3.926800573817197E-3    1.139520254074116E-3    3.945910731712947E-3    4.132377743413926E-1   -1.832561513362006E-1
 8.117226784950000E9     5.055017136657770E-1   -3.305888556639503E-2    1.085483446519053E-3    3.909951419456254E-3    1.144347223585802E-3    3.955580598884076E-3    4.131865482894787E-1   -1.834200226627192E-1
 8.117229565600000E9     5.055531971856616E-1   -3.328452820148606E-2    1.074829637022276E-3    3.923900298533034E-3    1.126680675770055E-3    3.993750923126268E-3    4.130478308745861E-1   -1.835674851393705E-1
 8.117232346250000E9     5.055212802460233E-1   -3.353597816103842E-2    1.081141597625642E-3    3.914857305427727E-3    1.143224056960473E-3    3.999769176465085E-3    4.129624268948822E-1   -1.837450455481938E-1
 8.117235126900000E9     5.054027991135982E-1   -3.389672727720736E-2    1.072384712074566E-3    3.910711219030222E-3    1.132043427604429E-3    3.996568047265683E-3    4.129537841376269E-1   -1.837968363363761E-1
 8.117237907550000E9     5.053892828809556E-1   -3.404680626382862E-2    1.095828485176979E-3    3.943961883135100E-3    1.109080893414888E-3    3.990696293634933E-3    4.129193883040986E-1   -1.842480366514956E-1
 8.117240688200000E9     5.053846465849563E-1   -3.421619210053640E-2    1.064469920628227E-3    3.940261781775393E-3    1.120160137271227E-3    4.044733936435037E-3    4.129475104228623E-1   -1.844470054626696E-1
 8.117243468850000E9     5.054452770776162E-1   -3.447913346748126E-2    1.070670670721810E-3    3.942249749257771E-3    1.164210171456045E-3    3.991237240929336E-3    4.127542620103719E-1   -1.845529824172684E-1
 8.117246249500000E9     5.053745982775137E-1   -3.471150654723378E-2    1.081435017327596E-3    3.952200226014752E-3    1.176070183372982E-3    4.028628860568630E-3    4.126879860010293E-1   -1.846544463058761E-1
 8.117249030150000E9     5.053480799447978E-1   -3.499496417463137E-2    1.094763027788761E-3    3.961916732682961E-3    1.161834591779446E-3    4.017154637126994E-3    4.126832995541264E-1   -1.849139516699431E-1
 8.117251810800000E9     5.052983485703442E-1   -3.504959556367918E-2    1.105010156921426E-3    3.967100058238113E-3    1.156351266229384E-3    4.014953529604963E-3    4.125770618853225E-1   -1.850300364759781E-1
 8.117254591450000E9     5.053255871668217E-1   -3.536939009097763E-2    1.103698070718141E-3    3.956433685486352E-3    1.120285684971270E-3    3.962925117076978E-3    4.124882703450576E-1   -1.852376302324011E-1
 8.117257372100000E9     5.052305274358575E-1   -3.561759509937240E-2    1.100994565450224E-3    3.975594163178638E-3    1.146576143501025E-3    4.037835524223752E-3    4.123978080835484E-1   -1.853054048461529E-1
 8.117260152750000E9     5.051722917707436E-1   -3.584208012686887E-2    1.117526667537533E-3    3.963952684956895E-3    1.140176719849374E-3    4.097459326791784E-3    4.124050902299164E-1   -1.855481786228169E-1
 8.117262933400000E9     5.050717494215460E-1   -3.612871518792057E-2    1.086000030596457E-3    3.945957438091546E-3    1.171829748992255E-3    4.024847461051777E-3    4.122045975371639E-1   -1.858024006865212E-1
 8.117265714050000E9     5.051134650654542E-1   -3.633094737987488E-2    1.111646442036892E-3    3.978678638293812E-3    1.189152852949138E-3    4.052429902898018E-3    4.121663980394806E-1   -1.859068027861407E-1
 8.117268494700000E9     5.051117681485476E-1   -3.650629490553754E-2    1.124677821157434E-3    3.974840732788297E-3    1.185001176899585E-3    4.106916415341558E-3    4.121011315849296E-1   -1.860832519196208E-1
 8.117271275350000E9     5.050537322764942E-1   -3.679977700807226E-2    1.109413454313358E-3    3.977587771512185E-3    1.185405014571681E-3    4.079504022325073E-3    4.121287687149092E-1   -1.862665998326327E-1
 8.117274056000000E9     5.049770023812062E-1   -3.699205646294227E-2    1.123892583961188E-3    3.980612588806155E-3    1.201222574761781E-3    4.039686201663778E-3    4.119770438532742E-1   -1.865155106662146E-1
 8.117276836650000E9     5.051405405738169E-1   -3.723864539091559E-2    1.112050261932680E-3    4.002388502405550E-3    1.168419121441943E-3    4.095836364741620E-3    4.118230264039187E-1   -1.867365230330082E-1
 8.117279617300000E9     5.049589815759032E-1   -3.744462982492221E-2    1.151515941775850E-3    3.989858422190427E-3    1.174436465363027E-3    4.084343762386108E-3    4.118080031518318E-1   -1.869074839421362E-1
 8.117282397950000E9     5.049230674465447E-1   -3.774775036588646E-2    1.126410644699984E-3    4.010329118140950E-3    1.192533992430689E-3    4.073952821379330E-3    4.116119843684477E-1   -1.871193886689818E-1
 8.117285178600000E9     5.049326136527402E-1   -3.805548167876308E-2    1.132206195525393E-3    3.984615046131330E-3    1.183219585122198E-3    4.101043972628676E-3    4.116114138319295E-1   -1.871413022300560E-1
 8.117287959250000E9     5.048575727517881E-1   -3.807669584706200E-2    1.124484513637151E-3    4.016939091623403E-3    1.208543516683240E-3    4.088307284952259E-3    4.115724256695200E-1   -1.874765189772492E-1
 8.117290739900000E9     5.048833392852463E-1   -3.842211046269657E-2    1.141430718761422E-3    4.033390402511767E-3    1.209166909395590E-3    4.093578389907264E-3    4.115320098301589E-1   -1.875903827763070E-1
 8.117293520550000E9     5.047577899750942E-1   -3.857889301589616E-2    1.155885826188921E-3    4.002081397901070E-3    1.219408947305985E-3    4.129467776113927E-3    4.114037986940221E-1   -1.877912100321191E-1
 8.117296301200000E9     5.048601986724307E-1   -3.886155438187058E-2    1.161039948116439E-3    4.044140537044307E-3    1.185900314940258E-3    4.125198569071120E-3    4.115308422874703E-1   -1.879797716387757E-1
 8.117299081850000E9     5.048484885195038E-1   -3.913551689320392E-2    1.134127642785565E-3    4.010307786778288E-3    1.243907781394040E-3    4.109785557173041E-3    4.111987271766923E-1   -1.880866981074755E-1
 8.117301862500000E9     5.047204217736150E-1   -3.940653219515587E-2    1.145166904696994E-3    4.026063832691652E-3    1.228415047176399E-3    4.077959536035594E-3    4.113291859535377E-1   -1.882951874730260E-1
 8.117304643150000E9     5.048376460090844E-1   -3.962157484911517E-2    1.179654326191354E-3    4.030347298194903E-3    1.237884821906997E-3    4.126547937141394E-3    4.112145288546754E-1   -1.884197652791541E-1
 8.117307423800000E9     5.047445448145556E-1   -3.976451603797638E-2    1.197071722170372E-3    4.062717209183104E-3    1.230418229117858E-3    4.121318460781695E-3    4.110951042945175E-1   -1.886504650406042E-1
 8.117310204450000E9     5.047511903406421E-1   -3.993635766436703E-2    1.166656039942889E-3    4.063720956281033E-3    1.220499277365782E-3    4.134280090914140E-3    4.109819882887727E-1   -1.888102063743463E-1
 8.117312985100000E9     5.047067368401035E-1   -4.028363971790173E-2    1.187849979395255E-3    4.071187626057926E-3    1.265212350791127E-3    4.144716962486234E-3    4.109804510999352E-1   -1.890862079018841E-1
 8.117315765750000E9     5.047293736222102E-1   -4.057533668247765E-2    1.191374288439562E-3    4.070356062016283E-3    1.255162105097629E-3    4.078040877462117E-3    4.108155548736261E-1   -1.893282671056773E-1
 8.117318546400000E9     5.046116669456422E-1   -4.072780941963729E-2    1.187438798178838E-3    4.042634848229723E-3    1.228579042439847E-3    4.129552554142110E-3    4.108998903574418E-1   -1.893031654703480E-1
 8.117321327050000E9     5.045437932231526E-1   -4.093911099399548E-2    1.211424905801834E-3    4.062616047272315E-3    1.219005772452055E-3    4.187430779765492E-3    4.107061263976071E-1   -1.896188772014129E-1
 8.117324107700000E9     5.044218935001779E-1   -4.129093287557611E-2    1.212159534611197E-3    4.066306090292083E-3    1.236522487795344E-3    4.135944338450528E-3    4.106632820239645E-1   -1.897988181243430E-1
 8.117326888350000E9     5.045677854225946E-1   -4.133844344162597E-2    1.201836030704274E-3    4.080855733556912E-3    1.259329464779633E-3    4.178353836849745E-3    4.105620712049573E-1   -1.899097233795016E-1
 8.117329669000000E9     5.044517914856493E-1   -4.178431605151200E-2    1.200629663117473E-3    4.095974348711405E-3    1.234721733531474E-3    4.184319311896451E-3    4.105133264143008E-1   -1.900417843899766E-1
 8.117332449650000E9     5.044131118109227E-1   -4.191902681349569E-2    1.200625767253163E-3    4.090569648781398E-3    1.270104922901930E-3    4.178742820741286E-3    4.104048997980723E-1   -1.903409409649449E-1
 8.117335230300000E9     5.044493056589496E-1   -4.204446715751278E-2    1.227744373307809E-3    4.084607913655639E-3    1.272641629658825E-3    4.212351162795767E-3    4.103952794360558E-1   -1.905556631579700E-1
 8.117338010950000E9     5.045064340034970E-1   -4.236195107288718E-2    1.250737625939181E-3    4.115314111867568E-3    1.309683583792550E-3    4.205790247316439E-3    4.103513669405526E-1   -1.905992626235709E-1
 8.117340791600000E9     5.043894305229911E-1   -4.256078524238988E-2    1.223959536759973E-3    4.125410474715807E-3    1.321547825770640E-3    4.192152017564101E-3    4.101818558899735E-1   -1.908038193638625E-1
 8.117343572250000E9     5.043135564068921E-1   -4.293102418943737E-2    1.246772589851273E-3    4.088980879837397E-3    1.222428486108780E-3    4.210174457812662E-3    4.101656242913856E-1   -1.910131943489812E-1
 8.117346352900000E9     5.044246530742086E-1   -4.321357865993941E-2    1.268010898017996E-3    4.107734730676830E-3    1.295649893911559E-3    4.194243448750138E-3    4.100522433892176E-1   -1.912085010259945E-1
 8.117349133550000E9     5.043864562755598E-1   -4.335437386885163E-2    1.268312490122795E-3    4.121845270255936E-3    1.280718361564710E-3    4.177789370232281E-3    4.100634468883461E-1   -1.913539637078632E-1
 8.117351914200000E9     5.041964597314471E-1   -4.351890904834592E-2    1.274227847156743E-3    4.144075267217679E-3    1.325252858474091E-3    4.194991905945709E-3    4.098236136820403E-1   -1.915781831460683E-1
 8.117354694850000E9     5.041356868715746E-1   -4.368845375828435E-2    1.258117517783328E-3    4.160331072195103E-3    1.313454960644637E-3    4.193661567061678E-3    4.098399884466364E-1   -1.917301669954040E-1
 8.117357475500000E9     5.041911425431800E-1   -4.400818667002494E-2    1.258028303616486E-3    4.165009281108186E-3    1.285652040759157E-3    4.226208687044310E-3    4.096844398135746E-1   -1.918730996537147E-1
 8.117360256150000E9     5.041991397980884E-1   -4.427131066185284E-2    1.283676194140345E-3    4.161734522812300E-3    1.344249192459964E-3    4.194296413863825E-3    4.097161341286968E-1   -1.921369996452433E-1
 8.117363036800000E9     5.041804128709694E-1   -4.451131743495809E-2    1.270266192296491E-3    4.147107873058354E-3    1.340037053742009E-3    4.217101144897256E-3    4.094832695885560E-1   -1.921581602576861E-1
 8.117365817450000E9     5.041876821077759E-1   -4.477549161103236E-2    1.285749852469799E-3    4.171944522252150E-3    1.319502621216942E-3    4.264476807673003E-3    4.095282796711701E-1   -1.925330293852174E-1
 8.117368598100000E9     5.040530414912368E-1   -4.502286954094429E-2    1.308812560134285E-3    4.172753950271180E-3    1.324403537278337E-3    4.267210508628438E-3    4.093489308206953E-1   -1.927519709266202E-1
 8.117371378750000E9     5.040455742453460E-1   -4.517328019162855E-2    1.287467427062128E-3    4.197692555761514E-3    1.329377767991943E-3    4.250574217903587E-3    4.093027616762444E-1   -1.927952242804632E-1
 8.117374159400000E9     5.040277073707546E-1   -4.536438483762580E-2    1.290723993627259E-3    4.200882083691414E-3    1.327347568300759E-3    4.296186967055351E-3    4.091412550365380E-1   -1.931364228442826E-1
 8.117376940050000E9     5.039763969212998E-1   -4.566161374802507E-2    1.305579254201536E-3    4.208930825965104E-3    1.368132497029984E-3    4.227822776605145E-3    4.091925991689863E-1   -1.932439063770057E-1
 8.117379720700000E9     5.039507888630328E-1   -4.601840789321174E-2    1.294350108248196E-3    4.204773905631468E-3    1.346870294709963E-3    4.277357052673908E-3    4.090057433203937E-1   -1.934533890281613E-1
 8.117382501350000E9     5.038734004694689E-1   -4.616693860893663E-2    1.297962381912564E-3    4.235439061153258E-3    1.397008804378625E-3    4.297837002542533E-3    4.090750362055384E-1   -1.935412061948044E-1
 8.117385282000000E9     5.038573492216445E-1   -4.645240107241969E-2    1.336607409504869E-3    4.220169039581103E-3    1.409968532949963E-3    4.301092336301923E-3    4.088689837081912E-1   -1.937942003340528E-1
 8.117388062650000E9     5.037937448994260E-1   -4.672617666998066E-2    1.319756521566218E-3    4.239693498179165E-3    1.366399805209910E-3    4.270588104445219E-3    4.088244122299419E-1   -1.937523791201077E-1
 8.117390843300000E9     5.038312099462977E-1   -4.693753604185388E-2    1.352640746185246E-3    4.255696633767984E-3    1.385304648593156E-3    4.314455549330626E-3    4.088161084425126E-1   -1.939310158224901E-1
 8.117393623950000E9     5.037881964031297E-1   -4.722656003104554E-2    1.352486280388638E-3    4.244110146335522E-3    1.379239714769655E-3    4.299776481457978E-3    4.087597896127298E-1   -1.943159874461123E-1
 8.117396404600000E9     5.037687699870269E-1   -4.749611292983512E-2    1.354411593282638E-3    4.233189533055433E-3    1.402687296344279E-3    4.293692682040827E-3    4.086033073057747E-1   -1.943304194295720E-1
 8.117399185250000E9     5.036766696863976E-1   -4.774972597631480E-2    1.380229840673044E-3    4.262775483774782E-3    1.411749263298586E-3    4.355763153975130E-3    4.086090004074617E-1   -1.945838722442080E-1
 8.117401965900000E9     5.036687284781763E-1   -4.794401704916738E-2    1.371177794822788E-3    4.277744223128085E-3    1.462806018596071E-3    4.354511347306252E-3    4.084486950585459E-1   -1.947573268993958E-1
 8.117404746550000E9     5.034576322295025E-1   -4.825491287991953E-2    1.361285316037045E-3    4.273931667099684E-3    1.419726368446882E-3    4.354862032842838E-3    4.084630986297251E-1   -1.951128195051182E-1
 8.117407527200000E9     5.035241287316383E-1   -4.842398901504413E-2    1.401139202332462E-3    4.277439448021280E-3    1.468895543751365E-3    4.383719854994807E-3    4.083226561827179E-1   -1.952197621757171E-1
 8.117410307850000E9     5.035184318538809E-1   -4.863660185996211E-2    1.413413682376948E-3    4.308158131401016E-3    1.441829182652034E-3    4.385243395469100E-3    4.082512477005313E-1   -1.954053892506108E-1
 8.117413088500000E9     5.035589785717552E-1   -4.897429820459812E-2    1.382230275146344E-3    4.315026441622944E-3    1.434375811144545E-3    4.390533039009798E-3    4.081101431973025E-1   -1.954126039925325E-1
