#  HZ   S   RI   R     50.00 
! Rohde & Schwarz Vector Network Analyzer 
! Rohde-Schwarz,ZNB20-2Port,1311601062101988,3.16
! Created: UTC 3/20/2024, 12:02:11 PM
! freq[Hz]                re:S11                  im:S11                  re:S21                  im:S21                  re:S12                  im:S12                  re:S22                  im:S22
 8.117191558000000E9     5.058254528772499E-1   -3.019295761139978E-2    9.936225638786616E-4    3.853359745696285E-3    1.046231270589476E-3    3.931628406172887E-3    4.140628819364897E-1   -1.812211163077475E-1
 8.117194243250000E9     5.057097817998703E-1   -3.033387269390001E-2    1.002375908718574E-3    3.864208994809833E-3    1.070749445870925E-3    3.921851376899215E-3    4.140364405848369E-1   -1.813165607977859E-1
 8.117196928500000E9     5.057565497563205E-1   -3.054306066020465E-2    1.020182963811857E-3    3.890694658259853E-3    1.086073871151375E-3    3.932370696306984E-3    4.139570032354535E-1   -1.815398283473012E-1
 8.117199613750000E9     5.056689936171649E-1   -3.081958074697895E-2    1.008563437915375E-3    3.861458143068125E-3    1.092229765449844E-3    3.932093564313256E-3    4.138491639955737E-1   -1.816015004877372E-1
 8.117202299000000E9     5.056324436681608E-1   -3.105294120815201E-2    1.031364999905242E-3    3.874762244240722E-3    1.077421426565959E-3    3.902764754620247E-3    4.139421050354717E-1   -1.818118994223509E-1
 8.117204984250000E9     5.057042384061281E-1   -3.129788417258227E-2    1.012811799579604E-3    3.887599299258451E-3    1.099696753191364E-3    3.973617038014478E-3    4.137879117713977E-1   -1.820336637310162E-1
 8.117207669500000E9     5.056094613279621E-1   -3.146043802844483E-2    1.014778304711082E-3    3.897600575929214E-3    1.106274014498481E-3    3.951510336207158E-3    4.136813413139167E-1   -1.821922767114249E-1
 8.117210354750000E9     5.056466142466474E-1   -3.170260462842072E-2    1.034724459213152E-3    3.884718410980812E-3    1.099962180243418E-3    3.980795636849712E-3    4.136145127706121E-1   -1.823921416494726E-1
 8.117213040000000E9     5.056012426037226E-1   -3.182684764761841E-2    1.022775428792408E-3    3.860744701168199E-3    1.076027978185771E-3    3.962568827895800E-3    4.135767904396762E-1   -1.825727331666832E-1
 8.117215725250000E9     5.054670941883720E-1   -3.226516792242823E-2    1.058267264637983E-3    3.917617457844317E-3    1.110731450154716E-3    3.919278989188009E-3    4.136139913405345E-1   -1.826882393192577E-1
 8.117218410500000E9     5.055546002296782E-1   -3.247819037330875E-2    1.037794917297634E-3    3.920270283904492E-3    1.116338324899362E-3    3.966661771442326E-3    4.134906656357343E-1   -1.830108670931884E-1
 8.117221095750000E9     5.055454447463821E-1   -3.264154564652134E-2    1.055427544806869E-3    3.906338905337227E-3    1.092996851517359E-3    3.924877527812606E-3    4.133047077866315E-1   -1.829925323421171E-1
 8.117223781000000E9     5.054730140253449E-1   -3.281281473848801E-2    1.046994759487527E-3    3.919219698580579E-3    1.056958526219845E-3    3.969964161125284E-3    4.132482350792711E-1   -1.833111759344723E-1
 8.117226466250000E9     5.055489749126272E-1   -3.301971339997446E-2    1.070086103456673E-3    3.895896488495900E-3    1.085358143281489E-3    3.984013090355993E-3    4.132100996230925E-1   -1.834114943472580E-1
 8.117229151500000E9     5.055265003299211E-1   -3.318153923285225E-2    1.036266191543931E-3    3.898374663230436E-3    1.145905387968301E-3    3.958420920948657E-3    4.131982914764991E-1   -1.835586695092611E-1
 8.117231836750000E9     5.055093497730696E-1   -3.342706789110633E-2    1.036063624143064E-3    3.910645700657999E-3    1.105821964437728E-3    3.983963844972183E-3    4.131216511805260E-1   -1.837255785928015E-1
 8.117234522000000E9     5.053664679350284E-1   -3.368008842996356E-2    1.063310441993990E-3    3.916533024416804E-3    1.112741737331069E-3    4.006083392260793E-3    4.130674970314085E-1   -1.840171654686621E-1
 8.117237207250000E9     5.054105499087592E-1   -3.397036738224189E-2    1.064886826085391E-3    3.922100198365670E-3    1.180215275705676E-3    4.008368732134527E-3    4.129400924605947E-1   -1.841187662932350E-1
 8.117239892500000E9     5.053330465600456E-1   -3.412074189597931E-2    1.068374616194702E-3    3.928426498723412E-3    1.129015169921075E-3    3.952209148507526E-3    4.129989987441365E-1   -1.842190280821365E-1
 8.117242577750000E9     5.053325605871937E-1   -3.437740344565782E-2    1.071026768648923E-3    3.929210916865070E-3    1.138631034572402E-3    4.010174265301465E-3    4.128378056023181E-1   -1.844607132695168E-1
 8.117245263000000E9     5.053583523944062E-1   -3.463940443110744E-2    1.059245750093230E-3    3.940031347279302E-3    1.129280336864124E-3    4.024183739745248E-3    4.127342858265339E-1   -1.846106394644046E-1
 8.117247948250000E9     5.053070750891994E-1   -3.489269788804763E-2    1.087743145529439E-3    3.928975507675803E-3    1.135754890568178E-3    4.015918094954106E-3    4.126648264826391E-1   -1.847494705112759E-1
 8.117250633500000E9     5.052899728095311E-1   -3.505838296705253E-2    1.083906411086230E-3    3.957251246210174E-3    1.150646336513103E-3    4.003461923569822E-3    4.126219257525540E-1   -1.848468378371746E-1
 8.117253318750000E9     5.051422835949362E-1   -3.528343202020266E-2    1.070629399408147E-3    3.939749589566372E-3    1.183271521037907E-3    4.000730022435588E-3    4.126035921538760E-1   -1.850734413829689E-1
 8.117256004000000E9     5.052417759329849E-1   -3.546916886916653E-2    1.089262986171384E-3    3.955260405704398E-3    1.158864715208345E-3    4.022099812544224E-3    4.125040391317359E-1   -1.852479265199736E-1
 8.117258689250000E9     5.052729137064670E-1   -3.584407816968480E-2    1.092720177929719E-3    3.943743972258377E-3    1.128342144688030E-3    4.059195719480212E-3    4.124573346442260E-1   -1.853308633908985E-1
 8.117261374500000E9     5.052795841535951E-1   -3.577976341070689E-2    1.111830731735061E-3    3.950074508067291E-3    1.110767380186798E-3    4.017310139697151E-3    4.122869469049305E-1   -1.857373738918980E-1
 8.117264059750000E9     5.052704300735296E-1   -3.611774995005024E-2    1.090958197666029E-3    3.979021179857813E-3    1.184912671016031E-3    4.060854056478430E-3    4.122954559041404E-1   -1.858705183735256E-1
 8.117266745000000E9     5.052095784640850E-1   -3.639681972812859E-2    1.119174611948581E-3    3.953422968823106E-3    1.184686732961950E-3    4.006453045594833E-3    4.122171369613341E-1   -1.859809703878458E-1
 8.117269430250000E9     5.051707105812493E-1   -3.667508231720153E-2    1.127252613901695E-3    3.979901628864596E-3    1.119520654266672E-3    4.078072391849937E-3    4.119111009778463E-1   -1.863049925238844E-1
 8.117272115500000E9     5.050765413192529E-1   -3.676051940672001E-2    1.135619682417876E-3    3.990638447223762E-3    1.174507543399783E-3    4.057218397116314E-3    4.120785466696998E-1   -1.865639606900580E-1
 8.117274800750000E9     5.051112878493280E-1   -3.703746320791832E-2    1.113285514400880E-3    3.995281016832735E-3    1.145360379620739E-3    4.063526276510019E-3    4.120248932316108E-1   -1.865327651992474E-1
 8.117277486000000E9     5.051313718544712E-1   -3.729352624631432E-2    1.111603383315929E-3    3.988623216477125E-3    1.168716146668069E-3    4.074726216092448E-3    4.119549303992828E-1   -1.867845848589758E-1
 8.117280171250000E9     5.049036202219084E-1   -3.749167018899460E-2    1.105384818069292E-3    3.968367494028629E-3    1.177565444551692E-3    4.007254911261172E-3    4.119517929706976E-1   -1.869198913849703E-1
 8.117282856500000E9     5.049952384807946E-1   -3.764927843150385E-2    1.128066586168654E-3    3.976801353943061E-3    1.194438925885397E-3    4.040750932201331E-3    4.117861308856609E-1   -1.870009110907010E-1
 8.117285541750000E9     5.050136484909732E-1   -3.800101766535144E-2    1.140970760814419E-3    3.998345686381270E-3    1.156733945006610E-3    4.022983831078897E-3    4.117655228441631E-1   -1.874042633272376E-1
 8.117288227000000E9     5.050328370464439E-1   -3.809033129018402E-2    1.137618870224791E-3    4.003506114156203E-3    1.228691747267893E-3    4.083782478493990E-3    4.116831715552812E-1   -1.874210313087530E-1
 8.117290912250000E9     5.049568626098762E-1   -3.844087322566767E-2    1.131793484999313E-3    4.011524786733204E-3    1.251699189882664E-3    4.025904476892423E-3    4.114010103206577E-1   -1.876188837912977E-1
 8.117293597500000E9     5.048949326966875E-1   -3.866219030156529E-2    1.124749026678460E-3    3.998231309769556E-3    1.189963979766273E-3    4.084214641501408E-3    4.115670269291501E-1   -1.877845736013487E-1
 8.117296282750000E9     5.049525457152373E-1   -3.885639175233833E-2    1.146103877479516E-3    4.018086146344423E-3    1.184825696589315E-3    4.097474019557801E-3    4.114149175524719E-1   -1.880033560050754E-1
 8.117298968000000E9     5.048223644424351E-1   -3.905213517979943E-2    1.162992773343462E-3    4.008245472249254E-3    1.222953652029773E-3    4.101718121092080E-3    4.112487068717042E-1   -1.879850638956746E-1
 8.117301653250000E9     5.048914877699154E-1   -3.936561093468814E-2    1.168749151127337E-3    4.018117169892541E-3    1.236865947806731E-3    4.068442635669663E-3    4.112475579349890E-1   -1.883105025500623E-1
 8.117304338500000E9     5.048219401548633E-1   -3.943712512207763E-2    1.163233177475706E-3    4.030983162311220E-3    1.241235800487842E-3    4.072215096164166E-3    4.111468703976447E-1   -1.885345833062169E-1
 8.117307023750000E9     5.048707081291345E-1   -3.984091400086190E-2    1.163518881456143E-3    4.025519613239486E-3    1.209673049586045E-3    4.104011698837812E-3    4.110694759064908E-1   -1.888596977777575E-1
 8.117309709000000E9     5.047798922343391E-1   -3.986080667903563E-2    1.166471797201088E-3    4.036986848009618E-3    1.217987889203773E-3    4.100119660405063E-3    4.110894380236073E-1   -1.888398951014768E-1
 8.117312394250000E9     5.047591383575022E-1   -4.025141292754785E-2    1.192762007306477E-3    4.068631954333862E-3    1.268281121447510E-3    4.068971198816073E-3    4.110313172124611E-1   -1.889339829882798E-1
 8.117315079500000E9     5.047961488087099E-1   -4.046869253597663E-2    1.172183710584330E-3    4.031295841764396E-3    1.252256454441319E-3    4.128333039661876E-3    4.109333077574588E-1   -1.890788420527443E-1
 8.117317764750000E9     5.046782367130935E-1   -4.058279694088462E-2    1.169325517150923E-3    4.071832163494889E-3    1.230203047234677E-3    4.157955366435363E-3    4.109901635514574E-1   -1.893405544884708E-1
 8.117320450000000E9     5.046464803538070E-1   -4.082784853090446E-2    1.194767826195066E-3    4.078604676836625E-3    1.227927198384278E-3    4.151694032939015E-3    4.107858315905185E-1   -1.895794031746932E-1
 8.117323135250000E9     5.046547076882840E-1   -4.102879821981903E-2    1.195100472115918E-3    4.063654291959959E-3    1.277696084068312E-3    4.127084891218432E-3    4.108023166231352E-1   -1.897820339539454E-1
 8.117325820500000E9     5.046030070020372E-1   -4.124741138118353E-2    1.210415613114305E-3    4.054687363873578E-3    1.243573296589218E-3    4.103000410021863E-3    4.106166697589784E-1   -1.898668195140923E-1
 8.117328505750000E9     5.045465660586680E-1   -4.135834412669400E-2    1.202707702668931E-3    4.080216539185746E-3    1.287565490462226E-3    4.167925547620653E-3    4.105050639308560E-1   -1.899799301614586E-1
 8.117331191000000E9     5.046095794741133E-1   -4.168297379277035E-2    1.174309293318347E-3    4.041482531820028E-3    1.250057521827217E-3    4.171405522359447E-3    4.105399245289634E-1   -1.902681485577616E-1
 8.117333876250000E9     5.045575924417862E-1   -4.189258493682113E-2    1.199042531317678E-3    4.080434603826454E-3    1.281110894662931E-3    4.140738919809594E-3    4.104047581896726E-1   -1.902941802266590E-1
 8.117336561500000E9     5.045671398114207E-1   -4.221530262862401E-2    1.196566234694012E-3    4.093467851690367E-3    1.330210628449275E-3    4.148113100347239E-3    4.103494155873751E-1   -1.904452086622321E-1
 8.117339246750000E9     5.045660784599618E-1   -4.234177973144036E-2    1.203373997076604E-3    4.107454440121953E-3    1.231932445714699E-3    4.154792281980763E-3    4.102178863662426E-1   -1.908328953896525E-1
 8.117341932000000E9     5.044856013508284E-1   -4.269935516100502E-2    1.235174648647484E-3    4.090757164239068E-3    1.230229633725549E-3    4.133248647095857E-3    4.101468197270410E-1   -1.910468673202449E-1
 8.117344617250000E9     5.043719318163365E-1   -4.281290062689546E-2    1.241320242323629E-3    4.109899688224016E-3    1.270587676330812E-3    4.164129703342707E-3    4.101860250541022E-1   -1.911793512626989E-1
 8.117347302500000E9     5.044118801344873E-1   -4.311068134294132E-2    1.255743951806931E-3    4.109345090741609E-3    1.256008792187307E-3    4.167032677250639E-3    4.100179019141491E-1   -1.912752679335544E-1
 8.117349987750000E9     5.043306739093991E-1   -4.343720221122404E-2    1.238921063857818E-3    4.123886401287474E-3    1.294464392527253E-3    4.202562202824587E-3    4.100228872924326E-1   -1.914301910253669E-1
 8.117352673000000E9     5.043580090924572E-1   -4.362707905063901E-2    1.253251120433546E-3    4.116746310052893E-3    1.333324983119169E-3    4.232696033886111E-3    4.098280491534634E-1   -1.916673359938597E-1
 8.117355358250000E9     5.042491006564456E-1   -4.380660526692885E-2    1.251008225077157E-3    4.121399233182062E-3    1.316920144421753E-3    4.192508171243823E-3    4.097896076967704E-1   -1.916748029270271E-1
 8.117358043500000E9     5.041199274790291E-1   -4.395314053010439E-2    1.238640366369168E-3    4.149749780101320E-3    1.311932280217833E-3    4.206435541603428E-3    4.097558803419534E-1   -1.920226353943639E-1
 8.117360728750000E9     5.042019891903864E-1   -4.418242132205493E-2    1.281308068111652E-3    4.146645583206268E-3    1.340760290853973E-3    4.246092032499265E-3    4.097646714229326E-1   -1.922515176301317E-1
 8.117363414000000E9     5.042253096384064E-1   -4.450724747829783E-2    1.262545905665740E-3    4.159122528591559E-3    1.308444548999338E-3    4.215368939270061E-3    4.096210423289218E-1   -1.922222438498588E-1
 8.117366099250000E9     5.040997762855770E-1   -4.467856037923550E-2    1.277627508599603E-3    4.152531322283694E-3    1.351079362549248E-3    4.214608090507910E-3    4.094647406829555E-1   -1.925645651926139E-1
 8.117368784500000E9     5.041314883566568E-1   -4.496941219719498E-2    1.260343968412615E-3    4.158786673683552E-3    1.297133607800408E-3    4.218063495471034E-3    4.093253158856842E-1   -1.926436757848709E-1
 8.117371469750000E9     5.041381134574834E-1   -4.516788480110624E-2    1.316258304771612E-3    4.189595882731370E-3    1.337335878126212E-3    4.197736518938538E-3    4.094725420016279E-1   -1.928216915798146E-1
 8.117374155000000E9     5.039133174540843E-1   -4.538554586510742E-2    1.299194874860062E-3    4.180653396032427E-3    1.301131987342052E-3    4.222945502523215E-3    4.093503001399411E-1   -1.930748696500001E-1
 8.117376840250000E9     5.039421065238807E-1   -4.570104283207692E-2    1.296972505272252E-3    4.162987771545890E-3    1.359116165163188E-3    4.268659237007590E-3    4.091025856301606E-1   -1.931480446646991E-1
 8.117379525500000E9     5.039163571368918E-1   -4.588162458670157E-2    1.298872112249445E-3    4.162553018396477E-3    1.325602689640487E-3    4.262460521960872E-3    4.090412211061724E-1   -1.934210317655030E-1
 8.117382210750000E9     5.040054385047407E-1   -4.618748955851139E-2    1.300302824853936E-3    4.197485179432883E-3    1.357777984704133E-3    4.285673478380078E-3    4.089971928923112E-1   -1.935089098616390E-1
 8.117384896000000E9     5.038649330747126E-1   -4.633059719120883E-2    1.305671010813874E-3    4.222444457796013E-3    1.392373096388537E-3    4.289625232567420E-3    4.090341199315662E-1   -1.936358896409166E-1
 8.117387581250000E9     5.039215962104604E-1   -4.659117053593724E-2    1.336943245650496E-3    4.184468164752349E-3    1.407817779102674E-3    4.303711686667593E-3    4.089955143556340E-1   -1.939331014681285E-1
 8.117390266500000E9     5.038922084711821E-1   -4.689387501298322E-2    1.345254383755593E-3    4.223734047017403E-3    1.368592718581319E-3    4.273216338598975E-3    4.089654861267853E-1   -1.941528785086178E-1
 8.117392951750000E9     5.039159778726559E-1   -4.704233554669662E-2    1.333537968692468E-3    4.230210705528191E-3    1.372798789096131E-3    4.325769801721818E-3    4.088651791736917E-1   -1.940388108913413E-1
 8.117395637000000E9     5.037882679824857E-1   -4.736568196951710E-2    1.320972445459273E-3    4.248447593443247E-3    1.351252418158127E-3    4.274130936675571E-3    4.087651143015583E-1   -1.944295593100359E-1
 8.117398322250000E9     5.038476209944288E-1   -4.752603817634405E-2    1.342377391752416E-3    4.255407735273070E-3    1.376037420713504E-3    4.295671203109260E-3    4.086466456863382E-1   -1.946199396590295E-1
 8.117401007500000E9     5.036506726755198E-1   -4.779453349351487E-2    1.378316263390806E-3    4.261257698247441E-3    1.399778582103647E-3    4.390625447226418E-3    4.085214647164056E-1   -1.947125090950756E-1
 8.117403692750000E9     5.036189105661927E-1   -4.806284713845623E-2    1.346519335147569E-3    4.235437227703984E-3    1.389980458126361E-3    4.345267123615236E-3    4.084104838117173E-1   -1.949672728015495E-1
 8.117406378000000E9     5.036354574017329E-1   -4.842387509584000E-2    1.349552118587167E-3    4.247119873684292E-3    1.440760541396197E-3    4.329510125641246E-3    4.084206681890799E-1   -1.950313501845351E-1
 8.117409063250000E9     5.036980127639593E-1   -4.865664323911763E-2    1.336879626266316E-3    4.279361171547600E-3    1.430421515962278E-3    4.314342981355367E-3    4.082925492696615E-1   -1.952734262354690E-1
 8.117411748500000E9     5.035433149223250E-1   -4.884117405080896E-2    1.350543624166055E-3    4.266056606534494E-3    1.386341528786173E-3    4.382400030858178E-3    4.083559539903452E-1   -1.954359498135243E-1
 8.117414433750000E9     5.035776744246750E-1   -4.889584556737249E-2    1.386509504679888E-3    4.281036359890356E-3    1.481687502536948E-3    4.369083126668688E-3    4.083999474849010E-1   -1.955647068553202E-1
 8.117417119000000E9     5.034385401874081E-1   -4.923081788895462E-2    1.386327513488806E-3    4.303112465091023E-3    1.455738664812763E-3    4.353064160389257E-3    4.081018045460191E-1   -1.958663778961004E-1
 8.117419804250000E9     5.033766845726668E-1   -4.958386094198040E-2    1.386985348254450E-3    4.323134671122129E-3    1.462847198649479E-3    4.405983094428001E-3    4.079116149503104E-1   -1.960504706218819E-1
 8.117422489500000E9     5.033622446134018E-1   -4.968025140929499E-2    1.406574152315263E-3    4.312503212837446E-3    1.434807131393595E-3    4.363382843465947E-3    4.079174720582505E-1   -1.961647839142435E-1
 8.117425174750000E9     5.033871000497920E-1   -4.994770645108401E-2    1.407104208498528E-3    4.321110291195327E-3    1.497832251219961E-3    4.385507249114113E-3    4.077741974301174E-1   -1.963623270923846E-1
 8.117427860000000E9     5.032804254869350E-1   -5.018688232353591E-2    1.413791606888892E-3    4.336836080888334E-3    1.422423797241655E-3    4.363135652593371E-3    4.077216634028672E-1   -1.964395669360191E-1
 8.117430545250000E9     5.032449742094940E-1   -5.056090284215359E-2    1.436022140481449E-3    4.343679852646137E-3    1.499708777346762E-3    4.400728355973754E-3    4.077131357555044E-1   -1.966865115100900E-1
 8.117433230500000E9     5.032056309725443E-1   -5.064666825855843E-2    1.427995110164943E-3    4.341325357870236E-3    1.477736848369949E-3    4.457227513509136E-3    4.075833889333313E-1   -1.968633592074753E-1
