#  HZ   S   RI   R     50.00 
! Rohde & Schwarz Vector Network Analyzer 
! Rohde-Schwarz,ZNB20-2Port,1311601062101988,3.16
! Created: UTC 3/20/2024, 12:02:15 PM
! freq[Hz]                re:S11                  im:S11                  re:S21                  im:S21                  re:S12                  im:S12                  re:S22                  im:S22
 8.117193161000000E9     5.057897773119127E-1   -3.036855021555708E-2    1.022190347571275E-3    3.896278563660574E-3    1.084342770382378E-3    3.935941610016581E-3    4.141740913395746E-1   -1.811881890541422E-1
 8.117195846725000E9     5.056090062588728E-1   -3.052818918933406E-2    1.010111942886618E-3    3.876947321448743E-3    1.044284985743269E-3    3.942663788461752E-3    4.140547916947793E-1   -1.814346761119645E-1
 8.117198532450000E9     5.056729311477871E-1   -3.081996297808440E-2    9.825544837697335E-4    3.865244414080284E-3    1.085406227872376E-3    3.970512959896779E-3    4.139836351839314E-1   -1.816143690826021E-1
 8.117201218175000E9     5.056519774815492E-1   -3.097006257526433E-2    1.022154714628147E-3    3.884149995453372E-3    1.083831259332136E-3    3.936424020341143E-3    4.139138659587116E-1   -1.817900871393509E-1
 8.117203903900000E9     5.056089738462484E-1   -3.125252794498128E-2    1.009599790952039E-3    3.878975366526316E-3    1.076615525692611E-3    3.927585934863130E-3    4.138152032876571E-1   -1.819764688116834E-1
 8.117206589625000E9     5.055886970348108E-1   -3.142664076087739E-2    1.029187739197794E-3    3.879103738563141E-3    1.099793331640671E-3    4.000576644022223E-3    4.137914404164214E-1   -1.821707364432771E-1
 8.117209275350000E9     5.054732433017901E-1   -3.173490677663086E-2    1.032304970545067E-3    3.883822493921714E-3    1.084256705395306E-3    3.969637227248518E-3    4.135254114879997E-1   -1.824318166454098E-1
 8.117211961075000E9     5.054358279166103E-1   -3.193854565513702E-2    1.037522373985485E-3    3.919980459899735E-3    1.076988393375059E-3    3.947234524309837E-3    4.136272912609288E-1   -1.824698935907327E-1
 8.117214646800000E9     5.054544417025459E-1   -3.225521172124635E-2    1.017132381989850E-3    3.903402747695339E-3    1.100931313230641E-3    3.953984892317245E-3    4.134975218949221E-1   -1.824923225644109E-1
 8.117217332525000E9     5.055936287038154E-1   -3.231086150807658E-2    1.044924201378094E-3    3.890608693971648E-3    1.107700902477904E-3    3.992071225485739E-3    4.134928362492210E-1   -1.829414305757763E-1
 8.117220018250000E9     5.054668225586375E-1   -3.272368466233205E-2    1.049748651472531E-3    3.898006413114723E-3    1.092759473708875E-3    4.001796663479479E-3    4.135335079642012E-1   -1.830435915970639E-1
 8.117222703975000E9     5.054512887822675E-1   -3.282801021746012E-2    1.042582134081249E-3    3.921816028280735E-3    1.077657532392192E-3    3.984324333810468E-3    4.132330203233402E-1   -1.830521741571259E-1
 8.117225389700000E9     5.054299698933592E-1   -3.294654771629048E-2    1.043758682026564E-3    3.910782918837752E-3    1.099205852057559E-3    4.012233948247326E-3    4.133156162379312E-1   -1.832084450088960E-1
 8.117228075425000E9     5.055467211822938E-1   -3.317854647548608E-2    1.056018563581622E-3    3.916527449282270E-3    1.092990030876597E-3    3.948903092778845E-3    4.132359139741427E-1   -1.835228792031841E-1
 8.117230761150000E9     5.052694075808771E-1   -3.344379961148063E-2    1.056537100780187E-3    3.898576383748009E-3    1.084527744805532E-3    4.004854235855098E-3    4.131143267200092E-1   -1.837223063483953E-1
 8.117233446875000E9     5.053900213120910E-1   -3.364161393267186E-2    1.053521747415690E-3    3.915033461664236E-3    1.125053412484631E-3    3.990101960201636E-3    4.129034642148119E-1   -1.839902636906853E-1
 8.117236132600000E9     5.053758080190943E-1   -3.384157753277196E-2    1.044881949719274E-3    3.911449316791317E-3    1.097861866481304E-3    4.020846164164458E-3    4.129966059542795E-1   -1.840856342544706E-1
 8.117238818325000E9     5.054890155527288E-1   -3.410242539233290E-2    1.057909974562610E-3    3.934265274141315E-3    1.109812068262247E-3    3.991778594563700E-3    4.129522617619928E-1   -1.842243893716443E-1
 8.117241504050000E9     5.053165077730208E-1   -3.431085759371955E-2    1.071759266326742E-3    3.932714141761687E-3    1.106077523426453E-3    3.992593735400033E-3    4.129074619954269E-1   -1.843544136265755E-1
 8.117244189775000E9     5.053031442147243E-1   -3.443800439037248E-2    1.063655084122584E-3    3.928112340227972E-3    1.124535698489898E-3    3.965387161128370E-3    4.127394149034509E-1   -1.844290386265800E-1
 8.117246875500000E9     5.052168967884274E-1   -3.479957388489889E-2    1.039906389677819E-3    3.922616113737390E-3    1.128184236031491E-3    3.986200825012209E-3    4.127008838790584E-1   -1.847347719868929E-1
 8.117249561225000E9     5.052082723694198E-1   -3.505422153922723E-2    1.094168182454347E-3    3.922903149500137E-3    1.165872540370391E-3    4.013524969443719E-3    4.126793759880091E-1   -1.849518320460540E-1
 8.117252246950000E9     5.052018411995330E-1   -3.516299126200112E-2    1.101356613268565E-3    3.934553047500349E-3    1.191565171303547E-3    4.022605121271643E-3    4.125543407701638E-1   -1.850851694353130E-1
 8.117254932675000E9     5.051541214710734E-1   -3.542846972469609E-2    1.091307015918365E-3    3.948382113831850E-3    1.198700921080402E-3    4.022129445125406E-3    4.124772163242000E-1   -1.852458006018273E-1
 8.117257618400000E9     5.051635680939213E-1   -3.554911872944168E-2    1.066504617195877E-3    3.956717715471473E-3    1.132148094622054E-3    4.041478253538011E-3    4.124996319527939E-1   -1.854643501326688E-1
 8.117260304125000E9     5.052203484790434E-1   -3.585554072691190E-2    1.083159714939324E-3    3.956143655885236E-3    1.131295943430848E-3    4.013967793944927E-3    4.123555603892770E-1   -1.857697215681675E-1
 8.117262989850000E9     5.051592465349533E-1   -3.613013196321071E-2    1.088361771713614E-3    3.948493268685521E-3    1.153237811628779E-3    4.052830197651527E-3    4.122303106352280E-1   -1.857932158505567E-1
 8.117265675575000E9     5.050753037712753E-1   -3.636359735709256E-2    1.100497203863399E-3    3.946500768946173E-3    1.136052032514465E-3    4.079444112546253E-3    4.120613738319435E-1   -1.858998198608400E-1
 8.117268361300000E9     5.051527265803930E-1   -3.660938333200093E-2    1.099985099949942E-3    3.967703351899857E-3    1.137620291835110E-3    3.977949858347239E-3    4.120480300054526E-1   -1.860995921616801E-1
 8.117271047025000E9     5.050571447190557E-1   -3.684700852373362E-2    1.117605589717596E-3    3.966297857211930E-3    1.159524183291517E-3    4.083888435873951E-3    4.120073025215329E-1   -1.864318031942546E-1
 8.117273732750000E9     5.050126632217128E-1   -3.689134303379078E-2    1.124048916707031E-3    3.988907041110617E-3    1.157496674784126E-3    4.055086526635854E-3    4.120338714082415E-1   -1.864590313041209E-1
 8.117276418475000E9     5.049831226101825E-1   -3.725826678239780E-2    1.116019293899734E-3    3.951625069727956E-3    1.206586758999429E-3    4.068585035211710E-3    4.120314035129671E-1   -1.867202440867569E-1
 8.117279104200000E9     5.050407979250892E-1   -3.736415642436459E-2    1.131855345478752E-3    3.952147370939831E-3    1.162657032691335E-3    4.023776299710333E-3    4.117621227325816E-1   -1.867638032918708E-1
 8.117281789925000E9     5.049149618496623E-1   -3.765258935981148E-2    1.135383791435699E-3    3.987484366885776E-3    1.172100819419563E-3    4.056574696429535E-3    4.118193205600030E-1   -1.869385345065641E-1
 8.117284475650000E9     5.049380397233612E-1   -3.783682411752601E-2    1.124328820731563E-3    3.983697882031471E-3    1.180098612223863E-3    4.072620370738481E-3    4.118204438952170E-1   -1.872688659616384E-1
 8.117287161375000E9     5.049940915110309E-1   -3.815481513335227E-2    1.119887136014135E-3    3.988933229147318E-3    1.201443269225903E-3    4.092389572549914E-3    4.117231159450806E-1   -1.873892594743325E-1
 8.117289847100000E9     5.050306714924049E-1   -3.836711253056160E-2    1.142972971806814E-3    3.985787876866248E-3    1.235685635363195E-3    4.060108310533948E-3    4.116666298515740E-1   -1.876765743691260E-1
 8.117292532825000E9     5.048404643147807E-1   -3.860369686126524E-2    1.153506116281176E-3    4.008060426934538E-3    1.201110667890552E-3    4.025362809814896E-3    4.115417990110723E-1   -1.878361893376394E-1
 8.117295218550000E9     5.048569129792571E-1   -3.881787906968560E-2    1.141078137075003E-3    3.988031749047488E-3    1.216880510598656E-3    4.086310605557601E-3    4.114852759265065E-1   -1.878727628479944E-1
 8.117297904275000E9     5.048913220403294E-1   -3.898908689507056E-2    1.158755778071171E-3    4.000710203228141E-3    1.190294103733510E-3    4.116298782248729E-3    4.114078105808176E-1   -1.881786971167399E-1
 8.117300590000000E9     5.047986423654696E-1   -3.917682648242159E-2    1.146556045899098E-3    4.028212926392107E-3    1.228717446718532E-3    4.085533001918474E-3    4.113193585338363E-1   -1.880963425497935E-1
 8.117303275725000E9     5.047598339869028E-1   -3.937892426675239E-2    1.172071245969685E-3    4.047813134818797E-3    1.183699678461209E-3    4.099766836236512E-3    4.112632805128463E-1   -1.884606999247052E-1
 8.117305961450000E9     5.046527539274920E-1   -3.973984047558247E-2    1.163074208553314E-3    4.005953984165806E-3    1.208609870203557E-3    4.130429414431676E-3    4.110518363832555E-1   -1.886171243950704E-1
 8.117308647175000E9     5.047151474155237E-1   -3.984914582971472E-2    1.143221032081732E-3    4.012758043804161E-3    1.201812256842334E-3    4.124487618567000E-3    4.110094418497504E-1   -1.887483122690725E-1
 8.117311332900000E9     5.047486614234344E-1   -4.016354423497785E-2    1.175151946630682E-3    4.062679356942969E-3    1.225872957255037E-3    4.128293705841203E-3    4.108729469106271E-1   -1.888893039211861E-1
 8.117314018625000E9     5.047033255099005E-1   -4.023972348143926E-2    1.188139477836459E-3    4.051723067459160E-3    1.224946318544011E-3    4.115829472864080E-3    4.108969924067984E-1   -1.891814534795319E-1
 8.117316704350000E9     5.046310385362069E-1   -4.055053362944080E-2    1.163176290219158E-3    4.058210796792757E-3    1.203182206476350E-3    4.111168911537463E-3    4.107993727008199E-1   -1.892188513650131E-1
 8.117319390075000E9     5.047236570496715E-1   -4.085774886989578E-2    1.166172065234811E-3    4.058587665251042E-3    1.229676340133768E-3    4.142689815437481E-3    4.107862961087593E-1   -1.894414876313934E-1
 8.117322075800000E9     5.046168143691389E-1   -4.103988228526518E-2    1.167596339564915E-3    4.055703672635163E-3    1.209225113348164E-3    4.138060727130042E-3    4.107477830897853E-1   -1.896004951045051E-1
 8.117324761525000E9     5.044434176379380E-1   -4.129651434055425E-2    1.173477245992291E-3    4.047910633248253E-3    1.288911449364953E-3    4.151457347688800E-3    4.107166451624520E-1   -1.897331086448831E-1
 8.117327447250000E9     5.045443864929988E-1   -4.162681334489682E-2    1.196985748878042E-3    4.067322363080517E-3    1.236984739635773E-3    4.137172947480534E-3    4.106445296997355E-1   -1.899410604665843E-1
 8.117330132975000E9     5.046034906598005E-1   -4.169328654526570E-2    1.194279115498990E-3    4.071508341579945E-3    1.244132034555957E-3    4.122009721682476E-3    4.106371250660532E-1   -1.900970065912434E-1
 8.117332818700000E9     5.045117775272979E-1   -4.195749398685481E-2    1.213185438840868E-3    4.094788093906389E-3    1.278243943422452E-3    4.171671003588686E-3    4.105761101050060E-1   -1.902773178063084E-1
 8.117335504425000E9     5.044956911660666E-1   -4.213319984301330E-2    1.209676314325077E-3    4.092223354516299E-3    1.302172002714193E-3    4.173175879646136E-3    4.104650336792868E-1   -1.904894386674988E-1
 8.117338190150000E9     5.043628458428771E-1   -4.233267036943620E-2    1.219436240367966E-3    4.105793742678637E-3    1.270719082266850E-3    4.142537671780409E-3    4.104018027256155E-1   -1.906886020463192E-1
 8.117340875875000E9     5.043312400450561E-1   -4.265096462668188E-2    1.210063175796339E-3    4.089875662054981E-3    1.275370824282706E-3    4.140718446253145E-3    4.102228033228337E-1   -1.908503851456247E-1
 8.117343561600000E9     5.043177797266991E-1   -4.276504240704783E-2    1.222933076595984E-3    4.091421661400687E-3    1.273866957347670E-3    4.136914180126800E-3    4.101192272752743E-1   -1.910959104273247E-1
 8.117346247325000E9     5.043216218829644E-1   -4.310669556339531E-2    1.226767393793360E-3    4.100607664903622E-3    1.307480138963994E-3    4.195457448242125E-3    4.101772821915120E-1   -1.911920615233056E-1
 8.117348933050000E9     5.043557839756978E-1   -4.325045193479514E-2    1.247835810794209E-3    4.095044060858596E-3    1.262072291515275E-3    4.194833984931408E-3    4.099730252011672E-1   -1.914136346838977E-1
 8.117351618775000E9     5.043457315573358E-1   -4.352467565865327E-2    1.227370183394004E-3    4.096322375923226E-3    1.273281397579712E-3    4.227083455286933E-3    4.099282929943822E-1   -1.915426365149482E-1
 8.117354304500000E9     5.042886416673160E-1   -4.376121259869502E-2    1.260543580007362E-3    4.126462586613002E-3    1.311202673417150E-3    4.206275493980834E-3    4.099409280405102E-1   -1.917227452826299E-1
 8.117356990225000E9     5.042697778495304E-1   -4.397920222105337E-2    1.238359440984768E-3    4.124707865142132E-3    1.313576893719193E-3    4.226099376405197E-3    4.096853407107892E-1   -1.920016457152878E-1
 8.117359675950000E9     5.042278722636250E-1   -4.428651096444616E-2    1.248013384188775E-3    4.153221053179858E-3    1.320451064525735E-3    4.187097935353897E-3    4.097650295028551E-1   -1.920589132439319E-1
 8.117362361675000E9     5.042913204421198E-1   -4.440333879514263E-2    1.274317548159965E-3    4.116228127378115E-3    1.350400867299765E-3    4.201537027204687E-3    4.096418061771474E-1   -1.922298611788219E-1
 8.117365047400000E9     5.041661608584381E-1   -4.474212504493180E-2    1.243337017161311E-3    4.150343534748622E-3    1.350400430581136E-3    4.234218487875808E-3    4.094817622837777E-1   -1.924649466316239E-1
 8.117367733125000E9     5.039464583901871E-1   -4.488620042645391E-2    1.264437555202342E-3    4.160387302044121E-3    1.343283394831786E-3    4.216439927323097E-3    4.095446980127608E-1   -1.925502166657389E-1
 8.117370418850000E9     5.040525985823068E-1   -4.510783221547016E-2    1.267936666239509E-3    4.134913828303205E-3    1.325370661216475E-3    4.222695892199309E-3    4.093539474093256E-1   -1.928163832321432E-1
 8.117373104575000E9     5.040732923175300E-1   -4.538334411347420E-2    1.294191565881054E-3    4.151544115623311E-3    1.338351247777652E-3    4.233230031778640E-3    4.092530522844117E-1   -1.930059333462432E-1
 8.117375790300000E9     5.039668236694337E-1   -4.554646793314599E-2    1.275493460680158E-3    4.176133462780307E-3    1.315523774943307E-3    4.286857728001578E-3    4.093027426114553E-1   -1.931781675786436E-1
 8.117378476025000E9     5.038811073985662E-1   -4.574377991460609E-2    1.285549975447824E-3    4.212267691255329E-3    1.378682975431063E-3    4.253261773839072E-3    4.092294751691457E-1   -1.931465033505886E-1
 8.117381161750000E9     5.039537875012029E-1   -4.612983765661062E-2    1.299297916485436E-3    4.213935992502034E-3    1.379170087791122E-3    4.252412918130348E-3    4.090120879734690E-1   -1.934518892581214E-1
 8.117383847475000E9     5.038985925835174E-1   -4.640450711979786E-2    1.296342255149190E-3    4.193420660426113E-3    1.319647275611427E-3    4.294104544172977E-3    4.091788032740813E-1   -1.936237239943965E-1
 8.117386533200000E9     5.038203058591887E-1   -4.646908325265122E-2    1.325113352291629E-3    4.170863266008329E-3    1.384952591364577E-3    4.289469481676402E-3    4.088084388442736E-1   -1.937231891923341E-1
 8.117389218925000E9     5.038232651616374E-1   -4.678834829176963E-2    1.343294321752937E-3    4.197433730445343E-3    1.408568009045529E-3    4.269301694474406E-3    4.088826807679524E-1   -1.940599472219749E-1
 8.117391904650000E9     5.038183949420685E-1   -4.693657164830515E-2    1.296446787625637E-3    4.216051416502172E-3    1.362066970887072E-3    4.312641243569260E-3    4.088169462446464E-1   -1.940473067643043E-1
 8.117394590375000E9     5.037230232330118E-1   -4.721834943986226E-2    1.310862955401371E-3    4.223607142492655E-3    1.397749954529681E-3    4.282291217795586E-3    4.085866748790256E-1   -1.942138736572984E-1
 8.117397276100000E9     5.036197078386946E-1   -4.754672573505916E-2    1.356902350991155E-3    4.252845553136151E-3    1.413974809010970E-3    4.332855691913843E-3    4.086381492637955E-1   -1.944855382364035E-1
 8.117399961825000E9     5.035624441775506E-1   -4.777829042663050E-2    1.336609601007401E-3    4.236380982852710E-3    1.405297451066275E-3    4.299276532743022E-3    4.085901077843054E-1   -1.945951818155225E-1
 8.117402647550000E9     5.036275827600317E-1   -4.808819011398869E-2    1.333048509828077E-3    4.230118770055926E-3    1.413705234332186E-3    4.301785795244694E-3    4.084703904154020E-1   -1.947422538734665E-1
 8.117405333275000E9     5.035560950641339E-1   -4.826516790969013E-2    1.335354138336377E-3    4.252067347832111E-3    1.437127540004166E-3    4.344953275858905E-3    4.084989558520464E-1   -1.950613474374234E-1
 8.117408019000000E9     5.034749315324281E-1   -4.845322545216934E-2    1.361651336406371E-3    4.267003826441861E-3    1.443146545432182E-3    4.307865954001491E-3    4.082351138253597E-1   -1.950732663103757E-1
 8.117410704725000E9     5.034633474932266E-1   -4.882481832629137E-2    1.378605731157831E-3    4.276655788571120E-3    1.457127385777345E-3    4.362417948018994E-3    4.082307138038259E-1   -1.953155465724354E-1
 8.117413390450000E9     5.034818776868755E-1   -4.889125412804517E-2    1.352301136238889E-3    4.284072003597430E-3    1.416872182769710E-3    4.394017339379915E-3    4.083217956402965E-1   -1.955160625424971E-1
 8.117416076175000E9     5.034438072270928E-1   -4.916846249416360E-2    1.364000560819064E-3    4.304915421165906E-3    1.483864809804692E-3    4.359943365616890E-3    4.080663204029523E-1   -1.957100256840506E-1
 8.117418761900000E9     5.033116012727673E-1   -4.944395591799066E-2    1.344999407382750E-3    4.300204676123853E-3    1.382979742687993E-3    4.372372091921654E-3    4.079218682301511E-1   -1.959928885629034E-1
 8.117421447625000E9     5.032855189914335E-1   -4.961373518553529E-2    1.392032292125271E-3    4.294191638078553E-3    1.480573482088821E-3    4.383390260787725E-3    4.079411358561709E-1   -1.959668213469347E-1
 8.117424133350000E9     5.033533152645895E-1   -4.997696895862202E-2    1.396845619815668E-3    4.322238455510041E-3    1.462729388105243E-3    4.444659612637642E-3    4.079503452182270E-1   -1.962784410646225E-1
 8.117426819075000E9     5.032363653008840E-1   -5.021295701748501E-2    1.429859272211260E-3    4.304195366290658E-3    1.474261336916660E-3    4.386452603130246E-3    4.078815339070410E-1   -1.964625927535545E-1
 8.117429504800000E9     5.032964639239232E-1   -5.034451262168047E-2    1.436394549655623E-3    4.338385470623206E-3    1.491315823519310E-3    4.441225092207552E-3    4.076908522886165E-1   -1.964991739848025E-1
 8.117432190525000E9     5.033141100840330E-1   -5.062194448665276E-2    1.423471573997082E-3    4.374954405042872E-3    1.449152532727961E-3    4.458334197173377E-3    4.076287982256385E-1   -1.966596517679886E-1
 8.117434876250000E9     5.029927507379208E-1   -5.089778300402653E-2    1.425863847389954E-3    4.346262004565431E-3    1.483962086113521E-3    4.445887401578114E-3    4.075742553669137E-1   -1.967322603416102E-1
