#  HZ   S   RI   R     50.00 
! Rohde & Schwarz Vector Network Analyzer 
! Rohde-Schwarz,ZNB20-2Port,1311601062101988,3.16
! Created: UTC 3/20/2024, 12:02:48 PM
! freq[Hz]                re:S11                  im:S11                  re:S21                  im:S21                  re:S12                  im:S12                  re:S22                  im:S22
 8.117264048000000E9     5.051513619932761E-1   -3.588935937166168E-2    1.085156409397237E-3    3.943260405670608E-3    1.163535765147270E-3    4.045800065769471E-3    4.122841565730485E-1   -1.858253251954133E-1
 8.117266464075000E9     5.050794762505465E-1   -3.626643749005017E-2    1.093188557452451E-3    3.954167089041037E-3    1.181508716716246E-3    3.985121968862181E-3    4.120965563319778E-1   -1.859009531851127E-1
 8.117268880150000E9     5.049667782192971E-1   -3.637005980683547E-2    1.087174650126901E-3    3.955832656802711E-3    1.121650738878070E-3    4.023507640394840E-3    4.121752747663953E-1   -1.861499674481854E-1
 8.117271296225000E9     5.050639660862416E-1   -3.657812545259777E-2    1.074797304138509E-3    3.958427394383874E-3    1.197114944808610E-3    4.021527275499990E-3    4.120217280198786E-1   -1.864561737078461E-1
 8.117273712300000E9     5.050356516222834E-1   -3.683575650488441E-2    1.113283442376738E-3    3.956452282992474E-3    1.119253076071275E-3    4.008969897633689E-3    4.119538276504957E-1   -1.865122741591123E-1
 8.117276128375000E9     5.049385573562225E-1   -3.695830704621778E-2    1.081945053900184E-3    3.961347644990522E-3    1.154237586964588E-3    4.018820499050807E-3    4.119289495310965E-1   -1.866709976450515E-1
 8.117278544450000E9     5.050151215964532E-1   -3.719549494190607E-2    1.101402775714630E-3    3.949792196404364E-3    1.186880109075536E-3    4.075292529591718E-3    4.118722411890949E-1   -1.868389283583241E-1
 8.117280960525000E9     5.049783470864188E-1   -3.745504496379760E-2    1.099733513977631E-3    3.975186847035191E-3    1.183759676491656E-3    4.028600276898103E-3    4.116978870089480E-1   -1.869043955314573E-1
 8.117283376600000E9     5.049721516275422E-1   -3.760690967662706E-2    1.116206053989023E-3    3.974256838458360E-3    1.188538775039475E-3    4.011211481296395E-3    4.115851123857051E-1   -1.870246165289423E-1
 8.117285792675000E9     5.049708790082781E-1   -3.780204376349959E-2    1.097314130278717E-3    3.947810093749273E-3    1.187317744177848E-3    4.029802763309305E-3    4.117623855264712E-1   -1.872042076301053E-1
 8.117288208750000E9     5.050067903917386E-1   -3.804821355144616E-2    1.125864525058732E-3    3.969690185042896E-3    1.170002397017955E-3    4.024151786652667E-3    4.116627728638420E-1   -1.875170725017082E-1
 8.117290624825000E9     5.049205587106361E-1   -3.821378118850154E-2    1.119274656564224E-3    4.012476508381576E-3    1.187295259397868E-3    4.083670707642610E-3    4.115469386202971E-1   -1.876785595371077E-1
 8.117293040900000E9     5.048768648754767E-1   -3.840383944676817E-2    1.140821417997992E-3    3.976522429586710E-3    1.157900850343450E-3    4.036393919554598E-3    4.114096325152398E-1   -1.878760948940590E-1
 8.117295456975000E9     5.048435167973371E-1   -3.869141381244744E-2    1.110302309359900E-3    4.006924755638482E-3    1.159332384431385E-3    4.087695205310725E-3    4.114033439383536E-1   -1.879553781549708E-1
 8.117297873050000E9     5.048942428408063E-1   -3.875990354632281E-2    1.104444671128117E-3    4.003623200793187E-3    1.174913066918003E-3    4.037366199369284E-3    4.113417103710549E-1   -1.880539340855112E-1
 8.117300289125000E9     5.048035904823199E-1   -3.907480676744890E-2    1.128181837732227E-3    3.991871165836084E-3    1.181844991135377E-3    4.039302214901369E-3    4.113268636509891E-1   -1.880875773732264E-1
 8.117302705200000E9     5.047543860041709E-1   -3.919897433496994E-2    1.132906074254256E-3    4.008404699708472E-3    1.195874609303537E-3    4.031158903409487E-3    4.111731712688022E-1   -1.883411968382262E-1
 8.117305121275000E9     5.047870742160823E-1   -3.937362726729705E-2    1.127223442278063E-3    3.980007126543478E-3    1.216697224758263E-3    4.086536135643596E-3    4.112579920874124E-1   -1.884832581708591E-1
 8.117307537350000E9     5.048249182663692E-1   -3.949622004127819E-2    1.161969591754308E-3    4.021645490814086E-3    1.224914230978335E-3    4.074402309659413E-3    4.111185916925260E-1   -1.886513965019010E-1
 8.117309953425000E9     5.048329386346705E-1   -3.986861824412719E-2    1.137175126969072E-3    4.015359677228612E-3    1.236538130806828E-3    4.098807069052732E-3    4.109671178398438E-1   -1.888544880659712E-1
 8.117312369500000E9     5.047568651483796E-1   -3.998684148367299E-2    1.114397774288560E-3    4.011455038144112E-3    1.247643957934133E-3    4.090441681246722E-3    4.110155719791105E-1   -1.889362459422685E-1
 8.117314785575000E9     5.046699368214387E-1   -4.022335216997824E-2    1.155867945429931E-3    3.993873011756945E-3    1.221043558204242E-3    4.059807043927822E-3    4.107668551391432E-1   -1.892464911545624E-1
 8.117317201650000E9     5.047108003069958E-1   -4.041908509961585E-2    1.145990687114588E-3    4.029997849727192E-3    1.222020578802821E-3    4.096113570592732E-3    4.107648761344203E-1   -1.893775033473128E-1
 8.117319617725000E9     5.045640658209051E-1   -4.070476313940530E-2    1.158741083607845E-3    4.027683899708265E-3    1.196976887680945E-3    4.092534801463643E-3    4.108401827327800E-1   -1.894918791228822E-1
 8.117322033800000E9     5.046522727109911E-1   -4.094626601317437E-2    1.187694810856236E-3    4.041094798861998E-3    1.231635002235563E-3    4.054397507512159E-3    4.106064790565107E-1   -1.896663016889656E-1
 8.117324449875000E9     5.045390345603343E-1   -4.092317711418786E-2    1.176117783552704E-3    4.034067226084879E-3    1.224656329845537E-3    4.074901559921385E-3    4.106105735754964E-1   -1.899182298429150E-1
 8.117326865950000E9     5.046520542756270E-1   -4.136298110786601E-2    1.171192358703373E-3    4.074257138386051E-3    1.248265856808779E-3    4.117064455649660E-3    4.107811259726474E-1   -1.899176660267934E-1
 8.117329282025000E9     5.046124165076894E-1   -4.138745482161064E-2    1.183852193911754E-3    4.032172702355535E-3    1.227795650209129E-3    4.069991769614612E-3    4.104393955877066E-1   -1.901347555430255E-1
 8.117331698100000E9     5.044593209667069E-1   -4.167280886827809E-2    1.145232233070674E-3    4.042975694606583E-3    1.226307502546109E-3    4.121321503413842E-3    4.103948427816622E-1   -1.902658745961500E-1
 8.117334114175000E9     5.044808249859067E-1   -4.177886581172290E-2    1.160660903936000E-3    4.039863819622961E-3    1.255915596111121E-3    4.146734392432714E-3    4.104552606912165E-1   -1.904366479079735E-1
 8.117336530250000E9     5.044011499820283E-1   -4.216180036875787E-2    1.199730246039484E-3    4.073772547606908E-3    1.222524170307398E-3    4.127340547324445E-3    4.102968301627937E-1   -1.906498324559947E-1
 8.117338946325000E9     5.044205762703953E-1   -4.221386124751034E-2    1.189561341186817E-3    4.045786715143082E-3    1.209356956104932E-3    4.149965433053645E-3    4.101953853456540E-1   -1.907603171959733E-1
 8.117341362400000E9     5.044331232057303E-1   -4.236911651884285E-2    1.184935549741134E-3    4.077938599123034E-3    1.255850842949375E-3    4.143810945196463E-3    4.102378734137203E-1   -1.909581706146003E-1
 8.117343778475000E9     5.043899246353672E-1   -4.260684349632080E-2    1.205687879925525E-3    4.069404023938445E-3    1.255013964141540E-3    4.154702542098298E-3    4.100859272030407E-1   -1.909539732056010E-1
 8.117346194550000E9     5.043904168013115E-1   -4.299959736784298E-2    1.205215060167542E-3    4.078018314043892E-3    1.292172556883669E-3    4.142913624404229E-3    4.100841349553093E-1   -1.912452298622294E-1
 8.117348610625000E9     5.041991013182558E-1   -4.314570457691978E-2    1.190569760715671E-3    4.103578946692270E-3    1.264107372627568E-3    4.145163278035168E-3    4.099158093029869E-1   -1.913192254452521E-1
 8.117351026700000E9     5.042562546139234E-1   -4.335265350974875E-2    1.221860922511865E-3    4.080700406911565E-3    1.262261194409277E-3    4.162840393439509E-3    4.099667255854537E-1   -1.914456321867904E-1
 8.117353442775000E9     5.042270764175520E-1   -4.347160066449287E-2    1.216095418329139E-3    4.074201243209927E-3    1.304179385901147E-3    4.221769654731092E-3    4.098752512521281E-1   -1.915942617054097E-1
 8.117355858850000E9     5.042279531315681E-1   -4.368900393438255E-2    1.229089836855670E-3    4.097276009696588E-3    1.276815850276792E-3    4.203257107956483E-3    4.098419252841219E-1   -1.918200543283345E-1
 8.117358274925000E9     5.042930279108652E-1   -4.396486541763808E-2    1.235631303859512E-3    4.110365745015934E-3    1.305667942458692E-3    4.148493282096223E-3    4.096594487646644E-1   -1.918964119952889E-1
 8.117360691000000E9     5.041787120616849E-1   -4.405809405784941E-2    1.209225869544635E-3    4.117414871553383E-3    1.310516813926287E-3    4.187703955469657E-3    4.096177464896367E-1   -1.922757563948845E-1
 8.117363107075000E9     5.040948876158238E-1   -4.404229828794756E-2    1.236594380381465E-3    4.110567752456194E-3    1.342878560469908E-3    4.168318634322613E-3    4.095321079441621E-1   -1.922754458271056E-1
 8.117365523150000E9     5.041696554141012E-1   -4.458693166564717E-2    1.229039134391544E-3    4.107407485164741E-3    1.296504312192895E-3    4.195509911429370E-3    4.094991159434998E-1   -1.924406508705365E-1
 8.117367939225000E9     5.040553523754995E-1   -4.478677355452768E-2    1.222601981932542E-3    4.127010365952228E-3    1.299575710199633E-3    4.196264292603008E-3    4.094888623825371E-1   -1.925245175571155E-1
 8.117370355300000E9     5.040830809563689E-1   -4.489597750546939E-2    1.238709723620787E-3    4.160948458907189E-3    1.311819288098689E-3    4.208649559064526E-3    4.092851652066225E-1   -1.927998092390683E-1
 8.117372771375000E9     5.040705444300002E-1   -4.523587447484801E-2    1.270413827882313E-3    4.145123791859559E-3    1.275741211740217E-3    4.198753770390336E-3    4.093710882780470E-1   -1.928614804661954E-1
 8.117375187450000E9     5.039083098359022E-1   -4.543410013981181E-2    1.267659850430371E-3    4.133567436275466E-3    1.310316499824837E-3    4.203638070799377E-3    4.092363743060560E-1   -1.930166828086134E-1
 8.117377603525000E9     5.038839829754262E-1   -4.559291497073796E-2    1.267219459732890E-3    4.181183241656220E-3    1.307230317303288E-3    4.240275789209008E-3    4.090841876540509E-1   -1.933816700841282E-1
 8.117380019600000E9     5.039251124858303E-1   -4.585066439483261E-2    1.262679113725333E-3    4.165790911866094E-3    1.336741111280278E-3    4.187226172881112E-3    4.091424306430668E-1   -1.933904534855784E-1
 8.117382435675000E9     5.037957407462258E-1   -4.598603141325180E-2    1.268120330232864E-3    4.151419710616808E-3    1.373328506986359E-3    4.241495720133215E-3    4.089940779400822E-1   -1.936006456093364E-1
 8.117384851750000E9     5.038224177366667E-1   -4.620728749801407E-2    1.286299269455795E-3    4.165998991924743E-3    1.327150570251491E-3    4.255924592752516E-3    4.089946717850476E-1   -1.936777032869765E-1
 8.117387267825000E9     5.039090848856943E-1   -4.646704347970771E-2    1.277817437697623E-3    4.177780269493204E-3    1.372720270608096E-3    4.236031761901933E-3    4.089841077209582E-1   -1.938429102385215E-1
 8.117389683900000E9     5.037970587517732E-1   -4.667255308417637E-2    1.277758428482658E-3    4.188650036636008E-3    1.373494886831360E-3    4.279712511097958E-3    4.088365179616238E-1   -1.939337975802575E-1
 8.117392099975000E9     5.038248280768549E-1   -4.688176889217848E-2    1.293697021006243E-3    4.175432426430674E-3    1.329355358214744E-3    4.219685645892431E-3    4.086061807119406E-1   -1.942231052367188E-1
 8.117394516050000E9     5.037301249206809E-1   -4.714531495846533E-2    1.299198549905194E-3    4.176940803376265E-3    1.346884737393982E-3    4.236297271576143E-3    4.088321471810800E-1   -1.943103757678741E-1
 8.117396932125000E9     5.037174067944035E-1   -4.729353972279952E-2    1.343747163222578E-3    4.185975406000938E-3    1.367076121314940E-3    4.260110276499993E-3    4.085995126006984E-1   -1.945697590589804E-1
 8.117399348200000E9     5.036607578856410E-1   -4.743202097635496E-2    1.310494280485774E-3    4.213690674136958E-3    1.366368915079931E-3    4.227783112124727E-3    4.084804124336430E-1   -1.945935702383147E-1
 8.117401764275000E9     5.035820104810532E-1   -4.767118146126852E-2    1.323051555812936E-3    4.195797218326424E-3    1.348935676828641E-3    4.316656723824300E-3    4.085604226634589E-1   -1.948405880262062E-1
 8.117404180350000E9     5.036752413015360E-1   -4.797029052456574E-2    1.307951307007128E-3    4.213704234924939E-3    1.391783449379425E-3    4.278522438669192E-3    4.084187537535321E-1   -1.949441893756886E-1
 8.117406596425000E9     5.036213141360233E-1   -4.810775174379586E-2    1.310940984688672E-3    4.209810350027381E-3    1.336221861572460E-3    4.326974161760436E-3    4.083332275932332E-1   -1.950631547059847E-1
 8.117409012500000E9     5.035447857856470E-1   -4.819404998449031E-2    1.355386625043912E-3    4.230860145184635E-3    1.358366293437293E-3    4.322184035890704E-3    4.082454357190681E-1   -1.952546941566532E-1
 8.117411428575000E9     5.036668313115673E-1   -4.854485687740241E-2    1.366852486397744E-3    4.223468290134170E-3    1.410334487920246E-3    4.296487880479683E-3    4.081311117457531E-1   -1.954716522858706E-1
 8.117413844650000E9     5.035315379439250E-1   -4.869057089842273E-2    1.341578875773383E-3    4.229274321614286E-3    1.406028682844228E-3    4.318669374620154E-3    4.080334620763909E-1   -1.955190419574563E-1
 8.117416260725000E9     5.035446123772721E-1   -4.898869070959445E-2    1.351732859103864E-3    4.262279380798090E-3    1.394791670318191E-3    4.316053919250627E-3    4.081330958351785E-1   -1.958145327219193E-1
 8.117418676800000E9     5.034749736886728E-1   -4.917779137258461E-2    1.371843080201773E-3    4.259606737207130E-3    1.382563351274488E-3    4.371942551665735E-3    4.080177335361336E-1   -1.958312831091348E-1
 8.117421092875000E9     5.034694828702031E-1   -4.943580002154311E-2    1.372913588232690E-3    4.252576675224214E-3    1.432960387596320E-3    4.307573367933148E-3    4.078971747444480E-1   -1.960758230686905E-1
 8.117423508950000E9     5.032775306765264E-1   -4.957759786511361E-2    1.364969643055386E-3    4.270922295103285E-3    1.420408495179032E-3    4.349771441880648E-3    4.078493187796643E-1   -1.961795671811960E-1
 8.117425925025000E9     5.033366320821616E-1   -4.990975998678236E-2    1.364739617795265E-3    4.257927599801342E-3    1.428904522826263E-3    4.342515897666203E-3    4.077980912822420E-1   -1.963415363912031E-1
 8.117428341100000E9     5.034106859625448E-1   -5.012511539041889E-2    1.348302139309869E-3    4.309463790479834E-3    1.410375816637045E-3    4.402963704247292E-3    4.078070086923947E-1   -1.965373327653856E-1
 8.117430757175000E9     5.032402052371113E-1   -5.023468254976653E-2    1.354270645054503E-3    4.308367792898464E-3    1.447889448938659E-3    4.380296409839664E-3    4.077408855372651E-1   -1.967665020767183E-1
 8.117433173250000E9     5.031734868965829E-1   -5.051442233614132E-2    1.394446572840374E-3    4.278655803284996E-3    1.434509767672147E-3    4.372746637914442E-3    4.076891960817095E-1   -1.968150638833902E-1
 8.117435589325000E9     5.032096642741860E-1   -5.075577490663302E-2    1.385808117439757E-3    4.315707440677087E-3    1.469342519315825E-3    4.401495387287752E-3    4.074502249500396E-1   -1.970571254418196E-1
 8.117438005400000E9     5.031832712867458E-1   -5.085817597965289E-2    1.419146534727788E-3    4.312935706915040E-3    1.462447243704336E-3    4.355083867599138E-3    4.075648488314521E-1   -1.970695478617562E-1
 8.117440421475000E9     5.031249868655696E-1   -5.127732442096043E-2    1.411413263564314E-3    4.324358977048123E-3    1.515752704029922E-3    4.425333518376399E-3    4.074053245391238E-1   -1.973267818634835E-1
 8.117442837550000E9     5.031026412509244E-1   -5.151658282348442E-2    1.459974611693342E-3    4.339673971067117E-3    1.472281110582492E-3    4.435600461073198E-3    4.074832325506167E-1   -1.974216688331629E-1
 8.117445253625000E9     5.029980365028741E-1   -5.163231031405902E-2    1.417559487836640E-3    4.335356302173613E-3    1.500950660738374E-3    4.433268700613401E-3    4.072408209923514E-1   -1.975850841319669E-1
 8.117447669700000E9     5.030101250826857E-1   -5.172617139272460E-2    1.441375858811728E-3    4.337946796641172E-3    1.496630511638936E-3    4.421587246062823E-3    4.072532488686763E-1   -1.977191613062074E-1
 8.117450085775000E9     5.031115328095039E-1   -5.201502102782053E-2    1.421553401932333E-3    4.345027641597285E-3    1.489987793030923E-3    4.423950518294551E-3    4.070926880252360E-1   -1.978884371585748E-1
 8.117452501850000E9     5.029173968686447E-1   -5.231003852439168E-2    1.461128545652869E-3    4.360511224346725E-3    1.511476367879273E-3    4.454765623939423E-3    4.070007947529012E-1   -1.980474110889143E-1
 8.117454917925000E9     5.029773808584106E-1   -5.253071489320135E-2    1.428036914471028E-3    4.388882679797408E-3    1.502873161725113E-3    4.461131548048736E-3    4.070564642083976E-1   -1.982543665489814E-1
 8.117457334000000E9     5.027076594612000E-1   -5.269146073902473E-2    1.446340904268785E-3    4.382933023453837E-3    1.482866176835537E-3    4.424355986783040E-3    4.069174571931520E-1   -1.984178234797851E-1
 8.117459750075000E9     5.027363977702799E-1   -5.300041774997830E-2    1.474312145463968E-3    4.422780607055923E-3    1.496635221675035E-3    4.485247626708767E-3    4.067756072383802E-1   -1.985956932819378E-1
 8.117462166150000E9     5.027319888806997E-1   -5.316832151682863E-2    1.459598893694628E-3    4.400950090703678E-3    1.546910161035073E-3    4.461336367654792E-3    4.067836856502667E-1   -1.988668234351922E-1
 8.117464582225000E9     5.027557775274641E-1   -5.343687200384176E-2    1.457292206777726E-3    4.407400908480070E-3    1.536359219402003E-3    4.518021172452063E-3    4.067047733719926E-1   -1.988486888212517E-1
 8.117466998300000E9     5.026551257167126E-1   -5.360593189907059E-2    1.500045333701354E-3    4.447075630808102E-3    1.551152774677075E-3    4.480923347740130E-3    4.066302200115510E-1   -1.990407052619083E-1
 8.117469414375000E9     5.025002192568001E-1   -5.379994648229306E-2    1.489573649625497E-3    4.410070212817124E-3    1.583566445327319E-3    4.514092940764163E-3    4.065475879521698E-1   -1.992040838190550E-1
 8.117471830450000E9     5.025572896727679E-1   -5.407175331454589E-2    1.539387131626154E-3    4.426439520574885E-3    1.574718414916676E-3    4.477747477843717E-3    4.065415618559836E-1   -1.993232863484922E-1
 8.117474246525000E9     5.026571077067118E-1   -5.435896494253056E-2    1.509499085022285E-3    4.459494138889014E-3    1.534381284714632E-3    4.495026460032265E-3    4.065635513843075E-1   -1.994100855859310E-1
 8.117476662600000E9     5.025293632496031E-1   -5.459607352859950E-2    1.511581617058886E-3    4.475438162344373E-3    1.596227498593565E-3    4.563639966184395E-3    4.062775152387194E-1   -1.996329567794496E-1
 8.117479078675000E9     5.023803741939931E-1   -5.479541210179447E-2    1.514339238072608E-3    4.482423675618933E-3    1.608237395492065E-3    4.534607009116069E-3    4.063984717522968E-1   -1.998186849923553E-1
 8.117481494750000E9     5.024802653606426E-1   -5.501560141098355E-2    1.550785444662532E-3    4.490646991732625E-3    1.570922589809394E-3    4.567387009545582E-3    4.061871493750583E-1   -1.999291522306254E-1
