#  HZ   S   RI   R     50.00 
! Rohde & Schwarz Vector Network Analyzer 
! Rohde-Schwarz,ZNB20-2Port,1311601062101988,3.16
! Created: UTC 3/20/2024, 12:02:50 PM
! freq[Hz]                re:S11                  im:S11                  re:S21                  im:S21                  re:S12                  im:S12                  re:S22                  im:S22
 8.117266130000000E9     5.050072802541034E-1   -3.628724113702139E-2    1.084719628894688E-3    3.940591597308541E-3    1.121562150504941E-3    4.030629204494081E-3    4.121408785181125E-1   -1.860989108969167E-1
 8.117268539050000E9     5.049676538614871E-1   -3.643027409318364E-2    1.095845211332226E-3    3.940093243730697E-3    1.174459860235549E-3    4.012477377090519E-3    4.121009047533508E-1   -1.863117736776118E-1
 8.117270948100000E9     5.049890358885326E-1   -3.663884986619381E-2    1.087652012234416E-3    3.945788248057698E-3    1.106250791856664E-3    4.022858195435012E-3    4.120345438864568E-1   -1.862687964323698E-1
 8.117273357150000E9     5.048658037478212E-1   -3.683582837189726E-2    1.100884246164838E-3    3.957597207577303E-3    1.128875493039018E-3    4.048545224451082E-3    4.119740870892238E-1   -1.865659185125638E-1
 8.117275766200000E9     5.049498932344935E-1   -3.698097818006370E-2    1.092262259890501E-3    3.947853614788128E-3    1.141840070811337E-3    4.006100130950221E-3    4.119715173591135E-1   -1.867079992872843E-1
 8.117278175250000E9     5.048332882230910E-1   -3.730238246471337E-2    1.096163689396000E-3    3.962564354904835E-3    1.195784824331213E-3    4.054226290956494E-3    4.119890191488135E-1   -1.866866993746181E-1
 8.117280584300000E9     5.049189655544615E-1   -3.743536441838453E-2    1.129599457736812E-3    3.959381370199027E-3    1.167131198590470E-3    4.019944143094103E-3    4.118051011714444E-1   -1.869850997243528E-1
 8.117282993350000E9     5.049064438346724E-1   -3.763455893367511E-2    1.111902981767389E-3    3.979120577345123E-3    1.171088977713554E-3    4.014186497732939E-3    4.118737445028170E-1   -1.871399190060486E-1
 8.117285402400000E9     5.048065789818036E-1   -3.785664037693488E-2    1.086531178829551E-3    3.987206524696600E-3    1.183875571790180E-3    4.060109062859899E-3    4.117852311397071E-1   -1.873455783661885E-1
 8.117287811450000E9     5.048378972510833E-1   -3.806051808484973E-2    1.129526985560516E-3    3.939104887642348E-3    1.126796754725992E-3    4.036281329403453E-3    4.116035844737798E-1   -1.875140743438642E-1
 8.117290220500000E9     5.047801924156375E-1   -3.830794781186004E-2    1.126911993122821E-3    3.997097512985650E-3    1.170038070902837E-3    4.028875897791892E-3    4.115746792381507E-1   -1.874762924088826E-1
 8.117292629550000E9     5.046617443867889E-1   -3.842987736116025E-2    1.126081217420281E-3    3.963472713086067E-3    1.159147326411725E-3    4.014586318024612E-3    4.114314181850680E-1   -1.877608148798798E-1
 8.117295038600000E9     5.047081489593598E-1   -3.867160842633991E-2    1.101161520523131E-3    3.987223245357901E-3    1.199721768531491E-3    4.024307530256975E-3    4.114130109892273E-1   -1.878131929658489E-1
 8.117297447650000E9     5.047738113042833E-1   -3.867695174977660E-2    1.102674803055459E-3    4.001569594829293E-3    1.186814505874652E-3    4.079329814301244E-3    4.112667139412020E-1   -1.880737754010440E-1
 8.117299856700000E9     5.046791158872571E-1   -3.908790827804352E-2    1.127515775251989E-3    4.008534727541951E-3    1.181383229795326E-3    4.024896999096840E-3    4.112263472167791E-1   -1.881409431934540E-1
 8.117302265750000E9     5.046709394912975E-1   -3.929050267267741E-2    1.166710573380008E-3    3.989143581691012E-3    1.167994743209419E-3    4.067461214666675E-3    4.112015870957631E-1   -1.883201378293753E-1
 8.117304674800000E9     5.046536986319947E-1   -3.945786862831060E-2    1.144932409585633E-3    3.982688521759399E-3    1.203421915491294E-3    4.055896919880749E-3    4.110891896329423E-1   -1.884806456872258E-1
 8.117307083850000E9     5.045509260341436E-1   -3.960913958209886E-2    1.131477622834597E-3    3.998125967539311E-3    1.181954539743357E-3    4.085955031796705E-3    4.111210164721527E-1   -1.887631022506821E-1
 8.117309492900000E9     5.045420564040697E-1   -3.989246567965540E-2    1.165085089474872E-3    4.012138898339003E-3    1.171960749584924E-3    4.106715353614659E-3    4.110333494812528E-1   -1.887480889866666E-1
 8.117311901950000E9     5.045029319096753E-1   -4.024415867853647E-2    1.146714318347645E-3    4.019269027503437E-3    1.190140052355508E-3    4.077229985336096E-3    4.110331986701958E-1   -1.890744829762585E-1
 8.117314311000000E9     5.045575404862572E-1   -4.032522912426157E-2    1.155921337359807E-3    4.019971480526386E-3    1.229815803430088E-3    4.109707786465139E-3    4.108724512690813E-1   -1.892981728003911E-1
 8.117316720050000E9     5.045176925156227E-1   -4.051076375747675E-2    1.148315980432508E-3    4.036221501007208E-3    1.224148409757477E-3    4.073424759667279E-3    4.107880290977082E-1   -1.892915720724068E-1
 8.117319129100000E9     5.045101171020336E-1   -4.051701077868382E-2    1.179701512557494E-3    4.031053782862642E-3    1.183858748023610E-3    4.091696007615826E-3    4.108602003290682E-1   -1.894536021732252E-1
 8.117321538150000E9     5.044498477191866E-1   -4.085142409131236E-2    1.159242230135091E-3    4.024203470585793E-3    1.246182179239163E-3    4.051253131058090E-3    4.106972166256009E-1   -1.895579634002976E-1
 8.117323947200000E9     5.044930909338220E-1   -4.100546326834541E-2    1.156178919286183E-3    4.065946336925050E-3    1.213679702670546E-3    4.088764920692669E-3    4.104740797401047E-1   -1.898110212913968E-1
 8.117326356250000E9     5.044575537717870E-1   -4.125990096821035E-2    1.176234936007346E-3    4.062161328564555E-3    1.208882303520017E-3    4.077254630768349E-3    4.106204899152702E-1   -1.899073563682584E-1
 8.117328765300000E9     5.044204496063456E-1   -4.156095025683774E-2    1.130418918796357E-3    4.037629800497719E-3    1.202633044796704E-3    4.109539745542685E-3    4.104965184685945E-1   -1.900592960146597E-1
 8.117331174350000E9     5.044083075263204E-1   -4.159331268564492E-2    1.190211753579408E-3    4.038767653306677E-3    1.204317619784661E-3    4.135352712487737E-3    4.103822072537402E-1   -1.902739518274635E-1
 8.117333583400000E9     5.043109444358327E-1   -4.195376763763623E-2    1.194455355047145E-3    4.043529262386015E-3    1.207446222871134E-3    4.146223791739094E-3    4.105388431907044E-1   -1.904333529298160E-1
 8.117335992450000E9     5.043330529639315E-1   -4.215291678576698E-2    1.211551599472018E-3    4.033440761264447E-3    1.250804773988118E-3    4.145969675510779E-3    4.101584097494561E-1   -1.905802394428294E-1
 8.117338401500000E9     5.042881985881568E-1   -4.222254616876062E-2    1.173199680604196E-3    4.054762028497202E-3    1.274893011643964E-3    4.086340027261907E-3    4.102665035940096E-1   -1.907148442542476E-1
 8.117340810550000E9     5.041763355556770E-1   -4.252946082132501E-2    1.192513160319195E-3    4.060338749092957E-3    1.239865475871071E-3    4.118378537023813E-3    4.102724231152236E-1   -1.909115227744491E-1
 8.117343219600000E9     5.042014233384772E-1   -4.260056516398526E-2    1.188895287855382E-3    4.080622408108412E-3    1.253231132447952E-3    4.156363830590607E-3    4.101380589742356E-1   -1.911618836036614E-1
 8.117345628650000E9     5.042157460163936E-1   -4.282576473153155E-2    1.224375914308224E-3    4.073926778881772E-3    1.254596851030979E-3    4.191758210665737E-3    4.100552161263066E-1   -1.912968311210287E-1
 8.117348037700000E9     5.041773661228720E-1   -4.311397086297052E-2    1.215390538083535E-3    4.095117723766674E-3    1.264984956045646E-3    4.129644147902242E-3    4.100770396119948E-1   -1.912918711221337E-1
 8.117350446750000E9     5.042482979807310E-1   -4.324860789410501E-2    1.217421199040475E-3    4.044162227181835E-3    1.259274647226182E-3    4.139373279892740E-3    4.098137011648529E-1   -1.914843650748815E-1
 8.117352855800000E9     5.041972086276960E-1   -4.345883175850875E-2    1.194937921090788E-3    4.098634317809313E-3    1.233143454925133E-3    4.161617184233100E-3    4.098442810111814E-1   -1.916429578757813E-1
 8.117355264850000E9     5.041822212612913E-1   -4.376610515893660E-2    1.202176373762884E-3    4.118782955728671E-3    1.274702407236598E-3    4.164480734658984E-3    4.097533920303032E-1   -1.918555649081956E-1
 8.117357673900000E9     5.042058948583221E-1   -4.392978209211118E-2    1.232387332154575E-3    4.104534788336505E-3    1.285940547648195E-3    4.166994799125865E-3    4.097521432746543E-1   -1.919862771984701E-1
 8.117360082950000E9     5.040747524314475E-1   -4.422992875737223E-2    1.241346504057708E-3    4.110036108971988E-3    1.306121662583868E-3    4.210393183375726E-3    4.097619475038360E-1   -1.922392451444337E-1
 8.117362492000000E9     5.040176561690616E-1   -4.441518248464149E-2    1.236849958958056E-3    4.102003191030452E-3    1.291369707130798E-3    4.193499991491783E-3    4.096156843911612E-1   -1.922947018289543E-1
 8.117364901050000E9     5.039783407962355E-1   -4.448874370818600E-2    1.242984025202763E-3    4.127036718389482E-3    1.308223601561345E-3    4.182577353559055E-3    4.095168745782632E-1   -1.924821224802541E-1
 8.117367310100000E9     5.041103736951756E-1   -4.462009570964406E-2    1.238020665767342E-3    4.119070906853359E-3    1.318669646519402E-3    4.218196803799239E-3    4.094328892120616E-1   -1.927544880585648E-1
 8.117369719150000E9     5.039565929351474E-1   -4.500956260696831E-2    1.244917147190160E-3    4.136032649704850E-3    1.343629680302327E-3    4.154860610855580E-3    4.095409244210735E-1   -1.926369669886885E-1
 8.117372128200000E9     5.038903248873391E-1   -4.527617803967823E-2    1.265600586773763E-3    4.116227281357393E-3    1.319471176511594E-3    4.200178306569591E-3    4.093273136732316E-1   -1.927650248435677E-1
 8.117374537250000E9     5.039617480834603E-1   -4.530783257102139E-2    1.256719837529656E-3    4.148475861574736E-3    1.305212379529320E-3    4.214430910778769E-3    4.093394875098140E-1   -1.930922637773781E-1
 8.117376946300000E9     5.039115260246655E-1   -4.565877761261992E-2    1.274611119224755E-3    4.161918563586811E-3    1.288130266016096E-3    4.221344746518836E-3    4.093005105382144E-1   -1.932495706168677E-1
 8.117379355350000E9     5.038227731237319E-1   -4.587911610499491E-2    1.256189116508385E-3    4.128714390491121E-3    1.322046119378749E-3    4.231961309397987E-3    4.091923741805117E-1   -1.933097734720468E-1
 8.117381764400000E9     5.038094359079709E-1   -4.601720974881627E-2    1.272747243727559E-3    4.177368500069363E-3    1.335034641797957E-3    4.252056929501574E-3    4.090864124416738E-1   -1.934981356805729E-1
 8.117384173450000E9     5.037750645527139E-1   -4.618152560460061E-2    1.272715352097576E-3    4.152727349945449E-3    1.310198516594588E-3    4.234359204632163E-3    4.090693026263738E-1   -1.936614253629332E-1
 8.117386582500000E9     5.037454961254653E-1   -4.639948650865078E-2    1.292209038254046E-3    4.183619137279860E-3    1.358097086613174E-3    4.223356297148415E-3    4.089334719999829E-1   -1.939879267225532E-1
 8.117388991550000E9     5.037031307683376E-1   -4.660738286622081E-2    1.278897075634733E-3    4.165685824046322E-3    1.340336753953654E-3    4.291157006334065E-3    4.088680299009057E-1   -1.940626281884063E-1
 8.117391400600000E9     5.037614937037006E-1   -4.689200893029987E-2    1.309627578292943E-3    4.193621826194652E-3    1.346071069549112E-3    4.263846016752139E-3    4.088303780688423E-1   -1.941797682487818E-1
 8.117393809650000E9     5.035766166361094E-1   -4.716314348234014E-2    1.306275486884352E-3    4.172502814298347E-3    1.325494753036504E-3    4.288038893005299E-3    4.085633087130080E-1   -1.942405558230499E-1
 8.117396218700000E9     5.037554538103471E-1   -4.733131536386307E-2    1.294978015948320E-3    4.203522629021239E-3    1.334672822682055E-3    4.284032809247432E-3    4.086649370079610E-1   -1.944828203310821E-1
 8.117398627750000E9     5.035783990959756E-1   -4.739822193030192E-2    1.288027069555996E-3    4.202048780503202E-3    1.328999542401711E-3    4.316539381433028E-3    4.086397749630222E-1   -1.946513348093812E-1
 8.117401036800000E9     5.034913220585774E-1   -4.773614024329539E-2    1.306824662313654E-3    4.202554942829849E-3    1.372840765082051E-3    4.284666503088200E-3    4.085255749423208E-1   -1.947567594725853E-1
 8.117403445850000E9     5.036413629322591E-1   -4.795509432593979E-2    1.317477341143196E-3    4.233522280538976E-3    1.404460123655562E-3    4.265946289994887E-3    4.085080610237510E-1   -1.948804841173721E-1
 8.117405854900000E9     5.034813705847607E-1   -4.800297655846898E-2    1.329317433051318E-3    4.196068607220486E-3    1.387903993101785E-3    4.256982202923486E-3    4.083030599580338E-1   -1.950665468741858E-1
 8.117408263950000E9     5.035420141834719E-1   -4.844126039481868E-2    1.338769532371348E-3    4.234241289490107E-3    1.365008709314575E-3    4.263187185615914E-3    4.082849341044542E-1   -1.953524886629978E-1
 8.117410673000000E9     5.034599261124446E-1   -4.867750203971546E-2    1.312840714329111E-3    4.205784042880360E-3    1.400232413689030E-3    4.338339246808156E-3    4.082922329389665E-1   -1.952243724013958E-1
 8.117413082050000E9     5.035348767867647E-1   -4.877427710614924E-2    1.323626594219258E-3    4.243453202085063E-3    1.397945762498274E-3    4.273731193317806E-3    4.081905042276643E-1   -1.955490673838786E-1
 8.117415491100000E9     5.033352638679465E-1   -4.886576173299517E-2    1.343999377154298E-3    4.256977846920192E-3    1.408907784411144E-3    4.334894964292756E-3    4.082080483111828E-1   -1.958274999898161E-1
 8.117417900150000E9     5.033001321309565E-1   -4.916325300615153E-2    1.359190399154209E-3    4.260460396341524E-3    1.393379122641524E-3    4.302358718519459E-3    4.080760797689612E-1   -1.957684569044912E-1
 8.117420309200000E9     5.032397184282540E-1   -4.936354516540518E-2    1.343202571062362E-3    4.262730610197378E-3    1.456283334684022E-3    4.339762776607634E-3    4.080052246174795E-1   -1.959611265784733E-1
 8.117422718250000E9     5.031718012574599E-1   -4.964400966125444E-2    1.373322711269552E-3    4.288181677890461E-3    1.429547259992131E-3    4.362697127423929E-3    4.078865872793597E-1   -1.961744436202470E-1
 8.117425127300000E9     5.033211001915240E-1   -4.975470026320416E-2    1.391895930781537E-3    4.299516192270313E-3    1.442779117257857E-3    4.378010310535002E-3    4.078083150553607E-1   -1.963515233937400E-1
 8.117427536350000E9     5.032186202550669E-1   -5.008073692283271E-2    1.362046790332700E-3    4.294289637061052E-3    1.455606648578552E-3    4.392431320859333E-3    4.077390880301626E-1   -1.964505760818339E-1
 8.117429945400000E9     5.031800348525338E-1   -5.037457620918426E-2    1.374980206407152E-3    4.301258125113032E-3    1.446214826364650E-3    4.335373323610990E-3    4.077486597156590E-1   -1.967511059814305E-1
 8.117432354450000E9     5.031268092103519E-1   -5.048370311508559E-2    1.378329499958318E-3    4.296202993984534E-3    1.455929546096470E-3    4.376943880656816E-3    4.076070532377577E-1   -1.968880477322708E-1
 8.117434763500000E9     5.031649381819687E-1   -5.071887716514186E-2    1.397672617781202E-3    4.330751721020723E-3    1.431316845040536E-3    4.384038025682245E-3    4.074364216313995E-1   -1.968698218586654E-1
 8.117437172550000E9     5.031124422136979E-1   -5.093257283869564E-2    1.403378993677222E-3    4.323021955484257E-3    1.435459953653091E-3    4.400047655500589E-3    4.075048163491568E-1   -1.970810915832557E-1
 8.117439581600000E9     5.028769849275226E-1   -5.118244919955607E-2    1.396026736948695E-3    4.324289489844101E-3    1.468321855715897E-3    4.392369574924235E-3    4.074063834297150E-1   -1.971766241607380E-1
 8.117441990650000E9     5.029631414530198E-1   -5.134178509863108E-2    1.402572210577190E-3    4.331186347713252E-3    1.482197163860333E-3    4.442601478215174E-3    4.073351160579995E-1   -1.975033253109182E-1
 8.117444399700000E9     5.029027577504698E-1   -5.165967703244426E-2    1.399508803270169E-3    4.360132823236014E-3    1.458998599872859E-3    4.410358320080158E-3    4.072656939642668E-1   -1.975383823452697E-1
 8.117446808750000E9     5.028895583316266E-1   -5.169499619461146E-2    1.405467084137634E-3    4.351703982429227E-3    1.497678120637292E-3    4.410395455223507E-3    4.071958385717126E-1   -1.977273711613554E-1
 8.117449217800000E9     5.029133282075555E-1   -5.191958619243151E-2    1.445957566204614E-3    4.359612072817300E-3    1.481087345823782E-3    4.407713521398546E-3    4.071028457008410E-1   -1.978524535424196E-1
 8.117451626850000E9     5.028056724613394E-1   -5.226733646623774E-2    1.454311620127140E-3    4.367198571872682E-3    1.482497803625167E-3    4.458576886962823E-3    4.071908779853959E-1   -1.980280953802936E-1
 8.117454035900000E9     5.029232005009475E-1   -5.246940171585810E-2    1.440392648024140E-3    4.384220917695984E-3    1.477870231748813E-3    4.403613964067563E-3    4.069764388739442E-1   -1.982637719276550E-1
 8.117456444950000E9     5.027096335020126E-1   -5.264728955741801E-2    1.428033124225247E-3    4.368203783366129E-3    1.488818970312018E-3    4.476755161793755E-3    4.070913402684383E-1   -1.983598697834354E-1
 8.117458854000000E9     5.027761893086321E-1   -5.287411043459157E-2    1.439735942281263E-3    4.386576772332807E-3    1.511338679995002E-3    4.455318060056158E-3    4.069308579095414E-1   -1.986182058193743E-1
 8.117461263050000E9     5.027729847511322E-1   -5.308885008414334E-2    1.456450834712548E-3    4.368138634271625E-3    1.498670014165685E-3    4.479267853407278E-3    4.068457816812950E-1   -1.985703915105647E-1
 8.117463672100000E9     5.025759664067346E-1   -5.335134245389071E-2    1.495469179718452E-3    4.430923564303010E-3    1.509877165455660E-3    4.484036927878868E-3    4.066674753172162E-1   -1.988001605095988E-1
 8.117466081150000E9     5.026344091853757E-1   -5.365314452033879E-2    1.461460078234788E-3    4.443427912266883E-3    1.554030852075234E-3    4.494850211090683E-3    4.066111542951372E-1   -1.989281817449388E-1
 8.117468490200000E9     5.026113392698888E-1   -5.387569126954232E-2    1.478878351831165E-3    4.431443334595647E-3    1.596571378157377E-3    4.510342851090822E-3    4.065439534876208E-1   -1.991356660674567E-1
 8.117470899250000E9     5.026320239406845E-1   -5.404255329026565E-2    1.478599905093363E-3    4.453443874785533E-3    1.543173933374278E-3    4.484744537273959E-3    4.065834529064853E-1   -1.993675246684578E-1
 8.117473308300000E9     5.024985576504989E-1   -5.421515754084037E-2    1.510081026564489E-3    4.442720211313920E-3    1.588633825393897E-3    4.487921167273693E-3    4.065613641020632E-1   -1.994128859182071E-1
 8.117475717350000E9     5.025491657821262E-1   -5.435435822046927E-2    1.489457197600738E-3    4.465120116095453E-3    1.577794223882937E-3    4.528176323244057E-3    4.064667538512550E-1   -1.995819327156066E-1
 8.117478126400000E9     5.023651115139709E-1   -5.463503479413221E-2    1.494575675703758E-3    4.456783198835057E-3    1.560368905519925E-3    4.508590489808701E-3    4.063987004921367E-1   -1.996432795331110E-1
 8.117480535450000E9     5.023748705589608E-1   -5.493757159082144E-2    1.528818880216515E-3    4.482885369723757E-3    1.591818295336144E-3    4.521294361529889E-3    4.062680075472598E-1   -1.999940900318201E-1
 8.117482944500000E9     5.023662337367806E-1   -5.516758059138226E-2    1.545732709451453E-3    4.478006968208976E-3    1.583873463783368E-3    4.541235372642441E-3    4.062253978886382E-1   -2.000804442195632E-1
