#  HZ   S   RI   R     50.00 
! Rohde & Schwarz Vector Network Analyzer 
! Rohde-Schwarz,ZNB20-2Port,1311601062101988,3.16
! Created: UTC 3/20/2024, 12:03:55 PM
! freq[Hz]                re:S11                  im:S11                  re:S21                  im:S21                  re:S12                  im:S12                  re:S22                  im:S22
 8.117379502000000E9     5.050018254474059E-1   -4.440597504268709E-2    1.220584566103115E-3    4.089433140207314E-3    1.224643051861704E-3    4.177771175178613E-3    4.088773790859291E-1   -1.935313903376336E-1
 8.117381502600000E9     5.048909409315069E-1   -4.459758471973958E-2    1.240986471963076E-3    4.095196051676561E-3    1.244673164728345E-3    4.204133535753018E-3    4.088435974403801E-1   -1.935563639258949E-1
 8.117383503200000E9     5.049383314796143E-1   -4.469043416540690E-2    1.225523218912729E-3    4.124934101189257E-3    1.234479019551374E-3    4.180147839498308E-3    4.088485037866117E-1   -1.937599409228335E-1
 8.117385503800000E9     5.049456268405392E-1   -4.506350560009197E-2    1.262305701864400E-3    4.121326259716012E-3    1.277405584643230E-3    4.209791565776274E-3    4.085728614273433E-1   -1.939042577501064E-1
 8.117387504400000E9     5.049978440086668E-1   -4.513615331118019E-2    1.225804158364680E-3    4.119904321805858E-3    1.298377163670002E-3    4.164034833748043E-3    4.087056398049408E-1   -1.939294859448769E-1
 8.117389505000000E9     5.049459214725890E-1   -4.541694712173881E-2    1.240845673451421E-3    4.128278297013649E-3    1.245731923586319E-3    4.163520276140855E-3    4.085313763860614E-1   -1.941318343663819E-1
 8.117391505600000E9     5.048058339190784E-1   -4.563133994603123E-2    1.208379555232060E-3    4.129265290967968E-3    1.292860162448582E-3    4.227120618629679E-3    4.085369509359082E-1   -1.941011034467942E-1
 8.117393506200000E9     5.048599994646932E-1   -4.565643274589917E-2    1.227553290909813E-3    4.140297655998114E-3    1.303525973694083E-3    4.213516254090575E-3    4.083226963047201E-1   -1.943226314183877E-1
 8.117395506800000E9     5.048421918039024E-1   -4.585901641628970E-2    1.230775512994111E-3    4.129260278533331E-3    1.281580970146082E-3    4.262683703315457E-3    4.084478764999959E-1   -1.945571357815154E-1
 8.117397507400000E9     5.048299924849580E-1   -4.597533837995981E-2    1.258381174691799E-3    4.164911701364806E-3    1.297862099459548E-3    4.244475193445007E-3    4.084382787002980E-1   -1.946859494517603E-1
 8.117399508000000E9     5.048652513588574E-1   -4.617192882687840E-2    1.259539056418341E-3    4.144401328937462E-3    1.291582759235512E-3    4.241464658896446E-3    4.083100817319397E-1   -1.947838166334325E-1
 8.117401508600000E9     5.048441026981435E-1   -4.644057624697685E-2    1.263512293640153E-3    4.157607973776228E-3    1.303536774335594E-3    4.222968301991762E-3    4.081574145853943E-1   -1.948354524835213E-1
 8.117403509200000E9     5.047511135819551E-1   -4.661229966636836E-2    1.257020933326061E-3    4.161478403470891E-3    1.315041167385621E-3    4.237761434407074E-3    4.082248125897111E-1   -1.952047323075893E-1
 8.117405509800000E9     5.047125095619434E-1   -4.672724407613059E-2    1.289435391506838E-3    4.165595580378546E-3    1.314226844529275E-3    4.250700040553290E-3    4.082227334246328E-1   -1.952252818261295E-1
 8.117407510400000E9     5.046645352109660E-1   -4.691983494391154E-2    1.277918936734114E-3    4.168627247175723E-3    1.309290361155220E-3    4.260114235399423E-3    4.081147230173638E-1   -1.953330736272310E-1
 8.117409511000000E9     5.047124520806654E-1   -4.707835540160010E-2    1.294199494196007E-3    4.181774660181206E-3    1.283390898736848E-3    4.273526875927051E-3    4.080228162155830E-1   -1.953890666415442E-1
 8.117411511600000E9     5.045295791998976E-1   -4.727664326169006E-2    1.293451303808224E-3    4.173749102640369E-3    1.297942335253176E-3    4.245281445427988E-3    4.079610568818692E-1   -1.956262822654601E-1
 8.117413512200000E9     5.046278259564397E-1   -4.752590425148294E-2    1.300957689782397E-3    4.192081094283761E-3    1.321647689702149E-3    4.238965691082624E-3    4.079870153900441E-1   -1.956252306662242E-1
 8.117415512800000E9     5.046765049414246E-1   -4.761475610885201E-2    1.275992028888525E-3    4.178905864548034E-3    1.254242884906759E-3    4.219934739900288E-3    4.077678415390089E-1   -1.957339751393566E-1
 8.117417513400000E9     5.044900736525597E-1   -4.777418925501339E-2    1.282339095686183E-3    4.162135302205797E-3    1.308267171378602E-3    4.265897267128506E-3    4.078714130413274E-1   -1.959452168265811E-1
 8.117419514000000E9     5.046138461625680E-1   -4.800130122859037E-2    1.291993555853089E-3    4.204159878284046E-3    1.349103272877012E-3    4.264560214070118E-3    4.077607417592211E-1   -1.960381343607716E-1
 8.117421514600000E9     5.045386161028486E-1   -4.816881055584613E-2    1.315840861757450E-3    4.201489651544284E-3    1.353454559352401E-3    4.289754608256653E-3    4.076110180609873E-1   -1.962916889485029E-1
 8.117423515200000E9     5.045469219625396E-1   -4.835305081378658E-2    1.313260150643630E-3    4.211225780964266E-3    1.349217967627714E-3    4.300765560858018E-3    4.077353209802227E-1   -1.962774447654739E-1
 8.117425515800000E9     5.044515174051791E-1   -4.847638646853727E-2    1.315504864425269E-3    4.220270819211207E-3    1.330183852399460E-3    4.280609314271298E-3    4.077159112378679E-1   -1.965013905922074E-1
 8.117427516400000E9     5.045018765943657E-1   -4.855459700959425E-2    1.280048519252009E-3    4.233895540442522E-3    1.324287848708829E-3    4.284266790627122E-3    4.076180114411702E-1   -1.966447884713678E-1
 8.117429517000000E9     5.044064793839189E-1   -4.886246836521789E-2    1.300618385318103E-3    4.210879548024969E-3    1.354225072367331E-3    4.275032485148367E-3    4.073853749915692E-1   -1.966676321166805E-1
 8.117431517600000E9     5.044456308234659E-1   -4.914349413582520E-2    1.316327394754455E-3    4.233399036164051E-3    1.347363728217547E-3    4.347646871827968E-3    4.073997167569129E-1   -1.969465580402709E-1
 8.117433518200000E9     5.044070490669581E-1   -4.920495195527570E-2    1.314812250159301E-3    4.229571251648709E-3    1.380405365093038E-3    4.315176659549958E-3    4.074183613651319E-1   -1.970256048955938E-1
 8.117435518800000E9     5.044193013436213E-1   -4.948421928992148E-2    1.345666428209718E-3    4.217828676458400E-3    1.406462777962663E-3    4.308581565078720E-3    4.072178635232014E-1   -1.971275808806754E-1
 8.117437519400000E9     5.044330849075133E-1   -4.958780001184347E-2    1.324334550500188E-3    4.265923325557656E-3    1.387969944300117E-3    4.320866407855437E-3    4.073357248555935E-1   -1.971888317172263E-1
 8.117439520000000E9     5.043664139700546E-1   -4.967563498489101E-2    1.321327843019834E-3    4.258657036756499E-3    1.392964914459144E-3    4.343124733761745E-3    4.072122605739380E-1   -1.972476150152349E-1
 8.117441520600000E9     5.043165306479266E-1   -4.998477342835401E-2    1.320578385590096E-3    4.248209545378706E-3    1.373723092168522E-3    4.359312308648495E-3    4.071009373022433E-1   -1.974534956874009E-1
 8.117443521200000E9     5.042149207591667E-1   -5.020532270259366E-2    1.329332398512318E-3    4.269989403946796E-3    1.388865406090676E-3    4.370867686304624E-3    4.070853138168520E-1   -1.975527638532500E-1
 8.117445521800000E9     5.041616378470501E-1   -5.031317996580281E-2    1.350427547867297E-3    4.269335963033650E-3    1.384153064346911E-3    4.328134959094756E-3    4.070317061906235E-1   -1.977875032034905E-1
 8.117447522400000E9     5.042333387285767E-1   -5.054224399465436E-2    1.345573049724079E-3    4.268278451146349E-3    1.405011098502137E-3    4.329936362479102E-3    4.068644054481338E-1   -1.978883884792175E-1
 8.117449523000000E9     5.041218503139510E-1   -5.066016562089232E-2    1.361513640477217E-3    4.282336240062368E-3    1.390550228693850E-3    4.379174636617601E-3    4.068060310489168E-1   -1.980924032074171E-1
 8.117451523600000E9     5.041468007433387E-1   -5.082087260098769E-2    1.363178497196924E-3    4.299689591198844E-3    1.407922381359744E-3    4.428417391113170E-3    4.068940706316479E-1   -1.980872779767207E-1
 8.117453524200000E9     5.041439966080238E-1   -5.101355407480200E-2    1.358079129669166E-3    4.314245498368562E-3    1.427699369559456E-3    4.386170003418746E-3    4.067592211422531E-1   -1.981477681389927E-1
 8.117455524800000E9     5.040296786815999E-1   -5.122955749267729E-2    1.393191172697470E-3    4.321898145698929E-3    1.448421740004930E-3    4.353696993001729E-3    4.068484867000413E-1   -1.984363915436991E-1
 8.117457525400000E9     5.039494004251440E-1   -5.138873257969392E-2    1.380577570460530E-3    4.312569141533538E-3    1.412097324781536E-3    4.413072964044189E-3    4.068092970264143E-1   -1.984826131842455E-1
 8.117459526000000E9     5.040367463299871E-1   -5.154391246575055E-2    1.378093269574360E-3    4.320111308355068E-3    1.477605418483844E-3    4.392586656399420E-3    4.067347384063212E-1   -1.987130307021959E-1
 8.117461526600000E9     5.039848361560879E-1   -5.169843423257868E-2    1.384831322169655E-3    4.318926310347241E-3    1.422204615452776E-3    4.410316569116673E-3    4.064920606140834E-1   -1.986715340200616E-1
 8.117463527200000E9     5.039889582163818E-1   -5.201416224140719E-2    1.399119509246547E-3    4.327194205788387E-3    1.433298927697256E-3    4.418551457810608E-3    4.064853200157738E-1   -1.989904147939024E-1
 8.117465527800000E9     5.039042944493656E-1   -5.213350255188592E-2    1.391177632760815E-3    4.327572911189558E-3    1.456439760398876E-3    4.407690285451535E-3    4.063828486131114E-1   -1.991341105847815E-1
 8.117467528400000E9     5.037811300125297E-1   -5.239934945163879E-2    1.395769242584457E-3    4.325451017791838E-3    1.445000760765534E-3    4.434088272214089E-3    4.063840590020870E-1   -1.991418995152806E-1
 8.117469529000000E9     5.038114793344874E-1   -5.250115086846530E-2    1.407892645964683E-3    4.340882266175575E-3    1.459735879870729E-3    4.388934068613098E-3    4.063493892056844E-1   -1.994204889302706E-1
 8.117471529600000E9     5.037415269939469E-1   -5.270731304338632E-2    1.401824654835994E-3    4.332095669698172E-3    1.491398972991776E-3    4.494462337805403E-3    4.062218001036402E-1   -1.993835193226777E-1
 8.117473530200000E9     5.038340533234802E-1   -5.290640232323590E-2    1.396183893768139E-3    4.352377462088414E-3    1.459566961713776E-3    4.464295497572568E-3    4.062447466057243E-1   -1.996336067588237E-1
 8.117475530800000E9     5.037519891026634E-1   -5.310932871833574E-2    1.424755651274407E-3    4.368199295222436E-3    1.512123570024743E-3    4.400868843486672E-3    4.061230224524863E-1   -1.997367985161853E-1
 8.117477531400000E9     5.035834348410764E-1   -5.318561631258327E-2    1.427058456420383E-3    4.375584488986510E-3    1.459114678710064E-3    4.499497783295965E-3    4.061897810005032E-1   -1.999082963453626E-1
 8.117479532000000E9     5.037370481643627E-1   -5.344056237591533E-2    1.424628718485843E-3    4.432987156491638E-3    1.495084101667531E-3    4.474712876989092E-3    4.060179300320145E-1   -1.999913037683069E-1
 8.117481532600000E9     5.036445450759114E-1   -5.360171459124100E-2    1.445966502902743E-3    4.405608434528983E-3    1.517005910357076E-3    4.468548026400969E-3    4.059271247174202E-1   -2.000936690108251E-1
 8.117483533200000E9     5.035927400992917E-1   -5.389933464264509E-2    1.447641905903178E-3    4.388799230494712E-3    1.506855727114537E-3    4.468763858746725E-3    4.059869350618828E-1   -2.001315058369173E-1
 8.117485533800000E9     5.036777653075631E-1   -5.409478328802409E-2    1.440635885964860E-3    4.392430421700256E-3    1.504188454405106E-3    4.453081669426979E-3    4.058993599283021E-1   -2.003178819520563E-1
 8.117487534400000E9     5.034337120938424E-1   -5.420483553089971E-2    1.451303385500745E-3    4.432044556293411E-3    1.530953762216429E-3    4.495186669449395E-3    4.058174205478703E-1   -2.003922380222993E-1
 8.117489535000000E9     5.035349741466564E-1   -5.439965222033183E-2    1.457266341866795E-3    4.415926750621170E-3    1.526224587942514E-3    4.508893492032293E-3    4.058572359430984E-1   -2.005945145549715E-1
 8.117491535600000E9     5.034338156664955E-1   -5.454910554965134E-2    1.471043399169506E-3    4.419778900509608E-3    1.514045881519430E-3    4.503207048627402E-3    4.057236526274840E-1   -2.007287337139561E-1
 8.117493536200000E9     5.034352092981542E-1   -5.474943232672129E-2    1.493406923981595E-3    4.426418542180680E-3    1.559557750944302E-3    4.550294591958700E-3    4.056881566480228E-1   -2.008617825067124E-1
 8.117495536800000E9     5.034960430873650E-1   -5.494808026025794E-2    1.485045577523277E-3    4.425832481940406E-3    1.544701497429498E-3    4.487606320710269E-3    4.056841343377913E-1   -2.009749696674267E-1
 8.117497537400000E9     5.033948898959379E-1   -5.521669960487585E-2    1.488087633949658E-3    4.447849568588560E-3    1.563492467080201E-3    4.517018796480939E-3    4.053542441957516E-1   -2.010371069714854E-1
 8.117499538000000E9     5.034350172554414E-1   -5.529959622747112E-2    1.505111590046677E-3    4.469076166725144E-3    1.536618095080868E-3    4.539931335759952E-3    4.054054573100113E-1   -2.011545839009198E-1
 8.117501538600000E9     5.032941532993351E-1   -5.555889354092016E-2    1.504517487026308E-3    4.484814501718614E-3    1.540055024237714E-3    4.531643896248739E-3    4.054446722698462E-1   -2.012222459608512E-1
 8.117503539200000E9     5.031887072630739E-1   -5.562419236717124E-2    1.524346403142921E-3    4.468070316586533E-3    1.611142394325482E-3    4.552498275808723E-3    4.054073390078607E-1   -2.016764944627309E-1
 8.117505539800000E9     5.033128402472355E-1   -5.591556876647553E-2    1.484917292062202E-3    4.487875364341316E-3    1.567643831601919E-3    4.643625808356419E-3    4.052936494036368E-1   -2.015691832120894E-1
 8.117507540400000E9     5.030885399622752E-1   -5.615208303610098E-2    1.493238798344145E-3    4.480900263549802E-3    1.598731996334774E-3    4.608913589924105E-3    4.052467030193601E-1   -2.017524355433287E-1
 8.117509541000000E9     5.032740861736924E-1   -5.631677863388230E-2    1.547891354692308E-3    4.498852650080260E-3    1.591869295672796E-3    4.568148817209160E-3    4.050863892393923E-1   -2.018700334056195E-1
 8.117511541600000E9     5.032057198314538E-1   -5.652146051195926E-2    1.514823358630022E-3    4.520098959718975E-3    1.598904367455275E-3    4.613560444085994E-3    4.049672228178496E-1   -2.020339920681630E-1
 8.117513542200000E9     5.031171118800247E-1   -5.659285899976309E-2    1.533341687031635E-3    4.546328384108065E-3    1.574686614151296E-3    4.601612513209758E-3    4.050336827243934E-1   -2.021622398062420E-1
 8.117515542800000E9     5.030911848243653E-1   -5.679470702320124E-2    1.545708259263997E-3    4.530693229438433E-3    1.585535389283395E-3    4.621879677433491E-3    4.050786202994632E-1   -2.022911580599297E-1
 8.117517543400000E9     5.030270183505742E-1   -5.711483449879773E-2    1.566040009768723E-3    4.525953211372891E-3    1.628159986513622E-3    4.615185450598129E-3    4.048818653767203E-1   -2.025247672254872E-1
 8.117519544000000E9     5.030283334049906E-1   -5.729120600369563E-2    1.560703776333232E-3    4.537561883926833E-3    1.619233029972670E-3    4.626963373011539E-3    4.047993918484158E-1   -2.025557186971477E-1
 8.117521544600000E9     5.029739255334431E-1   -5.746884616207321E-2    1.557690978779542E-3    4.537571295790358E-3    1.632367138861283E-3    4.614446518482472E-3    4.047428393109147E-1   -2.026779125594149E-1
 8.117523545200000E9     5.028964968927281E-1   -5.766936324808062E-2    1.579379522012136E-3    4.550582297791550E-3    1.632788869806740E-3    4.671160550694393E-3    4.048454452759916E-1   -2.028878702110767E-1
 8.117525545800000E9     5.029110469692287E-1   -5.789556879440720E-2    1.586652495714077E-3    4.576478173774201E-3    1.628462056084460E-3    4.687581751961972E-3    4.047111278178378E-1   -2.029304645675887E-1
 8.117527546400000E9     5.028408912474206E-1   -5.810258573142492E-2    1.593089801302792E-3    4.597650389934394E-3    1.619148170524984E-3    4.690413477427959E-3    4.046850636089708E-1   -2.030693229014235E-1
 8.117529547000000E9     5.028559921036405E-1   -5.812605618962382E-2    1.603745259613095E-3    4.599732347789052E-3    1.655089303103684E-3    4.735231278213647E-3    4.045105298764521E-1   -2.031675549986857E-1
 8.117531547600000E9     5.028828997854325E-1   -5.835359514472264E-2    1.581101119639961E-3    4.606208828345483E-3    1.677751301644546E-3    4.735069061588930E-3    4.044978993979077E-1   -2.031984081129667E-1
 8.117533548200000E9     5.027186429907210E-1   -5.872403148038120E-2    1.630596484513113E-3    4.619944365511376E-3    1.689234368361827E-3    4.700339863771325E-3    4.045651060104400E-1   -2.034663960402538E-1
 8.117535548800000E9     5.026661062334414E-1   -5.883143768158763E-2    1.606522248636656E-3    4.619795757932070E-3    1.687333352867408E-3    4.728633664454015E-3    4.045419115037940E-1   -2.035728224188845E-1
 8.117537549400000E9     5.025865265949983E-1   -5.903832114974968E-2    1.620087236882545E-3    4.629278545811443E-3    1.716488047233471E-3    4.694873200300431E-3    4.043605656966757E-1   -2.035773684662161E-1
 8.117539550000000E9     5.026183735362789E-1   -5.936577779310962E-2    1.645175658183253E-3    4.630233046256183E-3    1.702259287445776E-3    4.768584528842755E-3    4.043705708959849E-1   -2.038602790755141E-1
 8.117541550600000E9     5.024996371133329E-1   -5.945028520357461E-2    1.645891729056663E-3    4.634469623118522E-3    1.739359897448070E-3    4.727647633124866E-3    4.041558026498666E-1   -2.039694999444003E-1
 8.117543551200000E9     5.025214538628398E-1   -5.970040831921423E-2    1.681415718239679E-3    4.680078023930380E-3    1.693909112354256E-3    4.790223242430705E-3    4.042291884445605E-1   -2.041066469198415E-1
 8.117545551800000E9     5.024046014677610E-1   -5.995765165447882E-2    1.668752821097210E-3    4.683815072939041E-3    1.722695741260959E-3    4.804133243172097E-3    4.040959653720372E-1   -2.042031077798249E-1
 8.117547552400000E9     5.024029345799738E-1   -6.007633745056800E-2    1.685510875517195E-3    4.699914182835891E-3    1.752898870719784E-3    4.854330127802082E-3    4.040869915028888E-1   -2.044742874285402E-1
 8.117549553000000E9     5.024089492488830E-1   -6.015942516479167E-2    1.677149061511640E-3    4.706263254840247E-3    1.741575144300811E-3    4.758164700651666E-3    4.040965165728911E-1   -2.045323336868159E-1
 8.117551553600000E9     5.022742848013638E-1   -6.059012843843918E-2    1.685727424078012E-3    4.720394704430840E-3    1.771672663230659E-3    4.810378836311195E-3    4.039214568134993E-1   -2.047127567650901E-1
 8.117553554200000E9     5.022470668978629E-1   -6.072792372621452E-2    1.727716396604816E-3    4.733469535335932E-3    1.774778325081902E-3    4.820771160009860E-3    4.040360936428801E-1   -2.047243030071615E-1
 8.117555554800000E9     5.022928574398005E-1   -6.089331027953799E-2    1.702432959791150E-3    4.737661351284153E-3    1.771888144090457E-3    4.804291846072064E-3    4.039020210124976E-1   -2.048394285843055E-1
 8.117557555400000E9     5.021693069362956E-1   -6.110151433998183E-2    1.734060045275757E-3    4.733375007619283E-3    1.744361606549157E-3    4.858126343712114E-3    4.037825865886275E-1   -2.049551651964530E-1
 8.117559556000000E9     5.021822186352344E-1   -6.138484858917859E-2    1.718065759998057E-3    4.760676159102456E-3    1.778117689497734E-3    4.886014620101943E-3    4.037341281240046E-1   -2.052237726826248E-1
