#  HZ   S   RI   R     50.00 
! Rohde & Schwarz Vector Network Analyzer 
! Rohde-Schwarz,ZNB20-2Port,1311601062101988,3.16
! Created: UTC 3/20/2024, 12:04:07 PM
! freq[Hz]                re:S11                  im:S11                  re:S21                  im:S21                  re:S12                  im:S12                  re:S22                  im:S22
 8.117408009000000E9     5.047559899357298E-1   -4.674808783185999E-2    1.253037326673839E-3    4.158664048144830E-3    1.297419280234722E-3    4.238485000337033E-3    4.081523372821802E-1   -1.953805237224755E-1
 8.117409892075000E9     5.047064630050260E-1   -4.682173389395392E-2    1.260422757632793E-3    4.172572145946442E-3    1.282684732122380E-3    4.234954787965269E-3    4.080312813532351E-1   -1.953932334965546E-1
 8.117411775150000E9     5.046824200889075E-1   -4.709649216824351E-2    1.278838173320379E-3    4.176439900415181E-3    1.283038586550331E-3    4.245597982201740E-3    4.078552067017759E-1   -1.955739263479276E-1
 8.117413658225000E9     5.048468552214708E-1   -4.721488737092708E-2    1.276064408908670E-3    4.202813557336509E-3    1.320355123573622E-3    4.295708578249187E-3    4.078915656470286E-1   -1.955499631805515E-1
 8.117415541300000E9     5.047779420871875E-1   -4.744211786726710E-2    1.262168353513547E-3    4.185114288541629E-3    1.330545642407953E-3    4.278436895199765E-3    4.078254194892697E-1   -1.959022106140752E-1
 8.117417424375000E9     5.047169448821184E-1   -4.765013153102472E-2    1.283973743457006E-3    4.183219093040307E-3    1.321291030994559E-3    4.252480587427676E-3    4.077903698885185E-1   -1.960179675218570E-1
 8.117419307450000E9     5.044841826207226E-1   -4.766645823992091E-2    1.275399056111530E-3    4.163953632054446E-3    1.330974090676495E-3    4.277306643468732E-3    4.079176712816712E-1   -1.960120540432471E-1
 8.117421190525000E9     5.046894350526646E-1   -4.780836632148314E-2    1.267620900482434E-3    4.189036088790853E-3    1.356135991677913E-3    4.275799861760264E-3    4.077348580897446E-1   -1.961302436605440E-1
 8.117423073600000E9     5.046840386735870E-1   -4.812631880715443E-2    1.293671214636463E-3    4.209538338793666E-3    1.338449042580874E-3    4.262909584659229E-3    4.075472017784057E-1   -1.963298124434843E-1
 8.117424956675000E9     5.044612032688449E-1   -4.838544998850768E-2    1.293627110329412E-3    4.179677876312678E-3    1.327986584575013E-3    4.253992781293342E-3    4.075890453913103E-1   -1.964560158964173E-1
 8.117426839750000E9     5.046998733792367E-1   -4.851534158938392E-2    1.304609555742949E-3    4.207019398424426E-3    1.358651859212984E-3    4.296610276511340E-3    4.076438266290112E-1   -1.964512207833660E-1
 8.117428722825000E9     5.045453286318716E-1   -4.856159559966720E-2    1.315594034567493E-3    4.206581978108494E-3    1.330696477852065E-3    4.321840580491314E-3    4.075962807318444E-1   -1.966506052322646E-1
 8.117430605900000E9     5.045549058068195E-1   -4.879836406571596E-2    1.321287149577996E-3    4.222849510728508E-3    1.364519227499076E-3    4.306862999487166E-3    4.073277861628101E-1   -1.967745890374008E-1
 8.117432488975000E9     5.045245288167769E-1   -4.887574647745289E-2    1.282352462356785E-3    4.231064516634505E-3    1.356200352411579E-3    4.312442092743063E-3    4.074452082388799E-1   -1.969011753852155E-1
 8.117434372050000E9     5.044673070967923E-1   -4.903862501381893E-2    1.299345138651486E-3    4.208946106790758E-3    1.385669235929221E-3    4.329776380880159E-3    4.073518305825765E-1   -1.970568660166872E-1
 8.117436255125000E9     5.045462039076405E-1   -4.930819396611898E-2    1.325492950996877E-3    4.229820038133925E-3    1.361747232253663E-3    4.312680763591412E-3    4.073530942019388E-1   -1.970614332599013E-1
 8.117438138200000E9     5.044635954891226E-1   -4.944776548177465E-2    1.293992568703583E-3    4.249960156558068E-3    1.362414034029393E-3    4.257373704706633E-3    4.073810878256781E-1   -1.971015709493093E-1
 8.117440021275000E9     5.045739112944096E-1   -4.962329938938897E-2    1.313584193516573E-3    4.236043784446278E-3    1.384175308000909E-3    4.307084618446244E-3    4.071709633375483E-1   -1.975271496645367E-1
 8.117441904350000E9     5.044307194437087E-1   -4.987701643034165E-2    1.329376283972144E-3    4.239220740271320E-3    1.323664619067271E-3    4.303130396001073E-3    4.071580042899189E-1   -1.975493268030606E-1
 8.117443787425000E9     5.044246394128181E-1   -4.986919067221163E-2    1.325875819222796E-3    4.251415885914935E-3    1.416740043359856E-3    4.314916129881012E-3    4.070753462846164E-1   -1.975081177586819E-1
 8.117445670500000E9     5.043932911348384E-1   -5.022355717207523E-2    1.312017000934107E-3    4.262388703937434E-3    1.417810626833616E-3    4.322860257456858E-3    4.069678149120575E-1   -1.977393924330429E-1
 8.117447553575000E9     5.042829702316515E-1   -5.028183580578976E-2    1.317150535119851E-3    4.254890544171440E-3    1.357086921710605E-3    4.371716392117630E-3    4.070695515482670E-1   -1.979892906628428E-1
 8.117449436650000E9     5.042655305910875E-1   -5.053294847246832E-2    1.338048092355715E-3    4.253488565185287E-3    1.432152342092962E-3    4.383299177959165E-3    4.069473695787220E-1   -1.980111631947029E-1
 8.117451319725000E9     5.043120725967476E-1   -5.062267189135660E-2    1.341820148782729E-3    4.268531588878619E-3    1.415123599019416E-3    4.397703504206277E-3    4.070006331911416E-1   -1.981890898922149E-1
 8.117453202800000E9     5.040904330178682E-1   -5.094550216867990E-2    1.348868003963954E-3    4.280024164255041E-3    1.407650024482379E-3    4.351327595091511E-3    4.068627292758853E-1   -1.980993067250970E-1
 8.117455085875000E9     5.042869448359000E-1   -5.088016278185128E-2    1.348704676123454E-3    4.258781628070855E-3    1.391313741621371E-3    4.375727688830208E-3    4.068507083184433E-1   -1.984290804437220E-1
 8.117456968950000E9     5.043130649816930E-1   -5.115470522956293E-2    1.347534820977057E-3    4.296705357152475E-3    1.410937583741593E-3    4.370420809309064E-3    4.066477842956051E-1   -1.984819671467887E-1
 8.117458852025000E9     5.042290184615805E-1   -5.134203915963862E-2    1.372643117058683E-3    4.302240798971682E-3    1.427955587245511E-3    4.396984397901049E-3    4.066268494977728E-1   -1.986014925798304E-1
 8.117460735100000E9     5.041648760316505E-1   -5.145747184012347E-2    1.376596807646245E-3    4.293452834782989E-3    1.437204503455089E-3    4.366185508964212E-3    4.066221866788695E-1   -1.987250474957039E-1
 8.117462618175000E9     5.040747000572670E-1   -5.170906265768759E-2    1.391350465147923E-3    4.296733751738575E-3    1.435784137605172E-3    4.383560775650218E-3    4.064792487103031E-1   -1.989517204977761E-1
 8.117464501250000E9     5.041156876420966E-1   -5.191459012580057E-2    1.352523533564445E-3    4.307893208213399E-3    1.410885962786714E-3    4.411381616941056E-3    4.064453528378568E-1   -1.989256716504148E-1
 8.117466384325000E9     5.040625975536099E-1   -5.201723934539309E-2    1.395505571101715E-3    4.328458179219040E-3    1.451337653589373E-3    4.453679660867721E-3    4.065121005787291E-1   -1.990954180952954E-1
 8.117468267400000E9     5.040408006479463E-1   -5.213773728741911E-2    1.381627131775369E-3    4.337728117707790E-3    1.486626178084374E-3    4.451013344323680E-3    4.064150601228636E-1   -1.992020226202177E-1
 8.117470150475000E9     5.039039837361349E-1   -5.234969900248148E-2    1.374918579826179E-3    4.317342549980177E-3    1.421518344534384E-3    4.371640803105498E-3    4.063293593544656E-1   -1.994511161771178E-1
 8.117472033550000E9     5.039527186824146E-1   -5.254285804886091E-2    1.400178414235662E-3    4.344206555569478E-3    1.435621498562568E-3    4.442838342150856E-3    4.060825844137682E-1   -1.994145456168677E-1
 8.117473916625000E9     5.039950799938636E-1   -5.270968117503737E-2    1.414675183302021E-3    4.343364710076821E-3    1.521717504765407E-3    4.420476560411050E-3    4.062734520370842E-1   -1.994830010351605E-1
 8.117475799700000E9     5.039379330863926E-1   -5.296383374930784E-2    1.394058152956841E-3    4.356167775929717E-3    1.485572577664833E-3    4.422535922087195E-3    4.060503390873043E-1   -1.996248132893602E-1
 8.117477682775000E9     5.038497519012793E-1   -5.299817224653784E-2    1.421591498905812E-3    4.369137979314761E-3    1.460546231894687E-3    4.433915944585615E-3    4.061908034741097E-1   -1.998707620000976E-1
 8.117479565850000E9     5.038720314314111E-1   -5.330762234117429E-2    1.412197039702776E-3    4.384742893370912E-3    1.486023091341729E-3    4.429448689393936E-3    4.059854900041444E-1   -2.000466954366102E-1
 8.117481448925000E9     5.037606523560456E-1   -5.345716077279578E-2    1.412530544474005E-3    4.368280385536785E-3    1.473230433083361E-3    4.443363923350529E-3    4.059352173469313E-1   -2.000911328185281E-1
 8.117483332000000E9     5.038056102040598E-1   -5.368648925433414E-2    1.417934580696280E-3    4.371989104629697E-3    1.491115178686344E-3    4.489027478953190E-3    4.059264031186069E-1   -2.003199622321334E-1
 8.117485215075000E9     5.038244192520813E-1   -5.372990804495630E-2    1.424183948534266E-3    4.372130596458044E-3    1.487284033471366E-3    4.467848267104006E-3    4.058810223297455E-1   -2.004025937394598E-1
 8.117487098150000E9     5.037445102789702E-1   -5.394887117145208E-2    1.429465583664694E-3    4.394927920967631E-3    1.503182328603613E-3    4.464676188726553E-3    4.058693147813966E-1   -2.004575906969668E-1
 8.117488981225000E9     5.037373552743024E-1   -5.410851647287088E-2    1.439149804553872E-3    4.408014820310572E-3    1.485342640661956E-3    4.477060396270340E-3    4.057881018279401E-1   -2.005447998992113E-1
 8.117490864300000E9     5.037245867576553E-1   -5.423067416916300E-2    1.447958392138320E-3    4.406877945119545E-3    1.488380625572395E-3    4.526518888122803E-3    4.057099581835812E-1   -2.006962210384537E-1
 8.117492747375000E9     5.036709610407459E-1   -5.440946696573640E-2    1.463938157589873E-3    4.421951670031777E-3    1.533363785668471E-3    4.500805773536641E-3    4.055761903629339E-1   -2.008100803696286E-1
 8.117494630450000E9     5.036700842632447E-1   -5.467683453112104E-2    1.457300496202180E-3    4.397222162910367E-3    1.536319185155385E-3    4.533969909077036E-3    4.055997459213985E-1   -2.009173375360505E-1
 8.117496513525000E9     5.036209521526593E-1   -5.474987473771482E-2    1.463340485381563E-3    4.426306518909099E-3    1.508922447561151E-3    4.494444896032489E-3    4.056003354538465E-1   -2.011122133412189E-1
 8.117498396600000E9     5.035500534644567E-1   -5.497404578865235E-2    1.431754235811933E-3    4.399499441941518E-3    1.566645620616459E-3    4.548337843085704E-3    4.054720018244338E-1   -2.011990872264544E-1
 8.117500279675000E9     5.035003752364275E-1   -5.514861183262209E-2    1.489184842673509E-3    4.410253225572480E-3    1.504821001133128E-3    4.541166691757317E-3    4.053977300752516E-1   -2.012473471177279E-1
 8.117502162750000E9     5.034630896277746E-1   -5.530324900755888E-2    1.483536488168133E-3    4.452008194348747E-3    1.530984699258198E-3    4.560771379081859E-3    4.053663132932812E-1   -2.015134210865097E-1
 8.117504045825000E9     5.033714877697300E-1   -5.554574069734129E-2    1.496473487229604E-3    4.445698344323764E-3    1.524875548212410E-3    4.518368866505008E-3    4.053091368902239E-1   -2.013316593642744E-1
 8.117505928900000E9     5.034410038407215E-1   -5.566274058412449E-2    1.492166102605131E-3    4.460896969442961E-3    1.537991788257344E-3    4.557991117618670E-3    4.053694280116610E-1   -2.018596733550537E-1
 8.117507811975000E9     5.032612575004493E-1   -5.585848654582504E-2    1.501944188127920E-3    4.495279052647741E-3    1.593777072009565E-3    4.604064062614583E-3    4.051758666624466E-1   -2.019186989448057E-1
 8.117509695050000E9     5.033015546699561E-1   -5.614036321804327E-2    1.487545963232480E-3    4.483573525261965E-3    1.562471440310723E-3    4.531438563676978E-3    4.052478748142313E-1   -2.019307532333712E-1
 8.117511578125000E9     5.032612312273828E-1   -5.628406365470077E-2    1.509429401940506E-3    4.489344599813676E-3    1.538263437861218E-3    4.568972076340278E-3    4.051203836972605E-1   -2.021292232816097E-1
 8.117513461200000E9     5.032773094239356E-1   -5.648726418810322E-2    1.524259782643101E-3    4.484192905698862E-3    1.562844228019673E-3    4.568573096881979E-3    4.048989477600762E-1   -2.021629337461235E-1
 8.117515344275000E9     5.032708171971892E-1   -5.666859705016186E-2    1.529445488529781E-3    4.533411106203625E-3    1.561964350144270E-3    4.606408638442598E-3    4.051092433003867E-1   -2.023186897038797E-1
 8.117517227350000E9     5.032014209074535E-1   -5.671867244718422E-2    1.528517114562872E-3    4.519170449794135E-3    1.617536558268070E-3    4.577491070226723E-3    4.049313996581096E-1   -2.024298176505075E-1
 8.117519110425000E9     5.032847966641812E-1   -5.704305059109884E-2    1.536848681334337E-3    4.512698854401328E-3    1.586855279051616E-3    4.614418905722934E-3    4.048904804457925E-1   -2.024214148173610E-1
 8.117520993500000E9     5.030810994930760E-1   -5.723647313960274E-2    1.533692623496274E-3    4.522219659271505E-3    1.654186257380271E-3    4.602652137719055E-3    4.048920956817306E-1   -2.025683068844355E-1
 8.117522876575000E9     5.029660114979466E-1   -5.739263133471674E-2    1.529507357255457E-3    4.530318440506470E-3    1.651549928384184E-3    4.630664620012089E-3    4.048126126235052E-1   -2.027675385132972E-1
 8.117524759650000E9     5.030818842848337E-1   -5.751764004844389E-2    1.566224751084115E-3    4.521606058801073E-3    1.633080484558168E-3    4.644432364381398E-3    4.047379717796640E-1   -2.028149842783543E-1
 8.117526642725000E9     5.030712744053851E-1   -5.776333489159530E-2    1.562712864391665E-3    4.579271056991088E-3    1.620497890215959E-3    4.661162167568771E-3    4.046654924207408E-1   -2.027769384120094E-1
 8.117528525800000E9     5.030767844150921E-1   -5.793862065422868E-2    1.560116616667894E-3    4.568696139212724E-3    1.609088324019622E-3    4.671843869097113E-3    4.046818957035023E-1   -2.030653260840659E-1
 8.117530408875000E9     5.029078226262861E-1   -5.821104136482436E-2    1.591381400555295E-3    4.588136203389363E-3    1.606898752676942E-3    4.681243115149615E-3    4.045284851282391E-1   -2.032548866611019E-1
 8.117532291950000E9     5.028953393649033E-1   -5.832408926169998E-2    1.559543571198704E-3    4.574737957434377E-3    1.619093188376684E-3    4.741088163002338E-3    4.045641510736676E-1   -2.033188926881140E-1
 8.117534175025000E9     5.029244677362511E-1   -5.861096383269805E-2    1.590276682732619E-3    4.590956629736848E-3    1.665384101406920E-3    4.636989006045042E-3    4.045102412870097E-1   -2.034702610279261E-1
 8.117536058100000E9     5.028800629808906E-1   -5.868073829098207E-2    1.582231197752976E-3    4.630304240240942E-3    1.707324608492300E-3    4.679970332976885E-3    4.045029646019486E-1   -2.036723520280626E-1
 8.117537941175000E9     5.027616140984661E-1   -5.904906282252393E-2    1.607514054692622E-3    4.634784221693181E-3    1.663986677636377E-3    4.740152030886320E-3    4.043511066846197E-1   -2.037332340376637E-1
 8.117539824250000E9     5.027717816715732E-1   -5.910567169199610E-2    1.618089288491648E-3    4.662456464879307E-3    1.689848304463442E-3    4.719812822092508E-3    4.043146205254019E-1   -2.038083395685869E-1
 8.117541707325000E9     5.026302772317125E-1   -5.933693069010162E-2    1.627907272034595E-3    4.638389598215381E-3    1.708558039100666E-3    4.720755028093954E-3    4.043080504559673E-1   -2.039870433130837E-1
 8.117543590400000E9     5.026402173398924E-1   -5.948225481031570E-2    1.622263977035317E-3    4.642062534451786E-3    1.729043198614940E-3    4.746750451897199E-3    4.041855004145702E-1   -2.041883795883237E-1
 8.117545473475000E9     5.025948085966073E-1   -5.979272379667545E-2    1.635707830483381E-3    4.643279152955425E-3    1.720950696795871E-3    4.758451054907497E-3    4.041327654339578E-1   -2.043258670348877E-1
 8.117547356550000E9     5.026043561825546E-1   -5.990990928657606E-2    1.648705059358652E-3    4.655743848419202E-3    1.709920422531754E-3    4.765510817819138E-3    4.040663474543135E-1   -2.044020075291471E-1
 8.117549239625000E9     5.025701899159555E-1   -6.003243074530376E-2    1.672552101139916E-3    4.662642255181542E-3    1.703878777373386E-3    4.732806432338953E-3    4.039969092749802E-1   -2.044796188496299E-1
 8.117551122700000E9     5.025079645102284E-1   -6.034568278929583E-2    1.683667835270532E-3    4.673343981806063E-3    1.705768474821451E-3    4.816093032078511E-3    4.040568207612359E-1   -2.046660019310180E-1
 8.117553005775000E9     5.025160869451808E-1   -6.045534812398225E-2    1.677291031438654E-3    4.712680226438924E-3    1.751991221596076E-3    4.805334301799633E-3    4.038522381245788E-1   -2.047214353144058E-1
 8.117554888850000E9     5.025338770175228E-1   -6.070661823453907E-2    1.676381701502560E-3    4.705261201349031E-3    1.761857634331381E-3    4.812763252465204E-3    4.039334619627866E-1   -2.048409817143094E-1
 8.117556771925000E9     5.023766381577415E-1   -6.080098108987134E-2    1.704141647745964E-3    4.726155329197274E-3    1.757463438259832E-3    4.862399869865027E-3    4.038263912405098E-1   -2.050121400246962E-1
 8.117558655000000E9     5.023013736047640E-1   -6.109780005090549E-2    1.702729682313469E-3    4.728922256306819E-3    1.755690864920400E-3    4.838590453553979E-3    4.037667984391123E-1   -2.051863225758825E-1
 8.117560538075000E9     5.023754893936124E-1   -6.122896879797945E-2    1.693221684413609E-3    4.746255316664254E-3    1.741652760541722E-3    4.830828833435793E-3    4.038142211687876E-1   -2.049892226162834E-1
 8.117562421150000E9     5.021484837720638E-1   -6.152860227359177E-2    1.737351311010179E-3    4.755428542572652E-3    1.761232204904188E-3    4.835260689679997E-3    4.035767275248751E-1   -2.054157987652333E-1
 8.117564304225000E9     5.021409807646648E-1   -6.160614538611964E-2    1.724303922839088E-3    4.765623867972826E-3    1.788318282308952E-3    4.861972529731819E-3    4.036099449857142E-1   -2.054445435718624E-1
 8.117566187300000E9     5.021359045250365E-1   -6.185652501507567E-2    1.724642137542292E-3    4.757681621524815E-3    1.805538375350061E-3    4.880821214550912E-3    4.036896651068969E-1   -2.056561672663626E-1
 8.117568070375000E9     5.021802468301024E-1   -6.205603159083058E-2    1.756002386131137E-3    4.799469306584211E-3    1.808279721617940E-3    4.908760200788593E-3    4.034269000092935E-1   -2.055090666221383E-1
 8.117569953450000E9     5.021665258873368E-1   -6.236299574480139E-2    1.752187147568347E-3    4.827625548218752E-3    1.775408671967965E-3    4.950931417648397E-3    4.034983282698983E-1   -2.058278819790236E-1
 8.117571836525000E9     5.019591875188347E-1   -6.249512448893017E-2    1.740347251764281E-3    4.795329850635232E-3    1.846337194280901E-3    4.964737183235259E-3    4.033789399230880E-1   -2.059840050165698E-1
 8.117573719600000E9     5.019695075683795E-1   -6.272882706807291E-2    1.775578913148986E-3    4.813409850149659E-3    1.852768158889560E-3    4.928594235508241E-3    4.031472419199796E-1   -2.059482401542161E-1
 8.117575602675000E9     5.018898730857407E-1   -6.290616271515412E-2    1.793588807463846E-3    4.823452335557542E-3    1.866824377692138E-3    4.966167678072928E-3    4.033126469973117E-1   -2.061783330554279E-1
 8.117577485750000E9     5.018797539233129E-1   -6.315187190359128E-2    1.797567976423796E-3    4.851820644939693E-3    1.868249064740132E-3    4.885254590462886E-3    4.032743384008329E-1   -2.063641804803407E-1
