#  HZ   S   RI   R     50.00 
! Rohde & Schwarz Vector Network Analyzer 
! Rohde-Schwarz,ZNB20-2Port,1311601062101988,3.16
! Created: UTC 3/20/2024, 12:04:37 PM
! freq[Hz]                re:S11                  im:S11                  re:S21                  im:S21                  re:S12                  im:S12                  re:S22                  im:S22
 8.117468412000000E9     5.041124322077783E-1   -5.182301275553754E-2    1.363009080857397E-3    4.287927842505540E-3    1.397186018388853E-3    4.363492350154068E-3    4.063377967278498E-1   -1.993515344644279E-1
 8.117470067350000E9     5.041742167931105E-1   -5.199690214196193E-2    1.372395827794604E-3    4.279272699852483E-3    1.406425168405022E-3    4.362791934652378E-3    4.062771306152825E-1   -1.993975737083629E-1
 8.117471722700000E9     5.041201207708217E-1   -5.220462433467235E-2    1.393073856653032E-3    4.319647935446783E-3    1.419609834419108E-3    4.403052676863664E-3    4.061803538410328E-1   -1.994635924112827E-1
 8.117473378050000E9     5.041695695993884E-1   -5.230352759470893E-2    1.353923684319036E-3    4.299226628855827E-3    1.414563864560459E-3    4.458606475108831E-3    4.061400255652520E-1   -1.996149700656853E-1
 8.117475033400000E9     5.041237796413773E-1   -5.240235128523735E-2    1.381898341174245E-3    4.298245114494809E-3    1.405455640278636E-3    4.392395330314419E-3    4.062134446102302E-1   -1.996628570353592E-1
 8.117476688750000E9     5.040481088132478E-1   -5.258859488279236E-2    1.395192401411584E-3    4.309989585867309E-3    1.430384460623260E-3    4.407957349164675E-3    4.061267351391299E-1   -1.997467288397042E-1
 8.117478344100000E9     5.039797442816782E-1   -5.276831328609640E-2    1.371475578603798E-3    4.315549165310348E-3    1.439173337177542E-3    4.412750789096882E-3    4.061107890856231E-1   -1.999131976482208E-1
 8.117479999450000E9     5.040995039226578E-1   -5.289544474855178E-2    1.396583364134498E-3    4.323345676555436E-3    1.451714168951351E-3    4.410595634418947E-3    4.060554345340859E-1   -2.000744361346992E-1
 8.117481654800000E9     5.039510273762541E-1   -5.312341413508573E-2    1.420358114465543E-3    4.328955487820730E-3    1.406312456641003E-3    4.435573284401105E-3    4.059069857440435E-1   -2.000668909991631E-1
 8.117483310150000E9     5.038963675773499E-1   -5.325320318043052E-2    1.395378758355827E-3    4.364072985310961E-3    1.445406850038252E-3    4.395742921632635E-3    4.058488220494878E-1   -2.001538192402822E-1
 8.117484965500000E9     5.040799851653265E-1   -5.344061488504884E-2    1.394795444288399E-3    4.355590712088466E-3    1.468066927028813E-3    4.460739067819625E-3    4.057802350491333E-1   -2.002458382671077E-1
 8.117486620850000E9     5.040010656985027E-1   -5.358903883245859E-2    1.399914811664488E-3    4.360883000697965E-3    1.452595002823513E-3    4.438595513276343E-3    4.057448851825716E-1   -2.003524568668197E-1
 8.117488276200000E9     5.039915759482902E-1   -5.375763775396226E-2    1.394566846472853E-3    4.365101035113056E-3    1.471562443061300E-3    4.442605370134223E-3    4.057888024054173E-1   -2.005198077920094E-1
 8.117489931550000E9     5.038447229308228E-1   -5.381284373871598E-2    1.420317646020106E-3    4.365543604257235E-3    1.484462434329492E-3    4.451228049416046E-3    4.057692145414463E-1   -2.005955788512880E-1
 8.117491586900000E9     5.039727482677634E-1   -5.406739939922464E-2    1.426992170581293E-3    4.355688521132093E-3    1.461177536654470E-3    4.468685742305423E-3    4.056285225499782E-1   -2.005923215723891E-1
 8.117493242250000E9     5.039383684415686E-1   -5.423578733413639E-2    1.407492704673407E-3    4.364864228177528E-3    1.466286055308219E-3    4.500585899656181E-3    4.056938604386937E-1   -2.008416654440692E-1
 8.117494897600000E9     5.037791201902231E-1   -5.431368479828248E-2    1.438603192009265E-3    4.384907056944359E-3    1.453485574393309E-3    4.442640128611283E-3    4.055985335309724E-1   -2.008661720137068E-1
 8.117496552950000E9     5.038555689506837E-1   -5.448642947555341E-2    1.427427327513981E-3    4.376080177185591E-3    1.494431633652499E-3    4.485447538974266E-3    4.055355526882569E-1   -2.012247984716281E-1
 8.117498208300000E9     5.038866010190808E-1   -5.459164372024972E-2    1.453133384524713E-3    4.371387300682395E-3    1.467316266305771E-3    4.455050017496070E-3    4.054777877403966E-1   -2.012606669732750E-1
 8.117499863650000E9     5.037482372888450E-1   -5.477883533848232E-2    1.432609008383601E-3    4.401767698953960E-3    1.457306695231229E-3    4.499643345163729E-3    4.054131166107668E-1   -2.013229149472403E-1
 8.117501519000000E9     5.037470795774018E-1   -5.502192821974086E-2    1.461031178291190E-3    4.402744724011504E-3    1.505181523192560E-3    4.497164207246473E-3    4.053102137752028E-1   -2.014806594072258E-1
 8.117503174350000E9     5.037219742538637E-1   -5.521402564760421E-2    1.456082519937386E-3    4.411824245032144E-3    1.508820829607470E-3    4.487998623823237E-3    4.054173057834728E-1   -2.013966840946707E-1
 8.117504829700000E9     5.036277581428643E-1   -5.522182326155495E-2    1.455142346045246E-3    4.419661649191314E-3    1.583938627624562E-3    4.497248514912917E-3    4.053036005363003E-1   -2.016974528017844E-1
 8.117506485050000E9     5.036200071731936E-1   -5.547491637315328E-2    1.455077612026327E-3    4.433619214279647E-3    1.532585246699734E-3    4.536470832593185E-3    4.051962724423089E-1   -2.017722692828007E-1
 8.117508140400000E9     5.035930703871403E-1   -5.546993631824208E-2    1.466648845176510E-3    4.409074704141182E-3    1.487327553095283E-3    4.532565206118684E-3    4.052922851865526E-1   -2.019121949085649E-1
 8.117509795750000E9     5.035272162398662E-1   -5.578847999331347E-2    1.462108957892905E-3    4.413425774235358E-3    1.521719019475897E-3    4.542850516062348E-3    4.052665370422638E-1   -2.018876198632515E-1
 8.117511451100000E9     5.034886876718041E-1   -5.589710147336611E-2    1.481472308897227E-3    4.442476419898817E-3    1.539376428878985E-3    4.508666874669170E-3    4.051296771460119E-1   -2.020578940344027E-1
 8.117513106450000E9     5.035026528720817E-1   -5.611035825570507E-2    1.460758552889394E-3    4.444109256255152E-3    1.484132970575908E-3    4.596627161299403E-3    4.050286812043336E-1   -2.021994605845580E-1
 8.117514761800000E9     5.034380626694833E-1   -5.623790005427326E-2    1.486499080834066E-3    4.441220615052291E-3    1.546718264866931E-3    4.532545336308430E-3    4.050219972085640E-1   -2.022478075540269E-1
 8.117516417150000E9     5.034517148683241E-1   -5.633437294102559E-2    1.473822148364524E-3    4.477999403594430E-3    1.524602175384121E-3    4.555054797911576E-3    4.050140993114799E-1   -2.022661543264878E-1
 8.117518072500000E9     5.034674588184287E-1   -5.658572486058483E-2    1.510713655816907E-3    4.483774012280515E-3    1.580222349404414E-3    4.596100069942785E-3    4.048797038828001E-1   -2.025037827560112E-1
 8.117519727850000E9     5.035179661530104E-1   -5.672142615549046E-2    1.497456747535373E-3    4.480011152837456E-3    1.597133744719284E-3    4.569603090229835E-3    4.048623705567697E-1   -2.026127579126744E-1
 8.117521383200000E9     5.033723433881452E-1   -5.687070806428158E-2    1.519846386963172E-3    4.505148969978856E-3    1.561595984631594E-3    4.579879897455418E-3    4.047247727953279E-1   -2.025962271679839E-1
 8.117523038550000E9     5.033311350420848E-1   -5.709068406053311E-2    1.529140816515208E-3    4.515041680485151E-3    1.600711608400421E-3    4.543934635748986E-3    4.047257747807880E-1   -2.029101094063836E-1
 8.117524693900000E9     5.032507827380801E-1   -5.724603180679003E-2    1.499203910401103E-3    4.503848698232337E-3    1.558798133011076E-3    4.617390932245497E-3    4.046116298555838E-1   -2.027371885576472E-1
 8.117526349250000E9     5.032769707332592E-1   -5.736754629107389E-2    1.534431797082953E-3    4.517207665396888E-3    1.578784161200288E-3    4.624265479468872E-3    4.045284867000860E-1   -2.028744966387975E-1
 8.117528004600000E9     5.033096418914021E-1   -5.760307717789200E-2    1.546031379595071E-3    4.517350547903366E-3    1.576528393371345E-3    4.614256286147356E-3    4.046706253092042E-1   -2.033294603164895E-1
 8.117529659950000E9     5.032053808036120E-1   -5.775025015153162E-2    1.516620786757020E-3    4.545287652959508E-3    1.566130418063410E-3    4.654399765365097E-3    4.047456814444339E-1   -2.032409008792398E-1
 8.117531315300000E9     5.031131926222726E-1   -5.798428941832158E-2    1.548295542937703E-3    4.525409577623654E-3    1.553806538644015E-3    4.638797934906571E-3    4.045369876076120E-1   -2.032960805320045E-1
 8.117532970650000E9     5.031932416723260E-1   -5.797131558714352E-2    1.541504174890433E-3    4.523381600336419E-3    1.612492681741323E-3    4.643179640986913E-3    4.045463139323665E-1   -2.035127232713252E-1
 8.117534626000000E9     5.031881180301799E-1   -5.823512006676701E-2    1.540610189362683E-3    4.570655602712336E-3    1.619748905636373E-3    4.659111215221318E-3    4.045248555219536E-1   -2.035736057624500E-1
 8.117536281350000E9     5.030803535533409E-1   -5.845159999745307E-2    1.552876170420548E-3    4.561052627259705E-3    1.633820163229934E-3    4.677947094968345E-3    4.043225689906718E-1   -2.037102078280744E-1
 8.117537936700000E9     5.031109826188719E-1   -5.851960048418134E-2    1.541442653319405E-3    4.562962174072345E-3    1.626586467422235E-3    4.669700588097989E-3    4.042703153024650E-1   -2.037491269512028E-1
 8.117539592050000E9     5.031048814432056E-1   -5.870812923171403E-2    1.572116893449831E-3    4.578436912156817E-3    1.633820042197540E-3    4.635468069105246E-3    4.042409582549171E-1   -2.039309582633386E-1
 8.117541247400000E9     5.029952345296559E-1   -5.890594405838484E-2    1.574854643723545E-3    4.585677997170819E-3    1.597665273100964E-3    4.701225180563199E-3    4.042358050333165E-1   -2.039744383012920E-1
 8.117542902750000E9     5.029855158172011E-1   -5.896419451456258E-2    1.573922043150243E-3    4.592497088982109E-3    1.641058352179356E-3    4.725301873243029E-3    4.041648394475641E-1   -2.040893513849279E-1
 8.117544558100000E9     5.029701191418171E-1   -5.918564936865494E-2    1.593253161003239E-3    4.599443330088524E-3    1.700406013799367E-3    4.706672477787791E-3    4.042138257510444E-1   -2.041259673940602E-1
 8.117546213450000E9     5.029981838151206E-1   -5.926930356270440E-2    1.590507278058815E-3    4.615997827243930E-3    1.602582610131122E-3    4.695408378286404E-3    4.042127007757508E-1   -2.042091171068380E-1
 8.117547868800000E9     5.029714769469193E-1   -5.953443151072099E-2    1.574051464235998E-3    4.595512914668132E-3    1.655370552397459E-3    4.707245815960946E-3    4.040101040304724E-1   -2.043659805717332E-1
 8.117549524150000E9     5.028047049727010E-1   -5.968478973650983E-2    1.591338846841317E-3    4.608840687876196E-3    1.620063389194846E-3    4.726528145642765E-3    4.039607741682207E-1   -2.043772507870774E-1
 8.117551179500000E9     5.027680599455475E-1   -5.992900803104335E-2    1.592135543833723E-3    4.642462048587433E-3    1.709307777888343E-3    4.745874819553224E-3    4.040325044907498E-1   -2.045784649825899E-1
 8.117552834850000E9     5.027798218676836E-1   -5.998348380760607E-2    1.613569682374011E-3    4.611495864348792E-3    1.704461735927849E-3    4.723879729181584E-3    4.038406413674085E-1   -2.047610324149573E-1
 8.117554490200000E9     5.027072200694510E-1   -6.019192069487984E-2    1.615295621227020E-3    4.617058530215223E-3    1.703769031103518E-3    4.733009112078211E-3    4.038378438654496E-1   -2.049502071402262E-1
 8.117556145550000E9     5.027498097265397E-1   -6.028609535323547E-2    1.627470640592531E-3    4.658223010490553E-3    1.683743482418535E-3    4.741400494474712E-3    4.038415140508755E-1   -2.049702698201966E-1
 8.117557800900000E9     5.026495853094037E-1   -6.061079713969534E-2    1.642937465228495E-3    4.679227340563974E-3    1.700617196523253E-3    4.776383617214653E-3    4.037428401645690E-1   -2.049755939778051E-1
 8.117559456250000E9     5.026921227285155E-1   -6.067899278399951E-2    1.661183595246438E-3    4.675537986738284E-3    1.699962871813495E-3    4.793589652885695E-3    4.037183409920352E-1   -2.052107584917998E-1
 8.117561111600000E9     5.026979360622972E-1   -6.086313612637157E-2    1.636526316848014E-3    4.675215179050969E-3    1.778695369219319E-3    4.797885417397139E-3    4.036601453891932E-1   -2.051463810244541E-1
 8.117562766950000E9     5.024750386858827E-1   -6.100515826969306E-2    1.654079362803934E-3    4.699222000692959E-3    1.721189400067309E-3    4.753914324152036E-3    4.036991969028607E-1   -2.053189833290378E-1
 8.117564422300000E9     5.025606693935514E-1   -6.133850054693724E-2    1.642007451977115E-3    4.705980600106685E-3    1.753003614342022E-3    4.814296207506786E-3    4.035331940204160E-1   -2.054363201244949E-1
 8.117566077650000E9     5.025126709894733E-1   -6.142075230241516E-2    1.673521147337103E-3    4.716371389809788E-3    1.725085401399656E-3    4.864813874950597E-3    4.035602213603123E-1   -2.055273837927224E-1
 8.117567733000000E9     5.025205620182075E-1   -6.154168556829222E-2    1.680316164879497E-3    4.760365141235009E-3    1.771084170071987E-3    4.837757009103243E-3    4.034247439162615E-1   -2.056555971978665E-1
 8.117569388350000E9     5.024904164649728E-1   -6.178858019792900E-2    1.680901587993461E-3    4.762481418194650E-3    1.764313031189760E-3    4.822383930172083E-3    4.033716354195611E-1   -2.058251169652662E-1
 8.117571043700000E9     5.022946595573887E-1   -6.196316755977156E-2    1.696584304041360E-3    4.752151019329405E-3    1.728113990776328E-3    4.870189469824152E-3    4.034529877764774E-1   -2.059370775729987E-1
 8.117572699050000E9     5.022566004956754E-1   -6.206036864448242E-2    1.710792390548536E-3    4.748909043297622E-3    1.776014972851736E-3    4.888655107018307E-3    4.032924025464975E-1   -2.059710563350692E-1
 8.117574354400000E9     5.023541228361227E-1   -6.232254488295980E-2    1.709579865086659E-3    4.780277265494800E-3    1.782717283449897E-3    4.905951781270862E-3    4.031471659439316E-1   -2.061097739748134E-1
 8.117576009750000E9     5.023113816796799E-1   -6.251122564304626E-2    1.718926652160041E-3    4.786009453081983E-3    1.782543060917058E-3    4.840009974336843E-3    4.032670366918371E-1   -2.061585723868692E-1
 8.117577665100000E9     5.021942734652345E-1   -6.267543525304023E-2    1.736300950582555E-3    4.800008998579168E-3    1.758697104680032E-3    4.909947610878141E-3    4.031189309286096E-1   -2.063367035770308E-1
 8.117579320450000E9     5.022349422530221E-1   -6.287386631736494E-2    1.715472642613173E-3    4.816799913949561E-3    1.800480409113180E-3    4.888441155303360E-3    4.032948540337814E-1   -2.063240996192781E-1
 8.117580975800000E9     5.021093163705490E-1   -6.301093414279491E-2    1.740121641166356E-3    4.816280167142934E-3    1.809637749541113E-3    4.939346694212033E-3    4.030432210251664E-1   -2.065263174752829E-1
 8.117582631150000E9     5.022155960902558E-1   -6.317465990107034E-2    1.745868833996401E-3    4.855564053533487E-3    1.802908278860643E-3    4.953733147073897E-3    4.029562564630923E-1   -2.066902134844674E-1
 8.117584286500000E9     5.020084013735210E-1   -6.336253951438292E-2    1.765107061039991E-3    4.853735456257498E-3    1.857919763892677E-3    4.952637792498032E-3    4.027932294169957E-1   -2.067774582861501E-1
 8.117585941850000E9     5.020585232526773E-1   -6.350860338030646E-2    1.768706674253177E-3    4.852283934344264E-3    1.812102761845550E-3    4.963894242894349E-3    4.029343616164737E-1   -2.069004440955115E-1
 8.117587597200000E9     5.020449806473317E-1   -6.370979478140051E-2    1.775853809615814E-3    4.863720692229724E-3    1.845830327783854E-3    4.960157718397831E-3    4.026921988336388E-1   -2.069247943748806E-1
 8.117589252550000E9     5.020826105469267E-1   -6.389759689072286E-2    1.775123377917385E-3    4.855323933159308E-3    1.866109871401173E-3    4.960922377824245E-3    4.028476683111437E-1   -2.070132206755663E-1
 8.117590907900000E9     5.019331554831716E-1   -6.414234866484578E-2    1.764596163828504E-3    4.898279589556048E-3    1.891596215367861E-3    4.977657389887617E-3    4.027699632412233E-1   -2.072445673459581E-1
 8.117592563250000E9     5.019126099134753E-1   -6.427602145029240E-2    1.795366502205045E-3    4.889165878900316E-3    1.879718562784776E-3    5.036471274534668E-3    4.027060092515726E-1   -2.073498912179465E-1
 8.117594218600000E9     5.018310578088140E-1   -6.455093118847459E-2    1.789691840547901E-3    4.897143426316863E-3    1.896544338046370E-3    5.059642023158889E-3    4.026223226721059E-1   -2.071882165590370E-1
 8.117595873950000E9     5.016838135529029E-1   -6.476053129196845E-2    1.833489335952099E-3    4.912851558219983E-3    1.877935108489724E-3    5.051712007558676E-3    4.026367141119268E-1   -2.074326664762506E-1
 8.117597529300000E9     5.016852626055924E-1   -6.483634892857458E-2    1.834626874845955E-3    4.930726430217163E-3    1.897783903891612E-3    5.081239052691878E-3    4.024903996842656E-1   -2.075611489607478E-1
 8.117599184650000E9     5.016403110762745E-1   -6.507326998727685E-2    1.865427973402338E-3    4.953993098392960E-3    1.898446264410848E-3    5.055715891596411E-3    4.024913560332574E-1   -2.076963762326051E-1
 8.117600840000000E9     5.015656087082552E-1   -6.525972937785084E-2    1.876338781632825E-3    4.960732102593264E-3    1.909729612685127E-3    5.057386710127747E-3    4.023516974826866E-1   -2.077508996937324E-1
 8.117602495350000E9     5.015093020338521E-1   -6.536770189815047E-2    1.864924475234259E-3    4.952327722484480E-3    1.949547528978957E-3    5.098234422427215E-3    4.023057735890856E-1   -2.081129369356612E-1
 8.117604150700000E9     5.014735331615944E-1   -6.564148565544142E-2    1.883276356764716E-3    4.989478239940356E-3    1.911952810694519E-3    5.089839612073620E-3    4.024582252227735E-1   -2.080631103493498E-1
 8.117605806050000E9     5.014039456599205E-1   -6.582595551360977E-2    1.887130391413600E-3    4.991469712844650E-3    1.975373914474928E-3    5.050938589953486E-3    4.023565158782404E-1   -2.080408329995118E-1
 8.117607461400000E9     5.013223189728159E-1   -6.592620649447410E-2    1.896003976510504E-3    4.999109290679364E-3    1.975837656042380E-3    5.077385750344697E-3    4.022389827698443E-1   -2.082356062354023E-1
 8.117609116750000E9     5.013945932462123E-1   -6.619626258851241E-2    1.898186350151191E-3    5.045696480710547E-3    1.977757674510168E-3    5.136622853900128E-3    4.021245116762022E-1   -2.083005853955266E-1
 8.117610772100000E9     5.013321727958822E-1   -6.638721446189558E-2    1.906010041869648E-3    5.043060093806347E-3    1.986211724152328E-3    5.183656358504446E-3    4.020813552778174E-1   -2.085292182642607E-1
 8.117612427450000E9     5.012515145066266E-1   -6.662885941832218E-2    1.918957602543252E-3    5.055116064258692E-3    2.017029907432367E-3    5.142370261610288E-3    4.021516967468963E-1   -2.086161468067286E-1
 8.117614082800000E9     5.012409213214017E-1   -6.674628141925139E-2    1.931826388063817E-3    5.061133900347950E-3    1.976896228124399E-3    5.186348908034324E-3    4.020274755117434E-1   -2.086284731938988E-1
 8.117615738150000E9     5.010537740631545E-1   -6.694024286054046E-2    1.945098237277529E-3    5.098793561224366E-3    2.019882254269113E-3    5.192058114660943E-3    4.020308252972647E-1   -2.087610996151590E-1
 8.117617393500000E9     5.010401832235963E-1   -6.710933962729571E-2    1.956340682481592E-3    5.104640495115061E-3    2.035914246271722E-3    5.222304570124301E-3    4.018098035310159E-1   -2.089269442109897E-1
