#  HZ   S   RI   R     50.00 
! Rohde & Schwarz Vector Network Analyzer 
! Rohde-Schwarz,ZNB20-2Port,1311601062101988,3.16
! Created: UTC 3/20/2024, 12:05:04 PM
! freq[Hz]                re:S11                  im:S11                  re:S21                  im:S21                  re:S12                  im:S12                  re:S22                  im:S22
 8.117511758000000E9     5.038552334714863E-1   -5.564549677246679E-2    1.436322942608649E-3    4.413826090646895E-3    1.489516192374193E-3    4.497745219786892E-3    4.051198990682607E-1   -2.021910509926207E-1
 8.117513253550000E9     5.037517690986287E-1   -5.582569396285238E-2    1.457000058220986E-3    4.438474891526753E-3    1.484209135432114E-3    4.531034466867831E-3    4.050563348002837E-1   -2.020798939551951E-1
 8.117514749100000E9     5.036972146511232E-1   -5.597942139988463E-2    1.411059554196498E-3    4.428886771399404E-3    1.466405808509988E-3    4.531449284576062E-3    4.048894233426701E-1   -2.023349143987844E-1
 8.117516244650000E9     5.036545578767885E-1   -5.607617022855758E-2    1.441949820965519E-3    4.423413081205773E-3    1.535467450441271E-3    4.501247857331245E-3    4.049084257774372E-1   -2.023283971324203E-1
 8.117517740200000E9     5.035868508417017E-1   -5.627821959465666E-2    1.425912104364931E-3    4.444822877062749E-3    1.535850898254490E-3    4.556814149147222E-3    4.048599012424994E-1   -2.024597883840015E-1
 8.117519235750000E9     5.036287571542026E-1   -5.644662939282177E-2    1.463475052346033E-3    4.452201056688689E-3    1.493020583757369E-3    4.540277116696415E-3    4.048076627512943E-1   -2.025034743119898E-1
 8.117520731300000E9     5.035518717911499E-1   -5.645330856731856E-2    1.444518842186660E-3    4.451812316115552E-3    1.525928280472526E-3    4.516518123552587E-3    4.047742557945062E-1   -2.025130012490834E-1
 8.117522226850000E9     5.036702528121721E-1   -5.663599456669466E-2    1.460847456354134E-3    4.442490528847346E-3    1.525482559467405E-3    4.564727793940650E-3    4.048157665266979E-1   -2.027941133474617E-1
 8.117523722400000E9     5.036885685714292E-1   -5.682777014346543E-2    1.460240584577370E-3    4.442897493419770E-3    1.532843793368817E-3    4.561674487891789E-3    4.047346406623574E-1   -2.028620342311276E-1
 8.117525217950000E9     5.034612982625644E-1   -5.697665082407134E-2    1.480114705244165E-3    4.478558927217857E-3    1.560186561838600E-3    4.533782208919311E-3    4.046164689812787E-1   -2.028708866141202E-1
 8.117526713500000E9     5.034805912407343E-1   -5.711358131564693E-2    1.482819330853173E-3    4.499632246527920E-3    1.594199042501276E-3    4.568887090582654E-3    4.046975495697257E-1   -2.029709053814876E-1
 8.117528209050000E9     5.033677357012546E-1   -5.724583035482365E-2    1.472938441151332E-3    4.465170291703543E-3    1.542015037368160E-3    4.567186159085640E-3    4.046504788754395E-1   -2.030131728530140E-1
 8.117529704600000E9     5.033940455035447E-1   -5.743031089687767E-2    1.490620325953121E-3    4.480059462512617E-3    1.511269025818246E-3    4.575128320643663E-3    4.045434581217382E-1   -2.031986903055657E-1
 8.117531200150000E9     5.034388734990372E-1   -5.758991587850099E-2    1.496160475935454E-3    4.458484138769633E-3    1.566425781364274E-3    4.586947971591304E-3    4.043627507256044E-1   -2.033971669192075E-1
 8.117532695700000E9     5.033682997302641E-1   -5.784161428232749E-2    1.492434208545291E-3    4.522589499959074E-3    1.543490696378638E-3    4.570391134851803E-3    4.044512710739390E-1   -2.033320732747933E-1
 8.117534191250000E9     5.033882608614446E-1   -5.784539270077439E-2    1.511607723234515E-3    4.502023208433359E-3    1.545859373570477E-3    4.621777685782855E-3    4.043987519966969E-1   -2.034905885652018E-1
 8.117535686800000E9     5.033340135169633E-1   -5.806841318059615E-2    1.518926511436067E-3    4.502740978078225E-3    1.567214050684268E-3    4.625495325704442E-3    4.043579738886544E-1   -2.035709025898610E-1
 8.117537182350000E9     5.034155396646278E-1   -5.820791547640386E-2    1.512454320725398E-3    4.511835947456653E-3    1.547496255219597E-3    4.654252022604677E-3    4.042866652628037E-1   -2.037513318474698E-1
 8.117538677900000E9     5.032435667446233E-1   -5.828913947745070E-2    1.523500957565231E-3    4.495967286190615E-3    1.591327264953033E-3    4.609520269662059E-3    4.043664726357045E-1   -2.039070624666799E-1
 8.117540173450000E9     5.031826018768947E-1   -5.848369478083509E-2    1.518812583957260E-3    4.529404789645352E-3    1.618876918809383E-3    4.621378714912398E-3    4.042029261993214E-1   -2.039830020970975E-1
 8.117541669000000E9     5.032144914050533E-1   -5.870614530199787E-2    1.516822255315988E-3    4.570999296236901E-3    1.598779227884155E-3    4.611962596026216E-3    4.042395940494335E-1   -2.040268392404086E-1
 8.117543164550000E9     5.031881577467362E-1   -5.880911765494336E-2    1.502369121363990E-3    4.556461136211610E-3    1.575874230178525E-3    4.622819358764403E-3    4.041709688426840E-1   -2.039814749790674E-1
 8.117544660100000E9     5.032785378160226E-1   -5.898086149363611E-2    1.517636003841156E-3    4.562657341838935E-3    1.559366037551504E-3    4.658395552364128E-3    4.041307443008156E-1   -2.041478215454329E-1
 8.117546155650000E9     5.032824583396561E-1   -5.915381945784968E-2    1.554394657406782E-3    4.558721914904184E-3    1.617070018861525E-3    4.638118551383384E-3    4.041327589601645E-1   -2.041849048651173E-1
 8.117547651200000E9     5.031415848295595E-1   -5.921946678042408E-2    1.524340985581052E-3    4.553562298852442E-3    1.596716985925830E-3    4.663500125422828E-3    4.040571289652825E-1   -2.043292319858412E-1
 8.117549146750000E9     5.030034610082753E-1   -5.939788571634161E-2    1.562169091571011E-3    4.564980388297507E-3    1.579520269704360E-3    4.633051131329721E-3    4.039995391871087E-1   -2.044297926184699E-1
 8.117550642300000E9     5.030737831865926E-1   -5.945703087406850E-2    1.546068281839975E-3    4.606161095907876E-3    1.628990725735966E-3    4.639800335318160E-3    4.038967979518255E-1   -2.046792590675746E-1
 8.117552137850000E9     5.030428116015098E-1   -5.972738448057235E-2    1.572744419534793E-3    4.565913256339223E-3    1.602614651532721E-3    4.696673357017555E-3    4.039359801055410E-1   -2.046546921171034E-1
 8.117553633400000E9     5.030372076499110E-1   -5.983167301661529E-2    1.568775652115625E-3    4.594965089267174E-3    1.610730551362893E-3    4.653784567767638E-3    4.037749334626833E-1   -2.047172457030258E-1
 8.117555128950000E9     5.029156419094666E-1   -5.991618152334256E-2    1.568040626891748E-3    4.615469024663045E-3    1.668385334752106E-3    4.670810270024810E-3    4.036539067886699E-1   -2.048299967511677E-1
 8.117556624500000E9     5.029178280117766E-1   -6.018133717376936E-2    1.565701847699483E-3    4.613748154475250E-3    1.663664624152582E-3    4.716215766766133E-3    4.037220603314148E-1   -2.050818314569096E-1
 8.117558120050000E9     5.029458888728481E-1   -6.028437479655648E-2    1.575062132261617E-3    4.609851247477240E-3    1.646016355333508E-3    4.726567212614733E-3    4.035856530247224E-1   -2.049596705872767E-1
 8.117559615600000E9     5.029784183009743E-1   -6.032363384413587E-2    1.582555275750514E-3    4.634008872355487E-3    1.623648344574464E-3    4.689782331479772E-3    4.036542448423660E-1   -2.051133852075840E-1
 8.117561111150000E9     5.029809685790040E-1   -6.054809986574741E-2    1.606564381246170E-3    4.634784549619375E-3    1.655727995496572E-3    4.727031999081625E-3    4.037859262570007E-1   -2.053731233889676E-1
 8.117562606700000E9     5.027709260441142E-1   -6.074760697536916E-2    1.596467474117693E-3    4.642311810365321E-3    1.688318265400739E-3    4.750957445110173E-3    4.035078099761462E-1   -2.051605730296079E-1
 8.117564102250000E9     5.028147599901164E-1   -6.076101359362422E-2    1.629948528384328E-3    4.639237406278644E-3    1.672265524973247E-3    4.776497881942966E-3    4.035812115958736E-1   -2.054911253304559E-1
 8.117565597800000E9     5.027757096168395E-1   -6.103582364397098E-2    1.611206280744396E-3    4.692692988816772E-3    1.667649273117122E-3    4.755892182014818E-3    4.034878257419782E-1   -2.055163975253068E-1
 8.117567093350000E9     5.028934574741007E-1   -6.128543358093277E-2    1.635976883421990E-3    4.679702004396718E-3    1.717529276027773E-3    4.754232395230654E-3    4.035397389980809E-1   -2.056349040173958E-1
 8.117568588900000E9     5.027346756006454E-1   -6.147354863386149E-2    1.636323700541080E-3    4.699844088193523E-3    1.716297798747589E-3    4.778101179365342E-3    4.033599276123185E-1   -2.057153194753171E-1
 8.117570084450000E9     5.026053180312727E-1   -6.148445059895200E-2    1.646035340820986E-3    4.669875186766987E-3    1.650649293189893E-3    4.810178248587382E-3    4.034436874714456E-1   -2.058711550974506E-1
 8.117571580000000E9     5.025482026638604E-1   -6.166391628742541E-2    1.648272414914462E-3    4.720448310336208E-3    1.711633802028329E-3    4.798837782410431E-3    4.032307372900804E-1   -2.058810775928593E-1
 8.117573075550000E9     5.025360900261473E-1   -6.178398575021447E-2    1.647970409488265E-3    4.697704941951784E-3    1.726940590301205E-3    4.812073740475835E-3    4.031831874343987E-1   -2.060725472725354E-1
 8.117574571100000E9     5.027464339906524E-1   -6.201662607204357E-2    1.634419101191247E-3    4.719465227290852E-3    1.734173381315881E-3    4.802136169839135E-3    4.032018085597145E-1   -2.061255226207231E-1
 8.117576066650000E9     5.024611696282388E-1   -6.215358715375891E-2    1.655888328430221E-3    4.733396267348608E-3    1.712908112171255E-3    4.853005097085818E-3    4.031034267420432E-1   -2.061337935294559E-1
 8.117577562200000E9     5.025436847588857E-1   -6.231361534290134E-2    1.657825547522993E-3    4.726303518286395E-3    1.745767819979232E-3    4.856584455274669E-3    4.032396082325016E-1   -2.063831995683406E-1
 8.117579057750000E9     5.024660449400414E-1   -6.253769480615068E-2    1.655526066949729E-3    4.719840778578852E-3    1.732659081773753E-3    4.816459638873446E-3    4.031419036141802E-1   -2.063312515049804E-1
 8.117580553300000E9     5.025046931717456E-1   -6.267419823124573E-2    1.648068239279168E-3    4.757484112763478E-3    1.781967651022950E-3    4.829563874283830E-3    4.030577769427506E-1   -2.064885320731791E-1
 8.117582048850000E9     5.024486969716340E-1   -6.288326489622198E-2    1.667196877187047E-3    4.793292070350662E-3    1.718818947559009E-3    4.900895245943655E-3    4.029238124467331E-1   -2.066287524204919E-1
 8.117583544400000E9     5.023599039340080E-1   -6.292197228860921E-2    1.687490590848135E-3    4.784508551677859E-3    1.696194930636645E-3    4.911551561129922E-3    4.031253685814545E-1   -2.065565696116199E-1
 8.117585039950000E9     5.023616407747119E-1   -6.326449476910985E-2    1.683623908207167E-3    4.753946937949996E-3    1.730274113104818E-3    4.865073028971941E-3    4.029190851374225E-1   -2.067753311464996E-1
 8.117586535500000E9     5.023483440462249E-1   -6.337430626829167E-2    1.708137737278496E-3    4.785210317937837E-3    1.760402621967182E-3    4.951981080163437E-3    4.027701610816378E-1   -2.068692378743503E-1
 8.117588031050000E9     5.022616002281090E-1   -6.351990145865359E-2    1.708378998658839E-3    4.810145889370579E-3    1.763054204115044E-3    4.867821930399568E-3    4.027027164115473E-1   -2.069224565305511E-1
 8.117589526600000E9     5.021814904888861E-1   -6.369673069629862E-2    1.738854262568229E-3    4.817526623964584E-3    1.781099936217347E-3    4.920029714667271E-3    4.027155011364671E-1   -2.071644835463159E-1
 8.117591022150000E9     5.022537283389685E-1   -6.380389861228589E-2    1.722596134368397E-3    4.817055592793433E-3    1.838726690209359E-3    4.896032038394542E-3    4.027962626791964E-1   -2.071057146558738E-1
 8.117592517700000E9     5.019087463853578E-1   -6.388180630018389E-2    1.735757285019088E-3    4.846822677285323E-3    1.797836742632921E-3    4.923000379339980E-3    4.026572642752350E-1   -2.072313075226599E-1
 8.117594013250000E9     5.021113391622949E-1   -6.410671692846596E-2    1.719280011559755E-3    4.861003889002732E-3    1.811076960152291E-3    4.980029639082757E-3    4.025918001195706E-1   -2.074580814681161E-1
 8.117595508800000E9     5.021620824317369E-1   -6.435288625923571E-2    1.727275145482066E-3    4.849990090118344E-3    1.795163814849448E-3    4.962378661700018E-3    4.025285593337515E-1   -2.074289360942534E-1
 8.117597004350000E9     5.020336377060596E-1   -6.452477380374806E-2    1.744321649249012E-3    4.875116725016661E-3    1.820243709890753E-3    4.978124224223173E-3    4.026669770345343E-1   -2.075672309415422E-1
 8.117598499900000E9     5.019220807118442E-1   -6.463995680511185E-2    1.728222729349905E-3    4.880650822602704E-3    1.808490255536179E-3    4.964909883579823E-3    4.025048120019596E-1   -2.075878585152836E-1
 8.117599995450000E9     5.019860377367571E-1   -6.472531689485352E-2    1.779642177700888E-3    4.867660651998754E-3    1.823792293690927E-3    4.997747106949572E-3    4.023734284447529E-1   -2.078423817070626E-1
 8.117601491000000E9     5.019246415396742E-1   -6.491026725905809E-2    1.783411000550936E-3    4.889843886170575E-3    1.877283624389387E-3    5.033420019803895E-3    4.024004861085645E-1   -2.079185876750774E-1
 8.117602986550000E9     5.019839149511645E-1   -6.506912292185484E-2    1.785908541484024E-3    4.900898152253056E-3    1.847786203668315E-3    5.030693473687439E-3    4.021637841627969E-1   -2.080072622842945E-1
 8.117604482100000E9     5.018589298480342E-1   -6.526725120151973E-2    1.776773729599922E-3    4.927942495164757E-3    1.857149265010437E-3    5.022523074291387E-3    4.022620382970541E-1   -2.081137855635956E-1
 8.117605977650000E9     5.018148991351448E-1   -6.542626472871216E-2    1.800977988090421E-3    4.930236344414096E-3    1.819866895808760E-3    4.980477752497223E-3    4.022948471982403E-1   -2.082203666052654E-1
 8.117607473200000E9     5.018156037878638E-1   -6.568839831190459E-2    1.803902814917554E-3    4.938220306188261E-3    1.926322883727912E-3    5.042206372968931E-3    4.022567542617968E-1   -2.081311179451958E-1
 8.117608968750000E9     5.017729587462529E-1   -6.578755773135106E-2    1.834668572001624E-3    4.953315266526398E-3    1.872165005248375E-3    5.044648815827716E-3    4.021372501061454E-1   -2.084482982514893E-1
 8.117610464300000E9     5.017278954010745E-1   -6.612144085938230E-2    1.806393105184545E-3    4.965914188585371E-3    1.919030462671333E-3    5.054683842796353E-3    4.020378331837871E-1   -2.084864926399490E-1
 8.117611959850000E9     5.016365485057472E-1   -6.620164787266519E-2    1.834506984201405E-3    4.983723023603646E-3    1.888245301458337E-3    5.069622116717964E-3    4.020709081398803E-1   -2.085047218950285E-1
 8.117613455400000E9     5.017033765105636E-1   -6.630037863685917E-2    1.854095821903884E-3    5.007008565260450E-3    1.877531622387309E-3    5.081329761972933E-3    4.019156281668980E-1   -2.085962593103853E-1
 8.117614950950000E9     5.014974064416705E-1   -6.643116433899079E-2    1.851823863227997E-3    5.002620097744177E-3    1.940017182883907E-3    5.128582277944276E-3    4.018199650526623E-1   -2.087194493061016E-1
 8.117616446500000E9     5.015492964952033E-1   -6.661682706455548E-2    1.870584459940878E-3    5.028284911639151E-3    1.913864984556952E-3    5.098227049828270E-3    4.019530829382482E-1   -2.087807163812364E-1
 8.117617942050000E9     5.014439913862068E-1   -6.689284761478506E-2    1.862745072800995E-3    5.036917004092590E-3    1.976320214574590E-3    5.180250850735175E-3    4.017678725072010E-1   -2.089254791214211E-1
 8.117619437600000E9     5.014195686678351E-1   -6.704060509420876E-2    1.910134821393912E-3    5.032138652658211E-3    1.969894131806454E-3    5.150622238395292E-3    4.017670327834264E-1   -2.090733267685813E-1
 8.117620933150000E9     5.012915474693702E-1   -6.724317664667850E-2    1.931368634629671E-3    5.071295830447853E-3    1.983672899656463E-3    5.161099715555163E-3    4.018754247550299E-1   -2.089753776020548E-1
 8.117622428700000E9     5.012615735290515E-1   -6.754857319930400E-2    1.913143711471599E-3    5.080475089053231E-3    1.962145757286736E-3    5.178801788947007E-3    4.017869293438134E-1   -2.092307296535631E-1
 8.117623924250000E9     5.011616259410739E-1   -6.765072222077269E-2    1.940902200661566E-3    5.076220140977068E-3    1.955704376161547E-3    5.180739602206980E-3    4.017325453005904E-1   -2.092425298443743E-1
 8.117625419800000E9     5.012044795577791E-1   -6.778878801631816E-2    1.944264363544544E-3    5.076694609177725E-3    1.946546469224108E-3    5.198048749692912E-3    4.017182310880690E-1   -2.094521738600985E-1
 8.117626915350000E9     5.011752673586146E-1   -6.813376420067278E-2    1.949605451215987E-3    5.114328254940800E-3    1.985728599391013E-3    5.240734425108172E-3    4.016525485291669E-1   -2.094898173138713E-1
 8.117628410900000E9     5.010674529104790E-1   -6.812181321010745E-2    1.934736612057834E-3    5.137336415580376E-3    2.027406188597179E-3    5.238462650844097E-3    4.015254418830836E-1   -2.094909099147967E-1
 8.117629906450000E9     5.010073317032624E-1   -6.837082164264797E-2    1.965535696560515E-3    5.127347717059797E-3    2.033233495269642E-3    5.253987425663255E-3    4.014232615146854E-1   -2.097426895537853E-1
 8.117631402000000E9     5.010250258482418E-1   -6.864121820469699E-2    1.985282950159273E-3    5.151956677482127E-3    2.029766140363415E-3    5.261288891834802E-3    4.015403173868047E-1   -2.097716678692144E-1
 8.117632897550000E9     5.007826489570630E-1   -6.866335919502409E-2    1.992635909228933E-3    5.161107793887645E-3    2.058074964017893E-3    5.268504214395020E-3    4.013443796453411E-1   -2.098840718051026E-1
 8.117634393100000E9     5.008100548334572E-1   -6.899520299543037E-2    1.991949939859182E-3    5.170750155821053E-3    2.067341590444207E-3    5.276093127721969E-3    4.013682709268270E-1   -2.100286164596521E-1
 8.117635888650000E9     5.009941253478032E-1   -6.911113322243403E-2    1.997446993440823E-3    5.182648376325797E-3    2.072162993440060E-3    5.327514854759493E-3    4.013405600330998E-1   -2.099668524828732E-1
 8.117637384200000E9     5.008939232500595E-1   -6.921720216575934E-2    1.993619550955492E-3    5.243993096325721E-3    2.081824537240359E-3    5.365091781036016E-3    4.014189796469585E-1   -2.101171755714809E-1
 8.117638879750000E9     5.007812532960837E-1   -6.942432788556004E-2    2.029085800464488E-3    5.244976079949396E-3    2.131957968690068E-3    5.350304283549074E-3    4.010931366292883E-1   -2.101586924916258E-1
 8.117640375300000E9     5.006730069700193E-1   -6.959622444901903E-2    2.016439711647438E-3    5.257075520735124E-3    2.113643488729805E-3    5.349473637387660E-3    4.012746232907897E-1   -2.102555826174312E-1
 8.117641870850000E9     5.005132428814383E-1   -6.991685629226685E-2    2.032413606551842E-3    5.255239681973590E-3    2.128752336701797E-3    5.353349331687246E-3    4.010827123986441E-1   -2.106340551609259E-1
 8.117643366400000E9     5.005367248340709E-1   -7.009307339013914E-2    2.048237173429640E-3    5.277137188350461E-3    2.153435236166453E-3    5.376378617073499E-3    4.010060726893379E-1   -2.106941099702280E-1
 8.117644861950000E9     5.004510395993851E-1   -7.031220410037334E-2    2.060972537350914E-3    5.315044320663006E-3    2.109301094724947E-3    5.388921562679050E-3    4.010883134954097E-1   -2.107603268925168E-1
 8.117646357500000E9     5.004153834710707E-1   -7.057262893977362E-2    2.095398893253953E-3    5.301055790625479E-3    2.167188221165746E-3    5.440515629662971E-3    4.009925483783939E-1   -2.108377317243593E-1
