#  HZ   S   RI   R     50.00 
! Rohde & Schwarz Vector Network Analyzer 
! Rohde-Schwarz,ZNB20-2Port,1311601062101988,3.16
! Created: UTC 3/20/2024, 12:05:21 PM
! freq[Hz]                re:S11                  im:S11                  re:S21                  im:S21                  re:S12                  im:S12                  re:S22                  im:S22
 8.117536705000000E9     5.034873208526798E-1   -5.777568355426899E-2    1.481483334066049E-3    4.460814540807819E-3    1.579324126469410E-3    4.555928154866309E-3    4.041648328669360E-1   -2.038057001213302E-1
 8.117538112175000E9     5.035305228183967E-1   -5.785882119649757E-2    1.462093555206446E-3    4.482202029557685E-3    1.527820197518150E-3    4.588381116660373E-3    4.042552396551027E-1   -2.038876339428449E-1
 8.117539519350000E9     5.035380094157036E-1   -5.803908012631622E-2    1.460969430511621E-3    4.465956344239038E-3    1.554480356675841E-3    4.612758955331611E-3    4.041342303546366E-1   -2.038644010971917E-1
 8.117540926525000E9     5.034153022125823E-1   -5.834078952806537E-2    1.477305364962271E-3    4.490232840212779E-3    1.557052744816066E-3    4.593931060376651E-3    4.041452433128063E-1   -2.039683135301284E-1
 8.117542333700000E9     5.035228078325467E-1   -5.833097466627798E-2    1.513641168957511E-3    4.527005554979866E-3    1.589332467040189E-3    4.635675244013434E-3    4.042877496005093E-1   -2.040748973804788E-1
 8.117543740875000E9     5.033184411557186E-1   -5.850977228371988E-2    1.514539327566039E-3    4.522818900033900E-3    1.507600062585400E-3    4.595841977432439E-3    4.039977568817053E-1   -2.040583007247245E-1
 8.117545148050000E9     5.034139810242491E-1   -5.858125500740801E-2    1.497015201965726E-3    4.532572321563839E-3    1.598312908285934E-3    4.626983523763013E-3    4.040530945865575E-1   -2.040997759716243E-1
 8.117546555225000E9     5.032299239553518E-1   -5.878796308019909E-2    1.503124267309899E-3    4.526498801503200E-3    1.566507873320963E-3    4.599923266714022E-3    4.040621559354536E-1   -2.041489191728002E-1
 8.117547962400000E9     5.033269049741987E-1   -5.903976905676094E-2    1.499419298112874E-3    4.532870721271860E-3    1.585738387851777E-3    4.679894290854921E-3    4.038364446639461E-1   -2.043914534275908E-1
 8.117549369575000E9     5.032847646953720E-1   -5.915669577490600E-2    1.505322830406905E-3    4.532187751641143E-3    1.584215783423899E-3    4.635406814896923E-3    4.039644474960812E-1   -2.045463626573865E-1
 8.117550776750000E9     5.032038500537649E-1   -5.925201302998422E-2    1.506342888965266E-3    4.541089218473492E-3    1.606318692737368E-3    4.616396077247123E-3    4.038906446937509E-1   -2.045161299512754E-1
 8.117552183925000E9     5.032157145805483E-1   -5.938085784089921E-2    1.533044715561035E-3    4.552569180187531E-3    1.591904834890008E-3    4.639288168891961E-3    4.038506937180646E-1   -2.045759527839548E-1
 8.117553591100000E9     5.032622483293243E-1   -5.941715687206232E-2    1.512556589079777E-3    4.538300426730221E-3    1.634962672350311E-3    4.687083356334279E-3    4.037465249232363E-1   -2.046394122901937E-1
 8.117554998275000E9     5.032201417410667E-1   -5.963955847391720E-2    1.531446784116439E-3    4.560545993359165E-3    1.595968970624634E-3    4.662860268352933E-3    4.037046599563290E-1   -2.050177527941280E-1
 8.117556405450000E9     5.030836854951213E-1   -5.982432196507478E-2    1.570744304489726E-3    4.569152780497927E-3    1.640027333504130E-3    4.679788744212620E-3    4.037662194512573E-1   -2.049543337557869E-1
 8.117557812625000E9     5.031522384663898E-1   -5.989909359639506E-2    1.544978809032133E-3    4.566039671981742E-3    1.608448455923859E-3    4.681576530381723E-3    4.036258531169578E-1   -2.049571173087476E-1
 8.117559219800000E9     5.031163311542285E-1   -6.012799954386094E-2    1.578371035142934E-3    4.608496939447895E-3    1.600549193317185E-3    4.714903511613643E-3    4.035399195558118E-1   -2.049999180096025E-1
 8.117560626975000E9     5.029988773630464E-1   -6.022411937567988E-2    1.557848427903973E-3    4.581428232996127E-3    1.643126102077437E-3    4.696649722600871E-3    4.035567708424414E-1   -2.052337227820689E-1
 8.117562034150000E9     5.030817864677333E-1   -6.042560473602263E-2    1.581454766259353E-3    4.614520176577587E-3    1.670904512725560E-3    4.728626797964900E-3    4.035607135174337E-1   -2.053873616921411E-1
 8.117563441325000E9     5.030684809871375E-1   -6.064476427284116E-2    1.578165231055083E-3    4.597444363051367E-3    1.642660105418521E-3    4.647626181623159E-3    4.036241627629527E-1   -2.053353072603613E-1
 8.117564848500000E9     5.029576422345626E-1   -6.058331558260988E-2    1.575724029606387E-3    4.593109216652707E-3    1.615242078330499E-3    4.710288547293276E-3    4.036031314583045E-1   -2.053839127846930E-1
 8.117566255675000E9     5.031585627704926E-1   -6.091432266676244E-2    1.601533194905282E-3    4.613742253721033E-3    1.626427764980187E-3    4.688797840994509E-3    4.034673799747753E-1   -2.056357035389295E-1
 8.117567662850000E9     5.029358722169605E-1   -6.095170601377588E-2    1.592609198656822E-3    4.640611091039058E-3    1.605397373527499E-3    4.754543287422461E-3    4.034441766854696E-1   -2.058233640270550E-1
 8.117569070025000E9     5.030194343974819E-1   -6.107542562863395E-2    1.594627193962515E-3    4.646600409962472E-3    1.596048562306072E-3    4.778926022034700E-3    4.032635917554445E-1   -2.057764883093499E-1
 8.117570477200000E9     5.028067864921181E-1   -6.132622209193100E-2    1.584067383806819E-3    4.646141949650453E-3    1.646245946427103E-3    4.763089005984501E-3    4.032372539573587E-1   -2.059521068179236E-1
 8.117571884375000E9     5.029264418525207E-1   -6.141708665639257E-2    1.586889767091377E-3    4.651476785845023E-3    1.694789782763177E-3    4.765190803929896E-3    4.033231175394814E-1   -2.059187341817029E-1
 8.117573291550000E9     5.027978750341906E-1   -6.159091028717650E-2    1.610329448285761E-3    4.674966379350131E-3    1.667420895452864E-3    4.773246369903361E-3    4.032402657638999E-1   -2.061242072237362E-1
 8.117574698725000E9     5.029022126543177E-1   -6.176462821065791E-2    1.615207148584878E-3    4.688715059753564E-3    1.689311444004858E-3    4.784123215708181E-3    4.030607001620351E-1   -2.061950281058749E-1
 8.117576105900000E9     5.028007425186051E-1   -6.184187195443579E-2    1.614430526606963E-3    4.683727227007282E-3    1.672716292961509E-3    4.808049780268536E-3    4.031006087413918E-1   -2.064026172523569E-1
 8.117577513075000E9     5.026761061450041E-1   -6.191114798778678E-2    1.610542009218343E-3    4.684072418534468E-3    1.697823521822606E-3    4.787635640695639E-3    4.031217466995308E-1   -2.063036072800032E-1
 8.117578920250000E9     5.026675383976968E-1   -6.212518902247915E-2    1.631546479221883E-3    4.721405484259497E-3    1.692307004308167E-3    4.783351177449758E-3    4.029854963407667E-1   -2.064633042091025E-1
 8.117580327425000E9     5.027200904084532E-1   -6.226433434114766E-2    1.622083869276189E-3    4.707892233750797E-3    1.698775051137250E-3    4.778041398037623E-3    4.029985798595322E-1   -2.064372122409530E-1
 8.117581734600000E9     5.026192884057389E-1   -6.238670560570932E-2    1.651599384085012E-3    4.720338257854678E-3    1.707821479120318E-3    4.822470235195530E-3    4.029784079016857E-1   -2.063854791371509E-1
 8.117583141775000E9     5.026616864296586E-1   -6.253713704505683E-2    1.651103558180243E-3    4.719344749641740E-3    1.662716725001229E-3    4.770721745914627E-3    4.029823880531621E-1   -2.066810737186015E-1
 8.117584548950000E9     5.027065839720029E-1   -6.280848995445976E-2    1.653183742289116E-3    4.741147842254439E-3    1.687463498229955E-3    4.835722117687145E-3    4.028400483603735E-1   -2.066752695285356E-1
 8.117585956125000E9     5.024709413969043E-1   -6.286313329907789E-2    1.680652918579418E-3    4.741148369323901E-3    1.699609398843592E-3    4.864991928808166E-3    4.028926964564626E-1   -2.067955598684180E-1
 8.117587363300000E9     5.025163093173459E-1   -6.311900717908672E-2    1.654764544373433E-3    4.765283626367595E-3    1.724826110944850E-3    4.851118927328513E-3    4.028510977649127E-1   -2.069726469085499E-1
 8.117588770475000E9     5.023778660713234E-1   -6.329106373182544E-2    1.660176309633976E-3    4.772734946222678E-3    1.723709963940291E-3    4.860089306510045E-3    4.027853245555102E-1   -2.070450685581833E-1
 8.117590177650000E9     5.024304170802060E-1   -6.345072049760417E-2    1.642235039479213E-3    4.755514552990851E-3    1.737219246814069E-3    4.867106897324875E-3    4.026751512422859E-1   -2.070636269690329E-1
 8.117591584825000E9     5.024271070687834E-1   -6.352702470364764E-2    1.694941950865154E-3    4.783881520013135E-3    1.760055664270945E-3    4.902364190294838E-3    4.026171412242424E-1   -2.071935290045658E-1
 8.117592992000000E9     5.023921181831926E-1   -6.370401836873717E-2    1.686495527750947E-3    4.752815404810376E-3    1.794207943203724E-3    4.940091098664516E-3    4.026307305700237E-1   -2.073320192421803E-1
 8.117594399175000E9     5.023807531343191E-1   -6.379907966467317E-2    1.708882668256426E-3    4.809767436120650E-3    1.789285190092998E-3    4.908469907417198E-3    4.025577978020455E-1   -2.073938844694588E-1
 8.117595806350000E9     5.023377097777444E-1   -6.396834843805581E-2    1.708144475212618E-3    4.801847248973591E-3    1.786297585398798E-3    4.921680211300019E-3    4.025134520020603E-1   -2.073787933073205E-1
 8.117597213525000E9     5.024053756717516E-1   -6.417649756982009E-2    1.706129665378732E-3    4.832673208601211E-3    1.776296195798908E-3    4.922491198063003E-3    4.024093141144542E-1   -2.075926984743985E-1
 8.117598620700000E9     5.023634838120761E-1   -6.429973502325038E-2    1.710084628409794E-3    4.863282893133219E-3    1.817592936530906E-3    4.958050158825941E-3    4.024866695748013E-1   -2.077849956514903E-1
 8.117600027875000E9     5.023046178433532E-1   -6.452248190018608E-2    1.744186046329102E-3    4.828273465216850E-3    1.764155510727141E-3    4.938920206415920E-3    4.024057246842352E-1   -2.078220501823758E-1
 8.117601435050000E9     5.021559580418893E-1   -6.463827057220804E-2    1.752779115577434E-3    4.836450950949976E-3    1.832024641341177E-3    4.951959820580225E-3    4.023492892120188E-1   -2.079040730589977E-1
 8.117602842225000E9     5.021720020594335E-1   -6.473341187200532E-2    1.747995330635864E-3    4.849747101129583E-3    1.819874784866977E-3    4.935574087763595E-3    4.022444380721596E-1   -2.078806341190996E-1
 8.117604249400000E9     5.020181675300547E-1   -6.495416955099211E-2    1.739151393723098E-3    4.877073927199310E-3    1.843408766249006E-3    4.981523483909575E-3    4.022596184724102E-1   -2.079884166816700E-1
 8.117605656575000E9     5.020979930596188E-1   -6.503818217591155E-2    1.768995979556595E-3    4.892726758858209E-3    1.802883627156784E-3    4.986577582084674E-3    4.021872999798989E-1   -2.080978624869196E-1
 8.117607063750000E9     5.019498522279849E-1   -6.521186281087581E-2    1.751808876236280E-3    4.893644399851359E-3    1.813063667067190E-3    5.004925451007334E-3    4.022699712631752E-1   -2.082695020896060E-1
 8.117608470925000E9     5.021246758631631E-1   -6.538116368675222E-2    1.768016507611798E-3    4.904467025012031E-3    1.822550207636719E-3    5.014920586602613E-3    4.021461026507907E-1   -2.082558036447054E-1
 8.117609878100000E9     5.019421391003792E-1   -6.554619829299552E-2    1.787350326516487E-3    4.934703658741361E-3    1.778103007715361E-3    5.041895451926070E-3    4.020854663569831E-1   -2.084431377140847E-1
 8.117611285275000E9     5.018813825536743E-1   -6.572679384745195E-2    1.777005614442252E-3    4.928975810762308E-3    1.846925628429689E-3    5.002711517581721E-3    4.018755977984177E-1   -2.086832706705332E-1
 8.117612692450000E9     5.020226512530040E-1   -6.587788911344178E-2    1.783379249189340E-3    4.923576322316757E-3    1.855064150593589E-3    5.022131175965295E-3    4.019595388923957E-1   -2.086254840383651E-1
 8.117614099625000E9     5.019021080794996E-1   -6.610631738470650E-2    1.806599762333829E-3    4.946235348781094E-3    1.898032396087759E-3    5.055358384679603E-3    4.020218767110165E-1   -2.087758564094318E-1
 8.117615506800000E9     5.019323632337351E-1   -6.619694861472118E-2    1.825908901366260E-3    4.953771514212376E-3    1.886756654697233E-3    5.063417919957865E-3    4.019535234296183E-1   -2.088038539848529E-1
 8.117616913975000E9     5.017869027572976E-1   -6.642910537053515E-2    1.817959960091551E-3    4.963245332635826E-3    1.819533857321311E-3    5.074762379460018E-3    4.020050536439927E-1   -2.089203954104920E-1
 8.117618321150000E9     5.017288299292115E-1   -6.655068538831492E-2    1.817969488036870E-3    4.963275158284824E-3    1.899637837848919E-3    5.087654591464559E-3    4.018611026906104E-1   -2.088813113533514E-1
 8.117619728325000E9     5.017556143569644E-1   -6.674440887359129E-2    1.840702138244233E-3    4.998539923032072E-3    1.913811077889738E-3    5.129343010424208E-3    4.017987668696048E-1   -2.090147211044059E-1
 8.117621135500000E9     5.017368563154621E-1   -6.695593841964292E-2    1.849259239795348E-3    5.008085296572270E-3    1.898590333484328E-3    5.116650446926317E-3    4.016757483964779E-1   -2.091057554408802E-1
 8.117622542675000E9     5.016571935858686E-1   -6.713152817941760E-2    1.841895690383091E-3    5.002595151198743E-3    1.943181813770483E-3    5.131343114399138E-3    4.017365058178476E-1   -2.091949390441285E-1
 8.117623949850000E9     5.016224405970783E-1   -6.723020987651028E-2    1.842375238016875E-3    5.018618950664080E-3    1.964451088715906E-3    5.148253400648804E-3    4.014561728825361E-1   -2.091486442230556E-1
 8.117625357025000E9     5.015942199313246E-1   -6.743751641024659E-2    1.872591061500298E-3    5.025810303722784E-3    1.921355348164336E-3    5.165357757866943E-3    4.017059531205704E-1   -2.094914795749152E-1
 8.117626764200000E9     5.014571569518436E-1   -6.753572638685872E-2    1.866428982209071E-3    5.065491469608139E-3    1.964762567696325E-3    5.173390994518448E-3    4.016539695291185E-1   -2.093698965586249E-1
 8.117628171375000E9     5.013955638556356E-1   -6.785515032073297E-2    1.909156922084951E-3    5.070203896712132E-3    1.922236032025314E-3    5.157749215774911E-3    4.013472485841266E-1   -2.095777511764977E-1
 8.117629578550000E9     5.014134284669344E-1   -6.803483000543359E-2    1.916830834801219E-3    5.064355809345526E-3    1.955556921552836E-3    5.149362595014885E-3    4.014359401601517E-1   -2.097127899447583E-1
 8.117630985725000E9     5.014524860416280E-1   -6.808184689838648E-2    1.892027627415770E-3    5.093138640900403E-3    1.952013629454991E-3    5.221517122200047E-3    4.014939464502771E-1   -2.097726737634708E-1
 8.117632392900000E9     5.012613172717237E-1   -6.828956915050911E-2    1.900306159002173E-3    5.086723753260628E-3    1.980333576171744E-3    5.192697613028418E-3    4.013280751015804E-1   -2.098965992096340E-1
 8.117633800075000E9     5.012832924653106E-1   -6.832455054709173E-2    1.921182438079309E-3    5.128538377552604E-3    1.963537476299238E-3    5.222138114711335E-3    4.013176266255886E-1   -2.099701883871826E-1
 8.117635207250000E9     5.011924680236688E-1   -6.856266128640971E-2    1.960947971168834E-3    5.126033361466013E-3    1.974966636147686E-3    5.215358300882370E-3    4.012789348117595E-1   -2.099970026307233E-1
 8.117636614425000E9     5.011703177178217E-1   -6.875676011332738E-2    1.921818154734749E-3    5.142472074901849E-3    2.002573980907479E-3    5.297356523218177E-3    4.013107796415045E-1   -2.100453839323452E-1
 8.117638021600000E9     5.011256361526881E-1   -6.901114090745972E-2    1.953767283004705E-3    5.175890976486213E-3    1.991976876103917E-3    5.266362215564654E-3    4.010944888712691E-1   -2.104108518517557E-1
 8.117639428775000E9     5.010777039419568E-1   -6.900362366376078E-2    1.982667351980630E-3    5.161031674194433E-3    2.044096394758938E-3    5.269685142024317E-3    4.011099926644585E-1   -2.103899839782666E-1
 8.117640835950000E9     5.010614600358460E-1   -6.921353645588971E-2    1.979313280461097E-3    5.179006278872226E-3    1.984118976710242E-3    5.257881122414785E-3    4.011248292549215E-1   -2.102833021301116E-1
 8.117642243125000E9     5.010009109033650E-1   -6.958678951860726E-2    1.990056359064109E-3    5.199193968559138E-3    2.043499036976968E-3    5.271790069420503E-3    4.011456936654645E-1   -2.105281908310261E-1
 8.117643650300000E9     5.008984422245981E-1   -6.969306697538728E-2    2.005278917972717E-3    5.218156387505259E-3    2.083570443078660E-3    5.300238936458534E-3    4.010691206906627E-1   -2.106499564412747E-1
 8.117645057475000E9     5.009240612342276E-1   -6.980359259074286E-2    1.996728990543445E-3    5.225614821852968E-3    2.054208806456905E-3    5.293418330498746E-3    4.009970090498466E-1   -2.106709030668349E-1
 8.117646464650000E9     5.007842936901397E-1   -7.010204937242605E-2    2.023379262845614E-3    5.235004977683745E-3    2.123277157716944E-3    5.342793016829351E-3    4.010425788609904E-1   -2.107583344848727E-1
 8.117647871825000E9     5.007881952856099E-1   -7.031844735094635E-2    2.030267077077581E-3    5.252837154269268E-3    2.102874997100671E-3    5.344863291460312E-3    4.008656519942195E-1   -2.108473263124760E-1
 8.117649279000000E9     5.008072052402361E-1   -7.032329928878131E-2    2.036142866457008E-3    5.268119698327547E-3    2.110413234112013E-3    5.361538634272256E-3    4.008076545571731E-1   -2.108528743883495E-1
 8.117650686175000E9     5.005318074009345E-1   -7.058781786858813E-2    2.070376684285713E-3    5.295033228381067E-3    2.148878524944448E-3    5.417987347329769E-3    4.008211561584895E-1   -2.110950835761996E-1
 8.117652093350000E9     5.006560699409860E-1   -7.071835808323104E-2    2.047411210855810E-3    5.291049290319092E-3    2.126267168835238E-3    5.431512824003393E-3    4.007987606269846E-1   -2.110813599936369E-1
 8.117653500525000E9     5.005507365325568E-1   -7.108607282161529E-2    2.077543963859529E-3    5.316598368548827E-3    2.156906722239688E-3    5.438146625654435E-3    4.007638068926159E-1   -2.112210858748167E-1
 8.117654907700000E9     5.005154651023119E-1   -7.117430519881565E-2    2.091742616771676E-3    5.330889918443823E-3    2.189869021003979E-3    5.452341413392295E-3    4.006659001380142E-1   -2.112906097522714E-1
 8.117656314875000E9     5.003670747589611E-1   -7.132547765663082E-2    2.063594625645552E-3    5.357229420977304E-3    2.168439578178368E-3    5.458176756296888E-3    4.005924196214420E-1   -2.115219942773294E-1
 8.117657722050000E9     5.004079642144855E-1   -7.144705527120362E-2    2.126760485187992E-3    5.370320135982555E-3    2.169993069174657E-3    5.467540210775623E-3    4.006943345966972E-1   -2.116973876823040E-1
 8.117659129225000E9     5.002292352785869E-1   -7.185741637698197E-2    2.119523835559776E-3    5.387764905806864E-3    2.211474761111108E-3    5.512434873978468E-3    4.004572373819926E-1   -2.117681128800267E-1
 8.117660536400000E9     5.002655627075955E-1   -7.193253023406496E-2    2.134467708926757E-3    5.408681649624169E-3    2.195291242482645E-3    5.524309838078880E-3    4.006557259814515E-1   -2.117321771781885E-1
 8.117661943575000E9     5.000998897508173E-1   -7.204029185601030E-2    2.170573682079616E-3    5.413351807595948E-3    2.208820236202242E-3    5.525227594031688E-3    4.004483539594333E-1   -2.118863322217175E-1
 8.117663350750000E9     5.001864146172008E-1   -7.238056546393276E-2    2.179039834579090E-3    5.421768366045353E-3    2.231369976893742E-3    5.546499600733262E-3    4.004027993020399E-1   -2.118067658485376E-1
