#  HZ   S   RI   R     50.00 
! Rohde & Schwarz Vector Network Analyzer 
! Rohde-Schwarz,ZNB20-2Port,1311601062101988,3.16
! Created: UTC 3/20/2024, 12:06:03 PM
! freq[Hz]                re:S11                  im:S11                  re:S21                  im:S21                  re:S12                  im:S12                  re:S22                  im:S22
 8.117587792000000E9     5.030014033342058E-1   -6.212810369980976E-2    1.595953674184678E-3    4.650738278659057E-3    1.637742047654560E-3    4.777130873835638E-3    4.027486524757199E-1   -2.071119919705979E-1
 8.117589045175000E9     5.029010976974773E-1   -6.227479784928989E-2    1.601925884792971E-3    4.675117546700007E-3    1.643880372831874E-3    4.757133192371630E-3    4.026488085133827E-1   -2.071712744763680E-1
 8.117590298350000E9     5.028624627073981E-1   -6.245789173722414E-2    1.602206712404622E-3    4.682952827948545E-3    1.668883419152705E-3    4.755199645085491E-3    4.028222617116543E-1   -2.072620086189373E-1
 8.117591551525000E9     5.028732635515726E-1   -6.262978769322394E-2    1.588824849045062E-3    4.632468825126435E-3    1.673657009532803E-3    4.810570513690315E-3    4.026116531237514E-1   -2.072804188343084E-1
 8.117592804700000E9     5.027621819784319E-1   -6.274518780439749E-2    1.597916688204183E-3    4.668465699678459E-3    1.665516799650866E-3    4.770357505312938E-3    4.025269689683543E-1   -2.073523019606268E-1
 8.117594057875000E9     5.028447869874985E-1   -6.280492762474769E-2    1.622620226026159E-3    4.670056576037219E-3    1.669537328956630E-3    4.771203562448204E-3    4.024498790033152E-1   -2.073288931411825E-1
 8.117595311050000E9     5.028459853796370E-1   -6.304461930641710E-2    1.631811193682519E-3    4.696650502705690E-3    1.690596531447751E-3    4.842139158981620E-3    4.025322447566905E-1   -2.075197460660199E-1
 8.117596564225000E9     5.027626682740941E-1   -6.318842762823643E-2    1.622120478551405E-3    4.697725469899923E-3    1.699864507646819E-3    4.819696337669786E-3    4.024465464133885E-1   -2.075588157300362E-1
 8.117597817400000E9     5.028284397374283E-1   -6.339896647057082E-2    1.635613277493835E-3    4.711398266013952E-3    1.681767798941067E-3    4.814048363885606E-3    4.023918422227697E-1   -2.078957251174612E-1
 8.117599070575000E9     5.027092098747523E-1   -6.347385967689508E-2    1.666042591066810E-3    4.721683140232653E-3    1.696052107127003E-3    4.871056757695788E-3    4.023382277206075E-1   -2.077572809491137E-1
 8.117600323750000E9     5.026500286668367E-1   -6.359670992658170E-2    1.629943725983718E-3    4.728732944233610E-3    1.720738388741804E-3    4.808845118112027E-3    4.022274682286542E-1   -2.078565752193520E-1
 8.117601576925000E9     5.025820657513350E-1   -6.373604925313600E-2    1.631332077663662E-3    4.729028224945826E-3    1.724255736037716E-3    4.802168330240067E-3    4.022752511271336E-1   -2.078192985853137E-1
 8.117602830100000E9     5.025626573526182E-1   -6.384127034496023E-2    1.650519406616683E-3    4.738867291554565E-3    1.707134509331504E-3    4.836894518778397E-3    4.021602903784695E-1   -2.080506512069014E-1
 8.117604083275000E9     5.026469717076886E-1   -6.401027706482501E-2    1.630710291055423E-3    4.761752918761296E-3    1.706026116779684E-3    4.870996507939475E-3    4.023315748535329E-1   -2.080897978657828E-1
 8.117605336450000E9     5.026174402355040E-1   -6.418957834201301E-2    1.634341454410765E-3    4.751795010282229E-3    1.692925110131227E-3    4.880531085771449E-3    4.022531314286996E-1   -2.081187432194550E-1
 8.117606589625000E9     5.025594603876418E-1   -6.429260879031340E-2    1.664281664028564E-3    4.745976628984392E-3    1.767977736321265E-3    4.891269718486667E-3    4.021335882542469E-1   -2.081890783215483E-1
 8.117607842800000E9     5.025491624837656E-1   -6.445814008508215E-2    1.689546528772844E-3    4.773598762599260E-3    1.727499986548207E-3    4.864753458916680E-3    4.019433573648953E-1   -2.084912020807335E-1
 8.117609095975000E9     5.024735828442505E-1   -6.454525011901201E-2    1.675204712289782E-3    4.777611195386345E-3    1.770611574256724E-3    4.858849509457541E-3    4.021723701819855E-1   -2.083026128749063E-1
 8.117610349150000E9     5.024244271604326E-1   -6.469359257671901E-2    1.665988013721943E-3    4.772283698571187E-3    1.758610373123847E-3    4.882543272952383E-3    4.022271136654212E-1   -2.085333448995319E-1
 8.117611602325000E9     5.024312346758558E-1   -6.477279022605681E-2    1.684513584425208E-3    4.801252242178563E-3    1.740510638385763E-3    4.905757030059218E-3    4.020719953473165E-1   -2.086087221647569E-1
 8.117612855500000E9     5.024178562544103E-1   -6.501656842998269E-2    1.680308470398677E-3    4.787822811927235E-3    1.732930022016604E-3    4.944952957308978E-3    4.020264054246050E-1   -2.086190692969018E-1
 8.117614108675000E9     5.023948423874720E-1   -6.519750442643638E-2    1.693181257506753E-3    4.802381759092192E-3    1.737439776814135E-3    4.946473393468757E-3    4.018056183627904E-1   -2.087140593259239E-1
 8.117615361850000E9     5.024933083787346E-1   -6.517095464433165E-2    1.716640941103561E-3    4.818359947560275E-3    1.724698560091414E-3    4.965864889674188E-3    4.017517448984288E-1   -2.087904229666651E-1
 8.117616615025000E9     5.022412984405945E-1   -6.544111804758021E-2    1.712036266108144E-3    4.819481798914309E-3    1.831653800702551E-3    4.938951172216086E-3    4.018612222141684E-1   -2.089779558429676E-1
 8.117617868200000E9     5.022485021651671E-1   -6.559151229073841E-2    1.731925614538809E-3    4.845664581760923E-3    1.774361985699391E-3    4.932411196417187E-3    4.017992759165189E-1   -2.089534636196964E-1
 8.117619121375000E9     5.021524810695962E-1   -6.567814420134309E-2    1.692492315845266E-3    4.847277633997071E-3    1.824449890454346E-3    4.968564931397803E-3    4.017595437936049E-1   -2.091000215556062E-1
 8.117620374550000E9     5.022041807468229E-1   -6.584770669960668E-2    1.749351181066997E-3    4.850973103212927E-3    1.842657619893675E-3    4.967106928343996E-3    4.016379418218673E-1   -2.090621544586604E-1
 8.117621627725000E9     5.021548661504348E-1   -6.599596199625485E-2    1.726337119242876E-3    4.894093226595360E-3    1.754081981341867E-3    4.915076247288743E-3    4.017047815647191E-1   -2.093139278043129E-1
 8.117622880900000E9     5.021151867566729E-1   -6.622796256616441E-2    1.729195396724227E-3    4.892745113685099E-3    1.815817553489555E-3    4.933103110221901E-3    4.015505251220904E-1   -2.095485520062150E-1
 8.117624134075000E9     5.020550298280458E-1   -6.625320619162274E-2    1.754539405703765E-3    4.887932847459241E-3    1.779341094715154E-3    5.014567196564060E-3    4.015391937426764E-1   -2.094540586894762E-1
 8.117625387250000E9     5.020728368509624E-1   -6.641205295699361E-2    1.757412473667856E-3    4.889907128007047E-3    1.770041381055738E-3    5.002912717845068E-3    4.015046699935706E-1   -2.093791881989813E-1
 8.117626640425000E9     5.020484797495390E-1   -6.656105405223314E-2    1.752771647414224E-3    4.903863353594489E-3    1.805900473367573E-3    5.065408345412042E-3    4.015742265315270E-1   -2.096410853186882E-1
 8.117627893600000E9     5.020793443717632E-1   -6.667195990820685E-2    1.768449204968318E-3    4.897393455018640E-3    1.807844517420857E-3    5.027451226749458E-3    4.014941560800558E-1   -2.095740017245661E-1
 8.117629146775000E9     5.020581134232051E-1   -6.679917514226787E-2    1.773037199681276E-3    4.929055763215220E-3    1.823356301398702E-3    5.044957966099433E-3    4.013635729426055E-1   -2.096406301957285E-1
 8.117630399950000E9     5.019841133533884E-1   -6.700581543318543E-2    1.771907615839583E-3    4.924083017269548E-3    1.838221846242306E-3    5.102411656125336E-3    4.014228148567351E-1   -2.097933698567136E-1
 8.117631653125000E9     5.019126189981691E-1   -6.716246588431506E-2    1.794694910161051E-3    4.968518064966295E-3    1.877942148039075E-3    5.031293740178197E-3    4.014271615863835E-1   -2.100636889295047E-1
 8.117632906300000E9     5.018191200721573E-1   -6.715614888892914E-2    1.803050588137321E-3    4.960625045709436E-3    1.840822087471221E-3    5.076709981376016E-3    4.011830560506185E-1   -2.100059505657804E-1
 8.117634159475000E9     5.018358339069119E-1   -6.746676269792072E-2    1.809345445129114E-3    4.952980366611801E-3    1.884220412828076E-3    5.145534142791790E-3    4.012393476465457E-1   -2.099441633034224E-1
 8.117635412650000E9     5.017928917133322E-1   -6.765358082605329E-2    1.809375293975452E-3    4.977446663108048E-3    1.898156927367990E-3    5.069010789420672E-3    4.011378529838800E-1   -2.101499257949046E-1
 8.117636665825000E9     5.017975787270273E-1   -6.777998865139721E-2    1.799518983124570E-3    4.989778297929352E-3    1.863973551432090E-3    5.108043448530144E-3    4.011302717340031E-1   -2.100801051244731E-1
 8.117637919000000E9     5.016372620649496E-1   -6.787181965117232E-2    1.835950163440672E-3    4.982454385247392E-3    1.886459235673419E-3    5.058459026666331E-3    4.012223864299824E-1   -2.102094188829235E-1
 8.117639172175000E9     5.016539297485513E-1   -6.793537992254199E-2    1.822939854086578E-3    4.988433518159317E-3    1.921486309184973E-3    5.114007944390524E-3    4.011926644353583E-1   -2.103568588481267E-1
 8.117640425350000E9     5.016292655313039E-1   -6.808427528088384E-2    1.822971817845880E-3    5.036114302271739E-3    1.918591627058456E-3    5.150063511191940E-3    4.011881492107512E-1   -2.103437629437838E-1
 8.117641678525000E9     5.015797654105013E-1   -6.832121218501346E-2    1.839249929111414E-3    5.014154134425578E-3    1.905054397255371E-3    5.179145718868786E-3    4.010660851829077E-1   -2.104729255688782E-1
 8.117642931700000E9     5.015351424971061E-1   -6.849850517406021E-2    1.848316123379631E-3    5.048897328687999E-3    1.908510096241603E-3    5.172203488484342E-3    4.009937973812014E-1   -2.105547389705098E-1
 8.117644184875000E9     5.015385604819590E-1   -6.855969291064776E-2    1.858063017757758E-3    5.039730133338805E-3    1.925004347977729E-3    5.163086102005221E-3    4.009176528575610E-1   -2.107676942348455E-1
 8.117645438050000E9     5.014667580814706E-1   -6.875787462522624E-2    1.867808892450312E-3    5.066455117696721E-3    1.943513315728053E-3    5.159764363282283E-3    4.010338778759303E-1   -2.109154838846963E-1
 8.117646691225000E9     5.015736587967502E-1   -6.884262621133470E-2    1.876615223843888E-3    5.087034807764677E-3    1.961791804521958E-3    5.204164839294773E-3    4.008040387030547E-1   -2.109264707200063E-1
 8.117647944400000E9     5.013892323583491E-1   -6.913710417400082E-2    1.880486834055133E-3    5.060043471156546E-3    1.968362462403907E-3    5.188185858183069E-3    4.009858118123366E-1   -2.110003897999997E-1
 8.117649197575000E9     5.013810191032411E-1   -6.929213267879446E-2    1.881681371373760E-3    5.101311676809404E-3    1.938566648070609E-3    5.209819086815204E-3    4.008124800043349E-1   -2.110546392968514E-1
 8.117650450750000E9     5.012911410183439E-1   -6.931695266118265E-2    1.890969109139225E-3    5.116198883491219E-3    1.985500501367617E-3    5.204052328243801E-3    4.005875594617763E-1   -2.111287855718672E-1
 8.117651703925000E9     5.014084860976016E-1   -6.957509569235720E-2    1.907515640121963E-3    5.123018407569106E-3    1.963880041141844E-3    5.239466429183493E-3    4.007016886354292E-1   -2.111076667913130E-1
 8.117652957100000E9     5.012289833015101E-1   -6.962803591119199E-2    1.911025524743114E-3    5.133835500073303E-3    2.009072065132805E-3    5.244488159692163E-3    4.004989386069048E-1   -2.113905736436469E-1
 8.117654210275000E9     5.013227071854216E-1   -6.989633664567649E-2    1.959477073745803E-3    5.152697246379518E-3    1.979999036884188E-3    5.263051498968313E-3    4.005632247306669E-1   -2.113173639715097E-1
 8.117655463450000E9     5.011976586428705E-1   -6.997670809366680E-2    1.959629369966309E-3    5.134086252985600E-3    2.046901919798865E-3    5.296576519720311E-3    4.004478562006362E-1   -2.114695055914758E-1
 8.117656716625000E9     5.011926737336938E-1   -7.019101475520123E-2    1.928475126716327E-3    5.167123017633799E-3    2.042209286499260E-3    5.268866282048207E-3    4.005551741651002E-1   -2.115436349077798E-1
 8.117657969800000E9     5.010643509147528E-1   -7.036586316611552E-2    1.949604825715207E-3    5.180390610950277E-3    2.043222086744713E-3    5.293973369883169E-3    4.004432166559345E-1   -2.115206665401917E-1
 8.117659222975000E9     5.010779134971148E-1   -7.048523622275667E-2    1.961498037133271E-3    5.195153898489286E-3    2.013729048692279E-3    5.324827808361719E-3    4.006627793185384E-1   -2.117122301890846E-1
 8.117660476150000E9     5.011356137481271E-1   -7.059428856569711E-2    1.958193966429645E-3    5.181946669965001E-3    2.062305387144540E-3    5.325880624467330E-3    4.004928336317191E-1   -2.116659991951966E-1
 8.117661729325000E9     5.010107167165113E-1   -7.070401176728326E-2    1.975220863136395E-3    5.224652709163277E-3    2.071978195461409E-3    5.324407989394590E-3    4.004685800024205E-1   -2.118539189497269E-1
 8.117662982500000E9     5.009261624068704E-1   -7.096471446452529E-2    2.001299769394351E-3    5.236819321593651E-3    2.060371346289696E-3    5.353525249976194E-3    4.005028081050339E-1   -2.117844764002433E-1
 8.117664235675000E9     5.009402499011991E-1   -7.117098658984357E-2    2.009059042741664E-3    5.246675168705652E-3    2.027777042606692E-3    5.384624396152774E-3    4.001926218976796E-1   -2.120567643831735E-1
 8.117665488850000E9     5.009315430269937E-1   -7.133445893272912E-2    2.007696225299122E-3    5.244128550265952E-3    2.067905037396540E-3    5.372024119223650E-3    4.001877712423514E-1   -2.120232188455019E-1
 8.117666742025000E9     5.009393167415929E-1   -7.146425596893805E-2    1.991958225890983E-3    5.291486496836939E-3    2.056383598054675E-3    5.363178381215848E-3    4.001782670214897E-1   -2.120653875391547E-1
 8.117667995200000E9     5.007068311270286E-1   -7.155188529670647E-2    2.023969875394381E-3    5.300336506689109E-3    2.116018847318949E-3    5.414716797736268E-3    4.001342498082751E-1   -2.122314388153682E-1
 8.117669248375000E9     5.007306289665907E-1   -7.179335587470105E-2    2.036693387255760E-3    5.291560719058945E-3    2.164305056584466E-3    5.437324687520400E-3    4.001201531270934E-1   -2.123894305359529E-1
 8.117670501550000E9     5.007457131589415E-1   -7.196109275337099E-2    2.037988430673046E-3    5.314649512962884E-3    2.130959202601293E-3    5.430141661900937E-3    4.000584438936074E-1   -2.123391527109360E-1
 8.117671754725000E9     5.007015443864812E-1   -7.217836339058605E-2    2.053577596663358E-3    5.331057524086328E-3    2.127986416223910E-3    5.435705551128722E-3    4.000630283622978E-1   -2.124658776134593E-1
 8.117673007900000E9     5.005238906884905E-1   -7.235226080333620E-2    2.052488088481528E-3    5.352861840860660E-3    2.089234431057846E-3    5.496489714917477E-3    4.000557359409450E-1   -2.126357154105384E-1
 8.117674261075000E9     5.006160962607810E-1   -7.254511855554814E-2    2.074381817089920E-3    5.366886999635711E-3    2.175267561605657E-3    5.468967555365793E-3    4.000301025952369E-1   -2.126321492494297E-1
 8.117675514250000E9     5.004239987294012E-1   -7.258126931730255E-2    2.098964600308367E-3    5.406568752781449E-3    2.176526238280428E-3    5.500176815343661E-3    3.999937458555363E-1   -2.126702940861551E-1
 8.117676767425000E9     5.003712211433072E-1   -7.279597080445219E-2    2.105618959734430E-3    5.391185893737993E-3    2.139978207289117E-3    5.513644576792371E-3    3.998764890769319E-1   -2.127026554300834E-1
 8.117678020600000E9     5.004106530460183E-1   -7.285775809045208E-2    2.129932416449811E-3    5.439642002503334E-3    2.126257668438159E-3    5.526485341314703E-3    3.999345557065933E-1   -2.129133017189014E-1
 8.117679273775000E9     5.003715548297012E-1   -7.321917440709022E-2    2.113549502432325E-3    5.429422181543983E-3    2.215561247200329E-3    5.562987889320854E-3    3.998279796525481E-1   -2.130321729444786E-1
 8.117680526950000E9     5.002413279171884E-1   -7.335920107834878E-2    2.148108032275975E-3    5.452681440713978E-3    2.198851838166599E-3    5.588792703280854E-3    3.997442448666695E-1   -2.131457555735991E-1
 8.117681780125000E9     5.002431558624650E-1   -7.348333661970699E-2    2.162175064598488E-3    5.470330961946449E-3    2.265153197595765E-3    5.591428987104605E-3    3.997123024574403E-1   -2.131612092773646E-1
 8.117683033300000E9     5.003060748470035E-1   -7.378504129329290E-2    2.158664190507160E-3    5.468596108887633E-3    2.257342634170135E-3    5.599821894296235E-3    3.998691472741839E-1   -2.132024263315388E-1
 8.117684286475000E9     5.001920360352010E-1   -7.389065130792856E-2    2.156842331620668E-3    5.492968111213057E-3    2.258475460891355E-3    5.644274304438702E-3    3.997290588153662E-1   -2.133317676789166E-1
 8.117685539650000E9     4.999475646969622E-1   -7.414566751702820E-2    2.184054275244349E-3    5.486324844147006E-3    2.258161388976000E-3    5.634047995194832E-3    3.997706934276414E-1   -2.134909498688750E-1
 8.117686792825000E9     5.000485357312635E-1   -7.425450183814312E-2    2.201432945728310E-3    5.511760932643476E-3    2.275415047828586E-3    5.658323411306929E-3    3.995581211406543E-1   -2.135149142538498E-1
 8.117688046000000E9     4.999700949306891E-1   -7.447903320246403E-2    2.189799083827583E-3    5.549293474527488E-3    2.309479488126965E-3    5.669068795669772E-3    3.996351585244897E-1   -2.135927856509238E-1
 8.117689299175000E9     4.998348301345030E-1   -7.466279268548789E-2    2.230896484635836E-3    5.548992927834727E-3    2.322387736630524E-3    5.696759711416612E-3    3.995635727235664E-1   -2.136501816410583E-1
 8.117690552350000E9     4.998293528584688E-1   -7.475128946884689E-2    2.223547297352991E-3    5.584397123901078E-3    2.278439234094013E-3    5.690813233156447E-3    3.995269948706279E-1   -2.137115445582979E-1
 8.117691805525000E9     4.998492615984024E-1   -7.504029171497414E-2    2.248895505546410E-3    5.595973223535384E-3    2.325229727513092E-3    5.709049996413322E-3    3.994815933523734E-1   -2.138167193467334E-1
 8.117693058700000E9     4.997058387197144E-1   -7.510769349848588E-2    2.278277694871742E-3    5.617388677776479E-3    2.359597216338758E-3    5.717041628876667E-3    3.993192105936138E-1   -2.139582217072269E-1
 8.117694311875000E9     4.996093226133047E-1   -7.541910334992914E-2    2.274650029369519E-3    5.638964609574612E-3    2.356100522347615E-3    5.807463103524081E-3    3.993990212336999E-1   -2.140125830514419E-1
 8.117695565050000E9     4.995774367457090E-1   -7.548959090248553E-2    2.306369544414419E-3    5.660475692796661E-3    2.390465426462993E-3    5.799631664935315E-3    3.992326940776983E-1   -2.140285162575558E-1
 8.117696818225000E9     4.996097147689043E-1   -7.580241455168069E-2    2.322378358010570E-3    5.680431509830366E-3    2.344865675161922E-3    5.808803721884500E-3    3.992564028493396E-1   -2.140946626493130E-1
 8.117698071400000E9     4.993982980442473E-1   -7.593836892745348E-2    2.340998369472055E-3    5.689366849716757E-3    2.411122492319685E-3    5.814939388173106E-3    3.993098385065598E-1   -2.142316018768793E-1
 8.117699324575000E9     4.994023843811094E-1   -7.618788912588245E-2    2.346370039450849E-3    5.702311259622477E-3    2.413506456429085E-3    5.827041575551364E-3    3.993485655288621E-1   -2.143138640745620E-1
 8.117700577750000E9     4.992641565838843E-1   -7.633154525903917E-2    2.337582347255136E-3    5.720309648878860E-3    2.476343174926112E-3    5.868002864503552E-3    3.991276181906973E-1   -2.144337614375935E-1
