#  HZ   S   RI   R     50.00 
! Rohde & Schwarz Vector Network Analyzer 
! Rohde-Schwarz,ZNB20-2Port,1311601062101988,3.16
! Created: UTC 3/20/2024, 12:06:36 PM
! freq[Hz]                re:S11                  im:S11                  re:S21                  im:S21                  re:S12                  im:S12                  re:S22                  im:S22
 8.117637651000000E9     5.022657985655874E-1   -6.669487340122940E-2    1.722936191243135E-3    4.836376771977305E-3    1.781249235048103E-3    4.967804969219745E-3    4.012186823584824E-1   -2.102355944156025E-1
 8.117638779525000E9     5.022704982143672E-1   -6.693047443895969E-2    1.730872519990757E-3    4.871402035271678E-3    1.777783280446312E-3    4.955988295690964E-3    4.010419326527437E-1   -2.103226171514196E-1
 8.117639908050000E9     5.021102777387678E-1   -6.692176496127608E-2    1.722943453943836E-3    4.861614445990295E-3    1.825942312915531E-3    4.973306054080840E-3    4.010335326607710E-1   -2.104749111590851E-1
 8.117641036575000E9     5.020878579399068E-1   -6.723000568213523E-2    1.721663229035156E-3    4.848413268963102E-3    1.788762771618756E-3    5.024570276780838E-3    4.010378460867881E-1   -2.104901223198584E-1
 8.117642165100000E9     5.020457351111307E-1   -6.721940882175925E-2    1.730094480685773E-3    4.883659598537219E-3    1.822551665338296E-3    4.997683110101660E-3    4.009790517987644E-1   -2.104933606273596E-1
 8.117643293625000E9     5.021784679161132E-1   -6.737459893146069E-2    1.769572374033317E-3    4.901828357865339E-3    1.830222726745736E-3    4.975282602499985E-3    4.009957754031595E-1   -2.106157053593866E-1
 8.117644422150000E9     5.021113771243064E-1   -6.762629481243115E-2    1.761414311340165E-3    4.938152119433091E-3    1.826779636313218E-3    5.001941027449604E-3    4.009076011150507E-1   -2.106577372643378E-1
 8.117645550675000E9     5.019885662079600E-1   -6.776278297626405E-2    1.790792430245163E-3    4.912073536424836E-3    1.815428539556640E-3    5.029518496104086E-3    4.008667368865726E-1   -2.107522503374482E-1
 8.117646679200000E9     5.020754922815248E-1   -6.779927488852720E-2    1.717826991780903E-3    4.925374211641978E-3    1.866293596055121E-3    5.005138571147421E-3    4.007383848931101E-1   -2.109603771182569E-1
 8.117647807725000E9     5.020044630454902E-1   -6.788676289009526E-2    1.745724107971358E-3    4.916888681937479E-3    1.816697691063236E-3    5.042434606453967E-3    4.007681889986582E-1   -2.109172280235389E-1
 8.117648936250000E9     5.018943711886443E-1   -6.822643573766742E-2    1.757789523091012E-3    4.943644055510539E-3    1.855647590280381E-3    5.058156624540575E-3    4.006873994509091E-1   -2.109502536663727E-1
 8.117650064775000E9     5.020209389965919E-1   -6.825972429647105E-2    1.785103900509151E-3    4.943664159087376E-3    1.850549850647701E-3    5.051910223545778E-3    4.006389944031057E-1   -2.110077504277326E-1
 8.117651193300000E9     5.018649270996054E-1   -6.832788649444149E-2    1.788874824855878E-3    4.960948405114895E-3    1.892756282295183E-3    5.056916751884732E-3    4.007437598966604E-1   -2.111614046275029E-1
 8.117652321825000E9     5.020461334988552E-1   -6.864854417974968E-2    1.799373653299060E-3    4.970396644470053E-3    1.885759011355877E-3    5.099515325162579E-3    4.007040516644582E-1   -2.112876390125821E-1
 8.117653450350000E9     5.018799461761853E-1   -6.851618562480941E-2    1.812068663637827E-3    4.969419893294186E-3    1.871616584835476E-3    5.120863849180794E-3    4.006927683624084E-1   -2.113417000214143E-1
 8.117654578875000E9     5.019091338728178E-1   -6.872864697080405E-2    1.819239241914544E-3    4.988564964068773E-3    1.898214311449145E-3    5.107933526072955E-3    4.005408097307693E-1   -2.113976888342944E-1
 8.117655707400000E9     5.018521664335761E-1   -6.885165957728621E-2    1.811705787570184E-3    4.993684513178767E-3    1.869495542968024E-3    5.080804242890286E-3    4.007120627749261E-1   -2.117753406692422E-1
 8.117656835925000E9     5.017817529636075E-1   -6.901100411445095E-2    1.807494446185697E-3    5.019752730663195E-3    1.894304512329849E-3    5.069540046907620E-3    4.005104236679554E-1   -2.115415329267464E-1
 8.117657964450000E9     5.018067242929213E-1   -6.923921756583062E-2    1.831054286478518E-3    4.996411648024670E-3    1.883452007167567E-3    5.124902185800360E-3    4.004986027494104E-1   -2.117428184968938E-1
 8.117659092975000E9     5.016636674215176E-1   -6.933896060156014E-2    1.863726907565387E-3    5.009858771789162E-3    1.870514375184748E-3    5.165148634113259E-3    4.005257509639285E-1   -2.118551920771237E-1
 8.117660221500000E9     5.016364926262703E-1   -6.952411498706455E-2    1.838409392087964E-3    5.034224177494179E-3    1.904470579450028E-3    5.135037365030723E-3    4.004962628724346E-1   -2.118571193660989E-1
 8.117661350025000E9     5.016431860500350E-1   -6.959661406387777E-2    1.823572293985646E-3    5.060353843917810E-3    1.916939441906793E-3    5.133947524859030E-3    4.004160240044139E-1   -2.117610566022213E-1
 8.117662478550000E9     5.016440873569656E-1   -6.966107913261965E-2    1.853774234412271E-3    5.052113922217764E-3    1.905828342659926E-3    5.158884667503970E-3    4.002919684313275E-1   -2.119008238385360E-1
 8.117663607075000E9     5.015448049116283E-1   -6.991646929151010E-2    1.883857139053021E-3    5.062803766643334E-3    1.852353127816935E-3    5.174870407821897E-3    4.002009494650769E-1   -2.118947325448834E-1
 8.117664735600000E9     5.014350928839711E-1   -6.997288030712313E-2    1.887592646097807E-3    5.090831815659904E-3    1.950630661495898E-3    5.169588244437319E-3    4.002130441148296E-1   -2.121956869657479E-1
 8.117665864125000E9     5.014919776678017E-1   -7.004022304063975E-2    1.880604813519088E-3    5.070395905682679E-3    1.967364663850111E-3    5.151856573147666E-3    4.002504720253447E-1   -2.121849399061291E-1
 8.117666992650000E9     5.014440636197409E-1   -7.027112642311578E-2    1.914920177821047E-3    5.078653339591234E-3    1.993780199517865E-3    5.216689757399681E-3    4.002760610647675E-1   -2.121921038830175E-1
 8.117668121175000E9     5.014903798787448E-1   -7.050176349797083E-2    1.902845653355229E-3    5.117075768201684E-3    1.974225763363410E-3    5.227270745520025E-3    4.002256553831536E-1   -2.122187612679698E-1
 8.117669249700000E9     5.013760022059647E-1   -7.043701228019672E-2    1.904790157310974E-3    5.120439771401197E-3    1.938228612803128E-3    5.280173404827535E-3    4.001266872372448E-1   -2.123945257781715E-1
 8.117670378225000E9     5.013718809778248E-1   -7.068213084623017E-2    1.898203821879274E-3    5.127754636384443E-3    1.955146697449615E-3    5.206304740935218E-3    4.000077734545088E-1   -2.124363982857907E-1
 8.117671506750000E9     5.013822434348544E-1   -7.090003964380615E-2    1.897091098332356E-3    5.136491651580290E-3    1.966102702559553E-3    5.272274132575663E-3    4.000889662015039E-1   -2.125270477920080E-1
 8.117672635275000E9     5.013901485026113E-1   -7.103227813964479E-2    1.929772949820297E-3    5.155475115085953E-3    2.016768676062731E-3    5.295112091867169E-3    4.000366414964389E-1   -2.126077659060433E-1
 8.117673763800000E9     5.012714151903014E-1   -7.115861344939041E-2    1.934723408903025E-3    5.177778474753546E-3    1.992674603813203E-3    5.295451144676924E-3    4.000859495103145E-1   -2.128488079152789E-1
 8.117674892325000E9     5.010424643075859E-1   -7.129884727819083E-2    1.932009623945929E-3    5.169729324707298E-3    2.002894403731222E-3    5.275394045877852E-3    3.998772876254074E-1   -2.126247182963286E-1
 8.117676020850000E9     5.010736151613431E-1   -7.124680520187854E-2    1.924503721806158E-3    5.168799318234907E-3    2.066682132863451E-3    5.298529498812129E-3    4.002057250234575E-1   -2.128098218060790E-1
 8.117677149375000E9     5.011790548457400E-1   -7.147153076552329E-2    1.917076081848032E-3    5.177343411592183E-3    2.017311141044470E-3    5.307049249045038E-3    4.000349152929505E-1   -2.129711422374326E-1
 8.117678277900000E9     5.011204748978197E-1   -7.177151999517288E-2    1.964077753431839E-3    5.192853911557438E-3    2.038257293155394E-3    5.337772126293223E-3    3.997884285886393E-1   -2.129892390783657E-1
 8.117679406425000E9     5.009898178727923E-1   -7.191591418462462E-2    1.987900852625396E-3    5.227481603089407E-3    2.047888736939607E-3    5.312427869595667E-3    3.997709636439900E-1   -2.131647750561285E-1
 8.117680534950000E9     5.010751207716041E-1   -7.200305144311610E-2    1.985542811485125E-3    5.240955432844860E-3    2.041327050279861E-3    5.300128927161104E-3    3.997990134103035E-1   -2.131614151852363E-1
 8.117681663475000E9     5.010160027339886E-1   -7.210713845337667E-2    1.996950883750112E-3    5.245616358386812E-3    2.050653306413844E-3    5.315363934701062E-3    3.997927607889485E-1   -2.132535298508243E-1
 8.117682792000000E9     5.008755949835532E-1   -7.223613827763940E-2    2.002604360679533E-3    5.249505252002935E-3    2.053268756139285E-3    5.369354995398095E-3    3.996894146531011E-1   -2.132719443614434E-1
 8.117683920525000E9     5.008754472204069E-1   -7.246425737313927E-2    2.014364699416387E-3    5.277079404559465E-3    2.043749776861102E-3    5.340769247912987E-3    3.996297761270068E-1   -2.133004802494356E-1
 8.117685049050000E9     5.008322374582302E-1   -7.258126912549778E-2    2.010982212776435E-3    5.292355681073550E-3    2.051151995630665E-3    5.359114126811097E-3    3.996201745598768E-1   -2.133956894908443E-1
 8.117686177575000E9     5.007933086423162E-1   -7.291622792303214E-2    2.004342600864884E-3    5.286218830130343E-3    2.093734381330945E-3    5.404592273278014E-3    3.996835190341033E-1   -2.135128315946715E-1
 8.117687306100000E9     5.008602619794963E-1   -7.298221587188901E-2    2.007702969703617E-3    5.325414208676251E-3    2.082507457999805E-3    5.413457734256103E-3    3.995602342514143E-1   -2.134419048069132E-1
 8.117688434625000E9     5.007836462943764E-1   -7.310504591569199E-2    2.043897340632295E-3    5.300975155730256E-3    2.102812276283206E-3    5.463493351916681E-3    3.995025478208900E-1   -2.136685700466603E-1
 8.117689563150000E9     5.007678954037430E-1   -7.315487173631979E-2    2.052439265545040E-3    5.325886626965599E-3    2.123181875377930E-3    5.501483633842492E-3    3.995365261791101E-1   -2.136510644103638E-1
 8.117690691675000E9     5.007436978808710E-1   -7.335748509506823E-2    2.054526734133426E-3    5.354730075444098E-3    2.150925002070416E-3    5.502441401066593E-3    3.995676248889598E-1   -2.137497043280999E-1
 8.117691820200000E9     5.006505217479251E-1   -7.335046258896501E-2    2.053403303851579E-3    5.369086118473864E-3    2.126355413875377E-3    5.489204911895569E-3    3.995434463397400E-1   -2.138597508145726E-1
 8.117692948725000E9     5.005319302969735E-1   -7.360910279600720E-2    2.056671823894191E-3    5.373057488198982E-3    2.096606798842519E-3    5.489102798285760E-3    3.993899894925989E-1   -2.138940969896544E-1
 8.117694077250000E9     5.005602064197608E-1   -7.376793554857027E-2    2.061621825072845E-3    5.381785068353380E-3    2.141875055884008E-3    5.499962365407405E-3    3.993151471813332E-1   -2.139614337259598E-1
 8.117695205775000E9     5.004152938753763E-1   -7.384880894356065E-2    2.077325157157532E-3    5.399162618181321E-3    2.142173778750314E-3    5.577564906292358E-3    3.991972945718491E-1   -2.139803068113864E-1
 8.117696334300000E9     5.003980725157734E-1   -7.401902526967462E-2    2.088242520170250E-3    5.414772046271070E-3    2.165997978624198E-3    5.533763449459793E-3    3.994789777737503E-1   -2.141369540770046E-1
 8.117697462825000E9     5.005589813388770E-1   -7.427204830643221E-2    2.107785526110398E-3    5.419386733891278E-3    2.182855103718304E-3    5.571259519666160E-3    3.992644482549949E-1   -2.142566061006938E-1
 8.117698591350000E9     5.004322712387955E-1   -7.443092787097422E-2    2.108848937739476E-3    5.446295457432360E-3    2.239627589202574E-3    5.551573704818907E-3    3.992847092790511E-1   -2.142714165962614E-1
 8.117699719875000E9     5.003618863869105E-1   -7.447848653241250E-2    2.126938950022644E-3    5.453430855383224E-3    2.188738854590385E-3    5.565040520709384E-3    3.991260940908719E-1   -2.141632930472963E-1
 8.117700848400000E9     5.002250212759858E-1   -7.473884856591224E-2    2.101058406548124E-3    5.467294949255747E-3    2.179327128519933E-3    5.618876582363089E-3    3.991183877275762E-1   -2.143690401535460E-1
 8.117701976925000E9     5.001870599159453E-1   -7.493158131351522E-2    2.160852435842308E-3    5.467415539768991E-3    2.173500407207830E-3    5.586651762431508E-3    3.991177215119329E-1   -2.144058762152663E-1
 8.117703105450000E9     5.002868305656882E-1   -7.502495865529805E-2    2.159891203806005E-3    5.500786092702020E-3    2.245908165279012E-3    5.638053778593965E-3    3.990505654578826E-1   -2.144127260649267E-1
 8.117704233975000E9     5.003196047004562E-1   -7.518731633464948E-2    2.147172015101544E-3    5.511303339257123E-3    2.224910172080237E-3    5.671150074892967E-3    3.990005900278999E-1   -2.146464370968951E-1
 8.117705362500000E9     4.999410710082771E-1   -7.541515261589406E-2    2.185834270991045E-3    5.514881509291912E-3    2.277953775174091E-3    5.679696788783182E-3    3.989067111824718E-1   -2.146496377801787E-1
 8.117706491025000E9     5.000749327909677E-1   -7.550266920828774E-2    2.195745134776342E-3    5.554046979522675E-3    2.294797277145204E-3    5.660762089877823E-3    3.988914195523348E-1   -2.147449789124908E-1
 8.117707619550000E9     4.999592279258775E-1   -7.566764314537235E-2    2.203778678388537E-3    5.576181925379298E-3    2.219958261843416E-3    5.712616289246827E-3    3.991000719647646E-1   -2.149003518285886E-1
 8.117708748075000E9     4.999935782399068E-1   -7.596828304795948E-2    2.257228294571283E-3    5.570614761155198E-3    2.291699586829750E-3    5.736241339464767E-3    3.988703556486049E-1   -2.149597624698389E-1
 8.117709876600000E9     4.998755161836174E-1   -7.597407022552947E-2    2.230229832666168E-3    5.591631148949132E-3    2.316202676402950E-3    5.743521084274250E-3    3.988521740287881E-1   -2.150523641875914E-1
 8.117711005125000E9     4.997834589248554E-1   -7.611297094531290E-2    2.261819213897443E-3    5.627630877141905E-3    2.310594243013396E-3    5.703233184299233E-3    3.989085269743157E-1   -2.151573947825731E-1
 8.117712133650000E9     4.996989391328970E-1   -7.642538571628722E-2    2.288953427218398E-3    5.637715141031737E-3    2.346255583904586E-3    5.783881036044439E-3    3.987491935032887E-1   -2.151006219979200E-1
 8.117713262175000E9     4.996856813259031E-1   -7.645892121219064E-2    2.244265948795475E-3    5.625927751450087E-3    2.359214197630085E-3    5.737421890003749E-3    3.985430938715994E-1   -2.152956749993810E-1
 8.117714390700000E9     4.996717628363636E-1   -7.676044706920782E-2    2.257909867599002E-3    5.664505758792599E-3    2.340435909882782E-3    5.816034259692604E-3    3.986191280514597E-1   -2.154778673767581E-1
 8.117715519225000E9     4.994861750658909E-1   -7.687133835473324E-2    2.315223835984989E-3    5.662849201073321E-3    2.353376489909374E-3    5.822226745563900E-3    3.985679506764424E-1   -2.153291175437897E-1
 8.117716647750000E9     4.995029988685764E-1   -7.704279456279099E-2    2.303799326280683E-3    5.714805940146291E-3    2.382133478371181E-3    5.798961352550052E-3    3.986233213016430E-1   -2.154566844840704E-1
 8.117717776275000E9     4.993768280785213E-1   -7.727079497831860E-2    2.303831455104103E-3    5.717864309404773E-3    2.416165374669880E-3    5.833399376967745E-3    3.986134093794386E-1   -2.155866378482075E-1
 8.117718904800000E9     4.994101308046467E-1   -7.740300544263792E-2    2.322907469455356E-3    5.715671204362666E-3    2.413257335509431E-3    5.889890073798181E-3    3.984474078675534E-1   -2.156852881515800E-1
 8.117720033325000E9     4.993836493095266E-1   -7.760179856046526E-2    2.336351196082523E-3    5.725543663129619E-3    2.450048204500630E-3    5.855794902168915E-3    3.985005122826920E-1   -2.155612962488065E-1
 8.117721161850000E9     4.993386195714614E-1   -7.784503885877435E-2    2.371597415991938E-3    5.793227269275680E-3    2.464958919625318E-3    5.923646264794594E-3    3.984116593857877E-1   -2.158636406974117E-1
 8.117722290375000E9     4.991911497326961E-1   -7.792781863972570E-2    2.384657654034669E-3    5.753449195780716E-3    2.454124954696567E-3    5.857853497992182E-3    3.983283855770398E-1   -2.158938561040109E-1
 8.117723418900000E9     4.991730948844494E-1   -7.809386037613338E-2    2.404630425210134E-3    5.820591062642010E-3    2.456051567099377E-3    5.947502876548572E-3    3.982792868955110E-1   -2.157140070581087E-1
 8.117724547425000E9     4.992352776436625E-1   -7.835014109276076E-2    2.385711167558888E-3    5.823766379542092E-3    2.472551979730070E-3    5.926901924307153E-3    3.983540828694390E-1   -2.159484044844835E-1
 8.117725675950000E9     4.991693810713350E-1   -7.843290868718991E-2    2.419742385009016E-3    5.849835096328537E-3    2.523991923099907E-3    5.955277755080598E-3    3.982849307621816E-1   -2.159432443268284E-1
 8.117726804475000E9     4.989039337966735E-1   -7.861777833963951E-2    2.412230732143615E-3    5.851975827312652E-3    2.498845134979771E-3    5.968605776236521E-3    3.983391182043234E-1   -2.161709280281770E-1
 8.117727933000000E9     4.990592116823781E-1   -7.888476942416044E-2    2.463288782144179E-3    5.896212373516554E-3    2.546876293948994E-3    6.000894171998617E-3    3.981789047629986E-1   -2.162749691549910E-1
 8.117729061525000E9     4.987473032030655E-1   -7.902421367616586E-2    2.453397071912436E-3    5.914932323431231E-3    2.548647151262767E-3    6.022655765470501E-3    3.981683003606702E-1   -2.162406041744150E-1
 8.117730190050000E9     4.989818722323953E-1   -7.920609933854178E-2    2.482619249324611E-3    5.914707208990904E-3    2.521571702434120E-3    6.080066933604312E-3    3.981643486168137E-1   -2.162370800414848E-1
 8.117731318575000E9     4.987775657025078E-1   -7.947739692907296E-2    2.485287123565462E-3    5.959535953592854E-3    2.603255035726929E-3    6.131829603026037E-3    3.980323022181136E-1   -2.164779092860542E-1
 8.117732447100000E9     4.986360405269329E-1   -7.969533016756264E-2    2.532198905239208E-3    5.964300625055422E-3    2.602458868296624E-3    6.079375506767726E-3    3.981794966659221E-1   -2.164773723337218E-1
 8.117733575625000E9     4.986012825732910E-1   -7.995176136182411E-2    2.529054600782774E-3    5.981185870466743E-3    2.597786865291700E-3    6.112045176626864E-3    3.979660429751336E-1   -2.165918399705623E-1
 8.117734704150000E9     4.985827806111328E-1   -8.000026774897298E-2    2.548366061210607E-3    6.023908254491543E-3    2.675569506647870E-3    6.188889430316805E-3    3.980099337411289E-1   -2.167012988591202E-1
 8.117735832675000E9     4.984136009752493E-1   -8.014588305444775E-2    2.546528868299927E-3    6.023420795767502E-3    2.689536559168124E-3    6.137375233157022E-3    3.978810380369897E-1   -2.166988863678760E-1
 8.117736961200000E9     4.984717144923944E-1   -8.047840334385173E-2    2.596700735059350E-3    6.054242715830015E-3    2.629308701788422E-3    6.171354228964634E-3    3.978812382681997E-1   -2.167776137316093E-1
 8.117738089725000E9     4.982816754488581E-1   -8.064691718212333E-2    2.592815712287930E-3    6.034374994294164E-3    2.663514483786391E-3    6.220803327148012E-3    3.978945689613115E-1   -2.168650799894554E-1
 8.117739218250000E9     4.982988940454646E-1   -8.079939128217420E-2    2.614742197814084E-3    6.116099763100939E-3    2.717910355353735E-3    6.236580678353891E-3    3.979535121781376E-1   -2.169890906713964E-1
