#  HZ   S   RI   R     50.00 
! Rohde & Schwarz Vector Network Analyzer 
! Rohde-Schwarz,ZNB20-2Port,1311601062101988,3.16
! Created: UTC 3/20/2024, 12:06:38 PM
! freq[Hz]                re:S11                  im:S11                  re:S21                  im:S21                  re:S12                  im:S12                  re:S22                  im:S22
 8.117635252000000E9     5.021356046574406E-1   -6.659527856233768E-2    1.689962971029468E-3    4.854934292920176E-3    1.765163705367776E-3    4.952460916134076E-3    4.012861306359071E-1   -2.100675952957403E-1
 8.117636390450000E9     5.021741597056919E-1   -6.662764198712678E-2    1.750473346412782E-3    4.844653707940783E-3    1.762021951419760E-3    4.982431819215060E-3    4.010030247869192E-1   -2.102009976208062E-1
 8.117637528900000E9     5.022696748045887E-1   -6.696830889972992E-2    1.742941065824460E-3    4.861181759773411E-3    1.724558831645787E-3    4.946015286454709E-3    4.011068560449395E-1   -2.104027309009824E-1
 8.117638667350000E9     5.022490777522701E-1   -6.712630355826828E-2    1.707392150486518E-3    4.882369272052780E-3    1.783752366246615E-3    4.970116960420135E-3    4.009543488431996E-1   -2.103233400883477E-1
 8.117639805800000E9     5.021743929562218E-1   -6.714440578011444E-2    1.711631400682656E-3    4.887960839130626E-3    1.827245596722701E-3    4.988442317472765E-3    4.010097102421646E-1   -2.105718247415846E-1
 8.117640944250000E9     5.021695780593035E-1   -6.726760370085150E-2    1.737835179127696E-3    4.877384715839965E-3    1.789799690600635E-3    4.996311537272254E-3    4.009850303451128E-1   -2.105803804956006E-1
 8.117642082700000E9     5.020632247558569E-1   -6.739436981144166E-2    1.730936057956568E-3    4.889169014248024E-3    1.770955848726979E-3    5.027461139750593E-3    4.009470318192512E-1   -2.105186618750682E-1
 8.117643221150000E9     5.020681617607937E-1   -6.750068836502804E-2    1.750953220588577E-3    4.927067108623867E-3    1.763668112418008E-3    4.995134719956928E-3    4.009983730245561E-1   -2.106182172107902E-1
 8.117644359600000E9     5.020347248251705E-1   -6.765467680598911E-2    1.762907395774320E-3    4.902106139006109E-3    1.805122249590773E-3    5.021756223297494E-3    4.008455003981068E-1   -2.108093625526429E-1
 8.117645498050000E9     5.021217565049729E-1   -6.772230065590742E-2    1.774204573422733E-3    4.939482993378021E-3    1.864465142165416E-3    5.042303517506848E-3    4.008811750872857E-1   -2.107314202368999E-1
 8.117646636500000E9     5.019741124674101E-1   -6.781271374059121E-2    1.765008535746079E-3    4.953941265033473E-3    1.808939396281316E-3    5.024867107738920E-3    4.008341999036695E-1   -2.109521043462742E-1
 8.117647774950000E9     5.019735781113838E-1   -6.789984824402193E-2    1.778151884563289E-3    4.940774063047160E-3    1.880035138821428E-3    5.040133113080930E-3    4.008744408425606E-1   -2.109690813504334E-1
 8.117648913400000E9     5.019511445131716E-1   -6.816133057880788E-2    1.791898088835637E-3    4.949209819777647E-3    1.892472468745871E-3    5.085746902145298E-3    4.008283445541318E-1   -2.111398696673680E-1
 8.117650051850000E9     5.017451797279765E-1   -6.833928552122855E-2    1.780574067269473E-3    4.963363340304601E-3    1.851378578131825E-3    5.083556254650914E-3    4.007779606176815E-1   -2.110855682654074E-1
 8.117651190300000E9     5.018856193544624E-1   -6.836279397365250E-2    1.796940625051660E-3    4.961228868846190E-3    1.850911659638639E-3    5.064235812133762E-3    4.007145651697222E-1   -2.111843802589957E-1
 8.117652328750000E9     5.018732744571810E-1   -6.859797037875677E-2    1.813421861413212E-3    4.987961723005137E-3    1.893246710859801E-3    5.072136677732676E-3    4.005077074026371E-1   -2.112449336109734E-1
 8.117653467200000E9     5.016989051475876E-1   -6.877918001974996E-2    1.810682845757050E-3    4.981258533750654E-3    1.838615504536676E-3    5.138790614202796E-3    4.006505706120969E-1   -2.112958017121075E-1
 8.117654605650000E9     5.017307691389830E-1   -6.884963737302481E-2    1.835753584295571E-3    5.006540967719950E-3    1.841849411513317E-3    5.138912476561009E-3    4.005887042005860E-1   -2.114355803096133E-1
 8.117655744100000E9     5.017857313918896E-1   -6.902933554078358E-2    1.822793376979392E-3    5.027418943902798E-3    1.887413561433603E-3    5.130219584363235E-3    4.005322324663362E-1   -2.115356807118491E-1
 8.117656882550000E9     5.018014534955000E-1   -6.923743604800132E-2    1.846251897834909E-3    5.019134559816531E-3    1.899053794318245E-3    5.116095996860867E-3    4.005498650360272E-1   -2.116545015808590E-1
 8.117658021000000E9     5.017257647686557E-1   -6.922430572624445E-2    1.815028437591446E-3    5.034348798392126E-3    1.914496535923486E-3    5.102879553585818E-3    4.004508448485284E-1   -2.116461680441530E-1
 8.117659159450000E9     5.016256203284510E-1   -6.940242486015751E-2    1.832553776732442E-3    5.034200444151827E-3    1.927219920288917E-3    5.122401971005953E-3    4.003769930464626E-1   -2.116052846675361E-1
 8.117660297900000E9     5.015901017957956E-1   -6.948866406736084E-2    1.834867143757103E-3    5.032910409533371E-3    1.911027410958511E-3    5.188257241841733E-3    4.002389030396052E-1   -2.118305789833589E-1
 8.117661436350000E9     5.015358446360785E-1   -6.965139231105960E-2    1.870629738589277E-3    5.049480633230634E-3    1.900539778797206E-3    5.151847877385149E-3    4.002681822091966E-1   -2.118022127198633E-1
 8.117662574800000E9     5.014858247286386E-1   -6.977313894935014E-2    1.867427632846502E-3    5.077881731232171E-3    1.866851625495567E-3    5.158503979373354E-3    4.002661157625433E-1   -2.119560738245806E-1
 8.117663713250000E9     5.015172496387265E-1   -6.994291652256640E-2    1.851246399274927E-3    5.068752340842910E-3    1.892012306164492E-3    5.200553267317928E-3    4.002938732410717E-1   -2.120230131140296E-1
 8.117664851700000E9     5.014994129315778E-1   -7.008497400313454E-2    1.871174973888183E-3    5.091820592405327E-3    1.982959468726287E-3    5.197412508110241E-3    4.002487101283768E-1   -2.120485257986270E-1
 8.117665990150000E9     5.015444099408554E-1   -7.022604475574044E-2    1.887363285204210E-3    5.079157552150447E-3    1.914966168888758E-3    5.239539436920734E-3    4.003132537234044E-1   -2.121693746555089E-1
 8.117667128600000E9     5.015280996228224E-1   -7.051055818223244E-2    1.882870008223296E-3    5.129318494222065E-3    1.922619268397042E-3    5.195168798299275E-3    4.001626450709813E-1   -2.123359008538671E-1
 8.117668267050000E9     5.013853399459677E-1   -7.058814709026073E-2    1.892646137601327E-3    5.110235193763438E-3    1.945745661397419E-3    5.246742705328241E-3    4.001381969558134E-1   -2.121234981703126E-1
 8.117669405500000E9     5.013060644737815E-1   -7.070289053646936E-2    1.908077183641667E-3    5.141234616451720E-3    1.972033072394349E-3    5.328846549168220E-3    4.002098170041386E-1   -2.123008836795393E-1
 8.117670543950000E9     5.013546140759852E-1   -7.075242536538844E-2    1.921964938308250E-3    5.160401123914041E-3    1.971699846874553E-3    5.238076267402776E-3    4.000492592554404E-1   -2.125829173653507E-1
 8.117671682400000E9     5.012968347892023E-1   -7.099027218587185E-2    1.920244842061521E-3    5.180771739511363E-3    1.972421937761314E-3    5.222344816297929E-3    4.000521878364023E-1   -2.123992852676104E-1
 8.117672820850000E9     5.012584587295539E-1   -7.114402142894261E-2    1.943453201326296E-3    5.176975889999709E-3    2.013660325349137E-3    5.295687256404965E-3    3.999838629639998E-1   -2.126184695809173E-1
 8.117673959300000E9     5.012682951690659E-1   -7.125597576834015E-2    1.923767923546889E-3    5.168646779977797E-3    2.037906379854857E-3    5.306371136010818E-3    3.999111826366055E-1   -2.127121117533321E-1
 8.117675097750000E9     5.011763448545059E-1   -7.146112655327849E-2    1.938667458404917E-3    5.191965063765425E-3    2.030921384074961E-3    5.278791485482955E-3    4.001039541756435E-1   -2.128032664864114E-1
 8.117676236200000E9     5.012583021857502E-1   -7.140812999824836E-2    1.942902875164227E-3    5.201593067126155E-3    2.016009163544676E-3    5.315160444903309E-3    3.998338174195017E-1   -2.128626605062089E-1
 8.117677374650000E9     5.009610373270941E-1   -7.174827518944929E-2    2.001136860493267E-3    5.210787722046294E-3    2.050155764995744E-3    5.315765270696542E-3    3.999325491458826E-1   -2.129187452254480E-1
 8.117678513100000E9     5.011223754460837E-1   -7.184746110360228E-2    1.971918978933401E-3    5.219859284344201E-3    2.031649283822658E-3    5.322733718626026E-3    3.998961740231570E-1   -2.130537928076054E-1
 8.117679651550000E9     5.009748530137026E-1   -7.203888179980300E-2    1.968251833255202E-3    5.224663532569922E-3    2.057936119017745E-3    5.317164031589174E-3    3.997949002079168E-1   -2.130512495973360E-1
 8.117680790000000E9     5.009599660325651E-1   -7.208745484942179E-2    1.984517030901357E-3    5.247158502216981E-3    2.100362856323836E-3    5.392283090787570E-3    3.997901301969337E-1   -2.130687650113446E-1
 8.117681928450000E9     5.010423110037576E-1   -7.227237292023515E-2    2.004888680658200E-3    5.232118002111056E-3    2.064372460429481E-3    5.354470852008290E-3    3.997419793487758E-1   -2.130386203236692E-1
 8.117683066900000E9     5.010092478187648E-1   -7.244774343958155E-2    1.989738066624382E-3    5.268539274988341E-3    2.122848440451582E-3    5.348714262646365E-3    3.996256502425982E-1   -2.131967470908597E-1
 8.117684205350000E9     5.008659104082460E-1   -7.255929897911031E-2    1.994024668224138E-3    5.278084368170274E-3    2.048986241212785E-3    5.395711781374054E-3    3.996894985951208E-1   -2.133903384906326E-1
 8.117685343800000E9     5.008590331264067E-1   -7.269194151352797E-2    2.042835033276206E-3    5.288194414288495E-3    2.085803445660731E-3    5.417728309270457E-3    3.997732488772507E-1   -2.134355909092587E-1
 8.117686482250000E9     5.008880608179278E-1   -7.293008523664039E-2    2.012389619815650E-3    5.293829566699094E-3    2.087966331932241E-3    5.420694670139017E-3    3.996048661440503E-1   -2.134327203881559E-1
 8.117687620700000E9     5.006828546832822E-1   -7.295720013775321E-2    2.010381913896133E-3    5.296178171100733E-3    2.096488950023978E-3    5.435264709554616E-3    3.995749307446575E-1   -2.135273910781227E-1
 8.117688759150000E9     5.006956552727563E-1   -7.323177535540129E-2    2.029997256969697E-3    5.348039093648072E-3    2.143852637892243E-3    5.447042780826010E-3    3.995042421385698E-1   -2.135802128349019E-1
 8.117689897600000E9     5.007027394382279E-1   -7.339086146774074E-2    2.045722960483194E-3    5.335854564687665E-3    2.150872790259838E-3    5.513337423409546E-3    3.995527696497967E-1   -2.137335427982732E-1
 8.117691036050000E9     5.006637802523867E-1   -7.338278141828278E-2    2.071634023139901E-3    5.360764110604739E-3    2.162974209851740E-3    5.505766706579250E-3    3.994544043724962E-1   -2.138216589035488E-1
 8.117692174500000E9     5.006059363860583E-1   -7.347780938077608E-2    2.085689010906725E-3    5.364375067327467E-3    2.159484334893653E-3    5.521925297937906E-3    3.995280411934388E-1   -2.137908300152602E-1
 8.117693312950000E9     5.004177725056063E-1   -7.372361889019018E-2    2.076491062835551E-3    5.371707794693864E-3    2.174440217152972E-3    5.489040482184401E-3    3.995209984208010E-1   -2.138607562616714E-1
 8.117694451400000E9     5.005197260046645E-1   -7.397354361062554E-2    2.119101756284983E-3    5.385921032725882E-3    2.188260267456298E-3    5.495305913890000E-3    3.991560383910978E-1   -2.139981240978250E-1
 8.117695589850000E9     5.003984688740599E-1   -7.415371591009458E-2    2.115770911796707E-3    5.441846878561972E-3    2.168799785910694E-3    5.533401485608276E-3    3.992554796801510E-1   -2.141393650195381E-1
 8.117696728300000E9     5.004055967072346E-1   -7.434615253537370E-2    2.112447674586695E-3    5.411614933056390E-3    2.182966485332362E-3    5.558326220751627E-3    3.992437034921416E-1   -2.142582991081978E-1
 8.117697866750000E9     5.003221201264736E-1   -7.438817175675141E-2    2.130394719707810E-3    5.435208764062115E-3    2.196273138575168E-3    5.616792769443858E-3    3.991809028743260E-1   -2.142042605875974E-1
 8.117699005200000E9     5.003527607010203E-1   -7.455256538495134E-2    2.135957810875902E-3    5.465644927301570E-3    2.244080281834534E-3    5.559879703847120E-3    3.991339601273841E-1   -2.142470783478758E-1
 8.117700143650000E9     5.001367643817055E-1   -7.464416356811895E-2    2.157747474333668E-3    5.491499489405946E-3    2.239183676287491E-3    5.618869378982371E-3    3.991805999162690E-1   -2.142867965600645E-1
 8.117701282100000E9     5.002144919065165E-1   -7.489314195027895E-2    2.162063047099341E-3    5.509141402765899E-3    2.252804559991987E-3    5.638522960036952E-3    3.991214846056294E-1   -2.145541587594262E-1
 8.117702420550000E9     5.002622488871787E-1   -7.500663941910414E-2    2.176678524982704E-3    5.503054220776205E-3    2.233827065265288E-3    5.602549269893504E-3    3.990433065612740E-1   -2.146157346615167E-1
 8.117703559000000E9     5.001845674329708E-1   -7.514584408222534E-2    2.189381173122642E-3    5.532620754820842E-3    2.263557463822455E-3    5.716936171069192E-3    3.991092771221785E-1   -2.145002123794433E-1
 8.117704697450000E9     5.000624041522301E-1   -7.536017302492480E-2    2.203575461868430E-3    5.528107397976317E-3    2.271637042239340E-3    5.672025943141542E-3    3.989237672914746E-1   -2.146322166334567E-1
 8.117705835900000E9     5.001943780369177E-1   -7.555266835685844E-2    2.178802943326838E-3    5.553336364499324E-3    2.270625331743873E-3    5.705834758994391E-3    3.989932214209331E-1   -2.146291570835085E-1
 8.117706974350000E9     4.999181712006095E-1   -7.563029180135694E-2    2.209329941785306E-3    5.572966317873848E-3    2.279583703331430E-3    5.698809139247013E-3    3.988701115550793E-1   -2.147998880874267E-1
 8.117708112800000E9     4.998789947209803E-1   -7.598692753213894E-2    2.201342273650754E-3    5.582835413720226E-3    2.297981095667927E-3    5.703785897251728E-3    3.989348015952358E-1   -2.149712119891765E-1
 8.117709251250000E9     4.998383475697203E-1   -7.604094744969715E-2    2.250255096898847E-3    5.607787542242697E-3    2.310706120682344E-3    5.748524610117701E-3    3.989429533006111E-1   -2.148544544642575E-1
 8.117710389700000E9     4.998425878302157E-1   -7.625834571342537E-2    2.253480814180333E-3    5.611578428575352E-3    2.314995707535111E-3    5.765874763769094E-3    3.988055113549114E-1   -2.151758237561763E-1
 8.117711528150000E9     4.997783931075516E-1   -7.642036718482291E-2    2.247698292247201E-3    5.629210637970918E-3    2.350529440698639E-3    5.778781615660812E-3    3.986749234211943E-1   -2.152398993109163E-1
 8.117712666600000E9     4.997671637895767E-1   -7.656980323790277E-2    2.269939286764264E-3    5.639717049209373E-3    2.333059530212344E-3    5.794488742446964E-3    3.987367528107630E-1   -2.151616837869116E-1
 8.117713805050000E9     4.996409677770967E-1   -7.678829526948390E-2    2.265051632380124E-3    5.670142047366812E-3    2.354094244549562E-3    5.825329533617869E-3    3.985922474965111E-1   -2.152782686802092E-1
 8.117714943500000E9     4.996391244513581E-1   -7.698540354722749E-2    2.302493115733939E-3    5.713584900712483E-3    2.377806719119965E-3    5.863253661844865E-3    3.985851605885966E-1   -2.152761345785884E-1
 8.117716081950000E9     4.995475309698572E-1   -7.696641483982591E-2    2.336089955713900E-3    5.729092612971585E-3    2.374309810987673E-3    5.791994163748846E-3    3.985728904329334E-1   -2.153201471917301E-1
 8.117717220400000E9     4.994402699188750E-1   -7.730372439389266E-2    2.322564290235021E-3    5.749595811167946E-3    2.379206314984371E-3    5.857849817988508E-3    3.985726650734918E-1   -2.154692207214440E-1
 8.117718358850000E9     4.993305400547691E-1   -7.742909096789814E-2    2.351149081598691E-3    5.738157483951563E-3    2.407546979274980E-3    5.868430958167488E-3    3.984873997940386E-1   -2.155124618344834E-1
 8.117719497300000E9     4.994457610174887E-1   -7.761953740322972E-2    2.348512563880457E-3    5.768513413861298E-3    2.426685210602244E-3    5.909767745318667E-3    3.985717440085140E-1   -2.157114748547659E-1
 8.117720635750000E9     4.993876726915548E-1   -7.774630905680252E-2    2.354978721915440E-3    5.762732071181748E-3    2.450030457508859E-3    5.883437231455585E-3    3.983759461611578E-1   -2.156574932915558E-1
 8.117721774200000E9     4.992362113570485E-1   -7.810507895296293E-2    2.387480551700463E-3    5.795848579622504E-3    2.462892959970178E-3    5.894076449906177E-3    3.983858739254713E-1   -2.157529280663966E-1
 8.117722912650000E9     4.990042412260963E-1   -7.814514887779550E-2    2.407367395553641E-3    5.829850919348118E-3    2.504264706902075E-3    5.932858326905069E-3    3.984179043487717E-1   -2.158648092733129E-1
 8.117724051100000E9     4.990909163839348E-1   -7.822059066654909E-2    2.406937883321273E-3    5.845688053510461E-3    2.492590274831194E-3    5.962062429590468E-3    3.983287039274729E-1   -2.159466674255453E-1
 8.117725189550000E9     4.990806728147061E-1   -7.866120434704081E-2    2.408247125802049E-3    5.862008251696678E-3    2.485059217870190E-3    6.004632168989349E-3    3.982474376863811E-1   -2.161015932851946E-1
 8.117726328000000E9     4.989139743431289E-1   -7.882687452260789E-2    2.465869745885331E-3    5.891009585655695E-3    2.542419448874165E-3    6.040192064227116E-3    3.983271058393966E-1   -2.162061338142323E-1
 8.117727466450000E9     4.988420051079157E-1   -7.894112187064434E-2    2.485644022955794E-3    5.883840791561306E-3    2.490805759217086E-3    6.017572590884535E-3    3.981058858637220E-1   -2.162116219642494E-1
 8.117728604900000E9     4.988180429160448E-1   -7.918829483930143E-2    2.478939187912557E-3    5.906127506648155E-3    2.535132792716268E-3    6.097416891321527E-3    3.981460227357210E-1   -2.163545957188082E-1
 8.117729743350000E9     4.987379560057242E-1   -7.931937003563853E-2    2.485059253314258E-3    5.937724367133925E-3    2.560342673641228E-3    6.040439666196801E-3    3.982167075221625E-1   -2.163735965411854E-1
 8.117730881800000E9     4.987126797211288E-1   -7.955349602356147E-2    2.493025251859668E-3    5.962978774171631E-3    2.569532322040388E-3    6.079557871330785E-3    3.982201657140689E-1   -2.163820886603346E-1
 8.117732020250000E9     4.986619161774681E-1   -7.975510233432249E-2    2.524668406107368E-3    5.999117716986808E-3    2.638448282022591E-3    6.143260918013446E-3    3.980945893901173E-1   -2.166137517903026E-1
 8.117733158700000E9     4.984900345190149E-1   -7.996793697690398E-2    2.540731053871708E-3    5.993218946075841E-3    2.627136178550044E-3    6.130877167689173E-3    3.979106570260144E-1   -2.165473620496774E-1
 8.117734297150000E9     4.984918656565296E-1   -8.006539220095699E-2    2.567844464524396E-3    6.039851460525213E-3    2.661171552458357E-3    6.169663410645225E-3    3.979594884239445E-1   -2.166897820220296E-1
 8.117735435600000E9     4.984184887589314E-1   -8.035315820347175E-2    2.578578706128926E-3    6.050961728459390E-3    2.676989917718225E-3    6.146228896227826E-3    3.978569890990226E-1   -2.168292125402353E-1
 8.117736574050000E9     4.983056380440967E-1   -8.061664615115766E-2    2.592409426984207E-3    6.064619009173403E-3    2.639006114436388E-3    6.189865027861691E-3    3.978280660369838E-1   -2.167978786297284E-1
 8.117737712500000E9     4.981847135538965E-1   -8.077652322449981E-2    2.614216208270533E-3    6.085792879476464E-3    2.752756136792851E-3    6.284001152397842E-3    3.979715641808628E-1   -2.168724424267804E-1
