#  HZ   S   RI   R     50.00 
! Rohde & Schwarz Vector Network Analyzer 
! Rohde-Schwarz,ZNB20-2Port,1311601062101988,3.16
! Created: UTC 3/20/2024, 11:39:08 AM
! freq[Hz]                re:S11                  im:S11                  re:S21                  im:S21                  re:S12                  im:S12                  re:S22                  im:S22
 8.117378429000000E9     5.032658882241817E-1   -4.721299712425762E-2    1.240567675762146E-3    4.192120852290733E-3    1.344985124998461E-3    4.273212306724710E-3    4.078252646135402E-1   -1.942558064343933E-1
 8.117380283800000E9     5.032061366853675E-1   -4.732270622760774E-2    1.238576583281122E-3    4.169732519996024E-3    1.313876832458450E-3    4.228776163258623E-3    4.080104547391686E-1   -1.944745691685717E-1
 8.117382138600000E9     5.032785402629188E-1   -4.759498493902606E-2    1.250829401810280E-3    4.196140976736223E-3    1.340639828336417E-3    4.229271839727777E-3    4.077599035455652E-1   -1.944955728577534E-1
 8.117383993400000E9     5.032787367975106E-1   -4.772293923901538E-2    1.268421664863758E-3    4.208993196623784E-3    1.340363907367053E-3    4.245359896875724E-3    4.077867012062039E-1   -1.945446428334521E-1
 8.117385848200000E9     5.032231553324606E-1   -4.791798478195874E-2    1.264287119132727E-3    4.175679550403591E-3    1.351484796476567E-3    4.240614700881413E-3    4.077738092365188E-1   -1.947696140037278E-1
 8.117387703000000E9     5.031793410928863E-1   -4.800483278670207E-2    1.261764171653409E-3    4.203979241305084E-3    1.366099631656293E-3    4.265039483313162E-3    4.075843133460034E-1   -1.947471560625035E-1
 8.117389557800000E9     5.031514583813299E-1   -4.827744007848881E-2    1.277037964880985E-3    4.187037507208621E-3    1.327954141248876E-3    4.259062380841667E-3    4.076882353644826E-1   -1.948912351866616E-1
 8.117391412600000E9     5.032125621088789E-1   -4.842882148929932E-2    1.285011752344784E-3    4.212867770549321E-3    1.343618131857151E-3    4.313922566436361E-3    4.074817175481174E-1   -1.949904257960116E-1
 8.117393267400000E9     5.031178233797033E-1   -4.861828324204043E-2    1.290266189287187E-3    4.222626946720982E-3    1.314930717993105E-3    4.300242067439976E-3    4.074985466980294E-1   -1.952085688374497E-1
 8.117395122200000E9     5.031187975701532E-1   -4.883198930569694E-2    1.268918594239491E-3    4.228178741805270E-3    1.371352506174822E-3    4.296962056048193E-3    4.073302294385689E-1   -1.952525077517794E-1
 8.117396977000000E9     5.030848642989114E-1   -4.885225005633638E-2    1.283387748775886E-3    4.248586786586366E-3    1.318822163670630E-3    4.287325341254251E-3    4.073080142282414E-1   -1.954594240999283E-1
 8.117398831800000E9     5.029688820423323E-1   -4.895464887238291E-2    1.291203468816800E-3    4.234023864259378E-3    1.380224193157660E-3    4.294264662045155E-3    4.072427916560096E-1   -1.955189259410204E-1
 8.117400686600000E9     5.030638678577908E-1   -4.927218297392781E-2    1.308732315401628E-3    4.223113264339698E-3    1.357396002413570E-3    4.309717310909240E-3    4.072178211409234E-1   -1.957450586635543E-1
 8.117402541400000E9     5.029554815272789E-1   -4.938364971806523E-2    1.294038179994043E-3    4.239713298455449E-3    1.378511230677478E-3    4.320437542495542E-3    4.072100469329124E-1   -1.958134308942772E-1
 8.117404396200000E9     5.029345768960676E-1   -4.961152563713092E-2    1.294196338089647E-3    4.246053388763923E-3    1.350663108713468E-3    4.284920453550498E-3    4.072848524648703E-1   -1.957794504846122E-1
 8.117406251000000E9     5.028732266466301E-1   -4.979122540037791E-2    1.307113035592216E-3    4.227602471026476E-3    1.375780258217549E-3    4.275373180459953E-3    4.070571347737973E-1   -1.959477202139494E-1
 8.117408105800000E9     5.029366017324712E-1   -4.981432544773771E-2    1.318183506697676E-3    4.268168990503022E-3    1.384664876714061E-3    4.312275472518915E-3    4.070714325905027E-1   -1.962418444699658E-1
 8.117409960600000E9     5.029286180854237E-1   -5.000100878263471E-2    1.300190416252863E-3    4.244101800501232E-3    1.402069228543595E-3    4.343215501313661E-3    4.070574181648965E-1   -1.963036081944040E-1
 8.117411815400000E9     5.028675754398245E-1   -5.020449990481366E-2    1.297625468263336E-3    4.290816493037021E-3    1.418207743716242E-3    4.347265304511557E-3    4.069213565212338E-1   -1.962637781197445E-1
 8.117413670200000E9     5.029323957592865E-1   -5.034618408725004E-2    1.315046526729018E-3    4.272408703693420E-3    1.380402933556820E-3    4.305393018933989E-3    4.069580704274395E-1   -1.963546713358253E-1
 8.117415525000000E9     5.027326313615631E-1   -5.055409357205254E-2    1.297087981518820E-3    4.269606594454002E-3    1.384310445176584E-3    4.346707763914560E-3    4.067800226192926E-1   -1.964957869243214E-1
 8.117417379800000E9     5.028194403635698E-1   -5.070964919174111E-2    1.309960426107026E-3    4.288998168230924E-3    1.416668352451014E-3    4.367286611804458E-3    4.068807739821336E-1   -1.968904305605580E-1
 8.117419234600000E9     5.026678356767575E-1   -5.096370585036673E-2    1.343872919711648E-3    4.277136103098073E-3    1.390868462808790E-3    4.326509978278112E-3    4.067001544074645E-1   -1.967870084470211E-1
 8.117421089400000E9     5.027394732277493E-1   -5.108565381133522E-2    1.356999275070421E-3    4.320976847195692E-3    1.425964121914752E-3    4.353600999023446E-3    4.067831215173833E-1   -1.970066345221257E-1
 8.117422944200000E9     5.026955411827040E-1   -5.131600417703494E-2    1.363412165684183E-3    4.328146534840880E-3    1.399361313447428E-3    4.355716749288380E-3    4.067256693407367E-1   -1.970322572853174E-1
 8.117424799000000E9     5.027018827884332E-1   -5.150970444639159E-2    1.373403571089559E-3    4.307748945495413E-3    1.414127253527009E-3    4.387899003129784E-3    4.066057802255220E-1   -1.972204679683824E-1
 8.117426653800000E9     5.028091119507666E-1   -5.170591353152729E-2    1.340834173292535E-3    4.345161182232508E-3    1.416980228648351E-3    4.421389551888057E-3    4.065312507603999E-1   -1.973440234954841E-1
 8.117428508600000E9     5.026099674315830E-1   -5.184943019491152E-2    1.368364989554153E-3    4.330148548288013E-3    1.441573699820788E-3    4.384025396416566E-3    4.065483544295125E-1   -1.974416154846509E-1
 8.117430363400000E9     5.026852104886299E-1   -5.183925328672978E-2    1.373852137329891E-3    4.332105200357587E-3    1.416713756904704E-3    4.387471855255585E-3    4.064585701021371E-1   -1.975455829226765E-1
 8.117432218200000E9     5.026335471987504E-1   -5.204998724008568E-2    1.359585622883929E-3    4.354266533860942E-3    1.437689836221559E-3    4.398300555097460E-3    4.064292885359791E-1   -1.976927574077249E-1
 8.117434073000000E9     5.025770619526030E-1   -5.219630836732594E-2    1.395982346338815E-3    4.351592010008079E-3    1.452478687964693E-3    4.406454742506489E-3    4.063980126144172E-1   -1.978022639478212E-1
 8.117435927800000E9     5.025353935530273E-1   -5.243057770115137E-2    1.364028549778819E-3    4.361693721257297E-3    1.461057082085709E-3    4.439755088304625E-3    4.062571363186572E-1   -1.980894645317917E-1
 8.117437782600000E9     5.024302853383573E-1   -5.246961174260670E-2    1.360803046232124E-3    4.361918328384040E-3    1.480266507989208E-3    4.414065418060783E-3    4.061854929519279E-1   -1.980530437256553E-1
 8.117439637400000E9     5.025693164292253E-1   -5.277200444856165E-2    1.356263879869622E-3    4.377341504689714E-3    1.456739201228653E-3    4.406643692098304E-3    4.060843054864751E-1   -1.982711168026035E-1
 8.117441492200000E9     5.025806569073866E-1   -5.287359414392773E-2    1.402833056260444E-3    4.366761493891514E-3    1.478455995020531E-3    4.431331633018411E-3    4.061774981443483E-1   -1.982378899225923E-1
 8.117443347000000E9     5.023409447962323E-1   -5.310366539943494E-2    1.376380713087356E-3    4.399793470658526E-3    1.432067490081083E-3    4.478430914517758E-3    4.061494601155705E-1   -1.984827810992492E-1
 8.117445201800000E9     5.024488441225358E-1   -5.322633104592031E-2    1.399214408193655E-3    4.385057809421794E-3    1.499732210318230E-3    4.483258980463989E-3    4.061848662796855E-1   -1.985201332254144E-1
 8.117447056600000E9     5.023544500312875E-1   -5.346778538304619E-2    1.414129368016232E-3    4.374626458260569E-3    1.519980344220840E-3    4.452328540954266E-3    4.060241050365289E-1   -1.986229676268414E-1
 8.117448911400000E9     5.021598722432666E-1   -5.368358184915165E-2    1.430362205949148E-3    4.393446222554984E-3    1.497845101471153E-3    4.461735438224629E-3    4.058873958658263E-1   -1.987644488722471E-1
 8.117450766200000E9     5.023138017815181E-1   -5.377896167970034E-2    1.422698555786333E-3    4.412524674616920E-3    1.491036919588701E-3    4.483963235815737E-3    4.058445619478128E-1   -1.989967252347713E-1
 8.117452621000000E9     5.022109392768203E-1   -5.402445903480106E-2    1.432765709882523E-3    4.401944215320820E-3    1.479606719607493E-3    4.488951699990542E-3    4.057515859859494E-1   -1.990317908921057E-1
 8.117454475800000E9     5.023212009003422E-1   -5.423931703900665E-2    1.429683031452954E-3    4.391482233185182E-3    1.529242260753037E-3    4.473919904352080E-3    4.056428976395056E-1   -1.991588498652789E-1
 8.117456330600000E9     5.022558326211819E-1   -5.439518345654946E-2    1.422827735654708E-3    4.445832533078272E-3    1.530577434316015E-3    4.495108015574713E-3    4.057337656789272E-1   -1.992952565006896E-1
 8.117458185400000E9     5.019947115266731E-1   -5.446682432811512E-2    1.427976628628870E-3    4.451080143916659E-3    1.508376751548119E-3    4.479699042830560E-3    4.056633741439158E-1   -1.993005554041531E-1
 8.117460040200000E9     5.021438055423039E-1   -5.477294447644436E-2    1.455421752873888E-3    4.430646745206131E-3    1.488630838284010E-3    4.505743379869690E-3    4.055710825814861E-1   -1.994521589189811E-1
 8.117461895000000E9     5.020295923588323E-1   -5.488482462773413E-2    1.456432446033920E-3    4.436737451514602E-3    1.527817369285004E-3    4.491053458448249E-3    4.056480186056048E-1   -1.996044611507575E-1
 8.117463749800000E9     5.021316845517017E-1   -5.507591238791604E-2    1.436033463295850E-3    4.435763475132534E-3    1.531077309782646E-3    4.520541817241440E-3    4.054683692000697E-1   -1.997571230775038E-1
 8.117465604600000E9     5.020795997916855E-1   -5.525914696008227E-2    1.455309900541521E-3    4.470161780295599E-3    1.571870460437060E-3    4.528957480343102E-3    4.053881003158447E-1   -1.998733658912934E-1
 8.117467459400000E9     5.020244152811461E-1   -5.535807426341675E-2    1.478301990128201E-3    4.476302291347854E-3    1.542670165778421E-3    4.545767814499131E-3    4.055224048363196E-1   -1.999822962778424E-1
 8.117469314200000E9     5.018864052221211E-1   -5.562887100661153E-2    1.449108512925412E-3    4.471109295421593E-3    1.567913262482879E-3    4.565028025541697E-3    4.054513414640556E-1   -2.000778192403936E-1
 8.117471169000000E9     5.017997765309933E-1   -5.580395789287472E-2    1.499021961142015E-3    4.488934129794957E-3    1.557721146327553E-3    4.540059688100478E-3    4.053164383307811E-1   -2.001098157475091E-1
 8.117473023800000E9     5.018971449572869E-1   -5.596694251103582E-2    1.475467990956077E-3    4.487873837885021E-3    1.599640776842957E-3    4.586274758884640E-3    4.053748657916630E-1   -2.003498623551234E-1
 8.117474878600000E9     5.018330489084524E-1   -5.602564338144969E-2    1.491277022800871E-3    4.508557635845383E-3    1.580480090701061E-3    4.569912951314550E-3    4.050604446022283E-1   -2.004619691586612E-1
 8.117476733400000E9     5.017412632106072E-1   -5.638712483716173E-2    1.489260367138442E-3    4.511549583318707E-3    1.560499954944487E-3    4.599587451811991E-3    4.050809322756337E-1   -2.005837400325597E-1
 8.117478588200000E9     5.017857074313358E-1   -5.656512796950051E-2    1.522652337560671E-3    4.517065571275095E-3    1.568554305114503E-3    4.599498332789583E-3    4.050881754707643E-1   -2.007165744365737E-1
 8.117480443000000E9     5.017385273588779E-1   -5.670231857179848E-2    1.509640310866243E-3    4.525733158064604E-3    1.573984201171519E-3    4.585903459708495E-3    4.049262802215521E-1   -2.007714209890184E-1
 8.117482297800000E9     5.017438112111382E-1   -5.692380452085001E-2    1.505045444666442E-3    4.545161186030737E-3    1.609894256342288E-3    4.601079132371328E-3    4.049469364870462E-1   -2.008927124057200E-1
 8.117484152600000E9     5.016610795643646E-1   -5.705555423386510E-2    1.539053310482673E-3    4.535549200986110E-3    1.573605926779462E-3    4.614688460150142E-3    4.048918316034361E-1   -2.009770609036551E-1
 8.117486007400000E9     5.016809702216598E-1   -5.718148114794591E-2    1.535435445034009E-3    4.552472454413941E-3    1.588296461653388E-3    4.638301778360081E-3    4.048818325650189E-1   -2.011680310888724E-1
 8.117487862200000E9     5.017033299821760E-1   -5.753974367460734E-2    1.534794891481578E-3    4.572263254793763E-3    1.595989002788203E-3    4.650636328033561E-3    4.049510867287685E-1   -2.013765653573153E-1
 8.117489717000000E9     5.016260376493368E-1   -5.752009297058386E-2    1.558420881438321E-3    4.579737952058281E-3    1.633053699474002E-3    4.642101496202229E-3    4.047331984772181E-1   -2.014537477989447E-1
 8.117491571800000E9     5.015481939332153E-1   -5.774227393925923E-2    1.557458403794077E-3    4.563650828551059E-3    1.617618313189018E-3    4.660984968933361E-3    4.047119321258489E-1   -2.015733086405182E-1
 8.117493426600000E9     5.014609677222429E-1   -5.789378743436967E-2    1.544974806031094E-3    4.618817665912245E-3    1.617628191596365E-3    4.640063752639630E-3    4.045812012280229E-1   -2.016572386623287E-1
 8.117495281400000E9     5.014820141744177E-1   -5.809839435334758E-2    1.569673246288315E-3    4.606804546248463E-3    1.673692058840737E-3    4.668190118240615E-3    4.047014689812112E-1   -2.017524568831055E-1
 8.117497136200000E9     5.014230166013841E-1   -5.843936040863505E-2    1.594471902697143E-3    4.610982255776581E-3    1.653564740734109E-3    4.652689039481312E-3    4.044745915913946E-1   -2.019107078701743E-1
 8.117498991000000E9     5.014762372445291E-1   -5.846390751056364E-2    1.575485410625207E-3    4.591214255011163E-3    1.663065444775568E-3    4.666091768115420E-3    4.045409630492759E-1   -2.020413660534595E-1
 8.117500845800000E9     5.014430684180530E-1   -5.887266745162117E-2    1.583016455241500E-3    4.616365240299298E-3    1.670544436916971E-3    4.721436926048385E-3    4.043740422515005E-1   -2.021010606863513E-1
 8.117502700600000E9     5.014644086889990E-1   -5.892578189764013E-2    1.579630507720620E-3    4.640789116853708E-3    1.700208975583603E-3    4.693428890814219E-3    4.044078601479305E-1   -2.023228379376853E-1
 8.117504555400000E9     5.012318012799144E-1   -5.910703665519245E-2    1.610484296890712E-3    4.649008949161698E-3    1.683035538019962E-3    4.721825955655469E-3    4.043730848836858E-1   -2.024949872738807E-1
 8.117506410200000E9     5.014517926745833E-1   -5.921110453676406E-2    1.572251774927428E-3    4.662115130713323E-3    1.670515970011485E-3    4.704918461559536E-3    4.042615459346718E-1   -2.024869208826381E-1
 8.117508265000000E9     5.012093037949732E-1   -5.942528425630434E-2    1.601495242890313E-3    4.673455278634589E-3    1.665481001219480E-3    4.738154030841936E-3    4.040797821847174E-1   -2.026678785556016E-1
 8.117510119800000E9     5.011751698313701E-1   -5.965529936024373E-2    1.616630139962938E-3    4.665134717990516E-3    1.664327054334152E-3    4.721028227214460E-3    4.041346273078505E-1   -2.027229379612334E-1
 8.117511974600000E9     5.012403477421029E-1   -5.990059785378871E-2    1.650277421156640E-3    4.707960630539140E-3    1.707055018235644E-3    4.793043789998936E-3    4.041795352164911E-1   -2.028281981948131E-1
 8.117513829400000E9     5.011074189415186E-1   -5.993712146795918E-2    1.655579285439570E-3    4.679208335902976E-3    1.713197789843530E-3    4.747972227676076E-3    4.040378873792246E-1   -2.029447207085227E-1
 8.117515684200000E9     5.010614796683552E-1   -6.018259954424164E-2    1.646739653805279E-3    4.715805087533565E-3    1.737339635975967E-3    4.744813716636730E-3    4.039157033992545E-1   -2.031053499382546E-1
 8.117517539000000E9     5.010556169537996E-1   -6.044670326065212E-2    1.649869391961712E-3    4.737003374088465E-3    1.715074273721989E-3    4.799222307387865E-3    4.038057702089724E-1   -2.032070381441524E-1
 8.117519393800000E9     5.009606391638191E-1   -6.061428275041929E-2    1.649193138891058E-3    4.729958320150838E-3    1.754528156080657E-3    4.796476289337446E-3    4.039168195467184E-1   -2.034216396675907E-1
 8.117521248600000E9     5.009756790514618E-1   -6.089284045711942E-2    1.675181103959788E-3    4.764514579647274E-3    1.715147616045196E-3    4.809091890560543E-3    4.037843039285631E-1   -2.034117884499920E-1
 8.117523103400000E9     5.009148387234871E-1   -6.102171527873711E-2    1.709407467473192E-3    4.734246773221596E-3    1.727378152193416E-3    4.811315483127995E-3    4.037944904093283E-1   -2.034535974059113E-1
 8.117524958200000E9     5.008161317959213E-1   -6.120033495130413E-2    1.690611608674416E-3    4.764633307292468E-3    1.781745597090930E-3    4.854634397598944E-3    4.036004278260980E-1   -2.036780225771216E-1
 8.117526813000000E9     5.009121451645914E-1   -6.150695864563834E-2    1.707026995034131E-3    4.767588033695457E-3    1.778092192852299E-3    4.833112174236542E-3    4.036787073138062E-1   -2.038303944701161E-1
 8.117528667800000E9     5.008152532344089E-1   -6.160581709318075E-2    1.706379684169274E-3    4.769902085812322E-3    1.787932940306983E-3    4.893694235292258E-3    4.035713087125075E-1   -2.038801005187356E-1
 8.117530522600000E9     5.007729160827743E-1   -6.193071857389718E-2    1.725860592665584E-3    4.814207811480693E-3    1.780841062220962E-3    4.873543882402526E-3    4.035566830996429E-1   -2.040391501660221E-1
 8.117532377400000E9     5.005515361107608E-1   -6.206751662034027E-2    1.738992820678021E-3    4.809093114619750E-3    1.798483827926837E-3    4.902865766788192E-3    4.034566475453075E-1   -2.042003666717249E-1
 8.117534232200000E9     5.005541131960056E-1   -6.225281197137392E-2    1.743128271475259E-3    4.826568589581908E-3    1.827971642140915E-3    4.880321411053028E-3    4.034711588996597E-1   -2.042971931813244E-1
 8.117536087000000E9     5.004653288353129E-1   -6.242077893842927E-2    1.743392517719970E-3    4.847689255630941E-3    1.815467295115968E-3    4.882715196443858E-3    4.033203040922717E-1   -2.044152210395376E-1
 8.117537941800000E9     5.005438371222510E-1   -6.261746177706255E-2    1.776930990639961E-3    4.837718443678533E-3    1.842291028306009E-3    4.911341240310071E-3    4.032659612915572E-1   -2.044790086447036E-1
 8.117539796600000E9     5.004454937141706E-1   -6.280210240398920E-2    1.771107332614112E-3    4.873311657907325E-3    1.851255643698871E-3    4.955084673025286E-3    4.032240348707997E-1   -2.047178042062555E-1
 8.117541651400000E9     5.003678581546537E-1   -6.301335165411914E-2    1.777948048421821E-3    4.851571021004670E-3    1.860872898921184E-3    4.953040611824521E-3    4.030783392081982E-1   -2.046776564998242E-1
 8.117543506200000E9     5.003861019762816E-1   -6.318747920388648E-2    1.794546406502250E-3    4.875647869402940E-3    1.891055417589404E-3    4.978621583205147E-3    4.031041693396387E-1   -2.048026968131819E-1
 8.117545361000000E9     5.003416569267803E-1   -6.344514708327777E-2    1.799097817261820E-3    4.908238522026625E-3    1.876373289865595E-3    4.993182582574785E-3    4.030881366888070E-1   -2.049507852450912E-1
