#  HZ   S   RI   R     50.00 
! Rohde & Schwarz Vector Network Analyzer 
! Rohde-Schwarz,ZNB20-2Port,1311601062101988,3.16
! Created: UTC 3/20/2024, 11:36:17 AM
! freq[Hz]                re:S11                  im:S11                  re:S21                  im:S21                  re:S12                  im:S12                  re:S22                  im:S22
 8.117594348000000E9     5.004945767668545E-1   -6.695439419334726E-2    1.728586154723039E-3    5.027432246643305E-3    1.826133763700354E-3    5.093314378652544E-3    4.017095145208950E-1   -2.081148084543589E-1
 8.117595398075000E9     5.004390600157959E-1   -6.723023213099540E-2    1.769430073741273E-3    5.034242174251446E-3    1.822314674821371E-3    5.124239440477281E-3    4.016694890235941E-1   -2.082741178988125E-1
 8.117596448150000E9     5.003910282437661E-1   -6.735916162872696E-2    1.765172380201238E-3    5.022625626656887E-3    1.849463473580761E-3    5.111504664727957E-3    4.015280394186165E-1   -2.083270082479448E-1
 8.117597498225000E9     5.003222051747167E-1   -6.741932193943814E-2    1.743965666031833E-3    5.048476728721616E-3    1.863532910860674E-3    5.150246818619426E-3    4.015338110543454E-1   -2.084054490758880E-1
 8.117598548300000E9     5.003971473937685E-1   -6.753374575290372E-2    1.764110692031021E-3    5.069042417192084E-3    1.889223629704731E-3    5.125927174305879E-3    4.015533421474286E-1   -2.085414345693887E-1
 8.117599598375000E9     5.002797830323065E-1   -6.780122410145352E-2    1.775044304209720E-3    5.067247240544571E-3    1.857753270946456E-3    5.115922719068053E-3    4.015896450659535E-1   -2.085741729949480E-1
 8.117600648450000E9     5.002586503913338E-1   -6.786873958461828E-2    1.782235568089637E-3    5.100564597970181E-3    1.834258284199806E-3    5.139406705699164E-3    4.014460919665110E-1   -2.085573531380813E-1
 8.117601698525000E9     5.002181891208352E-1   -6.796209757603752E-2    1.806709592454320E-3    5.090578916708152E-3    1.882662121180250E-3    5.150912709610312E-3    4.014294608487405E-1   -2.087874759542660E-1
 8.117602748600000E9     5.001715681702734E-1   -6.804344139767977E-2    1.799078123373545E-3    5.108366028822685E-3    1.905632172850342E-3    5.177609378281501E-3    4.014019527006985E-1   -2.088098186633508E-1
 8.117603798675000E9     5.001096554995261E-1   -6.825220955044238E-2    1.823608354104758E-3    5.118532284044545E-3    1.891089316460469E-3    5.190343569197133E-3    4.012911799953878E-1   -2.088145415619675E-1
 8.117604848750000E9     5.002295479932535E-1   -6.826055276643997E-2    1.802471433760079E-3    5.101568552759901E-3    1.887273382680774E-3    5.232475767766123E-3    4.014397933162904E-1   -2.089893204503949E-1
 8.117605898825000E9     5.000550958663572E-1   -6.840595354192520E-2    1.824924571878892E-3    5.141681890144607E-3    1.914402155434486E-3    5.201279757495913E-3    4.012308610543511E-1   -2.088589357643873E-1
 8.117606948900000E9     5.001038747653102E-1   -6.865193182445663E-2    1.830612108863266E-3    5.139821965153197E-3    1.929656716566056E-3    5.196228395154267E-3    4.010733554119145E-1   -2.089327277247769E-1
 8.117607998975000E9     5.000954790817905E-1   -6.865616161604364E-2    1.837584364728283E-3    5.123614930521083E-3    1.905808104176138E-3    5.217698026654938E-3    4.012185025698768E-1   -2.091491825188496E-1
 8.117609049050000E9     5.001480973693163E-1   -6.888642692507108E-2    1.857729287383246E-3    5.144505774104688E-3    1.946564946954234E-3    5.240743490211634E-3    4.011300585717578E-1   -2.091170954131489E-1
 8.117610099125000E9     4.999798951252062E-1   -6.895350942140062E-2    1.853448373102267E-3    5.174179662919659E-3    1.915767402123057E-3    5.256388533693855E-3    4.012252224929189E-1   -2.092293891201558E-1
 8.117611149200000E9     5.000210791399117E-1   -6.915412718477096E-2    1.852785988860441E-3    5.176151678293827E-3    1.916810537460791E-3    5.302754861355654E-3    4.009953894277947E-1   -2.092807749390010E-1
 8.117612199275000E9     4.999519163228914E-1   -6.925478318574910E-2    1.869630561634432E-3    5.180627833333948E-3    1.982093685829188E-3    5.248753783384373E-3    4.011058311781476E-1   -2.093464039794645E-1
 8.117613249350000E9     4.999206302398139E-1   -6.930825325683392E-2    1.848805543062805E-3    5.213692257347364E-3    1.977648315368514E-3    5.296913050511826E-3    4.011487704531068E-1   -2.094099865674499E-1
 8.117614299425000E9     4.998716882543778E-1   -6.950452289573177E-2    1.865517395237050E-3    5.227882047325247E-3    1.956329601189458E-3    5.250166371962559E-3    4.010482515354443E-1   -2.095131170944458E-1
 8.117615349500000E9     4.999574085661626E-1   -6.946312525966065E-2    1.876085309570403E-3    5.224224820505349E-3    1.934525182557991E-3    5.275937188780304E-3    4.010372162424741E-1   -2.094826922909226E-1
 8.117616399575000E9     4.998501845606662E-1   -6.975416893815561E-2    1.881486296453642E-3    5.240121473212415E-3    1.985635401869140E-3    5.330690445574759E-3    4.008094983607097E-1   -2.095594269408081E-1
 8.117617449650000E9     4.997182576629075E-1   -6.994107629953676E-2    1.876386455581873E-3    5.236754894282695E-3    1.984764207541805E-3    5.299224523813866E-3    4.008579671853514E-1   -2.097418697082631E-1
 8.117618499725000E9     4.997572461919438E-1   -7.003746894469981E-2    1.916062787232682E-3    5.257880277467022E-3    1.974696967154316E-3    5.305718925809516E-3    4.008951103422106E-1   -2.097896866924708E-1
 8.117619549800000E9     4.998096580409042E-1   -7.022863054546469E-2    1.919701585601592E-3    5.262458614388329E-3    2.003132410789807E-3    5.335846062564483E-3    4.006665152199232E-1   -2.098257180215079E-1
 8.117620599875000E9     4.996121229800113E-1   -7.029738125673239E-2    1.922516915881510E-3    5.294098279610193E-3    2.015837125543553E-3    5.360115832923013E-3    4.008088085178445E-1   -2.098560206625084E-1
 8.117621649950000E9     4.996896991887860E-1   -7.042149602417523E-2    1.943907728458268E-3    5.282188341419765E-3    1.976665919105232E-3    5.395208907572798E-3    4.007660504050596E-1   -2.100457328132286E-1
 8.117622700025000E9     4.995498999146760E-1   -7.052003804219298E-2    1.933367008741889E-3    5.312110477345975E-3    1.999300393198687E-3    5.409411931069561E-3    4.008831807297177E-1   -2.101110385349634E-1
 8.117623750100000E9     4.995535569012495E-1   -7.065519676780303E-2    1.968486252244871E-3    5.307003968488280E-3    2.039461813366152E-3    5.420567529193312E-3    4.007802426721170E-1   -2.100215108035615E-1
 8.117624800175000E9     4.996015692853173E-1   -7.097498641836955E-2    1.963547551759881E-3    5.329155130901705E-3    2.033594472280902E-3    5.396930901021839E-3    4.006409554899006E-1   -2.101648871768269E-1
 8.117625850250000E9     4.995131981941962E-1   -7.098978159078789E-2    1.951777853248075E-3    5.336655542400655E-3    2.035643629303372E-3    5.444000880207585E-3    4.006849591209565E-1   -2.102244765966463E-1
 8.117626900325000E9     4.994313244941877E-1   -7.111527846857398E-2    1.954340838341057E-3    5.345799415588080E-3    2.045637049297203E-3    5.420402748637784E-3    4.005427167407902E-1   -2.102928866153005E-1
 8.117627950400000E9     4.995188650973038E-1   -7.125915079905271E-2    1.969168123451641E-3    5.349655566373805E-3    2.033889196192772E-3    5.434940486693974E-3    4.005198041233948E-1   -2.102748483260620E-1
 8.117629000475000E9     4.993251631359072E-1   -7.139324610782580E-2    1.969929137140832E-3    5.358963053686515E-3    2.047695101639419E-3    5.431841050705831E-3    4.006905916839186E-1   -2.105039954622484E-1
 8.117630050550000E9     4.993662843614943E-1   -7.156134129637073E-2    1.996915620497110E-3    5.408935957702149E-3    2.076478673564985E-3    5.464517273158370E-3    4.005624259244784E-1   -2.104904888107088E-1
 8.117631100625000E9     4.994798851075433E-1   -7.172841981449050E-2    2.014502106333493E-3    5.422592686983172E-3    2.092326901368056E-3    5.489600820286475E-3    4.004780385107910E-1   -2.106325313720677E-1
 8.117632150700000E9     4.993813786114644E-1   -7.186355321133686E-2    2.009393907250637E-3    5.403587448192671E-3    2.098410029595229E-3    5.486931620052175E-3    4.004370404041849E-1   -2.106371349991090E-1
 8.117633200775000E9     4.993127263123030E-1   -7.203842852028451E-2    1.997160556251669E-3    5.412545609507830E-3    2.113879241377449E-3    5.495689258707121E-3    4.003669936023507E-1   -2.107268007813482E-1
 8.117634250850000E9     4.992373081751197E-1   -7.208970310637909E-2    2.029717353353762E-3    5.421173695194962E-3    2.135189600818738E-3    5.517375728948891E-3    4.004495291119563E-1   -2.108193940492547E-1
 8.117635300925000E9     4.991865979293013E-1   -7.225551812151461E-2    2.035686256077773E-3    5.457450927593979E-3    2.115722749958537E-3    5.508857140207983E-3    4.003777475687090E-1   -2.108705570985784E-1
 8.117636351000000E9     4.991542611313751E-1   -7.242549949744922E-2    2.047150932408207E-3    5.447973693889008E-3    2.129667936390439E-3    5.526313585272481E-3    4.003799960747166E-1   -2.108786684837312E-1
 8.117637401075000E9     4.990571752833061E-1   -7.256674092008963E-2    2.043715743519752E-3    5.462043978986798E-3    2.139221700931354E-3    5.569047185068156E-3    4.002507593702209E-1   -2.109763236889261E-1
 8.117638451150000E9     4.991979317521910E-1   -7.277681316277752E-2    2.069217325880734E-3    5.502124499020391E-3    2.129543813199902E-3    5.619026340205894E-3    4.003023654127892E-1   -2.111313343546533E-1
 8.117639501225000E9     4.990341522157255E-1   -7.286754490454360E-2    2.068334069725666E-3    5.498567718835098E-3    2.136131879378517E-3    5.626133968771979E-3    4.001843980231197E-1   -2.111284341464590E-1
 8.117640551300000E9     4.990894200862400E-1   -7.308988988359184E-2    2.082378871163860E-3    5.524847657097008E-3    2.145849744766948E-3    5.616804690833073E-3    4.001052163075286E-1   -2.111527250809640E-1
 8.117641601375000E9     4.988510729153284E-1   -7.322186609181355E-2    2.096383924621013E-3    5.543853828888039E-3    2.188565216394323E-3    5.611926786659478E-3    4.001563383305413E-1   -2.113613597449748E-1
 8.117642651450000E9     4.989697012365064E-1   -7.334636379612755E-2    2.097625289261459E-3    5.562802061378156E-3    2.185821967338132E-3    5.625640178525243E-3    4.001720515908674E-1   -2.113250110898278E-1
 8.117643701525000E9     4.987900716639504E-1   -7.349518672029559E-2    2.081755994574375E-3    5.566653260163040E-3    2.191547667344146E-3    5.623927712437415E-3    4.002285978622567E-1   -2.114359421710945E-1
 8.117644751600000E9     4.988813441806288E-1   -7.359909182204204E-2    2.103605909930912E-3    5.590144956061114E-3    2.207485774069436E-3    5.672093690595495E-3    4.000281147233015E-1   -2.114815628525787E-1
 8.117645801675000E9     4.988793029041944E-1   -7.372502248588363E-2    2.141635714161249E-3    5.593381700856461E-3    2.217032326493650E-3    5.690479687318146E-3    4.000416419387419E-1   -2.116686572362687E-1
 8.117646851750000E9     4.986992149647080E-1   -7.391010763551437E-2    2.155332022123466E-3    5.609079801145745E-3    2.220032445337994E-3    5.716393146313654E-3    4.000489851523952E-1   -2.117438086705269E-1
 8.117647901825000E9     4.987149999360772E-1   -7.413942232074541E-2    2.138112066090124E-3    5.633521373647107E-3    2.230651028808268E-3    5.699949536327382E-3    3.998794410462920E-1   -2.116045073265493E-1
 8.117648951900000E9     4.986524117339805E-1   -7.420889321117208E-2    2.145356398000689E-3    5.636100989979630E-3    2.245409018020183E-3    5.713907970919442E-3    3.999122409309470E-1   -2.118779993826201E-1
 8.117650001975000E9     4.986703133002448E-1   -7.443719192350881E-2    2.167812672309822E-3    5.652631467863111E-3    2.212882128514641E-3    5.744244624215524E-3    3.999142563291143E-1   -2.118566107232842E-1
 8.117651052050000E9     4.985542522522135E-1   -7.452019499584972E-2    2.186856479587310E-3    5.660334126502038E-3    2.253007570347444E-3    5.736987953049987E-3    3.999371248476289E-1   -2.118504973051338E-1
 8.117652102125000E9     4.983857075378264E-1   -7.460404665924851E-2    2.184631045663179E-3    5.662063248027920E-3    2.286989133767990E-3    5.782069967591107E-3    3.996995811599770E-1   -2.119127350156095E-1
 8.117653152200000E9     4.984179518226869E-1   -7.485443148286389E-2    2.215753446302230E-3    5.721353718688860E-3    2.341779439638350E-3    5.780187503868968E-3    3.999264322985140E-1   -2.120420864091748E-1
 8.117654202275000E9     4.984221939330752E-1   -7.501159730580358E-2    2.212436131999778E-3    5.709663883013229E-3    2.308163414352986E-3    5.798347664700546E-3    3.997335545209720E-1   -2.120610639615471E-1
 8.117655252350000E9     4.984057764339965E-1   -7.514440766236964E-2    2.217339152917267E-3    5.722297432122430E-3    2.332518865305631E-3    5.812879709260792E-3    3.996346304701150E-1   -2.122147549091809E-1
 8.117656302425000E9     4.983684459659957E-1   -7.535850471213933E-2    2.234297416557171E-3    5.770496262843417E-3    2.331081379450489E-3    5.851585724289707E-3    3.996893494426517E-1   -2.122811665431722E-1
 8.117657352500000E9     4.984043198880895E-1   -7.555349384525618E-2    2.249918532173092E-3    5.751478814653979E-3    2.329993325594557E-3    5.812939860767092E-3    3.995659791681374E-1   -2.123144789036353E-1
 8.117658402575000E9     4.981748506673688E-1   -7.566647489696110E-2    2.285865175036786E-3    5.778771160562178E-3    2.370420566774655E-3    5.846148636075439E-3    3.995988834753504E-1   -2.124446171080297E-1
 8.117659452650000E9     4.981192094662542E-1   -7.599609315950141E-2    2.262047417049722E-3    5.777035174389366E-3    2.414677052797099E-3    5.869814476577120E-3    3.995914131492174E-1   -2.124821627738687E-1
 8.117660502725000E9     4.981592154681853E-1   -7.597683376172899E-2    2.291329146351622E-3    5.788487400383955E-3    2.412119368205535E-3    5.881294691001983E-3    3.994527402204011E-1   -2.125663257517346E-1
 8.117661552800000E9     4.981172129724907E-1   -7.619463952513014E-2    2.285845764847217E-3    5.803522329259339E-3    2.430936859434456E-3    5.945156270182037E-3    3.995225331993610E-1   -2.125748180226729E-1
 8.117662602875000E9     4.979804005326752E-1   -7.637817920014890E-2    2.273693690576404E-3    5.845006878591101E-3    2.421861807004844E-3    5.951375003943402E-3    3.993763901654721E-1   -2.126689614269063E-1
 8.117663652950000E9     4.980254334907812E-1   -7.642966079404093E-2    2.302267028018244E-3    5.864842163484937E-3    2.413926952746684E-3    5.998563308206852E-3    3.993626788113301E-1   -2.126505804714549E-1
 8.117664703025000E9     4.978472587857893E-1   -7.661267564911257E-2    2.345397205744074E-3    5.876013128818160E-3    2.459049994975839E-3    5.966887348274949E-3    3.994227280750434E-1   -2.127645325342867E-1
 8.117665753100000E9     4.978113621497229E-1   -7.692164549810607E-2    2.337952426138188E-3    5.906484189133880E-3    2.434757664946886E-3    5.986863422137828E-3    3.992605022070008E-1   -2.128218891147622E-1
 8.117666803175000E9     4.977926308187569E-1   -7.698814996880698E-2    2.385760088537930E-3    5.923779583785182E-3    2.427863207489458E-3    6.031790716429413E-3    3.992554963559872E-1   -2.128161742021297E-1
 8.117667853250000E9     4.976229045406291E-1   -7.707621513448779E-2    2.370420885246043E-3    5.922590391047738E-3    2.466937772366178E-3    5.994968437173664E-3    3.992519466338130E-1   -2.130885026039991E-1
 8.117668903325000E9     4.976785410571511E-1   -7.737212160845218E-2    2.402395594611024E-3    5.956469744343305E-3    2.482596393202462E-3    6.078520809502017E-3    3.992238286613056E-1   -2.132149365356315E-1
 8.117669953400000E9     4.976005285769496E-1   -7.744457239457840E-2    2.414601425374417E-3    5.972341359457648E-3    2.494122379352117E-3    6.099604957359410E-3    3.992929691142841E-1   -2.133166729665628E-1
 8.117671003475000E9     4.977111926088435E-1   -7.763645253241591E-2    2.408678357263585E-3    5.978657698935045E-3    2.502876689219700E-3    6.112397610439306E-3    3.992850876053318E-1   -2.132031209730391E-1
 8.117672053550000E9     4.975918375034162E-1   -7.791035876640755E-2    2.436874404170363E-3    6.029778379195171E-3    2.533909674435367E-3    6.104458441086758E-3    3.991537276856056E-1   -2.132859069869830E-1
 8.117673103625000E9     4.974117510106361E-1   -7.816927926587672E-2    2.457046751185211E-3    6.039231462705096E-3    2.532543584953331E-3    6.131356055452459E-3    3.991741579420623E-1   -2.132877688010030E-1
 8.117674153700000E9     4.972867301880802E-1   -7.816407135548846E-2    2.459457606545586E-3    6.097049821748230E-3    2.591092164081708E-3    6.162165266857507E-3    3.990918755791640E-1   -2.134935298629795E-1
 8.117675203775000E9     4.972338610632043E-1   -7.835059594796696E-2    2.499100983907217E-3    6.085690481174012E-3    2.627597823009472E-3    6.170826727720723E-3    3.991130456393739E-1   -2.133990942599628E-1
 8.117676253850000E9     4.972416471089788E-1   -7.859091516895043E-2    2.504268612105814E-3    6.111325826203499E-3    2.586478906719044E-3    6.227106013663115E-3    3.989801879790742E-1   -2.135952579047459E-1
 8.117677303925000E9     4.972067208932202E-1   -7.885621630830554E-2    2.514490847679721E-3    6.125797127346499E-3    2.583987515692941E-3    6.211307211144517E-3    3.988744007092309E-1   -2.136384046835829E-1
 8.117678354000000E9     4.970106163214530E-1   -7.895249880930812E-2    2.538805574481750E-3    6.130174610452808E-3    2.643016493529356E-3    6.249403253793523E-3    3.989971970380490E-1   -2.137748158872173E-1
 8.117679404075000E9     4.971164688525584E-1   -7.909857502733406E-2    2.539913476255400E-3    6.182991957314736E-3    2.654495683598232E-3    6.272603394742547E-3    3.990110224957402E-1   -2.138019959207293E-1
 8.117680454150000E9     4.968642213276392E-1   -7.944884544961166E-2    2.538877666308558E-3    6.178475207659950E-3    2.689796579844442E-3    6.303143960105875E-3    3.989418395110223E-1   -2.138971998530940E-1
 8.117681504225000E9     4.969457175426273E-1   -7.954366197970143E-2    2.577101880576132E-3    6.232567055845854E-3    2.678319645795949E-3    6.323197822903844E-3    3.989674420396724E-1   -2.140681305955666E-1
 8.117682554300000E9     4.968522566571253E-1   -7.976938866955548E-2    2.590653934782262E-3    6.238009964957487E-3    2.743712901038145E-3    6.332067168830117E-3    3.987821752299431E-1   -2.140378386747751E-1
 8.117683604375000E9     4.967256189724295E-1   -7.995444293927002E-2    2.601042323519900E-3    6.283928396312928E-3    2.711335519829837E-3    6.400024152545351E-3    3.987561975855156E-1   -2.142695304745645E-1
 8.117684654450000E9     4.966625910301047E-1   -8.029429675114323E-2    2.629365960449723E-3    6.291583930826601E-3    2.735730787021751E-3    6.360566701631752E-3    3.987431538455647E-1   -2.142435000889985E-1
 8.117685704525000E9     4.964927229806776E-1   -8.031859727010709E-2    2.653676202674071E-3    6.295799382924323E-3    2.769841277233011E-3    6.433118318141551E-3    3.987098331956891E-1   -2.143569243611634E-1
 8.117686754600000E9     4.964834777458723E-1   -8.049169169288881E-2    2.693403257350263E-3    6.299449516809544E-3    2.764329905030765E-3    6.436433312109691E-3    3.987083018642837E-1   -2.142941390310442E-1
 8.117687804675000E9     4.964007322104290E-1   -8.085263652729040E-2    2.708224976486980E-3    6.363494973779030E-3    2.837204727084034E-3    6.460249038415381E-3    3.986618042272270E-1   -2.143298864912987E-1
 8.117688854750000E9     4.962546266978470E-1   -8.100510888800487E-2    2.710056215632772E-3    6.374112516506338E-3    2.844126811117733E-3    6.506505438913590E-3    3.985569941993202E-1   -2.143871271923026E-1
