#  HZ   S   RI   R     50.00 
! Rohde & Schwarz Vector Network Analyzer 
! Rohde-Schwarz,ZNB20-2Port,1311601062101988,3.16
! Created: UTC 3/20/2024, 10:56:38 PM
! freq[Hz]                re:S11                  im:S11                  re:S21                  im:S21                  re:S12                  im:S12                  re:S22                  im:S22
 8.062018864000000E9     3.778892116665763E-1    4.342142172256239E-1   -2.426845662950146E-3    2.958375095809273E-3   -2.326083441285664E-3    3.168384194150391E-3    3.872396727793132E-1    2.888225038654418E-1
 8.062019689175000E9     3.780257599759389E-1    4.340346906478046E-1   -2.458130026888592E-3    2.969978424421212E-3   -2.299222662236452E-3    3.122414240074501E-3    3.873733680930532E-1    2.888312235094006E-1
 8.062020514350000E9     3.780704393737458E-1    4.339211644829662E-1   -2.459564611654516E-3    2.989781557347063E-3   -2.299125933202464E-3    3.166657818523841E-3    3.871982895778528E-1    2.886146869301118E-1
 8.062021339525000E9     3.781678326550183E-1    4.339091246838161E-1   -2.465039208365514E-3    3.000463818009391E-3   -2.292748756466480E-3    3.208214003488072E-3    3.873222321318563E-1    2.888497390395537E-1
 8.062022164700000E9     3.782111545803679E-1    4.337919545741481E-1   -2.471123050317073E-3    3.001504674997950E-3   -2.304237415508646E-3    3.166322421779869E-3    3.874250086255857E-1    2.887689876612242E-1
 8.062022989875000E9     3.783577481984750E-1    4.336899824886807E-1   -2.474154123281395E-3    3.010435751355335E-3   -2.323771941872511E-3    3.202912209335235E-3    3.874350563600514E-1    2.887488787913825E-1
 8.062023815050000E9     3.783993391658593E-1    4.336870564807255E-1   -2.468564164005880E-3    3.031989389063261E-3   -2.338943494053640E-3    3.182673320009038E-3    3.874059069999231E-1    2.885675546846560E-1
 8.062024640225000E9     3.784611514171963E-1    4.336597190282167E-1   -2.483081967420833E-3    3.012642796556269E-3   -2.293517035763375E-3    3.217224701567463E-3    3.875061403542545E-1    2.886072402241434E-1
 8.062025465400000E9     3.785942131893165E-1    4.334979258876582E-1   -2.459445605135663E-3    3.024214767260562E-3   -2.314686607265410E-3    3.241420904346745E-3    3.874271914193865E-1    2.883734561092510E-1
 8.062026290575000E9     3.786029081188662E-1    4.334427983266418E-1   -2.508406187743721E-3    3.055871779877294E-3   -2.346298320359795E-3    3.241491144229803E-3    3.876280266154121E-1    2.884205568314955E-1
 8.062027115750000E9     3.785874272227221E-1    4.332690545588209E-1   -2.499495477265831E-3    3.049030817560187E-3   -2.338827062551338E-3    3.202128810657859E-3    3.876361797230394E-1    2.884290097387424E-1
 8.062027940925000E9     3.787444571177969E-1    4.332991370857351E-1   -2.475320979095765E-3    3.076302458736246E-3   -2.346403077576748E-3    3.239059206134748E-3    3.874998843909980E-1    2.885349626807246E-1
 8.062028766100000E9     3.789807881935278E-1    4.332559992779238E-1   -2.521248748297443E-3    3.063617675470985E-3   -2.351330544476104E-3    3.244107640520450E-3    3.875639335799189E-1    2.884502972283625E-1
 8.062029591275000E9     3.789795045177646E-1    4.331591961327452E-1   -2.500721878976897E-3    3.114990014909252E-3   -2.345464284797073E-3    3.255756981675820E-3    3.877029272809001E-1    2.883800401283909E-1
 8.062030416450000E9     3.790640689169558E-1    4.330858637328932E-1   -2.520920706914204E-3    3.071572657985828E-3   -2.379025672767565E-3    3.286124701634910E-3    3.877446782596847E-1    2.882447841209808E-1
 8.062031241625000E9     3.791229791852833E-1    4.330411698718424E-1   -2.490849281392509E-3    3.101764326209353E-3   -2.395423450867488E-3    3.292378849959926E-3    3.878149983187826E-1    2.883099236692015E-1
 8.062032066800000E9     3.790699177679794E-1    4.328647882139806E-1   -2.504917429354793E-3    3.078496030980116E-3   -2.361627773779373E-3    3.308373186658413E-3    3.878113155545663E-1    2.880818808396594E-1
 8.062032891975000E9     3.792237382551986E-1    4.328417155522149E-1   -2.536346889190339E-3    3.106262091075956E-3   -2.375325719159230E-3    3.312429191566273E-3    3.876752268849691E-1    2.880164779793455E-1
 8.062033717150000E9     3.793819336821985E-1    4.327491145034045E-1   -2.553583221599971E-3    3.108831083436013E-3   -2.359936785199291E-3    3.301430757456606E-3    3.877210601952141E-1    2.879889167652391E-1
 8.062034542325000E9     3.793387636325473E-1    4.327755027306656E-1   -2.526486017770546E-3    3.118844360757339E-3   -2.326759520530672E-3    3.281354543936534E-3    3.877943429309942E-1    2.879604344262014E-1
 8.062035367500000E9     3.795118767962054E-1    4.325385388832284E-1   -2.526536273031225E-3    3.131281272181679E-3   -2.383965293271447E-3    3.330018176317232E-3    3.878531495303773E-1    2.880553456579761E-1
 8.062036192675000E9     3.795605681366062E-1    4.325711385032602E-1   -2.532146589006148E-3    3.148092900848778E-3   -2.402242723054257E-3    3.363281805092141E-3    3.877884654374673E-1    2.878358168835465E-1
 8.062037017850000E9     3.795949625749720E-1    4.324485258562442E-1   -2.549245746289438E-3    3.138763682408641E-3   -2.358397221511782E-3    3.363354919008784E-3    3.879877568050188E-1    2.880007726963562E-1
 8.062037843025000E9     3.796064213869038E-1    4.324529933808666E-1   -2.557868135932432E-3    3.167950858813079E-3   -2.450887117494640E-3    3.347288313894551E-3    3.879672620875091E-1    2.878010678374528E-1
 8.062038668200000E9     3.798286069351581E-1    4.321632825875475E-1   -2.570619117189412E-3    3.200076444026077E-3   -2.366433613290512E-3    3.374234529789659E-3    3.879805382863615E-1    2.878084208415546E-1
 8.062039493375000E9     3.799107401650074E-1    4.322558025130427E-1   -2.562071843029856E-3    3.209507653400847E-3   -2.407057635236905E-3    3.367406620283127E-3    3.880620256646447E-1    2.879425363544689E-1
 8.062040318550000E9     3.799527638389812E-1    4.321617930144929E-1   -2.572032352655620E-3    3.206289281415341E-3   -2.419435950369756E-3    3.417181670080120E-3    3.880089346363245E-1    2.878311386074136E-1
 8.062041143725000E9     3.799395749521876E-1    4.319579420692538E-1   -2.561655786342119E-3    3.224092957557352E-3   -2.418398077295012E-3    3.393204400990975E-3    3.879701786316649E-1    2.875874814231365E-1
 8.062041968900000E9     3.800797313742067E-1    4.320206295114982E-1   -2.595260175265900E-3    3.210424300778656E-3   -2.451063342028398E-3    3.418268305446575E-3    3.880473569693092E-1    2.876816866957550E-1
 8.062042794075000E9     3.802294764766614E-1    4.318061783021848E-1   -2.609219243686015E-3    3.245388414087372E-3   -2.429832230392146E-3    3.417915448547538E-3    3.882534695830935E-1    2.876778468399083E-1
 8.062043619250000E9     3.802925345487454E-1    4.317457428692231E-1   -2.589614225152605E-3    3.246181405007891E-3   -2.430873502206750E-3    3.449409034207913E-3    3.881804509102670E-1    2.875324106064280E-1
 8.062044444425000E9     3.802600968663508E-1    4.316771610507212E-1   -2.607848575532430E-3    3.252101514595209E-3   -2.451509688379671E-3    3.446236421785556E-3    3.881982827152857E-1    2.875759355936817E-1
 8.062045269600000E9     3.803474673425941E-1    4.316828153632777E-1   -2.594992636882662E-3    3.286810983193555E-3   -2.453191848705030E-3    3.468936817724014E-3    3.882709321010753E-1    2.874927438264692E-1
 8.062046094775000E9     3.805444351067602E-1    4.315259550487510E-1   -2.612151885716855E-3    3.263666663922485E-3   -2.447822245640881E-3    3.482407412870369E-3    3.882195047229495E-1    2.874739831940717E-1
 8.062046919950000E9     3.805800073205710E-1    4.314078904726243E-1   -2.598446738205379E-3    3.308172430393462E-3   -2.436912960600552E-3    3.485295845119487E-3    3.884232045404114E-1    2.874208286901990E-1
 8.062047745125000E9     3.807644293179119E-1    4.314101680916478E-1   -2.639539052881537E-3    3.294334298452366E-3   -2.422324411884817E-3    3.502267887784733E-3    3.883121732909228E-1    2.873429762300690E-1
 8.062048570300000E9     3.806918974939255E-1    4.311946757212725E-1   -2.656079615864478E-3    3.350690408757081E-3   -2.445610962257201E-3    3.509968127043120E-3    3.882385855236105E-1    2.873019815295460E-1
 8.062049395475000E9     3.808777370226773E-1    4.311449327495998E-1   -2.626751939554387E-3    3.329474959202462E-3   -2.472009092699716E-3    3.497421303882941E-3    3.883957977128893E-1    2.872065924091270E-1
 8.062050220650000E9     3.809041724800556E-1    4.311754488664186E-1   -2.639568161188262E-3    3.344569657105698E-3   -2.467721168090874E-3    3.535334791796439E-3    3.884238934195423E-1    2.872571871817259E-1
 8.062051045825000E9     3.810048779691732E-1    4.310337290556032E-1   -2.682333686856662E-3    3.333738441171083E-3   -2.472480579782859E-3    3.568958453918664E-3    3.884857171848792E-1    2.871221027860209E-1
 8.062051871000000E9     3.810096842433822E-1    4.308740264765161E-1   -2.646431298536171E-3    3.355161613406043E-3   -2.506646187546871E-3    3.571608518826700E-3    3.884223581636633E-1    2.870027766893324E-1
 8.062052696175000E9     3.812121413499893E-1    4.308438356707510E-1   -2.638948377890594E-3    3.365571555066495E-3   -2.489232932932192E-3    3.558854106648490E-3    3.884032973701256E-1    2.871487440899291E-1
 8.062053521350000E9     3.812125460936931E-1    4.306162746758257E-1   -2.676284556855398E-3    3.371513176312764E-3   -2.473009827661332E-3    3.550106971036602E-3    3.885574845043166E-1    2.871001139518477E-1
 8.062054346525000E9     3.813196690205288E-1    4.305138571619530E-1   -2.659623609202023E-3    3.404240793770611E-3   -2.467978476936847E-3    3.598436328900090E-3    3.886088391303266E-1    2.868587003688902E-1
 8.062055171700000E9     3.814064126486364E-1    4.304389605957926E-1   -2.670402975320268E-3    3.404489676269518E-3   -2.471271096824796E-3    3.594660487831862E-3    3.884396154191048E-1    2.869576964421722E-1
 8.062055996875000E9     3.815831517533905E-1    4.304362725016329E-1   -2.657702814364467E-3    3.406876114902935E-3   -2.468830116145125E-3    3.611899532910082E-3    3.886723220768546E-1    2.870681976206734E-1
 8.062056822050000E9     3.816343291711558E-1    4.302897633280595E-1   -2.687023915836844E-3    3.441427751868383E-3   -2.540608171747032E-3    3.653017585953758E-3    3.885972330336997E-1    2.869433993160838E-1
 8.062057647225000E9     3.817610358000807E-1    4.302740526121462E-1   -2.717877906042245E-3    3.469960187336912E-3   -2.525138691839262E-3    3.681803930927839E-3    3.886038685245318E-1    2.869284595071609E-1
 8.062058472400000E9     3.816838841865826E-1    4.302027830384902E-1   -2.699925759888575E-3    3.459249066862756E-3   -2.506385452360204E-3    3.666275535412192E-3    3.886253652492055E-1    2.867718999475479E-1
 8.062059297575000E9     3.817988006708471E-1    4.300970573546045E-1   -2.721353751807008E-3    3.461104744788229E-3   -2.527400689806361E-3    3.691834058406421E-3    3.887277799069626E-1    2.867101040219466E-1
 8.062060122750000E9     3.819552593519493E-1    4.299550455107465E-1   -2.725572040130665E-3    3.481697376974467E-3   -2.519157775491290E-3    3.694847091562918E-3    3.887108205340607E-1    2.866894296429678E-1
 8.062060947925000E9     3.821059350173356E-1    4.298163385804896E-1   -2.736041492848178E-3    3.500595872213820E-3   -2.548585266300270E-3    3.703302271631295E-3    3.887288975376306E-1    2.867457241140071E-1
 8.062061773100000E9     3.821347929097254E-1    4.298022467510325E-1   -2.722552899051996E-3    3.519520228566823E-3   -2.537628768069495E-3    3.737421297601765E-3    3.887577800681773E-1    2.866962619735591E-1
 8.062062598275000E9     3.822539229946549E-1    4.296248422719673E-1   -2.729072270834917E-3    3.529870607308558E-3   -2.563260343182564E-3    3.721156535516966E-3    3.888148131762813E-1    2.866621563244985E-1
 8.062063423450000E9     3.822385778838091E-1    4.295382728171297E-1   -2.739192970829616E-3    3.554860080813485E-3   -2.568062661307117E-3    3.710326625549321E-3    3.888018358724402E-1    2.864716205704897E-1
 8.062064248625000E9     3.823301261726383E-1    4.295439321555882E-1   -2.756085470283143E-3    3.599459340122557E-3   -2.576612435967551E-3    3.757571159388396E-3    3.889734125299551E-1    2.864794103512625E-1
 8.062065073800000E9     3.825190050803828E-1    4.293990039180999E-1   -2.771517635606867E-3    3.551497229287920E-3   -2.580817562364631E-3    3.757401244881920E-3    3.888638318372655E-1    2.863816745764071E-1
 8.062065898975000E9     3.825547176855795E-1    4.291330916463099E-1   -2.748935021588382E-3    3.608046348604427E-3   -2.609846189664726E-3    3.803542305272921E-3    3.889020695562033E-1    2.864109864876518E-1
 8.062066724150000E9     3.826486784433688E-1    4.292111789315678E-1   -2.782024958868529E-3    3.614770454228265E-3   -2.574656133977418E-3    3.827564931823625E-3    3.889486576367959E-1    2.864145797373875E-1
 8.062067549325000E9     3.827150309378704E-1    4.290277428255022E-1   -2.790537727413074E-3    3.646265785415196E-3   -2.629227147398075E-3    3.853431054445808E-3    3.890029466945447E-1    2.863828719454172E-1
 8.062068374500000E9     3.829102413755147E-1    4.289974937721100E-1   -2.775627088050878E-3    3.642400997042054E-3   -2.568912414963391E-3    3.855852954513826E-3    3.891485764654481E-1    2.862181608351147E-1
 8.062069199675000E9     3.829751040050050E-1    4.288157112286321E-1   -2.802223966435511E-3    3.667710519202292E-3   -2.586820337447516E-3    3.876446623138328E-3    3.889990984213670E-1    2.862403940101265E-1
 8.062070024850000E9     3.830092292199249E-1    4.289190692005614E-1   -2.802774990279725E-3    3.701820774136784E-3   -2.616201590698752E-3    3.888402123185637E-3    3.889086545821723E-1    2.863546828683128E-1
 8.062070850025000E9     3.831714433670243E-1    4.286524671892616E-1   -2.837359164288275E-3    3.699563566493072E-3   -2.617622501044175E-3    3.897483580308893E-3    3.890003078326580E-1    2.862524945045291E-1
 8.062071675200000E9     3.832628220261038E-1    4.285594574287721E-1   -2.811838930738921E-3    3.711069017160738E-3   -2.620138542744829E-3    3.918606945176987E-3    3.891078179133181E-1    2.861389313523847E-1
 8.062072500375000E9     3.833182187383868E-1    4.284050100794103E-1   -2.817653388715023E-3    3.731888044052673E-3   -2.601686985170658E-3    3.957781273989336E-3    3.892098585242705E-1    2.861700775972796E-1
 8.062073325550000E9     3.833260492979206E-1    4.283352952043476E-1   -2.834647982752520E-3    3.752514835179366E-3   -2.660853652395362E-3    3.966066107175934E-3    3.892101515817011E-1    2.861344484556868E-1
 8.062074150725000E9     3.834585920196755E-1    4.282012539014401E-1   -2.842432162568287E-3    3.769736291695442E-3   -2.684280485696803E-3    3.985417819776656E-3    3.892856859631314E-1    2.859360694409290E-1
 8.062074975900000E9     3.836025671393731E-1    4.280513719461112E-1   -2.851080986248462E-3    3.790778707106422E-3   -2.668829380763429E-3    3.970834124768875E-3    3.892356535039331E-1    2.859689191844804E-1
 8.062075801075000E9     3.836879427823505E-1    4.279207885600707E-1   -2.850908290369986E-3    3.786122510663438E-3   -2.670510078996928E-3    4.014848127184298E-3    3.893196446689884E-1    2.858322726693189E-1
 8.062076626250000E9     3.836773530027262E-1    4.277462264850433E-1   -2.877047738552621E-3    3.810046393784627E-3   -2.670928247124664E-3    4.090222022076077E-3    3.893574197077362E-1    2.858159912625225E-1
 8.062077451425000E9     3.838214338836180E-1    4.277061177038557E-1   -2.874889723581756E-3    3.805084369549418E-3   -2.682401606731537E-3    4.054584652334622E-3    3.893327054756955E-1    2.858347629540589E-1
 8.062078276600000E9     3.839539378046109E-1    4.274863227527576E-1   -2.878497537063563E-3    3.840139351754092E-3   -2.674389737877369E-3    4.071282153201456E-3    3.892790722975823E-1    2.858505195737667E-1
 8.062079101775000E9     3.841062073265582E-1    4.274272870784391E-1   -2.889439994496385E-3    3.871922695344204E-3   -2.706217311426443E-3    4.098587520781782E-3    3.894154212701812E-1    2.858080792206292E-1
 8.062079926950000E9     3.840717844144068E-1    4.273794941564408E-1   -2.894551739200947E-3    3.886029610879899E-3   -2.707146014385710E-3    4.119150979603383E-3    3.892849264728105E-1    2.856454428923054E-1
 8.062080752125000E9     3.843299132266895E-1    4.273001678762370E-1   -2.920897366988382E-3    3.907540409263935E-3   -2.702988468529941E-3    4.138089728033883E-3    3.894096586491729E-1    2.856565337800691E-1
 8.062081577300000E9     3.844003999711048E-1    4.272257603363162E-1   -2.921129953288379E-3    3.951565433689377E-3   -2.706972404410455E-3    4.149311532698007E-3    3.892995533824473E-1    2.856423102477745E-1
 8.062082402475000E9     3.844262428053578E-1    4.271275069197483E-1   -2.938263712294433E-3    3.965888692039361E-3   -2.743085418311753E-3    4.198783829243414E-3    3.894931975236869E-1    2.856814875608440E-1
 8.062083227650000E9     3.846978370098035E-1    4.268959146582642E-1   -2.940205343525944E-3    3.951215630763736E-3   -2.710673814811860E-3    4.218656864228718E-3    3.895130350112870E-1    2.854736275438833E-1
 8.062084052825000E9     3.845886755900351E-1    4.267330423789409E-1   -2.934903018323030E-3    3.994352200515431E-3   -2.761297106944286E-3    4.209057942073692E-3    3.896066659943281E-1    2.855909844458409E-1
 8.062084878000000E9     3.847804414099271E-1    4.265920944659044E-1   -2.967106652672169E-3    4.009590144792782E-3   -2.744312186942440E-3    4.255215850996887E-3    3.895942510132197E-1    2.854505001652871E-1
 8.062085703175000E9     3.849110444648969E-1    4.264176138392611E-1   -2.982686555850190E-3    4.034233372323275E-3   -2.760286311795945E-3    4.265381038158233E-3    3.895199832354189E-1    2.854833753100565E-1
 8.062086528350000E9     3.849208879543596E-1    4.263405587124859E-1   -2.982594516246695E-3    4.107688550039763E-3   -2.750186093587998E-3    4.250012756457304E-3    3.896351535338193E-1    2.852464962901375E-1
 8.062087353525000E9     3.850118215869286E-1    4.261056190011406E-1   -2.978555605626731E-3    4.077301534941898E-3   -2.757833957621309E-3    4.289517617385313E-3    3.895958669593375E-1    2.851998341226290E-1
 8.062088178700000E9     3.851201281127732E-1    4.259753399568865E-1   -2.983361120078998E-3    4.108726851882456E-3   -2.792821478309309E-3    4.347753980395028E-3    3.896447618020304E-1    2.852906845043344E-1
 8.062089003875000E9     3.852072944313463E-1    4.257794178074483E-1   -3.026659786706354E-3    4.155299876452137E-3   -2.780502499821694E-3    4.356693145690453E-3    3.896422734772666E-1    2.851323425431546E-1
 8.062089829050000E9     3.853555289206809E-1    4.257783602040544E-1   -3.011572188731695E-3    4.164255292022490E-3   -2.812042978334190E-3    4.377459909106152E-3    3.898135759717974E-1    2.851816846008557E-1
 8.062090654225000E9     3.854995273137609E-1    4.256133071892741E-1   -3.016472726434757E-3    4.201606107395440E-3   -2.807544941638730E-3    4.412694410211645E-3    3.896881290901517E-1    2.850909679259840E-1
 8.062091479400000E9     3.855435294118663E-1    4.254266331773849E-1   -3.010676334298934E-3    4.221129448821317E-3   -2.838265807626259E-3    4.423119290995354E-3    3.897558291361801E-1    2.850920248227071E-1
 8.062092304575000E9     3.856938122472304E-1    4.254000455692410E-1   -3.048229757407984E-3    4.246398893457177E-3   -2.830361270091294E-3    4.451005777455729E-3    3.899695730618479E-1    2.851184949801874E-1
 8.062093129750000E9     3.858141923301080E-1    4.251811997069793E-1   -3.059780254231111E-3    4.264022313271296E-3   -2.836438322366861E-3    4.493457595886281E-3    3.899802462365760E-1    2.849552246260049E-1
