#  HZ   S   RI   R     50.00 
! Rohde & Schwarz Vector Network Analyzer 
! Rohde-Schwarz,ZNB20-2Port,1311601062101988,3.16
! Created: UTC 3/20/2024, 10:57:22 PM
! freq[Hz]                re:S11                  im:S11                  re:S21                  im:S21                  re:S12                  im:S12                  re:S22                  im:S22
 8.061993176000000E9     3.760751730959296E-1    4.357055649279953E-1   -2.378208465307531E-3    2.854751349625535E-3   -2.246538186519485E-3    3.011311271276990E-3    3.864920373329264E-1    2.897867464844704E-1
 8.061994065200000E9     3.761614734047848E-1    4.356281372479200E-1   -2.371192774869365E-3    2.867003843935215E-3   -2.225756673968108E-3    3.042237530138101E-3    3.864428369087923E-1    2.898245514275444E-1
 8.061994954400000E9     3.762390285335454E-1    4.354584195829682E-1   -2.410970155082022E-3    2.842044533363332E-3   -2.228890261901339E-3    3.065158076757018E-3    3.865369086600217E-1    2.898477259059335E-1
 8.061995843600000E9     3.763602725659623E-1    4.355382470820847E-1   -2.417153128267307E-3    2.872471508952190E-3   -2.229704788012611E-3    3.100423341542715E-3    3.865354460894717E-1    2.897681973586503E-1
 8.061996732800000E9     3.764160483803108E-1    4.354404346893296E-1   -2.418691412904515E-3    2.887036719741477E-3   -2.229384037145363E-3    3.060942369326079E-3    3.865985927024413E-1    2.897549949894700E-1
 8.061997622000000E9     3.764685916132081E-1    4.353471793189747E-1   -2.378408327594956E-3    2.895203058358019E-3   -2.269272347128601E-3    3.059586002247783E-3    3.865842267972633E-1    2.896439836522881E-1
 8.061998511200000E9     3.766349735805379E-1    4.353079029302115E-1   -2.397305013042036E-3    2.905160196712202E-3   -2.252817647701987E-3    3.048384737211895E-3    3.866673569599527E-1    2.896121787774542E-1
 8.061999400400000E9     3.767017976468552E-1    4.352196692475355E-1   -2.407442903775501E-3    2.898338478951940E-3   -2.257122411926324E-3    3.090609578902277E-3    3.867760418475382E-1    2.894725399766333E-1
 8.062000289600000E9     3.768838996720867E-1    4.351143817300315E-1   -2.392682485985329E-3    2.902670818836385E-3   -2.285651619407584E-3    3.095027689708520E-3    3.867416473676057E-1    2.895046161336942E-1
 8.062001178800000E9     3.768592411552273E-1    4.350126612011249E-1   -2.376314265102519E-3    2.916691296688884E-3   -2.272991448579257E-3    3.097832879801754E-3    3.868915351049649E-1    2.893123954675715E-1
 8.062002068000000E9     3.769423615206215E-1    4.349454541572924E-1   -2.440253987329201E-3    2.950182427636824E-3   -2.253217911718646E-3    3.129241398117294E-3    3.867207253165720E-1    2.893944169679389E-1
 8.062002957200000E9     3.768939850725996E-1    4.349450739243637E-1   -2.419061236746550E-3    2.950324058983103E-3   -2.291787451822980E-3    3.142015406746421E-3    3.868618813302285E-1    2.894593641871711E-1
 8.062003846400000E9     3.771057255276131E-1    4.348705931272552E-1   -2.418962140359027E-3    2.989386714150223E-3   -2.297183715357414E-3    3.097106526980625E-3    3.868621111136373E-1    2.893477021568344E-1
 8.062004735600000E9     3.771588498445873E-1    4.347752038725614E-1   -2.439280328462151E-3    2.959073455497385E-3   -2.252471746745064E-3    3.176816127931708E-3    3.869395913334343E-1    2.892692023089150E-1
 8.062005624800000E9     3.772309773497077E-1    4.346813627054673E-1   -2.430050993973634E-3    2.970789146586479E-3   -2.289581737153711E-3    3.147958781870437E-3    3.869121432117857E-1    2.893509105437989E-1
 8.062006514000000E9     3.772504776737696E-1    4.345217026613510E-1   -2.435818005484338E-3    2.974160947855054E-3   -2.293012191434079E-3    3.158845322348971E-3    3.869295132139050E-1    2.892432399219395E-1
 8.062007403200000E9     3.774810946565914E-1    4.345694096933850E-1   -2.454378987170248E-3    2.959707534304272E-3   -2.280137595355637E-3    3.161508765942222E-3    3.868971762347691E-1    2.891192406482758E-1
 8.062008292400000E9     3.774628628968636E-1    4.345199445716860E-1   -2.460782843978520E-3    2.979751343210526E-3   -2.276635322344071E-3    3.202599492640957E-3    3.870474692182819E-1    2.891505725731855E-1
 8.062009181600000E9     3.775670963941947E-1    4.343548989712814E-1   -2.423469524739950E-3    3.011670078581618E-3   -2.306154294984311E-3    3.168802233582485E-3    3.870504679734563E-1    2.890170586376470E-1
 8.062010070800000E9     3.776583663364127E-1    4.342246347213410E-1   -2.478172521828641E-3    3.014860659714315E-3   -2.301275953677669E-3    3.181362962448442E-3    3.870925702773759E-1    2.889946340656520E-1
 8.062010960000000E9     3.775571415063925E-1    4.341227983040187E-1   -2.455535065361161E-3    3.029661684626230E-3   -2.333292292845424E-3    3.221822619863141E-3    3.870502549918533E-1    2.890018490710399E-1
 8.062011849200000E9     3.777253192876497E-1    4.341440883979170E-1   -2.459721862269642E-3    3.037002273961978E-3   -2.300820417467704E-3    3.235529540176034E-3    3.871185077997508E-1    2.887555636878313E-1
 8.062012738400000E9     3.779082845597209E-1    4.340703416438607E-1   -2.469564179937604E-3    3.024024417663673E-3   -2.337169007377476E-3    3.211908754036060E-3    3.872178439389667E-1    2.887021741780439E-1
 8.062013627600000E9     3.778570371516108E-1    4.340788568440700E-1   -2.491677222032749E-3    3.061797840974846E-3   -2.336510985811507E-3    3.220821853914321E-3    3.871387553166266E-1    2.887951190612711E-1
 8.062014516800000E9     3.779985494635392E-1    4.338374914460900E-1   -2.494943175392851E-3    3.064063164856325E-3   -2.330285788178631E-3    3.253793609078236E-3    3.872294319708794E-1    2.888395186710958E-1
 8.062015406000000E9     3.781819786214317E-1    4.339281514825891E-1   -2.491102716088470E-3    3.073746414551601E-3   -2.333361420572043E-3    3.241561951558090E-3    3.873361748432810E-1    2.886725927660249E-1
 8.062016295200000E9     3.781964898439745E-1    4.338660633251193E-1   -2.487075722933064E-3    3.095755127253279E-3   -2.328482691145015E-3    3.273498370247368E-3    3.873173640675103E-1    2.887367773157437E-1
 8.062017184400000E9     3.782922955901931E-1    4.336019477665643E-1   -2.467915446416789E-3    3.066940621764826E-3   -2.350380881107993E-3    3.273627195310230E-3    3.872935735391906E-1    2.887217032279435E-1
 8.062018073600000E9     3.783692669549364E-1    4.336129954004050E-1   -2.489932728052149E-3    3.070479649089145E-3   -2.358219029384102E-3    3.280797641578225E-3    3.872105379012853E-1    2.887024202753509E-1
 8.062018962800000E9     3.784511778154404E-1    4.334970100356084E-1   -2.542591966619340E-3    3.109684084011618E-3   -2.372810173922380E-3    3.291173222668453E-3    3.873904941187929E-1    2.885317987347338E-1
 8.062019852000000E9     3.784176274619753E-1    4.334025767102569E-1   -2.526555952134254E-3    3.144225191056930E-3   -2.373166015950155E-3    3.307219079831794E-3    3.873359114601468E-1    2.885183680503144E-1
 8.062020741200000E9     3.786592482406455E-1    4.332886303082313E-1   -2.509221262376285E-3    3.125908441152293E-3   -2.349570962989734E-3    3.326464617363196E-3    3.875117864959345E-1    2.884452627715617E-1
 8.062021630400000E9     3.787218505923655E-1    4.332570673787161E-1   -2.492931339693661E-3    3.147222588295381E-3   -2.363803400252162E-3    3.337084518319926E-3    3.876479258559849E-1    2.883070048397703E-1
 8.062022519600000E9     3.787704634817880E-1    4.331585970184875E-1   -2.525807602420692E-3    3.160657752608419E-3   -2.326635326871058E-3    3.377976143763276E-3    3.874645637181234E-1    2.884633189110520E-1
 8.062023408800000E9     3.787961298820750E-1    4.330200615600776E-1   -2.519702035459068E-3    3.159775153674434E-3   -2.363413500437005E-3    3.339148415288940E-3    3.875932262609774E-1    2.884474080378465E-1
 8.062024298000000E9     3.789131427325012E-1    4.329743586903192E-1   -2.530931072898104E-3    3.168540921352471E-3   -2.348247700020115E-3    3.373039081601197E-3    3.876231073850430E-1    2.882745216534297E-1
 8.062025187200000E9     3.789586626038517E-1    4.327890082130489E-1   -2.550566405913882E-3    3.196776457266339E-3   -2.396184701038061E-3    3.416053702412365E-3    3.877451538512292E-1    2.882314758993942E-1
 8.062026076400000E9     3.792039430759385E-1    4.327709627825317E-1   -2.535515301223824E-3    3.199218536090875E-3   -2.383848052521638E-3    3.387407954211496E-3    3.877444580415249E-1    2.882513291825292E-1
 8.062026965600000E9     3.791975315726729E-1    4.325646663506102E-1   -2.543841050294527E-3    3.211926367476341E-3   -2.382003830160975E-3    3.362248500459161E-3    3.877325867703972E-1    2.880737261919813E-1
 8.062027854800000E9     3.792412293990201E-1    4.325825848358982E-1   -2.542581274290175E-3    3.200355129289411E-3   -2.435257001278680E-3    3.404680903112701E-3    3.877005104005778E-1    2.880548186735798E-1
 8.062028744000000E9     3.793409244724539E-1    4.325722939000738E-1   -2.562263620374703E-3    3.219539309250691E-3   -2.373124975597043E-3    3.414439764881717E-3    3.877703428225017E-1    2.879361949581377E-1
 8.062029633200000E9     3.794548720161087E-1    4.324613188887953E-1   -2.559792323302849E-3    3.226016466745547E-3   -2.407136670114457E-3    3.440557617574233E-3    3.879046830087696E-1    2.879689205332697E-1
 8.062030522400000E9     3.795053831773319E-1    4.322454343699076E-1   -2.589805578667814E-3    3.222590215669422E-3   -2.396656442978522E-3    3.440889326050478E-3    3.877672732977584E-1    2.879913532198783E-1
 8.062031411600000E9     3.795720037224354E-1    4.323225030275450E-1   -2.579774834653820E-3    3.247496696647832E-3   -2.420208926430557E-3    3.441486954037538E-3    3.879644642691282E-1    2.879416876816490E-1
 8.062032300800000E9     3.796188009368968E-1    4.322117827206043E-1   -2.584682231225255E-3    3.276409190574827E-3   -2.409409105103871E-3    3.466568829963983E-3    3.878371813057398E-1    2.878524852249133E-1
 8.062033190000000E9     3.797804506572797E-1    4.321019696564357E-1   -2.607876964965996E-3    3.275110991182278E-3   -2.448099431458673E-3    3.487634433945919E-3    3.878785631861944E-1    2.878528668471358E-1
 8.062034079200000E9     3.798903839742638E-1    4.320486715769356E-1   -2.595928215897628E-3    3.314820659816655E-3   -2.422709055340931E-3    3.502877056140258E-3    3.879303732026294E-1    2.879405806691803E-1
 8.062034968400000E9     3.798979017126329E-1    4.319257069251127E-1   -2.606245644601949E-3    3.306092060572627E-3   -2.414123846132223E-3    3.510609184170293E-3    3.878166511118413E-1    2.877353148605286E-1
 8.062035857600000E9     3.800144786305591E-1    4.317171561822753E-1   -2.593801634612083E-3    3.329484530104492E-3   -2.434856064506067E-3    3.539475695034645E-3    3.880326359647535E-1    2.877976171854391E-1
 8.062036746800000E9     3.801706486856420E-1    4.317105141903743E-1   -2.639681824159068E-3    3.324397810190848E-3   -2.410729320092763E-3    3.546450674220253E-3    3.879409644611418E-1    2.875824067517644E-1
 8.062037636000000E9     3.802410793127317E-1    4.315479563339267E-1   -2.618325307436964E-3    3.365875484219270E-3   -2.476355852616321E-3    3.535637438827281E-3    3.881607407531625E-1    2.876371144831172E-1
 8.062038525200000E9     3.803030665955762E-1    4.315370414883313E-1   -2.625649497520036E-3    3.358371127916428E-3   -2.433450319927617E-3    3.561682095365929E-3    3.881374939301907E-1    2.875974789847102E-1
 8.062039414400000E9     3.803673184598881E-1    4.312769505964297E-1   -2.624624572249164E-3    3.370835418450851E-3   -2.479002216383576E-3    3.574866603702360E-3    3.880526907337990E-1    2.875507124825586E-1
 8.062040303600000E9     3.804534010902456E-1    4.313422117633900E-1   -2.636317628491611E-3    3.405434377031441E-3   -2.487571896838213E-3    3.564444165117763E-3    3.881355651929461E-1    2.874283300351779E-1
 8.062041192800000E9     3.804762980926978E-1    4.312068745500207E-1   -2.668602621917197E-3    3.385423944945303E-3   -2.471132202056163E-3    3.607567503889278E-3    3.882293654322941E-1    2.873888256008979E-1
 8.062042082000000E9     3.806239005250959E-1    4.310873540548665E-1   -2.657711971388514E-3    3.436399670785364E-3   -2.498315859068302E-3    3.583541742604654E-3    3.881736194188976E-1    2.873562853383155E-1
 8.062042971200000E9     3.807313071582683E-1    4.310081679638864E-1   -2.647106867171613E-3    3.430072005698105E-3   -2.494898158079661E-3    3.634108128707913E-3    3.882118762159669E-1    2.874983382378600E-1
 8.062043860400000E9     3.808373622542922E-1    4.309092146996085E-1   -2.663595066468795E-3    3.449802350600766E-3   -2.459494886430009E-3    3.657307258835413E-3    3.883106876407733E-1    2.872994532100224E-1
 8.062044749600000E9     3.808734376556053E-1    4.307440363496467E-1   -2.687393093023573E-3    3.455319500993030E-3   -2.486711981926974E-3    3.627069967057913E-3    3.883765570340964E-1    2.872328359779034E-1
 8.062045638800000E9     3.810279563749015E-1    4.306337582881361E-1   -2.681317855308341E-3    3.460561758733587E-3   -2.522048124806411E-3    3.680333634226139E-3    3.881890964121133E-1    2.872577956499753E-1
 8.062046528000000E9     3.811107734289647E-1    4.305918855004504E-1   -2.675750900470858E-3    3.494399536024306E-3   -2.525819101778515E-3    3.670084149131771E-3    3.883936659722588E-1    2.871392347382993E-1
 8.062047417200000E9     3.811913672225956E-1    4.304556557608625E-1   -2.683388160060622E-3    3.498829145934220E-3   -2.502536303377307E-3    3.703346861698206E-3    3.884473247601036E-1    2.870686941882813E-1
 8.062048306400000E9     3.812399051817378E-1    4.305359810918470E-1   -2.727645055910861E-3    3.533376302446489E-3   -2.515275440175301E-3    3.712513059275106E-3    3.883190226127173E-1    2.871487599931524E-1
 8.062049195600000E9     3.813378778453781E-1    4.303264454280907E-1   -2.699988156037941E-3    3.528953804083280E-3   -2.537403578397808E-3    3.760578740103669E-3    3.885290988290744E-1    2.869856871493406E-1
 8.062050084800000E9     3.813584504157444E-1    4.302108477921516E-1   -2.710395456710374E-3    3.551132334550222E-3   -2.562841226362032E-3    3.727590283871069E-3    3.885422268019539E-1    2.869760142704622E-1
 8.062050974000000E9     3.814918052360020E-1    4.300700699633001E-1   -2.725336846873452E-3    3.580528889690592E-3   -2.544715841979482E-3    3.749614809829438E-3    3.885428164896136E-1    2.868570327841579E-1
 8.062051863200000E9     3.815556595991459E-1    4.299507871421511E-1   -2.717479164628759E-3    3.565896272870588E-3   -2.560687594589993E-3    3.753917218250605E-3    3.885022927165204E-1    2.868068391056944E-1
 8.062052752400000E9     3.817416418853955E-1    4.298866027349259E-1   -2.758673881184217E-3    3.591447404766659E-3   -2.520910364866796E-3    3.822114536466566E-3    3.885302210735470E-1    2.869440692044768E-1
 8.062053641600000E9     3.819365208363479E-1    4.297731768479557E-1   -2.732019156442791E-3    3.587658087714493E-3   -2.568843130885838E-3    3.846614881670134E-3    3.886825723797266E-1    2.866752000496434E-1
 8.062054530800000E9     3.819378516117393E-1    4.297498569530732E-1   -2.765252881749204E-3    3.635856261495994E-3   -2.589260692335152E-3    3.794039153035399E-3    3.885028084358437E-1    2.868133061130436E-1
 8.062055420000000E9     3.819855160876483E-1    4.295284675870538E-1   -2.797285648046286E-3    3.629082671239322E-3   -2.562520918784811E-3    3.864584907496348E-3    3.886337880741812E-1    2.867524437251833E-1
 8.062056309200000E9     3.821266139397210E-1    4.295127038066484E-1   -2.748632516809536E-3    3.639996304570403E-3   -2.595853126739748E-3    3.873695583107994E-3    3.885365220763546E-1    2.865366019637084E-1
 8.062057198400000E9     3.822712101573011E-1    4.292803359357714E-1   -2.771117141924880E-3    3.685715967839549E-3   -2.565042360070680E-3    3.903920039357986E-3    3.887307228467021E-1    2.865527048821788E-1
 8.062058087600000E9     3.823948083485547E-1    4.293058927766720E-1   -2.773533780229665E-3    3.683590632665065E-3   -2.600763456732429E-3    3.909929335266245E-3    3.887253863490179E-1    2.865289432510789E-1
 8.062058976800000E9     3.824941638869040E-1    4.291110491188771E-1   -2.799356470310334E-3    3.709516968689092E-3   -2.592927232335470E-3    3.960923656410605E-3    3.887110845083601E-1    2.865097097030456E-1
 8.062059866000000E9     3.825719930092916E-1    4.288452820183691E-1   -2.822386597828225E-3    3.739037511687339E-3   -2.621695680293161E-3    3.959964222935397E-3    3.888172436327497E-1    2.865078872472113E-1
 8.062060755200000E9     3.826849657759132E-1    4.288611940468349E-1   -2.813418778255064E-3    3.769716483663203E-3   -2.605851509687419E-3    3.982602779162740E-3    3.889071029297391E-1    2.863529321965342E-1
 8.062061644400000E9     3.827519482717862E-1    4.287342427021178E-1   -2.802994523551610E-3    3.781802862074950E-3   -2.646500592889472E-3    3.989669576533017E-3    3.889598601340337E-1    2.863626967271753E-1
 8.062062533600000E9     3.828208509050013E-1    4.286364958816796E-1   -2.832320584786547E-3    3.778139111702220E-3   -2.653162764550946E-3    3.980849427264830E-3    3.889018458349109E-1    2.862444248484430E-1
 8.062063422800000E9     3.829124418481556E-1    4.284862423031826E-1   -2.826841437330435E-3    3.817917836259716E-3   -2.614415707371497E-3    4.005304846520258E-3    3.889089381086274E-1    2.863852756827988E-1
 8.062064312000000E9     3.829750138235515E-1    4.283318616042818E-1   -2.856955026082280E-3    3.835305721276851E-3   -2.623662770168554E-3    4.049458820669347E-3    3.891142169153808E-1    2.861364369087137E-1
 8.062065201200000E9     3.831885323194246E-1    4.282640006290052E-1   -2.841784199643445E-3    3.868191270228913E-3   -2.673487556817203E-3    4.077579615162945E-3    3.889903120074416E-1    2.862340822379170E-1
 8.062066090400000E9     3.832676497144735E-1    4.279672071647212E-1   -2.850336132125552E-3    3.878751347767338E-3   -2.635143614118297E-3    4.076145973343433E-3    3.890442079710172E-1    2.862071683145009E-1
 8.062066979600000E9     3.833236090557512E-1    4.278981897489638E-1   -2.894314229517265E-3    3.905224281299686E-3   -2.647058960958361E-3    4.120857753882793E-3    3.890748680588655E-1    2.861064984253318E-1
 8.062067868800000E9     3.834571005471494E-1    4.277623426590164E-1   -2.882153586506547E-3    3.910200767071158E-3   -2.676286102218597E-3    4.119369471240130E-3    3.891417754458769E-1    2.860616479740873E-1
 8.062068758000000E9     3.835570069438274E-1    4.276809633074884E-1   -2.863193689135437E-3    3.942747853483176E-3   -2.699184749283598E-3    4.153990672083271E-3    3.892097315214498E-1    2.859439389702145E-1
 8.062069647200000E9     3.836277131870426E-1    4.276048220353797E-1   -2.903540109792860E-3    3.972227978104653E-3   -2.685491966318626E-3    4.148880444437971E-3    3.891790891249931E-1    2.858458061367560E-1
 8.062070536400000E9     3.837409751583762E-1    4.274945380136775E-1   -2.897999933225972E-3    3.979083573815189E-3   -2.676461747087755E-3    4.204158356930957E-3    3.892673860982734E-1    2.857545279751542E-1
 8.062071425600000E9     3.838256298029954E-1    4.274005280280848E-1   -2.889403248472743E-3    4.018743478706423E-3   -2.701497899348728E-3    4.213676128557625E-3    3.892285230353384E-1    2.858065368186614E-1
 8.062072314800000E9     3.839487448811667E-1    4.270460950926402E-1   -2.918935794936633E-3    4.082126475880839E-3   -2.690033719561004E-3    4.266190027020098E-3    3.892745712318041E-1    2.857406399767324E-1
 8.062073204000000E9     3.840748050811114E-1    4.269793032219040E-1   -2.946906276814093E-3    4.057483199800636E-3   -2.703407110161323E-3    4.294820078831369E-3    3.893971090398226E-1    2.857590342873809E-1
