#  HZ   S   RI   R     50.00 
! Rohde & Schwarz Vector Network Analyzer 
! Rohde-Schwarz,ZNB20-2Port,1311601062101988,3.16
! Created: UTC 3/20/2024, 10:57:45 PM
! freq[Hz]                re:S11                  im:S11                  re:S21                  im:S21                  re:S12                  im:S12                  re:S22                  im:S22
 8.061977462000000E9     3.749498360399205E-1    4.367088985714997E-1   -2.329653567046222E-3    2.788741159564989E-3   -2.187525264347269E-3    2.965246292923457E-3    3.864962598778652E-1    2.906213771296076E-1
 8.061978397200000E9     3.750208309922508E-1    4.366216890567255E-1   -2.317027875231008E-3    2.805271963552037E-3   -2.201503217337141E-3    2.926577431160420E-3    3.863741297391352E-1    2.903985138852477E-1
 8.061979332400000E9     3.751451479171079E-1    4.366000555445301E-1   -2.343352871424217E-3    2.787102927623883E-3   -2.215141825980060E-3    2.965772393054933E-3    3.866656454365932E-1    2.905660244369195E-1
 8.061980267600000E9     3.753048685864043E-1    4.364235690382073E-1   -2.343861983806442E-3    2.800210127062559E-3   -2.183449695588187E-3    3.029029752833128E-3    3.866673786631126E-1    2.905161435262593E-1
 8.061981202800000E9     3.753219305361218E-1    4.364445034552725E-1   -2.335185778120323E-3    2.806875499937350E-3   -2.205273001835564E-3    3.028707764614432E-3    3.866469937623267E-1    2.902933433843842E-1
 8.061982138000000E9     3.754230543229217E-1    4.363852415422800E-1   -2.337626137378171E-3    2.827237144790786E-3   -2.215886357544334E-3    2.975497654039440E-3    3.866368923400213E-1    2.903953439859365E-1
 8.061983073200000E9     3.754864445890568E-1    4.362078082267528E-1   -2.358419300525800E-3    2.836911576607177E-3   -2.176656586564083E-3    3.005596634422277E-3    3.867194380768453E-1    2.902349898248347E-1
 8.061984008400000E9     3.755129956197351E-1    4.362907266681553E-1   -2.364169450705398E-3    2.832889040208289E-3   -2.228819968955556E-3    3.030697556867881E-3    3.868054352178812E-1    2.902809355840318E-1
 8.061984943600000E9     3.757827777690907E-1    4.361216314998920E-1   -2.356886868775113E-3    2.866646976167259E-3   -2.197277626093052E-3    3.027310352795941E-3    3.867082964999884E-1    2.902167135684099E-1
 8.061985878800000E9     3.758537620047154E-1    4.361430238322411E-1   -2.389329595545152E-3    2.847520889750881E-3   -2.214515962964064E-3    3.009760166071822E-3    3.867635009171951E-1    2.900780294642054E-1
 8.061986814000000E9     3.758237978405718E-1    4.359822068483748E-1   -2.378667055278786E-3    2.856448150969618E-3   -2.206438376151421E-3    3.001454326711606E-3    3.867685288361055E-1    2.901059219675557E-1
 8.061987749200000E9     3.759389501197845E-1    4.358851427063478E-1   -2.346857413300844E-3    2.865227725789431E-3   -2.230014637890381E-3    3.022465211240152E-3    3.868824731348587E-1    2.900228999312432E-1
 8.061988684400000E9     3.759600998444304E-1    4.357530484871640E-1   -2.395733276688518E-3    2.883205309725593E-3   -2.228043647591780E-3    3.042964057939351E-3    3.869286375775089E-1    2.900298999348799E-1
 8.061989619600000E9     3.760988617514875E-1    4.356832084501682E-1   -2.369638862328965E-3    2.879095810891025E-3   -2.239747160165570E-3    3.065730857091351E-3    3.868930713035058E-1    2.899360229068743E-1
 8.061990554800000E9     3.761704536438574E-1    4.356889873445786E-1   -2.364734029279626E-3    2.890428581039533E-3   -2.234666865568759E-3    3.091792428912353E-3    3.869913044288955E-1    2.897288018751774E-1
 8.061991490000000E9     3.761885901661355E-1    4.355024896617111E-1   -2.397756088632934E-3    2.920969324802362E-3   -2.267485063012492E-3    3.068429617773006E-3    3.871159611288543E-1    2.899629140137128E-1
 8.061992425200000E9     3.763839354670825E-1    4.354507345486070E-1   -2.389227619326334E-3    2.898818616983785E-3   -2.283118464396943E-3    3.074167562581886E-3    3.869806216662909E-1    2.898188394767536E-1
 8.061993360400000E9     3.763699167559726E-1    4.354706863954899E-1   -2.396074110254437E-3    2.925726590883849E-3   -2.204095347064120E-3    3.059604704642113E-3    3.870982471978774E-1    2.897542806142979E-1
 8.061994295600000E9     3.765012802425279E-1    4.352799376136727E-1   -2.394894081462858E-3    2.923002577930777E-3   -2.226080800729933E-3    3.095371261357914E-3    3.870294044505598E-1    2.897704867719041E-1
 8.061995230800000E9     3.765873043956014E-1    4.353625324806784E-1   -2.425705094926281E-3    2.931715304266132E-3   -2.262819812492823E-3    3.088646581717645E-3    3.871913990228868E-1    2.896089447654878E-1
 8.061996166000000E9     3.766907365601699E-1    4.352881689020359E-1   -2.431798680031474E-3    2.953228487567733E-3   -2.246226708461985E-3    3.116674525356200E-3    3.871618213201354E-1    2.896412388595339E-1
 8.061997101200000E9     3.767370966514300E-1    4.351607560170676E-1   -2.417312749783375E-3    2.939820415392011E-3   -2.266216186419310E-3    3.132992166086209E-3    3.871712967469931E-1    2.894447345740321E-1
 8.061998036400000E9     3.767176436906320E-1    4.350382156974472E-1   -2.419335025874080E-3    2.955266393882346E-3   -2.232592926236312E-3    3.137852295180221E-3    3.873338823187766E-1    2.893317974627054E-1
 8.061998971600000E9     3.769734569035116E-1    4.350734513982069E-1   -2.426367883709105E-3    2.971700339190626E-3   -2.314438833026074E-3    3.125619383198793E-3    3.873132335951544E-1    2.894598223162680E-1
 8.061999906800000E9     3.770684432819701E-1    4.349723380568346E-1   -2.414926087805620E-3    2.984545306470486E-3   -2.273127873586158E-3    3.169830204390875E-3    3.872235757077601E-1    2.894109727203070E-1
 8.062000842000000E9     3.770200717305126E-1    4.347038617850762E-1   -2.430461190347138E-3    2.993716121997831E-3   -2.282461823261781E-3    3.181896216678148E-3    3.873494280455776E-1    2.894380835913724E-1
 8.062001777200000E9     3.771460672622018E-1    4.346186713454467E-1   -2.435234620149356E-3    2.968491970594153E-3   -2.280230649521993E-3    3.174964862964189E-3    3.873500573727275E-1    2.893213748904326E-1
 8.062002712400000E9     3.772462591332162E-1    4.346337556590352E-1   -2.459968210757197E-3    3.018469788821242E-3   -2.285449570580772E-3    3.192585166822026E-3    3.874850225606545E-1    2.892326636623607E-1
 8.062003647600000E9     3.771180127101708E-1    4.345367680564539E-1   -2.427176930095481E-3    3.023497912634928E-3   -2.290415876755655E-3    3.184628373217873E-3    3.874611156925299E-1    2.892507353501524E-1
 8.062004582800000E9     3.774143128259144E-1    4.344799696676825E-1   -2.475783952199327E-3    3.037617082664914E-3   -2.302462084972294E-3    3.181601839418426E-3    3.875610411738481E-1    2.891873520261704E-1
 8.062005518000000E9     3.773916712791183E-1    4.343673422243525E-1   -2.461345644843457E-3    3.038655683430002E-3   -2.307099016012376E-3    3.190621721413003E-3    3.876000101032113E-1    2.890897025718676E-1
 8.062006453200000E9     3.774925787510465E-1    4.343609163072208E-1   -2.476921383415654E-3    3.058841098727407E-3   -2.309016748529348E-3    3.258524251715431E-3    3.875376098469301E-1    2.891247066154335E-1
 8.062007388400000E9     3.775456117586917E-1    4.340996045460430E-1   -2.473506404377490E-3    3.052603304977776E-3   -2.310892508500244E-3    3.207477595263634E-3    3.875031474864262E-1    2.890653479280885E-1
 8.062008323600000E9     3.776852294173554E-1    4.342156895840039E-1   -2.475957145763130E-3    3.058555509846924E-3   -2.342404296647955E-3    3.235032014433601E-3    3.874745204993550E-1    2.889736992844842E-1
 8.062009258800000E9     3.777796008700384E-1    4.339151383244005E-1   -2.484942638004842E-3    3.051035893245243E-3   -2.328955397133854E-3    3.286735685350218E-3    3.876416055582496E-1    2.889771450665050E-1
 8.062010194000000E9     3.777972105583116E-1    4.340204034834844E-1   -2.468854096467916E-3    3.080043118917362E-3   -2.323440927647286E-3    3.268954594042266E-3    3.874493007432931E-1    2.888618394599446E-1
 8.062011129200000E9     3.779974651917546E-1    4.339462030739217E-1   -2.493775270952269E-3    3.089245489280273E-3   -2.318529043883788E-3    3.257837062922843E-3    3.875896385666790E-1    2.888786396835680E-1
 8.062012064400000E9     3.781495319536867E-1    4.338092533477308E-1   -2.479461314490784E-3    3.105812816486575E-3   -2.367562534828040E-3    3.273272329843549E-3    3.876653005123881E-1    2.886610004328636E-1
 8.062012999600000E9     3.781878775738594E-1    4.338092676508573E-1   -2.481739968217434E-3    3.111168163407862E-3   -2.328166614800574E-3    3.277044765638297E-3    3.876587887730345E-1    2.887574150261447E-1
 8.062013934800000E9     3.782292765937845E-1    4.336361953345843E-1   -2.502985167419176E-3    3.148770163553467E-3   -2.366589443930060E-3    3.280321667846036E-3    3.876655596826227E-1    2.887041424764129E-1
 8.062014870000000E9     3.782975461206153E-1    4.335503752193842E-1   -2.515140616575965E-3    3.129974301613737E-3   -2.338763632180373E-3    3.242623851006174E-3    3.878349451976790E-1    2.886816597571008E-1
 8.062015805200000E9     3.784048206415714E-1    4.334111534075844E-1   -2.523856087990506E-3    3.151690613757228E-3   -2.393701839882819E-3    3.330588227685816E-3    3.877987327268174E-1    2.886940542376085E-1
 8.062016740400000E9     3.785187392630026E-1    4.333883053317644E-1   -2.508440542724739E-3    3.148407496323385E-3   -2.362798168995136E-3    3.300579877984907E-3    3.878465552464481E-1    2.885981129947871E-1
 8.062017675600000E9     3.786276636726597E-1    4.333566407349089E-1   -2.530580746416777E-3    3.165244275321626E-3   -2.376321440186293E-3    3.347407346048113E-3    3.879272582273500E-1    2.885170522064894E-1
 8.062018610800000E9     3.786484782521707E-1    4.331919568256977E-1   -2.532857034784962E-3    3.182507411733396E-3   -2.363547166602199E-3    3.366422235680320E-3    3.880535790987732E-1    2.885052661665042E-1
 8.062019546000000E9     3.787274380237479E-1    4.331852404385367E-1   -2.571876895747731E-3    3.199178164005604E-3   -2.401251381051363E-3    3.385544822907852E-3    3.878398055661593E-1    2.885318572025025E-1
 8.062020481200000E9     3.787880631344388E-1    4.331284872032267E-1   -2.556618370820621E-3    3.199963998540876E-3   -2.372384416788579E-3    3.401797461228079E-3    3.879941831494578E-1    2.883691419674037E-1
 8.062021416400000E9     3.789589468585778E-1    4.329091832964910E-1   -2.568614086320554E-3    3.214630055426001E-3   -2.366121552659193E-3    3.406577006468799E-3    3.881268172809713E-1    2.884348252567622E-1
 8.062022351600000E9     3.790480205072458E-1    4.328004311316343E-1   -2.543296809880983E-3    3.223009726301860E-3   -2.413258004679532E-3    3.392082609850927E-3    3.880335965946882E-1    2.882978406812001E-1
 8.062023286800000E9     3.790773243891783E-1    4.326961818129986E-1   -2.591207503513632E-3    3.222769736376905E-3   -2.421439956075161E-3    3.425120046037524E-3    3.881899280124339E-1    2.882406038555421E-1
 8.062024222000000E9     3.791654879351042E-1    4.327752746653484E-1   -2.544325204136147E-3    3.245895249697318E-3   -2.433027411188884E-3    3.410018719818697E-3    3.880830103327988E-1    2.881644129887468E-1
 8.062025157200000E9     3.792808482530537E-1    4.323755494256491E-1   -2.574308004593929E-3    3.230201326307205E-3   -2.410487890803753E-3    3.435257681780433E-3    3.882243769112383E-1    2.882050645672452E-1
 8.062026092400000E9     3.793877674862249E-1    4.324993841886528E-1   -2.577690428989468E-3    3.295778824185954E-3   -2.426705750886600E-3    3.473259240304804E-3    3.881890644420173E-1    2.880735950778155E-1
 8.062027027600000E9     3.793651903938433E-1    4.323075834960105E-1   -2.610502322720897E-3    3.308082678852588E-3   -2.416654644895954E-3    3.487182653942730E-3    3.882094049076305E-1    2.880865788253701E-1
 8.062027962800000E9     3.794503016472299E-1    4.322933380053706E-1   -2.608481997430529E-3    3.325698619611060E-3   -2.425416499326232E-3    3.542695128982430E-3    3.883066825460999E-1    2.880578878357143E-1
 8.062028898000000E9     3.796011805758533E-1    4.321828254976030E-1   -2.605561054749755E-3    3.316507046949606E-3   -2.418399058303177E-3    3.506713328179172E-3    3.882654006442173E-1    2.879611229472059E-1
 8.062029833200000E9     3.796427330553026E-1    4.320807263354802E-1   -2.606241982882403E-3    3.343717758200016E-3   -2.454649119403427E-3    3.541593394271454E-3    3.883684571869659E-1    2.879349506199806E-1
 8.062030768400000E9     3.797516560485741E-1    4.319408341008196E-1   -2.598853702981723E-3    3.334900175556195E-3   -2.431730434139996E-3    3.515756760833448E-3    3.884026084812736E-1    2.878233124833393E-1
 8.062031703600000E9     3.799567076237423E-1    4.318821236731034E-1   -2.630094014410846E-3    3.349952368233045E-3   -2.445626484267471E-3    3.553319514532676E-3    3.882372038908449E-1    2.878430246709932E-1
 8.062032638800000E9     3.800056015874475E-1    4.317859540624298E-1   -2.611566290153974E-3    3.376155321794956E-3   -2.433100148324966E-3    3.531215986677146E-3    3.885294928176650E-1    2.876310110963836E-1
 8.062033574000000E9     3.800634870535688E-1    4.317033843581594E-1   -2.653254794539637E-3    3.369463137909153E-3   -2.463778581359124E-3    3.578050530799790E-3    3.885166465796623E-1    2.877188843741474E-1
 8.062034509200000E9     3.801417608910636E-1    4.314988995975919E-1   -2.648719227180095E-3    3.392122422338713E-3   -2.476707366485332E-3    3.567548962400750E-3    3.884521601542757E-1    2.876989482828905E-1
 8.062035444400000E9     3.802951330269383E-1    4.314409683090509E-1   -2.641349524496892E-3    3.386361999750909E-3   -2.449535051137908E-3    3.625607168206024E-3    3.885382919521291E-1    2.876360228916439E-1
 8.062036379600000E9     3.803575175794487E-1    4.313228430273094E-1   -2.662031609132306E-3    3.407727579312009E-3   -2.481581888816071E-3    3.593715163947364E-3    3.884527582011487E-1    2.876549607919901E-1
 8.062037314800000E9     3.804731233919769E-1    4.312839685961875E-1   -2.672562596435776E-3    3.447473789891076E-3   -2.459565481138687E-3    3.646713770164552E-3    3.885575945357433E-1    2.874163129886214E-1
 8.062038250000000E9     3.805706541476374E-1    4.311517610554476E-1   -2.645857432914050E-3    3.468761376565483E-3   -2.492876529307377E-3    3.659820326937587E-3    3.885680077402839E-1    2.875062314348221E-1
 8.062039185200000E9     3.805928316603195E-1    4.311756680068077E-1   -2.667254996280025E-3    3.477567111324989E-3   -2.508111546660525E-3    3.650687987266749E-3    3.887501503918875E-1    2.875391365790481E-1
 8.062040120400000E9     3.807297788773383E-1    4.309339466148441E-1   -2.697936184211374E-3    3.497289906075224E-3   -2.447991197949133E-3    3.660283981739869E-3    3.888107823316856E-1    2.874572000235647E-1
 8.062041055600000E9     3.809245667829455E-1    4.308848145012163E-1   -2.690813970867936E-3    3.490993883423614E-3   -2.501841437417885E-3    3.694643498891920E-3    3.887683583984277E-1    2.873350958046336E-1
 8.062041990800000E9     3.808916524678292E-1    4.306410563898764E-1   -2.674032588678213E-3    3.506708493070761E-3   -2.481481887221914E-3    3.699357311029203E-3    3.886678954354083E-1    2.873303138206192E-1
 8.062042926000000E9     3.809341354232185E-1    4.306352954592251E-1   -2.708893467048978E-3    3.523658579938731E-3   -2.526472810994079E-3    3.736750179730661E-3    3.889053861989650E-1    2.873065032459819E-1
 8.062043861200000E9     3.811290315164746E-1    4.304786837895847E-1   -2.733849546866715E-3    3.545732819044689E-3   -2.530369302020309E-3    3.757101579492553E-3    3.888687795339570E-1    2.872610625927310E-1
 8.062044796400000E9     3.812526630140033E-1    4.303024827860735E-1   -2.722469977997824E-3    3.580686648040689E-3   -2.535427978673514E-3    3.765519674260132E-3    3.887218624520191E-1    2.871796704109690E-1
 8.062045731600000E9     3.813313909626668E-1    4.302738505847687E-1   -2.720272756767256E-3    3.579040215459392E-3   -2.547895025208101E-3    3.780842630773564E-3    3.888944046684708E-1    2.872007755332409E-1
 8.062046666800000E9     3.814695502273665E-1    4.300839346885085E-1   -2.734803202536711E-3    3.605424204024474E-3   -2.573630822643551E-3    3.815212923485278E-3    3.889863933809000E-1    2.871229292879993E-1
 8.062047602000000E9     3.814895381073655E-1    4.300017483481783E-1   -2.723154219654369E-3    3.610158895453157E-3   -2.574972557696803E-3    3.834571759952240E-3    3.888925006964123E-1    2.871157150622838E-1
 8.062048537200000E9     3.816094807615134E-1    4.298196577784213E-1   -2.754697173847111E-3    3.655405442021579E-3   -2.566918308382205E-3    3.822820931673791E-3    3.889416896899233E-1    2.869327032282671E-1
 8.062049472400000E9     3.817531120555236E-1    4.297379615901399E-1   -2.766493507204534E-3    3.647787003259954E-3   -2.573117426153225E-3    3.850820202399269E-3    3.890273860872173E-1    2.869510469343148E-1
 8.062050407600000E9     3.817421147420239E-1    4.295982952022259E-1   -2.758939899693080E-3    3.649888743876412E-3   -2.568013947834868E-3    3.862848767913425E-3    3.889646311534439E-1    2.868692274866345E-1
 8.062051342800000E9     3.818400157845810E-1    4.295711815512166E-1   -2.759113738985213E-3    3.689041295533268E-3   -2.595206740796392E-3    3.875161013865120E-3    3.891530962482023E-1    2.867806024433143E-1
 8.062052278000000E9     3.819119019368306E-1    4.293378285249926E-1   -2.803698345561829E-3    3.721446475603675E-3   -2.582890766424607E-3    3.930322016049245E-3    3.891091011219632E-1    2.868009010479751E-1
 8.062053213200000E9     3.821841697682479E-1    4.292330166269216E-1   -2.787797021110479E-3    3.736654951211815E-3   -2.588156885752867E-3    3.961561625029815E-3    3.891561940037560E-1    2.866305411356629E-1
 8.062054148400000E9     3.821807163620808E-1    4.291519264581769E-1   -2.802385567652963E-3    3.755542825042668E-3   -2.605092871918641E-3    3.963401391848012E-3    3.892554148063165E-1    2.867136479218721E-1
 8.062055083600000E9     3.822841209109259E-1    4.290201319291785E-1   -2.810432650535156E-3    3.798390685563691E-3   -2.629126622786995E-3    3.988357252878464E-3    3.892508490927240E-1    2.866119200153017E-1
 8.062056018800000E9     3.824289488182012E-1    4.289352548676879E-1   -2.809810659191273E-3    3.797543678970824E-3   -2.614256505329854E-3    3.951430109736865E-3    3.891772392507318E-1    2.865290159927266E-1
 8.062056954000000E9     3.825561889786736E-1    4.288571721233421E-1   -2.805356514560732E-3    3.805301085113929E-3   -2.627583082512771E-3    4.027503021242619E-3    3.892063729738274E-1    2.864224009511810E-1
 8.062057889200000E9     3.825759901940131E-1    4.287086037017996E-1   -2.839396591830790E-3    3.835522870933655E-3   -2.635713779160209E-3    4.028494957365967E-3    3.893357063114667E-1    2.863913419274567E-1
 8.062058824400000E9     3.827202627874388E-1    4.285904272390353E-1   -2.816984580884569E-3    3.851468413890423E-3   -2.614099114631917E-3    4.075946827994739E-3    3.895057608813901E-1    2.864117160945130E-1
 8.062059759600000E9     3.827733786644592E-1    4.284052031884055E-1   -2.822761163309866E-3    3.851716812439147E-3   -2.650804603916806E-3    4.105207981083890E-3    3.893917646275195E-1    2.863800095715101E-1
 8.062060694800000E9     3.829920761326482E-1    4.283083646958219E-1   -2.842306838224236E-3    3.911203150008558E-3   -2.654421375438447E-3    4.098609154459653E-3    3.893725775227233E-1    2.862830754946885E-1
 8.062061630000000E9     3.829564014851622E-1    4.280153682003709E-1   -2.872265013585680E-3    3.936026290436310E-3   -2.683300104366012E-3    4.101309231399453E-3    3.895682988234812E-1    2.862920333863291E-1
