#  HZ   S   RI   R     50.00 
! Rohde & Schwarz Vector Network Analyzer 
! Rohde-Schwarz,ZNB20-2Port,1311601062101988,3.16
! Created: UTC 3/20/2024, 10:58:21 PM
! freq[Hz]                re:S11                  im:S11                  re:S21                  im:S21                  re:S12                  im:S12                  re:S22                  im:S22
 8.061955741000000E9     3.734724014282045E-1    4.380252813091147E-1   -2.286234240720506E-3    2.730096148219754E-3   -2.179242454265986E-3    2.896783920143115E-3    3.867290990880441E-1    2.910359571655100E-1
 8.061956733425000E9     3.735975155400989E-1    4.380806398584989E-1   -2.309609024834154E-3    2.718175955203073E-3   -2.155247831452294E-3    2.876371948983289E-3    3.867382178270416E-1    2.910234926342564E-1
 8.061957725850000E9     3.736281519389838E-1    4.379693081819577E-1   -2.277758825083946E-3    2.735110766223001E-3   -2.160529235253823E-3    2.888972591658051E-3    3.868474108970140E-1    2.910861177718702E-1
 8.061958718275000E9     3.738425140626440E-1    4.379292627339374E-1   -2.292412648408462E-3    2.716634320586681E-3   -2.174856987963112E-3    2.898844185914998E-3    3.868960219510801E-1    2.909843716969391E-1
 8.061959710700000E9     3.738157407407014E-1    4.377570306954661E-1   -2.299145821002162E-3    2.735114356345995E-3   -2.123198055594939E-3    2.941116635675146E-3    3.868923863379048E-1    2.910211042505325E-1
 8.061960703125000E9     3.739168029625617E-1    4.375763684185623E-1   -2.298207209685927E-3    2.755006578796638E-3   -2.146257490255195E-3    2.925622036777745E-3    3.869145858323551E-1    2.909786762313448E-1
 8.061961695550000E9     3.740088668775303E-1    4.375792872970820E-1   -2.318756615008605E-3    2.765098029012288E-3   -2.160604840181860E-3    2.939966369445085E-3    3.869076586262981E-1    2.909345783789419E-1
 8.061962687975000E9     3.741363678954815E-1    4.376389569223512E-1   -2.297053271609144E-3    2.768646413108037E-3   -2.136880416409493E-3    2.905666093893400E-3    3.869806376533313E-1    2.908455599468445E-1
 8.061963680400000E9     3.741309591541931E-1    4.373453571692303E-1   -2.302655108684225E-3    2.778828241397725E-3   -2.184943845021277E-3    2.959444172240349E-3    3.870459267616675E-1    2.906172024881401E-1
 8.061964672825000E9     3.743303931098076E-1    4.373546012792420E-1   -2.319708730861075E-3    2.774843880229123E-3   -2.167767120691727E-3    2.935289606675902E-3    3.870078376308919E-1    2.907817576062875E-1
 8.061965665250000E9     3.744074521972337E-1    4.373138044190824E-1   -2.319534396322722E-3    2.784885505537190E-3   -2.191620422376384E-3    2.937833130796645E-3    3.870977224343863E-1    2.906873484559060E-1
 8.061966657675000E9     3.743337399109371E-1    4.371603656149470E-1   -2.316437967357721E-3    2.795783853287163E-3   -2.190760637664016E-3    2.946419546720168E-3    3.870964223210335E-1    2.907513231293097E-1
 8.061967650100000E9     3.744833051066067E-1    4.371797139793517E-1   -2.307830411563689E-3    2.794020202639852E-3   -2.181320844147309E-3    2.958322534137618E-3    3.872381571472172E-1    2.906336734572028E-1
 8.061968642525000E9     3.746018935860609E-1    4.371269149018370E-1   -2.313115130781490E-3    2.800310395955136E-3   -2.203253389332668E-3    2.985778696253607E-3    3.873078810987383E-1    2.905233334823609E-1
 8.061969634950000E9     3.747611073259774E-1    4.370101424729359E-1   -2.329083391317715E-3    2.823009814247236E-3   -2.177344844618934E-3    2.981037122517793E-3    3.872187359203020E-1    2.904959043880705E-1
 8.061970627375000E9     3.747365144669443E-1    4.368982864550590E-1   -2.357397351862535E-3    2.813601407014353E-3   -2.195020388126857E-3    2.999995884372444E-3    3.873645773821573E-1    2.902759693743640E-1
 8.061971619800000E9     3.747874034670765E-1    4.368363831288101E-1   -2.345300247994136E-3    2.830263976512798E-3   -2.213428782899803E-3    2.997675707720332E-3    3.872471489686395E-1    2.903222181732094E-1
 8.061972612225000E9     3.748245344708485E-1    4.366954019673239E-1   -2.358318328740541E-3    2.823079335289804E-3   -2.212360902758468E-3    2.965265001270200E-3    3.873232835280472E-1    2.904240717651904E-1
 8.061973604650000E9     3.749978333482211E-1    4.365793807332152E-1   -2.351286947364030E-3    2.840202701315111E-3   -2.226266634185106E-3    2.982856764559515E-3    3.873656548191576E-1    2.902766900728301E-1
 8.061974597075000E9     3.750572125741908E-1    4.366723224552199E-1   -2.385389681847635E-3    2.835672762146991E-3   -2.192857355649132E-3    3.022473643602323E-3    3.874711150134527E-1    2.902228884579192E-1
 8.061975589500000E9     3.752969986783700E-1    4.366040575167500E-1   -2.358308760303188E-3    2.861285663620831E-3   -2.205610237211752E-3    3.039502093649705E-3    3.874118432833702E-1    2.900354076878516E-1
 8.061976581925000E9     3.753476750336107E-1    4.364216751598121E-1   -2.358673940618500E-3    2.859682640929658E-3   -2.213898701347751E-3    3.025139694970953E-3    3.875387468062061E-1    2.900110564363916E-1
 8.061977574350000E9     3.753664967996955E-1    4.363334780096370E-1   -2.366513060690627E-3    2.850433840398290E-3   -2.234977555588344E-3    3.065688352186824E-3    3.876025213194202E-1    2.900414862410867E-1
 8.061978566775000E9     3.754537620857588E-1    4.363576089449931E-1   -2.357513301400882E-3    2.902943936431411E-3   -2.232074084625262E-3    3.018559272321298E-3    3.875268327413050E-1    2.899828533835998E-1
 8.061979559200000E9     3.755757175862107E-1    4.362977272131628E-1   -2.383894194338104E-3    2.866544263151537E-3   -2.217763341108571E-3    3.062992443519231E-3    3.877624671788739E-1    2.900067241801699E-1
 8.061980551625000E9     3.756874840740960E-1    4.360496571923392E-1   -2.392987668782392E-3    2.911756177378880E-3   -2.223264482872471E-3    3.066115407940537E-3    3.875405831658333E-1    2.899606227561392E-1
 8.061981544050000E9     3.757709016246691E-1    4.359102625365939E-1   -2.395104879395177E-3    2.892043783845510E-3   -2.256309153138193E-3    3.113064920398572E-3    3.876177187402502E-1    2.898764302990363E-1
 8.061982536475000E9     3.756964655191711E-1    4.359286989440128E-1   -2.391436243424493E-3    2.921951862546855E-3   -2.245168605160856E-3    3.095289299566808E-3    3.877390012146101E-1    2.897992706217750E-1
 8.061983528900000E9     3.758349756875117E-1    4.358640922959188E-1   -2.383986439513251E-3    2.929989083305830E-3   -2.181871835823640E-3    3.122315597799893E-3    3.876772941249625E-1    2.897665608857676E-1
 8.061984521325000E9     3.758447085254130E-1    4.357336769707134E-1   -2.398108139898969E-3    2.945349383069154E-3   -2.279948511690226E-3    3.108565069457598E-3    3.877538858071887E-1    2.898184790909503E-1
 8.061985513750000E9     3.760970786166044E-1    4.357501304357403E-1   -2.383611450337956E-3    2.949108730555578E-3   -2.257979438573807E-3    3.110663700039340E-3    3.876323879195048E-1    2.897373634224722E-1
 8.061986506175000E9     3.761601835607641E-1    4.356684850011719E-1   -2.409172105306725E-3    2.955326786323259E-3   -2.252202565585263E-3    3.160580484332133E-3    3.877494203362574E-1    2.896141418066316E-1
 8.061987498600000E9     3.761487352747589E-1    4.355743371832943E-1   -2.405672085609226E-3    2.975082738146697E-3   -2.263760166677323E-3    3.125605631427062E-3    3.878912258689805E-1    2.895119556107477E-1
 8.061988491025000E9     3.763382813933972E-1    4.354224630887623E-1   -2.433362283692484E-3    2.959415579230966E-3   -2.293616012248838E-3    3.151377585249925E-3    3.880136958966626E-1    2.895173843152384E-1
 8.061989483450000E9     3.764128699486843E-1    4.352911158208485E-1   -2.430481072190857E-3    2.991572615262581E-3   -2.302851357988988E-3    3.148016570585810E-3    3.879113062649196E-1    2.894247096209723E-1
 8.061990475875000E9     3.764832362537175E-1    4.353315432953579E-1   -2.417028664334062E-3    2.995724049645956E-3   -2.262902620927678E-3    3.147332382567993E-3    3.880560331624859E-1    2.895522696921233E-1
 8.061991468300000E9     3.766846152563858E-1    4.352262564085969E-1   -2.431609873084751E-3    3.008045588959833E-3   -2.302101721881762E-3    3.158499344090591E-3    3.879818539843557E-1    2.894685529215886E-1
 8.061992460725000E9     3.766006297523208E-1    4.350615272284012E-1   -2.448770688753609E-3    3.016320966457200E-3   -2.273045618152478E-3    3.183795931950454E-3    3.881385752064843E-1    2.893156308909771E-1
 8.061993453150000E9     3.766898180418049E-1    4.350015103368768E-1   -2.429579061717247E-3    3.028576844345859E-3   -2.320983699476623E-3    3.188352777024162E-3    3.879765294370551E-1    2.893163150841668E-1
 8.061994445575000E9     3.768009788523443E-1    4.350634382942127E-1   -2.449037778920020E-3    3.018794866621263E-3   -2.295434359818472E-3    3.201591706353681E-3    3.880155510303960E-1    2.891447530326200E-1
 8.061995438000000E9     3.768991276240143E-1    4.348303752389604E-1   -2.467189472489990E-3    3.027932408903934E-3   -2.300536380580093E-3    3.212587899414649E-3    3.881268949858871E-1    2.892279689261819E-1
 8.061996430425000E9     3.769845910769728E-1    4.347356615582998E-1   -2.460227723508107E-3    3.026328677567898E-3   -2.296659420175602E-3    3.213604691726238E-3    3.881104983746414E-1    2.892177919180938E-1
 8.061997422850000E9     3.770537689092548E-1    4.347043782073339E-1   -2.471630882155766E-3    3.054203907513768E-3   -2.305515153801546E-3    3.225483203864750E-3    3.882548579232786E-1    2.891310722540112E-1
 8.061998415275000E9     3.771346385810752E-1    4.345676016540010E-1   -2.454308294657611E-3    3.072132678466757E-3   -2.279005382660384E-3    3.259249787905883E-3    3.881763558308828E-1    2.890345483857308E-1
 8.061999407700000E9     3.772305991944190E-1    4.345081194836881E-1   -2.467261250614181E-3    3.093381827378018E-3   -2.332856958242829E-3    3.209174667360196E-3    3.881933712042049E-1    2.888933593905217E-1
 8.062000400125000E9     3.773571101032256E-1    4.344112373628833E-1   -2.472290330038259E-3    3.085588663445073E-3   -2.317761525500903E-3    3.287327024919779E-3    3.883022794671745E-1    2.889406853557138E-1
 8.062001392550000E9     3.774442435262138E-1    4.342635101886864E-1   -2.485866649843994E-3    3.130255569647597E-3   -2.293136876625866E-3    3.280983387045190E-3    3.883306631385858E-1    2.889037995740146E-1
 8.062002384975000E9     3.774539975150525E-1    4.342063529819706E-1   -2.493063886068424E-3    3.106262518538947E-3   -2.335279804718421E-3    3.276559022400388E-3    3.882857267522336E-1    2.889174452635015E-1
 8.062003377400000E9     3.775149859315439E-1    4.341018905534723E-1   -2.491866160428821E-3    3.118818642412364E-3   -2.334803116696472E-3    3.294296582676601E-3    3.884783956514131E-1    2.887670916073792E-1
 8.062004369825000E9     3.776146384097493E-1    4.340644376570463E-1   -2.496188787949404E-3    3.126208118159206E-3   -2.333352706031049E-3    3.275515489067024E-3    3.883276089101226E-1    2.886698753819292E-1
 8.062005362250000E9     3.777983618991576E-1    4.339372374756876E-1   -2.521834408910140E-3    3.126546030105027E-3   -2.345293739726437E-3    3.303446023564254E-3    3.884346636259268E-1    2.886718984252207E-1
 8.062006354675000E9     3.778159809206315E-1    4.338934694608644E-1   -2.495496048247248E-3    3.153820249754535E-3   -2.373170497115797E-3    3.341058155078436E-3    3.884574443242211E-1    2.886213389784825E-1
 8.062007347100000E9     3.779231487654390E-1    4.337644201899093E-1   -2.509026519791321E-3    3.161337461079293E-3   -2.409861503865940E-3    3.368179659224894E-3    3.885351869468337E-1    2.886208056123375E-1
 8.062008339525000E9     3.780020515022451E-1    4.336205540501816E-1   -2.543954997673075E-3    3.152111999118396E-3   -2.339154808289955E-3    3.386605966842095E-3    3.886747111785456E-1    2.884976204538116E-1
 8.062009331950000E9     3.780775643982280E-1    4.335395778746984E-1   -2.537505964334043E-3    3.189963252085028E-3   -2.355044722104483E-3    3.399468265515002E-3    3.884928433121159E-1    2.884667789527487E-1
 8.062010324375000E9     3.781638622686117E-1    4.335207318300188E-1   -2.532827287298309E-3    3.206224716052643E-3   -2.375373707764819E-3    3.421813393779010E-3    3.886292014423362E-1    2.882362503064231E-1
 8.062011316800000E9     3.782074432046978E-1    4.333282644152398E-1   -2.518767477331742E-3    3.240671810595720E-3   -2.360317980777592E-3    3.436656100791243E-3    3.886160107231214E-1    2.883661508029974E-1
 8.062012309225000E9     3.783281326368909E-1    4.333156486210573E-1   -2.534188166204812E-3    3.247278770361545E-3   -2.384531952512015E-3    3.435403509241786E-3    3.886557700418840E-1    2.883998979857345E-1
 8.062013301650000E9     3.784443910763786E-1    4.330960829448696E-1   -2.566223024703810E-3    3.235440985613095E-3   -2.385556768136645E-3    3.431585749649471E-3    3.888013922113650E-1    2.882636363482049E-1
 8.062014294075000E9     3.786662321748109E-1    4.330336825358157E-1   -2.559360746620505E-3    3.253691375989424E-3   -2.380728332921165E-3    3.424944337418575E-3    3.887016486015541E-1    2.882492947953970E-1
 8.062015286500000E9     3.785905108530494E-1    4.330557345246987E-1   -2.561748945111655E-3    3.266305490259180E-3   -2.391401313666977E-3    3.436820179008569E-3    3.887891786921677E-1    2.882622175770990E-1
 8.062016278925000E9     3.787757497545287E-1    4.328422539017837E-1   -2.557124816381042E-3    3.291024902808404E-3   -2.405184562690771E-3    3.476019441988114E-3    3.888873389535761E-1    2.881017204203375E-1
 8.062017271350000E9     3.789381826697845E-1    4.327978400295906E-1   -2.567357037284677E-3    3.300728924475079E-3   -2.422762344746452E-3    3.484823303624847E-3    3.888041695332894E-1    2.879871746495611E-1
 8.062018263775000E9     3.789280709891150E-1    4.325981881669161E-1   -2.565980098078594E-3    3.342363084954409E-3   -2.402593109976728E-3    3.499475537971544E-3    3.888821533127116E-1    2.881696803088655E-1
 8.062019256200000E9     3.790056105994126E-1    4.324903689168652E-1   -2.574874132745251E-3    3.331644469046474E-3   -2.401545151247198E-3    3.527280824304119E-3    3.889922307728707E-1    2.879596977391848E-1
 8.062020248625000E9     3.791049360870165E-1    4.325622312755595E-1   -2.590770015913015E-3    3.335109134673653E-3   -2.387088125157206E-3    3.491090498172411E-3    3.889044778319525E-1    2.878407231975266E-1
 8.062021241050000E9     3.792223421512422E-1    4.323402702604606E-1   -2.584101782052999E-3    3.371650949999650E-3   -2.417683489724408E-3    3.568888292383816E-3    3.890348271127633E-1    2.878542192840681E-1
 8.062022233475000E9     3.793557602446873E-1    4.323112641853316E-1   -2.616554668148665E-3    3.377895362739687E-3   -2.434791204358794E-3    3.577844855697653E-3    3.890270097559353E-1    2.878450398469997E-1
 8.062023225900000E9     3.793475795967578E-1    4.321555811578165E-1   -2.599363678312821E-3    3.409771794293174E-3   -2.443609692421511E-3    3.606140451569448E-3    3.891557797404951E-1    2.879103966519788E-1
 8.062024218325000E9     3.795636834552625E-1    4.320015022014295E-1   -2.604488420558401E-3    3.405324051828017E-3   -2.423520818961382E-3    3.603712482750583E-3    3.891971482180348E-1    2.877303388322978E-1
 8.062025210750000E9     3.795803447010501E-1    4.319679025299569E-1   -2.633419263925441E-3    3.445010553014256E-3   -2.471631312036954E-3    3.598042639935495E-3    3.892078173742159E-1    2.878028388838172E-1
 8.062026203175000E9     3.797607941039024E-1    4.318354672629143E-1   -2.633367276917542E-3    3.437972229436441E-3   -2.453521168923469E-3    3.586956478405877E-3    3.891952693327005E-1    2.876226457904115E-1
 8.062027195600000E9     3.798276226817896E-1    4.318455482383128E-1   -2.634321099233639E-3    3.427247105715773E-3   -2.462428432510107E-3    3.627002209894222E-3    3.892703270990465E-1    2.875085365391806E-1
 8.062028188025000E9     3.799701538339121E-1    4.315161247508769E-1   -2.612476858336528E-3    3.439147024535457E-3   -2.488200690483612E-3    3.639556534722295E-3    3.892637510923400E-1    2.875270020089757E-1
 8.062029180450000E9     3.800102444814880E-1    4.315616965907664E-1   -2.655242743794571E-3    3.449808918015122E-3   -2.495519275893232E-3    3.629822488973926E-3    3.892991092917500E-1    2.873364840396583E-1
 8.062030172875000E9     3.802268252353399E-1    4.314069201927141E-1   -2.675612105279476E-3    3.500210613871451E-3   -2.474434495732285E-3    3.669276327118251E-3    3.894566390793014E-1    2.873325196331409E-1
 8.062031165300000E9     3.802932439756011E-1    4.312715777233439E-1   -2.693431891817405E-3    3.519995298473732E-3   -2.527644429728922E-3    3.697219832188055E-3    3.893790973255575E-1    2.873897510858222E-1
 8.062032157725000E9     3.803377738785160E-1    4.310835030345085E-1   -2.678602349072667E-3    3.517252313239705E-3   -2.470759629601460E-3    3.732550512008226E-3    3.893611566192846E-1    2.872699514899036E-1
 8.062033150150000E9     3.803529673991011E-1    4.310143208241129E-1   -2.703997875529195E-3    3.534782404698081E-3   -2.533165684895989E-3    3.760045030272437E-3    3.893226453799146E-1    2.872190878547388E-1
 8.062034142575000E9     3.803887783117295E-1    4.308501004960714E-1   -2.702715746696488E-3    3.559161281810180E-3   -2.523279827328587E-3    3.775075236948585E-3    3.896352109050465E-1    2.871941578240482E-1
 8.062035135000000E9     3.805637571664935E-1    4.307965211585987E-1   -2.681293688267093E-3    3.562930952794478E-3   -2.513917517932997E-3    3.749204908298265E-3    3.894595786336204E-1    2.872032969475911E-1
 8.062036127425000E9     3.806616863417763E-1    4.306056736873993E-1   -2.686875463514079E-3    3.602830772999663E-3   -2.521156442750805E-3    3.788660883904795E-3    3.895076170562655E-1    2.870957848021272E-1
 8.062037119850000E9     3.808491227102934E-1    4.306045623685228E-1   -2.716499736916950E-3    3.617804897218323E-3   -2.547609672106924E-3    3.796885891458585E-3    3.895525842696614E-1    2.870123475119133E-1
 8.062038112275000E9     3.808507096691969E-1    4.304153373357883E-1   -2.747539495530718E-3    3.642295789429174E-3   -2.546726520053577E-3    3.826360074399733E-3    3.896691179043883E-1    2.868436201519313E-1
 8.062039104700000E9     3.810071140532260E-1    4.302898537537934E-1   -2.739394269699372E-3    3.668352143881825E-3   -2.540101277356707E-3    3.845088165972688E-3    3.896755274197098E-1    2.868658049846859E-1
 8.062040097125000E9     3.811526210240541E-1    4.301938592419565E-1   -2.740437314791362E-3    3.690239164477316E-3   -2.569628002231263E-3    3.875736914788906E-3    3.896697185463464E-1    2.867969572320537E-1
 8.062041089550000E9     3.813366448619500E-1    4.300007191166818E-1   -2.756900748716528E-3    3.690624098638496E-3   -2.580343163516914E-3    3.887559242510294E-3    3.895988614169908E-1    2.867821533995495E-1
 8.062042081975000E9     3.812483567818150E-1    4.298734875861129E-1   -2.768900662093498E-3    3.695991724310594E-3   -2.585140993389095E-3    3.886002600068160E-3    3.897274505219582E-1    2.867055720945042E-1
 8.062043074400000E9     3.813743052726041E-1    4.299480376048205E-1   -2.777110563052678E-3    3.715907849370721E-3   -2.587681818696403E-3    3.927396153773059E-3    3.897311268507425E-1    2.867257682933224E-1
 8.062044066825000E9     3.816002175448340E-1    4.296690628774770E-1   -2.779520631999252E-3    3.760999012832979E-3   -2.576488405404079E-3    3.964279492720569E-3    3.897872929061413E-1    2.866901538227401E-1
 8.062045059250000E9     3.815526173644996E-1    4.295157327996848E-1   -2.788506441206507E-3    3.748953607284052E-3   -2.571015846448933E-3    3.965212388985189E-3    3.899308785679210E-1    2.866185527008662E-1
