#  HZ   S   RI   R     50.00 
! Rohde & Schwarz Vector Network Analyzer 
! Rohde-Schwarz,ZNB20-2Port,1311601062101988,3.16
! Created: UTC 3/20/2024, 10:58:26 PM
! freq[Hz]                re:S11                  im:S11                  re:S21                  im:S21                  re:S12                  im:S12                  re:S22                  im:S22
 8.061950688000000E9     3.731191975422520E-1    4.383311350692092E-1   -2.268532002249324E-3    2.692279214776978E-3   -2.102919466272146E-3    2.825655367047066E-3    3.867974545263731E-1    2.913475053604900E-1
 8.061951698350000E9     3.731478066692022E-1    4.382788745847779E-1   -2.270367811760177E-3    2.657315232936159E-3   -2.154069399785336E-3    2.855693262134633E-3    3.868607222078045E-1    2.913307293635343E-1
 8.061952708700000E9     3.732735974457522E-1    4.381819897455377E-1   -2.281776948917045E-3    2.688937658468432E-3   -2.163094116617560E-3    2.837562860246070E-3    3.867534915249127E-1    2.913508832679305E-1
 8.061953719050000E9     3.734711431973748E-1    4.382351681957608E-1   -2.268266084995957E-3    2.706372444661814E-3   -2.145617570947183E-3    2.861051300836657E-3    3.869866044326204E-1    2.911558130343699E-1
 8.061954729400000E9     3.735253808194168E-1    4.380938618294835E-1   -2.288810719643416E-3    2.710424844390360E-3   -2.137254372548946E-3    2.886174209790787E-3    3.869228188802652E-1    2.911558270680230E-1
 8.061955739750000E9     3.736396454663249E-1    4.380321152019525E-1   -2.283051559337215E-3    2.731820740540865E-3   -2.130854981462556E-3    2.884770507345002E-3    3.868465430476862E-1    2.911842873001008E-1
 8.061956750100000E9     3.735291577644436E-1    4.379430202353529E-1   -2.289748492502343E-3    2.738474531513951E-3   -2.146670263251710E-3    2.915671640325516E-3    3.871371425928499E-1    2.912145566103839E-1
 8.061957760450000E9     3.737318709568187E-1    4.379690690373584E-1   -2.287509493637945E-3    2.719894422349118E-3   -2.185573681528799E-3    2.893674944406336E-3    3.870223720755565E-1    2.910284963528771E-1
 8.061958770800000E9     3.738347772027481E-1    4.377954228796848E-1   -2.279188289526398E-3    2.743675600463984E-3   -2.117186340932576E-3    2.887098454456675E-3    3.868829361970781E-1    2.910191389666323E-1
 8.061959781150000E9     3.739243933233873E-1    4.377634119424462E-1   -2.283546015010159E-3    2.744163895229487E-3   -2.166862933662362E-3    2.935932549106662E-3    3.871828453425318E-1    2.909820030299378E-1
 8.061960791500000E9     3.739250823954743E-1    4.375936089346597E-1   -2.294783176956217E-3    2.756561084457556E-3   -2.164406804357301E-3    2.918434484791713E-3    3.870989260974537E-1    2.907850303633013E-1
 8.061961801850000E9     3.741009295658677E-1    4.375521309287665E-1   -2.295219768947618E-3    2.760965274509128E-3   -2.162813897609910E-3    2.885716137287368E-3    3.871360900349158E-1    2.908073633364586E-1
 8.061962812200000E9     3.741128388308472E-1    4.375145167401935E-1   -2.302774791020177E-3    2.757041128973940E-3   -2.186184468494993E-3    2.927584386463835E-3    3.871927076868708E-1    2.906692571868238E-1
 8.061963822550000E9     3.742930176270465E-1    4.375196297012761E-1   -2.327619550854954E-3    2.783445972541894E-3   -2.192961922912487E-3    2.927075097071697E-3    3.872254848686341E-1    2.907420556404826E-1
 8.061964832900000E9     3.742513613856231E-1    4.372513839510608E-1   -2.323625936232532E-3    2.786600837465954E-3   -2.188064463588818E-3    2.962384250877038E-3    3.873306480860152E-1    2.907811657862669E-1
 8.061965843250000E9     3.744276332307562E-1    4.372047985181129E-1   -2.316528309525423E-3    2.796958654758713E-3   -2.144866841830317E-3    2.976144118401788E-3    3.872826999599214E-1    2.906568512233891E-1
 8.061966853600000E9     3.744652114381659E-1    4.371231490293209E-1   -2.319684185776641E-3    2.817428506171713E-3   -2.187175479785674E-3    2.980988920159964E-3    3.873007784167515E-1    2.905692484983377E-1
 8.061967863950000E9     3.745264458583482E-1    4.371039082874125E-1   -2.327499018378797E-3    2.801273795356103E-3   -2.149125218564538E-3    2.960119612435256E-3    3.874519234992732E-1    2.903657959136265E-1
 8.061968874300000E9     3.746212574081497E-1    4.370642261482646E-1   -2.351068486720117E-3    2.806541584759539E-3   -2.198602063258542E-3    2.955161366299715E-3    3.873693027541953E-1    2.904847392103176E-1
 8.061969884650000E9     3.748650598483124E-1    4.368851744841629E-1   -2.334623842127616E-3    2.833325030279222E-3   -2.187783037731314E-3    2.967324562704072E-3    3.874675141492016E-1    2.905097548959327E-1
 8.061970895000000E9     3.748867640922544E-1    4.369130428667297E-1   -2.361492106417778E-3    2.850969384951969E-3   -2.235467495070729E-3    3.011386385466365E-3    3.874505900042504E-1    2.904211266607141E-1
 8.061971905350000E9     3.749925433054646E-1    4.367360143827232E-1   -2.370360993091708E-3    2.836805742531106E-3   -2.239877255652114E-3    2.989736620650316E-3    3.874486958605682E-1    2.903695369266350E-1
 8.061972915700000E9     3.750525667580007E-1    4.366687048674858E-1   -2.354267356146206E-3    2.850544800656530E-3   -2.214621606553307E-3    3.027910658806484E-3    3.874245413965708E-1    2.903495533221508E-1
 8.061973926050000E9     3.750133271814642E-1    4.364939859225780E-1   -2.339514979755891E-3    2.847879795803187E-3   -2.201884393469951E-3    3.025270879957112E-3    3.876458369744779E-1    2.902495778605306E-1
 8.061974936400000E9     3.751334992518510E-1    4.364690045390061E-1   -2.349282525781844E-3    2.876396747894663E-3   -2.254490888499699E-3    3.029662683200333E-3    3.877197051211132E-1    2.901420993676959E-1
 8.061975946750000E9     3.751011046138998E-1    4.364941948135242E-1   -2.339545698969440E-3    2.838041334045744E-3   -2.267302989185236E-3    3.047775800099159E-3    3.877801944090271E-1    2.902420885222013E-1
 8.061976957100000E9     3.753909187471283E-1    4.363799926284463E-1   -2.381492602907250E-3    2.867550218436550E-3   -2.213366208927495E-3    3.012099130510479E-3    3.877888588213828E-1    2.901487747669795E-1
 8.061977967450000E9     3.753628367369619E-1    4.362108541279959E-1   -2.359706365633750E-3    2.863348411228076E-3   -2.215953155625922E-3    3.067033063282979E-3    3.876033192348401E-1    2.900290793331434E-1
 8.061978977800000E9     3.753728883949950E-1    4.361455558983868E-1   -2.386600386840931E-3    2.895589479687594E-3   -2.268430540338235E-3    3.052290083042060E-3    3.878447047095954E-1    2.898905072117218E-1
 8.061979988150000E9     3.754942577890267E-1    4.360190471581833E-1   -2.393820788237369E-3    2.897267252146490E-3   -2.250697728663157E-3    3.062825213403881E-3    3.878255276161051E-1    2.899445007421971E-1
 8.061980998500000E9     3.756767744465046E-1    4.360269881747081E-1   -2.416782599507597E-3    2.913189735779447E-3   -2.246597471893751E-3    3.058155882605351E-3    3.877872655734367E-1    2.899198930186606E-1
 8.061982008850000E9     3.756761636768331E-1    4.358381628446759E-1   -2.399131094803753E-3    2.936895226625080E-3   -2.239578198823360E-3    3.083853302547348E-3    3.878985438284361E-1    2.897579967288078E-1
 8.061983019200000E9     3.758647777337367E-1    4.358603560420063E-1   -2.385219785184585E-3    2.950837100673168E-3   -2.260198213250166E-3    3.101816859023297E-3    3.877967013669346E-1    2.896896226189444E-1
 8.061984029550000E9     3.759187945600437E-1    4.357508807042171E-1   -2.412135507312720E-3    2.942821232280173E-3   -2.245107802965784E-3    3.105774732190478E-3    3.878659302134743E-1    2.897884033304731E-1
 8.061985039900000E9     3.760299295258827E-1    4.357945004486738E-1   -2.398794436376390E-3    2.957050598041733E-3   -2.278257679830619E-3    3.114856372818895E-3    3.880121210112160E-1    2.897505341572987E-1
 8.061986050250000E9     3.761261294924949E-1    4.356668063335635E-1   -2.415539872464215E-3    2.948903464148092E-3   -2.250650021489765E-3    3.136552618511945E-3    3.879179065535495E-1    2.895166100931763E-1
 8.061987060600000E9     3.762321329164480E-1    4.355035268137415E-1   -2.436410498876142E-3    2.977163446134926E-3   -2.248507614685852E-3    3.184498086817080E-3    3.879518177046446E-1    2.896703018993748E-1
 8.061988070950000E9     3.762653061769082E-1    4.354683676969225E-1   -2.403981014284334E-3    2.962871174865581E-3   -2.286900536981234E-3    3.167839988180110E-3    3.879707736917954E-1    2.895553837568922E-1
 8.061989081300000E9     3.763803791077019E-1    4.354694608837320E-1   -2.403035333006732E-3    2.981125551112181E-3   -2.291271396887716E-3    3.153409389961646E-3    3.880453472048731E-1    2.894413855078752E-1
 8.061990091650000E9     3.764909347367732E-1    4.353628467276142E-1   -2.433836754328642E-3    2.980076478338115E-3   -2.307904003914876E-3    3.158092386348809E-3    3.880839344663042E-1    2.893236232363943E-1
 8.061991102000000E9     3.764705756595846E-1    4.352139053862410E-1   -2.456361173660185E-3    3.015183014992515E-3   -2.291414232668918E-3    3.200881042630398E-3    3.882796819137261E-1    2.894048028214073E-1
 8.061992112350000E9     3.765443695528805E-1    4.351679890214794E-1   -2.417648832512082E-3    3.023953651567105E-3   -2.287201527093807E-3    3.178578297876481E-3    3.882036974512092E-1    2.893328476342560E-1
 8.061993122700000E9     3.767237887960813E-1    4.349394533097965E-1   -2.440152200294613E-3    3.052222234050174E-3   -2.296640047516508E-3    3.237281375298170E-3    3.882551800262551E-1    2.893954919041493E-1
 8.061994133050000E9     3.768180843421651E-1    4.349716858825370E-1   -2.443450522540116E-3    3.030670651186658E-3   -2.263926368991049E-3    3.197450087516646E-3    3.884194418947088E-1    2.891812374863006E-1
 8.061995143400000E9     3.768723456290593E-1    4.348402792651568E-1   -2.457403985674434E-3    3.053869094561840E-3   -2.339171509700071E-3    3.218736854715159E-3    3.883120351404371E-1    2.892504006622283E-1
 8.061996153750000E9     3.768564645657450E-1    4.346559139422678E-1   -2.467627446424142E-3    3.071633842772353E-3   -2.315383774105469E-3    3.231264389221938E-3    3.883272734413309E-1    2.890971442188000E-1
 8.061997164100000E9     3.769706213415164E-1    4.346695542242557E-1   -2.475439094023680E-3    3.066340473261657E-3   -2.289537092916733E-3    3.240613976711266E-3    3.884351238393459E-1    2.891717371056725E-1
 8.061998174450000E9     3.772474560914398E-1    4.345606079910410E-1   -2.464705149358688E-3    3.056535766180941E-3   -2.339033291242286E-3    3.271565903243127E-3    3.883775864443020E-1    2.890525125167627E-1
 8.061999184800000E9     3.773397877913134E-1    4.344654998260761E-1   -2.494011100512305E-3    3.107299824092464E-3   -2.331950438615484E-3    3.295385552855162E-3    3.886027352937206E-1    2.890368555248243E-1
 8.062000195150000E9     3.773868579864687E-1    4.343592797993683E-1   -2.482835848798699E-3    3.108419222862301E-3   -2.322666015661686E-3    3.279677003999145E-3    3.885234349474023E-1    2.888799632832622E-1
 8.062001205500000E9     3.773479880242916E-1    4.344078334380357E-1   -2.500401301896427E-3    3.089514584409260E-3   -2.308132523788762E-3    3.272904434198287E-3    3.885245941421286E-1    2.888050212844846E-1
 8.062002215850000E9     3.775429773511846E-1    4.342379998957897E-1   -2.477270235836358E-3    3.121517351097567E-3   -2.332219823116956E-3    3.268885923523215E-3    3.885320156978150E-1    2.888061632105119E-1
 8.062003226200000E9     3.776224592552471E-1    4.341211229753135E-1   -2.521246395053530E-3    3.149230903168401E-3   -2.346275813977577E-3    3.325151268461894E-3    3.886538936554903E-1    2.887159680964640E-1
 8.062004236550000E9     3.777481658909756E-1    4.339412587050397E-1   -2.513485484825503E-3    3.144476415385558E-3   -2.334982256370743E-3    3.286129115172297E-3    3.886114840542708E-1    2.888173084499887E-1
 8.062005246900000E9     3.777947622063190E-1    4.337815918895027E-1   -2.515588131827113E-3    3.159157535876022E-3   -2.333726506875577E-3    3.336687764269894E-3    3.885586256941521E-1    2.886891704107811E-1
 8.062006257250000E9     3.778235107418060E-1    4.338757119657720E-1   -2.524443541100633E-3    3.145141601262762E-3   -2.350548421962281E-3    3.346402055367576E-3    3.886518340285292E-1    2.886408917793217E-1
 8.062007267600000E9     3.779722321465118E-1    4.336991277069972E-1   -2.511019659544511E-3    3.180002975406309E-3   -2.361549307004808E-3    3.370150810298257E-3    3.888513966404977E-1    2.885836598305137E-1
 8.062008277950000E9     3.780180151370613E-1    4.336620173113013E-1   -2.532154582908678E-3    3.191657837268527E-3   -2.351978295795065E-3    3.385972699461710E-3    3.888506223717055E-1    2.885435460111466E-1
 8.062009288300000E9     3.781168617065432E-1    4.334662251497822E-1   -2.537109408605219E-3    3.206306734450509E-3   -2.381843847821781E-3    3.434619383571774E-3    3.888956438091120E-1    2.884814817456953E-1
 8.062010298650000E9     3.782599900851027E-1    4.334992984392184E-1   -2.542749944746789E-3    3.222204005565168E-3   -2.390945458212972E-3    3.382495405619565E-3    3.888611920799454E-1    2.883074311332839E-1
 8.062011309000000E9     3.782825349587531E-1    4.333377287593776E-1   -2.536623488830563E-3    3.224492065902731E-3   -2.340743365485983E-3    3.448401952138341E-3    3.889539117368327E-1    2.882984831036839E-1
 8.062012319350000E9     3.784216600119694E-1    4.333408403846431E-1   -2.574128718596104E-3    3.238874618618031E-3   -2.361864977790404E-3    3.454190379785416E-3    3.890782063863616E-1    2.882640508221211E-1
 8.062013329700000E9     3.784908060704437E-1    4.330949317785112E-1   -2.567504457091745E-3    3.278897966306803E-3   -2.356276632769716E-3    3.457238117071952E-3    3.889141026140678E-1    2.883285562936583E-1
 8.062014340050000E9     3.787293850787510E-1    4.329768885985401E-1   -2.565025187745942E-3    3.266661751066087E-3   -2.377172319201335E-3    3.487057246015606E-3    3.890049370247354E-1    2.881963306259654E-1
 8.062015350400000E9     3.785921349105716E-1    4.329971639869773E-1   -2.567013832113224E-3    3.304657279959921E-3   -2.419398504559048E-3    3.486046102186606E-3    3.890423773985973E-1    2.881376337664613E-1
 8.062016360750000E9     3.787919818694949E-1    4.327290330018265E-1   -2.563257338434011E-3    3.316282774277059E-3   -2.380332489845678E-3    3.483360412210409E-3    3.889620856371745E-1    2.880983004576118E-1
 8.062017371100000E9     3.788791259264593E-1    4.326522782442361E-1   -2.583047984408548E-3    3.323221173523591E-3   -2.414435835446958E-3    3.524062422297969E-3    3.890090088029683E-1    2.881019286679929E-1
 8.062018381450000E9     3.789738664233192E-1    4.325981882876681E-1   -2.591718462288082E-3    3.322464922185944E-3   -2.439959531713460E-3    3.534772006362833E-3    3.891677781337605E-1    2.879554011213782E-1
 8.062019391800000E9     3.791083961771496E-1    4.324980372842918E-1   -2.593852922834548E-3    3.356479445157480E-3   -2.438379356553589E-3    3.519591167954791E-3    3.890868923181333E-1    2.878988609996377E-1
 8.062020402150000E9     3.792454952864932E-1    4.324176318412010E-1   -2.584445838188384E-3    3.361587071324816E-3   -2.413762753462730E-3    3.527530984352224E-3    3.891716028031198E-1    2.878981627840278E-1
 8.062021412500000E9     3.793828756566575E-1    4.323525002638546E-1   -2.606817273358400E-3    3.374807080985500E-3   -2.427626349462693E-3    3.570310418141874E-3    3.891603652408095E-1    2.878302643406195E-1
 8.062022422850000E9     3.792977680360614E-1    4.320991205865889E-1   -2.602691538927492E-3    3.401245112806534E-3   -2.458983125829328E-3    3.582189065607652E-3    3.892185275800438E-1    2.877202265319020E-1
 8.062023433200000E9     3.795842615636570E-1    4.320154515471095E-1   -2.606601015638251E-3    3.400289854487184E-3   -2.459178291340272E-3    3.597901776155986E-3    3.893679354541839E-1    2.876707047836728E-1
 8.062024443550000E9     3.794978951097636E-1    4.318894369417230E-1   -2.641610232207005E-3    3.426266372657725E-3   -2.457585800200802E-3    3.564163056797104E-3    3.893747848027100E-1    2.876324472626320E-1
 8.062025453900000E9     3.797038018935809E-1    4.317406312247923E-1   -2.647625125530026E-3    3.425779700598112E-3   -2.449518196311472E-3    3.669057629869840E-3    3.894173674085580E-1    2.876212733813908E-1
 8.062026464250000E9     3.797315034398994E-1    4.317324577465911E-1   -2.650441978188913E-3    3.460565217576976E-3   -2.478809227658582E-3    3.652376570531569E-3    3.894332806183108E-1    2.876928184251997E-1
 8.062027474600000E9     3.799678746984285E-1    4.315827845636256E-1   -2.655692254304241E-3    3.459803646532798E-3   -2.498567590371990E-3    3.654588433980753E-3    3.895076881026457E-1    2.875528085510450E-1
 8.062028484950000E9     3.799700416589103E-1    4.314690173487648E-1   -2.647106191868146E-3    3.498316408128080E-3   -2.490781020645744E-3    3.719092756813068E-3    3.896161044308387E-1    2.874490055884166E-1
 8.062029495300000E9     3.800485285472729E-1    4.313268938109071E-1   -2.669603096624099E-3    3.500847878270245E-3   -2.521830201001440E-3    3.711927138140246E-3    3.895001898950144E-1    2.873987884970525E-1
 8.062030505650000E9     3.803108861079142E-1    4.312827519933570E-1   -2.689407648477882E-3    3.515154712023174E-3   -2.503276513629801E-3    3.706458736571455E-3    3.896004403697024E-1    2.874330864505069E-1
 8.062031516000000E9     3.802262152405246E-1    4.310261305643833E-1   -2.693339664904177E-3    3.539518681248425E-3   -2.496649232010035E-3    3.745769046347797E-3    3.895185152953125E-1    2.873333188108576E-1
 8.062032526350000E9     3.802966063938731E-1    4.310513900395456E-1   -2.686802202611214E-3    3.551414782206311E-3   -2.508306752860449E-3    3.771908395505877E-3    3.897086258757521E-1    2.872542482265547E-1
 8.062033536700000E9     3.803205656366162E-1    4.309893047127963E-1   -2.704186461802126E-3    3.592984800319725E-3   -2.531338233743754E-3    3.784608766749230E-3    3.896915588265363E-1    2.872683048725751E-1
 8.062034547050000E9     3.806835388887093E-1    4.308095154640402E-1   -2.750590579055543E-3    3.584961893799394E-3   -2.530293410366962E-3    3.793485251195765E-3    3.895973600763741E-1    2.871584691653791E-1
 8.062035557400000E9     3.807301524964720E-1    4.306214606228206E-1   -2.713111069849421E-3    3.597397828988855E-3   -2.520113298135362E-3    3.824799739792792E-3    3.896850160120512E-1    2.870819394377061E-1
 8.062036567750000E9     3.808611089677356E-1    4.304704732453597E-1   -2.714684224278726E-3    3.620608975350956E-3   -2.527796247435684E-3    3.789455264223979E-3    3.897648928437683E-1    2.869775744451464E-1
 8.062037578100000E9     3.808440054440181E-1    4.303721304312486E-1   -2.722540565162088E-3    3.632584132378463E-3   -2.549093275084963E-3    3.850690010069907E-3    3.897233894637934E-1    2.869995080828958E-1
 8.062038588450000E9     3.809195314634985E-1    4.302940440665552E-1   -2.735751202160058E-3    3.665177509827455E-3   -2.533735695082104E-3    3.899294525717461E-3    3.898713094668544E-1    2.870267529393223E-1
 8.062039598800000E9     3.810473871579886E-1    4.301891783004488E-1   -2.740871949263963E-3    3.679067101840898E-3   -2.552497042028788E-3    3.875686047229321E-3    3.897905389700783E-1    2.869433250366910E-1
 8.062040609150000E9     3.811729485616037E-1    4.300473996658959E-1   -2.753074220664851E-3    3.711049203957739E-3   -2.575931616390937E-3    3.944033481220705E-3    3.898082745351332E-1    2.869481646065992E-1
 8.062041619500000E9     3.813975734317600E-1    4.299160303025424E-1   -2.762226100302763E-3    3.733438014571772E-3   -2.567004346563612E-3    3.921837173992500E-3    3.899496294840778E-1    2.867600375125406E-1
