#  HZ   S   RI   R     50.00 
! Rohde & Schwarz Vector Network Analyzer 
! Rohde-Schwarz,ZNB20-2Port,1311601062101988,3.16
! Created: UTC 3/20/2024, 10:58:51 PM
! freq[Hz]                re:S11                  im:S11                  re:S21                  im:S21                  re:S12                  im:S12                  re:S22                  im:S22
 8.061941890000000E9     3.726277765468118E-1    4.388492094174159E-1   -2.295330521580688E-3    2.668398898602637E-3   -2.112647445631610E-3    2.824280817043169E-3    3.875075543982806E-1    2.919451767891818E-1
 8.061942912500000E9     3.727748156473540E-1    4.387252517198966E-1   -2.263455540348634E-3    2.683645836956063E-3   -2.123666365238071E-3    2.843917962229940E-3    3.874565809600541E-1    2.917804868908814E-1
 8.061943935000000E9     3.728157988519260E-1    4.387430570278528E-1   -2.280386029312804E-3    2.676434671786237E-3   -2.097212841357211E-3    2.844153864254001E-3    3.875443478457167E-1    2.917743476570318E-1
 8.061944957500000E9     3.727513069480987E-1    4.384711494806648E-1   -2.276528678595552E-3    2.675093887975034E-3   -2.156022878176983E-3    2.841744709348960E-3    3.874655119443435E-1    2.917040880162640E-1
 8.061945980000000E9     3.730241615244440E-1    4.384684696957422E-1   -2.262205785878926E-3    2.706520370986637E-3   -2.163953877775504E-3    2.898122104802560E-3    3.875706962480844E-1    2.916343223985575E-1
 8.061947002500000E9     3.731268921601055E-1    4.383875300830063E-1   -2.305553250429515E-3    2.687899374643859E-3   -2.138983972184553E-3    2.863065683888668E-3    3.877607492349306E-1    2.915949949872659E-1
 8.061948025000000E9     3.733401058034915E-1    4.383059855616752E-1   -2.275722638226421E-3    2.698843284691437E-3   -2.114107605452905E-3    2.853946725358639E-3    3.876694202819924E-1    2.914769285180077E-1
 8.061949047500000E9     3.732579585108516E-1    4.383229227003985E-1   -2.273905404402993E-3    2.715547710457530E-3   -2.152498594863962E-3    2.888958455541069E-3    3.876393038432102E-1    2.914429186610031E-1
 8.061950070000000E9     3.733481381479005E-1    4.381578527039904E-1   -2.302222765746324E-3    2.725294843956656E-3   -2.151811063520897E-3    2.885878013285775E-3    3.876238066025831E-1    2.914331457604297E-1
 8.061951092500000E9     3.734255474219385E-1    4.380000176393257E-1   -2.294953889922743E-3    2.719544502852645E-3   -2.123807790493445E-3    2.928856300958192E-3    3.877540367051310E-1    2.914557626219569E-1
 8.061952115000000E9     3.733823065828385E-1    4.380424222838096E-1   -2.301805224313505E-3    2.748324471227388E-3   -2.152644157631163E-3    2.872508791108592E-3    3.879267872906150E-1    2.912510803512827E-1
 8.061953137500000E9     3.736007043639775E-1    4.379494295672932E-1   -2.319175460694595E-3    2.735937628079391E-3   -2.122868122255771E-3    2.943636237485889E-3    3.879413191586840E-1    2.912816145924707E-1
 8.061954160000000E9     3.737018779659866E-1    4.378401506452722E-1   -2.316815583284242E-3    2.754629967755942E-3   -2.165064812481083E-3    2.912323066641986E-3    3.877988272056914E-1    2.912338429760368E-1
 8.061955182500000E9     3.737692288749808E-1    4.378094667037924E-1   -2.294793461702947E-3    2.785655426482936E-3   -2.126552182139366E-3    2.913942714229498E-3    3.878887793846065E-1    2.910122291741433E-1
 8.061956205000000E9     3.737757046751496E-1    4.377566123789973E-1   -2.305893361161784E-3    2.753972274875766E-3   -2.174321061728116E-3    2.924769013882320E-3    3.879488094134703E-1    2.911799195100583E-1
 8.061957227500000E9     3.739571058865442E-1    4.375966091301405E-1   -2.297519626011297E-3    2.797724548748975E-3   -2.184059731038406E-3    2.991466068627049E-3    3.879463576156062E-1    2.909426861449610E-1
 8.061958250000000E9     3.739849582487931E-1    4.375487358789656E-1   -2.309501310091340E-3    2.763877807388512E-3   -2.154023565679323E-3    2.936034467886829E-3    3.879930764548243E-1    2.911030160593170E-1
 8.061959272500000E9     3.739936818013554E-1    4.374619639818668E-1   -2.322329810044656E-3    2.794888771229597E-3   -2.175780120056205E-3    2.954128660907304E-3    3.879728273430005E-1    2.908961786309018E-1
 8.061960295000000E9     3.741377980001341E-1    4.374245009624444E-1   -2.348440367245296E-3    2.793381674184390E-3   -2.176607118980355E-3    2.976638977227854E-3    3.881578888555660E-1    2.909878521763944E-1
 8.061961317500000E9     3.743122402624915E-1    4.373365962791453E-1   -2.332896219326000E-3    2.813821790239212E-3   -2.152509314342811E-3    2.953765577164949E-3    3.880338140248366E-1    2.907519206936067E-1
 8.061962340000000E9     3.743400046554000E-1    4.373423210794449E-1   -2.357554790135569E-3    2.823135646606912E-3   -2.176169311194384E-3    3.002669222832064E-3    3.881503803961173E-1    2.909434399348778E-1
 8.061963362500000E9     3.743709937595711E-1    4.373072334469896E-1   -2.327162940177530E-3    2.844081587685629E-3   -2.202048608569072E-3    2.991314887418977E-3    3.880787136875352E-1    2.907274724902035E-1
 8.061964385000000E9     3.743770934155976E-1    4.369916629712667E-1   -2.323180383391283E-3    2.839170430242581E-3   -2.175317232146463E-3    3.009956822145925E-3    3.881110910056903E-1    2.907783968163851E-1
 8.061965407500000E9     3.744816465699233E-1    4.369822051942492E-1   -2.337505223366791E-3    2.844520995149142E-3   -2.173805057850261E-3    3.027992696922873E-3    3.882117587457413E-1    2.906980851213656E-1
 8.061966430000000E9     3.745745390094509E-1    4.370275164509170E-1   -2.340325561704925E-3    2.848187550405386E-3   -2.196537214482595E-3    3.011234699750619E-3    3.882205422161640E-1    2.906971286018755E-1
 8.061967452500000E9     3.746874234153717E-1    4.368518616123111E-1   -2.362309122484884E-3    2.850467119370100E-3   -2.199330282312584E-3    3.003706358474902E-3    3.882489578234685E-1    2.905982039894350E-1
 8.061968475000000E9     3.748249798960218E-1    4.367684790713298E-1   -2.361884706055860E-3    2.858908300334247E-3   -2.229737607350357E-3    3.054525087698722E-3    3.881865133652864E-1    2.905069016217864E-1
 8.061969497500000E9     3.747760603738947E-1    4.367173595347563E-1   -2.362916111141972E-3    2.882696118476728E-3   -2.232229527659469E-3    3.019620191634548E-3    3.883044206111311E-1    2.904086945245473E-1
 8.061970520000000E9     3.749833452630159E-1    4.366394297919849E-1   -2.380296350312470E-3    2.872785065409899E-3   -2.250134080648712E-3    3.059543066255674E-3    3.884487112077361E-1    2.902740502801648E-1
 8.061971542500000E9     3.751076289312673E-1    4.364685682543253E-1   -2.373911489162818E-3    2.906529847762281E-3   -2.254350220906820E-3    3.050457769902789E-3    3.885541419220961E-1    2.903011770399608E-1
 8.061972565000000E9     3.751792111902026E-1    4.365070216493240E-1   -2.373313418910893E-3    2.908936802332083E-3   -2.189669028528601E-3    3.071029468172531E-3    3.883758652661395E-1    2.902978802722370E-1
 8.061973587500000E9     3.751569035486718E-1    4.364494319760816E-1   -2.388166773323186E-3    2.890467046560452E-3   -2.225859999337662E-3    3.056752877051521E-3    3.884345014502560E-1    2.903804314229018E-1
 8.061974610000000E9     3.752743751741924E-1    4.362392273335149E-1   -2.363856207467929E-3    2.927683972466573E-3   -2.220688220629780E-3    3.072333892140593E-3    3.885742740410503E-1    2.901350239584980E-1
 8.061975632500000E9     3.753772801441723E-1    4.361718242699984E-1   -2.398314479189481E-3    2.925624609971741E-3   -2.232084857961294E-3    3.083328915468137E-3    3.887476225079662E-1    2.901103876451159E-1
 8.061976655000000E9     3.755376164600371E-1    4.361807937710195E-1   -2.391764173175967E-3    2.957311419908432E-3   -2.242831408172411E-3    3.085026412881637E-3    3.886058055873763E-1    2.901520305173610E-1
 8.061977677500000E9     3.756484203299137E-1    4.359942401100333E-1   -2.390750824380148E-3    2.954494782643610E-3   -2.275190983009653E-3    3.108204310436236E-3    3.887459246729589E-1    2.900963065091670E-1
 8.061978700000000E9     3.756570404695782E-1    4.358485920626458E-1   -2.417422292440510E-3    2.954719583918215E-3   -2.272011941875774E-3    3.137625954495520E-3    3.887209720707524E-1    2.899670048267685E-1
 8.061979722500000E9     3.758414811531746E-1    4.358122605113604E-1   -2.421166732737687E-3    2.961554859403076E-3   -2.263406153633259E-3    3.137876623484056E-3    3.887480573753865E-1    2.900485339180954E-1
 8.061980745000000E9     3.759107193953229E-1    4.357665668399680E-1   -2.394366456015231E-3    2.946226407348985E-3   -2.270036348279038E-3    3.159520794647268E-3    3.887365204452098E-1    2.898583636037558E-1
 8.061981767500000E9     3.758616077242207E-1    4.357864968685115E-1   -2.393491924340064E-3    2.974669515868403E-3   -2.319808215393006E-3    3.141999955572969E-3    3.887956239813792E-1    2.898487353719353E-1
 8.061982790000000E9     3.759958519286719E-1    4.356774139441198E-1   -2.394810131356050E-3    2.995215038596393E-3   -2.259310057260648E-3    3.170656151718243E-3    3.888645164528372E-1    2.898297884143993E-1
 8.061983812500000E9     3.761474895759330E-1    4.354985373228807E-1   -2.447179408664256E-3    2.997554984521110E-3   -2.280151238325686E-3    3.176024806654684E-3    3.888625319618950E-1    2.897563939046551E-1
 8.061984835000000E9     3.761659914319828E-1    4.354340374465074E-1   -2.443013999741753E-3    2.998804102418708E-3   -2.309804337955444E-3    3.212669255909048E-3    3.889003520308664E-1    2.896978503338838E-1
 8.061985857500000E9     3.762745098611853E-1    4.353032618324665E-1   -2.447577016608253E-3    3.019081359059033E-3   -2.300477795508962E-3    3.195550623388017E-3    3.890235161017327E-1    2.897067453566579E-1
 8.061986880000000E9     3.763632343063006E-1    4.352314993131623E-1   -2.428967338222027E-3    3.035081153295676E-3   -2.260368918621970E-3    3.240914206047634E-3    3.890247273351055E-1    2.894354254843468E-1
 8.061987902500000E9     3.764988402930959E-1    4.351608927434357E-1   -2.450856675146555E-3    3.054007161624439E-3   -2.274865220544129E-3    3.204869006810086E-3    3.889254009311951E-1    2.896082742867322E-1
 8.061988925000000E9     3.764483168932362E-1    4.351410558700823E-1   -2.457308278797695E-3    3.059708694596327E-3   -2.286231116270831E-3    3.212556234749384E-3    3.891632088909271E-1    2.895810169809361E-1
 8.061989947500000E9     3.766521278676068E-1    4.349668011854551E-1   -2.468172709330836E-3    3.073735187956239E-3   -2.296902500263888E-3    3.241946822202204E-3    3.891172064277741E-1    2.894265397002251E-1
 8.061990970000000E9     3.767228404649559E-1    4.349013063659793E-1   -2.469929348238076E-3    3.072136430376890E-3   -2.295604398577475E-3    3.239031077955032E-3    3.890102851896510E-1    2.893894335309867E-1
 8.061991992500000E9     3.767928576555318E-1    4.349181717382206E-1   -2.462144950729862E-3    3.091586746364453E-3   -2.313010702097273E-3    3.260322449911769E-3    3.891617228527151E-1    2.892883358626204E-1
 8.061993015000000E9     3.769568499061530E-1    4.346446039445638E-1   -2.472077366659064E-3    3.103627503806573E-3   -2.331924618156789E-3    3.248790456002860E-3    3.891591300330549E-1    2.893539207228543E-1
 8.061994037500000E9     3.769429629827670E-1    4.346190633974544E-1   -2.493501508099287E-3    3.098272462113414E-3   -2.314305073778114E-3    3.296275144391935E-3    3.892728482080511E-1    2.891641296803780E-1
 8.061995060000000E9     3.770185967162267E-1    4.343549903079684E-1   -2.494326946846518E-3    3.123634408733359E-3   -2.333541986534159E-3    3.267666167570812E-3    3.893246391400674E-1    2.890828021010829E-1
 8.061996082500000E9     3.771836931017659E-1    4.343849918859723E-1   -2.497848320644069E-3    3.134651585227676E-3   -2.352605639794206E-3    3.319437344665164E-3    3.892493462426548E-1    2.890304267262029E-1
 8.061997105000000E9     3.772864804791871E-1    4.343322757909376E-1   -2.514862103690035E-3    3.158666092962601E-3   -2.309061557877860E-3    3.313942385908145E-3    3.894457010241782E-1    2.890392674063609E-1
 8.061998127500000E9     3.773753320382519E-1    4.342410649065802E-1   -2.511611016955358E-3    3.155387926135939E-3   -2.329534984200144E-3    3.318696242402835E-3    3.893032945333041E-1    2.890426684120515E-1
 8.061999150000000E9     3.774180509442005E-1    4.341019836087475E-1   -2.521335120231133E-3    3.173930478256338E-3   -2.331797170748946E-3    3.335974488179036E-3    3.893496797747102E-1    2.889634866561437E-1
 8.062000172500000E9     3.774898533203465E-1    4.339990991111878E-1   -2.516500777660327E-3    3.186255069327847E-3   -2.333935409847115E-3    3.413721822930618E-3    3.895011244454797E-1    2.888153892859989E-1
 8.062001195000000E9     3.777110088923301E-1    4.339385781093402E-1   -2.519752229705758E-3    3.194936412882045E-3   -2.380775502336723E-3    3.369486769373646E-3    3.895204884736132E-1    2.889108840779941E-1
 8.062002217500000E9     3.777065794727289E-1    4.338243159729456E-1   -2.532369099421691E-3    3.205052141155330E-3   -2.340725209556228E-3    3.400835777175479E-3    3.894063014045836E-1    2.888803127199570E-1
 8.062003240000000E9     3.778193602999310E-1    4.336775474180706E-1   -2.520575003911139E-3    3.236665956670428E-3   -2.377661786548924E-3    3.406095574194649E-3    3.894882912084140E-1    2.887809611697720E-1
 8.062004262500000E9     3.779165316289262E-1    4.336028160047410E-1   -2.557368491009817E-3    3.240246886226340E-3   -2.382041172976149E-3    3.454831377256674E-3    3.896476211469626E-1    2.888441751589153E-1
 8.062005285000000E9     3.780362985975733E-1    4.334934139291404E-1   -2.534775954528236E-3    3.220067918559149E-3   -2.365893015112686E-3    3.474043996060320E-3    3.894893987288076E-1    2.887139182855893E-1
 8.062006307500000E9     3.781119807644358E-1    4.333656798024620E-1   -2.575948178776463E-3    3.242745880380137E-3   -2.376692841012161E-3    3.464613157398185E-3    3.896147835541040E-1    2.885491159113119E-1
 8.062007330000000E9     3.781759434019291E-1    4.333179880516558E-1   -2.575138102657863E-3    3.260373573130383E-3   -2.402177705638130E-3    3.462087856450800E-3    3.897762857507645E-1    2.885189312975441E-1
 8.062008352500000E9     3.783060835409070E-1    4.331954041964762E-1   -2.589486116886694E-3    3.284281441837603E-3   -2.366718480459790E-3    3.464847537368492E-3    3.898442865008179E-1    2.884574774010294E-1
 8.062009375000000E9     3.783115982441784E-1    4.331114250105670E-1   -2.568303510910925E-3    3.290156399414285E-3   -2.415260581036649E-3    3.474125579484880E-3    3.897966766727617E-1    2.884444557570903E-1
 8.062010397500000E9     3.783828933706967E-1    4.330488146579246E-1   -2.566747809458385E-3    3.314372354590543E-3   -2.403539854769233E-3    3.547419176271438E-3    3.897988208202797E-1    2.883440436445328E-1
 8.062011420000000E9     3.784623696770948E-1    4.328884673831260E-1   -2.573965733162387E-3    3.313255910898783E-3   -2.424268210960663E-3    3.514076283085212E-3    3.898290825739498E-1    2.884260219085208E-1
 8.062012442500000E9     3.785394999161888E-1    4.326970538036320E-1   -2.595468852440603E-3    3.315955748546263E-3   -2.401456619323518E-3    3.530251432369641E-3    3.897876205121883E-1    2.883756419032937E-1
 8.062013465000000E9     3.787867844111382E-1    4.326550751421658E-1   -2.596181835861573E-3    3.379289535189114E-3   -2.426985994911780E-3    3.531582817512334E-3    3.899158202491810E-1    2.882608577870616E-1
 8.062014487500000E9     3.788489919724350E-1    4.326796781667979E-1   -2.607287820391997E-3    3.371980325106324E-3   -2.430576859110029E-3    3.596843033494572E-3    3.899074515317240E-1    2.881430565631019E-1
 8.062015510000000E9     3.790285487495229E-1    4.325888591041153E-1   -2.616306844660026E-3    3.376414616386014E-3   -2.426571394721779E-3    3.584185022608672E-3    3.899974911289900E-1    2.880531701552976E-1
 8.062016532500000E9     3.789898555544575E-1    4.322525343916289E-1   -2.613659160082927E-3    3.422815886055398E-3   -2.426836046997584E-3    3.637747537628674E-3    3.899390301212019E-1    2.880875043256153E-1
 8.062017555000000E9     3.790827026702449E-1    4.322859649363557E-1   -2.628584805329358E-3    3.409181662642995E-3   -2.437284539181705E-3    3.605655651287232E-3    3.901740173991639E-1    2.879984458798422E-1
 8.062018577500000E9     3.792105860760391E-1    4.321173260794854E-1   -2.627715225580403E-3    3.447644641586375E-3   -2.467912456100666E-3    3.619853167793714E-3    3.900940324123888E-1    2.879528814318708E-1
 8.062019600000000E9     3.793389060762291E-1    4.320075365553058E-1   -2.659498575575378E-3    3.441337418549909E-3   -2.450782142980910E-3    3.653050885722441E-3    3.902486443067842E-1    2.878913445677392E-1
 8.062020622500000E9     3.794555149554336E-1    4.317868496118934E-1   -2.667801854734310E-3    3.448179914943977E-3   -2.476268923581614E-3    3.641510294996183E-3    3.900787262967709E-1    2.878470275803540E-1
 8.062021645000000E9     3.794847768167672E-1    4.317983087914304E-1   -2.649157428608080E-3    3.489322984400719E-3   -2.452031406675715E-3    3.685118512453238E-3    3.900452956432194E-1    2.878085459553700E-1
 8.062022667500000E9     3.796096599079830E-1    4.317297989225304E-1   -2.661540891356115E-3    3.506696881778342E-3   -2.510606070785178E-3    3.718330993299324E-3    3.902204839344035E-1    2.877506787802197E-1
 8.062023690000000E9     3.797873374554124E-1    4.314621354906930E-1   -2.631055589537524E-3    3.531092983918800E-3   -2.493723858026379E-3    3.703200968497599E-3    3.903334145979950E-1    2.877078644627389E-1
 8.062024712500000E9     3.798483310642217E-1    4.314679230667726E-1   -2.684609938347252E-3    3.526850430387102E-3   -2.490302666077720E-3    3.734015515472911E-3    3.901757877922351E-1    2.876221917959051E-1
 8.062025735000000E9     3.799699441824080E-1    4.312156973614370E-1   -2.681892244704630E-3    3.556191841630972E-3   -2.484227951063480E-3    3.796582131156787E-3    3.905074773731893E-1    2.875613071189075E-1
 8.062026757500000E9     3.801649283705143E-1    4.311560709769033E-1   -2.698950112026568E-3    3.569567620609453E-3   -2.526607364793103E-3    3.773262268948268E-3    3.903448094559377E-1    2.874953099782951E-1
 8.062027780000000E9     3.802624372492478E-1    4.309993842733629E-1   -2.708529653163569E-3    3.589837057611366E-3   -2.520339059686570E-3    3.816053474945329E-3    3.904628541019762E-1    2.875016280820355E-1
 8.062028802500000E9     3.802315372229432E-1    4.308936105429134E-1   -2.700064596785655E-3    3.573096182057953E-3   -2.505696722362416E-3    3.832004947568764E-3    3.904360421282551E-1    2.873935169566472E-1
 8.062029825000000E9     3.804542481131792E-1    4.307487573458872E-1   -2.717950416399904E-3    3.617536964970045E-3   -2.509942174629606E-3    3.835760451127492E-3    3.904166473351677E-1    2.873966442081360E-1
 8.062030847500000E9     3.804875130273195E-1    4.306777323483572E-1   -2.708859188631308E-3    3.633658620621027E-3   -2.510892269943634E-3    3.884050399495784E-3    3.904300760688995E-1    2.871986572965020E-1
 8.062031870000000E9     3.805837385199621E-1    4.304779296298825E-1   -2.694729166710540E-3    3.663433602471167E-3   -2.547119512711696E-3    3.847818404532224E-3    3.905460290730531E-1    2.872225698640363E-1
 8.062032892500000E9     3.806102154834233E-1    4.304513798561700E-1   -2.739639279374541E-3    3.685446156406073E-3   -2.546486388397848E-3    3.860900577568060E-3    3.906910912514779E-1    2.872661250388743E-1
 8.062033915000000E9     3.806841356637573E-1    4.302366441789029E-1   -2.737055476907643E-3    3.696066349472082E-3   -2.558147912022002E-3    3.901444789048397E-3    3.906939782795958E-1    2.871589961235810E-1
