#  HZ   S   RI   R     50.00 
! Rohde & Schwarz Vector Network Analyzer 
! Rohde-Schwarz,ZNB20-2Port,1311601062101988,3.16
! Created: UTC 3/20/2024, 10:59:03 PM
! freq[Hz]                re:S11                  im:S11                  re:S21                  im:S21                  re:S12                  im:S12                  re:S22                  im:S22
 8.061932985000000E9     3.718744589925720E-1    4.395306235752613E-1   -2.253378258887860E-3    2.622607752632716E-3   -2.146342721957823E-3    2.828441027907165E-3    3.874269006711175E-1    2.921926203695075E-1
 8.061934034300000E9     3.721170790612765E-1    4.391772875210205E-1   -2.255634214484721E-3    2.676932668049089E-3   -2.097283697144220E-3    2.800999019983623E-3    3.874771876942839E-1    2.922707617363960E-1
 8.061935083600000E9     3.723048845224003E-1    4.392182185144994E-1   -2.212783143614127E-3    2.647007826048280E-3   -2.093840143858874E-3    2.795281707481963E-3    3.875575966081908E-1    2.920744462314273E-1
 8.061936132900000E9     3.722046356802743E-1    4.391529000656484E-1   -2.244305388000190E-3    2.701597571640207E-3   -2.124405011197963E-3    2.827855826874236E-3    3.875811292253215E-1    2.919926961311936E-1
 8.061937182200000E9     3.723181442230641E-1    4.391491633183416E-1   -2.281673193299297E-3    2.694910107120337E-3   -2.104966602101078E-3    2.816488171207072E-3    3.874714169859663E-1    2.919887966555863E-1
 8.061938231500000E9     3.725077572103668E-1    4.389284220075053E-1   -2.239931677153828E-3    2.652644149375702E-3   -2.106754694316161E-3    2.838623834295676E-3    3.877200605485144E-1    2.920372847357189E-1
 8.061939280800000E9     3.726578716843725E-1    4.388803729215269E-1   -2.252318634589864E-3    2.664049465688327E-3   -2.115045679152496E-3    2.823755789072325E-3    3.876157954665982E-1    2.920266689525070E-1
 8.061940330100000E9     3.726535927433350E-1    4.388588259001257E-1   -2.273747639714496E-3    2.680401489299316E-3   -2.104415160935612E-3    2.832910847142481E-3    3.876580362528945E-1    2.918434792213656E-1
 8.061941379400000E9     3.727729163285123E-1    4.387077447252069E-1   -2.256668924830552E-3    2.667870400228351E-3   -2.110783454201342E-3    2.851389199580517E-3    3.876775495058644E-1    2.918151326395482E-1
 8.061942428700000E9     3.729223169294476E-1    4.385866715398274E-1   -2.272794529753305E-3    2.705055438852472E-3   -2.119917007723452E-3    2.881774127916758E-3    3.877421987171887E-1    2.917717211354458E-1
 8.061943478000000E9     3.729550372720134E-1    4.385368152375082E-1   -2.284358838419701E-3    2.714051312750691E-3   -2.185459133544693E-3    2.898088735405626E-3    3.879178321018489E-1    2.918706888918559E-1
 8.061944527300000E9     3.729357511140735E-1    4.384046469284720E-1   -2.310880244435248E-3    2.720091438162715E-3   -2.150018108729640E-3    2.882641686705120E-3    3.878961618214969E-1    2.917697472058672E-1
 8.061945576600000E9     3.732153158011421E-1    4.384465777457910E-1   -2.268132816376658E-3    2.708342125606910E-3   -2.150378164821718E-3    2.874346127883628E-3    3.878108989327541E-1    2.916582292847451E-1
 8.061946625900000E9     3.731847000933013E-1    4.382841235386641E-1   -2.268820197412069E-3    2.736877374285694E-3   -2.172109636551985E-3    2.934999138755404E-3    3.879124962192352E-1    2.916049221815840E-1
 8.061947675200000E9     3.731596392090912E-1    4.381802001542474E-1   -2.297361643928180E-3    2.737979244179416E-3   -2.132851646886605E-3    2.896708140749991E-3    3.879321972198568E-1    2.914928179272652E-1
 8.061948724500000E9     3.733029765733867E-1    4.381558230333343E-1   -2.294434825409456E-3    2.759876764438203E-3   -2.168137714276977E-3    2.905237298280360E-3    3.880250838943524E-1    2.915602228552244E-1
 8.061949773800000E9     3.734703675601036E-1    4.382318642192009E-1   -2.291798473178164E-3    2.740962955311230E-3   -2.188038934399069E-3    2.932645872957548E-3    3.880949381871319E-1    2.914194517291400E-1
 8.061950823100000E9     3.734417106336569E-1    4.380626263152245E-1   -2.286254370360128E-3    2.768304490164517E-3   -2.155609604830083E-3    2.928229106757497E-3    3.879680759214810E-1    2.913769632488460E-1
 8.061951872400000E9     3.735802010270321E-1    4.379821825484644E-1   -2.299418417228999E-3    2.776461771922434E-3   -2.157199889867585E-3    2.898001145936308E-3    3.881809159951173E-1    2.913244493325604E-1
 8.061952921700000E9     3.737242626033261E-1    4.379186810163143E-1   -2.281022273285918E-3    2.768952220913831E-3   -2.169680361159890E-3    2.948534633674697E-3    3.880799887758922E-1    2.913230018907035E-1
 8.061953971000000E9     3.737619310711043E-1    4.377926487145270E-1   -2.303101222319829E-3    2.771812826751017E-3   -2.195366801645031E-3    2.936034432317651E-3    3.881113361885992E-1    2.912238407539464E-1
 8.061955020300000E9     3.737774304504153E-1    4.377907551424230E-1   -2.309076228239737E-3    2.801725295979732E-3   -2.165852426725842E-3    2.935560628513545E-3    3.881164413538913E-1    2.911723787721135E-1
 8.061956069600000E9     3.739417394847220E-1    4.376867605329624E-1   -2.331874465537823E-3    2.803211861458575E-3   -2.172128081192511E-3    2.997904252791739E-3    3.882251119303619E-1    2.910825406706082E-1
 8.061957118900000E9     3.739885135753586E-1    4.375935021159668E-1   -2.318349161806617E-3    2.805793617984682E-3   -2.160829376675395E-3    2.973704397638980E-3    3.882073056526423E-1    2.910595841332972E-1
 8.061958168200000E9     3.741001037609753E-1    4.374892754120325E-1   -2.310763703477013E-3    2.792269290070563E-3   -2.183287189506235E-3    3.021404397880721E-3    3.883571515875244E-1    2.911296027644789E-1
 8.061959217500000E9     3.742233039871309E-1    4.372624588746775E-1   -2.322409059000292E-3    2.834533769762857E-3   -2.197501443813576E-3    2.950677058825807E-3    3.883056149579103E-1    2.909058368900869E-1
 8.061960266800000E9     3.743269516877906E-1    4.373015086626254E-1   -2.304908332377053E-3    2.823941566657974E-3   -2.219184370781505E-3    2.988183345763904E-3    3.883784661047259E-1    2.909486307701212E-1
 8.061961316100000E9     3.744143915197210E-1    4.371481625860530E-1   -2.338245133976344E-3    2.868488434963695E-3   -2.186549073485010E-3    3.013222955638615E-3    3.884036274752752E-1    2.907696783527341E-1
 8.061962365400000E9     3.743451213379791E-1    4.371482248488182E-1   -2.348154272732144E-3    2.841012332853000E-3   -2.187561819795231E-3    2.989602099936781E-3    3.884825269725583E-1    2.908432938630355E-1
 8.061963414700000E9     3.745340800777614E-1    4.371431560190250E-1   -2.350367446462989E-3    2.866791908344753E-3   -2.225806285363362E-3    2.994828165672939E-3    3.884686105646907E-1    2.907324784897896E-1
 8.061964464000000E9     3.744992549054535E-1    4.369675080089609E-1   -2.343324638761820E-3    2.879013292541367E-3   -2.191365019136584E-3    3.034300181916378E-3    3.884745452011241E-1    2.907911087276794E-1
 8.061965513300000E9     3.745913637416248E-1    4.368015566871007E-1   -2.360134190996949E-3    2.863882072623268E-3   -2.225949320734894E-3    3.027135599761743E-3    3.885074237466190E-1    2.906934449230656E-1
 8.061966562600000E9     3.748703273056661E-1    4.368345947426399E-1   -2.370318746852387E-3    2.873170947137208E-3   -2.230777821372261E-3    3.032613419949597E-3    3.886185251400250E-1    2.905435877743040E-1
 8.061967611900000E9     3.747974638987547E-1    4.367086838443108E-1   -2.383309823656154E-3    2.913808114945515E-3   -2.214371773637883E-3    3.027447454895583E-3    3.886865314217455E-1    2.904497139501550E-1
 8.061968661200000E9     3.748738134008720E-1    4.366688473760998E-1   -2.360500431837389E-3    2.864204942476984E-3   -2.193655458663759E-3    3.041175074514975E-3    3.887015616253806E-1    2.905556273357324E-1
 8.061969710500000E9     3.750223536790780E-1    4.366889689912296E-1   -2.381627852378204E-3    2.921032122495797E-3   -2.219115432982297E-3    3.072061702230879E-3    3.887350312829109E-1    2.905166423460903E-1
 8.061970759800000E9     3.751474576380294E-1    4.365496525944730E-1   -2.359047570086193E-3    2.900574703617784E-3   -2.230933010221245E-3    3.090421510616727E-3    3.887050301215730E-1    2.904024664255731E-1
 8.061971809100000E9     3.752968550951384E-1    4.364142271576987E-1   -2.383258579625079E-3    2.931540045393049E-3   -2.207000181742019E-3    3.102274224205693E-3    3.889240929062235E-1    2.903178213258599E-1
 8.061972858400000E9     3.754311657035021E-1    4.364136294444149E-1   -2.398603520434701E-3    2.929457960226277E-3   -2.255109406825335E-3    3.092004903386166E-3    3.889158293507421E-1    2.902997336295301E-1
 8.061973907700000E9     3.754877711881092E-1    4.361906408241550E-1   -2.391020454327850E-3    2.957758610910973E-3   -2.255465651445006E-3    3.118239808473173E-3    3.888702647615085E-1    2.902651890577405E-1
 8.061974957000000E9     3.754157358719887E-1    4.361430429329528E-1   -2.384888828401679E-3    2.929425796786343E-3   -2.268102510875207E-3    3.123189647727911E-3    3.888660717940212E-1    2.902269487246629E-1
 8.061976006300000E9     3.754510775903920E-1    4.360906449230842E-1   -2.400015891629046E-3    2.988778982019929E-3   -2.231412042299937E-3    3.114404580543721E-3    3.889382132526648E-1    2.901313108168981E-1
 8.061977055600000E9     3.757262054426418E-1    4.360101654841214E-1   -2.404118081517150E-3    2.936911630235997E-3   -2.278483556455939E-3    3.147890091328758E-3    3.889691415678729E-1    2.900800956702794E-1
 8.061978104900000E9     3.757777188021885E-1    4.358746480937006E-1   -2.410974394398959E-3    3.008363679043965E-3   -2.220485115915706E-3    3.127470535687379E-3    3.890235358111756E-1    2.900566084277852E-1
 8.061979154200000E9     3.757854134890573E-1    4.357461701460535E-1   -2.417204494255798E-3    2.998348936532283E-3   -2.266731686358717E-3    3.184503758450489E-3    3.890882538948956E-1    2.898445984308888E-1
 8.061980203500000E9     3.759831793453006E-1    4.358173337106755E-1   -2.412358359011918E-3    3.007525821428457E-3   -2.262097299870065E-3    3.163525877073205E-3    3.891439715785832E-1    2.900147713301157E-1
 8.061981252800000E9     3.760395593569417E-1    4.355636312650853E-1   -2.456150335776575E-3    2.984492625875983E-3   -2.265452253061709E-3    3.234295994755232E-3    3.892303071415762E-1    2.898231364838754E-1
 8.061982302100000E9     3.761606974306161E-1    4.355507425939203E-1   -2.449984033011341E-3    3.024266122195577E-3   -2.262916430472314E-3    3.205835498422212E-3    3.890820460731336E-1    2.897113277319235E-1
 8.061983351400000E9     3.760426841724058E-1    4.353303193426340E-1   -2.424794167499659E-3    3.006672083594041E-3   -2.293521199089906E-3    3.190722866647224E-3    3.892365229083547E-1    2.896906075944806E-1
 8.061984400700000E9     3.762442324386415E-1    4.354126921936203E-1   -2.436367931355081E-3    3.031178974153389E-3   -2.268667329644828E-3    3.230791234651056E-3    3.892115701212340E-1    2.897470175055897E-1
 8.061985450000000E9     3.763106649773171E-1    4.352081786945044E-1   -2.462643704799405E-3    3.040046864591773E-3   -2.282274680741363E-3    3.234964735351511E-3    3.892735873481665E-1    2.895848817509655E-1
 8.061986499300000E9     3.765065496508058E-1    4.350788114032779E-1   -2.450408465653294E-3    3.080871613953521E-3   -2.303880987414582E-3    3.196228103402617E-3    3.893005475404482E-1    2.897452769594341E-1
 8.061987548600000E9     3.764474281556844E-1    4.350359331605792E-1   -2.456643820649568E-3    3.072413097534101E-3   -2.280627153383901E-3    3.245451315328265E-3    3.893369778480978E-1    2.894892557648227E-1
 8.061988597900000E9     3.765095926173173E-1    4.349420327354490E-1   -2.474899597723056E-3    3.056866992677614E-3   -2.304781982436967E-3    3.224946344055483E-3    3.894143417017231E-1    2.895577745986435E-1
 8.061989647200000E9     3.767505926735070E-1    4.348462723208070E-1   -2.467043273261702E-3    3.099298609378892E-3   -2.338640444465704E-3    3.303185809746522E-3    3.893694884712005E-1    2.894360069092054E-1
 8.061990696500000E9     3.768764154756486E-1    4.347276724344311E-1   -2.476287856647555E-3    3.104027302694459E-3   -2.316114645649426E-3    3.295266194211968E-3    3.894426062270094E-1    2.894371756694253E-1
 8.061991745800000E9     3.768559476097854E-1    4.347244172139638E-1   -2.464807228676370E-3    3.108515054976535E-3   -2.322382506718465E-3    3.346300066784086E-3    3.895522752522922E-1    2.893270763485346E-1
 8.061992795100000E9     3.770117714189806E-1    4.344960026354959E-1   -2.515992431625364E-3    3.152696437258250E-3   -2.308887018761386E-3    3.301032741014436E-3    3.894549243554675E-1    2.894088763677488E-1
 8.061993844400000E9     3.770898279036361E-1    4.344076106829044E-1   -2.496271792216256E-3    3.120184719549834E-3   -2.349486871746272E-3    3.324794212844743E-3    3.896261422093477E-1    2.892214330556895E-1
 8.061994893700000E9     3.770842413302921E-1    4.342693684279129E-1   -2.495566627062944E-3    3.138355257167698E-3   -2.338936023174183E-3    3.340994447403980E-3    3.895504156563414E-1    2.892399741210624E-1
 8.061995943000000E9     3.773344152210419E-1    4.343628121554506E-1   -2.510591335460466E-3    3.161216077621859E-3   -2.348212500857279E-3    3.358416650738576E-3    3.897620994141275E-1    2.891726933041041E-1
 8.061996992300000E9     3.772629621655178E-1    4.341336422491482E-1   -2.524437908114157E-3    3.172861234282703E-3   -2.356005379677156E-3    3.356959319794654E-3    3.896559308050249E-1    2.890688790562524E-1
 8.061998041600000E9     3.775050179223366E-1    4.340707477871016E-1   -2.529570063238311E-3    3.205775369257009E-3   -2.382864925806064E-3    3.384729870188800E-3    3.898225764769063E-1    2.890620996005601E-1
 8.061999090900000E9     3.776137056695824E-1    4.340384081859783E-1   -2.499756297057530E-3    3.217585788942262E-3   -2.368150099851109E-3    3.437512917336299E-3    3.897638614531294E-1    2.889901236218418E-1
 8.062000140200000E9     3.776018617204809E-1    4.339384931857614E-1   -2.527941244705555E-3    3.221160670318524E-3   -2.328328365586615E-3    3.385749359329857E-3    3.897163067700959E-1    2.887796280301536E-1
 8.062001189500000E9     3.777651106103075E-1    4.337921979315985E-1   -2.554395764258338E-3    3.247254935143253E-3   -2.356524269467560E-3    3.425121628081383E-3    3.898831275717728E-1    2.888874919827484E-1
 8.062002238800000E9     3.777761066164055E-1    4.337360093040009E-1   -2.549108619844329E-3    3.237178725346649E-3   -2.369077561316814E-3    3.429392897461015E-3    3.898620745356224E-1    2.888020488655639E-1
 8.062003288100000E9     3.779627816083639E-1    4.335365717911214E-1   -2.571128665712059E-3    3.261713464586959E-3   -2.343099926389683E-3    3.452029428069736E-3    3.899266960716031E-1    2.886874627949161E-1
 8.062004337400000E9     3.780877357873020E-1    4.333892557683445E-1   -2.555417514139372E-3    3.288288029966625E-3   -2.415104639293027E-3    3.480892607456144E-3    3.899871968444081E-1    2.886567815942793E-1
 8.062005386700000E9     3.781331070966593E-1    4.333703572686137E-1   -2.570351676179166E-3    3.282216743541811E-3   -2.400185894579603E-3    3.481484396065125E-3    3.898942394139835E-1    2.886874615996712E-1
 8.062006436000000E9     3.782026828282551E-1    4.332507881762970E-1   -2.596660435880194E-3    3.292272055787665E-3   -2.387176452568619E-3    3.527265209571585E-3    3.899958402862764E-1    2.885405968531801E-1
 8.062007485300000E9     3.783272012304831E-1    4.331265321898704E-1   -2.582189353609429E-3    3.301825082402718E-3   -2.414082646775530E-3    3.481045827137004E-3    3.900467014712610E-1    2.884996533692943E-1
 8.062008534600000E9     3.784315611128985E-1    4.330642307275497E-1   -2.596006634700521E-3    3.324103946315030E-3   -2.426155372342143E-3    3.505607229417505E-3    3.900266632572262E-1    2.885965409869436E-1
 8.062009583900000E9     3.785819702739486E-1    4.329263659514040E-1   -2.589266320764010E-3    3.353374331156056E-3   -2.399439410147177E-3    3.514386937114316E-3    3.901099170833968E-1    2.884397725852947E-1
 8.062010633200000E9     3.785884770220577E-1    4.327087034321820E-1   -2.587122745616080E-3    3.355988192726190E-3   -2.428596365299037E-3    3.560893488529214E-3    3.901016659766618E-1    2.882557731269527E-1
 8.062011682500000E9     3.788053131140622E-1    4.326509110645642E-1   -2.605860078799442E-3    3.358657378301496E-3   -2.439799343707754E-3    3.580792031184868E-3    3.902423244361349E-1    2.883020164978150E-1
 8.062012731800000E9     3.788107934590376E-1    4.326119626936926E-1   -2.610370934816118E-3    3.401370552438162E-3   -2.467863248012454E-3    3.579075750712694E-3    3.902884740784923E-1    2.881581710485274E-1
 8.062013781100000E9     3.789499587479830E-1    4.325302499044739E-1   -2.594143648111353E-3    3.422248316988142E-3   -2.463663718437342E-3    3.590659915026591E-3    3.903190713045961E-1    2.881691162137591E-1
 8.062014830400000E9     3.789702692439713E-1    4.323376831644181E-1   -2.591861574257711E-3    3.414186995629194E-3   -2.440219992604285E-3    3.603786890324946E-3    3.903886459871950E-1    2.882731238921898E-1
 8.062015879700000E9     3.791027848909519E-1    4.322448159308566E-1   -2.635197154472507E-3    3.449284329411306E-3   -2.447878505295601E-3    3.636382787807528E-3    3.904316811774681E-1    2.881500405169673E-1
 8.062016929000000E9     3.792961916252519E-1    4.321191670967455E-1   -2.625573470928701E-3    3.450936040535207E-3   -2.456844196940297E-3    3.678147132487251E-3    3.903475629134577E-1    2.878669380459520E-1
 8.062017978300000E9     3.794081479308110E-1    4.320596941390257E-1   -2.654652647240023E-3    3.492732676494597E-3   -2.453124344301102E-3    3.675647773676943E-3    3.904125117388513E-1    2.879223980655850E-1
 8.062019027600000E9     3.794457342098799E-1    4.318847980603350E-1   -2.641127459319597E-3    3.475839906025714E-3   -2.476085445172958E-3    3.672968136788679E-3    3.902386435235527E-1    2.879989499234390E-1
 8.062020076900000E9     3.797193404995369E-1    4.317919136050916E-1   -2.659315648608001E-3    3.507837783226726E-3   -2.469459373852382E-3    3.702425116497999E-3    3.904329265774678E-1    2.880183753771415E-1
 8.062021126200000E9     3.796971313432631E-1    4.316558669490150E-1   -2.658164904697380E-3    3.539357202934600E-3   -2.503831815473329E-3    3.737242147264888E-3    3.905887675220964E-1    2.878577877887310E-1
 8.062022175500000E9     3.796439025076361E-1    4.314714252194850E-1   -2.652340360575077E-3    3.550486257325115E-3   -2.485044057374348E-3    3.760651334882404E-3    3.906419341516092E-1    2.877257831219263E-1
 8.062023224800000E9     3.799422713671083E-1    4.313615418885594E-1   -2.695422572578528E-3    3.571154685170504E-3   -2.490099948499430E-3    3.739894091265302E-3    3.906350178639891E-1    2.877015882757731E-1
 8.062024274100000E9     3.799236351405001E-1    4.312308590574998E-1   -2.691469282332995E-3    3.554774358296155E-3   -2.509312236914949E-3    3.776212787709305E-3    3.906627012492049E-1    2.877724825761033E-1
 8.062025323400000E9     3.801022165647840E-1    4.310436663226041E-1   -2.688715567339255E-3    3.615236254519255E-3   -2.504586623591961E-3    3.781390308494310E-3    3.906756182658142E-1    2.875106295756573E-1
 8.062026372700000E9     3.802220556449534E-1    4.310083552791595E-1   -2.694665112718780E-3    3.636613612647279E-3   -2.501436473969925E-3    3.820619910557661E-3    3.905957475419775E-1    2.875676186053934E-1
 8.062027422000000E9     3.803096653101520E-1    4.308409834803584E-1   -2.699667459903463E-3    3.669581607066682E-3   -2.495654885566661E-3    3.839392076979731E-3    3.906750804601585E-1    2.874714100045856E-1
