#  HZ   S   RI   R     50.00 
! Rohde & Schwarz Vector Network Analyzer 
! Rohde-Schwarz,ZNB20-2Port,1311601062101988,3.16
! Created: UTC 3/20/2024, 10:59:10 PM
! freq[Hz]                re:S11                  im:S11                  re:S21                  im:S21                  re:S12                  im:S12                  re:S22                  im:S22
 8.061926282000000E9     3.714779775793047E-1    4.397597025615322E-1   -2.211421641704918E-3    2.621042901496473E-3   -2.106574972822229E-3    2.782670879934850E-3    3.873572376714802E-1    2.926777596363754E-1
 8.061927357725000E9     3.716994443121374E-1    4.396986238873870E-1   -2.201678335326772E-3    2.601176608381195E-3   -2.095312718222694E-3    2.793683622854133E-3    3.872991247317084E-1    2.925741290981728E-1
 8.061928433450000E9     3.717594056783598E-1    4.396364000095681E-1   -2.223633318927467E-3    2.611873721520218E-3   -2.068880770294838E-3    2.779915008757955E-3    3.874077003229453E-1    2.925751487873033E-1
 8.061929509175000E9     3.718661180083419E-1    4.395460549130469E-1   -2.251317329255507E-3    2.624359775823280E-3   -2.102324332574583E-3    2.796549540770302E-3    3.875685433584302E-1    2.925105739132864E-1
 8.061930584900000E9     3.720830662013394E-1    4.396131641178734E-1   -2.257435932704564E-3    2.643190363195106E-3   -2.092903395358440E-3    2.800522355763085E-3    3.873382053249497E-1    2.924688986554025E-1
 8.061931660625000E9     3.720003605856883E-1    4.393649659902919E-1   -2.236703196114604E-3    2.624291228402203E-3   -2.103509667647274E-3    2.809267169425209E-3    3.874250222519331E-1    2.923775085055542E-1
 8.061932736350000E9     3.719961897887821E-1    4.392631997867756E-1   -2.249435080913022E-3    2.654604981386793E-3   -2.122302889665694E-3    2.825695460024196E-3    3.874941445703723E-1    2.923487657702084E-1
 8.061933812075000E9     3.722898502721376E-1    4.391345309316489E-1   -2.237973799634724E-3    2.677153402361399E-3   -2.128988153994041E-3    2.828390876905210E-3    3.874763962628845E-1    2.923537706931243E-1
 8.061934887800000E9     3.723987431424030E-1    4.391957261681343E-1   -2.261273350481411E-3    2.653694353824900E-3   -2.089114050089195E-3    2.813411525478671E-3    3.876032946509148E-1    2.922394036970102E-1
 8.061935963525000E9     3.723903617744183E-1    4.390899939036091E-1   -2.239262160061730E-3    2.667552421890964E-3   -2.122930392739272E-3    2.809006061228938E-3    3.875796431564906E-1    2.920965638628676E-1
 8.061937039250000E9     3.724360712099563E-1    4.389318574718810E-1   -2.252251615402687E-3    2.660861795097775E-3   -2.135783063715842E-3    2.869152031916321E-3    3.877008037228598E-1    2.921249595480323E-1
 8.061938114975000E9     3.725881876712069E-1    4.387445996684339E-1   -2.265654978394193E-3    2.689649583570222E-3   -2.142240624208265E-3    2.863162014026970E-3    3.876499359501614E-1    2.920451535853179E-1
 8.061939190700000E9     3.726959863949368E-1    4.388867782858702E-1   -2.265715559189117E-3    2.700694067981312E-3   -2.114457314814272E-3    2.859719251738009E-3    3.878397286455442E-1    2.918274346495771E-1
 8.061940266425000E9     3.726669898461821E-1    4.387597763302574E-1   -2.276401901633911E-3    2.715041372212236E-3   -2.126053748316880E-3    2.860503493305609E-3    3.878843551646006E-1    2.919740305560322E-1
 8.061941342150000E9     3.728081267857108E-1    4.386712812415252E-1   -2.275327968621478E-3    2.724073960981172E-3   -2.143184508924724E-3    2.895222328051589E-3    3.877066691240773E-1    2.917514745035925E-1
 8.061942417875000E9     3.729955703077072E-1    4.386831173077340E-1   -2.285350864235328E-3    2.731260098698969E-3   -2.121918409371414E-3    2.891703347571016E-3    3.878873225756858E-1    2.918395798990383E-1
 8.061943493600000E9     3.730009497664932E-1    4.384751480069471E-1   -2.289180720377920E-3    2.723856775827151E-3   -2.127018521202433E-3    2.884895966934490E-3    3.880096143211251E-1    2.917861308940047E-1
 8.061944569325000E9     3.730082912646120E-1    4.384466183783445E-1   -2.258299286763908E-3    2.729689574789824E-3   -2.163758878883572E-3    2.880581265208240E-3    3.880538283706712E-1    2.918315716848385E-1
 8.061945645050000E9     3.730657529741745E-1    4.383858977714154E-1   -2.288418420421476E-3    2.718017582690894E-3   -2.137152912553413E-3    2.893518060502346E-3    3.880565496676264E-1    2.916387185197160E-1
 8.061946720775000E9     3.731448289094655E-1    4.382733452431511E-1   -2.291243720270683E-3    2.728995431396084E-3   -2.154652771236517E-3    2.889343148352794E-3    3.878944588404377E-1    2.917128974322198E-1
 8.061947796500000E9     3.733844183476755E-1    4.381691499308681E-1   -2.271981252482323E-3    2.762030322290263E-3   -2.156750548249819E-3    2.878718251165176E-3    3.881789723457356E-1    2.914552323790882E-1
 8.061948872225000E9     3.733500329628401E-1    4.382089655954479E-1   -2.289278417468741E-3    2.770569051810389E-3   -2.149863655849947E-3    2.940245336947817E-3    3.881509345805011E-1    2.915854484724424E-1
 8.061949947950000E9     3.735430391540804E-1    4.380009064023282E-1   -2.323451655389189E-3    2.751549748577900E-3   -2.139575596439956E-3    2.951054930101701E-3    3.881893301546365E-1    2.912890126711914E-1
 8.061951023675000E9     3.736011371739217E-1    4.380087292842289E-1   -2.299256301333475E-3    2.787444534198671E-3   -2.141635739396876E-3    2.949353851756300E-3    3.882397344072627E-1    2.912821217562327E-1
 8.061952099400000E9     3.736205969796635E-1    4.377687595207195E-1   -2.301980438519215E-3    2.763514702200843E-3   -2.142301521782775E-3    2.952522777015048E-3    3.882234876689053E-1    2.913047017789215E-1
 8.061953175125000E9     3.737326488856831E-1    4.377580856531710E-1   -2.316985282459823E-3    2.750938956804800E-3   -2.143442690124236E-3    2.938047911044532E-3    3.882872129622750E-1    2.912950222693358E-1
 8.061954250850000E9     3.737653452453266E-1    4.376645275142418E-1   -2.338952683028213E-3    2.793530417732871E-3   -2.154043342577832E-3    2.939810311132423E-3    3.883697636051008E-1    2.911176514916268E-1
 8.061955326575000E9     3.739285664198146E-1    4.376586967997271E-1   -2.310158043419369E-3    2.821225878251149E-3   -2.175015621177379E-3    2.935466136136226E-3    3.882926364004184E-1    2.911800354284865E-1
 8.061956402300000E9     3.740196805190552E-1    4.374606801767159E-1   -2.320009646987831E-3    2.811642348124941E-3   -2.201358518557319E-3    2.981415068008010E-3    3.882957010884856E-1    2.910493249675789E-1
 8.061957478025000E9     3.740322364347324E-1    4.374869858425119E-1   -2.347060494083606E-3    2.808737743991024E-3   -2.202664999853169E-3    3.002986754958648E-3    3.883765031643810E-1    2.910074924719872E-1
 8.061958553750000E9     3.741974665775366E-1    4.374128001202250E-1   -2.343654756865364E-3    2.815284949494990E-3   -2.229158646238085E-3    2.998168514579292E-3    3.883993196521439E-1    2.910746818795675E-1
 8.061959629475000E9     3.742160781826133E-1    4.372569430617774E-1   -2.333218527871803E-3    2.826996507171188E-3   -2.188742159131154E-3    2.980449446713785E-3    3.884569795925722E-1    2.910094318334231E-1
 8.061960705200000E9     3.743339810768595E-1    4.371900563296520E-1   -2.361718220632496E-3    2.865094943590715E-3   -2.184854394646721E-3    2.989122755880333E-3    3.883743935445969E-1    2.909507709324657E-1
 8.061961780925000E9     3.743161031644380E-1    4.371986081557663E-1   -2.336718147626802E-3    2.880009651884353E-3   -2.181127472222268E-3    3.016610608276078E-3    3.885556766326418E-1    2.909755138088405E-1
 8.061962856650000E9     3.745812043856100E-1    4.370088351654858E-1   -2.376122357273289E-3    2.876470644807195E-3   -2.213170265893093E-3    3.029145187461880E-3    3.886668385985884E-1    2.906875767046647E-1
 8.061963932375000E9     3.746522035443903E-1    4.369748150827072E-1   -2.370012618705820E-3    2.841419645816626E-3   -2.247856651723586E-3    3.062506096969731E-3    3.886835384143851E-1    2.908069947744072E-1
 8.061965008100000E9     3.747121973011276E-1    4.369063818431673E-1   -2.356908403963046E-3    2.850303136427890E-3   -2.202901613354098E-3    3.024641990477099E-3    3.886991808203993E-1    2.906875538653742E-1
 8.061966083825000E9     3.747220963466726E-1    4.368181456266280E-1   -2.351150812877006E-3    2.882860398144718E-3   -2.213749996392806E-3    3.055039792408636E-3    3.886658639314330E-1    2.906982382234706E-1
 8.061967159550000E9     3.748366524322921E-1    4.366722065382401E-1   -2.379885898611084E-3    2.891549189063052E-3   -2.204763897335032E-3    3.084216281648021E-3    3.887437697307283E-1    2.906198022571415E-1
 8.061968235275000E9     3.748104124258055E-1    4.365865296220787E-1   -2.359531511337954E-3    2.880423649058042E-3   -2.200378233083921E-3    3.079593427862716E-3    3.889304246511955E-1    2.904500352377763E-1
 8.061969311000000E9     3.750620942119939E-1    4.366141848517749E-1   -2.383289797869130E-3    2.924359240709455E-3   -2.212259297551847E-3    3.082924337428246E-3    3.886738186308378E-1    2.905434278580009E-1
 8.061970386725000E9     3.751335793397580E-1    4.364535164613648E-1   -2.366272174679655E-3    2.917500763414614E-3   -2.211973601275760E-3    3.075268359556350E-3    3.888116766707402E-1    2.904245177966668E-1
 8.061971462450000E9     3.751438089951943E-1    4.363476798864300E-1   -2.400610490541380E-3    2.938741698383355E-3   -2.256463257225671E-3    3.109696368016055E-3    3.889959735826310E-1    2.902103393227018E-1
 8.061972538175000E9     3.753925736002913E-1    4.362087969763773E-1   -2.411925345351851E-3    2.934019847920554E-3   -2.269214899464617E-3    3.135349649346222E-3    3.890208179728870E-1    2.903476975587143E-1
 8.061973613900000E9     3.754149871611260E-1    4.361270073904880E-1   -2.400311769281507E-3    2.965050363698071E-3   -2.219608733807888E-3    3.123690194666509E-3    3.889171024944598E-1    2.902455135104849E-1
 8.061974689625000E9     3.755326175173785E-1    4.360571343211715E-1   -2.397726562813275E-3    2.952249656159133E-3   -2.239071123120594E-3    3.120221962487529E-3    3.891844613803211E-1    2.903306540857690E-1
 8.061975765350000E9     3.755295887188500E-1    4.359492333000878E-1   -2.415437344796210E-3    2.953088313074620E-3   -2.227854502527683E-3    3.148646912546238E-3    3.891959370322566E-1    2.902002871685762E-1
 8.061976841075000E9     3.757440316696107E-1    4.359077063909439E-1   -2.400622065946339E-3    2.977714879427941E-3   -2.247896132933806E-3    3.153814325111765E-3    3.891328179087391E-1    2.901702374758628E-1
 8.061977916800000E9     3.757012611046595E-1    4.358251107296244E-1   -2.413529357970894E-3    2.978101267429156E-3   -2.296916771427430E-3    3.137289873578330E-3    3.890455972619355E-1    2.900844005386604E-1
 8.061978992525000E9     3.758617987511484E-1    4.357063304522636E-1   -2.434924400063616E-3    3.028965512116811E-3   -2.268913280702017E-3    3.175858424047765E-3    3.891184408803265E-1    2.899992697609691E-1
 8.061980068250000E9     3.759326870006747E-1    4.356163184414241E-1   -2.434286483644230E-3    3.018449181661954E-3   -2.241278911448501E-3    3.227103191940979E-3    3.889916097343212E-1    2.898384154506428E-1
 8.061981143975000E9     3.759813498056634E-1    4.354761011867354E-1   -2.439604578637407E-3    3.012951439309207E-3   -2.248073530250109E-3    3.201928069400025E-3    3.892022239563739E-1    2.899019648267245E-1
 8.061982219700000E9     3.760430273125103E-1    4.352834699546336E-1   -2.465109400574639E-3    3.050841734609578E-3   -2.286172136168262E-3    3.249533398827007E-3    3.893047754346016E-1    2.898479128587951E-1
 8.061983295425000E9     3.761301660927354E-1    4.354017091736864E-1   -2.422568578728887E-3    3.039602703816592E-3   -2.309864400671152E-3    3.232516526108667E-3    3.891983972547104E-1    2.897838228496676E-1
 8.061984371150000E9     3.762864350619322E-1    4.353092940698293E-1   -2.440755671021896E-3    3.049368300199974E-3   -2.309853402030624E-3    3.232985605889440E-3    3.894864637351662E-1    2.897228878781991E-1
 8.061985446875000E9     3.765076573945320E-1    4.350197392735121E-1   -2.442095773734097E-3    3.070655952599349E-3   -2.290250745463249E-3    3.251850082260343E-3    3.894367475611061E-1    2.896263145071045E-1
 8.061986522600000E9     3.764843669200199E-1    4.350440157174481E-1   -2.453838216547086E-3    3.094357806993743E-3   -2.307505117454318E-3    3.257440574057874E-3    3.894581002060165E-1    2.896488210176803E-1
 8.061987598325000E9     3.764830898721461E-1    4.349707153473393E-1   -2.467312247568143E-3    3.095131519817587E-3   -2.320443019266371E-3    3.271770590627526E-3    3.893413772435377E-1    2.895646315541925E-1
 8.061988674050000E9     3.767844971064363E-1    4.349617381602547E-1   -2.454308354629789E-3    3.093798504780604E-3   -2.307288321785114E-3    3.248249162748181E-3    3.895672145644337E-1    2.896285732449067E-1
 8.061989749775000E9     3.767469014237254E-1    4.347225468913847E-1   -2.502321283377793E-3    3.123029614171976E-3   -2.336128919068966E-3    3.291268817132996E-3    3.895043674919509E-1    2.894182780484958E-1
 8.061990825500000E9     3.769193626315657E-1    4.346941674835805E-1   -2.459431762535132E-3    3.104172221520206E-3   -2.341803357716917E-3    3.309355405470851E-3    3.894574669348898E-1    2.893427104523855E-1
 8.061991901225000E9     3.769074325929546E-1    4.346260039906316E-1   -2.485857388082149E-3    3.113912789602313E-3   -2.337343609094781E-3    3.322335193201638E-3    3.895829474599031E-1    2.892151308917285E-1
 8.061992976950000E9     3.770723034599242E-1    4.345028232805128E-1   -2.479006237914236E-3    3.142411024979836E-3   -2.326517460567994E-3    3.327343900250603E-3    3.896497301389943E-1    2.892738130617957E-1
 8.061994052675000E9     3.770888361338039E-1    4.344554723560257E-1   -2.509365929735872E-3    3.161868698588899E-3   -2.372001626958742E-3    3.351274367199500E-3    3.896524348613971E-1    2.892322007542399E-1
 8.061995128400000E9     3.772843606265913E-1    4.342814025701231E-1   -2.511882401182755E-3    3.170286112193663E-3   -2.358607209484511E-3    3.350388055180678E-3    3.897500667237980E-1    2.891798982978632E-1
 8.061996204125000E9     3.772673304056280E-1    4.343138316507776E-1   -2.528156704187661E-3    3.205239244950097E-3   -2.352681891603933E-3    3.385528888168259E-3    3.898189354236229E-1    2.891166983925644E-1
 8.061997279850000E9     3.773620938779145E-1    4.341524076015070E-1   -2.500430380474847E-3    3.197967990633867E-3   -2.368502840199474E-3    3.414588403615185E-3    3.896809047359644E-1    2.890531133135974E-1
 8.061998355575000E9     3.775709949992657E-1    4.339065863778169E-1   -2.522205354368566E-3    3.206608535774868E-3   -2.357751784996382E-3    3.399347271750343E-3    3.898238780839872E-1    2.890792398245516E-1
 8.061999431300000E9     3.776689797995795E-1    4.337669896435649E-1   -2.548031566045857E-3    3.234715547697497E-3   -2.382612203903745E-3    3.428555468002327E-3    3.898541352658954E-1    2.889487299649253E-1
 8.062000507025000E9     3.778284127434635E-1    4.336675901522298E-1   -2.546985234017785E-3    3.253181993710780E-3   -2.339599339559353E-3    3.448497929225835E-3    3.897572830196969E-1    2.889259084925738E-1
 8.062001582750000E9     3.779421179471663E-1    4.336276672814572E-1   -2.528302717372212E-3    3.247831260835809E-3   -2.385330571055796E-3    3.417296553206272E-3    3.898820691896095E-1    2.888047071776352E-1
 8.062002658475000E9     3.778877129952611E-1    4.336669311330200E-1   -2.562587156762558E-3    3.276697903382874E-3   -2.393572568703863E-3    3.488079577247667E-3    3.900790216960677E-1    2.887682569704561E-1
 8.062003734200000E9     3.780084307954024E-1    4.334499793954839E-1   -2.554551539350108E-3    3.276413092956195E-3   -2.386515528340222E-3    3.467919664127445E-3    3.900619144083574E-1    2.885624921310933E-1
 8.062004809925000E9     3.779872959310600E-1    4.332685787903612E-1   -2.565891876700003E-3    3.311166131267768E-3   -2.406582902025340E-3    3.479350451206048E-3    3.901637594692918E-1    2.886935956780392E-1
 8.062005885650000E9     3.781490133603767E-1    4.331831868368064E-1   -2.557286259427201E-3    3.316498127050416E-3   -2.402397599051006E-3    3.468541466827165E-3    3.901041069048435E-1    2.886828023023051E-1
 8.062006961375000E9     3.782391065948487E-1    4.331095784489723E-1   -2.570019385441363E-3    3.349429929460463E-3   -2.423513666120089E-3    3.505770134796555E-3    3.901451189605970E-1    2.885901918583027E-1
 8.062008037100000E9     3.784114942201454E-1    4.330771257736485E-1   -2.598567532246917E-3    3.347007592895441E-3   -2.444452585864889E-3    3.542569270881664E-3    3.901119390029616E-1    2.884869263783991E-1
 8.062009112825000E9     3.785305011055803E-1    4.327569243641199E-1   -2.601237059032340E-3    3.359528011408010E-3   -2.356196639112746E-3    3.557175619043613E-3    3.902604235175826E-1    2.884783346523078E-1
 8.062010188550000E9     3.786796833277316E-1    4.327727143251699E-1   -2.606898991518135E-3    3.391527795976206E-3   -2.432075678241862E-3    3.580883318150256E-3    3.903163126749955E-1    2.882697131460739E-1
 8.062011264275000E9     3.786836727691260E-1    4.324852568039850E-1   -2.614445097048624E-3    3.397949409747540E-3   -2.408421168673857E-3    3.561047558828463E-3    3.901961245098865E-1    2.883212092359214E-1
 8.062012340000000E9     3.789682461912464E-1    4.325347649879062E-1   -2.631938607741996E-3    3.431404031924445E-3   -2.461911183838875E-3    3.619011726858385E-3    3.903121086345258E-1    2.882851576145951E-1
 8.062013415725000E9     3.789270125855094E-1    4.324222663982444E-1   -2.596453352388734E-3    3.421325176569057E-3   -2.464718711911881E-3    3.631633206413879E-3    3.903064735129752E-1    2.880621217486418E-1
 8.062014491450000E9     3.790164924828417E-1    4.321947286920899E-1   -2.647586630876244E-3    3.433026278184070E-3   -2.457453798114506E-3    3.646685473454884E-3    3.905655419632422E-1    2.880020558130207E-1
 8.062015567175000E9     3.791434614794601E-1    4.321028629109525E-1   -2.637328524731706E-3    3.456753509131352E-3   -2.470038570106549E-3    3.654775192446407E-3    3.903630276267494E-1    2.880379896778654E-1
 8.062016642900000E9     3.793468273901079E-1    4.319793052870033E-1   -2.617512064620334E-3    3.483427752323541E-3   -2.435621912171528E-3    3.670603785923941E-3    3.904193077371113E-1    2.880056646629233E-1
 8.062017718625000E9     3.793056517152146E-1    4.318657815272064E-1   -2.641022131995358E-3    3.496723686883508E-3   -2.455421901848279E-3    3.692639674199986E-3    3.904686651673744E-1    2.880453398328007E-1
 8.062018794350000E9     3.794963740721076E-1    4.318144793690637E-1   -2.635142372661093E-3    3.507078524745446E-3   -2.442800279763195E-3    3.696610783650417E-3    3.905893302480177E-1    2.879483538736446E-1
 8.062019870075000E9     3.795842959812651E-1    4.316013159477176E-1   -2.682380971747421E-3    3.528003877290441E-3   -2.485177943742429E-3    3.710150063888858E-3    3.905359537601060E-1    2.878408339220495E-1
 8.062020945800000E9     3.796732530078614E-1    4.314979651216055E-1   -2.667002062944135E-3    3.556202345046785E-3   -2.498496439498164E-3    3.737386389861023E-3    3.906949481267784E-1    2.879623639757593E-1
 8.062022021525000E9     3.798970717092407E-1    4.314045889412569E-1   -2.655005829089603E-3    3.567447157082344E-3   -2.485931317079182E-3    3.784344740969611E-3    3.906668463352698E-1    2.878483690549449E-1
 8.062023097250000E9     3.799358147873234E-1    4.312634838258043E-1   -2.676089754935803E-3    3.577500478818833E-3   -2.526659808122358E-3    3.796772316448010E-3    3.906275953662339E-1    2.877347434587094E-1
