#  HZ   S   RI   R     50.00 
! Rohde & Schwarz Vector Network Analyzer 
! Rohde-Schwarz,ZNB20-2Port,1311601062101988,3.16
! Created: UTC 3/20/2024, 10:59:20 PM
! freq[Hz]                re:S11                  im:S11                  re:S21                  im:S21                  re:S12                  im:S12                  re:S22                  im:S22
 8.061925021000000E9     3.714399802171317E-1    4.397417576761212E-1   -2.236672697420353E-3    2.604331832777506E-3   -2.093836564783811E-3    2.787793567922644E-3    3.876375962828963E-1    2.925865387593170E-1
 8.061926092750000E9     3.716943197044833E-1    4.397653671089523E-1   -2.227653948698130E-3    2.637606138321128E-3   -2.092467392976293E-3    2.805772841917036E-3    3.878155038966928E-1    2.926805129724724E-1
 8.061927164500000E9     3.717611780563962E-1    4.395707838213398E-1   -2.248990031572930E-3    2.627797268288262E-3   -2.078969044682987E-3    2.811953753717295E-3    3.876214400000872E-1    2.926207257222431E-1
 8.061928236250000E9     3.718225673659226E-1    4.394843061784701E-1   -2.235431883447803E-3    2.651479046731139E-3   -2.102335032731221E-3    2.785120998671449E-3    3.876513717869958E-1    2.924686793344773E-1
 8.061929308000000E9     3.719581269707429E-1    4.394134221737123E-1   -2.251446417265475E-3    2.652546283077865E-3   -2.135455877594304E-3    2.792790144904981E-3    3.878411466082457E-1    2.924388163119781E-1
 8.061930379750000E9     3.719360573227435E-1    4.394389299973832E-1   -2.244170349575815E-3    2.638449701406509E-3   -2.094001279254524E-3    2.839459088996950E-3    3.877980458382595E-1    2.924005237005596E-1
 8.061931451500000E9     3.722250335319572E-1    4.392691787929289E-1   -2.239210058698546E-3    2.672168787410243E-3   -2.134505697520635E-3    2.806161893974744E-3    3.877980406008666E-1    2.924075894206178E-1
 8.061932523250000E9     3.721403492487212E-1    4.392729696812808E-1   -2.250293518153910E-3    2.657508193048545E-3   -2.115927727216854E-3    2.796741158561738E-3    3.878586304970553E-1    2.923341767762574E-1
 8.061933595000000E9     3.721793023469255E-1    4.391630122334945E-1   -2.242980973103979E-3    2.679132661852072E-3   -2.137076454318897E-3    2.849487520098925E-3    3.880035099027113E-1    2.922606469141487E-1
 8.061934666750000E9     3.722983577452870E-1    4.389605601639130E-1   -2.251015362393618E-3    2.671528991082259E-3   -2.146491311446852E-3    2.831989319017247E-3    3.880008647266192E-1    2.921386222551793E-1
 8.061935738500000E9     3.724133034557151E-1    4.389849912385557E-1   -2.275557916737020E-3    2.698921676385679E-3   -2.098106416077026E-3    2.841700312489376E-3    3.879065111064173E-1    2.921843480292792E-1
 8.061936810250000E9     3.725542629251790E-1    4.389373196968985E-1   -2.282697666184075E-3    2.676237747211299E-3   -2.085152060684346E-3    2.837052591578543E-3    3.880242787067841E-1    2.920412978792601E-1
 8.061937882000000E9     3.727377011658419E-1    4.387807342627810E-1   -2.275853519897891E-3    2.697430455176681E-3   -2.130800477386779E-3    2.853629138153688E-3    3.879878410742342E-1    2.920946886228279E-1
 8.061938953750000E9     3.727011162600905E-1    4.388002660060544E-1   -2.266713541529418E-3    2.715266847829777E-3   -2.133050229368038E-3    2.854919947260315E-3    3.881505588704987E-1    2.918977278598160E-1
 8.061940025500000E9     3.727517614045919E-1    4.385730468904510E-1   -2.293632569113290E-3    2.729611968745872E-3   -2.119565514064929E-3    2.869366520808545E-3    3.880119025836032E-1    2.919464623710169E-1
 8.061941097250000E9     3.728801458663452E-1    4.386174815267753E-1   -2.289177679231872E-3    2.719500915579872E-3   -2.138284213287323E-3    2.899165599506977E-3    3.881805429078977E-1    2.918076735102438E-1
 8.061942169000000E9     3.728897949537527E-1    4.384891281108623E-1   -2.278560048732025E-3    2.714316413760932E-3   -2.137719244598995E-3    2.886395865253576E-3    3.882576234001112E-1    2.918595070436792E-1
 8.061943240750000E9     3.730592949283646E-1    4.385353265212293E-1   -2.280407365594154E-3    2.727444494381938E-3   -2.148288319100387E-3    2.890226195687212E-3    3.881818983350947E-1    2.916645167438687E-1
 8.061944312500000E9     3.730584303073246E-1    4.384059664580991E-1   -2.270782944480553E-3    2.740278158726968E-3   -2.139546390923122E-3    2.893023774368769E-3    3.883421687503829E-1    2.917034692619165E-1
 8.061945384250000E9     3.731742493878856E-1    4.383338744899630E-1   -2.280298796879379E-3    2.742754177914262E-3   -2.161986429250172E-3    2.932040713877966E-3    3.882940156174288E-1    2.915309560576405E-1
 8.061946456000000E9     3.732666189878509E-1    4.381836016571503E-1   -2.296716056697991E-3    2.764938222446083E-3   -2.160769749271757E-3    2.912974655504923E-3    3.883013714426123E-1    2.917571529274492E-1
 8.061947527750000E9     3.733198555070164E-1    4.381821567353840E-1   -2.311925472688259E-3    2.767167135378578E-3   -2.129837701376532E-3    2.915930919280954E-3    3.883233510919366E-1    2.914270589033575E-1
 8.061948599500000E9     3.733939957610460E-1    4.381455781730194E-1   -2.310648259846945E-3    2.766008278960041E-3   -2.180585017090461E-3    2.940908383803450E-3    3.885235214610869E-1    2.914412044985040E-1
 8.061949671250000E9     3.734793392864848E-1    4.380179257347697E-1   -2.333324856271141E-3    2.779910919155452E-3   -2.172661160813390E-3    2.971480384329905E-3    3.884834541117017E-1    2.913761311063798E-1
 8.061950743000000E9     3.736369280057684E-1    4.379278000248088E-1   -2.323997875937150E-3    2.771054442282738E-3   -2.155824996406598E-3    2.956852462268379E-3    3.885127113884938E-1    2.912918114683060E-1
 8.061951814750000E9     3.737119745298684E-1    4.378215360923659E-1   -2.307562667730443E-3    2.809891354088467E-3   -2.150411214075443E-3    2.951123000917529E-3    3.884862987412003E-1    2.913821997590088E-1
 8.061952886500000E9     3.737860952567761E-1    4.376092825867083E-1   -2.340719783893672E-3    2.806337980406893E-3   -2.169964956243280E-3    2.980735534800890E-3    3.886218216989684E-1    2.912282224801508E-1
 8.061953958250000E9     3.738595871590990E-1    4.376920358794746E-1   -2.323114242691545E-3    2.815496163552016E-3   -2.163782290507626E-3    3.021886841058604E-3    3.885629951179532E-1    2.912034790642704E-1
 8.061955030000000E9     3.738926593153378E-1    4.376012537969916E-1   -2.324825573944207E-3    2.800660031814002E-3   -2.163008266839457E-3    2.982715140437881E-3    3.887685129914729E-1    2.910636166605997E-1
 8.061956101750000E9     3.738958436039881E-1    4.375251178071120E-1   -2.310443360385017E-3    2.809705247099025E-3   -2.202545825126016E-3    2.990183435073924E-3    3.886438684077667E-1    2.910575473994832E-1
 8.061957173500000E9     3.741781167931114E-1    4.374589705808306E-1   -2.355924514732988E-3    2.827333103326104E-3   -2.197307148565388E-3    2.977760617652938E-3    3.888452149694365E-1    2.911218417449483E-1
 8.061958245250000E9     3.742183894228926E-1    4.373908717496066E-1   -2.337677445123440E-3    2.834020221570424E-3   -2.200037075918839E-3    3.018864486974315E-3    3.887842911213652E-1    2.910344792086252E-1
 8.061959317000000E9     3.741597442711847E-1    4.372645412164954E-1   -2.350280924548030E-3    2.834656150664646E-3   -2.187832219677885E-3    3.049872905553260E-3    3.888027722410562E-1    2.908120457973273E-1
 8.061960388750000E9     3.744550147482493E-1    4.371225201828440E-1   -2.339380502369985E-3    2.852559013879040E-3   -2.227830929770278E-3    3.045710674313801E-3    3.888874398864541E-1    2.909053166652840E-1
 8.061961460500000E9     3.744381522505986E-1    4.371757844607591E-1   -2.354473222644417E-3    2.865235687914739E-3   -2.235157558889477E-3    3.025896111619757E-3    3.888343349774623E-1    2.908607691870330E-1
 8.061962532250000E9     3.745181320790805E-1    4.370022726212408E-1   -2.378514381136558E-3    2.860610867607419E-3   -2.208684513920148E-3    3.026540294232831E-3    3.889205457683872E-1    2.907894799673731E-1
 8.061963604000000E9     3.746940562048772E-1    4.370256823263658E-1   -2.358082781424848E-3    2.877491116952882E-3   -2.189365040000764E-3    3.061769511706411E-3    3.889531632613626E-1    2.906495097132197E-1
 8.061964675750000E9     3.747399736309048E-1    4.368355757933279E-1   -2.371613895028323E-3    2.899329679893448E-3   -2.256215208346894E-3    3.030453976171936E-3    3.890011018612918E-1    2.907661019719820E-1
 8.061965747500000E9     3.748715979018335E-1    4.367224384092512E-1   -2.356159729650755E-3    2.922704437538372E-3   -2.246753505056997E-3    3.093806686077089E-3    3.889968241092995E-1    2.905781704551064E-1
 8.061966819250000E9     3.748939648725001E-1    4.364801181618294E-1   -2.400160291681175E-3    2.901753943596916E-3   -2.228727070363100E-3    3.068237622904474E-3    3.889946087611378E-1    2.906211815757002E-1
 8.061967891000000E9     3.749763442394820E-1    4.366810877196022E-1   -2.370190315931922E-3    2.919535838770206E-3   -2.245596857639589E-3    3.117564878194569E-3    3.890094512510009E-1    2.904370257299178E-1
 8.061968962750000E9     3.750214315275257E-1    4.365388887158895E-1   -2.396906249579299E-3    2.930740481720700E-3   -2.255065443097521E-3    3.080947836695926E-3    3.891302733298614E-1    2.903647672650044E-1
 8.061970034500000E9     3.752387358746237E-1    4.364278002505584E-1   -2.390879472317219E-3    2.931025680116851E-3   -2.234022534769010E-3    3.097232119446667E-3    3.892005567688809E-1    2.903780384756630E-1
 8.061971106250000E9     3.752564638459115E-1    4.363706588733582E-1   -2.414435957462430E-3    2.942421161078421E-3   -2.213985209247956E-3    3.164493675931887E-3    3.892912287470121E-1    2.902738573950496E-1
 8.061972178000000E9     3.753788737970241E-1    4.361910594397389E-1   -2.401676405522729E-3    2.951128430948574E-3   -2.226222364021220E-3    3.127073774515469E-3    3.892467113895702E-1    2.903110777336745E-1
 8.061973249750000E9     3.755665900052728E-1    4.360379599941301E-1   -2.405004659446845E-3    2.961511331368853E-3   -2.248576296254376E-3    3.151197570620752E-3    3.893000929600909E-1    2.902485368641921E-1
 8.061974321500000E9     3.755662182513096E-1    4.359285567429083E-1   -2.418326267205030E-3    2.977471598571436E-3   -2.228724211958491E-3    3.106088312491138E-3    3.893388775468848E-1    2.901952003432859E-1
 8.061975393250000E9     3.757570754238688E-1    4.359867892915720E-1   -2.411186382914629E-3    2.988691158141048E-3   -2.264046028867812E-3    3.146282219206206E-3    3.892707076249392E-1    2.901804253544221E-1
 8.061976465000000E9     3.757013535788181E-1    4.358396896042390E-1   -2.421927559113194E-3    3.021041622533113E-3   -2.306979369340765E-3    3.162874209251159E-3    3.893421472424575E-1    2.901150709597159E-1
 8.061977536750000E9     3.758183579183960E-1    4.356130031229644E-1   -2.429975641117374E-3    3.006636502935145E-3   -2.270299200094177E-3    3.197417910881680E-3    3.894374026681645E-1    2.898795263992338E-1
 8.061978608500000E9     3.760056820561213E-1    4.356392851143900E-1   -2.456991128602427E-3    3.024235430468287E-3   -2.289818838804812E-3    3.162302423117535E-3    3.894004517085393E-1    2.900680291838734E-1
 8.061979680250000E9     3.758944867273347E-1    4.356204171788872E-1   -2.441378662543181E-3    3.030305717883213E-3   -2.299507147964608E-3    3.207662760935658E-3    3.895967209798666E-1    2.898987963956045E-1
 8.061980752000000E9     3.760500072485207E-1    4.354738442403525E-1   -2.425507168341653E-3    3.052779117693321E-3   -2.271312476868521E-3    3.199998755508400E-3    3.896342221439024E-1    2.898576234038023E-1
 8.061981823750000E9     3.762244070206520E-1    4.353012957220901E-1   -2.442730136267302E-3    3.047420108865485E-3   -2.276522612591561E-3    3.212826584897682E-3    3.896751115107097E-1    2.897041233564987E-1
 8.061982895500000E9     3.762573158991779E-1    4.352268311968441E-1   -2.449612907606698E-3    3.055923679535287E-3   -2.287987340438812E-3    3.218957346226708E-3    3.896143173015441E-1    2.897114355149971E-1
 8.061983967250000E9     3.763416419866798E-1    4.352269468726783E-1   -2.457994782134370E-3    3.077246482135929E-3   -2.281831863115351E-3    3.232196368074269E-3    3.897157455426337E-1    2.897818495850926E-1
 8.061985039000000E9     3.763178491625895E-1    4.349908943331806E-1   -2.471235405637338E-3    3.080123321361039E-3   -2.280232285474574E-3    3.276976518585595E-3    3.897255428467988E-1    2.897317729317482E-1
 8.061986110750000E9     3.766285976844181E-1    4.349786862746835E-1   -2.440416493801351E-3    3.111627923049510E-3   -2.320818081152746E-3    3.302006797193487E-3    3.897059352672854E-1    2.895743662669675E-1
 8.061987182500000E9     3.766087570945849E-1    4.348692686887757E-1   -2.483004216045823E-3    3.140721105934719E-3   -2.292931209770057E-3    3.302586642820113E-3    3.896707855109734E-1    2.895481757881730E-1
 8.061988254250000E9     3.767588178801098E-1    4.347705029888416E-1   -2.472707319863247E-3    3.107697224631387E-3   -2.337225240099894E-3    3.299466585013195E-3    3.898145914067873E-1    2.893905197082079E-1
 8.061989326000000E9     3.769348970737868E-1    4.346298528080345E-1   -2.507585305060712E-3    3.148301608553027E-3   -2.350936296235668E-3    3.329584468308592E-3    3.898358897673302E-1    2.895304185179958E-1
 8.061990397750000E9     3.768720769414306E-1    4.346297279629865E-1   -2.484856141435694E-3    3.134314678418961E-3   -2.326395860425862E-3    3.322810451955627E-3    3.900036292698078E-1    2.894676541249152E-1
 8.061991469500000E9     3.770385727105271E-1    4.344469562968469E-1   -2.494647357063905E-3    3.170565509427391E-3   -2.338931875716402E-3    3.331055904749578E-3    3.898817271274788E-1    2.893535213684038E-1
 8.061992541250000E9     3.772159692897278E-1    4.343591501060711E-1   -2.524752539666369E-3    3.170955153877642E-3   -2.358720378139213E-3    3.360381596724083E-3    3.900464129226375E-1    2.892896748248082E-1
 8.061993613000000E9     3.773077614958313E-1    4.342223384089182E-1   -2.505440353728178E-3    3.194617980549437E-3   -2.354227850858755E-3    3.349682280114090E-3    3.898538568717929E-1    2.892246443607333E-1
 8.061994684750000E9     3.772394361381073E-1    4.342095240799260E-1   -2.503552857003962E-3    3.196198957871911E-3   -2.332099493227086E-3    3.376453544002729E-3    3.900001434483092E-1    2.891535610456186E-1
 8.061995756500000E9     3.775131058364667E-1    4.341040706819347E-1   -2.531113962024475E-3    3.212086180173898E-3   -2.388380141952303E-3    3.398531383781061E-3    3.900169360304386E-1    2.890566906826180E-1
 8.061996828250000E9     3.776104818187126E-1    4.339879096858070E-1   -2.533108528873758E-3    3.220543119684313E-3   -2.373864330118349E-3    3.426345408739549E-3    3.901198581743253E-1    2.890944563034971E-1
 8.061997900000000E9     3.776624808008752E-1    4.338852134915959E-1   -2.548728781629002E-3    3.237232403098337E-3   -2.372362008032860E-3    3.418237409939952E-3    3.900861569908559E-1    2.889368479870823E-1
 8.061998971750000E9     3.776788335238215E-1    4.337710270671792E-1   -2.525526235496649E-3    3.270245844040658E-3   -2.347641827234003E-3    3.437962722890014E-3    3.902750004346746E-1    2.890198265937267E-1
 8.062000043500000E9     3.777894617149454E-1    4.336593824895091E-1   -2.549217913251337E-3    3.275195293351078E-3   -2.348396108284827E-3    3.481027821037667E-3    3.902740220488476E-1    2.889311335762846E-1
 8.062001115250000E9     3.778721086296417E-1    4.335579989798646E-1   -2.541949175343131E-3    3.297049018243735E-3   -2.361556202771559E-3    3.481182244687067E-3    3.902685881932609E-1    2.887716811162271E-1
 8.062002187000000E9     3.780100197857481E-1    4.334833845676351E-1   -2.544012073171519E-3    3.301940665937802E-3   -2.386771080858546E-3    3.450901473992383E-3    3.903009748208627E-1    2.886405494810647E-1
 8.062003258750000E9     3.780415884820301E-1    4.333693975144313E-1   -2.556757533876021E-3    3.331169337005035E-3   -2.412006282500454E-3    3.510922349879245E-3    3.903685041292572E-1    2.886783405755827E-1
 8.062004330500000E9     3.781572319703799E-1    4.332397841793716E-1   -2.577518025433073E-3    3.293547930094671E-3   -2.439672145498581E-3    3.507257432831914E-3    3.903602808962363E-1    2.886029442483092E-1
 8.062005402250000E9     3.783315847261429E-1    4.331085571516522E-1   -2.589623029253537E-3    3.344995282191109E-3   -2.394270545863444E-3    3.519786111612356E-3    3.904018201360329E-1    2.887564102547023E-1
 8.062006474000000E9     3.783850635371418E-1    4.330897693289335E-1   -2.584535129100729E-3    3.350188037361148E-3   -2.399722810469331E-3    3.597593491022384E-3    3.904470334850735E-1    2.885194657548528E-1
 8.062007545750000E9     3.784809077778081E-1    4.329533232845434E-1   -2.589804696202495E-3    3.387294591985153E-3   -2.439012713360774E-3    3.581591709281982E-3    3.903998154005580E-1    2.884129545311621E-1
 8.062008617500000E9     3.785859490719823E-1    4.328047891017887E-1   -2.601519911931598E-3    3.362258213068148E-3   -2.417648011348713E-3    3.567937553684690E-3    3.905742606345796E-1    2.883913063153150E-1
 8.062009689250000E9     3.787621754317056E-1    4.327137043443557E-1   -2.616297822980546E-3    3.418924097516853E-3   -2.421746367958455E-3    3.603993950658158E-3    3.905511458536482E-1    2.882830259890671E-1
 8.062010761000000E9     3.787739247234340E-1    4.325150759361490E-1   -2.613618711528360E-3    3.397115654383101E-3   -2.440827643549334E-3    3.613372853059802E-3    3.905468529919288E-1    2.883535500137063E-1
 8.062011832750000E9     3.789788377586475E-1    4.323050383298596E-1   -2.599519238978147E-3    3.429833500750825E-3   -2.419452707175231E-3    3.646450241330796E-3    3.905594623210779E-1    2.881841251621783E-1
 8.062012904500000E9     3.790007952006164E-1    4.322946971550084E-1   -2.621837611402093E-3    3.445893138870532E-3   -2.480540119406814E-3    3.659662211028951E-3    3.905666975132446E-1    2.881497250929436E-1
 8.062013976250000E9     3.791209453291003E-1    4.320637114428525E-1   -2.634320507043320E-3    3.479285894997653E-3   -2.458866466166674E-3    3.655231848733545E-3    3.907459372934042E-1    2.882343227693479E-1
 8.062015048000000E9     3.792639521054723E-1    4.320389398261193E-1   -2.641131427844299E-3    3.485376089243711E-3   -2.448145120387008E-3    3.672037818741332E-3    3.906017186842758E-1    2.880339534350871E-1
 8.062016119750000E9     3.794055044960978E-1    4.319331401989340E-1   -2.677647619247236E-3    3.490669352208119E-3   -2.471731851328072E-3    3.701240094599535E-3    3.907554181623744E-1    2.880224783629315E-1
 8.062017191500000E9     3.794134418870240E-1    4.317422978101986E-1   -2.671905890628574E-3    3.526709430933931E-3   -2.480347854112547E-3    3.751190301811304E-3    3.907967172309589E-1    2.880196596864155E-1
 8.062018263250000E9     3.795244063380435E-1    4.317147237688556E-1   -2.659605686140527E-3    3.522016130443106E-3   -2.486935844770175E-3    3.775427226076444E-3    3.908884386395630E-1    2.879220536839759E-1
 8.062019335000000E9     3.796573290134349E-1    4.314485479953526E-1   -2.672525740050032E-3    3.569253722856461E-3   -2.474703988876402E-3    3.752893561149032E-3    3.908123982981658E-1    2.878304749623821E-1
 8.062020406750000E9     3.797699924008730E-1    4.313316364056033E-1   -2.694337088550038E-3    3.588237206527986E-3   -2.504260060160844E-3    3.796314202695365E-3    3.908889198564284E-1    2.878616886781266E-1
 8.062021478500000E9     3.798086044823692E-1    4.312295745614317E-1   -2.692546112528324E-3    3.621449781020160E-3   -2.499943049979586E-3    3.819142599779688E-3    3.910198163797916E-1    2.876012660433860E-1
