#  HZ   S   RI   R     50.00 
! Rohde & Schwarz Vector Network Analyzer 
! Rohde-Schwarz,ZNB20-2Port,1311601062101988,3.16
! Created: UTC 3/20/2024, 10:59:25 PM
! freq[Hz]                re:S11                  im:S11                  re:S21                  im:S21                  re:S12                  im:S12                  re:S22                  im:S22
 8.061919618000000E9     3.712102190586124E-1    4.401483865835556E-1   -2.215975339662476E-3    2.592855800744433E-3   -2.064062393366013E-3    2.743948589186328E-3    3.874570995514430E-1    2.928226389983116E-1
 8.061920711950000E9     3.711851596013902E-1    4.399568818926120E-1   -2.219055466860557E-3    2.586072085707389E-3   -2.090371772060051E-3    2.756300565862478E-3    3.875378684468748E-1    2.929775108575834E-1
 8.061921805900000E9     3.713539182520427E-1    4.400304470965750E-1   -2.228655504167178E-3    2.586919288840939E-3   -2.092910410558243E-3    2.800446587834669E-3    3.875281994489070E-1    2.925704849551305E-1
 8.061922899850000E9     3.714745229536152E-1    4.400431925681397E-1   -2.231215147958840E-3    2.632849197978328E-3   -2.115759543751812E-3    2.777718985969390E-3    3.876697040854675E-1    2.926516221753302E-1
 8.061923993800000E9     3.715785222914338E-1    4.397398074328610E-1   -2.212455773980224E-3    2.613715365910778E-3   -2.103305314857029E-3    2.785743331994446E-3    3.877046296255684E-1    2.925390376287488E-1
 8.061925087750000E9     3.716806425463253E-1    4.398055565661066E-1   -2.251016725080717E-3    2.608062174844538E-3   -2.108512079628971E-3    2.755091493242908E-3    3.876631429620045E-1    2.925693950887643E-1
 8.061926181700000E9     3.717955334019510E-1    4.396423599823414E-1   -2.245360524043777E-3    2.631400935752207E-3   -2.106339621106955E-3    2.776711275513067E-3    3.879209972962161E-1    2.924512873382293E-1
 8.061927275650000E9     3.717887293635032E-1    4.394352384918707E-1   -2.247158953117655E-3    2.633126987988392E-3   -2.101485639607591E-3    2.811794776436716E-3    3.877817025066034E-1    2.924346855376008E-1
 8.061928369600000E9     3.718060019692602E-1    4.394636788108870E-1   -2.241035032275151E-3    2.629235084113631E-3   -2.128877366822344E-3    2.776820873412387E-3    3.879134117914050E-1    2.924522596718734E-1
 8.061929463550000E9     3.720130672839797E-1    4.393959067495578E-1   -2.261457380205378E-3    2.671196775793072E-3   -2.092142050252808E-3    2.814243800054112E-3    3.878194824680571E-1    2.923321799938104E-1
 8.061930557500000E9     3.721550842423986E-1    4.392564923063114E-1   -2.252548863169821E-3    2.658990177962933E-3   -2.116186105000103E-3    2.820569853875365E-3    3.879984721537305E-1    2.923680134428400E-1
 8.061931651450000E9     3.721217986607934E-1    4.392175030988477E-1   -2.242674298015114E-3    2.667791919303524E-3   -2.100881001687286E-3    2.795492133780681E-3    3.878799289260651E-1    2.922062245428846E-1
 8.061932745400000E9     3.721925249057050E-1    4.391268061268181E-1   -2.243064295904713E-3    2.690697245872519E-3   -2.141676721971597E-3    2.842149123492997E-3    3.880840519768732E-1    2.922666004861044E-1
 8.061933839350000E9     3.723971680740102E-1    4.391381777592537E-1   -2.244909884317785E-3    2.661834657700692E-3   -2.136797537863369E-3    2.836487049281938E-3    3.880723370101951E-1    2.921632704510394E-1
 8.061934933300000E9     3.724088480706736E-1    4.389113560023113E-1   -2.255673873699477E-3    2.663653951506527E-3   -2.108733726867869E-3    2.828946347712466E-3    3.880656935951036E-1    2.920627219712598E-1
 8.061936027250000E9     3.724921286840466E-1    4.389016753870786E-1   -2.253744147018943E-3    2.699285560687751E-3   -2.105908926769359E-3    2.896624633876886E-3    3.881874071735740E-1    2.920620847890810E-1
 8.061937121200000E9     3.726227193887610E-1    4.388912337338322E-1   -2.276751276017449E-3    2.694725699304689E-3   -2.106283568588117E-3    2.842099807675942E-3    3.882654763156592E-1    2.920146880795655E-1
 8.061938215150000E9     3.727516768908044E-1    4.388179739258160E-1   -2.268174213491824E-3    2.699030735675480E-3   -2.109647245468911E-3    2.866551821812894E-3    3.881006155171615E-1    2.919642121062167E-1
 8.061939309100000E9     3.727312250719229E-1    4.387968493381427E-1   -2.285923014434859E-3    2.714165526680797E-3   -2.146557738987351E-3    2.917300541405278E-3    3.882533229672681E-1    2.920140333499079E-1
 8.061940403050000E9     3.728777182503101E-1    4.386127426967992E-1   -2.272620179676418E-3    2.715705275468359E-3   -2.154215858144376E-3    2.871585113384432E-3    3.882706362481546E-1    2.918155167836748E-1
 8.061941497000000E9     3.729298659859904E-1    4.384747587871821E-1   -2.281406476497602E-3    2.730523091049848E-3   -2.127227191079395E-3    2.942019401983902E-3    3.882040767187793E-1    2.917871932453641E-1
 8.061942590950000E9     3.731159817100558E-1    4.384578191830829E-1   -2.280985337989727E-3    2.732972348325779E-3   -2.137946243652109E-3    2.925713608592403E-3    3.883431717745520E-1    2.917164843078579E-1
 8.061943684900000E9     3.730667264039473E-1    4.384393365365794E-1   -2.292104606959789E-3    2.754123952195272E-3   -2.153368358814812E-3    2.909359043814351E-3    3.883670199683713E-1    2.916426279519070E-1
 8.061944778850000E9     3.731989905744135E-1    4.382196155428563E-1   -2.320384233027998E-3    2.742793366833864E-3   -2.157778657854973E-3    2.924145299506747E-3    3.885325053124346E-1    2.914821326181274E-1
 8.061945872800000E9     3.732814629992448E-1    4.381592759292638E-1   -2.318716772443141E-3    2.744462049677050E-3   -2.141822742194124E-3    2.916969189057732E-3    3.884300101106974E-1    2.915439093332103E-1
 8.061946966750000E9     3.732560479477992E-1    4.381201955007887E-1   -2.312475082699898E-3    2.772484998804121E-3   -2.171050312822023E-3    2.949932597010984E-3    3.884974261572305E-1    2.914444759756500E-1
 8.061948060700000E9     3.733570713688355E-1    4.380166835156420E-1   -2.312965239084242E-3    2.771812901237721E-3   -2.185492494147304E-3    2.936799368615650E-3    3.885534784898068E-1    2.913097234648223E-1
 8.061949154650000E9     3.735615893157854E-1    4.380609544473644E-1   -2.332608188342722E-3    2.802268051132244E-3   -2.160009131974294E-3    2.944443963773305E-3    3.885797230812554E-1    2.913437024788091E-1
 8.061950248600000E9     3.737007110416208E-1    4.379306814516496E-1   -2.335499351186322E-3    2.792545748392185E-3   -2.199924744831276E-3    2.918735741804274E-3    3.885969405859470E-1    2.913594219099594E-1
 8.061951342550000E9     3.737052018881434E-1    4.377712110764822E-1   -2.318090390315282E-3    2.789595921301124E-3   -2.167889828083453E-3    2.958556469691307E-3    3.886840874502393E-1    2.912349475514267E-1
 8.061952436500000E9     3.738961019493461E-1    4.377038265018193E-1   -2.327561075481772E-3    2.814047194602270E-3   -2.186967413795497E-3    2.962770480859846E-3    3.887030507919105E-1    2.912124081866043E-1
 8.061953530450000E9     3.738801896559548E-1    4.376459661497542E-1   -2.317809851995073E-3    2.823805753357661E-3   -2.171545681766148E-3    2.946313295735495E-3    3.887928338824103E-1    2.911457037479615E-1
 8.061954624400000E9     3.739577611571315E-1    4.375196539830854E-1   -2.328448177315385E-3    2.798887756323541E-3   -2.204677060352561E-3    3.033459445144961E-3    3.888392517687101E-1    2.910879796953194E-1
 8.061955718350000E9     3.739594871808214E-1    4.373942100991760E-1   -2.336679256054746E-3    2.822223604023115E-3   -2.200315638957549E-3    3.012414162478742E-3    3.889854423934153E-1    2.910177517134512E-1
 8.061956812300000E9     3.740754913081838E-1    4.373286861874725E-1   -2.335417055251872E-3    2.835309535587441E-3   -2.181484256142389E-3    3.017430941171260E-3    3.889523306981645E-1    2.910029205525165E-1
 8.061957906250000E9     3.742095756723153E-1    4.372495836109092E-1   -2.325751858270135E-3    2.850047096937626E-3   -2.224064757453767E-3    3.006919889935678E-3    3.888648796573967E-1    2.908448526908057E-1
 8.061959000200000E9     3.742714443576081E-1    4.372106459368156E-1   -2.333641743972237E-3    2.863130110065516E-3   -2.207343697781900E-3    3.028261077502929E-3    3.888793130214333E-1    2.907973696168484E-1
 8.061960094150000E9     3.744310117901676E-1    4.370535817716737E-1   -2.351283778620547E-3    2.873132092242228E-3   -2.229789041767075E-3    3.021451652244114E-3    3.890621007124134E-1    2.907583162003728E-1
 8.061961188100000E9     3.746218405619370E-1    4.370384817361132E-1   -2.369566935878351E-3    2.869574175478567E-3   -2.202071581373180E-3    3.015456495014450E-3    3.892454456365234E-1    2.906187891324518E-1
 8.061962282050000E9     3.745459664353005E-1    4.369688692362372E-1   -2.353955761586795E-3    2.874277388431641E-3   -2.228384491213916E-3    3.023698266867009E-3    3.890544850463445E-1    2.906853868495787E-1
 8.061963376000000E9     3.746685712263167E-1    4.368292330192357E-1   -2.388210051003668E-3    2.910228666777478E-3   -2.193142179662628E-3    3.064166110763524E-3    3.891372429983530E-1    2.905447420164681E-1
 8.061964469950000E9     3.747219395544521E-1    4.367138906718608E-1   -2.386592084940897E-3    2.916591834043075E-3   -2.240368212684797E-3    3.060419206644851E-3    3.889831571929023E-1    2.905782103730766E-1
 8.061965563900000E9     3.747492373126514E-1    4.367394970340531E-1   -2.381129523284733E-3    2.897727559482746E-3   -2.221523640564773E-3    3.073795397734308E-3    3.891958374646252E-1    2.905706150546892E-1
 8.061966657850000E9     3.747387165082486E-1    4.366667005712248E-1   -2.396682213862018E-3    2.913370780817410E-3   -2.235540952863365E-3    3.095070663589141E-3    3.892237660930516E-1    2.904957549952266E-1
 8.061967751800000E9     3.751368286621798E-1    4.365596052529662E-1   -2.385112672748112E-3    2.909720203133139E-3   -2.254130005020915E-3    3.098601047850834E-3    3.891568944329432E-1    2.903124936561945E-1
 8.061968845750000E9     3.752105021104347E-1    4.364218232481466E-1   -2.396749260770374E-3    2.931774749702340E-3   -2.254958115731570E-3    3.095062952307070E-3    3.893435834433853E-1    2.905500240561270E-1
 8.061969939700000E9     3.752350454676482E-1    4.362211876881121E-1   -2.409602342315472E-3    2.951516278294160E-3   -2.255172539898291E-3    3.158034130103752E-3    3.893022882343736E-1    2.903971967520014E-1
 8.061971033650000E9     3.752540746469999E-1    4.363429397360136E-1   -2.392296833670701E-3    2.936893812834022E-3   -2.256129106993996E-3    3.109583531501950E-3    3.892606436021745E-1    2.902743156425095E-1
 8.061972127600000E9     3.754919135441835E-1    4.361592379759530E-1   -2.413701096630518E-3    2.951942142079184E-3   -2.266440680738529E-3    3.127776452969581E-3    3.893307434964441E-1    2.901638617428005E-1
 8.061973221550000E9     3.754726389105483E-1    4.360697624468948E-1   -2.422440610828321E-3    2.967240202508276E-3   -2.225273276850574E-3    3.130741499874045E-3    3.894455154175369E-1    2.901624752325571E-1
 8.061974315500000E9     3.755258031306535E-1    4.359994166171598E-1   -2.398966141143406E-3    2.995896299575728E-3   -2.293858200756491E-3    3.198811982005158E-3    3.894157134254050E-1    2.900198807493393E-1
 8.061975409450000E9     3.756645974149943E-1    4.359733911014018E-1   -2.416382813393759E-3    2.991262520416178E-3   -2.260831845107520E-3    3.178737171367201E-3    3.894097470549572E-1    2.900285364825189E-1
 8.061976503400000E9     3.757902747724460E-1    4.359209465751546E-1   -2.428750434219106E-3    2.999691896147624E-3   -2.299576030173361E-3    3.167340302307981E-3    3.896447961589068E-1    2.899749979464942E-1
 8.061977597350000E9     3.758119372620873E-1    4.357818097999084E-1   -2.426184825921966E-3    3.012584124793341E-3   -2.282670990524482E-3    3.209093845466711E-3    3.895678641046361E-1    2.900237076468135E-1
 8.061978691300000E9     3.760255796358672E-1    4.355102242060385E-1   -2.458125860600302E-3    3.037237336416236E-3   -2.280038702566445E-3    3.209340589552259E-3    3.896096692506942E-1    2.898881073947377E-1
 8.061979785250000E9     3.760554185325097E-1    4.353933326017467E-1   -2.444442217397027E-3    3.039857381625235E-3   -2.293198725932492E-3    3.204348627478648E-3    3.896032448715769E-1    2.897096114856587E-1
 8.061980879200000E9     3.761462625819264E-1    4.353674763888972E-1   -2.440176358309685E-3    3.069131984626391E-3   -2.284523098333465E-3    3.235594463775000E-3    3.896840917663142E-1    2.897684950793259E-1
 8.061981973150000E9     3.761734729657931E-1    4.352961180432773E-1   -2.445689056299707E-3    3.059151639000390E-3   -2.285973253594662E-3    3.251633595780577E-3    3.897804786092066E-1    2.898357390259176E-1
 8.061983067100000E9     3.763880489323457E-1    4.351842136606503E-1   -2.449768464809623E-3    3.086745368717958E-3   -2.317555690270176E-3    3.288519816652132E-3    3.897058015708329E-1    2.895563105295576E-1
 8.061984161050000E9     3.763579409480947E-1    4.351572450661680E-1   -2.475067025128119E-3    3.066777281413353E-3   -2.315931315036953E-3    3.301497141985401E-3    3.898396580381027E-1    2.896267598592273E-1
 8.061985255000000E9     3.765907379155297E-1    4.349923420460375E-1   -2.455357342089245E-3    3.120028008084516E-3   -2.325343701427133E-3    3.243048709741669E-3    3.898692512208913E-1    2.895137834530193E-1
 8.061986348950000E9     3.765916387102741E-1    4.349338969665731E-1   -2.473048076546898E-3    3.115922797019530E-3   -2.305970807584992E-3    3.310845937457555E-3    3.898069018929163E-1    2.895271682955413E-1
 8.061987442900000E9     3.768251200140715E-1    4.346398834663618E-1   -2.472762071348844E-3    3.139553421595239E-3   -2.283749896436418E-3    3.305305621839540E-3    3.896824384361051E-1    2.893694043910434E-1
 8.061988536850000E9     3.768154421305683E-1    4.346716675366810E-1   -2.477124008871727E-3    3.139126457808200E-3   -2.335889848343621E-3    3.311893308893440E-3    3.900032309596189E-1    2.893713740895844E-1
 8.061989630800000E9     3.769315534977806E-1    4.346523616466434E-1   -2.515066290114689E-3    3.159132409999623E-3   -2.337948814535488E-3    3.352827397309314E-3    3.898139917216686E-1    2.891900790654776E-1
 8.061990724750000E9     3.769109377645735E-1    4.344711107333263E-1   -2.493629656737774E-3    3.183427041489808E-3   -2.335199877923774E-3    3.356187195979797E-3    3.900543990851698E-1    2.892612059198594E-1
 8.061991818700000E9     3.771069504496595E-1    4.345239707526559E-1   -2.484625098012660E-3    3.219424383357043E-3   -2.339518291148434E-3    3.363483638103678E-3    3.902003407687765E-1    2.891859137939782E-1
 8.061992912650000E9     3.772875886362055E-1    4.342089029543697E-1   -2.502167703481649E-3    3.174984369597575E-3   -2.362927071037646E-3    3.371001083914722E-3    3.900889705694551E-1    2.891979472658220E-1
 8.061994006600000E9     3.771786725486945E-1    4.342915015287832E-1   -2.520305843142426E-3    3.202216402055168E-3   -2.365811338829939E-3    3.389519016249282E-3    3.902749004511308E-1    2.892063278292193E-1
 8.061995100550000E9     3.772780220623172E-1    4.341069618638317E-1   -2.551930351273748E-3    3.239769029888469E-3   -2.332525267765883E-3    3.394490345221279E-3    3.901627090815480E-1    2.889293894162367E-1
 8.061996194500000E9     3.774268999359535E-1    4.339277769461887E-1   -2.529052556634023E-3    3.232129121010946E-3   -2.349740326514095E-3    3.393019199483855E-3    3.901640003472941E-1    2.890652921564469E-1
 8.061997288450000E9     3.775549679922356E-1    4.340193625964452E-1   -2.528189908808628E-3    3.237143045087083E-3   -2.361941892227146E-3    3.443520435042678E-3    3.902623777798523E-1    2.889002114506836E-1
 8.061998382400000E9     3.777830608895983E-1    4.337353615303651E-1   -2.524656035613507E-3    3.284255258706915E-3   -2.365724790471772E-3    3.463795690782911E-3    3.902777799722634E-1    2.888126872009685E-1
 8.061999476350000E9     3.778480987388110E-1    4.336311988018247E-1   -2.559523744956047E-3    3.261325168997956E-3   -2.369959411988217E-3    3.482334264341760E-3    3.902557794004457E-1    2.887111201568059E-1
 8.062000570300000E9     3.777817714119261E-1    4.335349096979177E-1   -2.578286105120024E-3    3.300767150671927E-3   -2.385758040671483E-3    3.493976502710959E-3    3.903502381610033E-1    2.887211651584398E-1
 8.062001664250000E9     3.780230513342939E-1    4.333895211590326E-1   -2.576190330354155E-3    3.297235299862614E-3   -2.387685272144820E-3    3.485882719168453E-3    3.904269417844892E-1    2.886069470207535E-1
 8.062002758200000E9     3.781843900453266E-1    4.333136897737937E-1   -2.562554934433733E-3    3.319092857650808E-3   -2.377666184861892E-3    3.500173218143813E-3    3.904869364158801E-1    2.886082896318591E-1
 8.062003852150000E9     3.782935408873959E-1    4.331913250656485E-1   -2.577229007074350E-3    3.339867424441090E-3   -2.406994487434753E-3    3.526703706457902E-3    3.905594633591441E-1    2.886273425460396E-1
 8.062004946100000E9     3.782223141534801E-1    4.331162690613946E-1   -2.567571676529682E-3    3.345426862835511E-3   -2.404271555869375E-3    3.577001918915949E-3    3.904795973296865E-1    2.886459316994083E-1
 8.062006040050000E9     3.784273701200983E-1    4.328748459140159E-1   -2.573321865822016E-3    3.359903746828969E-3   -2.413794712513238E-3    3.572988239342598E-3    3.905524556053591E-1    2.884956410901645E-1
 8.062007134000000E9     3.784678168740301E-1    4.328019329374134E-1   -2.597506701553616E-3    3.398771879226832E-3   -2.447835818582370E-3    3.557532433099836E-3    3.907145561952586E-1    2.884488402143826E-1
 8.062008227950000E9     3.786996716266570E-1    4.328193621018177E-1   -2.614182064710922E-3    3.414922573909600E-3   -2.419174327513386E-3    3.600754589692513E-3    3.905367190368320E-1    2.884515083732057E-1
 8.062009321900000E9     3.787324209111261E-1    4.326237442752126E-1   -2.600539844900890E-3    3.415337054841421E-3   -2.417634827584904E-3    3.589392867916878E-3    3.907885068771793E-1    2.882913763791551E-1
 8.062010415850000E9     3.787930439156471E-1    4.324836467677693E-1   -2.601883947169003E-3    3.423783731778600E-3   -2.441477168744152E-3    3.620295571011537E-3    3.906842916944698E-1    2.882904531872025E-1
 8.062011509800000E9     3.788730797535659E-1    4.323539228797613E-1   -2.620052691484916E-3    3.449475074360855E-3   -2.458279077102863E-3    3.634654545181137E-3    3.909591981396399E-1    2.880936774592012E-1
 8.062012603750000E9     3.790053443646085E-1    4.322584597748573E-1   -2.650686384780662E-3    3.480368439049434E-3   -2.455585669990142E-3    3.682936881201448E-3    3.908487401710512E-1    2.882208840310714E-1
 8.062013697700000E9     3.790990132347793E-1    4.320352013492517E-1   -2.623249094667030E-3    3.475664191885564E-3   -2.455447560376617E-3    3.651408635092307E-3    3.907361034527985E-1    2.880969118447702E-1
 8.062014791650000E9     3.792449772538625E-1    4.320306153759635E-1   -2.646284281267894E-3    3.492142327686820E-3   -2.514456790082458E-3    3.710533556926561E-3    3.909216423414205E-1    2.879578526766189E-1
 8.062015885600000E9     3.794242313775481E-1    4.318806937234367E-1   -2.653799649737794E-3    3.517326157137868E-3   -2.475493636962922E-3    3.693435261671900E-3    3.908277674565823E-1    2.878690851494022E-1
 8.062016979550000E9     3.794955249305867E-1    4.317287772077092E-1   -2.674510467161739E-3    3.571974106958658E-3   -2.489203982953466E-3    3.726519380369307E-3    3.908622427609386E-1    2.877801706908573E-1
 8.062018073500000E9     3.795608292793552E-1    4.314478836040851E-1   -2.661555725315426E-3    3.569601111348433E-3   -2.482843033035885E-3    3.771275341213689E-3    3.910223792120077E-1    2.879552937975199E-1
