#  HZ   S   RI   R     50.00 
! Rohde & Schwarz Vector Network Analyzer 
! Rohde-Schwarz,ZNB20-2Port,1311601062101988,3.16
! Created: UTC 3/20/2024, 10:59:52 PM
! freq[Hz]                re:S11                  im:S11                  re:S21                  im:S21                  re:S12                  im:S12                  re:S22                  im:S22
 8.061906027000000E9     3.702918399917531E-1    4.408673455918181E-1   -2.188976176423215E-3    2.559974986748905E-3   -2.060701409588088E-3    2.732648517923500E-3    3.876780592988234E-1    2.933010756701914E-1
 8.061907152000000E9     3.703771822107698E-1    4.408179876336780E-1   -2.204206423510785E-3    2.559935999634429E-3   -2.093469618138554E-3    2.728396032717776E-3    3.878331866936693E-1    2.933082452571210E-1
 8.061908277000000E9     3.704151456075006E-1    4.406454620516621E-1   -2.211813497627844E-3    2.581121700329984E-3   -2.079726448622616E-3    2.706245767417795E-3    3.877415799369847E-1    2.933391912583452E-1
 8.061909402000000E9     3.705743264810241E-1    4.406156096133718E-1   -2.199630325968555E-3    2.601486779583868E-3   -2.095819614170475E-3    2.728115127267467E-3    3.878623273952831E-1    2.933509917735909E-1
 8.061910527000000E9     3.707008520941979E-1    4.405116460064801E-1   -2.203301035030716E-3    2.588253421375989E-3   -2.058810244861085E-3    2.753651232816408E-3    3.877625244764181E-1    2.930283790268986E-1
 8.061911652000000E9     3.707170948371202E-1    4.404236177163902E-1   -2.223759594204163E-3    2.564017059789750E-3   -2.084967245402421E-3    2.730770528404390E-3    3.877846880094227E-1    2.931017503416438E-1
 8.061912777000000E9     3.708380376369376E-1    4.403853217131898E-1   -2.199222483781058E-3    2.607306220305040E-3   -2.065162545809145E-3    2.751743822008261E-3    3.877519684281707E-1    2.929490074476083E-1
 8.061913902000000E9     3.708874670154643E-1    4.403683927145793E-1   -2.245100685559235E-3    2.603556621191809E-3   -2.074365030820177E-3    2.780193644406099E-3    3.878507739779367E-1    2.930135137213645E-1
 8.061915027000000E9     3.710573423165291E-1    4.402191318326623E-1   -2.241989532700185E-3    2.617809875426849E-3   -2.074419880985286E-3    2.779629558439010E-3    3.880425130046253E-1    2.929286505571246E-1
 8.061916152000000E9     3.711219701429749E-1    4.400547825342922E-1   -2.217166964768077E-3    2.598378275790176E-3   -2.071415118941384E-3    2.767310107948861E-3    3.880289145863192E-1    2.929751807131104E-1
 8.061917277000000E9     3.711713476108562E-1    4.400221855728915E-1   -2.217477424735673E-3    2.634378226673172E-3   -2.085874917198772E-3    2.772162936068997E-3    3.881872279860532E-1    2.928622433762583E-1
 8.061918402000000E9     3.711880650431693E-1    4.399603101660192E-1   -2.208564800084481E-3    2.637119298892868E-3   -2.082677623533866E-3    2.772190017523152E-3    3.881407386062758E-1    2.928521347935054E-1
 8.061919527000000E9     3.713850117433736E-1    4.397798120287598E-1   -2.209857515722773E-3    2.639748668293952E-3   -2.072523908480189E-3    2.792409691091785E-3    3.880321987473073E-1    2.926501757898335E-1
 8.061920652000000E9     3.714371728973315E-1    4.398663358542292E-1   -2.236345845269826E-3    2.644635225961459E-3   -2.096241988190241E-3    2.788745426075478E-3    3.882338805819318E-1    2.925830898805800E-1
 8.061921777000000E9     3.715194384423892E-1    4.396581649971363E-1   -2.236115077140226E-3    2.648661726178044E-3   -2.103528876898056E-3    2.801004963990286E-3    3.882436246469134E-1    2.926060476640803E-1
 8.061922902000000E9     3.716982592466859E-1    4.396123580740259E-1   -2.248736581102610E-3    2.657621227124008E-3   -2.114012980758106E-3    2.819269557685048E-3    3.882403090070521E-1    2.925638855247952E-1
 8.061924027000000E9     3.718320621079019E-1    4.395284293163217E-1   -2.218477746571190E-3    2.650942701080410E-3   -2.124984073751343E-3    2.820576162544019E-3    3.881440391089944E-1    2.925944572193407E-1
 8.061925152000000E9     3.717738181882156E-1    4.394438687460177E-1   -2.235296088744054E-3    2.695633377435216E-3   -2.134758183069132E-3    2.842096028853082E-3    3.883155655341068E-1    2.924610317391410E-1
 8.061926277000000E9     3.719526429511270E-1    4.393509887453311E-1   -2.260860439271566E-3    2.670716019087938E-3   -2.079845971123627E-3    2.845538647039101E-3    3.882833535129921E-1    2.924604978194260E-1
 8.061927402000000E9     3.720812469872983E-1    4.392148125576254E-1   -2.286724330847560E-3    2.691598695846693E-3   -2.091123173498079E-3    2.889580838031144E-3    3.883266979360135E-1    2.923225981825385E-1
 8.061928527000000E9     3.720963377119823E-1    4.392812779631345E-1   -2.257844367768710E-3    2.699388436594537E-3   -2.106046976996753E-3    2.853690287631150E-3    3.884349923203219E-1    2.923756637875001E-1
 8.061929652000000E9     3.721959412174947E-1    4.391629758211808E-1   -2.256458915469269E-3    2.723149627145053E-3   -2.164230719922459E-3    2.834832323953538E-3    3.885451502114759E-1    2.921409293386248E-1
 8.061930777000000E9     3.722415268311361E-1    4.390886288734630E-1   -2.274683041406890E-3    2.690491355709382E-3   -2.148937829870825E-3    2.882144302035200E-3    3.884954216235708E-1    2.920686940166033E-1
 8.061931902000000E9     3.723833224490000E-1    4.390491994233314E-1   -2.235396774657080E-3    2.712577322398996E-3   -2.106304480449862E-3    2.860230606217674E-3    3.885113146986704E-1    2.921550284099220E-1
 8.061933027000000E9     3.723966806786241E-1    4.390428502428062E-1   -2.279000203456019E-3    2.724395121375138E-3   -2.136003271927218E-3    2.895552721365795E-3    3.885416713692294E-1    2.921059737641059E-1
 8.061934152000000E9     3.725427215692307E-1    4.388609824882709E-1   -2.264088742127089E-3    2.730134290702135E-3   -2.137359107342965E-3    2.858799915464672E-3    3.887049961293463E-1    2.920015261117982E-1
 8.061935277000000E9     3.728075520945311E-1    4.388927848231401E-1   -2.295915285160942E-3    2.761115762247238E-3   -2.167358194325374E-3    2.910485937518492E-3    3.887086643466934E-1    2.919857295818672E-1
 8.061936402000000E9     3.727097597899036E-1    4.387833032565556E-1   -2.280259564920290E-3    2.761369436947735E-3   -2.156559023431819E-3    2.921599430667767E-3    3.887565689717217E-1    2.918632949261671E-1
 8.061937527000000E9     3.726972758741018E-1    4.386961473317282E-1   -2.291878837690651E-3    2.760458918845132E-3   -2.152558681809077E-3    2.916970717496036E-3    3.888164351758353E-1    2.918699862061426E-1
 8.061938652000000E9     3.729254349406905E-1    4.385799887689601E-1   -2.287038242495207E-3    2.771463955670247E-3   -2.130531061388630E-3    2.924250185078554E-3    3.887093639191179E-1    2.916403792878909E-1
 8.061939777000000E9     3.730467385864727E-1    4.384197272339067E-1   -2.317478778422578E-3    2.750410528576958E-3   -2.163366219291274E-3    2.937244021979578E-3    3.888356817863673E-1    2.917136026441814E-1
 8.061940902000000E9     3.730679743196954E-1    4.382857937535682E-1   -2.292686576986697E-3    2.785550075731559E-3   -2.157998203456046E-3    2.932830436707469E-3    3.888495107518524E-1    2.917281032897697E-1
 8.061942027000000E9     3.731284987364937E-1    4.383289462138347E-1   -2.287517627309877E-3    2.796832569786906E-3   -2.165146875701014E-3    2.948041488991374E-3    3.888833563072588E-1    2.915785182862654E-1
 8.061943152000000E9     3.733284244615457E-1    4.383548500473383E-1   -2.299832832892661E-3    2.763053081102133E-3   -2.156500346220923E-3    2.994742388003535E-3    3.889643266744465E-1    2.915408278046488E-1
 8.061944277000000E9     3.733233352914063E-1    4.380571518622576E-1   -2.318064942761303E-3    2.780459194154096E-3   -2.171583676425916E-3    2.988350807926040E-3    3.889981178209162E-1    2.915507500654820E-1
 8.061945402000000E9     3.734118883599788E-1    4.379484198689664E-1   -2.317756705276214E-3    2.816183197943535E-3   -2.176973080046744E-3    2.993952079119076E-3    3.890119453833162E-1    2.914050370613530E-1
 8.061946527000000E9     3.735835617866822E-1    4.379561543235460E-1   -2.326916889997352E-3    2.819761459003606E-3   -2.147187897994605E-3    2.986781123544707E-3    3.889784278350463E-1    2.913077046056954E-1
 8.061947652000000E9     3.735790962941169E-1    4.379615834690416E-1   -2.325195456825305E-3    2.808451140484005E-3   -2.180065568489147E-3    3.009789836425011E-3    3.890669679587604E-1    2.913952983595375E-1
 8.061948777000000E9     3.735910759249012E-1    4.376645999813294E-1   -2.328371018914484E-3    2.855867576001670E-3   -2.213587223797417E-3    2.999105667655882E-3    3.891526931026261E-1    2.911910137674741E-1
 8.061949902000000E9     3.737819083052287E-1    4.377160677420837E-1   -2.338029124297163E-3    2.829421022801201E-3   -2.201040598818346E-3    3.015293322211642E-3    3.891904543199567E-1    2.911794185378966E-1
 8.061951027000000E9     3.738840692441749E-1    4.375762504951052E-1   -2.358789918432047E-3    2.864252455040343E-3   -2.201040555108474E-3    3.012130198240939E-3    3.892585644849599E-1    2.911558985822731E-1
 8.061952152000000E9     3.740214691490832E-1    4.375756422655405E-1   -2.345931941519047E-3    2.871830770454742E-3   -2.239255541589470E-3    3.031746864908386E-3    3.891401700255260E-1    2.910810440431918E-1
 8.061953277000000E9     3.739735705209700E-1    4.374311825550679E-1   -2.351661951947144E-3    2.865548046809985E-3   -2.198799301986677E-3    3.033414613628094E-3    3.893063103127873E-1    2.910109789006854E-1
 8.061954402000000E9     3.741346007657723E-1    4.373445179075390E-1   -2.368345621261840E-3    2.864787825357290E-3   -2.199504651320250E-3    3.060299558793915E-3    3.894571406615745E-1    2.909295009540298E-1
 8.061955527000000E9     3.741173966376399E-1    4.371797696034146E-1   -2.356397205315279E-3    2.893485711968398E-3   -2.192456980678233E-3    3.056505731095555E-3    3.892967651117397E-1    2.909062730631964E-1
 8.061956652000000E9     3.743271924027667E-1    4.371562347988372E-1   -2.377095520214535E-3    2.881159786103359E-3   -2.235076310857641E-3    3.066911268539715E-3    3.894797903766254E-1    2.908617547366902E-1
 8.061957777000000E9     3.744090246208192E-1    4.370315866921133E-1   -2.370945784785262E-3    2.902762243285805E-3   -2.226924680867344E-3    3.083267159199113E-3    3.894613429126243E-1    2.907108974305097E-1
 8.061958902000000E9     3.744668378732511E-1    4.370523655854218E-1   -2.381920364995343E-3    2.905846973909016E-3   -2.205518908523330E-3    3.073213621426178E-3    3.895032607055953E-1    2.907768073806701E-1
 8.061960027000000E9     3.744949184045537E-1    4.369271490135996E-1   -2.386027605298422E-3    2.921754236795064E-3   -2.258278494875531E-3    3.121277366629865E-3    3.896054554086928E-1    2.907797016201453E-1
 8.061961152000000E9     3.747276685184590E-1    4.367803593876379E-1   -2.388982034814685E-3    2.934406750253841E-3   -2.239115214312095E-3    3.105471758089839E-3    3.895920877330414E-1    2.905908263232335E-1
 8.061962277000000E9     3.747977036983233E-1    4.368142446620487E-1   -2.389491567958748E-3    2.939881880081405E-3   -2.265821163377384E-3    3.126561632641693E-3    3.895517889189985E-1    2.906218395307690E-1
 8.061963402000000E9     3.749420875208571E-1    4.366201841226184E-1   -2.390731313279701E-3    2.972867069267115E-3   -2.246239843779141E-3    3.149556629050156E-3    3.897098084770115E-1    2.906324620617749E-1
 8.061964527000000E9     3.749496216196149E-1    4.365416178960434E-1   -2.382761806148728E-3    2.965364034171497E-3   -2.234945259904624E-3    3.133761857447253E-3    3.897299490119342E-1    2.904589181262477E-1
 8.061965652000000E9     3.751438369133289E-1    4.364263844770971E-1   -2.414354994776578E-3    2.974722087278452E-3   -2.285806675079856E-3    3.160364282723460E-3    3.897202127312774E-1    2.904170555625394E-1
 8.061966777000000E9     3.750685254931191E-1    4.363668016504215E-1   -2.401807478104228E-3    2.964612950933649E-3   -2.246344285810309E-3    3.161822282163065E-3    3.897401318242512E-1    2.903038756347737E-1
 8.061967902000000E9     3.754156724910643E-1    4.362127915762483E-1   -2.398778808244411E-3    3.007471469981390E-3   -2.267969767496055E-3    3.138581152634970E-3    3.897760529346488E-1    2.903163185671235E-1
 8.061969027000000E9     3.753477718298562E-1    4.360905559555387E-1   -2.406243009239878E-3    3.023594746634057E-3   -2.273936262842855E-3    3.203938328390422E-3    3.897410558174764E-1    2.902882111891791E-1
 8.061970152000000E9     3.753430837406002E-1    4.359133781511795E-1   -2.421937753085177E-3    3.024861981633275E-3   -2.273345214554036E-3    3.200968461655671E-3    3.899314387107992E-1    2.901659228287952E-1
 8.061971277000000E9     3.754307804591198E-1    4.360542604682848E-1   -2.438052040230597E-3    3.053864752832663E-3   -2.280304382614476E-3    3.243978655443769E-3    3.898981440966032E-1    2.899938282729386E-1
 8.061972402000000E9     3.755746193842626E-1    4.357464319968251E-1   -2.475724205274522E-3    3.049000060862665E-3   -2.277976004365784E-3    3.210236919766233E-3    3.900694449078758E-1    2.902191971298876E-1
 8.061973527000000E9     3.757184001110929E-1    4.357917092650304E-1   -2.459930360919146E-3    3.047596603394838E-3   -2.319277941337735E-3    3.231704405220910E-3    3.900881291014663E-1    2.900713252252708E-1
 8.061974652000000E9     3.758697887753024E-1    4.356088458844634E-1   -2.446935582572619E-3    3.075177283148511E-3   -2.302834446994651E-3    3.230020391022989E-3    3.899896117080033E-1    2.899672897791989E-1
 8.061975777000000E9     3.759175156164938E-1    4.355427364650542E-1   -2.450962424330435E-3    3.068124176936983E-3   -2.269684702033883E-3    3.255675231277106E-3    3.900603145379489E-1    2.898781876272656E-1
 8.061976902000000E9     3.760263627522186E-1    4.354457833159154E-1   -2.465724204594652E-3    3.100016643907639E-3   -2.311403096635017E-3    3.215861296177866E-3    3.901191974619562E-1    2.898248128928788E-1
 8.061978027000000E9     3.761453937071406E-1    4.353012941231004E-1   -2.465649866137889E-3    3.103770987210220E-3   -2.297728264612398E-3    3.285439456989799E-3    3.901487581669072E-1    2.897802590188747E-1
 8.061979152000000E9     3.761762082565785E-1    4.351904110897896E-1   -2.469449332723615E-3    3.124608140779337E-3   -2.306827039569016E-3    3.306842146951254E-3    3.902139849189374E-1    2.897237555890717E-1
 8.061980277000000E9     3.763416357551567E-1    4.351637304404762E-1   -2.478940357114261E-3    3.138439887294756E-3   -2.283808985201423E-3    3.292395395912653E-3    3.903056731785821E-1    2.895748516763714E-1
 8.061981402000000E9     3.764287519291692E-1    4.350033678802953E-1   -2.480462585264100E-3    3.151895896264641E-3   -2.334786299287865E-3    3.325484073719318E-3    3.902673462982397E-1    2.896126157827971E-1
 8.061982527000000E9     3.765200939526283E-1    4.348031839618526E-1   -2.496655517401272E-3    3.152413001915310E-3   -2.325195726162427E-3    3.340491053635348E-3    3.903280772541714E-1    2.896037105739395E-1
 8.061983652000000E9     3.765118814122709E-1    4.348174813055501E-1   -2.490505836536273E-3    3.182807374417150E-3   -2.333960360396767E-3    3.345282153964710E-3    3.902655819169990E-1    2.895329036175313E-1
 8.061984777000000E9     3.767090364561238E-1    4.347526510413181E-1   -2.496672291430520E-3    3.172871957218677E-3   -2.350446320370399E-3    3.368736162367480E-3    3.904244355314460E-1    2.894401262909687E-1
 8.061985902000000E9     3.767794762543332E-1    4.345558076149073E-1   -2.496833014256662E-3    3.188335400469124E-3   -2.337166239658016E-3    3.392154863713321E-3    3.904412595624373E-1    2.894342539190349E-1
 8.061987027000000E9     3.770054222067493E-1    4.345542292867612E-1   -2.514874497077537E-3    3.213116027497434E-3   -2.337513575110963E-3    3.372027476245617E-3    3.905027119067893E-1    2.893015352947003E-1
 8.061988152000000E9     3.770472499582084E-1    4.343342693326919E-1   -2.509482158488405E-3    3.224817838823006E-3   -2.399069150045222E-3    3.427956896194079E-3    3.905749642855501E-1    2.891318125072975E-1
 8.061989277000000E9     3.770958455007536E-1    4.342057178696351E-1   -2.512473321398977E-3    3.229953139390463E-3   -2.336213442284188E-3    3.401777632793025E-3    3.904929195246794E-1    2.890955692747882E-1
 8.061990402000000E9     3.772637057393656E-1    4.341714985531134E-1   -2.550284768515235E-3    3.255070020336107E-3   -2.354728184896380E-3    3.425132980128384E-3    3.905708168553872E-1    2.891741552684445E-1
 8.061991527000000E9     3.773027684448797E-1    4.339422143721726E-1   -2.526974803850886E-3    3.286020232156074E-3   -2.362593020067064E-3    3.439426135856211E-3    3.907382696412541E-1    2.891400398004175E-1
 8.061992652000000E9     3.773878836094889E-1    4.340191013951495E-1   -2.540531109231600E-3    3.279934548077110E-3   -2.403112908558349E-3    3.450424238929225E-3    3.905382718197615E-1    2.890576923924562E-1
 8.061993777000000E9     3.774267693119804E-1    4.337230298893661E-1   -2.564149065628437E-3    3.298978085574268E-3   -2.390217978639107E-3    3.525715472909894E-3    3.907204991534388E-1    2.889754284150766E-1
 8.061994902000000E9     3.776625410918911E-1    4.337414324099376E-1   -2.530776566254716E-3    3.304252467129581E-3   -2.414121958949312E-3    3.486425770988268E-3    3.907594137266509E-1    2.888128799241205E-1
 8.061996027000000E9     3.776889588849955E-1    4.334686723550341E-1   -2.543597788141647E-3    3.335936989920885E-3   -2.391201919569374E-3    3.510262069502838E-3    3.907377132349727E-1    2.888796507381465E-1
 8.061997152000000E9     3.779252803983550E-1    4.335105378946291E-1   -2.579537271684440E-3    3.341971442552483E-3   -2.389856231575850E-3    3.527781452979340E-3    3.906581103709591E-1    2.887535363873223E-1
 8.061998277000000E9     3.779920087204446E-1    4.332687335763671E-1   -2.591659522441403E-3    3.388510840312321E-3   -2.405876753396752E-3    3.575457052339630E-3    3.909814561808321E-1    2.888077182943475E-1
 8.061999402000000E9     3.779864599167888E-1    4.332397502302086E-1   -2.592840974426350E-3    3.391172432809665E-3   -2.414539282350426E-3    3.558311324463123E-3    3.909198515274210E-1    2.886761214699201E-1
 8.062000527000000E9     3.781359866713940E-1    4.331450001650443E-1   -2.588270771393099E-3    3.393641956871202E-3   -2.408279605317207E-3    3.569537273885743E-3    3.908516694271583E-1    2.887146261761996E-1
 8.062001652000000E9     3.783057336485243E-1    4.329494083811335E-1   -2.615514580437054E-3    3.405397725762786E-3   -2.419189260305197E-3    3.596271175937789E-3    3.909806829859602E-1    2.885005345496237E-1
 8.062002777000000E9     3.782850720524583E-1    4.328712954806672E-1   -2.588331598628786E-3    3.435234672271074E-3   -2.440914301117533E-3    3.641409394113134E-3    3.910451139066884E-1    2.884948206614528E-1
 8.062003902000000E9     3.783795451951687E-1    4.327631644779111E-1   -2.602425966380531E-3    3.425147923473263E-3   -2.432791187895317E-3    3.618734590811539E-3    3.909967654574319E-1    2.885030463034952E-1
 8.062005027000000E9     3.784980911156650E-1    4.326049177507132E-1   -2.618650540465662E-3    3.463107859903514E-3   -2.424981141915155E-3    3.622683816181712E-3    3.911967524217236E-1    2.885200161943800E-1
 8.062006152000000E9     3.785943927770987E-1    4.325399760572873E-1   -2.639947035616018E-3    3.484784176054728E-3   -2.434446436801509E-3    3.672838473144898E-3    3.910974361591842E-1    2.883174179149593E-1
 8.062007277000000E9     3.788282960416269E-1    4.324113808073762E-1   -2.635398771044444E-3    3.476650636948533E-3   -2.434369938881212E-3    3.699328353951572E-3    3.911060095843664E-1    2.882154307101915E-1
