#  HZ   S   RI   R     50.00 
! Rohde & Schwarz Vector Network Analyzer 
! Rohde-Schwarz,ZNB20-2Port,1311601062101988,3.16
! Created: UTC 3/20/2024, 11:00:49 PM
! freq[Hz]                re:S11                  im:S11                  re:S21                  im:S21                  re:S12                  im:S12                  re:S22                  im:S22
 8.061877454000000E9     3.686034543736019E-1    4.424364992210458E-1   -2.170528225547432E-3    2.497753691829948E-3   -2.002846686195925E-3    2.675591365202771E-3    3.873496877113852E-1    2.939315631111429E-1
 8.061878651725000E9     3.684930403110789E-1    4.422874511377147E-1   -2.140180117997866E-3    2.494854213957663E-3   -1.999811874843826E-3    2.683097219126446E-3    3.873652325190743E-1    2.941427590930255E-1
 8.061879849450000E9     3.687129593428581E-1    4.421474502945416E-1   -2.154751373548604E-3    2.515169878055560E-3   -2.011167531767367E-3    2.657630887545349E-3    3.874313935766244E-1    2.939803094234922E-1
 8.061881047175000E9     3.688600922465095E-1    4.421750032550927E-1   -2.171210519895248E-3    2.510921288495228E-3   -2.029326087060085E-3    2.701284774010251E-3    3.874185487147674E-1    2.939577235917306E-1
 8.061882244900000E9     3.689090129055468E-1    4.420386486166060E-1   -2.129644446173241E-3    2.521777173622927E-3   -2.017586408664484E-3    2.654194121508228E-3    3.875509092450805E-1    2.939884692374847E-1
 8.061883442625000E9     3.690044943902261E-1    4.420029594712160E-1   -2.152187032995356E-3    2.525228244746737E-3   -2.019012157077225E-3    2.629621115262425E-3    3.876786138314222E-1    2.938220822706654E-1
 8.061884640350000E9     3.691558938758454E-1    4.419822018650373E-1   -2.140154026298318E-3    2.535702870289259E-3   -2.031756614068690E-3    2.699407908629706E-3    3.877290146908312E-1    2.936583394062008E-1
 8.061885838075000E9     3.690732055290716E-1    4.418658637698030E-1   -2.165744760681842E-3    2.539283405677223E-3   -2.035610805960160E-3    2.663647280457781E-3    3.877056663729895E-1    2.936409499668073E-1
 8.061887035800000E9     3.692445599054101E-1    4.416912814048133E-1   -2.189803400097188E-3    2.547612838941829E-3   -2.022642950229063E-3    2.671396183245882E-3    3.877551894929456E-1    2.936325178295973E-1
 8.061888233525000E9     3.693560865684949E-1    4.416098193830806E-1   -2.180263318753886E-3    2.547879663219945E-3   -2.040139561287597E-3    2.717823554001791E-3    3.877723510456454E-1    2.935513999710744E-1
 8.061889431250000E9     3.694905618683292E-1    4.415756879652464E-1   -2.192451870262174E-3    2.549562054359640E-3   -2.051652147625655E-3    2.701398543612754E-3    3.878865827316039E-1    2.936042940110722E-1
 8.061890628975000E9     3.695310853195080E-1    4.415107184722693E-1   -2.186164690259812E-3    2.553279173068016E-3   -2.052145121174508E-3    2.721202657873956E-3    3.878151981797316E-1    2.934611418293139E-1
 8.061891826700000E9     3.696453380881229E-1    4.414621908427486E-1   -2.190683471501212E-3    2.549692937674234E-3   -2.040482397604869E-3    2.709005465808996E-3    3.879564759714914E-1    2.935080340068612E-1
 8.061893024425000E9     3.697759265627109E-1    4.412246340249876E-1   -2.194718074023255E-3    2.547316751361856E-3   -2.050055599482952E-3    2.728010762686239E-3    3.879030760774994E-1    2.932793594895723E-1
 8.061894222150000E9     3.698846093468917E-1    4.413830993890126E-1   -2.211233494906392E-3    2.590086191801870E-3   -2.063956888836405E-3    2.748773321047856E-3    3.879599519862545E-1    2.932533962701142E-1
 8.061895419875000E9     3.699855408102978E-1    4.412360856041084E-1   -2.211336451923671E-3    2.589063011485282E-3   -2.040120066185903E-3    2.760192247490653E-3    3.881755828793886E-1    2.933289668501081E-1
 8.061896617600000E9     3.700275006708551E-1    4.410472437134890E-1   -2.206666679986589E-3    2.589746366950035E-3   -2.038658201087057E-3    2.764458695698908E-3    3.880903324473567E-1    2.930691001536394E-1
 8.061897815325000E9     3.701629064973327E-1    4.410178756664067E-1   -2.211878709039930E-3    2.582079824623890E-3   -2.083468952363463E-3    2.738834754137564E-3    3.880814548988679E-1    2.931527779242500E-1
 8.061899013050000E9     3.701587546437300E-1    4.409438113813318E-1   -2.226950712102384E-3    2.614815927813829E-3   -2.095809539824598E-3    2.776981071135836E-3    3.882552998471708E-1    2.931551495155656E-1
 8.061900210775000E9     3.702598076684909E-1    4.408807645796110E-1   -2.225252328293744E-3    2.614388097212085E-3   -2.090295465110137E-3    2.778204241128268E-3    3.882125683092887E-1    2.930159262693475E-1
 8.061901408500000E9     3.703205994844655E-1    4.407649416323381E-1   -2.224095309382883E-3    2.615091786298745E-3   -2.080027904257792E-3    2.782667978749040E-3    3.881500904383364E-1    2.928868175931203E-1
 8.061902606225000E9     3.704515730981025E-1    4.407939004909818E-1   -2.214966973444599E-3    2.617881591002018E-3   -2.089368748926154E-3    2.776804916476154E-3    3.883595634112416E-1    2.929403795329982E-1
 8.061903803950000E9     3.705330838632699E-1    4.405698776061385E-1   -2.214722315023124E-3    2.638792813990818E-3   -2.075073967573871E-3    2.783551682205681E-3    3.882723080071246E-1    2.927821885622877E-1
 8.061905001675000E9     3.707267382962484E-1    4.405945352143693E-1   -2.247265421066492E-3    2.631580633792916E-3   -2.094977559400685E-3    2.802837397320457E-3    3.883159514323013E-1    2.927902809680131E-1
 8.061906199400000E9     3.707518268818150E-1    4.404661724165488E-1   -2.233244154989882E-3    2.636776568800750E-3   -2.138083730981168E-3    2.800828217070400E-3    3.884107795610720E-1    2.927108834020508E-1
 8.061907397125000E9     3.709293288677337E-1    4.403502415804974E-1   -2.226192219345454E-3    2.658875799965414E-3   -2.096251827916639E-3    2.833708565702680E-3    3.883397348178437E-1    2.926258540489050E-1
 8.061908594850000E9     3.709822569416846E-1    4.402685129318571E-1   -2.230093828050831E-3    2.670776199818915E-3   -2.060434516794907E-3    2.840774621212729E-3    3.884959462340825E-1    2.925436277497184E-1
 8.061909792575000E9     3.709583001195565E-1    4.402276539394704E-1   -2.222155088571702E-3    2.661546589153328E-3   -2.075325555158962E-3    2.809272314829537E-3    3.885072514834492E-1    2.924740015089087E-1
 8.061910990300000E9     3.711521049399756E-1    4.400893738889162E-1   -2.240912545672799E-3    2.660740792018722E-3   -2.090857993566387E-3    2.826938592390818E-3    3.885120145554352E-1    2.923844043882560E-1
 8.061912188025000E9     3.713161725404918E-1    4.398658539211122E-1   -2.246155587421173E-3    2.683202228277663E-3   -2.120657744351378E-3    2.822472695446080E-3    3.886768228008003E-1    2.924160600725193E-1
 8.061913385750000E9     3.713558014541588E-1    4.399968244106386E-1   -2.259878544833469E-3    2.692118384539672E-3   -2.117518331356280E-3    2.839682716272252E-3    3.886249637317669E-1    2.923520409554233E-1
 8.061914583475000E9     3.713901903980724E-1    4.397571894160978E-1   -2.266605256468958E-3    2.708938483661481E-3   -2.124565041580445E-3    2.853458494525624E-3    3.887484920535293E-1    2.922145226080639E-1
 8.061915781200000E9     3.714170358567165E-1    4.397487487515057E-1   -2.273465632486901E-3    2.699019825642076E-3   -2.131185280601522E-3    2.864846637092167E-3    3.888255462321608E-1    2.921345975563050E-1
 8.061916978925000E9     3.716668437138866E-1    4.396617871905886E-1   -2.254455977473666E-3    2.724446115974046E-3   -2.153769654250634E-3    2.896400913614831E-3    3.888618917453232E-1    2.921160964012009E-1
 8.061918176650000E9     3.716680303556319E-1    4.395019539074126E-1   -2.259606371794441E-3    2.705584054737882E-3   -2.176284006208353E-3    2.866571322131803E-3    3.887806169977598E-1    2.920828487387098E-1
 8.061919374375000E9     3.717602987085400E-1    4.395224403878578E-1   -2.238887840202124E-3    2.726385451826377E-3   -2.135056613366997E-3    2.886506173883572E-3    3.889339922263080E-1    2.919895777114669E-1
 8.061920572100000E9     3.718144913984986E-1    4.394819859506512E-1   -2.259187410874067E-3    2.733183830683707E-3   -2.140436651326608E-3    2.883816560491080E-3    3.888745565636613E-1    2.919835095012035E-1
 8.061921769825000E9     3.720152223023910E-1    4.392790740416597E-1   -2.296849095878863E-3    2.731400386430797E-3   -2.150550316015531E-3    2.907163130606633E-3    3.888954236807078E-1    2.919529499296816E-1
 8.061922967550000E9     3.721654698936224E-1    4.391887063981596E-1   -2.274607334468377E-3    2.754992531543025E-3   -2.149983117558692E-3    2.928841677047342E-3    3.889574807070190E-1    2.919035134022194E-1
 8.061924165275000E9     3.721297992906931E-1    4.391737038906754E-1   -2.302107411469824E-3    2.747098100690903E-3   -2.140296271249863E-3    2.908191346748139E-3    3.889805707835214E-1    2.918075344852379E-1
 8.061925363000000E9     3.722111343928923E-1    4.390637243389645E-1   -2.309289828747862E-3    2.735213216036614E-3   -2.139846421599461E-3    2.934641941430039E-3    3.890805004099163E-1    2.916796482932884E-1
 8.061926560725000E9     3.723493320785032E-1    4.390333651480518E-1   -2.302931456735248E-3    2.782604282366128E-3   -2.134920619547187E-3    2.949354022303988E-3    3.891624000853448E-1    2.915822537459326E-1
 8.061927758450000E9     3.724574636046151E-1    4.388710148491162E-1   -2.306725743769980E-3    2.797732421826049E-3   -2.141614706272069E-3    2.950438282631627E-3    3.891112264207122E-1    2.916742936093945E-1
 8.061928956175000E9     3.724743829204801E-1    4.388804574313548E-1   -2.315019597620446E-3    2.804546487773469E-3   -2.195245331340660E-3    2.942799592994294E-3    3.891988405054087E-1    2.916388444428267E-1
 8.061930153900000E9     3.725636733706160E-1    4.387304965763234E-1   -2.338039812312499E-3    2.799806643485855E-3   -2.141538383385526E-3    2.944448981216703E-3    3.893447441438412E-1    2.914726544327891E-1
 8.061931351625000E9     3.725983895407883E-1    4.386233645563293E-1   -2.337601077402522E-3    2.812679256640501E-3   -2.194172162924177E-3    3.003497149499194E-3    3.890969979557855E-1    2.914637819404622E-1
 8.061932549350000E9     3.727322580506475E-1    4.384748915047122E-1   -2.316914907023303E-3    2.827733799884840E-3   -2.142298655996788E-3    2.988249829209232E-3    3.892248681333617E-1    2.914659893183313E-1
 8.061933747075000E9     3.729194949940664E-1    4.383988416534529E-1   -2.317789233065386E-3    2.813765416651244E-3   -2.172800135258945E-3    2.959920169083185E-3    3.893858882711019E-1    2.913018452447014E-1
 8.061934944800000E9     3.729579904939730E-1    4.383213542710439E-1   -2.328913388013859E-3    2.830923186187464E-3   -2.137700094643502E-3    2.995511811250846E-3    3.893832069316435E-1    2.912802162001102E-1
 8.061936142525000E9     3.730931293745729E-1    4.383196586231428E-1   -2.332759056480804E-3    2.832065777529091E-3   -2.181462255483935E-3    3.010308238264984E-3    3.894825996392391E-1    2.911042327282009E-1
 8.061937340250000E9     3.731591564293222E-1    4.382270144263019E-1   -2.356520932563615E-3    2.849782561732057E-3   -2.176956592660797E-3    3.024391433041172E-3    3.895047399043866E-1    2.911972573304796E-1
 8.061938537975000E9     3.733387071316666E-1    4.381759886558061E-1   -2.354452582220193E-3    2.910694748369733E-3   -2.195002656304652E-3    3.046069896909623E-3    3.896033377391376E-1    2.911016487494367E-1
 8.061939735700000E9     3.734464690765597E-1    4.379996735462801E-1   -2.330826077051038E-3    2.872675224472276E-3   -2.177782065848787E-3    3.055166783690813E-3    3.895709627419917E-1    2.909110012551399E-1
 8.061940933425000E9     3.735382875504239E-1    4.379546099150340E-1   -2.359011065789169E-3    2.876585269081030E-3   -2.191090242952122E-3    3.058598765289893E-3    3.895777995571747E-1    2.908237379123020E-1
 8.061942131150000E9     3.735453721574798E-1    4.378447151859275E-1   -2.337931500687155E-3    2.885559253074212E-3   -2.195622558835972E-3    3.062785400320440E-3    3.895670465043362E-1    2.909228664538278E-1
 8.061943328875000E9     3.736266340524749E-1    4.377393084605013E-1   -2.333430053905950E-3    2.901073200840907E-3   -2.213503570693896E-3    3.053668857201144E-3    3.896524333100054E-1    2.908438192590635E-1
 8.061944526600000E9     3.738026715155965E-1    4.375898708586453E-1   -2.350759510814704E-3    2.924160133540180E-3   -2.169568694560362E-3    3.102724144008888E-3    3.897427156377407E-1    2.907878392850546E-1
 8.061945724325000E9     3.737355377746728E-1    4.375167205432098E-1   -2.387777756845900E-3    2.936189584162809E-3   -2.227783694147578E-3    3.112253420986480E-3    3.898665823308344E-1    2.907511442623321E-1
 8.061946922050000E9     3.739647689283253E-1    4.375032166090729E-1   -2.359866446153768E-3    2.949384511745916E-3   -2.249073884265448E-3    3.084615789679445E-3    3.897646385994844E-1    2.905528271883283E-1
 8.061948119775000E9     3.740002778852454E-1    4.373095263326673E-1   -2.363438078474186E-3    2.943406470136632E-3   -2.236778714959143E-3    3.122226689884366E-3    3.899978968906532E-1    2.906485739785139E-1
 8.061949317500000E9     3.741008577026521E-1    4.371880507010108E-1   -2.400871376731704E-3    2.959349252341315E-3   -2.256470964844506E-3    3.120426430988160E-3    3.898624166152781E-1    2.906162182611848E-1
 8.061950515225000E9     3.740556906207566E-1    4.371097828768106E-1   -2.370764751343119E-3    2.985553028843482E-3   -2.249379698889174E-3    3.128052961696813E-3    3.900514657745583E-1    2.905294766978964E-1
 8.061951712950000E9     3.742616678593492E-1    4.369741027273888E-1   -2.381426219200768E-3    2.969091621443671E-3   -2.204559950565631E-3    3.147744640278756E-3    3.900471052122726E-1    2.905556784977956E-1
 8.061952910675000E9     3.744026418652661E-1    4.369194863955453E-1   -2.411617360127209E-3    2.987273017652773E-3   -2.242825032835191E-3    3.199019779046231E-3    3.901513517320128E-1    2.904307790778550E-1
 8.061954108400000E9     3.745440551640116E-1    4.367737696954088E-1   -2.425965877607299E-3    3.000210366079755E-3   -2.237270336290415E-3    3.158255300102823E-3    3.900144304324236E-1    2.902342828938312E-1
 8.061955306125000E9     3.745889217892831E-1    4.367425416872746E-1   -2.408518058774387E-3    3.029398209649157E-3   -2.253921075340211E-3    3.208092137141293E-3    3.900506509122106E-1    2.902757867025982E-1
 8.061956503850000E9     3.746949092887201E-1    4.367142610558806E-1   -2.427042210984518E-3    3.035956067097507E-3   -2.244762037830712E-3    3.210850624334895E-3    3.902692428666871E-1    2.901451427931386E-1
 8.061957701575000E9     3.748381274173614E-1    4.364850791364215E-1   -2.429838928219114E-3    3.058332585156121E-3   -2.307038764476685E-3    3.203824811859719E-3    3.901527311632365E-1    2.900979853900972E-1
 8.061958899300000E9     3.749348041916215E-1    4.363208881265552E-1   -2.415057716940470E-3    3.049049651544366E-3   -2.267419152771812E-3    3.237292311295994E-3    3.902519344975233E-1    2.901051725525408E-1
 8.061960097025000E9     3.748772228348218E-1    4.363745283890165E-1   -2.444498180302706E-3    3.053760127736897E-3   -2.272633805103758E-3    3.235947571184695E-3    3.902945675036406E-1    2.899126083432434E-1
 8.061961294750000E9     3.750997619179409E-1    4.360368840183431E-1   -2.448706068602480E-3    3.073662482228915E-3   -2.309622009470286E-3    3.264982956265061E-3    3.903254747603951E-1    2.899464613426833E-1
 8.061962492475000E9     3.752417563453684E-1    4.360975004693567E-1   -2.441270743126841E-3    3.072998669538957E-3   -2.300732743264733E-3    3.268946802532213E-3    3.903392093803262E-1    2.898427625431643E-1
 8.061963690200000E9     3.753352606771494E-1    4.360421188302938E-1   -2.464080742639504E-3    3.078177387293432E-3   -2.256694677798349E-3    3.246893013383410E-3    3.904222193807202E-1    2.898206394805880E-1
 8.061964887925000E9     3.753932020830619E-1    4.357969825090940E-1   -2.460605515790034E-3    3.120972977744263E-3   -2.301422827008300E-3    3.286546731098552E-3    3.902341081530906E-1    2.897158216978246E-1
 8.061966085650000E9     3.754668321946875E-1    4.357797300579352E-1   -2.468294925939905E-3    3.125164347544386E-3   -2.307545223380739E-3    3.327044642327665E-3    3.904981744809721E-1    2.896927825653612E-1
 8.061967283375000E9     3.755989662358805E-1    4.356947100588118E-1   -2.464579795066086E-3    3.156742697069971E-3   -2.298603131551190E-3    3.325043306966188E-3    3.906729707218101E-1    2.896415158873293E-1
 8.061968481100000E9     3.757612062550078E-1    4.355094365774698E-1   -2.474786811712009E-3    3.144154106649867E-3   -2.291818850868388E-3    3.330464057358293E-3    3.906004755056147E-1    2.895418426637451E-1
 8.061969678825000E9     3.758181099357648E-1    4.354460320444546E-1   -2.475867957987660E-3    3.162868454986975E-3   -2.303357355802596E-3    3.332396664615617E-3    3.906383121165246E-1    2.894466133671288E-1
 8.061970876550000E9     3.757719615867401E-1    4.352031466640152E-1   -2.469654618556142E-3    3.202425442476119E-3   -2.322789784335216E-3    3.362682805229766E-3    3.906924398129009E-1    2.895425625751833E-1
 8.061972074275000E9     3.760492700616626E-1    4.352031945920234E-1   -2.484059761517395E-3    3.207166002428651E-3   -2.344709066142503E-3    3.346038075472352E-3    3.908307670343691E-1    2.894571568991879E-1
 8.061973272000000E9     3.761039243526095E-1    4.350333414646329E-1   -2.499659061858576E-3    3.225082264883397E-3   -2.343304452562045E-3    3.397266816699497E-3    3.906844437876758E-1    2.894276976028129E-1
 8.061974469725000E9     3.762668691449875E-1    4.349377445880743E-1   -2.500394941782307E-3    3.226935157970695E-3   -2.297859929354307E-3    3.380059415358347E-3    3.907630347013686E-1    2.892560902555544E-1
 8.061975667450000E9     3.762741639979749E-1    4.348059752085565E-1   -2.514450879160949E-3    3.227921883679532E-3   -2.318118145260724E-3    3.421301141025746E-3    3.908465796294756E-1    2.891632104828434E-1
 8.061976865175000E9     3.764746280945897E-1    4.347713928444185E-1   -2.529992632669641E-3    3.282450851546285E-3   -2.352368820237708E-3    3.425906877140579E-3    3.909110314463623E-1    2.892185952279474E-1
 8.061978062900000E9     3.765509686692400E-1    4.345906377973502E-1   -2.532014236418874E-3    3.282522909489671E-3   -2.398834463980384E-3    3.479602265857654E-3    3.909258005952823E-1    2.889962031226599E-1
 8.061979260625000E9     3.766814601213161E-1    4.344967107951755E-1   -2.524241075557002E-3    3.291063261507782E-3   -2.336929650624150E-3    3.487793145951560E-3    3.909191603537051E-1    2.890256878650772E-1
 8.061980458350000E9     3.768331689813925E-1    4.343446248061447E-1   -2.522650533535315E-3    3.302768503267961E-3   -2.324375968280918E-3    3.490175400403400E-3    3.911367064570686E-1    2.888808953098839E-1
 8.061981656075000E9     3.768720773369267E-1    4.342086961998723E-1   -2.537507679013487E-3    3.321555938306586E-3   -2.335128564748436E-3    3.511471818705120E-3    3.909699981368229E-1    2.889222931352901E-1
 8.061982853800000E9     3.769909780777814E-1    4.340340530105268E-1   -2.523805067210796E-3    3.321985387838592E-3   -2.385756179218381E-3    3.536457913514122E-3    3.912002981161334E-1    2.888120425246844E-1
 8.061984051525000E9     3.771546836217154E-1    4.340413776218850E-1   -2.551144307057718E-3    3.355910022386847E-3   -2.396888364513101E-3    3.515210951616977E-3    3.911923269138678E-1    2.886759482173033E-1
 8.061985249250000E9     3.772077622208863E-1    4.338961047353306E-1   -2.570606110817330E-3    3.376863303647167E-3   -2.371080593996580E-3    3.570350469417495E-3    3.912366296468321E-1    2.886690943167949E-1
