#  HZ   S   RI   R     50.00 
! Rohde & Schwarz Vector Network Analyzer 
! Rohde-Schwarz,ZNB20-2Port,1311601062101988,3.16
! Created: UTC 3/20/2024, 11:01:46 PM
! freq[Hz]                re:S11                  im:S11                  re:S21                  im:S21                  re:S12                  im:S12                  re:S22                  im:S22
 8.061840733000000E9     3.662108444382265E-1    4.442468051705053E-1   -2.090889179980283E-3    2.406659666413514E-3   -1.987937228206191E-3    2.531614823443563E-3    3.870883756619912E-1    2.951543015254193E-1
 8.061842028150000E9     3.663922743188734E-1    4.442205264256567E-1   -2.134778792236458E-3    2.428094291798818E-3   -1.984550974661044E-3    2.542816151635435E-3    3.871277169677607E-1    2.952617937360358E-1
 8.061843323300000E9     3.666382833819655E-1    4.439827430530363E-1   -2.111804041575157E-3    2.427299742563652E-3   -1.995646136882630E-3    2.556734665057744E-3    3.871468769069017E-1    2.950796117198728E-1
 8.061844618450000E9     3.666411195478287E-1    4.439821223166418E-1   -2.108114315740885E-3    2.427755853052404E-3   -1.990139914756216E-3    2.587425391163363E-3    3.872703310903410E-1    2.950577693983212E-1
 8.061845913600000E9     3.668183525701129E-1    4.439857994745506E-1   -2.117228391849255E-3    2.405938760923788E-3   -1.988658693202082E-3    2.568573527080059E-3    3.871479263993080E-1    2.950203925733179E-1
 8.061847208750000E9     3.668804364823965E-1    4.439185885666979E-1   -2.112934305915262E-3    2.436761204540363E-3   -1.962249857696402E-3    2.590807812924729E-3    3.872697077539448E-1    2.949033429405957E-1
 8.061848503900000E9     3.669729400210301E-1    4.437874543728507E-1   -2.148759613397415E-3    2.463854930765301E-3   -2.001477876673988E-3    2.577433474679504E-3    3.873333034781969E-1    2.948489905301814E-1
 8.061849799050000E9     3.671107552506376E-1    4.437702773266802E-1   -2.097730297567730E-3    2.456563356459616E-3   -1.990703669139839E-3    2.602266535219427E-3    3.874946949472597E-1    2.947792008679359E-1
 8.061851094200000E9     3.671041556698884E-1    4.435887600199060E-1   -2.131036589847120E-3    2.455761125587502E-3   -2.002859493732701E-3    2.570353516441919E-3    3.875788716982678E-1    2.947359184073722E-1
 8.061852389350000E9     3.671621437376481E-1    4.434791156494160E-1   -2.124496590364818E-3    2.465847922451281E-3   -2.016601679627514E-3    2.611485431209788E-3    3.875306922948787E-1    2.946107784218482E-1
 8.061853684500000E9     3.672911183001265E-1    4.436021808942719E-1   -2.146352554548589E-3    2.469446780848702E-3   -1.998474721229829E-3    2.635865950637262E-3    3.875105257546265E-1    2.947197613172285E-1
 8.061854979650000E9     3.674230201931019E-1    4.433726832306567E-1   -2.121060107241236E-3    2.471167956017775E-3   -2.004767039983574E-3    2.645750505509742E-3    3.874697566495722E-1    2.945281689734355E-1
 8.061856274800000E9     3.675873628623766E-1    4.433146966551126E-1   -2.139151529814726E-3    2.501761297400222E-3   -2.000100914297731E-3    2.638469710962573E-3    3.876451256604418E-1    2.943619204067765E-1
 8.061857569950000E9     3.676910333128979E-1    4.431604945724589E-1   -2.161024923697090E-3    2.467064288038905E-3   -2.032677931292650E-3    2.639393177838253E-3    3.876982952580951E-1    2.943555315974286E-1
 8.061858865100000E9     3.676885036664163E-1    4.431876466267803E-1   -2.146084959995043E-3    2.496201702225343E-3   -2.007230899881335E-3    2.627525440081004E-3    3.877682187983680E-1    2.942867356239117E-1
 8.061860160250000E9     3.677970267024418E-1    4.431263021848373E-1   -2.139188684282478E-3    2.504328748280688E-3   -2.027088117533479E-3    2.672419862538524E-3    3.878055721601575E-1    2.942329836723896E-1
 8.061861455400000E9     3.679364738419051E-1    4.428967480907400E-1   -2.138564348836882E-3    2.496114203404411E-3   -2.024446109822648E-3    2.676404958703150E-3    3.877578671343207E-1    2.943698312493592E-1
 8.061862750550000E9     3.680345491458747E-1    4.428397002772659E-1   -2.146579410934838E-3    2.510354109775811E-3   -2.024451456245837E-3    2.662046059807920E-3    3.878107471356890E-1    2.940806117101792E-1
 8.061864045700000E9     3.680002718656740E-1    4.427876482531143E-1   -2.183100676525668E-3    2.514459056310053E-3   -2.020680516482604E-3    2.667045378269751E-3    3.880352822370606E-1    2.940560470945112E-1
 8.061865340850000E9     3.682008980054617E-1    4.427743050528904E-1   -2.169206576304902E-3    2.525912638391011E-3   -2.052226681042633E-3    2.662558090699258E-3    3.879203329385489E-1    2.940437988987533E-1
 8.061866636000000E9     3.682510778972090E-1    4.426571349592218E-1   -2.162983778993328E-3    2.538909424119049E-3   -2.034340413117563E-3    2.642975570488969E-3    3.878670490314370E-1    2.940106150776339E-1
 8.061867931150000E9     3.683206507818726E-1    4.425042551829278E-1   -2.180861579420395E-3    2.516493050662960E-3   -2.032584404173860E-3    2.731445253953071E-3    3.881046463668598E-1    2.939969201463274E-1
 8.061869226300000E9     3.684200418914405E-1    4.423479602793166E-1   -2.172143375565831E-3    2.527650787999826E-3   -2.049765733087828E-3    2.691123232780132E-3    3.881755982031460E-1    2.938921076004490E-1
 8.061870521450000E9     3.685437877829511E-1    4.424190030655958E-1   -2.187026070999108E-3    2.581100020585846E-3   -2.044792128573054E-3    2.694412574694227E-3    3.880555538816022E-1    2.937027174076772E-1
 8.061871816600000E9     3.686799863137447E-1    4.422399034322889E-1   -2.197059941291392E-3    2.546449729642090E-3   -2.083678325817169E-3    2.676155352252981E-3    3.883120146527756E-1    2.936452167854135E-1
 8.061873111750000E9     3.686798167806084E-1    4.423157173499233E-1   -2.194238277437170E-3    2.533837881461111E-3   -2.015210291355256E-3    2.724095872076331E-3    3.883705704147564E-1    2.936108923116201E-1
 8.061874406900000E9     3.688492669610595E-1    4.421231710693218E-1   -2.177141106122154E-3    2.548834478647539E-3   -2.052637535855083E-3    2.697831811934504E-3    3.882553735007554E-1    2.936333585309613E-1
 8.061875702050000E9     3.689812367474147E-1    4.422507368522234E-1   -2.196773041679773E-3    2.603617150837699E-3   -2.081229462673441E-3    2.724271328098093E-3    3.885033874869593E-1    2.933700941915964E-1
 8.061876997200000E9     3.689664821519477E-1    4.419080667917736E-1   -2.209311783031350E-3    2.582122775088873E-3   -2.062839795519871E-3    2.749285577500239E-3    3.883236361894026E-1    2.934998325172281E-1
 8.061878292350000E9     3.691281286122464E-1    4.418721381043729E-1   -2.212915111577167E-3    2.590792290021748E-3   -2.047964504802763E-3    2.764980787112089E-3    3.883807229673817E-1    2.934626437542224E-1
 8.061879587500000E9     3.692007322513911E-1    4.417788165412541E-1   -2.202346812435329E-3    2.606327126325911E-3   -2.044970583300438E-3    2.764349408416504E-3    3.884518725740770E-1    2.932671555949284E-1
 8.061880882650000E9     3.692516552332840E-1    4.416507459356555E-1   -2.198030041078385E-3    2.586216275859336E-3   -2.042717927026682E-3    2.747962712930136E-3    3.884469960386238E-1    2.932745033128850E-1
 8.061882177800000E9     3.694171764544738E-1    4.417152217278384E-1   -2.204831584717166E-3    2.623941449623102E-3   -2.042186317960948E-3    2.757191327252873E-3    3.885940318316768E-1    2.932451152029670E-1
 8.061883472950000E9     3.694694993706035E-1    4.414672136411643E-1   -2.173444762513927E-3    2.592991171885756E-3   -2.082033669583320E-3    2.777802053786808E-3    3.886747343618934E-1    2.932237205809073E-1
 8.061884768100000E9     3.696371755535143E-1    4.414942720269172E-1   -2.199261578170623E-3    2.614243598437846E-3   -2.070789411500082E-3    2.760134483882571E-3    3.885678710628702E-1    2.930135552531409E-1
 8.061886063250000E9     3.697236393668617E-1    4.413015915767610E-1   -2.224049634652220E-3    2.648453749228143E-3   -2.067654361433096E-3    2.768446593536452E-3    3.888404646342913E-1    2.930936403125841E-1
 8.061887358400000E9     3.698477957328161E-1    4.413382143773169E-1   -2.226476937841148E-3    2.620494238370675E-3   -2.096470001487752E-3    2.780443258584643E-3    3.886776015152623E-1    2.930282097420032E-1
 8.061888653550000E9     3.699007246532193E-1    4.411647656410368E-1   -2.237212022510149E-3    2.622655442562848E-3   -2.093909843600376E-3    2.814586907750151E-3    3.888951806063023E-1    2.929544973216747E-1
 8.061889948700000E9     3.699030334891812E-1    4.411496089997529E-1   -2.218353688730832E-3    2.637387591448963E-3   -2.115495877858945E-3    2.749181818818572E-3    3.889556872459328E-1    2.928722569295035E-1
 8.061891243850000E9     3.700486287355991E-1    4.410154372510474E-1   -2.233591670821310E-3    2.648247998614407E-3   -2.096907068750108E-3    2.801179763740869E-3    3.888133714600772E-1    2.927072368822355E-1
 8.061892539000000E9     3.701319532839633E-1    4.409033562890952E-1   -2.244653484472379E-3    2.673454562724883E-3   -2.087534796561809E-3    2.800580276672919E-3    3.889079212498239E-1    2.927957006742898E-1
 8.061893834150000E9     3.702623668188473E-1    4.409020589700814E-1   -2.223671912175582E-3    2.687352941575387E-3   -2.120250645462856E-3    2.825144910493397E-3    3.889313177915351E-1    2.925332675965222E-1
 8.061895129300000E9     3.703129375576455E-1    4.406922424345268E-1   -2.240274301836501E-3    2.671914811700101E-3   -2.087787233047532E-3    2.835956564553306E-3    3.889466896178336E-1    2.926232090028231E-1
 8.061896424450000E9     3.705532617089319E-1    4.406831651793738E-1   -2.255243261304483E-3    2.711736058386208E-3   -2.128707156820943E-3    2.878520104980980E-3    3.890297067782128E-1    2.926039641228506E-1
 8.061897719600000E9     3.706245879675008E-1    4.405280572614380E-1   -2.246179122356487E-3    2.702531268642695E-3   -2.100822663049419E-3    2.865037891587789E-3    3.891337989770171E-1    2.925288925620911E-1
 8.061899014750000E9     3.706550445105349E-1    4.404337943338455E-1   -2.277492978834514E-3    2.710686916054413E-3   -2.155018654370285E-3    2.845212034687480E-3    3.891324293692570E-1    2.924931548265587E-1
 8.061900309900000E9     3.707253727074338E-1    4.403616286079518E-1   -2.262081184142154E-3    2.730287931385857E-3   -2.129356745741805E-3    2.882547838709915E-3    3.892345520333253E-1    2.921817973508338E-1
 8.061901605050000E9     3.708737750433580E-1    4.403007973028779E-1   -2.284984883282556E-3    2.696337271078386E-3   -2.113468609569367E-3    2.887062552373467E-3    3.893775617592494E-1    2.921608233041877E-1
 8.061902900200000E9     3.709047423081209E-1    4.401889523362268E-1   -2.270484526094592E-3    2.726089111343515E-3   -2.145254062693606E-3    2.889793931895345E-3    3.891406459535422E-1    2.921414875028350E-1
 8.061904195350000E9     3.710450380859467E-1    4.401207759378607E-1   -2.261296388226737E-3    2.726737467985969E-3   -2.118048701913793E-3    2.902016150064831E-3    3.893693697969181E-1    2.921317881981715E-1
 8.061905490500000E9     3.711530112565847E-1    4.400907108327680E-1   -2.269155068909113E-3    2.769731447312225E-3   -2.157664723329137E-3    2.935792960793450E-3    3.893389866398595E-1    2.920358947841786E-1
 8.061906785650000E9     3.712189866317961E-1    4.398548921033213E-1   -2.274825922425313E-3    2.775862568662995E-3   -2.112083758684013E-3    2.898259162405854E-3    3.893298975525070E-1    2.920839570575860E-1
 8.061908080800000E9     3.713177165621471E-1    4.397455656675556E-1   -2.286331211013259E-3    2.763423058707377E-3   -2.147074795792572E-3    2.902503012033919E-3    3.895828547163439E-1    2.919411610035587E-1
 8.061909375950000E9     3.713679948007422E-1    4.397333303403199E-1   -2.289428720469685E-3    2.766619657716728E-3   -2.144387003374280E-3    2.928238689059146E-3    3.895757687868368E-1    2.919077577986308E-1
 8.061910671100000E9     3.715241469615125E-1    4.394864664191832E-1   -2.302559158315566E-3    2.767225095825192E-3   -2.145940182567104E-3    2.949987045025893E-3    3.895068626565311E-1    2.918388652324700E-1
 8.061911966250000E9     3.716238081666909E-1    4.393994741673714E-1   -2.301493746776009E-3    2.765962757864910E-3   -2.151468044751220E-3    2.976018994259394E-3    3.896430754106970E-1    2.917356304389865E-1
 8.061913261400000E9     3.717305168497723E-1    4.395038465706801E-1   -2.309618468617697E-3    2.807351728763044E-3   -2.175186979293686E-3    2.988331752394573E-3    3.896901167483153E-1    2.916381469273961E-1
 8.061914556550000E9     3.718613838785996E-1    4.393269355042547E-1   -2.310181582275869E-3    2.807895914210361E-3   -2.145314875955205E-3    2.966213855820213E-3    3.897737413413676E-1    2.915526291255353E-1
 8.061915851700000E9     3.720281330766048E-1    4.391959490700326E-1   -2.316112607771855E-3    2.831409394679994E-3   -2.197131359047633E-3    2.960195925658049E-3    3.897751014466231E-1    2.916177640831416E-1
 8.061917146850000E9     3.719534582701973E-1    4.391626663363320E-1   -2.275649178948591E-3    2.826261485497244E-3   -2.162424662090770E-3    2.969909340683994E-3    3.896572444636709E-1    2.913758528184517E-1
 8.061918442000000E9     3.720615115439488E-1    4.391343452679823E-1   -2.324190499722481E-3    2.837466741765695E-3   -2.190609948910953E-3    3.027057901405626E-3    3.897841697025909E-1    2.914856201797959E-1
 8.061919737150000E9     3.722430407311870E-1    4.389399616647985E-1   -2.311605365576556E-3    2.828162685195870E-3   -2.159895932519395E-3    3.033901472734414E-3    3.899480881743221E-1    2.914069965415548E-1
 8.061921032300000E9     3.724096804027789E-1    4.387956922709428E-1   -2.332395595085180E-3    2.850703887079188E-3   -2.188463109597591E-3    3.024656477551540E-3    3.898566857743472E-1    2.911712232208931E-1
 8.061922327450000E9     3.724315769681146E-1    4.388147548853860E-1   -2.328771003794821E-3    2.870897220047380E-3   -2.200054297576206E-3    2.980640558030551E-3    3.899755683821093E-1    2.910729669105013E-1
 8.061923622600000E9     3.725237852502484E-1    4.385895738038047E-1   -2.346429269300978E-3    2.895718165557051E-3   -2.202078810143246E-3    3.028021012400194E-3    3.900923424788236E-1    2.911190601961907E-1
 8.061924917750000E9     3.726369762619767E-1    4.384278164867954E-1   -2.355815974189220E-3    2.904116254722765E-3   -2.194062125330129E-3    3.058508967019141E-3    3.900165978064273E-1    2.910960200843626E-1
 8.061926212900000E9     3.728726461942742E-1    4.383573669642851E-1   -2.355956763906392E-3    2.900780946400287E-3   -2.174292968619011E-3    3.087407902660066E-3    3.900831224441088E-1    2.911661939173529E-1
 8.061927508050000E9     3.728435703683367E-1    4.382732763390474E-1   -2.370785567181125E-3    2.918462555847769E-3   -2.210092994089662E-3    3.078830016062826E-3    3.900884699557779E-1    2.911267854712924E-1
 8.061928803200000E9     3.730439522587304E-1    4.381350268463285E-1   -2.337328070008264E-3    2.912570369904536E-3   -2.226888412660466E-3    3.093861994290540E-3    3.901804242583082E-1    2.908516706837056E-1
 8.061930098350000E9     3.731080675667353E-1    4.380911538753020E-1   -2.363084353248111E-3    2.917973613372976E-3   -2.215662996657402E-3    3.130385794533504E-3    3.902415250113064E-1    2.909255719308066E-1
 8.061931393500000E9     3.732004404567060E-1    4.379690403366803E-1   -2.360274020681176E-3    2.934274672472153E-3   -2.214237395972066E-3    3.140589290854545E-3    3.904613746647428E-1    2.907714296554894E-1
 8.061932688650000E9     3.732158871800560E-1    4.380235126547247E-1   -2.388054572017917E-3    2.982881879979996E-3   -2.229995624052804E-3    3.116344778908978E-3    3.902864175011480E-1    2.905473178387744E-1
 8.061933983800000E9     3.733251964756114E-1    4.378060395069819E-1   -2.392268653894801E-3    2.975767875517350E-3   -2.262113202121240E-3    3.141028346050357E-3    3.903341979453627E-1    2.907084974090339E-1
 8.061935278950000E9     3.735275660384401E-1    4.376330752003076E-1   -2.386146132200237E-3    2.985239368823297E-3   -2.234700554330311E-3    3.138839240616362E-3    3.905336298730534E-1    2.906305796519261E-1
 8.061936574100000E9     3.736201954575383E-1    4.375531867591073E-1   -2.396930102122385E-3    2.979830411260435E-3   -2.226377951492403E-3    3.186893057146965E-3    3.904817771161228E-1    2.905414112829605E-1
 8.061937869250000E9     3.736679121114250E-1    4.373574139030832E-1   -2.409592179247475E-3    3.006788582321625E-3   -2.231839768679158E-3    3.162257263842510E-3    3.905331345877461E-1    2.903832439387229E-1
 8.061939164400000E9     3.738267440500562E-1    4.372949761899837E-1   -2.403759621596230E-3    3.020962798678385E-3   -2.221924120119395E-3    3.177281165669424E-3    3.905334687162657E-1    2.903369671483131E-1
 8.061940459550000E9     3.738428410870352E-1    4.373336445124298E-1   -2.414397034153497E-3    3.026263876832138E-3   -2.250849567362938E-3    3.190663905954712E-3    3.906247664217087E-1    2.903240468092977E-1
 8.061941754700000E9     3.738662531558353E-1    4.372069935600730E-1   -2.437571595348300E-3    3.025604805897213E-3   -2.265523494331114E-3    3.207069569286749E-3    3.906736146194664E-1    2.901265608881348E-1
 8.061943049850000E9     3.741637705633598E-1    4.369432638600415E-1   -2.417721272518133E-3    3.044594343957000E-3   -2.253671030079336E-3    3.245841931159460E-3    3.907098904559309E-1    2.901592301060602E-1
 8.061944345000000E9     3.741826049667669E-1    4.368727849959658E-1   -2.421862587749568E-3    3.077771907571719E-3   -2.239909376235495E-3    3.239213681254126E-3    3.907464366932624E-1    2.900549965000100E-1
 8.061945640150000E9     3.743260957940803E-1    4.368376767440569E-1   -2.437984274504493E-3    3.117157247905323E-3   -2.296861030998001E-3    3.252521007022322E-3    3.908100353249473E-1    2.900750756755826E-1
 8.061946935300000E9     3.744451773622141E-1    4.367385461513387E-1   -2.447362637258634E-3    3.093157728390385E-3   -2.282091293319362E-3    3.269646757592027E-3    3.908331998551783E-1    2.899432178477541E-1
 8.061948230450000E9     3.744807532461070E-1    4.365611913746098E-1   -2.434882632738322E-3    3.110637598472611E-3   -2.283663472637208E-3    3.293036171747773E-3    3.908142971689190E-1    2.899461476481213E-1
 8.061949525600000E9     3.746789297448070E-1    4.364487077157027E-1   -2.457035931560218E-3    3.134408686946842E-3   -2.270070109062415E-3    3.293262008294465E-3    3.908374953182159E-1    2.898159338080954E-1
 8.061950820750000E9     3.746926975041880E-1    4.362980007493505E-1   -2.444503621543438E-3    3.125623167895037E-3   -2.299223804872286E-3    3.293977337736674E-3    3.910210653835776E-1    2.898878747186445E-1
 8.061952115900000E9     3.747530508414223E-1    4.361474824865950E-1   -2.464707871213288E-3    3.175700397991713E-3   -2.287784367167946E-3    3.355615716331968E-3    3.910146763666555E-1    2.897968982063608E-1
 8.061953411050000E9     3.750017489476721E-1    4.361570945166133E-1   -2.471691326613189E-3    3.192942628758268E-3   -2.308811058533684E-3    3.338433886228807E-3    3.910534301924327E-1    2.896396980242916E-1
 8.061954706200000E9     3.749777175732933E-1    4.359978836020774E-1   -2.491586952527058E-3    3.188925378443471E-3   -2.299999385000124E-3    3.366478398951519E-3    3.910843457389078E-1    2.895799048227968E-1
 8.061956001350000E9     3.752481423307066E-1    4.357706061464382E-1   -2.492927942026337E-3    3.211579125409670E-3   -2.330352332240484E-3    3.398431541729118E-3    3.910431633355166E-1    2.894297077021609E-1
 8.061957296500000E9     3.753152303261379E-1    4.356372831662630E-1   -2.467964707184307E-3    3.236675395282173E-3   -2.302541389663479E-3    3.381859880344760E-3    3.911433342459392E-1    2.894866330875501E-1
