#  HZ   S   RI   R     50.00 
! Rohde & Schwarz Vector Network Analyzer 
! Rohde-Schwarz,ZNB20-2Port,1311601062101988,3.16
! Created: UTC 3/20/2024, 11:01:56 PM
! freq[Hz]                re:S11                  im:S11                  re:S21                  im:S21                  re:S12                  im:S12                  re:S22                  im:S22
 8.061842076000000E9     3.663547444691123E-1    4.441598921624674E-1   -2.096681129611538E-3    2.425329327207354E-3   -1.983956292038398E-3    2.570097936172974E-3    3.874565429939573E-1    2.950022884756335E-1
 8.061843355400000E9     3.666587361642152E-1    4.440153709250774E-1   -2.128649688418581E-3    2.434123661142475E-3   -1.985593402108701E-3    2.554170341680233E-3    3.874270894940849E-1    2.950163265081693E-1
 8.061844634800000E9     3.667397101963384E-1    4.440770090804145E-1   -2.121928689392464E-3    2.422297660449783E-3   -1.987350349805119E-3    2.567554444805345E-3    3.874872432148476E-1    2.949799648596995E-1
 8.061845914200000E9     3.668098566271330E-1    4.439944553544101E-1   -2.124916204620509E-3    2.448859587854155E-3   -1.985247140562985E-3    2.608245050490422E-3    3.874593013092493E-1    2.948259572972353E-1
 8.061847193600000E9     3.669073673743195E-1    4.439451091517198E-1   -2.138325006889796E-3    2.460733405191818E-3   -2.035754845321493E-3    2.619055085752495E-3    3.873856573918621E-1    2.946988195247571E-1
 8.061848473000000E9     3.669611653835234E-1    4.438180036829060E-1   -2.103660061780406E-3    2.475776373948046E-3   -2.046232569499302E-3    2.568091243284212E-3    3.876362407661958E-1    2.947503455756074E-1
 8.061849752400000E9     3.670911451738334E-1    4.436744631074190E-1   -2.130085042101638E-3    2.459122841379239E-3   -2.003672769194004E-3    2.600845544421612E-3    3.876633418306027E-1    2.946027905639296E-1
 8.061851031800000E9     3.672077659942235E-1    4.436678560518772E-1   -2.117728186567688E-3    2.469181410315162E-3   -2.004493222082787E-3    2.623649948335481E-3    3.876334252333412E-1    2.945583406562848E-1
 8.061852311200000E9     3.672025347466593E-1    4.435726913197702E-1   -2.119195058426752E-3    2.503811396807837E-3   -2.026358005095617E-3    2.630652028318249E-3    3.877467625532240E-1    2.945969128855134E-1
 8.061853590600000E9     3.673815305334966E-1    4.434735061516448E-1   -2.141577235792265E-3    2.453158038966028E-3   -2.026655695960044E-3    2.566586533959788E-3    3.877231704005507E-1    2.944966542693154E-1
 8.061854870000000E9     3.674434932530887E-1    4.434592773745664E-1   -2.155584201031309E-3    2.472542199311421E-3   -2.019808657229653E-3    2.642936165238261E-3    3.878546205594152E-1    2.944051651916850E-1
 8.061856149400000E9     3.675338882325314E-1    4.432929555925539E-1   -2.130469929208882E-3    2.502440192223474E-3   -1.992624956083010E-3    2.620973380980982E-3    3.878738759414027E-1    2.944353283250586E-1
 8.061857428800000E9     3.675283949359214E-1    4.431155940917614E-1   -2.124375254537626E-3    2.504395031527857E-3   -2.005992433615951E-3    2.633643023355639E-3    3.878342370122211E-1    2.943303934569786E-1
 8.061858708200000E9     3.677257445823253E-1    4.430268682125073E-1   -2.159622915242308E-3    2.481774009590729E-3   -2.009218735389679E-3    2.675220014230908E-3    3.879653224541187E-1    2.941617707266786E-1
 8.061859987600000E9     3.677928457556701E-1    4.430202468656805E-1   -2.135450510238991E-3    2.520532592267141E-3   -2.034295737697932E-3    2.663636003777549E-3    3.880310798744092E-1    2.942642644404983E-1
 8.061861267000000E9     3.679055017284157E-1    4.428370038703471E-1   -2.140043111110188E-3    2.507140401013314E-3   -2.065020368974661E-3    2.662951510939628E-3    3.881106336060533E-1    2.941922374955436E-1
 8.061862546400000E9     3.679630632526252E-1    4.427638587344225E-1   -2.150296085954425E-3    2.497912545015587E-3   -2.042165439164822E-3    2.642649118359505E-3    3.881221227352348E-1    2.940833453714550E-1
 8.061863825800000E9     3.680485026797299E-1    4.427984661614500E-1   -2.155912126570858E-3    2.534019137909395E-3   -2.037083152412710E-3    2.664857429245678E-3    3.881608188984593E-1    2.939012570650634E-1
 8.061865105200000E9     3.681558616494357E-1    4.427235725547723E-1   -2.148189909028348E-3    2.504310234909533E-3   -2.027198077415205E-3    2.703750307001839E-3    3.881718601663119E-1    2.939755055632833E-1
 8.061866384600000E9     3.683159668023556E-1    4.426082744692821E-1   -2.150507240150128E-3    2.545097691477782E-3   -2.063201147189077E-3    2.655007055620964E-3    3.881964962337534E-1    2.938242923017982E-1
 8.061867664000000E9     3.684265491450257E-1    4.424059436459716E-1   -2.157480612432919E-3    2.537426381267830E-3   -2.041592304825460E-3    2.696714117595218E-3    3.882991690025755E-1    2.937628388982615E-1
 8.061868943400000E9     3.685064221908572E-1    4.424614442295848E-1   -2.180952160461505E-3    2.526236353722698E-3   -2.084105315614285E-3    2.681716901084462E-3    3.882233579674076E-1    2.936910878003527E-1
 8.061870222800000E9     3.685373898556871E-1    4.422862934683800E-1   -2.189312688947973E-3    2.537825398216498E-3   -2.040600126777734E-3    2.759586254627837E-3    3.884001767140316E-1    2.936316398517004E-1
 8.061871502200000E9     3.687343180341338E-1    4.422880678944589E-1   -2.163885515057499E-3    2.558816934105181E-3   -2.060115736263190E-3    2.730208615788208E-3    3.884196018453234E-1    2.935929516414963E-1
 8.061872781600000E9     3.687458265663100E-1    4.421282277164969E-1   -2.161583900157880E-3    2.568857740318778E-3   -2.038430449531954E-3    2.735334867547407E-3    3.884067555176828E-1    2.935898344360907E-1
 8.061874061000000E9     3.688943389475081E-1    4.422145303545155E-1   -2.212201096470295E-3    2.570650499555574E-3   -2.063789464821724E-3    2.732495975998955E-3    3.885261744274603E-1    2.934095380101261E-1
 8.061875340400000E9     3.688373388079035E-1    4.419359330182134E-1   -2.190875176204182E-3    2.583076909022145E-3   -2.071701851997367E-3    2.729759039603030E-3    3.885819808854274E-1    2.934537201126970E-1
 8.061876619800000E9     3.689442092999961E-1    4.419773146797659E-1   -2.218669704781134E-3    2.578526353178849E-3   -2.046083479825674E-3    2.751196258585416E-3    3.886103188798025E-1    2.935899833540455E-1
 8.061877899200000E9     3.690733012525661E-1    4.418180138409478E-1   -2.191181816839515E-3    2.618692888813834E-3   -2.031728503522418E-3    2.743843320496388E-3    3.886375396824952E-1    2.932342716564477E-1
 8.061879178600000E9     3.691702884205739E-1    4.418383150992950E-1   -2.195024059292816E-3    2.594814753049550E-3   -2.051418097280581E-3    2.759944169792063E-3    3.887682692567084E-1    2.933875041681665E-1
 8.061880458000000E9     3.693474983684699E-1    4.417451362337181E-1   -2.194199339109781E-3    2.598993022987905E-3   -2.073188003240583E-3    2.768047239029316E-3    3.887920824080979E-1    2.931830629709417E-1
 8.061881737400000E9     3.693717820971354E-1    4.416078069411773E-1   -2.213109336239875E-3    2.610583784132395E-3   -2.063824210366751E-3    2.792885838959684E-3    3.888236943476423E-1    2.931357471534005E-1
 8.061883016800000E9     3.694607547064954E-1    4.414723974205369E-1   -2.191490835480436E-3    2.629758996074782E-3   -2.059299259679055E-3    2.783410010226509E-3    3.886883464594448E-1    2.929813412098118E-1
 8.061884296200000E9     3.695743958224087E-1    4.414284508826394E-1   -2.223853412552098E-3    2.625585173903287E-3   -2.105889946176968E-3    2.807543204191777E-3    3.887835010263452E-1    2.929690727737065E-1
 8.061885575600000E9     3.697484835266451E-1    4.413613105966359E-1   -2.237023011517041E-3    2.616318540176436E-3   -2.105635056772954E-3    2.808670439947886E-3    3.888234524294914E-1    2.930197776299528E-1
 8.061886855000000E9     3.697764457807037E-1    4.412360841548167E-1   -2.225781212928322E-3    2.614928894215003E-3   -2.077810151476504E-3    2.800709315511287E-3    3.888750896937605E-1    2.929016774038805E-1
 8.061888134400000E9     3.699185046326618E-1    4.410724754330232E-1   -2.219193580483437E-3    2.640567144557266E-3   -2.086847508072366E-3    2.791060719443431E-3    3.890996588856389E-1    2.928208616844076E-1
 8.061889413800000E9     3.699787713875868E-1    4.410284521954843E-1   -2.220842126492420E-3    2.652777903494418E-3   -2.091025010135116E-3    2.802745489461808E-3    3.891589685725657E-1    2.927553599686421E-1
 8.061890693200000E9     3.700151547961383E-1    4.410252190362656E-1   -2.252660343827289E-3    2.667096096730707E-3   -2.102123853014994E-3    2.842985286994171E-3    3.891036139327739E-1    2.925662278557294E-1
 8.061891972600000E9     3.701426683567043E-1    4.408356807930696E-1   -2.242124833296418E-3    2.661767741412096E-3   -2.085554579835135E-3    2.812940788908163E-3    3.890760262612124E-1    2.925225829482723E-1
 8.061893252000000E9     3.702529737560343E-1    4.408079030442587E-1   -2.267664205252283E-3    2.679402090283385E-3   -2.098430385782005E-3    2.827269070036665E-3    3.891716720126112E-1    2.925731984827096E-1
 8.061894531400000E9     3.704190518137596E-1    4.407542718921683E-1   -2.240832994921187E-3    2.677076652274553E-3   -2.106370194424736E-3    2.841844871026950E-3    3.892103956564128E-1    2.925009502310555E-1
 8.061895810800000E9     3.705027543102966E-1    4.405542703590094E-1   -2.266933733094600E-3    2.700205961978486E-3   -2.131830022882288E-3    2.864323791925674E-3    3.891889265888351E-1    2.923807143795408E-1
 8.061897090200000E9     3.706065284284027E-1    4.404085627070520E-1   -2.257213542047202E-3    2.713237963312400E-3   -2.111063781039044E-3    2.871529717162214E-3    3.892705404246646E-1    2.924054323029149E-1
 8.061898369600000E9     3.707564753664015E-1    4.404648073897036E-1   -2.263090383948056E-3    2.710547881015303E-3   -2.105140651920624E-3    2.881992591486636E-3    3.893687963536765E-1    2.922908674883137E-1
 8.061899649000000E9     3.708062957978862E-1    4.403121413232664E-1   -2.255660649771754E-3    2.695772835742649E-3   -2.093676218097743E-3    2.889706970295763E-3    3.892982759846489E-1    2.921727518080499E-1
 8.061900928400000E9     3.708927474086199E-1    4.401969967437696E-1   -2.287693879854576E-3    2.702194380614711E-3   -2.142194282778166E-3    2.889612286428265E-3    3.894905376841482E-1    2.920241178047898E-1
 8.061902207800000E9     3.710109078328421E-1    4.401953637362788E-1   -2.263828344489962E-3    2.751097376715942E-3   -2.136332321938997E-3    2.895682294739646E-3    3.894974564755103E-1    2.920483518571094E-1
 8.061903487200000E9     3.710359225727510E-1    4.401040063504650E-1   -2.290599003834587E-3    2.777624724132376E-3   -2.128555313956817E-3    2.883450997565660E-3    3.894747898438410E-1    2.920271318643538E-1
 8.061904766600000E9     3.711159934621390E-1    4.399446657993585E-1   -2.274018454634924E-3    2.756885386989177E-3   -2.155157185180169E-3    2.910426140331006E-3    3.894246796601067E-1    2.919404084400691E-1
 8.061906046000000E9     3.712406496816901E-1    4.398830514243662E-1   -2.279503638779792E-3    2.767361516869661E-3   -2.124929261916461E-3    2.912683084474882E-3    3.895271261929421E-1    2.918711935103118E-1
 8.061907325400000E9     3.712821611803233E-1    4.398318544445524E-1   -2.302684881783309E-3    2.790255627499104E-3   -2.091551066461360E-3    2.922521929194665E-3    3.896424406644625E-1    2.918051939481501E-1
 8.061908604800000E9     3.714211336329443E-1    4.396924780338781E-1   -2.292750416978071E-3    2.805972981269999E-3   -2.141923798451703E-3    2.918041846142973E-3    3.897440855857609E-1    2.917212640310402E-1
 8.061909884200000E9     3.716107760141942E-1    4.396009103314043E-1   -2.306635274571301E-3    2.810390015347696E-3   -2.169203689129916E-3    2.938863354331956E-3    3.896369041617525E-1    2.916550214653839E-1
 8.061911163600000E9     3.717245481811165E-1    4.394309715805479E-1   -2.299894360823222E-3    2.795404014023237E-3   -2.123451555148471E-3    2.972355616189287E-3    3.897536714961771E-1    2.916986500502577E-1
 8.061912443000000E9     3.718426685962672E-1    4.393867385010058E-1   -2.303589693870323E-3    2.795014228933498E-3   -2.191682035240565E-3    2.972874255583918E-3    3.897485699102185E-1    2.916025683511060E-1
 8.061913722400000E9     3.717424210054087E-1    4.393501895958395E-1   -2.324047415734569E-3    2.813826238064825E-3   -2.159250322837820E-3    2.997136599166713E-3    3.898823349717093E-1    2.914714423317692E-1
 8.061915001800000E9     3.720007838156527E-1    4.392122004220733E-1   -2.299580622267032E-3    2.831586186211100E-3   -2.164598889461255E-3    2.989433087603481E-3    3.899253850286634E-1    2.914682810977837E-1
 8.061916281200000E9     3.720654962237542E-1    4.390318839302861E-1   -2.335059056193418E-3    2.830275151817331E-3   -2.162449103193626E-3    3.022233454629317E-3    3.899523363483925E-1    2.913225643541443E-1
 8.061917560600000E9     3.721841081557599E-1    4.389909716980961E-1   -2.317715698858073E-3    2.855604234600372E-3   -2.173296594614435E-3    3.060859689771863E-3    3.900711097474200E-1    2.913215969899265E-1
 8.061918840000000E9     3.722640056308039E-1    4.389129359525262E-1   -2.316448015235840E-3    2.866188332765966E-3   -2.203448930834024E-3    3.015211404877548E-3    3.899771790916615E-1    2.911902184341717E-1
 8.061920119400000E9     3.722714552208676E-1    4.388989302524440E-1   -2.327366136306959E-3    2.879335830430934E-3   -2.165832217726698E-3    3.037672479313244E-3    3.901238677133123E-1    2.912115675151654E-1
 8.061921398800000E9     3.724453497059130E-1    4.386873415469927E-1   -2.335359934185355E-3    2.880651810469848E-3   -2.177942522208104E-3    3.045072094873522E-3    3.902478702637991E-1    2.912213046127189E-1
 8.061922678200000E9     3.724532578157238E-1    4.386154186888726E-1   -2.323351040141953E-3    2.883818060158530E-3   -2.184852677667207E-3    3.066030980721308E-3    3.901968829398961E-1    2.909928294036616E-1
 8.061923957600000E9     3.725713646998036E-1    4.383960280701364E-1   -2.351525738777440E-3    2.920871438560193E-3   -2.200355939555766E-3    3.037261302501141E-3    3.901775758554066E-1    2.910892641863071E-1
 8.061925237000000E9     3.727278726691014E-1    4.384451895852157E-1   -2.357370795359892E-3    2.927828773615241E-3   -2.221086313954552E-3    3.094492885476314E-3    3.904394315797335E-1    2.909426025000942E-1
 8.061926516400000E9     3.728478861200819E-1    4.383300729365746E-1   -2.362495225653127E-3    2.922434287660574E-3   -2.220072109641535E-3    3.062006096495462E-3    3.904321671083767E-1    2.909007413643728E-1
 8.061927795800000E9     3.729468112887425E-1    4.382529456519207E-1   -2.355225021345452E-3    2.931606821812204E-3   -2.213735011968089E-3    3.096544655497123E-3    3.904008082693969E-1    2.907333114586905E-1
 8.061929075200000E9     3.730639577788927E-1    4.380437364002041E-1   -2.372560514521063E-3    2.952817848363608E-3   -2.221797430295422E-3    3.152471081700358E-3    3.904253519024188E-1    2.907898497251447E-1
 8.061930354600000E9     3.731925461467199E-1    4.379995930348250E-1   -2.375645547309675E-3    2.972626785798966E-3   -2.267455993749748E-3    3.125663531612101E-3    3.903679264928847E-1    2.907047770302701E-1
 8.061931634000000E9     3.732146878454091E-1    4.379209246182791E-1   -2.354250530486848E-3    2.948537556171109E-3   -2.173152811343101E-3    3.163587090035050E-3    3.905912920967219E-1    2.905905264562674E-1
 8.061932913400000E9     3.732556532438037E-1    4.378494313744556E-1   -2.395668598812681E-3    2.980559765980050E-3   -2.236166160028520E-3    3.137590875703155E-3    3.905683156267226E-1    2.904719752307417E-1
 8.061934192800000E9     3.734132144659706E-1    4.377096742949310E-1   -2.399758174094766E-3    3.003495870093391E-3   -2.218755666068334E-3    3.169495701059892E-3    3.906867974541305E-1    2.905353109046722E-1
 8.061935472200000E9     3.735299134499452E-1    4.376046509006161E-1   -2.395434856835008E-3    2.994226650904670E-3   -2.240140659585033E-3    3.165624487341249E-3    3.906369082850538E-1    2.903397516153347E-1
 8.061936751600000E9     3.737078388266352E-1    4.374655615168491E-1   -2.393874842872340E-3    3.017463358603146E-3   -2.229954139049740E-3    3.175184390629535E-3    3.907400549836356E-1    2.903341558386934E-1
 8.061938031000000E9     3.737714947809898E-1    4.374063943849550E-1   -2.401519014346872E-3    3.031441287863057E-3   -2.257831178009383E-3    3.198236918592370E-3    3.907331744311860E-1    2.902287492780344E-1
 8.061939310400000E9     3.739329646793169E-1    4.372438930980120E-1   -2.402583683904668E-3    3.044411416509176E-3   -2.279149068687628E-3    3.244375024801854E-3    3.907290422329166E-1    2.901694135175142E-1
 8.061940589800000E9     3.739210716837691E-1    4.371135178457780E-1   -2.382366182036026E-3    3.053439997494121E-3   -2.260286544971260E-3    3.209905489526980E-3    3.907649004873338E-1    2.900762164624728E-1
 8.061941869200000E9     3.740458472058951E-1    4.370969604749649E-1   -2.418636966873391E-3    3.047346923052267E-3   -2.262945972985349E-3    3.221898000814073E-3    3.909239570886328E-1    2.900415045170746E-1
 8.061943148600000E9     3.741862986700758E-1    4.369225158582725E-1   -2.439022874421010E-3    3.099791579413329E-3   -2.278802357644450E-3    3.227872665307457E-3    3.909169260733821E-1    2.899063210085926E-1
 8.061944428000000E9     3.742334283536246E-1    4.367327692570212E-1   -2.444765845919692E-3    3.080298820967492E-3   -2.257503674065639E-3    3.258193292145229E-3    3.909480837658884E-1    2.899728452217190E-1
 8.061945707400000E9     3.743641758293768E-1    4.367084783688404E-1   -2.470353201207897E-3    3.109879300579657E-3   -2.295612218510684E-3    3.263339479797399E-3    3.910323342683067E-1    2.897882746986281E-1
 8.061946986800000E9     3.744882476755225E-1    4.366986528559826E-1   -2.449591496397377E-3    3.139231389270976E-3   -2.288473397222956E-3    3.345097486782442E-3    3.909946858742684E-1    2.898596137401473E-1
 8.061948266200000E9     3.745812549100742E-1    4.364011219111536E-1   -2.447707588410592E-3    3.138747750580150E-3   -2.341854996173621E-3    3.351026937836815E-3    3.910417438053227E-1    2.898263919254487E-1
 8.061949545600000E9     3.747241662307068E-1    4.363883257980921E-1   -2.447271364121087E-3    3.158499628469986E-3   -2.295450976166492E-3    3.308299285671411E-3    3.910979978936735E-1    2.897689696742475E-1
 8.061950825000000E9     3.748916692482606E-1    4.361741358214458E-1   -2.471139614596687E-3    3.179270536325927E-3   -2.293559918371137E-3    3.375429415001560E-3    3.911082045477340E-1    2.897488968018995E-1
 8.061952104400000E9     3.749478496413828E-1    4.359874667411738E-1   -2.470392504985111E-3    3.193492781827427E-3   -2.296918260130004E-3    3.357145978325259E-3    3.911849177293719E-1    2.895232029459067E-1
 8.061953383800000E9     3.750511266616550E-1    4.358780468144884E-1   -2.489999513408903E-3    3.217547136198286E-3   -2.319906564881613E-3    3.367296705481800E-3    3.912933571075222E-1    2.895578221931253E-1
 8.061954663200000E9     3.751297985441890E-1    4.358716514754769E-1   -2.476417022972421E-3    3.215597006821315E-3   -2.308657449335582E-3    3.438160917598070E-3    3.913721882336063E-1    2.895120015688391E-1
 8.061955942600000E9     3.752841907097313E-1    4.357546754454185E-1   -2.502047459220021E-3    3.253501404156886E-3   -2.316052491770380E-3    3.406540643249764E-3    3.914212991736723E-1    2.894532515569714E-1
 8.061957222000000E9     3.753756035782105E-1    4.355439183721626E-1   -2.504316987586657E-3    3.237325216336814E-3   -2.325679850350802E-3    3.402879964005579E-3    3.912998625768280E-1    2.893228365527697E-1
