#  HZ   S   RI   R     50.00 
! Rohde & Schwarz Vector Network Analyzer 
! Rohde-Schwarz,ZNB20-2Port,1311601062101988,3.16
! Created: UTC 3/20/2024, 11:02:10 PM
! freq[Hz]                re:S11                  im:S11                  re:S21                  im:S21                  re:S12                  im:S12                  re:S22                  im:S22
 8.061831745000000E9     3.659271457585939E-1    4.447328379347769E-1   -2.079200278913266E-3    2.405340823853551E-3   -1.962648223034661E-3    2.547683050449371E-3    3.875144885608916E-1    2.954031442162606E-1
 8.061833058675000E9     3.659937127413047E-1    4.446267958741814E-1   -2.107800445567715E-3    2.419156660590496E-3   -1.972052254762496E-3    2.547538150683405E-3    3.873831459625401E-1    2.952631373381823E-1
 8.061834372350000E9     3.660963942660713E-1    4.446183782212704E-1   -2.116125059457989E-3    2.408518833880687E-3   -1.939758998762785E-3    2.562266189696364E-3    3.875530625924269E-1    2.953488999089208E-1
 8.061835686025000E9     3.661079554279962E-1    4.444232027768334E-1   -2.116626883176726E-3    2.385575028369813E-3   -1.975121919190548E-3    2.577733616576001E-3    3.876336991112246E-1    2.950357138827446E-1
 8.061836999700000E9     3.662523279911635E-1    4.443536601401752E-1   -2.110121475822785E-3    2.427875669078854E-3   -1.950418332437908E-3    2.550320929331143E-3    3.876214036534679E-1    2.951092121637572E-1
 8.061838313375000E9     3.662408704001089E-1    4.443470414025000E-1   -2.109178499892004E-3    2.425921533217224E-3   -2.010549587973114E-3    2.592893333512171E-3    3.876392146930329E-1    2.949183198132678E-1
 8.061839627050000E9     3.664752054647065E-1    4.442360758266105E-1   -2.093325522816067E-3    2.403666340769089E-3   -2.023446798714186E-3    2.599744500216242E-3    3.877523868610168E-1    2.949764592604878E-1
 8.061840940725000E9     3.666099002544787E-1    4.441123811215887E-1   -2.123654792052103E-3    2.452624432111592E-3   -2.009639018654356E-3    2.577803886885914E-3    3.877557362138152E-1    2.948754368079725E-1
 8.061842254400000E9     3.666475014304459E-1    4.440297153768681E-1   -2.111556340186212E-3    2.441104275522036E-3   -2.010751063868255E-3    2.587339492172384E-3    3.878201173963004E-1    2.950951301638881E-1
 8.061843568075000E9     3.667760060041182E-1    4.439863917892910E-1   -2.111456341298415E-3    2.439214347823304E-3   -1.973564131794194E-3    2.611348653781620E-3    3.878816314683642E-1    2.947393797973399E-1
 8.061844881750000E9     3.667931711915074E-1    4.438255531188601E-1   -2.114257729022233E-3    2.438830459252851E-3   -2.016488639206863E-3    2.590762801208147E-3    3.879725525202818E-1    2.948243501604448E-1
 8.061846195425000E9     3.669661244947826E-1    4.438156041230707E-1   -2.117468805968341E-3    2.474116177943482E-3   -1.996533176126000E-3    2.605147980975543E-3    3.880284461318170E-1    2.947621794101514E-1
 8.061847509100000E9     3.669753634756762E-1    4.437145540400579E-1   -2.133305297737160E-3    2.467907099526284E-3   -2.002700723310005E-3    2.635728080446163E-3    3.880172433279030E-1    2.947309244179606E-1
 8.061848822775000E9     3.671905388670685E-1    4.436750802335084E-1   -2.140847816037695E-3    2.484823640597680E-3   -1.994672382688274E-3    2.616108627989968E-3    3.879953510132684E-1    2.944971498566882E-1
 8.061850136450000E9     3.672275231816108E-1    4.435719916281423E-1   -2.131210522853275E-3    2.460952255986886E-3   -1.995582393644290E-3    2.633533897662610E-3    3.881145828553034E-1    2.946067986000733E-1
 8.061851450125000E9     3.672698139728263E-1    4.434580646818407E-1   -2.147338524640128E-3    2.461849434952804E-3   -2.025021599523020E-3    2.643485668660667E-3    3.881084210811693E-1    2.944266209730224E-1
 8.061852763800000E9     3.674178832169555E-1    4.433141029717890E-1   -2.129207788552428E-3    2.504152033056086E-3   -1.977440798253600E-3    2.653627151260517E-3    3.882880868457993E-1    2.943613600866927E-1
 8.061854077475000E9     3.674950443172659E-1    4.432051560872208E-1   -2.143590468741210E-3    2.493363515533161E-3   -1.998039962676374E-3    2.630675609686721E-3    3.881749197346755E-1    2.942760177936284E-1
 8.061855391150000E9     3.676135954921880E-1    4.431724123170493E-1   -2.171791415725520E-3    2.501609849527275E-3   -2.002951137581808E-3    2.679131993070450E-3    3.881801529126375E-1    2.944099756529445E-1
 8.061856704825000E9     3.676609062036672E-1    4.431716086867521E-1   -2.164186589432887E-3    2.481204466548289E-3   -2.041262648751294E-3    2.668888145017436E-3    3.883974525066880E-1    2.942461383658924E-1
 8.061858018500000E9     3.677111499299497E-1    4.430711146523346E-1   -2.156447972974222E-3    2.499293771062268E-3   -2.039087786901316E-3    2.652048649684807E-3    3.884733596390024E-1    2.941236191235112E-1
 8.061859332175000E9     3.678372402066221E-1    4.429615435774103E-1   -2.160135267116800E-3    2.512554200639161E-3   -2.006965874287342E-3    2.712618227180509E-3    3.884621494622589E-1    2.940709995888521E-1
 8.061860645850000E9     3.678643350178423E-1    4.429203020636513E-1   -2.157201182895547E-3    2.506637689600308E-3   -2.012356745624957E-3    2.681517345452441E-3    3.884612531018602E-1    2.939644288831971E-1
 8.061861959525000E9     3.681145528860731E-1    4.426494035094298E-1   -2.170585253548987E-3    2.542666413934780E-3   -2.037170101579838E-3    2.680474651123877E-3    3.885029773882628E-1    2.938756546025140E-1
 8.061863273200000E9     3.680848354722103E-1    4.424847029391796E-1   -2.164199237380351E-3    2.532865872453500E-3   -2.001803664880431E-3    2.717708252580261E-3    3.886575185429738E-1    2.939185540378700E-1
 8.061864586875000E9     3.683083514715977E-1    4.426619966130088E-1   -2.186046697507783E-3    2.536531011650973E-3   -2.076494531111206E-3    2.678981688940554E-3    3.885200734133081E-1    2.939145020390813E-1
 8.061865900550000E9     3.683789784129974E-1    4.424807127889731E-1   -2.172972771673686E-3    2.562567995700167E-3   -2.062514896519657E-3    2.690331383992790E-3    3.886083545053667E-1    2.936214707934838E-1
 8.061867214225000E9     3.684082068472014E-1    4.424853042012155E-1   -2.164554416190843E-3    2.567992285264481E-3   -2.032614892609540E-3    2.726022694618301E-3    3.887860498749877E-1    2.936073475839175E-1
 8.061868527900000E9     3.685367778723024E-1    4.423241336644876E-1   -2.194580618302172E-3    2.569967128065048E-3   -2.045032225637631E-3    2.709645746107052E-3    3.887387237915654E-1    2.935834677195663E-1
 8.061869841575000E9     3.686489274227717E-1    4.422435461269457E-1   -2.174025869485497E-3    2.585904718212634E-3   -2.063600761902555E-3    2.745158754251769E-3    3.888335123535877E-1    2.934992746698123E-1
 8.061871155250000E9     3.687854118571473E-1    4.421024308168665E-1   -2.158287470324554E-3    2.568316794826798E-3   -2.046431199130223E-3    2.760170929943265E-3    3.888359051366488E-1    2.934399587854516E-1
 8.061872468925000E9     3.688776046377477E-1    4.420905573177459E-1   -2.202975647835035E-3    2.582485497060244E-3   -2.043843437010705E-3    2.730206784773717E-3    3.888228350743793E-1    2.933531054740835E-1
 8.061873782600000E9     3.689923027297263E-1    4.420991931972495E-1   -2.197573174830980E-3    2.609698426803641E-3   -2.077907675958793E-3    2.752516709398262E-3    3.891020880120096E-1    2.933414096106541E-1
 8.061875096275000E9     3.689948277121955E-1    4.419788877389466E-1   -2.206726683347008E-3    2.611408807704799E-3   -2.038339944380711E-3    2.745896075668402E-3    3.890411895008906E-1    2.934025298706516E-1
 8.061876409950000E9     3.691203942491528E-1    4.417469036802582E-1   -2.211835445596432E-3    2.613848457718918E-3   -2.057557035882402E-3    2.753603521341179E-3    3.890404221534393E-1    2.932406806330031E-1
 8.061877723625000E9     3.692361420380086E-1    4.417377445224487E-1   -2.208751505964658E-3    2.587217025591841E-3   -2.050737290627501E-3    2.762132303092118E-3    3.890065790894705E-1    2.931753696858296E-1
 8.061879037300000E9     3.692681064670063E-1    4.416273861084419E-1   -2.203976571810623E-3    2.635188215699979E-3   -2.094888389769385E-3    2.763867910807274E-3    3.890759994141361E-1    2.931628342975379E-1
 8.061880350975000E9     3.694107474744910E-1    4.415310592197927E-1   -2.220017630990410E-3    2.608016041041519E-3   -2.066274309012886E-3    2.783973683374737E-3    3.891237761900743E-1    2.930732853443334E-1
 8.061881664650000E9     3.694157097116102E-1    4.414117353830455E-1   -2.211359758762154E-3    2.638864752685830E-3   -2.073724514211168E-3    2.767768041307593E-3    3.892330536971441E-1    2.930330938046618E-1
 8.061882978325000E9     3.696316277017517E-1    4.414162732139080E-1   -2.212886744863624E-3    2.639517349211535E-3   -2.070169484524540E-3    2.805441422509750E-3    3.893939485273842E-1    2.928765816530159E-1
 8.061884292000000E9     3.696266679955911E-1    4.413039287005804E-1   -2.217243525497331E-3    2.656071103259852E-3   -2.098587026476445E-3    2.782870887042349E-3    3.893617951352988E-1    2.927392242052448E-1
 8.061885605675000E9     3.698418697097711E-1    4.412873392144600E-1   -2.254364637081579E-3    2.665987808049479E-3   -2.080780746353705E-3    2.853157458035192E-3    3.892947751892629E-1    2.926923987778313E-1
 8.061886919350000E9     3.698287991723228E-1    4.411955653646089E-1   -2.220293385514481E-3    2.649240318109195E-3   -2.086142541401979E-3    2.827371878529760E-3    3.893959549328120E-1    2.927213996040323E-1
 8.061888233025000E9     3.698713396250475E-1    4.409828117917871E-1   -2.235340042282563E-3    2.680726382884611E-3   -2.079727318890357E-3    2.828632103316890E-3    3.895510223237356E-1    2.926467800943543E-1
 8.061889546700000E9     3.700580947616479E-1    4.409288228381248E-1   -2.236357980398035E-3    2.686958082312809E-3   -2.106954161385244E-3    2.855054417307736E-3    3.894960068613885E-1    2.925312765182306E-1
 8.061890860375000E9     3.702086474818594E-1    4.409281207610771E-1   -2.251860058777439E-3    2.690338510938335E-3   -2.095633033767176E-3    2.839783805172880E-3    3.894496394077901E-1    2.924120940866499E-1
 8.061892174050000E9     3.702056463119474E-1    4.407513928501257E-1   -2.231723404911050E-3    2.708066405176903E-3   -2.126174220726603E-3    2.829869517561566E-3    3.895453569327608E-1    2.925213595082677E-1
 8.061893487725000E9     3.705007513920033E-1    4.406496581915621E-1   -2.248033341461346E-3    2.706702731890701E-3   -2.083317930383162E-3    2.882415715111887E-3    3.896472174622016E-1    2.923713154988126E-1
 8.061894801400000E9     3.705517798911325E-1    4.404164211116243E-1   -2.273672032653091E-3    2.713772894641401E-3   -2.125383798145430E-3    2.845100401125334E-3    3.895969469537343E-1    2.922563782649586E-1
 8.061896115075000E9     3.706501470607533E-1    4.405892366261464E-1   -2.260223469083805E-3    2.738526792271599E-3   -2.118826930440908E-3    2.888459235790937E-3    3.898400528782237E-1    2.922155991960141E-1
 8.061897428750000E9     3.706441149514613E-1    4.404028096380864E-1   -2.268434622774396E-3    2.709357673423176E-3   -2.122443920051293E-3    2.887308338390909E-3    3.896651452683581E-1    2.922616111622274E-1
 8.061898742425000E9     3.707030429011465E-1    4.402021853291267E-1   -2.259006116686013E-3    2.755001115158366E-3   -2.135844203415650E-3    2.923015407707624E-3    3.897959230223333E-1    2.920985346433551E-1
 8.061900056100000E9     3.708853660675392E-1    4.402111598590303E-1   -2.273380671260983E-3    2.770878320656684E-3   -2.131394164555676E-3    2.911102505022517E-3    3.898646377351164E-1    2.919298128243604E-1
 8.061901369775000E9     3.708887947378396E-1    4.400751118701667E-1   -2.282381800193761E-3    2.727559034306560E-3   -2.164557561417258E-3    2.891224635410580E-3    3.897787045341023E-1    2.919317894538550E-1
 8.061902683450000E9     3.711121757072893E-1    4.399726153631616E-1   -2.287842112311019E-3    2.743787668561093E-3   -2.166750747426450E-3    2.974151360190370E-3    3.899711957548748E-1    2.919236771465083E-1
 8.061903997125000E9     3.711407701381461E-1    4.399303599645850E-1   -2.281351043346137E-3    2.793881812122598E-3   -2.131369677069104E-3    2.946022724418197E-3    3.899128374270092E-1    2.918419005905456E-1
 8.061905310800000E9     3.711866109898665E-1    4.398074803920884E-1   -2.304893949439444E-3    2.788591484437553E-3   -2.138675062533682E-3    2.962377364342269E-3    3.899864370332921E-1    2.917983240423669E-1
 8.061906624475000E9     3.713758817496970E-1    4.396686852408452E-1   -2.316318601052426E-3    2.780764597790584E-3   -2.140784654363475E-3    2.974433571334154E-3    3.900202267415339E-1    2.917815775675554E-1
 8.061907938150000E9     3.714942686443303E-1    4.397854213914826E-1   -2.323829081814245E-3    2.793261746113844E-3   -2.156428260169075E-3    2.964522951348678E-3    3.901918891372881E-1    2.917279720175908E-1
 8.061909251825000E9     3.715476487959320E-1    4.395933305771380E-1   -2.305264934621640E-3    2.792339225326795E-3   -2.160586490650426E-3    3.003976562576776E-3    3.901935175728468E-1    2.915312000705131E-1
 8.061910565500000E9     3.716270653030925E-1    4.394850313876191E-1   -2.314663775449575E-3    2.828116818707193E-3   -2.190879156987982E-3    3.024776335870949E-3    3.902154807736651E-1    2.914313951216851E-1
 8.061911879175000E9     3.717796101037352E-1    4.393275550572878E-1   -2.321030065001485E-3    2.850388135395980E-3   -2.157274907068854E-3    2.968827410786818E-3    3.901857431647025E-1    2.914976922684688E-1
 8.061913192850000E9     3.718742045138085E-1    4.392292769062128E-1   -2.309828072725776E-3    2.836085921494399E-3   -2.182371433743017E-3    2.987584553771071E-3    3.902514634510108E-1    2.913133875266221E-1
 8.061914506525000E9     3.719218431636487E-1    4.390800676785787E-1   -2.307995232413399E-3    2.865561574909638E-3   -2.167051268644756E-3    3.014364985595042E-3    3.902637032970924E-1    2.913040456164196E-1
 8.061915820200000E9     3.720762512523521E-1    4.388927062160419E-1   -2.341710674285279E-3    2.876602818146530E-3   -2.233399693615428E-3    3.007556169392383E-3    3.905116418694082E-1    2.911706892848789E-1
 8.061917133875000E9     3.720603167245036E-1    4.389074351918356E-1   -2.344451919184419E-3    2.858421771221010E-3   -2.170781488470893E-3    3.038203597097586E-3    3.904532097924212E-1    2.911763900151337E-1
 8.061918447550000E9     3.721746417720324E-1    4.387785651664303E-1   -2.335556641001829E-3    2.878568413273217E-3   -2.226756796169333E-3    3.082484393138601E-3    3.905397152220855E-1    2.910973137610263E-1
 8.061919761225000E9     3.723402574199717E-1    4.385837539260686E-1   -2.329086507684644E-3    2.918466966870294E-3   -2.210141407899508E-3    3.065628848879182E-3    3.903508441127575E-1    2.910953719714439E-1
 8.061921074900000E9     3.724075258400498E-1    4.385713043108387E-1   -2.353685486117913E-3    2.878975932606856E-3   -2.180499939525071E-3    3.089570003540823E-3    3.905129392634433E-1    2.910956009847626E-1
 8.061922388575000E9     3.724842919148999E-1    4.385210986913178E-1   -2.351497184777212E-3    2.933188631173576E-3   -2.201027743680208E-3    3.090703989498443E-3    3.904731555435930E-1    2.908619727051095E-1
 8.061923702250000E9     3.726505850494692E-1    4.384736573229254E-1   -2.353240337286502E-3    2.926336458348206E-3   -2.206479945873897E-3    3.077953352183980E-3    3.906646675151723E-1    2.908325399821303E-1
 8.061925015925000E9     3.728011142488853E-1    4.382786731133561E-1   -2.367875488373703E-3    2.942015607968986E-3   -2.238774833752072E-3    3.089915080836806E-3    3.906317051137417E-1    2.907902092001299E-1
 8.061926329600000E9     3.729046001163270E-1    4.381926133219378E-1   -2.372725351799366E-3    2.942300432321696E-3   -2.217743076493740E-3    3.113592344349583E-3    3.906865178031785E-1    2.907127264403909E-1
 8.061927643275000E9     3.730540245377151E-1    4.381411130786572E-1   -2.376877719106542E-3    2.941408778491329E-3   -2.221932270167722E-3    3.153798628167758E-3    3.908512521398121E-1    2.905825018297429E-1
 8.061928956950000E9     3.732015154232728E-1    4.379068339331349E-1   -2.371659987620209E-3    2.982150397266427E-3   -2.192328440941655E-3    3.119342119245935E-3    3.909824926318674E-1    2.905875548174262E-1
 8.061930270625000E9     3.731276947290468E-1    4.378976394418133E-1   -2.369132742612514E-3    2.978249337269335E-3   -2.233980376879561E-3    3.170350561409161E-3    3.909422096248764E-1    2.905365374437859E-1
 8.061931584300000E9     3.732808059379283E-1    4.377958712972283E-1   -2.389779617172186E-3    3.040318554266909E-3   -2.201250917881489E-3    3.152786370057023E-3    3.910538237274067E-1    2.904892816224560E-1
 8.061932897975000E9     3.733997982407679E-1    4.377190159785642E-1   -2.403049670105310E-3    3.032175528571137E-3   -2.227252397757771E-3    3.180373138255444E-3    3.909448744118236E-1    2.904312587572603E-1
 8.061934211650000E9     3.734507862942466E-1    4.375596046129960E-1   -2.395587904575184E-3    3.062654064104131E-3   -2.233499248254837E-3    3.212888738077502E-3    3.910007732367036E-1    2.903919728251075E-1
 8.061935525325000E9     3.736248422718585E-1    4.372925299054684E-1   -2.441063521149998E-3    3.049331541109307E-3   -2.227005658445904E-3    3.193125231693752E-3    3.909604642975089E-1    2.901798767859431E-1
 8.061936839000000E9     3.737966830517458E-1    4.372478175276210E-1   -2.404109708512437E-3    3.066627186105094E-3   -2.219579812794145E-3    3.223487096575638E-3    3.910779292683244E-1    2.902818133223651E-1
 8.061938152675000E9     3.738163444868521E-1    4.371461615608051E-1   -2.391553340249614E-3    3.060876240071961E-3   -2.234223703046383E-3    3.260252903374410E-3    3.912004910441397E-1    2.901689536223240E-1
 8.061939466350000E9     3.740453829548077E-1    4.370313615821286E-1   -2.427736781473493E-3    3.076854787122513E-3   -2.251269650238641E-3    3.268674117194303E-3    3.912168853718644E-1    2.901106036778475E-1
 8.061940780025000E9     3.741628175974160E-1    4.368900184552855E-1   -2.432738106926119E-3    3.089397748108861E-3   -2.283057786270190E-3    3.264725995063363E-3    3.911740617872924E-1    2.900154061873060E-1
 8.061942093700000E9     3.741836836826292E-1    4.368737194569643E-1   -2.441263081748673E-3    3.091429279123056E-3   -2.276982280762456E-3    3.273151690726278E-3    3.911492598608362E-1    2.899783722774792E-1
 8.061943407375000E9     3.744113823582491E-1    4.367259323840506E-1   -2.419535110266502E-3    3.135886143570971E-3   -2.292845594117299E-3    3.325299485192428E-3    3.913540152050444E-1    2.898763198924814E-1
 8.061944721050000E9     3.745239230186337E-1    4.366415617343052E-1   -2.448257003238426E-3    3.125079383312897E-3   -2.335346757038466E-3    3.307824032581484E-3    3.913490630019681E-1    2.897889783187729E-1
 8.061946034725000E9     3.745773011668116E-1    4.362983749728645E-1   -2.465162086732546E-3    3.156931563287316E-3   -2.282050312244094E-3    3.316782968053938E-3    3.914281875449848E-1    2.896030420425262E-1
 8.061947348400000E9     3.745999129381787E-1    4.362812502827731E-1   -2.451186838995893E-3    3.157028651226962E-3   -2.275696036833852E-3    3.319007016330312E-3    3.914649460660326E-1    2.897009044488382E-1
 8.061948662075000E9     3.746931763342596E-1    4.362084974761183E-1   -2.441838492857006E-3    3.190985128923372E-3   -2.301238428848353E-3    3.353420580342991E-3    3.915164918555032E-1    2.896746884641905E-1
 8.061949975750000E9     3.748353505359005E-1    4.361072380788265E-1   -2.458135932416033E-3    3.199953114507509E-3   -2.348588636673228E-3    3.320783662290226E-3    3.914922554702160E-1    2.893979043235579E-1
