#  HZ   S   RI   R     50.00 
! Rohde & Schwarz Vector Network Analyzer 
! Rohde-Schwarz,ZNB20-2Port,1311601062101988,3.16
! Created: UTC 3/20/2024, 11:02:13 PM
! freq[Hz]                re:S11                  im:S11                  re:S21                  im:S21                  re:S12                  im:S12                  re:S22                  im:S22
 8.061830213000000E9     3.656595495643081E-1    4.447766628228609E-1   -2.097875124812111E-3    2.370794144997994E-3   -1.941471651716538E-3    2.571153408876443E-3    3.875157852626955E-1    2.953761801450281E-1
 8.061831530750000E9     3.658964992292933E-1    4.446260536713017E-1   -2.103798331373778E-3    2.393353235210420E-3   -1.999806270085697E-3    2.580157890016548E-3    3.872478588399616E-1    2.952718318817796E-1
 8.061832848500000E9     3.659303003016293E-1    4.446780745418847E-1   -2.086856544158758E-3    2.412891168557111E-3   -1.976988033795174E-3    2.551788962037464E-3    3.875345441322078E-1    2.954026184601839E-1
 8.061834166250000E9     3.660915500673184E-1    4.444933697143499E-1   -2.094460588591667E-3    2.427619013881136E-3   -1.946380504843224E-3    2.573921524055073E-3    3.874912726856098E-1    2.952153232006238E-1
 8.061835484000000E9     3.661625876036120E-1    4.443006112301188E-1   -2.090391743252314E-3    2.425597300294055E-3   -1.958318903475244E-3    2.560252402895089E-3    3.874969232216051E-1    2.951010058943415E-1
 8.061836801750000E9     3.662680558872324E-1    4.443334090571340E-1   -2.118846068991552E-3    2.425496008765684E-3   -1.985120127110382E-3    2.575562780065493E-3    3.877598979488476E-1    2.949430460994773E-1
 8.061838119500000E9     3.663942496668759E-1    4.441988620034756E-1   -2.128941387132747E-3    2.449109322744948E-3   -2.012904184121746E-3    2.565221510741682E-3    3.876669873533863E-1    2.949544787818638E-1
 8.061839437250000E9     3.663675409220790E-1    4.442227851297235E-1   -2.102981565615699E-3    2.443847930752128E-3   -1.995112803576747E-3    2.590734153186965E-3    3.877031413284051E-1    2.948655792114228E-1
 8.061840755000000E9     3.664879454128896E-1    4.440873669492036E-1   -2.123099775377071E-3    2.426727027558740E-3   -2.027276096943161E-3    2.585605415268417E-3    3.876131406127148E-1    2.948068762389197E-1
 8.061842072750000E9     3.666310172718414E-1    4.440383495963253E-1   -2.112162372401829E-3    2.442711334306533E-3   -1.982325570709769E-3    2.568125035706968E-3    3.877483460308268E-1    2.947510285415875E-1
 8.061843390500000E9     3.667030550511747E-1    4.439819908243631E-1   -2.147357838639521E-3    2.487408477831515E-3   -1.992437752817123E-3    2.625829244389314E-3    3.877442438469607E-1    2.948864180617060E-1
 8.061844708250000E9     3.668537571843710E-1    4.438982343889286E-1   -2.104061826093415E-3    2.462134589153323E-3   -1.993212022839354E-3    2.592696713229169E-3    3.879526280191032E-1    2.946284944127808E-1
 8.061846026000000E9     3.669302747531595E-1    4.437656565092714E-1   -2.153389560121831E-3    2.471887719961442E-3   -2.009481225334573E-3    2.611757310734555E-3    3.878974889446424E-1    2.948026461424775E-1
 8.061847343750000E9     3.670904946216352E-1    4.437513974206998E-1   -2.126783789206068E-3    2.446378891106719E-3   -2.026970549448016E-3    2.609684931487877E-3    3.878003325504900E-1    2.945397370199486E-1
 8.061848661500000E9     3.670028527951728E-1    4.436165387202893E-1   -2.130505482798032E-3    2.477967662578396E-3   -2.015762297147719E-3    2.613838413906075E-3    3.880815640719095E-1    2.945500079438811E-1
 8.061849979250000E9     3.672222309279685E-1    4.435803805195203E-1   -2.143952083844404E-3    2.486599973010828E-3   -2.007163459734346E-3    2.620226216960161E-3    3.880613709524175E-1    2.945358735703598E-1
 8.061851297000000E9     3.672766352037443E-1    4.434459232535516E-1   -2.143313182974208E-3    2.468407857390000E-3   -1.997522161289840E-3    2.636979972904258E-3    3.881142962421720E-1    2.943872453663084E-1
 8.061852614750000E9     3.674361542462515E-1    4.433187309662314E-1   -2.162015506187249E-3    2.485560284873232E-3   -2.060509256038882E-3    2.602588555140626E-3    3.881369326126612E-1    2.942540897069902E-1
 8.061853932500000E9     3.675254793701538E-1    4.432521416910340E-1   -2.171982861813792E-3    2.511750203700946E-3   -2.044526195836670E-3    2.649290083218709E-3    3.882349718623095E-1    2.941918577633411E-1
 8.061855250250000E9     3.675650746745428E-1    4.430537567828643E-1   -2.168395502152278E-3    2.500110894894208E-3   -1.983253272161692E-3    2.679522209853542E-3    3.883440207140427E-1    2.941312585426498E-1
 8.061856568000000E9     3.677331495821902E-1    4.431226837801920E-1   -2.121834370027115E-3    2.493448005571527E-3   -2.018555724863094E-3    2.667153206736324E-3    3.882751016825030E-1    2.940801419951433E-1
 8.061857885750000E9     3.678018518806375E-1    4.430855664069999E-1   -2.173679887635556E-3    2.511585079837513E-3   -2.027346102227188E-3    2.672967456853194E-3    3.883294166066902E-1    2.940834255288230E-1
 8.061859203500000E9     3.679097212855651E-1    4.429102821581145E-1   -2.143824845210640E-3    2.498730598102547E-3   -2.031255049338948E-3    2.634820347316998E-3    3.883838694630418E-1    2.940851815323154E-1
 8.061860521250000E9     3.679730063671957E-1    4.428436645994910E-1   -2.176934754243385E-3    2.519808576605794E-3   -1.999687737488346E-3    2.703122347163110E-3    3.885200759235900E-1    2.939709415552593E-1
 8.061861839000000E9     3.681123606791064E-1    4.429277180933195E-1   -2.170992728939238E-3    2.545007252667366E-3   -2.016546509542264E-3    2.654135914425476E-3    3.884973000145056E-1    2.938660288170178E-1
 8.061863156750000E9     3.680285568742681E-1    4.426383189002310E-1   -2.145783724712249E-3    2.527937088410440E-3   -2.030990118065931E-3    2.700395662121016E-3    3.885109874812536E-1    2.937767610327158E-1
 8.061864474500000E9     3.681775863483542E-1    4.425387606235434E-1   -2.140615716480853E-3    2.534946225545464E-3   -2.040684858576376E-3    2.723647169354707E-3    3.886504835763582E-1    2.938051148576998E-1
 8.061865792250000E9     3.683991195870260E-1    4.425176518275499E-1   -2.199319766362464E-3    2.561690282715175E-3   -2.045067955050028E-3    2.694071600406087E-3    3.886949612762566E-1    2.938797016262394E-1
 8.061867110000000E9     3.684500583950344E-1    4.422489729688418E-1   -2.182883423283021E-3    2.576685956392694E-3   -2.067299513605521E-3    2.713867317248969E-3    3.885472392495281E-1    2.936938673378284E-1
 8.061868427750000E9     3.685345822554716E-1    4.424364610343353E-1   -2.185212112110857E-3    2.577453771106611E-3   -2.065905732864345E-3    2.716116494773770E-3    3.886634747288321E-1    2.935964942791219E-1
 8.061869745500000E9     3.686261509223797E-1    4.422348015033602E-1   -2.164203626760420E-3    2.561358764594597E-3   -2.062911179020193E-3    2.736222969179700E-3    3.887079804918775E-1    2.935372245673361E-1
 8.061871063250000E9     3.687379422405517E-1    4.421743001026476E-1   -2.180365634574605E-3    2.599912899853735E-3   -2.042853591378236E-3    2.718323424321162E-3    3.888198336213944E-1    2.933280325952684E-1
 8.061872381000000E9     3.687010027817699E-1    4.420937098287387E-1   -2.187914836838490E-3    2.579701847105479E-3   -2.056565530973600E-3    2.755675091546865E-3    3.887409277581656E-1    2.932967277656109E-1
 8.061873698750000E9     3.688803721975866E-1    4.420030506706200E-1   -2.208136929449377E-3    2.594033673548489E-3   -2.065884396124677E-3    2.730551939837903E-3    3.887972423791058E-1    2.932829326873307E-1
 8.061875016500000E9     3.690308521462569E-1    4.419346863746251E-1   -2.188800906053793E-3    2.616610495869971E-3   -2.040956922663212E-3    2.767956061922128E-3    3.888869879324323E-1    2.932121589125048E-1
 8.061876334250000E9     3.691492782914086E-1    4.417787350405722E-1   -2.217377603776222E-3    2.577834774002684E-3   -2.118536511724507E-3    2.781007064311142E-3    3.889063197623550E-1    2.931768573286924E-1
 8.061877652000000E9     3.692181805734909E-1    4.416769969698132E-1   -2.207209652082217E-3    2.614061979115818E-3   -2.043809242223932E-3    2.766744108094014E-3    3.891455481401099E-1    2.929870906048839E-1
 8.061878969750000E9     3.692079402395385E-1    4.416563454746868E-1   -2.196996598875222E-3    2.610984213805552E-3   -2.091133556085761E-3    2.762545253693750E-3    3.890013936050866E-1    2.930404898540342E-1
 8.061880287500000E9     3.694454998195192E-1    4.415617521672944E-1   -2.216405602537806E-3    2.655899985390215E-3   -2.041889286392588E-3    2.795099436339575E-3    3.891492379321607E-1    2.929003080664092E-1
 8.061881605250000E9     3.695244132678475E-1    4.415013516950698E-1   -2.230780323150611E-3    2.625222865402203E-3   -2.054572676401051E-3    2.792125798800575E-3    3.891471205229028E-1    2.928193135541990E-1
 8.061882923000000E9     3.695818719767988E-1    4.414340499571989E-1   -2.202054554207418E-3    2.652959915146336E-3   -2.065695737382280E-3    2.805065816890466E-3    3.890964166448531E-1    2.927445191279638E-1
 8.061884240750000E9     3.697756649182881E-1    4.412692588880597E-1   -2.219143791942809E-3    2.659107912716913E-3   -2.080352066306353E-3    2.796094862557354E-3    3.892873592132632E-1    2.927416874513071E-1
 8.061885558500000E9     3.698542504969033E-1    4.412788709767538E-1   -2.222864881672095E-3    2.669251743476934E-3   -2.083583377266673E-3    2.801050656682883E-3    3.892473130459092E-1    2.926950057394538E-1
 8.061886876250000E9     3.699171831356792E-1    4.411451786305066E-1   -2.203265884567809E-3    2.648951117670411E-3   -2.073877859981949E-3    2.812844301530298E-3    3.892607701698199E-1    2.925479257559556E-1
 8.061888194000000E9     3.700157601264091E-1    4.410352604424773E-1   -2.260505852895431E-3    2.674419649500281E-3   -2.122465165262369E-3    2.810672400811338E-3    3.894470407744138E-1    2.925932099983451E-1
 8.061889511750000E9     3.700640762947158E-1    4.409942518820639E-1   -2.215140792071496E-3    2.672749339272775E-3   -2.115661985228634E-3    2.845068105734610E-3    3.894498007192294E-1    2.925661362256819E-1
 8.061890829500000E9     3.702114200306963E-1    4.408918357504509E-1   -2.256836812132858E-3    2.692117082036131E-3   -2.096397020836695E-3    2.873215859537099E-3    3.895279693241879E-1    2.922629535026871E-1
 8.061892147250000E9     3.703752148649205E-1    4.406792076034476E-1   -2.258244868972214E-3    2.692704034708934E-3   -2.097732074002745E-3    2.861624330884536E-3    3.896137979542225E-1    2.923189254601364E-1
 8.061893465000000E9     3.704673005475814E-1    4.406768876968472E-1   -2.255121384912304E-3    2.716400470373332E-3   -2.103792883814767E-3    2.835684027470639E-3    3.895823037687660E-1    2.922965878578309E-1
 8.061894782750000E9     3.704236782487638E-1    4.405291424775803E-1   -2.253294895273525E-3    2.713639452772170E-3   -2.114334832098248E-3    2.904775917856741E-3    3.895565718164639E-1    2.922519965203642E-1
 8.061896100500000E9     3.706260930094974E-1    4.403811318011656E-1   -2.273294979995482E-3    2.733682169719354E-3   -2.135170413338531E-3    2.872678392646521E-3    3.896539053823349E-1    2.922707353574442E-1
 8.061897418250000E9     3.706409666142917E-1    4.403890509667844E-1   -2.270308010864329E-3    2.742329516596699E-3   -2.124609151442335E-3    2.906990401748793E-3    3.897208836501762E-1    2.921368537658153E-1
 8.061898736000000E9     3.707883420259563E-1    4.403344731816360E-1   -2.267304816089533E-3    2.747229224861779E-3   -2.126401933053117E-3    2.892738887036196E-3    3.898425999858828E-1    2.920063822835717E-1
 8.061900053750000E9     3.708980332431866E-1    4.401469183910564E-1   -2.263261394668256E-3    2.730217690522163E-3   -2.096125282452377E-3    2.921129806433552E-3    3.899674322342912E-1    2.918548431598129E-1
 8.061901371500000E9     3.711636054214320E-1    4.400903232115889E-1   -2.285879149855451E-3    2.737561660406166E-3   -2.135481951011874E-3    2.927922380096389E-3    3.898964026404160E-1    2.919365058784936E-1
 8.061902689250000E9     3.711167877910982E-1    4.398806097642973E-1   -2.284454987923477E-3    2.760324444794677E-3   -2.137949461929213E-3    2.944034479312494E-3    3.899372166474971E-1    2.918635056891487E-1
 8.061904007000000E9     3.712231842582862E-1    4.398518647971534E-1   -2.294464414947406E-3    2.781777274811459E-3   -2.152819774523195E-3    2.934892741320952E-3    3.899429217815439E-1    2.918152851529136E-1
 8.061905324750000E9     3.712720056450013E-1    4.398217762209611E-1   -2.281859814862828E-3    2.780277161085857E-3   -2.158845288890508E-3    2.938162767399739E-3    3.900004239866739E-1    2.918319705323709E-1
 8.061906642500000E9     3.714600539277533E-1    4.397000346795393E-1   -2.289934960410497E-3    2.794891420966287E-3   -2.150045917731444E-3    2.981453518102385E-3    3.898839886866955E-1    2.915729594073590E-1
 8.061907960250000E9     3.714267787277230E-1    4.395596435169262E-1   -2.320644027293234E-3    2.829246489499764E-3   -2.175799574141017E-3    2.948127210755443E-3    3.901404367253364E-1    2.915130257451802E-1
 8.061909278000000E9     3.714836146230693E-1    4.394241504781596E-1   -2.309423215193311E-3    2.827486129065818E-3   -2.172480722582739E-3    2.990999716451711E-3    3.902010691523096E-1    2.915416206194853E-1
 8.061910595750000E9     3.716049944341180E-1    4.394859921522717E-1   -2.335130071045748E-3    2.815762369852595E-3   -2.165345465418322E-3    3.011528168535386E-3    3.903020951880033E-1    2.914880848507541E-1
 8.061911913500000E9     3.717864173456681E-1    4.393539978838631E-1   -2.339104933373699E-3    2.834412165072801E-3   -2.153592119080556E-3    3.017422354882359E-3    3.901920273015586E-1    2.914123124262746E-1
 8.061913231250000E9     3.718549973238340E-1    4.391655376173739E-1   -2.315044538596899E-3    2.840686460606769E-3   -2.173435218343603E-3    2.997993601676322E-3    3.902823730126197E-1    2.914060404794884E-1
 8.061914549000000E9     3.720691512681803E-1    4.390829492430081E-1   -2.336428918207322E-3    2.839529189316022E-3   -2.167713992207059E-3    3.026179905646282E-3    3.904211372278054E-1    2.912515946522253E-1
 8.061915866750000E9     3.720939188542733E-1    4.390534021184401E-1   -2.323034224147028E-3    2.867920756247430E-3   -2.169869584398649E-3    3.006489958623816E-3    3.903521837173598E-1    2.913100938902325E-1
 8.061917184500000E9     3.721755488519493E-1    4.388256579873500E-1   -2.365347096954166E-3    2.898567832905728E-3   -2.188721244474632E-3    3.048787553320249E-3    3.905482324548891E-1    2.911687123546434E-1
 8.061918502250000E9     3.722949193067042E-1    4.388949875738455E-1   -2.344063345504085E-3    2.877580791547523E-3   -2.191445961434965E-3    3.039917817814006E-3    3.905379442158335E-1    2.909672622080773E-1
 8.061919820000000E9     3.724487450005214E-1    4.387628775169651E-1   -2.336558744691009E-3    2.909860049054035E-3   -2.203167629792309E-3    3.080444323522646E-3    3.904518333244864E-1    2.908783129566596E-1
 8.061921137750000E9     3.725070965382621E-1    4.386653936463498E-1   -2.346796334488044E-3    2.913680406714571E-3   -2.198716429594138E-3    3.089147878517569E-3    3.904794483508514E-1    2.909639791874652E-1
 8.061922455500000E9     3.725847308793491E-1    4.384517496552764E-1   -2.347129290424578E-3    2.924288815806633E-3   -2.219098678034521E-3    3.103285366755157E-3    3.905948202524269E-1    2.907848306335297E-1
 8.061923773250000E9     3.726652581209189E-1    4.384002263436126E-1   -2.345574953410092E-3    2.940402213466416E-3   -2.209932098406253E-3    3.100953010771356E-3    3.906443981657173E-1    2.908064178745959E-1
 8.061925091000000E9     3.728997514379344E-1    4.383283360162055E-1   -2.361103086631223E-3    2.937133820989375E-3   -2.245252873675135E-3    3.105186012449225E-3    3.907070086320719E-1    2.908024237259977E-1
 8.061926408750000E9     3.730043239125482E-1    4.382498761323151E-1   -2.391672756260450E-3    2.948877862324317E-3   -2.268340561930576E-3    3.117070080906249E-3    3.908392143588966E-1    2.905970785280613E-1
 8.061927726500000E9     3.729895214786773E-1    4.380336278502142E-1   -2.377319463027246E-3    2.972438733199349E-3   -2.226179807605941E-3    3.154592347112746E-3    3.908768786902170E-1    2.905430566387845E-1
 8.061929044250000E9     3.731507734141204E-1    4.379413221002534E-1   -2.419766759833878E-3    2.987518707002450E-3   -2.262943915991588E-3    3.151775266643329E-3    3.907773111618919E-1    2.904984702009513E-1
 8.061930362000000E9     3.732816220427500E-1    4.377765968751475E-1   -2.400448473228939E-3    2.992442571483934E-3   -2.233925028080334E-3    3.180269626131500E-3    3.908915284305175E-1    2.903637643642084E-1
 8.061931679750000E9     3.733141183765947E-1    4.376795907948541E-1   -2.406461103369190E-3    3.009597645774510E-3   -2.198855300708191E-3    3.237351065887023E-3    3.909633690799278E-1    2.904042746661307E-1
 8.061932997500000E9     3.735506703167869E-1    4.376467025220273E-1   -2.400316985094595E-3    3.028980419222884E-3   -2.261705681111981E-3    3.188997598617702E-3    3.909187816598198E-1    2.903898097856632E-1
 8.061934315250000E9     3.736173101532574E-1    4.374490693799706E-1   -2.392843513186579E-3    3.007948092497994E-3   -2.245571766755396E-3    3.214261985350815E-3    3.909497734773169E-1    2.903741125097462E-1
 8.061935633000000E9     3.737603844259462E-1    4.373110139496539E-1   -2.426630078955654E-3    3.042382166252778E-3   -2.258903475726539E-3    3.210331163258550E-3    3.911550309880177E-1    2.900993384644942E-1
 8.061936950750000E9     3.738658683592025E-1    4.372977914285218E-1   -2.412060256226038E-3    3.064723200303775E-3   -2.275319478955185E-3    3.247526235227702E-3    3.909465659092858E-1    2.900445805615996E-1
 8.061938268500000E9     3.739411824752708E-1    4.371459895805387E-1   -2.435538501777003E-3    3.058911891901432E-3   -2.260054518402338E-3    3.264709275060045E-3    3.910619759656391E-1    2.900160773249300E-1
 8.061939586250000E9     3.740575433460612E-1    4.370331690106599E-1   -2.436113968159356E-3    3.076957092271756E-3   -2.278259061420802E-3    3.268104240130875E-3    3.911954202782803E-1    2.899450852513650E-1
 8.061940904000000E9     3.741269650084231E-1    4.369063101786523E-1   -2.437092231143392E-3    3.092718404375823E-3   -2.267859259407590E-3    3.316307463022288E-3    3.913188054654926E-1    2.897993544129669E-1
 8.061942221750000E9     3.743572552794520E-1    4.367885914847778E-1   -2.414946795126932E-3    3.102610803608934E-3   -2.292865579314389E-3    3.248835585441682E-3    3.912141748578755E-1    2.898610298285328E-1
 8.061943539500000E9     3.743441605392065E-1    4.366676117969669E-1   -2.452041334423917E-3    3.129885784955363E-3   -2.285650774232764E-3    3.329417323238857E-3    3.912715882225676E-1    2.898431403491152E-1
 8.061944857250000E9     3.744878746173190E-1    4.364239100465712E-1   -2.437687162664525E-3    3.177664936207628E-3   -2.302107993773126E-3    3.304264158078036E-3    3.914314507136383E-1    2.897738369310907E-1
 8.061946175000000E9     3.745333931910360E-1    4.363483645954414E-1   -2.448139623103513E-3    3.172779603140688E-3   -2.315101198906049E-3    3.372082086031777E-3    3.913314186949510E-1    2.897022457557402E-1
 8.061947492750000E9     3.747084082505812E-1    4.363575779907542E-1   -2.456375886530797E-3    3.175064155341811E-3   -2.283067901007292E-3    3.387756449968096E-3    3.914552755040631E-1    2.895062937951481E-1
 8.061948810500000E9     3.747675995582011E-1    4.361992659058982E-1   -2.488224043219402E-3    3.193822120093922E-3   -2.305379932446259E-3    3.347616889985658E-3    3.915810008120017E-1    2.895051169037548E-1
