#  HZ   S   RI   R     50.00 
! Rohde & Schwarz Vector Network Analyzer 
! Rohde-Schwarz,ZNB20-2Port,1311601062101988,3.16
! Created: UTC 3/20/2024, 10:53:02 PM
! freq[Hz]                re:S11                  im:S11                  re:S21                  im:S21                  re:S12                  im:S12                  re:S22                  im:S22
 8.062174327000000E9     3.894722699523574E-1    4.233422267250431E-1   -3.055650423162947E-3    3.876662400421316E-3   -2.826967993263141E-3    4.081825136223163E-3    3.921492361444189E-1    2.809625379260644E-1
 8.062174829650000E9     3.894308582265941E-1    4.232574916879953E-1   -3.039875910951531E-3    3.910103882550931E-3   -2.827004310878648E-3    4.105934789138432E-3    3.922332634012747E-1    2.809100604996779E-1
 8.062175332300000E9     3.895938599317029E-1    4.231486277421447E-1   -3.037719072341396E-3    3.908434515550623E-3   -2.809114679263109E-3    4.146623194780052E-3    3.921907572502805E-1    2.808644599438805E-1
 8.062175834950000E9     3.896503941722032E-1    4.229534151588756E-1   -3.053668915302978E-3    3.931988874370065E-3   -2.860951636964572E-3    4.136099600897075E-3    3.920039025210099E-1    2.808801998163570E-1
 8.062176337600000E9     3.896883899665612E-1    4.229204168237597E-1   -3.067042933261016E-3    3.900520508413429E-3   -2.843458002781514E-3    4.150408242311479E-3    3.921215518138251E-1    2.809289803263687E-1
 8.062176840250000E9     3.899480035324125E-1    4.228198588418652E-1   -3.043002629534334E-3    3.945607038765898E-3   -2.816755046704725E-3    4.172859843820113E-3    3.920299981830854E-1    2.807269391439152E-1
 8.062177342900000E9     3.898244499915413E-1    4.227216473767993E-1   -3.099468217758728E-3    3.962670079497813E-3   -2.895883743085458E-3    4.196125660702341E-3    3.921498122557259E-1    2.807722383869991E-1
 8.062177845550000E9     3.899735180596797E-1    4.226750905646526E-1   -3.083241137758422E-3    3.978979835453594E-3   -2.829408153799695E-3    4.206339967458236E-3    3.920934892854163E-1    2.808051417629993E-1
 8.062178348200000E9     3.899954967795918E-1    4.226159802995724E-1   -3.090981919491672E-3    3.986279935472813E-3   -2.859427749131258E-3    4.208725236871708E-3    3.922167202834726E-1    2.807425753900782E-1
 8.062178850850000E9     3.902427388041848E-1    4.226455311278343E-1   -3.094638638947861E-3    4.023301169550565E-3   -2.891430094855063E-3    4.240972662696914E-3    3.922505325902770E-1    2.807320146422587E-1
 8.062179353500000E9     3.903003399278065E-1    4.223603995024248E-1   -3.078555224505514E-3    4.001442975370640E-3   -2.875605710399143E-3    4.211106547632545E-3    3.920897080827119E-1    2.807466845439781E-1
 8.062179856150000E9     3.902978827283969E-1    4.223592319185595E-1   -3.104353251563264E-3    4.030526168481449E-3   -2.866947841018776E-3    4.238132664905119E-3    3.923247060825134E-1    2.806758599582989E-1
 8.062180358800000E9     3.903680031212932E-1    4.223759224910711E-1   -3.119914837298304E-3    4.054462310896344E-3   -2.886466934256247E-3    4.251303580067855E-3    3.922167403394678E-1    2.807282686180855E-1
 8.062180861450000E9     3.904860754832509E-1    4.222162035611510E-1   -3.115602157849021E-3    4.061871043635570E-3   -2.898542169073506E-3    4.275827029744979E-3    3.923467531066914E-1    2.807899322029287E-1
 8.062181364100000E9     3.905270509396990E-1    4.220599540499350E-1   -3.116424234225502E-3    4.086101862627068E-3   -2.909085652204138E-3    4.301129872119213E-3    3.921799187117385E-1    2.805814995156451E-1
 8.062181866750000E9     3.906977405416386E-1    4.221312881724547E-1   -3.121951472665542E-3    4.050947311760431E-3   -2.918963923029546E-3    4.265956607729811E-3    3.923071924922710E-1    2.805329971833022E-1
 8.062182369400000E9     3.906476689355727E-1    4.219295925664208E-1   -3.144131937100406E-3    4.116542038097836E-3   -2.927424451008130E-3    4.328747323610956E-3    3.922574964626752E-1    2.805069365121005E-1
 8.062182872050000E9     3.907782927564773E-1    4.218120975225944E-1   -3.132904257234202E-3    4.110115058837118E-3   -2.944011324774218E-3    4.355651790594730E-3    3.923167517947437E-1    2.804509845191689E-1
 8.062183374700000E9     3.909328991720617E-1    4.218210496914979E-1   -3.165301507492099E-3    4.126833215588117E-3   -2.962684079854886E-3    4.318540563007699E-3    3.923464528503856E-1    2.803190172093892E-1
 8.062183877350000E9     3.909185168005840E-1    4.217312947379561E-1   -3.174388049394891E-3    4.129145697566127E-3   -2.946954305869494E-3    4.334865364242624E-3    3.923642618215816E-1    2.803515766612059E-1
 8.062184380000000E9     3.909198480179057E-1    4.216963015935924E-1   -3.172253008214126E-3    4.169658985125340E-3   -2.915983712989425E-3    4.380243447878944E-3    3.923356875450776E-1    2.803967138379226E-1
 8.062184882650000E9     3.909780297875481E-1    4.215455983570206E-1   -3.166192447776168E-3    4.175249668563725E-3   -2.975641551129320E-3    4.394417263475050E-3    3.924356026327039E-1    2.803997940556006E-1
 8.062185385300000E9     3.911963479359332E-1    4.213087473213940E-1   -3.195232336960976E-3    4.165327581604210E-3   -2.968228012385943E-3    4.391391800341853E-3    3.924294324901908E-1    2.804383800795248E-1
 8.062185887950000E9     3.912556307656666E-1    4.213240271320655E-1   -3.198004464947841E-3    4.217242168026564E-3   -2.962839405797801E-3    4.415566993666065E-3    3.924435907304453E-1    2.804297878360185E-1
 8.062186390600000E9     3.913456410708253E-1    4.212488291965741E-1   -3.209849072596163E-3    4.190401419734012E-3   -2.958610914370060E-3    4.471539611340821E-3    3.924797227889452E-1    2.804548177986530E-1
 8.062186893250000E9     3.913368819775631E-1    4.211867755789550E-1   -3.226795845436327E-3    4.248077277080291E-3   -2.984473427701842E-3    4.442523434297147E-3    3.924495650122842E-1    2.804333290544350E-1
 8.062187395900000E9     3.915171362455281E-1    4.210632934921730E-1   -3.238736694891272E-3    4.233824796894304E-3   -2.990065981818551E-3    4.441860582032077E-3    3.925696809642341E-1    2.803188280480834E-1
 8.062187898550000E9     3.914534183892121E-1    4.209657590832637E-1   -3.210717417335890E-3    4.277078385850051E-3   -2.987537511085296E-3    4.531252068045590E-3    3.925347718794043E-1    2.802782544911479E-1
 8.062188401200000E9     3.917547627687317E-1    4.209649117640637E-1   -3.265960984007046E-3    4.280386092973493E-3   -3.002357272946257E-3    4.524765555787473E-3    3.924967000861453E-1    2.801287370614914E-1
 8.062188903850000E9     3.916395806700343E-1    4.207696745895737E-1   -3.243685236609006E-3    4.301311495676887E-3   -3.029780726226463E-3    4.512354802976654E-3    3.924625352773076E-1    2.801801429199820E-1
 8.062189406500000E9     3.917241664044427E-1    4.206746047246422E-1   -3.238969773663315E-3    4.321529683926901E-3   -3.024310535927043E-3    4.562145858393922E-3    3.926850757740283E-1    2.801956561684197E-1
 8.062189909150000E9     3.919074656909633E-1    4.206849261697805E-1   -3.274962985225993E-3    4.349087667680857E-3   -3.036934638226328E-3    4.572869285359778E-3    3.926862597224802E-1    2.801888676151331E-1
 8.062190411800000E9     3.919179475405916E-1    4.204820560459807E-1   -3.280201081191782E-3    4.352821788720520E-3   -3.031387237269389E-3    4.566581014296762E-3    3.927051379179349E-1    2.801023844796376E-1
 8.062190914450000E9     3.918771817377654E-1    4.204256493282340E-1   -3.294773384484821E-3    4.353521482829394E-3   -3.028258327149860E-3    4.617764917268411E-3    3.926954749375859E-1    2.801444079036975E-1
 8.062191417100000E9     3.921623772071209E-1    4.203952977124712E-1   -3.289697024514040E-3    4.365955273304527E-3   -3.045413784836081E-3    4.625954420218749E-3    3.926635275779088E-1    2.799339736812134E-1
 8.062191919750000E9     3.921850531595166E-1    4.202557547460334E-1   -3.286205306759602E-3    4.382180456756442E-3   -3.045612985435393E-3    4.640179173181297E-3    3.926264154404636E-1    2.801606122355168E-1
 8.062192422400000E9     3.922971595466094E-1    4.201258256924599E-1   -3.327474862569173E-3    4.444252424435930E-3   -3.086721809601137E-3    4.650576664452512E-3    3.927740864721871E-1    2.801040771149476E-1
 8.062192925050000E9     3.923302550768609E-1    4.200330203082063E-1   -3.293945707351684E-3    4.431574251353534E-3   -3.098384407910151E-3    4.672930018071246E-3    3.927120751627331E-1    2.799777037772548E-1
 8.062193427700000E9     3.924203499899376E-1    4.197642379156558E-1   -3.308610566048485E-3    4.458447307103297E-3   -3.110331139542954E-3    4.699849037519895E-3    3.927672509918073E-1    2.800313866376227E-1
 8.062193930350000E9     3.924541155192890E-1    4.198065203792678E-1   -3.336734570066195E-3    4.484420213982741E-3   -3.119766502494089E-3    4.714773107313543E-3    3.927123125730692E-1    2.799066873204283E-1
 8.062194433000000E9     3.925893233841075E-1    4.196579613006647E-1   -3.331792391833125E-3    4.495590509587948E-3   -3.078745560723489E-3    4.742515958547835E-3    3.928560583471385E-1    2.799427482066349E-1
 8.062194935650000E9     3.926974546906031E-1    4.195653115229174E-1   -3.343405380073344E-3    4.521166013969147E-3   -3.138274798616577E-3    4.722856117017418E-3    3.927710557179385E-1    2.799083037843461E-1
 8.062195438300000E9     3.926581608224290E-1    4.194121305076450E-1   -3.370222744413274E-3    4.530555260956963E-3   -3.136280250528474E-3    4.772882417636717E-3    3.927895086160076E-1    2.797534946019772E-1
 8.062195940950000E9     3.928779039314313E-1    4.193668643698294E-1   -3.383154746751640E-3    4.547322844387042E-3   -3.124542490464313E-3    4.791934863994223E-3    3.928204971880120E-1    2.798256163333011E-1
 8.062196443600000E9     3.930390243005544E-1    4.192968784648889E-1   -3.358406687707057E-3    4.591242352360862E-3   -3.156173783164336E-3    4.800958961819421E-3    3.926843323192101E-1    2.797635572497657E-1
 8.062196946250000E9     3.930666926033570E-1    4.192451346708121E-1   -3.392958822579509E-3    4.588999212460329E-3   -3.167301088956613E-3    4.822120812035920E-3    3.927882862347651E-1    2.797164999473544E-1
 8.062197448900000E9     3.929852583273737E-1    4.189424868670911E-1   -3.423760689661665E-3    4.594266207210226E-3   -3.147321773953511E-3    4.852743934408213E-3    3.930651135739376E-1    2.796650309473263E-1
 8.062197951550000E9     3.931635206068582E-1    4.188518347483868E-1   -3.408330860423325E-3    4.651867290294360E-3   -3.188153337191045E-3    4.865131821881277E-3    3.928832635671960E-1    2.796557615123988E-1
 8.062198454200000E9     3.933536824296557E-1    4.187328874031450E-1   -3.416502279067155E-3    4.647761021324691E-3   -3.203919352087825E-3    4.895298544433839E-3    3.928607691423329E-1    2.796564847156577E-1
 8.062198956850000E9     3.934597260923735E-1    4.186611238837441E-1   -3.421770947731167E-3    4.679790145772410E-3   -3.173317539497165E-3    4.930935676985256E-3    3.928784957629611E-1    2.795087716587922E-1
 8.062199459500000E9     3.934926666581812E-1    4.186270881922881E-1   -3.423137321008643E-3    4.696012489092348E-3   -3.207348992978832E-3    4.921463666630630E-3    3.929862582697742E-1    2.795812876911243E-1
 8.062199962150000E9     3.936316002219599E-1    4.184012628909635E-1   -3.446915280391326E-3    4.734542957465834E-3   -3.174900705015683E-3    4.969358005028756E-3    3.930241404668782E-1    2.794935700595102E-1
 8.062200464800000E9     3.936632997193704E-1    4.183316341318880E-1   -3.460101320717966E-3    4.756912106346111E-3   -3.214639436394749E-3    4.961350344184312E-3    3.929593587487326E-1    2.794966221263344E-1
 8.062200967450000E9     3.937348692163140E-1    4.182385989325275E-1   -3.478810301622245E-3    4.752330518873130E-3   -3.188804964646122E-3    5.010102704421836E-3    3.929628808246592E-1    2.793880856566501E-1
 8.062201470100000E9     3.939332537633169E-1    4.182003328848931E-1   -3.497500038744208E-3    4.777031420504664E-3   -3.258875303532654E-3    5.041666065260298E-3    3.930002827694483E-1    2.794848029530360E-1
 8.062201972750000E9     3.939279668417153E-1    4.179221164169666E-1   -3.498117086199513E-3    4.781196793665383E-3   -3.239717484320989E-3    5.052886609457464E-3    3.930364414175940E-1    2.794576436875908E-1
 8.062202475400000E9     3.940938044683905E-1    4.178727664340277E-1   -3.501547788019906E-3    4.823474801637987E-3   -3.280752401081417E-3    5.069821309639775E-3    3.930337863406914E-1    2.794672763107319E-1
 8.062202978050000E9     3.940727716676687E-1    4.176770939463641E-1   -3.535148135556424E-3    4.842995406364897E-3   -3.242288686812132E-3    5.106790097124221E-3    3.929303342366754E-1    2.793642024396077E-1
 8.062203480700000E9     3.942229364425001E-1    4.175950578635460E-1   -3.544811801319242E-3    4.875324149410993E-3   -3.268451200489127E-3    5.106320424995801E-3    3.929820953434984E-1    2.794602894245065E-1
 8.062203983350000E9     3.943076856906760E-1    4.175451378071850E-1   -3.559126575729387E-3    4.907841257100212E-3   -3.256845290306298E-3    5.147642631538167E-3    3.930058005193036E-1    2.792699347209710E-1
 8.062204486000000E9     3.944664377992345E-1    4.174276232243502E-1   -3.546887841057123E-3    4.956834272118849E-3   -3.297833790368188E-3    5.182974794934363E-3    3.930527893455404E-1    2.792870156344385E-1
 8.062204988650000E9     3.945293175525780E-1    4.172580369214759E-1   -3.567503702106147E-3    4.925154929191462E-3   -3.326878836590919E-3    5.188113505879144E-3    3.931041711170347E-1    2.792642850967014E-1
 8.062205491300000E9     3.946432129553221E-1    4.169929947821505E-1   -3.582220103518737E-3    4.967606334476970E-3   -3.292242512305444E-3    5.243957499751934E-3    3.930922390394171E-1    2.791450296323586E-1
 8.062205993950000E9     3.947950576249020E-1    4.170225682961833E-1   -3.606148693627616E-3    4.994566472375683E-3   -3.325769743228346E-3    5.299681043702054E-3    3.931226897443869E-1    2.792529746971704E-1
 8.062206496600000E9     3.948541495789899E-1    4.168648108370632E-1   -3.602902002818484E-3    5.004623369291751E-3   -3.344314356382680E-3    5.257092324134087E-3    3.931561666750455E-1    2.792855686921974E-1
 8.062206999250000E9     3.949690095321378E-1    4.165848580941898E-1   -3.609296399179420E-3    5.059181943168105E-3   -3.336155311958987E-3    5.304989539641123E-3    3.932288706490224E-1    2.791601881006879E-1
 8.062207501900000E9     3.950958598950212E-1    4.165637998608382E-1   -3.645274174013939E-3    5.074373028632692E-3   -3.359391786810049E-3    5.334134132878821E-3    3.933277538379422E-1    2.790983891407423E-1
 8.062208004550000E9     3.952476086049003E-1    4.164916006108341E-1   -3.659447474474496E-3    5.102136751883713E-3   -3.334499583968403E-3    5.335554565703026E-3    3.931974767632572E-1    2.790165538349604E-1
 8.062208507200000E9     3.953261058722676E-1    4.162196914218393E-1   -3.654013585874622E-3    5.139561008649396E-3   -3.380723752333165E-3    5.379392897889810E-3    3.932688739842314E-1    2.791527374794078E-1
 8.062209009850000E9     3.953487078552140E-1    4.160338299112593E-1   -3.679443904634250E-3    5.184021429900659E-3   -3.389300696523576E-3    5.429401046248687E-3    3.932344209458730E-1    2.790189931599354E-1
 8.062209512500000E9     3.955009964874879E-1    4.159148870993001E-1   -3.679395932751833E-3    5.176095628383714E-3   -3.387112380755499E-3    5.472122417533363E-3    3.932040594092505E-1    2.790163629973724E-1
 8.062210015150000E9     3.956185260607934E-1    4.157553051665629E-1   -3.711458431746039E-3    5.235696430231916E-3   -3.431010701842524E-3    5.465989914592326E-3    3.933068447074466E-1    2.789321338210073E-1
 8.062210517800000E9     3.957336123043965E-1    4.156786529408033E-1   -3.707494027105259E-3    5.229344303976737E-3   -3.437637019264719E-3    5.532994092545094E-3    3.932360218800530E-1    2.789213215445813E-1
 8.062211020450000E9     3.957349065888666E-1    4.155226879620154E-1   -3.724696569586169E-3    5.297691144396286E-3   -3.430965777138078E-3    5.567613694429869E-3    3.931927636309617E-1    2.789232793560567E-1
 8.062211523100000E9     3.959623648665972E-1    4.153954630461599E-1   -3.720610649084028E-3    5.311651805125217E-3   -3.441231712690060E-3    5.565271046247907E-3    3.933503662910452E-1    2.788666317691660E-1
 8.062212025750000E9     3.960814278646522E-1    4.152263809110719E-1   -3.739310974882797E-3    5.344438302494687E-3   -3.480142724656728E-3    5.639126759266696E-3    3.933570588688907E-1    2.789523408163812E-1
 8.062212528400000E9     3.960889622002450E-1    4.149780444317905E-1   -3.762716949691377E-3    5.356186480999022E-3   -3.506917777527158E-3    5.619379197895286E-3    3.933550553669958E-1    2.787082153135919E-1
 8.062213031050000E9     3.963149650160789E-1    4.149507042672238E-1   -3.767887808868177E-3    5.391220878259921E-3   -3.478548474262914E-3    5.658286688712582E-3    3.934552372032301E-1    2.788119483110415E-1
 8.062213533700000E9     3.963163963649874E-1    4.146206221713455E-1   -3.808484432530572E-3    5.435652448601648E-3   -3.491168071296577E-3    5.703436267149167E-3    3.933118134132598E-1    2.787130737225040E-1
 8.062214036350000E9     3.965036716234947E-1    4.145561368181007E-1   -3.784687757123262E-3    5.489511152566628E-3   -3.515319954161329E-3    5.713196301472904E-3    3.934106153774694E-1    2.787903279713719E-1
 8.062214539000000E9     3.965574670508880E-1    4.143219601017175E-1   -3.803136046009944E-3    5.509620423289164E-3   -3.521116035643003E-3    5.757889918478016E-3    3.934461878025629E-1    2.787718030537253E-1
 8.062215041650000E9     3.967357627342376E-1    4.143234846123056E-1   -3.844406041679444E-3    5.533620612518368E-3   -3.527938441338985E-3    5.816597485388868E-3    3.934877261094271E-1    2.787022448365817E-1
 8.062215544300000E9     3.968529017879969E-1    4.139981531240580E-1   -3.833880634987108E-3    5.577704366724096E-3   -3.581159984554443E-3    5.838111246339256E-3    3.934994561138628E-1    2.785915971105717E-1
 8.062216046950000E9     3.969721889102347E-1    4.137504570617955E-1   -3.867192713170349E-3    5.601868231306508E-3   -3.538691353363261E-3    5.871623985809741E-3    3.935940840515754E-1    2.785726118740941E-1
 8.062216549600000E9     3.970873150812818E-1    4.137263148004197E-1   -3.881109429955587E-3    5.646794892048178E-3   -3.583349205665483E-3    5.896270270332186E-3    3.936146353535920E-1    2.785624990134734E-1
 8.062217052250000E9     3.971544797901739E-1    4.135092072560073E-1   -3.896086133648392E-3    5.677502532204768E-3   -3.574694686670456E-3    5.962581184681107E-3    3.934197638668767E-1    2.785222316438805E-1
 8.062217554900000E9     3.973137452893635E-1    4.133680230542869E-1   -3.906493738531262E-3    5.710851448582795E-3   -3.610086265116227E-3    6.011136988290924E-3    3.935534913789289E-1    2.784490211609887E-1
 8.062218057550000E9     3.975119184292118E-1    4.131306150123297E-1   -3.918357365704396E-3    5.708568287257969E-3   -3.657757397466287E-3    6.027628088315608E-3    3.936455807948621E-1    2.786394753854043E-1
 8.062218560200000E9     3.975057332646643E-1    4.129619140968261E-1   -3.945016433207601E-3    5.802090308710619E-3   -3.633715256930838E-3    6.062819219231191E-3    3.936064358860480E-1    2.784036570203720E-1
 8.062219062850000E9     3.976563175180161E-1    4.127315970290560E-1   -3.967836068060576E-3    5.839231976912287E-3   -3.603117807104897E-3    6.101608396450132E-3    3.935536016442889E-1    2.783215997919993E-1
 8.062219565500000E9     3.977806083215691E-1    4.125259656016788E-1   -3.959362286223201E-3    5.879051376830660E-3   -3.640859484637898E-3    6.160408649571257E-3    3.936070201611069E-1    2.783223691531176E-1
