#  HZ   S   RI   R     50.00 
! Rohde & Schwarz Vector Network Analyzer 
! Rohde-Schwarz,ZNB20-2Port,1311601062101988,3.16
! Created: UTC 3/20/2024, 11:02:48 PM
! freq[Hz]                re:S11                  im:S11                  re:S21                  im:S21                  re:S12                  im:S12                  re:S22                  im:S22
 8.061815604000000E9     3.648805650794654E-1    4.454723077836558E-1   -2.088131923946249E-3    2.361110281658274E-3   -1.977817651499563E-3    2.538075056057316E-3    3.882237568627481E-1    2.958259688143491E-1
 8.061816961775000E9     3.649994039649196E-1    4.453910767031629E-1   -2.093504356299010E-3    2.376292779872485E-3   -1.953945420131964E-3    2.523894887088282E-3    3.883323150477029E-1    2.958692217067440E-1
 8.061818319550000E9     3.651722465640289E-1    4.453057523342521E-1   -2.097569825000839E-3    2.382378161775737E-3   -1.953807313028748E-3    2.539204641949601E-3    3.882309716448834E-1    2.958903163127031E-1
 8.061819677325000E9     3.652848978394990E-1    4.452108240681527E-1   -2.103766417253719E-3    2.394745512204238E-3   -1.957000392822555E-3    2.542745391893311E-3    3.883187227106037E-1    2.958872149310716E-1
 8.061821035100000E9     3.653715866719371E-1    4.451961352981709E-1   -2.080242044002248E-3    2.424429784016091E-3   -1.916492251494333E-3    2.517446184478215E-3    3.884303092474817E-1    2.957884324560900E-1
 8.061822392875000E9     3.655233385035779E-1    4.449592783924992E-1   -2.078256801034780E-3    2.387907038525546E-3   -1.978114223801620E-3    2.538257936533976E-3    3.883951707065710E-1    2.957422056961721E-1
 8.061823750650000E9     3.655238681626711E-1    4.449575047819438E-1   -2.108889338925066E-3    2.412350959679183E-3   -1.991777447980394E-3    2.567247566217616E-3    3.885019949640829E-1    2.956912956785077E-1
 8.061825108425000E9     3.656842743279524E-1    4.448870002484211E-1   -2.102132348721841E-3    2.394150477366828E-3   -2.028266747013396E-3    2.579284846818739E-3    3.884479288908678E-1    2.955133959221101E-1
 8.061826466200000E9     3.657455119973584E-1    4.448275727326338E-1   -2.082654994590405E-3    2.412335608428678E-3   -1.966114146958768E-3    2.536702797647394E-3    3.887037036939610E-1    2.953931995530552E-1
 8.061827823975000E9     3.657084048185654E-1    4.447954327382068E-1   -2.105300141537926E-3    2.404512233341115E-3   -1.985495591781273E-3    2.546389022929301E-3    3.886946842980747E-1    2.953634804052278E-1
 8.061829181750000E9     3.659095533938630E-1    4.446091367988533E-1   -2.114487258042386E-3    2.412351466987767E-3   -1.955377453028013E-3    2.572918952075156E-3    3.887811057040912E-1    2.952582830047367E-1
 8.061830539525000E9     3.659141774015739E-1    4.445892728256655E-1   -2.105945186269596E-3    2.426010015556207E-3   -1.961083618094469E-3    2.581589521799614E-3    3.888146670595524E-1    2.952728417870612E-1
 8.061831897300000E9     3.662414378289085E-1    4.445195110485090E-1   -2.126426994404271E-3    2.435408134677390E-3   -1.971597369788727E-3    2.568420831097800E-3    3.888292641040238E-1    2.953058318727782E-1
 8.061833255075000E9     3.663033139196211E-1    4.443473543721733E-1   -2.115605020211804E-3    2.447642008508096E-3   -1.989126433435229E-3    2.596509183508698E-3    3.888590571282899E-1    2.952228656517706E-1
 8.061834612850000E9     3.663680238084458E-1    4.442302858385808E-1   -2.142476071706131E-3    2.438966903022383E-3   -1.964584774596875E-3    2.591621740869595E-3    3.889300623247889E-1    2.950729905707108E-1
 8.061835970625000E9     3.663713382724824E-1    4.443297241637688E-1   -2.111522037801057E-3    2.454081801597101E-3   -2.001397975857618E-3    2.613389973480231E-3    3.889656759054518E-1    2.950358579423863E-1
 8.061837328400000E9     3.664731418819645E-1    4.441052871518491E-1   -2.122167191523285E-3    2.439676701717491E-3   -2.021095583849129E-3    2.603502363772261E-3    3.890299547947370E-1    2.950818457585194E-1
 8.061838686175000E9     3.665969355962880E-1    4.441826749144648E-1   -2.118375454782707E-3    2.457274914774237E-3   -1.983755161038980E-3    2.624971156164486E-3    3.889404542780106E-1    2.950636572563188E-1
 8.061840043950000E9     3.666861360123188E-1    4.439969117865943E-1   -2.137702781064679E-3    2.449163041583326E-3   -1.987962276803866E-3    2.607633479213637E-3    3.890959307559773E-1    2.948384440238302E-1
 8.061841401725000E9     3.667368142367418E-1    4.439598013111257E-1   -2.135043449307922E-3    2.451057266640685E-3   -1.992753388924564E-3    2.641491713995083E-3    3.891563228950559E-1    2.946749171290158E-1
 8.061842759500000E9     3.668516048272056E-1    4.437367980832871E-1   -2.143207491296941E-3    2.458588759302132E-3   -2.006829645019965E-3    2.621648776805246E-3    3.892380317028303E-1    2.947412081547538E-1
 8.061844117275000E9     3.669950760807085E-1    4.437091342515581E-1   -2.152580866266968E-3    2.477065762261277E-3   -2.027021127534185E-3    2.623403199698992E-3    3.893265196016398E-1    2.945121539983533E-1
 8.061845475050000E9     3.669452721033402E-1    4.435334805055124E-1   -2.113468150513362E-3    2.478832826325839E-3   -1.983059376864433E-3    2.649281338645066E-3    3.892228224101983E-1    2.945118181587411E-1
 8.061846832825000E9     3.672158825650295E-1    4.436393666480850E-1   -2.139797327394388E-3    2.518596721370385E-3   -2.039323004264562E-3    2.659105682382659E-3    3.892380514854559E-1    2.944912102243540E-1
 8.061848190600000E9     3.673085342271749E-1    4.434330923763635E-1   -2.146836467796733E-3    2.517085400348747E-3   -2.022134370568756E-3    2.670716269118140E-3    3.893843926284757E-1    2.944043811085105E-1
 8.061849548375000E9     3.673270708475092E-1    4.432894279768391E-1   -2.148980431426778E-3    2.527588197775194E-3   -2.012124871523417E-3    2.659817152333769E-3    3.893466379492881E-1    2.943481518340681E-1
 8.061850906150000E9     3.675222954521000E-1    4.433074504003777E-1   -2.135269853751607E-3    2.504170377639712E-3   -2.018539858336725E-3    2.712013325314367E-3    3.894713576246013E-1    2.943556653516371E-1
 8.061852263925000E9     3.675685581004391E-1    4.431721661318563E-1   -2.139611266548702E-3    2.532342501494920E-3   -2.028787213723101E-3    2.653503072032853E-3    3.895813015796624E-1    2.942122132729518E-1
 8.061853621700000E9     3.676769007198590E-1    4.431379189466393E-1   -2.141247141903523E-3    2.529380090563469E-3   -2.040669770718455E-3    2.656065282896446E-3    3.895647371615821E-1    2.941276462698643E-1
 8.061854979475000E9     3.677117811925601E-1    4.429927324062001E-1   -2.160541769206901E-3    2.521934911257062E-3   -2.028961189474228E-3    2.673402643587612E-3    3.897096417163383E-1    2.940478594447833E-1
 8.061856337250000E9     3.678625138864710E-1    4.429270228280622E-1   -2.168937760807711E-3    2.547191324724942E-3   -2.050219115533061E-3    2.705979520957050E-3    3.895887068203725E-1    2.939772503680664E-1
 8.061857695025000E9     3.679977012918788E-1    4.428481670937972E-1   -2.178043524745570E-3    2.532024013026326E-3   -2.036512102908670E-3    2.703148891926866E-3    3.898452731057550E-1    2.939790045651947E-1
 8.061859052800000E9     3.680370521350664E-1    4.428598839913119E-1   -2.180552371162703E-3    2.545378771273244E-3   -2.024994459937197E-3    2.703459441374219E-3    3.897165206246828E-1    2.938255389312645E-1
 8.061860410575000E9     3.680473937014262E-1    4.426420859120984E-1   -2.161733431340165E-3    2.563734366544635E-3   -2.035129657987548E-3    2.722097122378192E-3    3.898525751832898E-1    2.938459503744973E-1
 8.061861768350000E9     3.681969381314400E-1    4.426794225502499E-1   -2.182435392166834E-3    2.578492138546829E-3   -2.053616765078072E-3    2.726314777674493E-3    3.898264351339955E-1    2.938683581079243E-1
 8.061863126125000E9     3.683043858291069E-1    4.423996429928178E-1   -2.180637408634383E-3    2.572562562183772E-3   -2.045657115150230E-3    2.767436252773348E-3    3.900034355257587E-1    2.936200200186045E-1
 8.061864483900000E9     3.685697196853486E-1    4.422803650021978E-1   -2.180475817835893E-3    2.581875651068944E-3   -2.066531859852871E-3    2.686865176150745E-3    3.899241584411531E-1    2.936048661263618E-1
 8.061865841675000E9     3.685027913372468E-1    4.423438779268183E-1   -2.199582301486841E-3    2.583850870565087E-3   -2.072001865382425E-3    2.748922583407680E-3    3.899219327583424E-1    2.935457257063286E-1
 8.061867199450000E9     3.687504489895467E-1    4.421725807661970E-1   -2.218748041507882E-3    2.582620599267676E-3   -2.107587411963388E-3    2.749588342283225E-3    3.902105617438925E-1    2.934909580411625E-1
 8.061868557225000E9     3.687950643430948E-1    4.420940200442597E-1   -2.200611822117709E-3    2.628909351274175E-3   -2.067703249622999E-3    2.741042339084957E-3    3.900680805836643E-1    2.933962330535097E-1
 8.061869915000000E9     3.689723574772864E-1    4.421034152413454E-1   -2.218484787763034E-3    2.609778297556941E-3   -2.108408977637248E-3    2.779621042966943E-3    3.901905982361850E-1    2.933966283416099E-1
 8.061871272775000E9     3.688950805409358E-1    4.419909113337366E-1   -2.214232888019238E-3    2.617546825538578E-3   -2.080029791872468E-3    2.770286787126234E-3    3.901850591101029E-1    2.933036855540664E-1
 8.061872630550000E9     3.689923781805952E-1    4.419471311138950E-1   -2.231611329690742E-3    2.608992371371934E-3   -2.076582431522811E-3    2.765687011502739E-3    3.902357725774706E-1    2.930915541516423E-1
 8.061873988325000E9     3.691764500582098E-1    4.417642646456130E-1   -2.214728747498048E-3    2.622388351926708E-3   -2.068355507238586E-3    2.757923246312624E-3    3.902555734446653E-1    2.930802129350708E-1
 8.061875346100000E9     3.691797989187653E-1    4.417431724913375E-1   -2.220915365876259E-3    2.634708501597478E-3   -2.092401790994001E-3    2.748309554298824E-3    3.903413595655700E-1    2.930704340150186E-1
 8.061876703875000E9     3.693215978642647E-1    4.416659318351108E-1   -2.221932987410273E-3    2.670088010295054E-3   -2.070793154116218E-3    2.800890301615393E-3    3.903165283836900E-1    2.929121028177191E-1
 8.061878061650000E9     3.693810238478819E-1    4.413984541621586E-1   -2.213387036458753E-3    2.661697430295173E-3   -2.071282326161169E-3    2.814684068997342E-3    3.905123542567120E-1    2.930548727466634E-1
 8.061879419425000E9     3.695264885166985E-1    4.414550029381882E-1   -2.220096785191267E-3    2.673874117878665E-3   -2.079939900142040E-3    2.837501167954634E-3    3.905754765798176E-1    2.928131660502701E-1
 8.061880777200000E9     3.697280655769941E-1    4.413811067330861E-1   -2.240608837722302E-3    2.678527337019262E-3   -2.078379507793780E-3    2.826408398303959E-3    3.905102967415947E-1    2.927266891913731E-1
 8.061882134975000E9     3.697047946969462E-1    4.411692044055821E-1   -2.247875186587889E-3    2.674595291431533E-3   -2.105721265827901E-3    2.830862541398886E-3    3.906057766632002E-1    2.927623321296156E-1
 8.061883492750000E9     3.698492112784199E-1    4.410712880062302E-1   -2.244603437473675E-3    2.692439228738367E-3   -2.118682712540464E-3    2.856650145304359E-3    3.906706860719542E-1    2.925833383842795E-1
 8.061884850525000E9     3.699486939025292E-1    4.409532992870872E-1   -2.244046044353129E-3    2.693293376669192E-3   -2.142812828404955E-3    2.835294733064474E-3    3.906767578757532E-1    2.925332721727350E-1
 8.061886208300000E9     3.700872996795225E-1    4.409281083965104E-1   -2.245758381792857E-3    2.707019048172225E-3   -2.114745739209781E-3    2.852918500704120E-3    3.907799282128128E-1    2.924921075797693E-1
 8.061887566075000E9     3.702207923370855E-1    4.407688252614709E-1   -2.261495459763067E-3    2.736406197989759E-3   -2.105578411850707E-3    2.879631279753028E-3    3.907695969449572E-1    2.924778236334425E-1
 8.061888923850000E9     3.702178085976978E-1    4.407797912755965E-1   -2.252156946864078E-3    2.740356832818562E-3   -2.068178826193697E-3    2.869755960610882E-3    3.908950011625464E-1    2.924002048795649E-1
 8.061890281625000E9     3.702838471295374E-1    4.406857499181550E-1   -2.269440605850164E-3    2.736283877287106E-3   -2.108465948416233E-3    2.896543937330103E-3    3.909073344883323E-1    2.923341001616546E-1
 8.061891639400000E9     3.704723610801544E-1    4.404602886364622E-1   -2.273688613841391E-3    2.742544438695855E-3   -2.119720814947996E-3    2.896986399844732E-3    3.908915902684404E-1    2.922627459164561E-1
 8.061892997175000E9     3.705452654730209E-1    4.404527327552938E-1   -2.281567356541885E-3    2.754876705178989E-3   -2.111023679852843E-3    2.902393277708419E-3    3.908323803967136E-1    2.921263795464172E-1
 8.061894354950000E9     3.705472398259632E-1    4.404249574719473E-1   -2.278432279398665E-3    2.753496056739340E-3   -2.131829387484554E-3    2.924263279307935E-3    3.911201378182210E-1    2.921867514826839E-1
 8.061895712725000E9     3.706636525397072E-1    4.401805209839928E-1   -2.260662160090663E-3    2.768210580264335E-3   -2.114870576186593E-3    2.925384630675292E-3    3.909989806406327E-1    2.919724236641323E-1
 8.061897070500000E9     3.708529239029512E-1    4.401588405810972E-1   -2.276863741589025E-3    2.776835037621010E-3   -2.149438805067891E-3    2.913502289547161E-3    3.911188712406631E-1    2.920638628122528E-1
 8.061898428275000E9     3.710076173033448E-1    4.399875076156108E-1   -2.278380883437154E-3    2.774440121405559E-3   -2.144122991974007E-3    2.916684087513674E-3    3.911087734205300E-1    2.919336854743763E-1
 8.061899786050000E9     3.711613646825083E-1    4.400130945401153E-1   -2.306865065041007E-3    2.809331939624393E-3   -2.157117031140741E-3    2.997202596680572E-3    3.912403852752399E-1    2.919563202286706E-1
 8.061901143825000E9     3.711738715498341E-1    4.398430160450846E-1   -2.293194423957141E-3    2.817970487340443E-3   -2.163430386657512E-3    2.963404363358944E-3    3.912421669942429E-1    2.918677494744057E-1
 8.061902501600000E9     3.712106271182882E-1    4.396841017654020E-1   -2.316676280099801E-3    2.848748173413449E-3   -2.159969017949774E-3    3.013348634369004E-3    3.913117552990273E-1    2.917469361488703E-1
 8.061903859375000E9     3.713976691363386E-1    4.397253416690894E-1   -2.295138930678361E-3    2.830631651535676E-3   -2.206759929846050E-3    2.994121049649466E-3    3.914987614093199E-1    2.915235544398657E-1
 8.061905217150000E9     3.715434298421607E-1    4.394317247504985E-1   -2.307513152378502E-3    2.836834955889705E-3   -2.219324116978401E-3    2.986431147414197E-3    3.914995628477810E-1    2.915414788986376E-1
 8.061906574925000E9     3.717613948030358E-1    4.394201516788543E-1   -2.309392558546682E-3    2.845260351938953E-3   -2.175438280141158E-3    3.020909971106627E-3    3.913858092223748E-1    2.915188366387200E-1
 8.061907932700000E9     3.716496893736780E-1    4.392272688888808E-1   -2.335244715716267E-3    2.841758202287363E-3   -2.179931571770883E-3    2.991293361603877E-3    3.915332814739615E-1    2.915609158653617E-1
 8.061909290475000E9     3.717439630031560E-1    4.391959864064324E-1   -2.347858375055515E-3    2.858035934616550E-3   -2.180009251318669E-3    3.016181605043831E-3    3.915776084147487E-1    2.914730607187888E-1
 8.061910648250000E9     3.719229338566502E-1    4.392225000255024E-1   -2.331992897536639E-3    2.887329180076110E-3   -2.208662958967760E-3    3.049820994119400E-3    3.916338331090577E-1    2.912789389926883E-1
 8.061912006025000E9     3.719443242582754E-1    4.388999952818012E-1   -2.333433174622055E-3    2.898996914961420E-3   -2.172069202552744E-3    3.063471720887914E-3    3.916391610579845E-1    2.911277560257740E-1
 8.061913363800000E9     3.721636456340095E-1    4.388611750372116E-1   -2.332253810746073E-3    2.898654628038328E-3   -2.182084001689896E-3    3.046254035546257E-3    3.918541022391384E-1    2.911502702310332E-1
 8.061914721575000E9     3.722600572695954E-1    4.388373428313612E-1   -2.332830945169648E-3    2.916093602817950E-3   -2.226532346714879E-3    3.105690333307421E-3    3.918038958368068E-1    2.911289065971426E-1
 8.061916079350000E9     3.723598419554775E-1    4.385910921012787E-1   -2.360185686300102E-3    2.920642925738746E-3   -2.207749175832082E-3    3.071850193268672E-3    3.919029437463126E-1    2.909659433733796E-1
 8.061917437125000E9     3.724539311359678E-1    4.386018844115822E-1   -2.370420823216878E-3    2.954850116765178E-3   -2.191085924937944E-3    3.110497562333964E-3    3.918599980925906E-1    2.908758185472047E-1
 8.061918794900000E9     3.725397939474176E-1    4.384515401965903E-1   -2.362759336422546E-3    2.945498079397085E-3   -2.185057817762390E-3    3.116418842038933E-3    3.919916780497269E-1    2.909338389094756E-1
 8.061920152675000E9     3.725992766498683E-1    4.384039594981710E-1   -2.360454821975785E-3    2.949609707689978E-3   -2.228110293296549E-3    3.122110537248347E-3    3.919769138733457E-1    2.907739996703393E-1
 8.061921510450000E9     3.727023516015147E-1    4.381576255498195E-1   -2.362456760004341E-3    2.980188432144058E-3   -2.218542420086826E-3    3.186988082292961E-3    3.919755135234848E-1    2.907258334404613E-1
 8.061922868225000E9     3.729176121317755E-1    4.381027020148352E-1   -2.375040446076885E-3    2.992150890090067E-3   -2.194464809439009E-3    3.144193840304892E-3    3.921453932601400E-1    2.907858815918053E-1
 8.061924226000000E9     3.730794573604067E-1    4.379968272100901E-1   -2.390823632981114E-3    3.027324229385488E-3   -2.254838657856042E-3    3.163445896603753E-3    3.920582598917487E-1    2.905535578162741E-1
 8.061925583775000E9     3.731701352344438E-1    4.379414991459250E-1   -2.357290986870650E-3    3.045906933712623E-3   -2.246014879552166E-3    3.233777905000299E-3    3.921474130282672E-1    2.906349026215898E-1
 8.061926941550000E9     3.732267279633765E-1    4.377316936760094E-1   -2.409434942991604E-3    3.034807389216704E-3   -2.236042533783703E-3    3.192875870119303E-3    3.920415097204997E-1    2.903766936719811E-1
 8.061928299325000E9     3.733087487137382E-1    4.376657034761464E-1   -2.388986140427051E-3    3.035768305460491E-3   -2.225702926996731E-3    3.196197989207836E-3    3.922101466677934E-1    2.903921637803161E-1
 8.061929657100000E9     3.733561580039444E-1    4.375950446526217E-1   -2.397005576355566E-3    3.078484542287246E-3   -2.240761507247413E-3    3.221636338416809E-3    3.921506785197112E-1    2.902643367389549E-1
 8.061931014875000E9     3.734790819172952E-1    4.373835556800956E-1   -2.421735398196006E-3    3.066510464678048E-3   -2.273898141495250E-3    3.225371825153170E-3    3.923653812354126E-1    2.902224264176649E-1
 8.061932372650000E9     3.735908960516577E-1    4.372196333267880E-1   -2.419421795366518E-3    3.098729397905896E-3   -2.267893624651209E-3    3.226295755027927E-3    3.922151591522539E-1    2.901852267572450E-1
 8.061933730425000E9     3.737816439480408E-1    4.371545224837591E-1   -2.429027451446678E-3    3.114423080704791E-3   -2.265373275056429E-3    3.275821957831166E-3    3.924410401175715E-1    2.901116049171550E-1
 8.061935088200000E9     3.738310745618666E-1    4.370273959209819E-1   -2.416842528442834E-3    3.116452156929298E-3   -2.222418691862985E-3    3.269218922160549E-3    3.924035861745236E-1    2.900603704752075E-1
 8.061936445975000E9     3.740116158240413E-1    4.368334919477941E-1   -2.445892913280795E-3    3.118425095133376E-3   -2.279354441716193E-3    3.316185104386778E-3    3.924236037090847E-1    2.898306066039783E-1
 8.061937803750000E9     3.741117648034100E-1    4.367010252187253E-1   -2.441749759905055E-3    3.144197457416694E-3   -2.305948627326993E-3    3.318429662565014E-3    3.924674948057152E-1    2.898146745760561E-1
