#  HZ   S   RI   R     50.00 
! Rohde & Schwarz Vector Network Analyzer 
! Rohde-Schwarz,ZNB20-2Port,1311601062101988,3.16
! Created: UTC 3/20/2024, 10:53:04 PM
! freq[Hz]                re:S11                  im:S11                  re:S21                  im:S21                  re:S12                  im:S12                  re:S22                  im:S22
 8.062177684000000E9     3.897118314351514E-1    4.230521745653048E-1   -3.034250961494817E-3    3.918384685159916E-3   -2.836149033931853E-3    4.120899586371099E-3    3.921037216892850E-1    2.808008664059533E-1
 8.062178181125000E9     3.899387025446173E-1    4.229565901134298E-1   -3.069811084404326E-3    3.919883037464502E-3   -2.858754934891282E-3    4.173097455723262E-3    3.921643858299255E-1    2.807770833629739E-1
 8.062178678250000E9     3.898781148247999E-1    4.227318435267577E-1   -3.047028235669552E-3    3.969192516726812E-3   -2.882084301470193E-3    4.167971581635821E-3    3.922577302762272E-1    2.807200063356439E-1
 8.062179175375000E9     3.899609705408997E-1    4.226663470775793E-1   -3.067768562474235E-3    3.965266178138702E-3   -2.812180511651205E-3    4.169647211916809E-3    3.921263239078631E-1    2.807954450642636E-1
 8.062179672500000E9     3.900172096856402E-1    4.226628302260353E-1   -3.086761620941707E-3    3.952521831781970E-3   -2.862418002199081E-3    4.195852587877161E-3    3.923170068086857E-1    2.806187097192237E-1
 8.062180169625000E9     3.901645837327760E-1    4.226134521570876E-1   -3.095519126975037E-3    3.982075288380206E-3   -2.863414317747141E-3    4.246067034888101E-3    3.922292997626178E-1    2.806680920317318E-1
 8.062180666750000E9     3.901997628038299E-1    4.223955205159742E-1   -3.112563053089577E-3    4.005333447600240E-3   -2.893500309238490E-3    4.214942156114798E-3    3.922479354919421E-1    2.805638261745468E-1
 8.062181163875000E9     3.902733249285165E-1    4.223848359712873E-1   -3.094694983869757E-3    4.013921168600472E-3   -2.901564060769957E-3    4.203672063532177E-3    3.923174404963821E-1    2.805675602194085E-1
 8.062181661000000E9     3.903672631768526E-1    4.222279600239427E-1   -3.092491633676414E-3    4.009427169831986E-3   -2.843074039399814E-3    4.234975068889910E-3    3.923388046741143E-1    2.806148977656288E-1
 8.062182158125000E9     3.904299321683838E-1    4.222235474948249E-1   -3.091665090200996E-3    4.039245343288896E-3   -2.894689905626754E-3    4.279874896503109E-3    3.923711342520358E-1    2.805936813620291E-1
 8.062182655250000E9     3.904605393901736E-1    4.221405966601130E-1   -3.102804561879502E-3    4.039174692360431E-3   -2.868801345399160E-3    4.279680246939105E-3    3.923769790316863E-1    2.805613323986335E-1
 8.062183152375000E9     3.906014791111462E-1    4.219028394260239E-1   -3.112827829006970E-3    4.073898218836863E-3   -2.933766997110942E-3    4.316706022001945E-3    3.922877247600516E-1    2.805791796678400E-1
 8.062183649500000E9     3.907645784443129E-1    4.220052769152405E-1   -3.134156673396222E-3    4.094717808581837E-3   -2.917541939411062E-3    4.298234721589704E-3    3.922969186538854E-1    2.804403203908860E-1
 8.062184146625000E9     3.907626600706666E-1    4.219645187374151E-1   -3.139098427475212E-3    4.068259080443916E-3   -2.901120179002928E-3    4.322273992267043E-3    3.924087888807022E-1    2.803799487462110E-1
 8.062184643750000E9     3.908291795470744E-1    4.218589805526723E-1   -3.152909970541608E-3    4.124204366664721E-3   -2.912972796413855E-3    4.338630751212832E-3    3.923968258788207E-1    2.803303059775253E-1
 8.062185140875000E9     3.908378164083264E-1    4.217535909459105E-1   -3.149612936776610E-3    4.126741628885509E-3   -2.954208657898649E-3    4.368164001393663E-3    3.924277952442313E-1    2.803419094836795E-1
 8.062185638000000E9     3.910049948011325E-1    4.216769972309075E-1   -3.180174404620761E-3    4.127105265927391E-3   -2.953954251743603E-3    4.365675414702917E-3    3.924370634784601E-1    2.804982996100414E-1
 8.062186135125000E9     3.911628476055987E-1    4.215022056862329E-1   -3.159957456177410E-3    4.149738811073183E-3   -2.930193007688610E-3    4.360900783443506E-3    3.925322893124248E-1    2.803862849154721E-1
 8.062186632250000E9     3.911599488423206E-1    4.214702891639165E-1   -3.177074245583974E-3    4.154836429600932E-3   -2.971562287816748E-3    4.403448195670003E-3    3.924603266772080E-1    2.803214398674960E-1
 8.062187129375000E9     3.912489601528141E-1    4.212822602239341E-1   -3.176049259462490E-3    4.174468975936668E-3   -2.946373565242578E-3    4.414204038644047E-3    3.924727699111520E-1    2.801710665251965E-1
 8.062187626500000E9     3.913321752110533E-1    4.213426134733513E-1   -3.195762406527487E-3    4.193938160023250E-3   -2.993930021858693E-3    4.421914443250876E-3    3.924328776672255E-1    2.801698884838955E-1
 8.062188123625000E9     3.914482209105800E-1    4.211026620912638E-1   -3.200269254299123E-3    4.196922687482282E-3   -2.958983981283543E-3    4.443688866929739E-3    3.926094943169960E-1    2.803397915680786E-1
 8.062188620750000E9     3.915010411283912E-1    4.211590615373769E-1   -3.228914133955527E-3    4.249560310064698E-3   -3.003163999437773E-3    4.433848951760066E-3    3.926463722775118E-1    2.802450514546286E-1
 8.062189117875000E9     3.915906883432683E-1    4.211084154264904E-1   -3.204291088696536E-3    4.252750104659044E-3   -3.018035843687502E-3    4.470400761829992E-3    3.926133772672551E-1    2.801795826403604E-1
 8.062189615000000E9     3.917263665266747E-1    4.208952835524827E-1   -3.240053131837214E-3    4.239825760518761E-3   -3.029339359422474E-3    4.491009357890870E-3    3.924848908360958E-1    2.801317298536379E-1
 8.062190112125000E9     3.917584912519906E-1    4.209087143456726E-1   -3.266226103757089E-3    4.275559692615937E-3   -3.012365735837661E-3    4.546161045351473E-3    3.925083205548427E-1    2.802426415230277E-1
 8.062190609250000E9     3.917964702241579E-1    4.207873163495391E-1   -3.239402573023663E-3    4.290469792721525E-3   -3.029250869084903E-3    4.553027317862507E-3    3.925714168671954E-1    2.801118882360073E-1
 8.062191106375000E9     3.918827609927802E-1    4.206675770693286E-1   -3.255058889590996E-3    4.319046926830280E-3   -3.022612299662420E-3    4.534774288918435E-3    3.927799707972613E-1    2.800394671273038E-1
 8.062191603500000E9     3.918769725813064E-1    4.205754627367796E-1   -3.252539485682705E-3    4.332027564826776E-3   -3.039658904502010E-3    4.561909757543989E-3    3.925910112106034E-1    2.800991558180304E-1
 8.062192100625000E9     3.920784430947652E-1    4.203957574148499E-1   -3.258938233709392E-3    4.319105030174304E-3   -3.006309752132626E-3    4.565435063331951E-3    3.925346004889313E-1    2.799062966410122E-1
 8.062192597750000E9     3.921327289767702E-1    4.202239821102005E-1   -3.275944788633885E-3    4.350020833417574E-3   -3.058423177681424E-3    4.580760747853045E-3    3.927079139504693E-1    2.799244328364953E-1
 8.062193094875000E9     3.922176484865865E-1    4.201981488830678E-1   -3.289196308149943E-3    4.395255982386938E-3   -3.054175271971741E-3    4.600213997597523E-3    3.927611781633136E-1    2.800341775571526E-1
 8.062193592000000E9     3.923499657304192E-1    4.202124272875212E-1   -3.300193009476461E-3    4.401597040403400E-3   -3.070339467691576E-3    4.628944890977212E-3    3.927907073245467E-1    2.799434604042049E-1
 8.062194089125000E9     3.922980182664772E-1    4.199671337315941E-1   -3.294002115733939E-3    4.431060996247693E-3   -3.033037508570447E-3    4.649974858014998E-3    3.926413708130351E-1    2.799774414905833E-1
 8.062194586250000E9     3.924524670154641E-1    4.200094871356327E-1   -3.282678890893875E-3    4.438710313260253E-3   -3.080635085542988E-3    4.691062562024149E-3    3.927687244347419E-1    2.799515237187253E-1
 8.062195083375000E9     3.924964477068181E-1    4.198522459225315E-1   -3.345548319952468E-3    4.450253256529503E-3   -3.094045395774391E-3    4.698902546161230E-3    3.927802944417545E-1    2.798305225567398E-1
 8.062195580500000E9     3.927256228128990E-1    4.197225990343239E-1   -3.316462725815925E-3    4.453110250239481E-3   -3.101849643869743E-3    4.693242404126192E-3    3.928840662383574E-1    2.798439623467567E-1
 8.062196077625000E9     3.926294080254613E-1    4.195411125183267E-1   -3.360438123648076E-3    4.494521999910722E-3   -3.083487320121675E-3    4.729493819641262E-3    3.927047060891161E-1    2.797455668906643E-1
 8.062196574750000E9     3.927971199714961E-1    4.195398515137592E-1   -3.329492459002292E-3    4.497199666423837E-3   -3.126799891671014E-3    4.767771313658652E-3    3.927484755916150E-1    2.798386718721320E-1
 8.062197071875000E9     3.929009819586637E-1    4.193819808106614E-1   -3.338822358532056E-3    4.543562132212429E-3   -3.111483484410579E-3    4.756703122443900E-3    3.927998296853806E-1    2.795880278346098E-1
 8.062197569000000E9     3.930597690313280E-1    4.194604828481620E-1   -3.372092886360065E-3    4.532436453883032E-3   -3.128173461925671E-3    4.778586330449060E-3    3.927455881767813E-1    2.797042458167954E-1
 8.062198066125000E9     3.929446785408901E-1    4.192169397614387E-1   -3.376654077555160E-3    4.538242584336635E-3   -3.125566869697073E-3    4.804080491819833E-3    3.928600406888715E-1    2.797205685188498E-1
 8.062198563250000E9     3.931203350387944E-1    4.191252580594094E-1   -3.378575050299034E-3    4.586044625087645E-3   -3.145051260777900E-3    4.845257365848341E-3    3.928104838749076E-1    2.795463944226658E-1
 8.062199060375000E9     3.931790764511363E-1    4.188401874105437E-1   -3.378332084365003E-3    4.607020161574713E-3   -3.185951988749167E-3    4.826720486348960E-3    3.928996402132602E-1    2.795537853187762E-1
 8.062199557500000E9     3.933692672532716E-1    4.187606714492491E-1   -3.405727675362772E-3    4.616524145639448E-3   -3.137848578237025E-3    4.853179700358442E-3    3.929994416837370E-1    2.794574239863529E-1
 8.062200054625000E9     3.934608595451307E-1    4.188403548762303E-1   -3.423712333789292E-3    4.652565020764441E-3   -3.162969780344453E-3    4.891597035488642E-3    3.928962780327531E-1    2.795979634851573E-1
 8.062200551750000E9     3.935227714437258E-1    4.186433183877420E-1   -3.436751011450091E-3    4.665623565303363E-3   -3.199042708204284E-3    4.882651987854122E-3    3.928536892150298E-1    2.794467899005033E-1
 8.062201048875000E9     3.936652729256349E-1    4.185131836132657E-1   -3.449020714418767E-3    4.689034244254303E-3   -3.202846505889355E-3    4.937583253919436E-3    3.929125917927391E-1    2.795813500577280E-1
 8.062201546000000E9     3.936861640986424E-1    4.184255285184349E-1   -3.453786459663655E-3    4.719452168669222E-3   -3.217144481467799E-3    4.953712080054057E-3    3.931309810515784E-1    2.794409205480125E-1
 8.062202043125000E9     3.937433875623218E-1    4.183587003629655E-1   -3.450548213343692E-3    4.735946611176365E-3   -3.221529640709625E-3    4.984502978659305E-3    3.928980175667927E-1    2.793539221317246E-1
 8.062202540250000E9     3.938009061270307E-1    4.182249399927093E-1   -3.470521281941880E-3    4.753342133560833E-3   -3.205244451988676E-3    5.002546839000009E-3    3.929567239880424E-1    2.793647195849994E-1
 8.062203037375000E9     3.939713472643627E-1    4.179939641348395E-1   -3.491333432283610E-3    4.789666691822687E-3   -3.238339097431498E-3    5.059297787729702E-3    3.931548900027105E-1    2.794036149028850E-1
 8.062203534500000E9     3.940408254636300E-1    4.179746248727164E-1   -3.511333256148697E-3    4.821977543780627E-3   -3.256477732739072E-3    5.045016407241051E-3    3.930025470089684E-1    2.793271585935611E-1
 8.062204031625000E9     3.941251370493948E-1    4.178360064651904E-1   -3.486301804868560E-3    4.828722982873710E-3   -3.286289952829543E-3    5.043872918149389E-3    3.930701436280156E-1    2.792667591938181E-1
 8.062204528750000E9     3.943061540567697E-1    4.177043189248658E-1   -3.519995911368463E-3    4.824557110012357E-3   -3.282741829861911E-3    5.079439342279439E-3    3.930973270486147E-1    2.792857699513420E-1
 8.062205025875000E9     3.944202450530502E-1    4.176382053329769E-1   -3.531015487393561E-3    4.860515757902003E-3   -3.247413439171823E-3    5.132938786268416E-3    3.931073200228266E-1    2.792654610293039E-1
 8.062205523000000E9     3.944069970704021E-1    4.174836783371553E-1   -3.542653679154754E-3    4.874546676518417E-3   -3.294974432971024E-3    5.153480050231158E-3    3.930791020046666E-1    2.791178896900123E-1
 8.062206020125000E9     3.945118769246099E-1    4.173483350171259E-1   -3.551350863618684E-3    4.932993071734182E-3   -3.277664618463124E-3    5.184083420077036E-3    3.930868784939739E-1    2.791684203210382E-1
 8.062206517250000E9     3.946627763535838E-1    4.171832550514134E-1   -3.558586591158395E-3    4.933628758133620E-3   -3.295913731115106E-3    5.185800220688780E-3    3.931923949671104E-1    2.791708074949033E-1
 8.062207014375000E9     3.947246472227144E-1    4.170839834237705E-1   -3.572673043610142E-3    4.951467507324200E-3   -3.340308686069027E-3    5.197160865290545E-3    3.931287808732896E-1    2.791420342332294E-1
 8.062207511500000E9     3.947501374139176E-1    4.169670482477935E-1   -3.582449093374087E-3    5.009983549129823E-3   -3.351611660790895E-3    5.242642458899813E-3    3.930694141850735E-1    2.790398349279219E-1
 8.062208008625000E9     3.949889118284413E-1    4.168763094842444E-1   -3.632127761773033E-3    5.017624426724271E-3   -3.331748352392000E-3    5.265800909344143E-3    3.931596794913639E-1    2.790617308000839E-1
 8.062208505750000E9     3.950795968540666E-1    4.166447736491548E-1   -3.599867816861962E-3    5.064159566798154E-3   -3.339333881783747E-3    5.306991637037687E-3    3.933357049432168E-1    2.790715929654624E-1
 8.062209002875000E9     3.951853148743612E-1    4.165130361698986E-1   -3.633761727877882E-3    5.055361555377795E-3   -3.366670373243755E-3    5.346845169411213E-3    3.932802074875614E-1    2.790004492184852E-1
 8.062209500000000E9     3.952191212736655E-1    4.164339839162456E-1   -3.666989111317757E-3    5.090759551424816E-3   -3.385368173884803E-3    5.358707261073920E-3    3.932784049544134E-1    2.788358425536070E-1
 8.062209997125000E9     3.953829570192833E-1    4.163430402128213E-1   -3.635273705898193E-3    5.130944944328331E-3   -3.355813020279241E-3    5.389312642071887E-3    3.932331412064578E-1    2.789607952807858E-1
 8.062210494250000E9     3.955051579065017E-1    4.161580935936647E-1   -3.666947217241185E-3    5.140275275284931E-3   -3.410733406401568E-3    5.364248969481080E-3    3.932021756155263E-1    2.788741333879773E-1
 8.062210991375000E9     3.956441809423942E-1    4.160715041887466E-1   -3.628976949067773E-3    5.161967429806628E-3   -3.393543167588398E-3    5.432637912840248E-3    3.932383366360630E-1    2.790184416960759E-1
 8.062211488500000E9     3.956541607367260E-1    4.158208739617405E-1   -3.684911758244135E-3    5.214526867427970E-3   -3.418402691998303E-3    5.472150818727514E-3    3.933757707241586E-1    2.789121484669779E-1
 8.062211985625000E9     3.957182206536051E-1    4.156265447242093E-1   -3.720667350673808E-3    5.231122517628644E-3   -3.385466334715161E-3    5.523609889481145E-3    3.933116028549004E-1    2.787590756269760E-1
 8.062212482750000E9     3.959363091803781E-1    4.155701282239453E-1   -3.716603840500430E-3    5.253827582614358E-3   -3.438466720224463E-3    5.519558360262471E-3    3.933990210742447E-1    2.787962898598903E-1
 8.062212979875000E9     3.959013015012440E-1    4.154215983525415E-1   -3.732996394175524E-3    5.273873301682343E-3   -3.430356694032184E-3    5.570041455324952E-3    3.934145792981337E-1    2.788762111704354E-1
 8.062213477000000E9     3.960465391290170E-1    4.153409672231482E-1   -3.738007760796920E-3    5.299862710947663E-3   -3.416561753789894E-3    5.606075243685522E-3    3.934220148097894E-1    2.787977044774981E-1
 8.062213974125000E9     3.962008760152959E-1    4.150624115897284E-1   -3.727237222231313E-3    5.348584747012942E-3   -3.460768377055517E-3    5.618075205941860E-3    3.935042207059386E-1    2.787900683931757E-1
 8.062214471250000E9     3.962773302983683E-1    4.150249254694070E-1   -3.739862190871409E-3    5.371011431047261E-3   -3.461564537269015E-3    5.596028520229403E-3    3.934824598244702E-1    2.786886141891103E-1
 8.062214968375000E9     3.964286871171209E-1    4.147155892071988E-1   -3.767722004694119E-3    5.389581353030021E-3   -3.494913658407246E-3    5.674654706938110E-3    3.934925641144226E-1    2.786495667247543E-1
 8.062215465500000E9     3.965473000648652E-1    4.147035180657772E-1   -3.768348703735004E-3    5.414284425802646E-3   -3.541705062989828E-3    5.725413416155145E-3    3.934329762114877E-1    2.786743803778595E-1
 8.062215962625000E9     3.966407149963183E-1    4.144194470335841E-1   -3.808954026049098E-3    5.483179388888867E-3   -3.511880905281097E-3    5.751537029093191E-3    3.934799841422226E-1    2.786045986226645E-1
 8.062216459750000E9     3.967448132458892E-1    4.142845125353291E-1   -3.837088652733863E-3    5.499088316885207E-3   -3.513332499283694E-3    5.767887439235597E-3    3.935100085128014E-1    2.785664848384644E-1
 8.062216956875000E9     3.969784449097879E-1    4.141322972323798E-1   -3.825705173254307E-3    5.535028998267174E-3   -3.536169111516320E-3    5.842848116673841E-3    3.935143974803648E-1    2.785066243336900E-1
 8.062217454000000E9     3.969909811353089E-1    4.138116939499658E-1   -3.869810316454609E-3    5.597120378947501E-3   -3.545773049074513E-3    5.839715764765361E-3    3.935219163956076E-1    2.784973799820125E-1
 8.062217951125000E9     3.971588559680073E-1    4.136542448212223E-1   -3.874439699996611E-3    5.606194467860756E-3   -3.574979167486032E-3    5.865016742573607E-3    3.935096748571706E-1    2.785342185946377E-1
 8.062218448250000E9     3.972588592090163E-1    4.136119459945364E-1   -3.873668006044498E-3    5.650331975196217E-3   -3.584873607707399E-3    5.892870258177312E-3    3.935619792079614E-1    2.784083066063317E-1
 8.062218945375000E9     3.974361128727165E-1    4.134259490780374E-1   -3.900953261469121E-3    5.691069374348628E-3   -3.582093802052343E-3    5.938069013126203E-3    3.936052345336367E-1    2.783151308469352E-1
 8.062219442500000E9     3.974806296104324E-1    4.131618207648555E-1   -3.904822395406917E-3    5.731621978843025E-3   -3.618861125029820E-3    5.997126179909755E-3    3.936106809538846E-1    2.784169940400651E-1
 8.062219939625000E9     3.975499622468738E-1    4.129435105249828E-1   -3.961104006303545E-3    5.766064097568972E-3   -3.621988646662959E-3    6.027338748351528E-3    3.937279756480825E-1    2.782362428805757E-1
 8.062220436750000E9     3.976761067110831E-1    4.128882147980887E-1   -3.955201445502063E-3    5.771258097269990E-3   -3.616962261741315E-3    6.062997521114287E-3    3.935565325501802E-1    2.782916715311907E-1
 8.062220933875000E9     3.978515685684115E-1    4.126693192813499E-1   -3.982899736106913E-3    5.818638871605207E-3   -3.598570710880020E-3    6.128441886243431E-3    3.936718242997642E-1    2.783114725880834E-1
 8.062221431000000E9     3.979729298567303E-1    4.124435005226699E-1   -3.963299792637177E-3    5.867512358391393E-3   -3.647032999263025E-3    6.154736819091596E-3    3.938817853202177E-1    2.782371846218544E-1
 8.062221928125000E9     3.979967248425065E-1    4.122127017193487E-1   -3.978783263475399E-3    5.926540905889429E-3   -3.723675000981260E-3    6.170975509648971E-3    3.936024122258602E-1    2.782422575435508E-1
 8.062222425250000E9     3.982906742819933E-1    4.120381733114930E-1   -4.002404810895661E-3    5.946798452248960E-3   -3.706227858310636E-3    6.216835343846003E-3    3.936513989004391E-1    2.781876899856955E-1
