#  HZ   S   RI   R     50.00 
! Rohde & Schwarz Vector Network Analyzer 
! Rohde-Schwarz,ZNB20-2Port,1311601062101988,3.16
! Created: UTC 3/20/2024, 11:03:00 PM
! freq[Hz]                re:S11                  im:S11                  re:S21                  im:S21                  re:S12                  im:S12                  re:S22                  im:S22
 8.061808987000000E9     3.644860111401478E-1    4.459081578112975E-1   -2.053359076875057E-3    2.373344652205766E-3   -1.915790454236735E-3    2.523971566542388E-3    3.887324413295773E-1    2.965406362757397E-1
 8.061810365425000E9     3.646752100136970E-1    4.456489160988157E-1   -2.116032684365552E-3    2.351740316946005E-3   -1.955456276794874E-3    2.521581548708417E-3    3.887360015082668E-1    2.964012992915884E-1
 8.061811743850000E9     3.646034647906543E-1    4.455857500963766E-1   -2.087058957994979E-3    2.367360493077888E-3   -1.942139729891465E-3    2.565531520899662E-3    3.888606629191407E-1    2.962470705828667E-1
 8.061813122275000E9     3.648432229590455E-1    4.455024211240683E-1   -2.055508265614773E-3    2.373496816330579E-3   -1.938760842336171E-3    2.536225707981159E-3    3.889726225517752E-1    2.963217852281078E-1
 8.061814500700000E9     3.650005650076869E-1    4.455794874645875E-1   -2.087066615367199E-3    2.389721238543103E-3   -1.959558686676478E-3    2.519566545034731E-3    3.890148339095963E-1    2.960537244271791E-1
 8.061815879125000E9     3.648534727078729E-1    4.454200354200261E-1   -2.090430361829944E-3    2.405735663547733E-3   -1.954520170003640E-3    2.530213274386629E-3    3.890708815844041E-1    2.961504540013885E-1
 8.061817257550000E9     3.651918739815361E-1    4.453327149073966E-1   -2.070600250257364E-3    2.390621117935538E-3   -1.937115584311401E-3    2.512345781056688E-3    3.890036084765393E-1    2.961269546866475E-1
 8.061818635975000E9     3.652060555122319E-1    4.452522476364709E-1   -2.099556861268886E-3    2.394948437624307E-3   -1.959650785550062E-3    2.533530491258560E-3    3.891862060100373E-1    2.960646804373644E-1
 8.061820014400000E9     3.652686980221238E-1    4.450329694424657E-1   -2.099561632715260E-3    2.379964953326454E-3   -1.949612494696734E-3    2.543220533776874E-3    3.891777688806015E-1    2.959064319527674E-1
 8.061821392825000E9     3.654069694261345E-1    4.449437849150639E-1   -2.118190681354176E-3    2.401626752791498E-3   -1.964198679524094E-3    2.560728284171933E-3    3.892888949847045E-1    2.958940552822190E-1
 8.061822771250000E9     3.655763890493022E-1    4.448804589514231E-1   -2.129436390194559E-3    2.418901013643543E-3   -1.986991283297378E-3    2.549411091577380E-3    3.891974539414675E-1    2.958047020889627E-1
 8.061824149675000E9     3.656095562267226E-1    4.449257391633900E-1   -2.123231703104217E-3    2.408574171629172E-3   -1.991168265678655E-3    2.559119391966100E-3    3.892691154811143E-1    2.957931626787752E-1
 8.061825528100000E9     3.656041395285341E-1    4.448406355641927E-1   -2.125639741904523E-3    2.393727647917360E-3   -1.949879049418349E-3    2.587925854954330E-3    3.893329749900746E-1    2.955918610720039E-1
 8.061826906525000E9     3.657995193465978E-1    4.446879306418419E-1   -2.105045094308109E-3    2.404199124264360E-3   -1.972730166417495E-3    2.568796882825857E-3    3.893776205431934E-1    2.955978786488220E-1
 8.061828284950000E9     3.658891018282194E-1    4.447031713597542E-1   -2.095482744260519E-3    2.446987935569214E-3   -2.020354822206731E-3    2.600593965083195E-3    3.894599859492436E-1    2.955159649309381E-1
 8.061829663375000E9     3.660666517618100E-1    4.445027374362542E-1   -2.114711675932600E-3    2.433805820696118E-3   -1.995924567542766E-3    2.591193886386647E-3    3.895984105510039E-1    2.954586537426249E-1
 8.061831041800000E9     3.662454379193369E-1    4.444511469392292E-1   -2.108250769941526E-3    2.437890785571984E-3   -1.981110192975688E-3    2.579778646920466E-3    3.895355549358537E-1    2.954610745504022E-1
 8.061832420225000E9     3.663604338896128E-1    4.443413075801791E-1   -2.139788628224251E-3    2.433813631856698E-3   -1.998665129216830E-3    2.587302254014200E-3    3.896335593555895E-1    2.953263140821208E-1
 8.061833798650000E9     3.664105217248516E-1    4.443331776548950E-1   -2.114310405916754E-3    2.446844715687118E-3   -2.019106785091537E-3    2.570148200251913E-3    3.896286715508629E-1    2.952737393862101E-1
 8.061835177075000E9     3.665178732325633E-1    4.442631717931017E-1   -2.129234572787102E-3    2.449752879594460E-3   -1.982992298041689E-3    2.622668270536879E-3    3.896574410805299E-1    2.952855066671099E-1
 8.061836555500000E9     3.665327775757189E-1    4.442598114367931E-1   -2.099091994786538E-3    2.461046564592041E-3   -2.019799612664514E-3    2.632471195698234E-3    3.897685811255762E-1    2.952050640396043E-1
 8.061837933925000E9     3.666189750477284E-1    4.440803430021186E-1   -2.110934976289508E-3    2.461844058178774E-3   -2.013879657577244E-3    2.641613367355055E-3    3.898766562853793E-1    2.951809853462779E-1
 8.061839312350000E9     3.666548684140675E-1    4.439055923992832E-1   -2.143107091593486E-3    2.475999737871090E-3   -2.000664588094425E-3    2.606789542310066E-3    3.898907471398225E-1    2.949928796085339E-1
 8.061840690775000E9     3.668816332875260E-1    4.438922057519594E-1   -2.136748824331104E-3    2.484242634364666E-3   -2.004185698276350E-3    2.644316060237758E-3    3.900512828607341E-1    2.947882990642147E-1
 8.061842069200000E9     3.668888941289843E-1    4.436713927399194E-1   -2.141655911451521E-3    2.483685217671515E-3   -2.016174663981981E-3    2.623730309158714E-3    3.900024280201609E-1    2.947765004080248E-1
 8.061843447625000E9     3.669279650341641E-1    4.437370131179070E-1   -2.142746689053374E-3    2.488785860182436E-3   -2.032997619865925E-3    2.645446128942342E-3    3.900605089162467E-1    2.946468655892732E-1
 8.061844826050000E9     3.671135710050384E-1    4.436917586703242E-1   -2.104446516163502E-3    2.500698616793357E-3   -2.016342392931505E-3    2.641900869682213E-3    3.901405107848363E-1    2.947511045956041E-1
 8.061846204475000E9     3.672378976469602E-1    4.435449656916801E-1   -2.136400744433550E-3    2.490345829503456E-3   -2.030750047660497E-3    2.687164418956119E-3    3.900650740203140E-1    2.945439657667419E-1
 8.061847582900000E9     3.673340809861808E-1    4.434466713964749E-1   -2.171065602412208E-3    2.520585841656232E-3   -2.006447013989365E-3    2.648586702887761E-3    3.902583060660872E-1    2.945651654623835E-1
 8.061848961325000E9     3.674198703287303E-1    4.433859939193481E-1   -2.176355689657923E-3    2.522106303792671E-3   -2.013542251022966E-3    2.647248832874891E-3    3.903057722920913E-1    2.945709674634921E-1
 8.061850339750000E9     3.673794540027780E-1    4.432822668550268E-1   -2.163611750577314E-3    2.514128760913884E-3   -2.039932262917073E-3    2.701939255604235E-3    3.901845286884764E-1    2.944388989554319E-1
 8.061851718175000E9     3.676310595615598E-1    4.432196758216251E-1   -2.175983393328537E-3    2.529082863446894E-3   -2.036444448800096E-3    2.663893935553742E-3    3.902775063507843E-1    2.944389271727263E-1
 8.061853096600000E9     3.677838380450714E-1    4.431696606961417E-1   -2.169485930690003E-3    2.548337940463117E-3   -2.025193037417703E-3    2.687441080749905E-3    3.902149499124094E-1    2.942855020415465E-1
 8.061854475025000E9     3.677427619977869E-1    4.429764260978133E-1   -2.159697145333005E-3    2.550560413108968E-3   -2.043002421554950E-3    2.683342816672926E-3    3.904556559895589E-1    2.943246191173036E-1
 8.061855853450000E9     3.678931760891250E-1    4.429740704995482E-1   -2.169023105160121E-3    2.575318976651407E-3   -2.043937996995991E-3    2.704308598555117E-3    3.904736863953514E-1    2.941344490810339E-1
 8.061857231875000E9     3.680353571556352E-1    4.428771224800177E-1   -2.178437170920164E-3    2.556598363921535E-3   -2.057081541991201E-3    2.693522565789461E-3    3.904441714799260E-1    2.941332557683633E-1
 8.061858610300000E9     3.679922164191774E-1    4.427372742635617E-1   -2.195159920663207E-3    2.555973317919696E-3   -2.040323397547155E-3    2.718923868034040E-3    3.906105786262050E-1    2.941363210619758E-1
 8.061859988725000E9     3.681416637996057E-1    4.426411184860601E-1   -2.180254552579531E-3    2.564424528110948E-3   -2.036779713304592E-3    2.755328964190632E-3    3.906635779987317E-1    2.940366298825888E-1
 8.061861367150000E9     3.681928600123301E-1    4.425642728724093E-1   -2.187685280200374E-3    2.578933573690134E-3   -2.036139517908768E-3    2.738365279460792E-3    3.907228902765782E-1    2.938966694426343E-1
 8.061862745575000E9     3.683352172802585E-1    4.424245191307822E-1   -2.176932454693089E-3    2.628493603227284E-3   -2.064454045544843E-3    2.712527119074523E-3    3.906734653111684E-1    2.937668454105088E-1
 8.061864124000000E9     3.685473665512605E-1    4.424624844868549E-1   -2.216788998350492E-3    2.610315526938661E-3   -2.072498148776525E-3    2.760644219501057E-3    3.907240509570258E-1    2.937323738223659E-1
 8.061865502425000E9     3.685381564602351E-1    4.422768326483205E-1   -2.208289955863435E-3    2.588969870029020E-3   -2.057431404831937E-3    2.780968364095310E-3    3.908214068058197E-1    2.936119248013803E-1
 8.061866880850000E9     3.686622840723625E-1    4.421325540336513E-1   -2.208042571670329E-3    2.592317477877089E-3   -2.076932480034004E-3    2.774250670222289E-3    3.908174096981952E-1    2.936918947241930E-1
 8.061868259275000E9     3.687353830238436E-1    4.420356901104884E-1   -2.200590368694656E-3    2.638866871861370E-3   -2.024876437149691E-3    2.759585988990634E-3    3.909075104218405E-1    2.935582682110107E-1
 8.061869637700000E9     3.688180024822081E-1    4.419683791839744E-1   -2.221337874021167E-3    2.640034597105450E-3   -2.077182314761526E-3    2.804543152347667E-3    3.909471814544305E-1    2.934584602989424E-1
 8.061871016125000E9     3.690724612819823E-1    4.418278307708150E-1   -2.201395588422581E-3    2.635430599848737E-3   -2.050472268706340E-3    2.805059494446160E-3    3.909948075301031E-1    2.934709206869772E-1
 8.061872394550000E9     3.690461028611711E-1    4.417447046339087E-1   -2.233743014927128E-3    2.613278040066576E-3   -2.084575894104904E-3    2.744414517061432E-3    3.910029630790537E-1    2.932629114136307E-1
 8.061873772975000E9     3.691402255418077E-1    4.416792341854271E-1   -2.256957425951473E-3    2.646150347279097E-3   -2.054104060032898E-3    2.816518731018653E-3    3.911452683024773E-1    2.933117543027557E-1
 8.061875151400000E9     3.691851571931042E-1    4.416612133778105E-1   -2.219115676131899E-3    2.645940139402958E-3   -2.120939747872439E-3    2.804118230179186E-3    3.911480390212065E-1    2.931951477574991E-1
 8.061876529825000E9     3.694937745550892E-1    4.414919354250054E-1   -2.209596858548336E-3    2.634121974757847E-3   -2.080817304029052E-3    2.806986579438713E-3    3.912150468707560E-1    2.931145017841049E-1
 8.061877908250000E9     3.694531792700173E-1    4.414661875060944E-1   -2.222317589552245E-3    2.681641524595427E-3   -2.118187921451738E-3    2.800418752379942E-3    3.912725300918967E-1    2.931095316262998E-1
 8.061879286675000E9     3.696161281544115E-1    4.414832612987832E-1   -2.240739495462349E-3    2.665729283133802E-3   -2.096913580110766E-3    2.850959309940311E-3    3.912237610194406E-1    2.929077759736901E-1
 8.061880665100000E9     3.697170139899109E-1    4.412576799998799E-1   -2.233923800544114E-3    2.681128400893936E-3   -2.092476216436203E-3    2.864545358253425E-3    3.914124498774569E-1    2.929314237150773E-1
 8.061882043525000E9     3.698964022077555E-1    4.410520670207660E-1   -2.253168046278249E-3    2.704961781688770E-3   -2.092081640800189E-3    2.861102913144444E-3    3.913002194127798E-1    2.929341322769599E-1
 8.061883421950000E9     3.698394689879048E-1    4.410004130289006E-1   -2.268877013616697E-3    2.711428136975849E-3   -2.076034848538106E-3    2.837706546637190E-3    3.913418984170841E-1    2.928028803721671E-1
 8.061884800375000E9     3.700366244716168E-1    4.409669871464100E-1   -2.237932932992851E-3    2.732156243135908E-3   -2.121412692529253E-3    2.868290175795101E-3    3.914589140035588E-1    2.927535185949882E-1
 8.061886178800000E9     3.701642906208146E-1    4.408983418431258E-1   -2.248563501232071E-3    2.733030829196094E-3   -2.148031239027765E-3    2.926724070805527E-3    3.914336467738234E-1    2.926141935227671E-1
 8.061887557225000E9     3.703140444762152E-1    4.407655569286172E-1   -2.244771319014828E-3    2.742291154495261E-3   -2.116093278135728E-3    2.905834450005891E-3    3.916160618592745E-1    2.924836429621038E-1
 8.061888935650000E9     3.703389313406982E-1    4.407586253043523E-1   -2.244474190130087E-3    2.740362220803025E-3   -2.107606551035290E-3    2.898565335149254E-3    3.916642118154288E-1    2.923634658616717E-1
 8.061890314075000E9     3.703155838269351E-1    4.406962482111738E-1   -2.295309814203821E-3    2.761053317514109E-3   -2.134841813790128E-3    2.932739832073660E-3    3.917154716745792E-1    2.924115361072935E-1
 8.061891692500000E9     3.705625223128564E-1    4.404184688248519E-1   -2.265439860394673E-3    2.746569637459991E-3   -2.123903000703151E-3    2.934905775740799E-3    3.917469933168731E-1    2.924183849673689E-1
 8.061893070925000E9     3.706317168089849E-1    4.403700036571468E-1   -2.284876964784547E-3    2.783472419604096E-3   -2.115040908327089E-3    2.930703133843232E-3    3.917284377904890E-1    2.923093536001948E-1
 8.061894449350000E9     3.707620495938891E-1    4.402604106817494E-1   -2.288495206950604E-3    2.791988042278359E-3   -2.123023093801656E-3    2.953947960355883E-3    3.917413048663827E-1    2.922783509443596E-1
 8.061895827775000E9     3.707948835477327E-1    4.401957164540157E-1   -2.300004460010644E-3    2.798460628603477E-3   -2.162430951681171E-3    2.943108282204500E-3    3.918946409755096E-1    2.922373751056663E-1
 8.061897206200000E9     3.709571330945005E-1    4.400308283703254E-1   -2.305927778450793E-3    2.805565688883604E-3   -2.132572527238358E-3    2.957057197336902E-3    3.920265903504704E-1    2.920770376600751E-1
 8.061898584625000E9     3.710535946989598E-1    4.399317925180866E-1   -2.296308682587776E-3    2.802296184307011E-3   -2.164514749909155E-3    2.992620226553347E-3    3.920644022431761E-1    2.921393072098254E-1
 8.061899963050000E9     3.710937426690922E-1    4.398096138853647E-1   -2.325068496193326E-3    2.804362304343941E-3   -2.165541486392027E-3    2.942869341802183E-3    3.921170035947252E-1    2.920319745407681E-1
 8.061901341475000E9     3.711718271323211E-1    4.397328604817398E-1   -2.291318842333339E-3    2.815972664940541E-3   -2.156933316272144E-3    2.976515564697651E-3    3.919824519811111E-1    2.919664168537177E-1
 8.061902719900000E9     3.713683025568482E-1    4.397162875496862E-1   -2.299875788161510E-3    2.831144766382060E-3   -2.166896800014870E-3    3.014234105758396E-3    3.920958814873651E-1    2.919068074697553E-1
 8.061904098325000E9     3.715002488496121E-1    4.395441242231802E-1   -2.315736256509314E-3    2.854884798511426E-3   -2.170225844661562E-3    3.005040393248695E-3    3.920479981327467E-1    2.916362807735305E-1
 8.061905476750000E9     3.715885810632565E-1    4.393463890861354E-1   -2.338701379282123E-3    2.865444535750581E-3   -2.136709024566180E-3    3.024079237782791E-3    3.922276979175843E-1    2.916661718095649E-1
 8.061906855175000E9     3.717442088120093E-1    4.393598600361713E-1   -2.338339984857413E-3    2.860962537681700E-3   -2.156869201842309E-3    3.043079746961065E-3    3.921330945409940E-1    2.916338062411419E-1
 8.061908233600000E9     3.717409789947992E-1    4.392312634131558E-1   -2.332479572175619E-3    2.895178109490160E-3   -2.203605827198116E-3    3.049299111667163E-3    3.923136780247615E-1    2.915570919801320E-1
 8.061909612025000E9     3.720175417742437E-1    4.390435414613302E-1   -2.319711379811333E-3    2.910282944858730E-3   -2.168514934660346E-3    3.046443907819121E-3    3.923568545333747E-1    2.914992415765104E-1
 8.061910990450000E9     3.720278514209379E-1    4.390249222081522E-1   -2.312109973363168E-3    2.890827935517422E-3   -2.208748623014144E-3    3.068266190660411E-3    3.924412912330206E-1    2.914601514384801E-1
 8.061912368875000E9     3.721727865805444E-1    4.389203745329214E-1   -2.358380150881052E-3    2.931108750959294E-3   -2.210085048963128E-3    3.091891999033308E-3    3.925607319309604E-1    2.913216936002799E-1
 8.061913747300000E9     3.722723057850303E-1    4.388308252410013E-1   -2.355512881142034E-3    2.916137736937127E-3   -2.195201688038069E-3    3.094578083478068E-3    3.924717998472430E-1    2.911441796006543E-1
 8.061915125725000E9     3.723683027063293E-1    4.385669241217183E-1   -2.366732417574688E-3    2.938750258372620E-3   -2.183651095646267E-3    3.105216159963249E-3    3.925392031898883E-1    2.912468403356860E-1
 8.061916504150000E9     3.725761608685924E-1    4.385972178679196E-1   -2.384601785408346E-3    2.930029696260842E-3   -2.206240826311137E-3    3.163341391839043E-3    3.925233137991194E-1    2.911358977987742E-1
 8.061917882575000E9     3.726194762876619E-1    4.384656928926205E-1   -2.356555023583482E-3    2.951906439953286E-3   -2.245882394184580E-3    3.138703690022569E-3    3.925914046749729E-1    2.910771567737995E-1
 8.061919261000000E9     3.727330913758264E-1    4.384137802022641E-1   -2.374517640586887E-3    2.983637824364572E-3   -2.216149109987874E-3    3.160571126661894E-3    3.927323567617025E-1    2.910793945985466E-1
 8.061920639425000E9     3.727812783008674E-1    4.381325732795560E-1   -2.369048630231452E-3    2.976217584711621E-3   -2.229864239802323E-3    3.140072243089663E-3    3.927774552974393E-1    2.908842792824455E-1
 8.061922017850000E9     3.728971607770603E-1    4.380865568763878E-1   -2.364170402363614E-3    2.996845518179240E-3   -2.200317997860382E-3    3.183279431947259E-3    3.928185536273767E-1    2.908966555429691E-1
 8.061923396275000E9     3.729861446112464E-1    4.379576327221337E-1   -2.389941713667516E-3    3.037290675392965E-3   -2.279123053692159E-3    3.196769264259687E-3    3.928189353734785E-1    2.907792659358612E-1
 8.061924774700000E9     3.731519326415018E-1    4.379353858978517E-1   -2.408769561275221E-3    3.049162970095037E-3   -2.223942560681898E-3    3.208812764386225E-3    3.929637283849597E-1    2.907673887309891E-1
 8.061926153125000E9     3.732789950209869E-1    4.376528124965575E-1   -2.395251267179452E-3    3.057785369402340E-3   -2.266271738368423E-3    3.237863046356339E-3    3.929495347670234E-1    2.908146498160693E-1
 8.061927531550000E9     3.733893401163293E-1    4.376712671135708E-1   -2.419615074279325E-3    3.068126160041072E-3   -2.231317851931541E-3    3.223801150422618E-3    3.929489943047096E-1    2.903706965204662E-1
 8.061928909975000E9     3.734257295600339E-1    4.376096774821939E-1   -2.414194066476788E-3    3.093940744937003E-3   -2.252922525964727E-3    3.259431357352279E-3    3.930868967030742E-1    2.904574498633709E-1
 8.061930288400000E9     3.734875198483264E-1    4.373125831308182E-1   -2.418676693073191E-3    3.080578683570579E-3   -2.239610202853987E-3    3.242789658221853E-3    3.932060004974592E-1    2.903627024499321E-1
 8.061931666825000E9     3.736546542533223E-1    4.373017164029021E-1   -2.433462810624804E-3    3.096483410764734E-3   -2.241673957697586E-3    3.272172435556662E-3    3.931695853435287E-1    2.904127435989182E-1
 8.061933045250000E9     3.737476586308777E-1    4.371102418827210E-1   -2.405606052490504E-3    3.123563847700376E-3   -2.293248888927654E-3    3.296368357507460E-3    3.932265867541712E-1    2.901953225645433E-1
