#  HZ   S   RI   R     50.00 
! Rohde & Schwarz Vector Network Analyzer 
! Rohde-Schwarz,ZNB20-2Port,1311601062101988,3.16
! Created: UTC 3/20/2024, 11:03:05 PM
! freq[Hz]                re:S11                  im:S11                  re:S21                  im:S21                  re:S12                  im:S12                  re:S22                  im:S22
 8.061804249000000E9     3.643370069162266E-1    4.460606599334168E-1   -2.088045955531173E-3    2.342331618098291E-3   -1.980720553730539E-3    2.496652758459457E-3    3.890675519765089E-1    2.967313413611027E-1
 8.061805646900000E9     3.644825540650145E-1    4.459032985907014E-1   -2.093576415689606E-3    2.338754725493838E-3   -1.943553111086100E-3    2.482840222832704E-3    3.889489855355852E-1    2.966024967339947E-1
 8.061807044800000E9     3.646084654825157E-1    4.460036953364623E-1   -2.104695695958881E-3    2.355913018285892E-3   -1.947208074858627E-3    2.514801444995367E-3    3.890658955596620E-1    2.964773459449360E-1
 8.061808442700000E9     3.646054046972942E-1    4.457477495453512E-1   -2.081890052494660E-3    2.356772355536035E-3   -1.948691076045324E-3    2.529596701700165E-3    3.890217039831089E-1    2.963658751519296E-1
 8.061809840600000E9     3.646097155900749E-1    4.456683474802809E-1   -2.079951348073239E-3    2.364753932546432E-3   -1.991453167441190E-3    2.494807756135310E-3    3.891980483370209E-1    2.965009319410363E-1
 8.061811238500000E9     3.647405256852460E-1    4.455317111038609E-1   -2.075836971847063E-3    2.381480729728373E-3   -1.956973723038664E-3    2.553107245184504E-3    3.891305814694378E-1    2.963572863595142E-1
 8.061812636400000E9     3.648631069705812E-1    4.455302716938434E-1   -2.069133184748719E-3    2.385071194319013E-3   -1.931683201500707E-3    2.531659110089693E-3    3.893675806738798E-1    2.964868911866527E-1
 8.061814034300000E9     3.649570227598334E-1    4.453275568705620E-1   -2.065264923173123E-3    2.385158304412789E-3   -1.989169983009415E-3    2.528522067154382E-3    3.892602258533049E-1    2.962514612352406E-1
 8.061815432200000E9     3.650686819662853E-1    4.452584735601641E-1   -2.082663525115597E-3    2.400803528574227E-3   -1.980959287247550E-3    2.545006581887956E-3    3.893456599284217E-1    2.963240467328040E-1
 8.061816830100000E9     3.651556397241345E-1    4.451484890532134E-1   -2.081244313923265E-3    2.410820204581066E-3   -1.971854762841352E-3    2.557351802742034E-3    3.892517378318774E-1    2.960243266800974E-1
 8.061818228000000E9     3.653348730987206E-1    4.450956150471859E-1   -2.084451101070391E-3    2.392289208541158E-3   -2.014106855321194E-3    2.526875280346358E-3    3.894862962204599E-1    2.959853442032869E-1
 8.061819625900000E9     3.653558396299847E-1    4.451798555617887E-1   -2.084044592827624E-3    2.409396168612811E-3   -1.972774158340805E-3    2.530997878683129E-3    3.894851214288540E-1    2.960119868452022E-1
 8.061821023800000E9     3.654504675343050E-1    4.449344635122675E-1   -2.098515838770840E-3    2.419055819308119E-3   -1.974480121209959E-3    2.537471109731809E-3    3.895204622358137E-1    2.958795072023322E-1
 8.061822421700000E9     3.655084603564317E-1    4.449374303125161E-1   -2.105653930835796E-3    2.401000930375843E-3   -1.974827324829149E-3    2.547862238668367E-3    3.896272595848585E-1    2.958415920219353E-1
 8.061823819600000E9     3.656323056052555E-1    4.448720747195809E-1   -2.091836937433398E-3    2.396374456365977E-3   -2.009038841267837E-3    2.523721034126479E-3    3.895263393749692E-1    2.957329573662062E-1
 8.061825217500000E9     3.657714885003162E-1    4.449194223335870E-1   -2.092305360754146E-3    2.429062806602267E-3   -1.994120039580858E-3    2.604616327166561E-3    3.896517838283196E-1    2.957949631329354E-1
 8.061826615400000E9     3.659365949323392E-1    4.447548938883740E-1   -2.120663325491676E-3    2.449689469397730E-3   -2.007015404134593E-3    2.538885132655223E-3    3.899158178216877E-1    2.955671819884105E-1
 8.061828013300000E9     3.660164832747683E-1    4.445249841491955E-1   -2.108134177414297E-3    2.442500600354352E-3   -2.022925623334443E-3    2.582169337624093E-3    3.896309985532646E-1    2.955160007021281E-1
 8.061829411200000E9     3.660845399502220E-1    4.445212555540421E-1   -2.101769519309740E-3    2.428095693218692E-3   -1.962253417529316E-3    2.565889091011298E-3    3.896730545689975E-1    2.954647868992826E-1
 8.061830809100000E9     3.661349942917014E-1    4.443915380096529E-1   -2.105841603941994E-3    2.445676552973451E-3   -1.978557609801180E-3    2.614033738125327E-3    3.898559571341987E-1    2.952225816538155E-1
 8.061832207000000E9     3.660700668627609E-1    4.442818651982798E-1   -2.132846695027496E-3    2.451641593417123E-3   -1.996490582176550E-3    2.595341991657442E-3    3.899723794523455E-1    2.953053120497440E-1
 8.061833604900000E9     3.663314523417563E-1    4.442704769770607E-1   -2.132472265657462E-3    2.460219430613559E-3   -1.980750168613507E-3    2.608931534201431E-3    3.899603606804680E-1    2.952890930370068E-1
 8.061835002800000E9     3.663994242298736E-1    4.440519382056350E-1   -2.117702281583079E-3    2.478793710527271E-3   -2.024769682454063E-3    2.630683397123421E-3    3.900876370435109E-1    2.952580708388747E-1
 8.061836400700000E9     3.665301898553251E-1    4.439985116040147E-1   -2.132464640597527E-3    2.469156986033026E-3   -2.017343319217831E-3    2.637137905789181E-3    3.900449053280052E-1    2.951814135080404E-1
 8.061837798600000E9     3.666669996546591E-1    4.440230026640920E-1   -2.133759665294705E-3    2.488724533293748E-3   -2.006381522563176E-3    2.607427906602940E-3    3.901402861537145E-1    2.949855831721540E-1
 8.061839196500000E9     3.667276487326170E-1    4.438388188850511E-1   -2.149625979300219E-3    2.470457320357001E-3   -2.013524698615524E-3    2.638106637122296E-3    3.899969287432884E-1    2.951239971100755E-1
 8.061840594400000E9     3.669258899044661E-1    4.437389159643855E-1   -2.127939058642206E-3    2.487487437369392E-3   -2.031786617550768E-3    2.614081539820565E-3    3.901784832656507E-1    2.950042265958604E-1
 8.061841992300000E9     3.670108759291443E-1    4.436605136627486E-1   -2.138600758531929E-3    2.475013412642729E-3   -2.015481549034336E-3    2.634699418065785E-3    3.900953711635701E-1    2.947475058820646E-1
 8.061843390200000E9     3.669761957906579E-1    4.436214784731792E-1   -2.140824636035092E-3    2.507994113412089E-3   -2.000396740098230E-3    2.655651212611103E-3    3.902323634234296E-1    2.947062145845229E-1
 8.061844788100000E9     3.671714458155876E-1    4.435758822054842E-1   -2.152991246672767E-3    2.509056706649018E-3   -2.014245231607640E-3    2.647262073258059E-3    3.904531059790271E-1    2.947649986858465E-1
 8.061846186000000E9     3.672026662787379E-1    4.434320495048490E-1   -2.157918381750617E-3    2.497897273903902E-3   -2.038691383724173E-3    2.675275312973695E-3    3.903285240803776E-1    2.946331999004138E-1
 8.061847583900000E9     3.672995996384619E-1    4.433792197280076E-1   -2.146702447389002E-3    2.498329222716170E-3   -2.040032746586305E-3    2.691164376010737E-3    3.904842797504319E-1    2.945265771822047E-1
 8.061848981800000E9     3.675368030276539E-1    4.434530738655797E-1   -2.143706303559952E-3    2.506286643414009E-3   -2.026014023209195E-3    2.686510719658489E-3    3.905202841830113E-1    2.945657765101872E-1
 8.061850379700000E9     3.676129084189177E-1    4.432301940783592E-1   -2.140858781246214E-3    2.547574764838384E-3   -2.021182319519744E-3    2.701316368426839E-3    3.905365695448701E-1    2.943866855599666E-1
 8.061851777600000E9     3.676860949029573E-1    4.431092388163507E-1   -2.167576009854873E-3    2.528151158188662E-3   -2.044449939972425E-3    2.703500744758516E-3    3.905673434748571E-1    2.944263171870997E-1
 8.061853175500000E9     3.677833180216804E-1    4.430632426712706E-1   -2.149111626546903E-3    2.539510854198243E-3   -2.044479460169560E-3    2.694285741183276E-3    3.905730074532349E-1    2.942782268549263E-1
 8.061854573400000E9     3.679157408866058E-1    4.429759491389724E-1   -2.179068421932508E-3    2.540234913827720E-3   -2.043318911109891E-3    2.695566869377619E-3    3.906123383269146E-1    2.942803626368782E-1
 8.061855971300000E9     3.679961384919376E-1    4.429822609018954E-1   -2.181972359028291E-3    2.553440808244748E-3   -2.051886047265774E-3    2.675279161989878E-3    3.907435803129004E-1    2.941022446119569E-1
 8.061857369200000E9     3.680703736804096E-1    4.427410838004953E-1   -2.175113400729569E-3    2.541869441298339E-3   -2.016872701690677E-3    2.697746644649516E-3    3.908114914123976E-1    2.942133313227602E-1
 8.061858767100000E9     3.681941291929122E-1    4.426341389097083E-1   -2.171223683291898E-3    2.553135580006781E-3   -2.048334113381345E-3    2.711629752680613E-3    3.908144167739006E-1    2.940075717358789E-1
 8.061860165000000E9     3.682223046333309E-1    4.426549852608991E-1   -2.174077872845839E-3    2.607117698593831E-3   -2.034749531856164E-3    2.707600688794218E-3    3.909646247536928E-1    2.939878393495606E-1
 8.061861562900000E9     3.683935393431694E-1    4.424913209699299E-1   -2.205375134459061E-3    2.595581404446391E-3   -2.041512012218238E-3    2.728762703121695E-3    3.909021537505453E-1    2.938528376885973E-1
 8.061862960800000E9     3.685002916408701E-1    4.423696290393533E-1   -2.206244547532821E-3    2.586188511976690E-3   -2.065058720788975E-3    2.755422060789789E-3    3.910061324528619E-1    2.939214026632042E-1
 8.061864358700000E9     3.685289761819840E-1    4.422979947986488E-1   -2.185493068946106E-3    2.602735487591191E-3   -2.059187185504242E-3    2.752000856166078E-3    3.910434550569509E-1    2.937726331322666E-1
 8.061865756600000E9     3.687294491357966E-1    4.423317364002419E-1   -2.190697292965359E-3    2.614574828918179E-3   -2.070310175085508E-3    2.752620276029852E-3    3.910222979386660E-1    2.936370798339135E-1
 8.061867154500000E9     3.688855953166617E-1    4.420370060236892E-1   -2.196709309551256E-3    2.604496451449666E-3   -2.071137178820609E-3    2.791384937681653E-3    3.910485986687393E-1    2.936085789392873E-1
 8.061868552400000E9     3.687659774393651E-1    4.421171728349486E-1   -2.188806160107152E-3    2.631929568752649E-3   -2.062699574362860E-3    2.805094370239665E-3    3.912734376176101E-1    2.935826443350912E-1
 8.061869950300000E9     3.689552453144886E-1    4.419059577580932E-1   -2.200750230026436E-3    2.636324710014334E-3   -2.076595772295999E-3    2.802598869858834E-3    3.911838083234639E-1    2.934932684595755E-1
 8.061871348200000E9     3.691022412598065E-1    4.418026427878606E-1   -2.201154079681018E-3    2.658639261712139E-3   -2.090138124252638E-3    2.803324630963896E-3    3.912866573598222E-1    2.935456286383579E-1
 8.061872746100000E9     3.691246873873997E-1    4.416637187523856E-1   -2.209154515449199E-3    2.656703396275728E-3   -2.110612036771065E-3    2.809307543776321E-3    3.913990857624931E-1    2.932781693615850E-1
 8.061874144000000E9     3.692472645596127E-1    4.416373323521908E-1   -2.226918308850199E-3    2.640420260516764E-3   -2.065086418657980E-3    2.808078774315417E-3    3.913779514489938E-1    2.933734592821329E-1
 8.061875541900000E9     3.693422987873148E-1    4.415719696084713E-1   -2.226554666008059E-3    2.666204400740979E-3   -2.084965736327154E-3    2.812107545516198E-3    3.914118218857706E-1    2.931829100301216E-1
 8.061876939800000E9     3.694496263579096E-1    4.414612569670348E-1   -2.228666855035722E-3    2.668315863872831E-3   -2.076776240875173E-3    2.820168087317029E-3    3.915074065852199E-1    2.930907982939143E-1
 8.061878337700000E9     3.696200415334231E-1    4.412628457900249E-1   -2.245419699117962E-3    2.706792962175134E-3   -2.107132342267499E-3    2.825776635159623E-3    3.914624691842263E-1    2.931560620465153E-1
 8.061879735600000E9     3.696749143496608E-1    4.412822939493956E-1   -2.245174464130172E-3    2.686800390964695E-3   -2.100799269974847E-3    2.840109956188761E-3    3.915454955239532E-1    2.930626311870591E-1
 8.061881133500000E9     3.698171881493531E-1    4.411172697539856E-1   -2.253968620512160E-3    2.721205672755593E-3   -2.119953126788364E-3    2.844161505819268E-3    3.915433119882036E-1    2.929571395745692E-1
 8.061882531400000E9     3.699315709137846E-1    4.410584460600271E-1   -2.270035005514994E-3    2.707707271130491E-3   -2.117725637630900E-3    2.850431812171864E-3    3.916639397360649E-1    2.929300093771531E-1
 8.061883929300000E9     3.700883502202683E-1    4.408403702022407E-1   -2.264152233431124E-3    2.727836552371350E-3   -2.125440289218339E-3    2.889547172683610E-3    3.916485642626733E-1    2.927444266091954E-1
 8.061885327200000E9     3.700544981649347E-1    4.408884929420920E-1   -2.255150495552654E-3    2.716751174764819E-3   -2.138474093422142E-3    2.894777959402178E-3    3.918253524433090E-1    2.926131736855728E-1
 8.061886725100000E9     3.702030218865580E-1    4.406408271357466E-1   -2.258579284043104E-3    2.739148398973686E-3   -2.136385523846996E-3    2.867666726916424E-3    3.918771776359233E-1    2.925973826879149E-1
 8.061888123000000E9     3.702869291055466E-1    4.405938365068113E-1   -2.282546919682024E-3    2.750002184804169E-3   -2.109484048871620E-3    2.927023975969111E-3    3.919356050637844E-1    2.924838489833713E-1
 8.061889520900000E9     3.703067994499927E-1    4.405878640153130E-1   -2.285426771216814E-3    2.765873172067528E-3   -2.142546644582225E-3    2.916859443527867E-3    3.919520671162177E-1    2.924776703979801E-1
 8.061890918800000E9     3.705543509012495E-1    4.404047758242993E-1   -2.258870326026813E-3    2.785934245858037E-3   -2.154707368695562E-3    2.918821994624332E-3    3.919351508684064E-1    2.924610360009876E-1
 8.061892316700000E9     3.705891598624866E-1    4.403513597732364E-1   -2.292085167498801E-3    2.770158469862906E-3   -2.129242109119588E-3    2.945244937736552E-3    3.921803180258186E-1    2.924875748744887E-1
 8.061893714600000E9     3.707179665796195E-1    4.401989636196875E-1   -2.293855943678860E-3    2.759519487724893E-3   -2.109683790096467E-3    2.968163415893100E-3    3.920869176572986E-1    2.922053461257753E-1
 8.061895112500000E9     3.709058268565896E-1    4.400929073108629E-1   -2.299106879549813E-3    2.787812068417014E-3   -2.130923201579654E-3    2.949753787861570E-3    3.923413479580733E-1    2.923766624639595E-1
 8.061896510400000E9     3.709704422015490E-1    4.402335917522975E-1   -2.261692879900186E-3    2.794798391530087E-3   -2.149444034785835E-3    2.954853437069438E-3    3.921255098172431E-1    2.921198693622832E-1
 8.061897908300000E9     3.710367960451691E-1    4.400271571009226E-1   -2.304968736708445E-3    2.819559348144703E-3   -2.123151112355284E-3    2.942303445928323E-3    3.922447673340487E-1    2.921263925574681E-1
 8.061899306200000E9     3.712315163267595E-1    4.397273534311127E-1   -2.306078031817019E-3    2.816370808711115E-3   -2.141333472363031E-3    2.978927469480984E-3    3.923356089111805E-1    2.919711115902749E-1
 8.061900704100000E9     3.713302891349107E-1    4.397906616968562E-1   -2.303313849825092E-3    2.832879607047648E-3   -2.151195534373795E-3    3.023920394203470E-3    3.924091576591789E-1    2.919124099469120E-1
 8.061902102000000E9     3.713235209135326E-1    4.396674405654343E-1   -2.288502225234307E-3    2.844847060291049E-3   -2.158722268763257E-3    2.987147925349772E-3    3.924843247737836E-1    2.918222032524467E-1
 8.061903499900000E9     3.714661809239255E-1    4.394216550609936E-1   -2.316446335473239E-3    2.856055669481358E-3   -2.159014359901739E-3    3.024951775869165E-3    3.923330923016145E-1    2.918866655266822E-1
 8.061904897800000E9     3.716303824807972E-1    4.393909284709167E-1   -2.331360193847411E-3    2.875563689783982E-3   -2.171384191820414E-3    3.031161270600603E-3    3.923711892729459E-1    2.916597629408359E-1
 8.061906295700000E9     3.717000382870972E-1    4.392524208923326E-1   -2.296518528125536E-3    2.876373083647359E-3   -2.201105585416906E-3    3.063396151351593E-3    3.924473170570829E-1    2.917331689281596E-1
 8.061907693600000E9     3.717766296665748E-1    4.391456587204478E-1   -2.331430694715996E-3    2.896605513945795E-3   -2.206070519742413E-3    3.062139579493984E-3    3.924881666181281E-1    2.916159412329541E-1
 8.061909091500000E9     3.719536531919752E-1    4.390936682659718E-1   -2.330603846069217E-3    2.906608507233467E-3   -2.225176417194783E-3    3.053608582671117E-3    3.926988929746696E-1    2.914767833019942E-1
 8.061910489400000E9     3.719819148805208E-1    4.390170330550406E-1   -2.352205612798551E-3    2.927742931249009E-3   -2.151913491046271E-3    3.065095579968806E-3    3.927473993382584E-1    2.915360901287826E-1
 8.061911887300000E9     3.721613627228153E-1    4.388541040806699E-1   -2.353678772766095E-3    2.939997393687199E-3   -2.183326066821169E-3    3.078170212369592E-3    3.926543159836114E-1    2.914087461701375E-1
 8.061913285200000E9     3.723326463186665E-1    4.388013497771269E-1   -2.345348319677556E-3    2.958081472370805E-3   -2.197064363437118E-3    3.128431384817536E-3    3.927307882865003E-1    2.912948853819962E-1
 8.061914683100000E9     3.724761443768170E-1    4.386659436179520E-1   -2.357116794324100E-3    2.965948847319869E-3   -2.233268099296599E-3    3.120252935990329E-3    3.928749868855445E-1    2.912246014794903E-1
 8.061916081000000E9     3.724938259783073E-1    4.386053644884175E-1   -2.359266880918671E-3    2.986267593806919E-3   -2.235463948811115E-3    3.117975286197451E-3    3.927530820055909E-1    2.911362676896516E-1
 8.061917478900000E9     3.725915814697229E-1    4.382902169264002E-1   -2.357009418198483E-3    2.974893430909805E-3   -2.224483183349103E-3    3.154901832821317E-3    3.928053952198838E-1    2.911696049527413E-1
 8.061918876800000E9     3.726433101024307E-1    4.382775876201928E-1   -2.365162479336621E-3    2.987350671240437E-3   -2.251759138013509E-3    3.160694278526675E-3    3.928810357635489E-1    2.911765223344356E-1
 8.061920274700000E9     3.727852545304144E-1    4.381998775404219E-1   -2.359713490037059E-3    3.014174637395668E-3   -2.252301982036481E-3    3.174874947793666E-3    3.929434923509285E-1    2.910302416064776E-1
 8.061921672600000E9     3.729191962817653E-1    4.381782605670974E-1   -2.365468241940643E-3    3.036297944912622E-3   -2.243786950653470E-3    3.202502717694748E-3    3.930385557485624E-1    2.909275493449560E-1
 8.061923070500000E9     3.730798829495487E-1    4.379323260462196E-1   -2.359357442740097E-3    3.034541887619510E-3   -2.257403172637391E-3    3.207012452244142E-3    3.931933961595326E-1    2.909747650801076E-1
 8.061924468400000E9     3.730382820853430E-1    4.377671765847417E-1   -2.405091173058653E-3    3.049306933078900E-3   -2.229417995140578E-3    3.204395914784384E-3    3.932421083597250E-1    2.907441097062228E-1
 8.061925866300000E9     3.731906975760668E-1    4.377939987579910E-1   -2.384841186902140E-3    3.072656569189109E-3   -2.271091076451068E-3    3.225343320709978E-3    3.931664477986411E-1    2.906197031197438E-1
 8.061927264200000E9     3.733420762692143E-1    4.374771369034436E-1   -2.393265699451212E-3    3.065636946816121E-3   -2.269811285736453E-3    3.271304584502908E-3    3.932455030982870E-1    2.906288531320784E-1
 8.061928662100000E9     3.734758580378805E-1    4.374597935707024E-1   -2.417541253932115E-3    3.067536809317345E-3   -2.279245854168009E-3    3.269886352665305E-3    3.932291570117069E-1    2.905416180890101E-1
 8.061930060000000E9     3.735705977527127E-1    4.373309638880020E-1   -2.428846813457509E-3    3.125555375505585E-3   -2.251671489969666E-3    3.230001555367631E-3    3.932849348173477E-1    2.903302525331824E-1
