#  HZ   S   RI   R     50.00 
! Rohde & Schwarz Vector Network Analyzer 
! Rohde-Schwarz,ZNB20-2Port,1311601062101988,3.16
! Created: UTC 3/20/2024, 11:04:23 PM
! freq[Hz]                re:S11                  im:S11                  re:S21                  im:S21                  re:S12                  im:S12                  re:S22                  im:S22
 8.061772494000000E9     3.625786153163567E-1    4.474798382823383E-1   -2.100433422893386E-3    2.274540367268744E-3   -1.976331338327975E-3    2.410702189852353E-3    3.981340105457495E-1    3.149685350964500E-1
 8.061773966950000E9     3.625281755833357E-1    4.474725596914499E-1   -2.114194067424564E-3    2.280515845624396E-3   -1.975419162855482E-3    2.462725899875434E-3    3.982628130518259E-1    3.150135221215032E-1
 8.061775439900000E9     3.627450687677568E-1    4.473215267543187E-1   -2.094249279559248E-3    2.307592333859321E-3   -1.974438365078409E-3    2.452172000202513E-3    3.982582662508838E-1    3.148525204217267E-1
 8.061776912850000E9     3.627915215323463E-1    4.471972707517056E-1   -2.140755018301295E-3    2.284941244064114E-3   -1.962943904318956E-3    2.423322732491142E-3    3.983893794308150E-1    3.147759255285374E-1
 8.061778385800000E9     3.629812023333240E-1    4.472835797799160E-1   -2.112326583798388E-3    2.288297460682148E-3   -2.028309256846002E-3    2.454482927212917E-3    3.984006073428907E-1    3.147026247158439E-1
 8.061779858750000E9     3.631493474513607E-1    4.470851800001800E-1   -2.124646781831922E-3    2.308083731988438E-3   -2.026776597630147E-3    2.467918351248037E-3    3.984159695418750E-1    3.146963291706794E-1
 8.061781331700000E9     3.631729953676728E-1    4.470166830741670E-1   -2.129728023465808E-3    2.311701556423344E-3   -1.990043951107976E-3    2.457306388588944E-3    3.985752166418650E-1    3.145616228586572E-1
 8.061782804650000E9     3.633218757045865E-1    4.468659924994826E-1   -2.130754603349286E-3    2.312820350636609E-3   -2.016749273443066E-3    2.480373327522186E-3    3.984893322002755E-1    3.144773826023709E-1
 8.061784277600000E9     3.632260969594263E-1    4.469010965297573E-1   -2.138281826465350E-3    2.299844777703427E-3   -1.980008960930284E-3    2.492452843478113E-3    3.985635711718026E-1    3.142753336986508E-1
 8.061785750550000E9     3.635539499749058E-1    4.467967992690066E-1   -2.133439486799283E-3    2.327197126014759E-3   -2.017885109049693E-3    2.457032306229658E-3    3.986969521491672E-1    3.143811337616626E-1
 8.061787223500000E9     3.636178584223333E-1    4.465176779346504E-1   -2.139001516765437E-3    2.334338582181597E-3   -2.031786994153316E-3    2.481798220329834E-3    3.985616296520859E-1    3.143355723184857E-1
 8.061788696450000E9     3.636926859367712E-1    4.465179072910664E-1   -2.116235860828660E-3    2.348826536854713E-3   -2.073640058665786E-3    2.482307357047951E-3    3.986377102119802E-1    3.142373680465662E-1
 8.061790169400000E9     3.636622880678765E-1    4.464076731468711E-1   -2.131744718970674E-3    2.347857084278192E-3   -2.046010752901888E-3    2.479280476480997E-3    3.988166097257783E-1    3.141538075118523E-1
 8.061791642350000E9     3.639078933836374E-1    4.462796720448557E-1   -2.135518343471621E-3    2.320780642841366E-3   -2.010490844320888E-3    2.472574786658228E-3    3.989073346971467E-1    3.140859880627409E-1
 8.061793115300000E9     3.640473421722389E-1    4.463884284442699E-1   -2.138445598433661E-3    2.362079150760720E-3   -2.022588483567689E-3    2.517039053789466E-3    3.988504757761654E-1    3.138820361069879E-1
 8.061794588250000E9     3.641960348076114E-1    4.462079281057639E-1   -2.144817817519251E-3    2.356414868400180E-3   -2.017637587611898E-3    2.479140450171670E-3    3.988671604132894E-1    3.137762576346122E-1
 8.061796061200000E9     3.641929868318131E-1    4.460434551973863E-1   -2.153947114005906E-3    2.362319359573522E-3   -2.054469457569417E-3    2.489292573822939E-3    3.991302104055042E-1    3.136899764124438E-1
 8.061797534150000E9     3.642356799298589E-1    4.461254574003246E-1   -2.133258320070670E-3    2.357870129155540E-3   -2.021776051570015E-3    2.527197678054526E-3    3.990633599349689E-1    3.137270494228627E-1
 8.061799007100000E9     3.644303955131477E-1    4.459947547381848E-1   -2.139514413767541E-3    2.358846667191147E-3   -1.989963621754962E-3    2.538582817825374E-3    3.992548822184990E-1    3.136811961559393E-1
 8.061800480050000E9     3.645449469844658E-1    4.459410384863232E-1   -2.149136885845494E-3    2.377610464237840E-3   -2.042284054443498E-3    2.526276482873349E-3    3.991588290581282E-1    3.135903990439415E-1
 8.061801953000000E9     3.645397319861223E-1    4.457734453802856E-1   -2.164398882876005E-3    2.381548938617559E-3   -2.052149436978684E-3    2.518582366509908E-3    3.993078586547820E-1    3.134163611362492E-1
 8.061803425950000E9     3.648231888602166E-1    4.456336795184051E-1   -2.165349439353476E-3    2.395650666917250E-3   -2.029211323234864E-3    2.536818627567172E-3    3.994895434751286E-1    3.133269623222438E-1
 8.061804898900000E9     3.647980422615086E-1    4.456900355862028E-1   -2.174041927000195E-3    2.400432188457175E-3   -2.044519786435068E-3    2.568527868308406E-3    3.994898927210189E-1    3.133564902293220E-1
 8.061806371850000E9     3.649217771669567E-1    4.456315760481153E-1   -2.167423383682710E-3    2.391799710026440E-3   -2.012917233128512E-3    2.565371378407535E-3    3.995243131175217E-1    3.132214694410585E-1
 8.061807844800000E9     3.650294540855491E-1    4.454089704443634E-1   -2.192314777426776E-3    2.424840011396690E-3   -2.050345090036493E-3    2.543521722678150E-3    3.994942284986283E-1    3.132460547172151E-1
 8.061809317750000E9     3.652345732245048E-1    4.453234735252846E-1   -2.186719248161849E-3    2.394177196495632E-3   -2.041334745315386E-3    2.559670737788346E-3    3.996343235122081E-1    3.132105544293779E-1
 8.061810790700000E9     3.652649773845789E-1    4.452304605702538E-1   -2.169435343206152E-3    2.426389442154973E-3   -2.023684316875064E-3    2.548825834061795E-3    3.995351875879989E-1    3.130493855876752E-1
 8.061812263650000E9     3.653080145736158E-1    4.451235098578591E-1   -2.182020963498794E-3    2.419650339898192E-3   -2.065551761631685E-3    2.570307950389439E-3    3.997582621382922E-1    3.129240822029601E-1
 8.061813736600000E9     3.654698530725800E-1    4.450384383010803E-1   -2.151021117245411E-3    2.424368460344477E-3   -2.076506400833700E-3    2.608833700781707E-3    3.996595869119817E-1    3.129209608415254E-1
 8.061815209550000E9     3.654365086041040E-1    4.448881109294219E-1   -2.184703238523688E-3    2.443675984424818E-3   -2.070537120766379E-3    2.581806322603426E-3    3.996720785714364E-1    3.127802367234380E-1
 8.061816682500000E9     3.655766888539661E-1    4.448090205624292E-1   -2.198722931023686E-3    2.459750700994973E-3   -2.087999075681522E-3    2.608581613665450E-3    3.998761513635197E-1    3.128138268654441E-1
 8.061818155450000E9     3.656767645910357E-1    4.449334836386987E-1   -2.182143007791587E-3    2.475643284724322E-3   -2.065311055127257E-3    2.566246260200411E-3    3.999525802887497E-1    3.126643019949428E-1
 8.061819628400000E9     3.657992133674449E-1    4.447020174934498E-1   -2.202442337460767E-3    2.447821383992656E-3   -2.039352990333804E-3    2.636260739596733E-3    4.000896636732917E-1    3.125961148282652E-1
 8.061821101350000E9     3.657823519803320E-1    4.447039514016011E-1   -2.180231485490930E-3    2.480495778266558E-3   -2.034254716185851E-3    2.601611857854768E-3    3.998975519390647E-1    3.126294257975620E-1
 8.061822574300000E9     3.659769726692481E-1    4.444631816805265E-1   -2.194608856507388E-3    2.451363065041989E-3   -2.056174887586000E-3    2.590567540816234E-3    4.000921692448058E-1    3.124235612010554E-1
 8.061824047250000E9     3.660862387565129E-1    4.444965343030686E-1   -2.210021479978150E-3    2.483652123223514E-3   -2.093695714254459E-3    2.610107291536207E-3    4.001453866415552E-1    3.123913810440752E-1
 8.061825520200000E9     3.661908227061453E-1    4.443653338253684E-1   -2.208931841830371E-3    2.481520204808218E-3   -2.094220098920938E-3    2.611478717230181E-3    4.000345337826667E-1    3.123859574231923E-1
 8.061826993150000E9     3.663082477563416E-1    4.441172488375049E-1   -2.214214379362390E-3    2.466879488798296E-3   -2.081688199713850E-3    2.611478586037266E-3    4.001918232802836E-1    3.121807144991980E-1
 8.061828466100000E9     3.664961606236885E-1    4.441493729451826E-1   -2.205018320117041E-3    2.505062266083301E-3   -2.069730102812682E-3    2.641403452391562E-3    4.002902006032592E-1    3.121936574999712E-1
 8.061829939050000E9     3.665589574456979E-1    4.440388772979313E-1   -2.217510342400050E-3    2.493037698104611E-3   -2.092631231244175E-3    2.670865712775296E-3    4.002609790986936E-1    3.122219249182839E-1
 8.061831412000000E9     3.666678946571437E-1    4.439621866397457E-1   -2.230838672121088E-3    2.468423689537873E-3   -2.086012873227482E-3    2.692769478874704E-3    4.003727675526348E-1    3.120215996428959E-1
 8.061832884950000E9     3.667040895611315E-1    4.439029761353476E-1   -2.194805265651642E-3    2.512007084667404E-3   -2.074767422357149E-3    2.664458326555010E-3    4.004454382691214E-1    3.119803194289234E-1
 8.061834357900000E9     3.668395578334321E-1    4.438314716924530E-1   -2.222002804287243E-3    2.536340355780898E-3   -2.081932767791741E-3    2.697011671014823E-3    4.005570842000781E-1    3.119431848202394E-1
 8.061835830850000E9     3.668640719448750E-1    4.437289310808179E-1   -2.241818842821817E-3    2.527493562642314E-3   -2.075083629809317E-3    2.686744326137937E-3    4.005396353741329E-1    3.118229099156506E-1
 8.061837303800000E9     3.670603223429252E-1    4.436320142470085E-1   -2.225111862168170E-3    2.550269710642285E-3   -2.075248360345096E-3    2.691017106509179E-3    4.005848798557646E-1    3.117998370918806E-1
 8.061838776750000E9     3.671064900914810E-1    4.434742058117299E-1   -2.247727123764824E-3    2.545406890673427E-3   -2.107159844473952E-3    2.664988892255940E-3    4.005200346924563E-1    3.116469624641923E-1
 8.061840249700000E9     3.673239048291751E-1    4.434120927627287E-1   -2.224212098320500E-3    2.541646462268294E-3   -2.117806307335462E-3    2.699984201913655E-3    4.007354636277731E-1    3.115330544988210E-1
 8.061841722650000E9     3.673558053854280E-1    4.432338245442457E-1   -2.245978486834825E-3    2.573788938181839E-3   -2.127828626841516E-3    2.721773738265057E-3    4.007238551694349E-1    3.115757875951322E-1
 8.061843195600000E9     3.674148984106955E-1    4.433023607762290E-1   -2.241634069247123E-3    2.577744150237294E-3   -2.120165320051613E-3    2.733564470340152E-3    4.007544056877668E-1    3.114662939395481E-1
 8.061844668550000E9     3.676475495336600E-1    4.431600384861660E-1   -2.247852661746699E-3    2.561188572188930E-3   -2.130775026571715E-3    2.725638642776244E-3    4.007147106038936E-1    3.114187062627197E-1
 8.061846141500000E9     3.677400902240153E-1    4.428914578643463E-1   -2.250505203639567E-3    2.573704148278877E-3   -2.117467918564165E-3    2.727388294670728E-3    4.009613696389552E-1    3.113915038334083E-1
 8.061847614450000E9     3.677323216372460E-1    4.430268167463108E-1   -2.247869392856731E-3    2.601112588223420E-3   -2.135214118994707E-3    2.784969134415532E-3    4.009768458105847E-1    3.111665568351303E-1
 8.061849087400000E9     3.679903962763084E-1    4.428028001958700E-1   -2.285085293734045E-3    2.591588813237636E-3   -2.131282226856004E-3    2.740192667843880E-3    4.009473313472887E-1    3.110847697199448E-1
 8.061850560350000E9     3.679861038910030E-1    4.428688295786370E-1   -2.260170442886429E-3    2.610838668272118E-3   -2.120543253767233E-3    2.788004034602237E-3    4.010233896721697E-1    3.109946543195775E-1
 8.061852033300000E9     3.681294130479399E-1    4.425448218483516E-1   -2.262888002385716E-3    2.622373025981865E-3   -2.148386786326850E-3    2.753535503245694E-3    4.010888563756622E-1    3.109850388214734E-1
 8.061853506250000E9     3.681833159571002E-1    4.426126945320523E-1   -2.280909476603339E-3    2.626996619051285E-3   -2.160550603850152E-3    2.772040328239109E-3    4.011481139009575E-1    3.109557269457891E-1
 8.061854979200000E9     3.682875719855772E-1    4.424659959107008E-1   -2.247383758166180E-3    2.653524820394615E-3   -2.158740472465227E-3    2.797932870009627E-3    4.012151762293962E-1    3.108674959318253E-1
 8.061856452150000E9     3.684491897609905E-1    4.424781740017383E-1   -2.291558965061206E-3    2.661316195077112E-3   -2.139656563603920E-3    2.791135746897641E-3    4.012565317054386E-1    3.107511436382955E-1
 8.061857925100000E9     3.685838395989279E-1    4.423294709111317E-1   -2.270855063122612E-3    2.651346563566035E-3   -2.125705861343438E-3    2.814633139316185E-3    4.013337457359163E-1    3.107863875798551E-1
 8.061859398050000E9     3.685622608345325E-1    4.420823598919177E-1   -2.270125867018991E-3    2.645729511849171E-3   -2.143672868407686E-3    2.828552077162483E-3    4.013859766181558E-1    3.106086030236693E-1
 8.061860871000000E9     3.687631777224081E-1    4.420674750468248E-1   -2.287510990484035E-3    2.661979267151315E-3   -2.152458707390555E-3    2.834966701050999E-3    4.014376189454030E-1    3.106081107041451E-1
 8.061862343950000E9     3.688096936514337E-1    4.419545979387851E-1   -2.269455674444280E-3    2.675986027158796E-3   -2.137553633228570E-3    2.840579783333955E-3    4.015080166061529E-1    3.104504950906080E-1
 8.061863816900000E9     3.689758974834531E-1    4.417334593174693E-1   -2.297569012456457E-3    2.692529216637951E-3   -2.163221849409740E-3    2.853604845393435E-3    4.015381698375962E-1    3.104149467278680E-1
 8.061865289850000E9     3.691016208700135E-1    4.417808385893905E-1   -2.310214970379798E-3    2.698499061935059E-3   -2.177594674195988E-3    2.854503093261589E-3    4.016429591864605E-1    3.103824488843973E-1
 8.061866762800000E9     3.691691778121319E-1    4.415106128624418E-1   -2.312703690910870E-3    2.701190961047202E-3   -2.146812800985679E-3    2.826215866701853E-3    4.016418222432413E-1    3.102501888728576E-1
 8.061868235750000E9     3.692810954151688E-1    4.414695727950919E-1   -2.337016434786369E-3    2.729326114148728E-3   -2.162415155633220E-3    2.858589775076585E-3    4.015577555525749E-1    3.101943138062435E-1
 8.061869708700000E9     3.694649433258462E-1    4.414311859453929E-1   -2.328648292148777E-3    2.708172868755872E-3   -2.202229782803832E-3    2.891397204652631E-3    4.019387915911954E-1    3.100853304666550E-1
 8.061871181650000E9     3.695406561698635E-1    4.412326355017121E-1   -2.321337078476669E-3    2.721619484014664E-3   -2.187470985522825E-3    2.888651049446113E-3    4.018391807765681E-1    3.100669708860063E-1
 8.061872654600000E9     3.696153114190560E-1    4.412485504310764E-1   -2.351009266859065E-3    2.736022995519707E-3   -2.155189834760238E-3    2.926119355864332E-3    4.018844054684431E-1    3.099526349858603E-1
 8.061874127550000E9     3.697454911240683E-1    4.410328138934344E-1   -2.329729181125860E-3    2.754929660872440E-3   -2.198731989235547E-3    2.940347511100172E-3    4.019714983294524E-1    3.098775664525033E-1
 8.061875600500000E9     3.698205884890542E-1    4.409994797228772E-1   -2.342023592343854E-3    2.744215344893458E-3   -2.194297040281822E-3    2.911040306488913E-3    4.018721544765993E-1    3.098898185121369E-1
 8.061877073450000E9     3.699231665065600E-1    4.408099045134883E-1   -2.338876736725772E-3    2.802068221160536E-3   -2.207720443652041E-3    2.938721559957017E-3    4.019972064345636E-1    3.097385242038959E-1
 8.061878546400000E9     3.700964434193031E-1    4.408015084689568E-1   -2.344990452685664E-3    2.778460123188396E-3   -2.204731973783807E-3    2.950698126463285E-3    4.020164671505798E-1    3.097601460239170E-1
 8.061880019350000E9     3.701524686901070E-1    4.406707797665017E-1   -2.328605462700079E-3    2.783659229193393E-3   -2.173973352727986E-3    2.948295982639043E-3    4.021533793130284E-1    3.095659198631044E-1
 8.061881492300000E9     3.701947738168075E-1    4.405808185123143E-1   -2.361347973947560E-3    2.819578833184819E-3   -2.242422471899973E-3    2.982436685389089E-3    4.022055387068132E-1    3.096547301549032E-1
 8.061882965250000E9     3.703629053723847E-1    4.404777009286730E-1   -2.357481329232011E-3    2.808813760092721E-3   -2.218099874182514E-3    2.984722121515950E-3    4.023754252169570E-1    3.094183754001417E-1
 8.061884438200000E9     3.704235150344627E-1    4.402767135261042E-1   -2.376864597213343E-3    2.845216891554067E-3   -2.201041590789651E-3    2.967174021577679E-3    4.023527539235416E-1    3.093498654209670E-1
 8.061885911150000E9     3.705811253968034E-1    4.401889248962758E-1   -2.345567886921614E-3    2.836812799801908E-3   -2.271685435473844E-3    3.015265959142829E-3    4.023660040463765E-1    3.092825318403590E-1
 8.061887384100000E9     3.706197890580739E-1    4.400972012546970E-1   -2.387448816726082E-3    2.845055715603007E-3   -2.308685096839419E-3    3.021187893786986E-3    4.025020828618574E-1    3.090582631133367E-1
 8.061888857050000E9     3.708901503040737E-1    4.400423571470454E-1   -2.414068475983108E-3    2.861836028842445E-3   -2.216055864119250E-3    3.023824729420742E-3    4.023727064002088E-1    3.092314238884872E-1
 8.061890330000000E9     3.708585185671344E-1    4.398450764186580E-1   -2.390869922195826E-3    2.862579175932824E-3   -2.263875415226070E-3    3.055751331139126E-3    4.025713685617545E-1    3.091368985127536E-1
 8.061891802950000E9     3.710863166272280E-1    4.398105184146527E-1   -2.381690832970761E-3    2.873140216565710E-3   -2.232544495293272E-3    3.024673116831293E-3    4.026277574286989E-1    3.088889824633350E-1
 8.061893275900000E9     3.711688333782870E-1    4.396941478042636E-1   -2.403465858599277E-3    2.886871744688098E-3   -2.263514818942341E-3    3.085088832718188E-3    4.026614990092809E-1    3.090312589604100E-1
 8.061894748850000E9     3.711859216615952E-1    4.394160795566827E-1   -2.420240781548780E-3    2.905664978252066E-3   -2.252595572197499E-3    3.101523325354836E-3    4.027878582998020E-1    3.087211215109784E-1
 8.061896221800000E9     3.714454914839164E-1    4.393572623086122E-1   -2.408493542308755E-3    2.895822213996012E-3   -2.237952724648211E-3    3.091160439169597E-3    4.027670809339671E-1    3.087891983303115E-1
 8.061897694750000E9     3.715269792205339E-1    4.392626124807490E-1   -2.423948250773844E-3    2.924548810675408E-3   -2.238009083279297E-3    3.104868792562956E-3    4.028468635491740E-1    3.087093950739255E-1
 8.061899167700000E9     3.717934808360557E-1    4.391803691205424E-1   -2.417631296662741E-3    2.958096729089980E-3   -2.243832411499313E-3    3.117606665685217E-3    4.028205596462385E-1    3.084770765081864E-1
 8.061900640650000E9     3.719797934321517E-1    4.390167954220123E-1   -2.433342118882009E-3    2.971532334381421E-3   -2.299000065552620E-3    3.146425492295636E-3    4.029579884826056E-1    3.085320911973839E-1
 8.061902113600000E9     3.719157875908191E-1    4.389001747354677E-1   -2.443658923035038E-3    2.970942218349255E-3   -2.252439695331059E-3    3.114943942254410E-3    4.029259027234192E-1    3.085510688763136E-1
 8.061903586550000E9     3.720350350450777E-1    4.388080710928670E-1   -2.452987646261292E-3    2.995861978571695E-3   -2.280889979763710E-3    3.158015843767696E-3    4.029371479004052E-1    3.087507789831725E-1
 8.061905059500000E9     3.720961645343133E-1    4.388155175900090E-1   -2.459969291417611E-3    2.990894766374102E-3   -2.297439581395190E-3    3.179380661614231E-3    4.029789710952209E-1    3.085423600279575E-1
