#  HZ   S   RI   R     50.00 
! Rohde & Schwarz Vector Network Analyzer 
! Rohde-Schwarz,ZNB20-2Port,1311601062101988,3.16
! Created: UTC 3/20/2024, 11:04:37 PM
! freq[Hz]                re:S11                  im:S11                  re:S21                  im:S21                  re:S12                  im:S12                  re:S22                  im:S22
 8.061758363000000E9     3.616215197814479E-1    4.482648497583369E-1   -2.118692232570968E-3    2.237637079656206E-3   -2.019590356728521E-3    2.397675308193011E-3    4.009962365781625E-1    3.227006399483929E-1
 8.061759891350000E9     3.616840777033150E-1    4.482053599609060E-1   -2.122499317891397E-3    2.236539503850930E-3   -1.963620294026317E-3    2.392337533342990E-3    4.009959357264461E-1    3.225179950814660E-1
 8.061761419700000E9     3.619322565919726E-1    4.479786885514817E-1   -2.124328346898056E-3    2.245228238391533E-3   -1.974483444608903E-3    2.430025253840511E-3    4.011396364718397E-1    3.225791345531606E-1
 8.061762948050000E9     3.620840579022448E-1    4.479607142629718E-1   -2.120855791791641E-3    2.264300729364965E-3   -1.982643723794712E-3    2.395040595023329E-3    4.010825985022559E-1    3.222588511268514E-1
 8.061764476400000E9     3.621202276878099E-1    4.479161902793496E-1   -2.134489916780377E-3    2.269985869279854E-3   -2.024801551414269E-3    2.393013585477041E-3    4.011677018154339E-1    3.223801843694000E-1
 8.061766004750000E9     3.622589211465833E-1    4.478125964910957E-1   -2.131318936463698E-3    2.294426623998049E-3   -2.041455419442597E-3    2.428818333279694E-3    4.012042247593855E-1    3.222853208114506E-1
 8.061767533100000E9     3.622435690705968E-1    4.476964244183544E-1   -2.133902451397622E-3    2.279423807046967E-3   -2.000410410959939E-3    2.484906246635024E-3    4.012503627530032E-1    3.222639562557593E-1
 8.061769061450000E9     3.624038682130034E-1    4.476144919712762E-1   -2.116629715977236E-3    2.293411234354728E-3   -2.012648849909927E-3    2.386796066140649E-3    4.013977581410063E-1    3.220614979185209E-1
 8.061770589800000E9     3.626067662814514E-1    4.473910660915699E-1   -2.130082321281646E-3    2.252115808429362E-3   -2.010899620869127E-3    2.414508336966427E-3    4.014788041936716E-1    3.220598111621805E-1
 8.061772118150000E9     3.626443140263604E-1    4.474196513913448E-1   -2.137346994940026E-3    2.282370385667945E-3   -2.005688767291223E-3    2.438636358712277E-3    4.015862167328319E-1    3.219693497850488E-1
 8.061773646500000E9     3.627787458222216E-1    4.473723606441574E-1   -2.100737944028599E-3    2.301673241891354E-3   -1.989508696088623E-3    2.440497828659995E-3    4.014304157669329E-1    3.219398503074727E-1
 8.061775174850000E9     3.627942591752936E-1    4.472132335153436E-1   -2.143709602801308E-3    2.301316690658690E-3   -2.023998925384349E-3    2.460487397270468E-3    4.016578814934053E-1    3.218671039152845E-1
 8.061776703200000E9     3.629277952623040E-1    4.472460013003343E-1   -2.156828269544617E-3    2.300376155228299E-3   -2.014000740502559E-3    2.459880842111205E-3    4.016505665747770E-1    3.218306051707813E-1
 8.061778231550000E9     3.631300664371071E-1    4.470689172244507E-1   -2.142861159014951E-3    2.327249829149313E-3   -1.999651708133967E-3    2.462975209332917E-3    4.017004891030073E-1    3.217186317849912E-1
 8.061779759900000E9     3.631362102995760E-1    4.469763421891593E-1   -2.148232323469395E-3    2.306996473292684E-3   -2.032235393878336E-3    2.467633588923655E-3    4.018244827846159E-1    3.216713146133307E-1
 8.061781288250000E9     3.632328510359333E-1    4.468219082413323E-1   -2.149782976216620E-3    2.327058668328147E-3   -2.008694801913847E-3    2.460257780693002E-3    4.018399641051144E-1    3.214761619511772E-1
 8.061782816600000E9     3.633460602452557E-1    4.468991340627009E-1   -2.167803009915786E-3    2.342333099124046E-3   -2.051734217791321E-3    2.459184648915700E-3    4.019983813099763E-1    3.215777042167533E-1
 8.061784344950000E9     3.634835701826308E-1    4.467315539464102E-1   -2.172392695335994E-3    2.317312981168859E-3   -2.036271488911240E-3    2.437769536082312E-3    4.019028090771811E-1    3.214521505626123E-1
 8.061785873300000E9     3.636748263095677E-1    4.466847990157920E-1   -2.158101546344535E-3    2.333646386856867E-3   -2.040787798436609E-3    2.474065668091138E-3    4.021576408330780E-1    3.213483449420161E-1
 8.061787401650000E9     3.637539972185118E-1    4.464914703053349E-1   -2.182093100390534E-3    2.322842387465429E-3   -2.005951306026553E-3    2.518555315136005E-3    4.020310601187963E-1    3.213608041965726E-1
 8.061788930000000E9     3.637789889114878E-1    4.464607462697774E-1   -2.173145422972121E-3    2.349242874422080E-3   -2.032157399670225E-3    2.477553245869345E-3    4.021376573619642E-1    3.213058327176195E-1
 8.061790458350000E9     3.640557526236378E-1    4.465413471902166E-1   -2.161616648713068E-3    2.343169451270391E-3   -2.025824914866969E-3    2.494822009593379E-3    4.023524013456821E-1    3.210937340272804E-1
 8.061791986700000E9     3.639601521099177E-1    4.461967957404231E-1   -2.196522601821932E-3    2.352098191176039E-3   -2.027008086125128E-3    2.478786072072400E-3    4.022741746881888E-1    3.210550541094968E-1
 8.061793515050000E9     3.640940311573992E-1    4.461015103403079E-1   -2.167209874844067E-3    2.348408652366530E-3   -2.049823608160331E-3    2.503778745885546E-3    4.022540338820313E-1    3.210679896065685E-1
 8.061795043400000E9     3.642602857690994E-1    4.460026885720637E-1   -2.182815636085050E-3    2.358023444879918E-3   -2.085430665166395E-3    2.554460880190851E-3    4.024076257553231E-1    3.210048942344062E-1
 8.061796571750000E9     3.641876685803729E-1    4.459666670496478E-1   -2.199884198209987E-3    2.379705244476409E-3   -2.061998575011322E-3    2.538326513714171E-3    4.023238863497948E-1    3.207754601369672E-1
 8.061798100100000E9     3.644974219754238E-1    4.458937516533624E-1   -2.181889472331486E-3    2.384671863126561E-3   -2.026575955079487E-3    2.500430346510970E-3    4.025076832220122E-1    3.207137353984549E-1
 8.061799628450000E9     3.644217583510455E-1    4.458395174155520E-1   -2.190011287738252E-3    2.390041315520650E-3   -2.044391012696739E-3    2.506308186850634E-3    4.025278264050080E-1    3.205691602128992E-1
 8.061801156800000E9     3.646779675270092E-1    4.458017779524652E-1   -2.205373760601051E-3    2.382357234807622E-3   -2.044270627058533E-3    2.572816197153883E-3    4.024792397245107E-1    3.205491699967317E-1
 8.061802685150000E9     3.646297134687338E-1    4.455787571706230E-1   -2.234233668757330E-3    2.380991531622094E-3   -2.083283880683186E-3    2.575784380024421E-3    4.026266194938873E-1    3.205704540242393E-1
 8.061804213500000E9     3.648149581517792E-1    4.456178587253628E-1   -2.217367827250897E-3    2.395961893114016E-3   -2.043693400631773E-3    2.565215859413270E-3    4.026918391625471E-1    3.204802650308876E-1
 8.061805741850000E9     3.648900038413211E-1    4.454645163383529E-1   -2.213948742569415E-3    2.411425741460555E-3   -2.100761388838709E-3    2.587973087272376E-3    4.027503080986052E-1    3.202660246441849E-1
 8.061807270200000E9     3.650172261159735E-1    4.453515767457992E-1   -2.205383583103922E-3    2.433287051335913E-3   -2.067329182573468E-3    2.567909953821477E-3    4.027175832549353E-1    3.202619845225007E-1
 8.061808798550000E9     3.650948329332434E-1    4.453871373094024E-1   -2.192884739848126E-3    2.414510286951880E-3   -2.082165827345186E-3    2.569687799523360E-3    4.029929131124901E-1    3.201198577581883E-1
 8.061810326900000E9     3.652405648854032E-1    4.451562187461217E-1   -2.192337097972361E-3    2.409667469239232E-3   -2.098065989806493E-3    2.557427483825743E-3    4.028597304842204E-1    3.200036005257602E-1
 8.061811855250000E9     3.654170529505357E-1    4.451540553527010E-1   -2.218575415199681E-3    2.432644424065114E-3   -2.092032971388194E-3    2.589774854773374E-3    4.028540032846664E-1    3.200485987849432E-1
 8.061813383600000E9     3.654923560576676E-1    4.448973831021512E-1   -2.210310060779808E-3    2.458739479523935E-3   -2.108617325263107E-3    2.627523463804493E-3    4.030676416364486E-1    3.199884402156357E-1
 8.061814911950000E9     3.655963041434370E-1    4.449358584252991E-1   -2.206822719458956E-3    2.450810282282503E-3   -2.103981314839971E-3    2.581322823330610E-3    4.031469804763276E-1    3.198900880362537E-1
 8.061816440300000E9     3.656907589784923E-1    4.448498615022732E-1   -2.220958322047948E-3    2.434134126698422E-3   -2.097231640240573E-3    2.618164133362480E-3    4.031823677072582E-1    3.198060554711327E-1
 8.061817968650000E9     3.657527040083823E-1    4.447278794364408E-1   -2.233841826637912E-3    2.441837479008067E-3   -2.093909690830312E-3    2.619369256631784E-3    4.031572246443732E-1    3.195953294004255E-1
 8.061819497000000E9     3.658032660662653E-1    4.445688246534028E-1   -2.224112947907602E-3    2.462282819102509E-3   -2.103796751055552E-3    2.610845749249931E-3    4.032592077478711E-1    3.194664171102529E-1
 8.061821025350000E9     3.659250014756849E-1    4.445712546478613E-1   -2.221238258121539E-3    2.462905523699166E-3   -2.083738556609793E-3    2.604206816549308E-3    4.033640582654756E-1    3.195761756541629E-1
 8.061822553700000E9     3.661720595854581E-1    4.445113545956422E-1   -2.246186830017463E-3    2.459047888714874E-3   -2.099326460275199E-3    2.643511492095478E-3    4.033643406247841E-1    3.194484312284775E-1
 8.061824082050000E9     3.661640702799134E-1    4.443569385171069E-1   -2.233703162105982E-3    2.464659101196306E-3   -2.092657245298811E-3    2.634218225472327E-3    4.033995617253423E-1    3.194374371021713E-1
 8.061825610400000E9     3.664025711788405E-1    4.444104409445095E-1   -2.252046752996442E-3    2.484881050900431E-3   -2.110494241650138E-3    2.669533950856207E-3    4.034919180715048E-1    3.193506676382811E-1
 8.061827138750000E9     3.662932658257725E-1    4.442009778522773E-1   -2.231462996103238E-3    2.503480299476969E-3   -2.108363766745894E-3    2.679725933381384E-3    4.035689011534817E-1    3.191394204134418E-1
 8.061828667100000E9     3.665601079626345E-1    4.439838708474722E-1   -2.252077807645356E-3    2.518600756007344E-3   -2.112685650505863E-3    2.661443094541375E-3    4.035759820162327E-1    3.191350966226885E-1
 8.061830195450000E9     3.666719805977647E-1    4.439216445092433E-1   -2.241159320560775E-3    2.505543868361635E-3   -2.122554254104833E-3    2.678271622797582E-3    4.036551439599441E-1    3.192146990739537E-1
 8.061831723800000E9     3.667008483229063E-1    4.438710982520144E-1   -2.265485952947950E-3    2.525126273840664E-3   -2.112332706827772E-3    2.657691308513598E-3    4.037662942064661E-1    3.189567002986086E-1
 8.061833252150000E9     3.667831751884497E-1    4.439352673074090E-1   -2.255080271518401E-3    2.531613898925305E-3   -2.171244259105688E-3    2.675515155645823E-3    4.037580466976597E-1    3.189443575419694E-1
 8.061834780500000E9     3.669737234505611E-1    4.437335492607736E-1   -2.281705656843549E-3    2.518776170259932E-3   -2.122106942284299E-3    2.683478663638918E-3    4.038843357288693E-1    3.189108356696133E-1
 8.061836308850000E9     3.669936377499026E-1    4.436163963653409E-1   -2.258018110810304E-3    2.556301050779387E-3   -2.159566235883312E-3    2.689153283994868E-3    4.038990098621560E-1    3.186534975485194E-1
 8.061837837200000E9     3.671826765848903E-1    4.435443724843994E-1   -2.275539429868560E-3    2.539348829596814E-3   -2.138797088389697E-3    2.686550578157985E-3    4.039884471452242E-1    3.187049271548004E-1
 8.061839365550000E9     3.673016911348851E-1    4.434533527799012E-1   -2.260196345780111E-3    2.559865034859461E-3   -2.126594094575146E-3    2.705990128778727E-3    4.039600829349041E-1    3.186336423825346E-1
 8.061840893900000E9     3.675226418245998E-1    4.433422019744704E-1   -2.253465971767957E-3    2.569963687402912E-3   -2.146507398189227E-3    2.711669432903342E-3    4.040964099976203E-1    3.187273182678075E-1
 8.061842422250000E9     3.675657576005442E-1    4.431484093419288E-1   -2.274683086850103E-3    2.580845637732217E-3   -2.149971648464066E-3    2.695761395692615E-3    4.040437495091545E-1    3.185287634157219E-1
 8.061843950600000E9     3.676341599088666E-1    4.431686338738782E-1   -2.281375563469835E-3    2.566333381228776E-3   -2.156544047260598E-3    2.752246400842684E-3    4.041375015687113E-1    3.183858584030924E-1
 8.061845478950000E9     3.677492174804127E-1    4.429706656106700E-1   -2.294880213989775E-3    2.567050314509882E-3   -2.161393072437574E-3    2.762539975971150E-3    4.044015673515128E-1    3.184620168441933E-1
 8.061847007300000E9     3.677937771817925E-1    4.429957252062586E-1   -2.252792638296503E-3    2.577317623440844E-3   -2.129534120923821E-3    2.765143333491707E-3    4.044328536303240E-1    3.182642374004738E-1
 8.061848535650000E9     3.679765221885160E-1    4.427583686539835E-1   -2.292646738873300E-3    2.598385376427615E-3   -2.131171131133623E-3    2.755907148360752E-3    4.043926749252855E-1    3.181879208622956E-1
 8.061850064000000E9     3.679862845782726E-1    4.426315538938007E-1   -2.305786979814827E-3    2.625876830947095E-3   -2.159904365036087E-3    2.780625759807127E-3    4.044373657925009E-1    3.181600212013651E-1
 8.061851592350000E9     3.680664886691887E-1    4.426497547239419E-1   -2.300063763333384E-3    2.604670812495615E-3   -2.178323565016016E-3    2.775160918760208E-3    4.043307527167903E-1    3.179460400579095E-1
 8.061853120700000E9     3.682778879194796E-1    4.425887862180662E-1   -2.297403673069725E-3    2.651555330639535E-3   -2.196096768811667E-3    2.770912933930509E-3    4.044942417183696E-1    3.179802936784068E-1
 8.061854649050000E9     3.684080335933542E-1    4.423799238893923E-1   -2.307228138554644E-3    2.627001680820651E-3   -2.175207510180932E-3    2.806570327711192E-3    4.046351690288144E-1    3.179476399450121E-1
 8.061856177400000E9     3.685431683160471E-1    4.423140413393046E-1   -2.315388364949866E-3    2.656713940280003E-3   -2.204060317602638E-3    2.813244182353332E-3    4.047390149791180E-1    3.177664743988392E-1
 8.061857705750000E9     3.686649369908730E-1    4.421999657250930E-1   -2.325917690752808E-3    2.651667443804857E-3   -2.166201356456112E-3    2.809754602410919E-3    4.047359827501676E-1    3.176467709074675E-1
 8.061859234100000E9     3.687835648102741E-1    4.421060503123932E-1   -2.333251113340843E-3    2.671774188399641E-3   -2.180938156490510E-3    2.833412570360301E-3    4.047540190958508E-1    3.177770967435301E-1
 8.061860762450000E9     3.688432466285385E-1    4.421163492196686E-1   -2.347788277405639E-3    2.653138792274219E-3   -2.179982871359735E-3    2.820641275161003E-3    4.049491989076024E-1    3.175632593748260E-1
 8.061862290800000E9     3.688277044177233E-1    4.418751219906984E-1   -2.329356744610813E-3    2.694061270304715E-3   -2.180657707786921E-3    2.823948592599380E-3    4.049405895008149E-1    3.174270696864707E-1
 8.061863819150000E9     3.691289031617975E-1    4.418610928551737E-1   -2.342035802409854E-3    2.699856528316340E-3   -2.249737900169987E-3    2.858290350168683E-3    4.048493967548358E-1    3.173898864772955E-1
 8.061865347500000E9     3.691506410098687E-1    4.417678579334836E-1   -2.342653829441235E-3    2.697120996988798E-3   -2.258591884582701E-3    2.863130183125308E-3    4.049636970351979E-1    3.173618295276667E-1
 8.061866875850000E9     3.692722221854644E-1    4.416023931976057E-1   -2.337047390077240E-3    2.728718815452039E-3   -2.162062279422445E-3    2.903470505795024E-3    4.050991821178649E-1    3.171961262291466E-1
 8.061868404200000E9     3.694313891292917E-1    4.414516142871376E-1   -2.348583954292600E-3    2.731965411537136E-3   -2.216099273560169E-3    2.929120008338746E-3    4.051260780569725E-1    3.171255698525267E-1
 8.061869932550000E9     3.695507194240769E-1    4.413298740662221E-1   -2.354932111798506E-3    2.735386238661114E-3   -2.221864258653257E-3    2.875623685590372E-3    4.052211039827440E-1    3.170737728074631E-1
 8.061871460900000E9     3.696776186765103E-1    4.412099684679144E-1   -2.372367941931446E-3    2.747606756957789E-3   -2.218374696119739E-3    2.876024850281127E-3    4.052550759557846E-1    3.171018504983014E-1
 8.061872989250000E9     3.697667519544560E-1    4.412381298601979E-1   -2.336245953287698E-3    2.771890633620929E-3   -2.200624882463182E-3    2.939228178560496E-3    4.053538775808448E-1    3.169250601155205E-1
 8.061874517600000E9     3.698447319662418E-1    4.409662697114369E-1   -2.360095067031772E-3    2.776803378754296E-3   -2.268677632252314E-3    2.937249922131344E-3    4.054567665955819E-1    3.168721652808918E-1
 8.061876045950000E9     3.700107104513198E-1    4.409261410415927E-1   -2.377052028616880E-3    2.791058367245566E-3   -2.233230878173652E-3    2.959547955844348E-3    4.054728934902696E-1    3.166920624864114E-1
 8.061877574300000E9     3.701356268403834E-1    4.408407701239844E-1   -2.408567950470787E-3    2.794573654299736E-3   -2.224583931423834E-3    2.929477741283495E-3    4.054228742383867E-1    3.168178444388124E-1
 8.061879102650000E9     3.701872948424333E-1    4.406254642618139E-1   -2.413735885950893E-3    2.789441208053274E-3   -2.242808582947526E-3    2.983880780711838E-3    4.055472691137418E-1    3.166982234514961E-1
 8.061880631000000E9     3.703340624154592E-1    4.405395895109901E-1   -2.384860643889504E-3    2.820786149696361E-3   -2.235363506795602E-3    3.015572005120411E-3    4.056180073709494E-1    3.165598767820084E-1
 8.061882159350000E9     3.703958555847037E-1    4.404284472608665E-1   -2.399470142739197E-3    2.817261446431485E-3   -2.264717003678141E-3    3.027304524898628E-3    4.055321721979136E-1    3.165432293132602E-1
 8.061883687700000E9     3.705361271438837E-1    4.403726089215142E-1   -2.424629301429343E-3    2.839518069411955E-3   -2.236619956795467E-3    3.012501772299077E-3    4.057378963569790E-1    3.164273744430959E-1
 8.061885216050000E9     3.707788469248423E-1    4.401206130061590E-1   -2.427407414674699E-3    2.863119377626839E-3   -2.283163472188794E-3    3.000290983718434E-3    4.057196740279719E-1    3.164008315413823E-1
 8.061886744400000E9     3.707391314226158E-1    4.399789855786688E-1   -2.433835968126366E-3    2.856176697186998E-3   -2.253264968085827E-3    3.054198279641384E-3    4.059963241536720E-1    3.161271021678395E-1
 8.061888272750000E9     3.708950319347735E-1    4.400250913030453E-1   -2.436810437751224E-3    2.851495272847647E-3   -2.292438079066790E-3    3.046595461300284E-3    4.059173902897845E-1    3.161865300218094E-1
 8.061889801100000E9     3.708674346401938E-1    4.397914048343454E-1   -2.444918100091560E-3    2.893805373854363E-3   -2.276473002736180E-3    3.054507872527979E-3    4.059673014743646E-1    3.161062230951348E-1
 8.061891329450000E9     3.711444663088928E-1    4.396806080238183E-1   -2.444042016444791E-3    2.889684836323378E-3   -2.295050804944480E-3    3.082790626363143E-3    4.059669817164440E-1    3.159857621312657E-1
 8.061892857800000E9     3.712084767435940E-1    4.396425495670599E-1   -2.442327237978392E-3    2.900786532344013E-3   -2.279620079488018E-3    3.078471519620687E-3    4.060369809258526E-1    3.159132457964036E-1
 8.061894386150000E9     3.714337694676674E-1    4.395049468893834E-1   -2.431483651615135E-3    2.912059253109342E-3   -2.288618528349445E-3    3.122640372127578E-3    4.061000642812379E-1    3.158345205027002E-1
 8.061895914500000E9     3.715818629843674E-1    4.393354277580854E-1   -2.461225774886434E-3    2.937886484003645E-3   -2.298026013422089E-3    3.114521578823504E-3    4.061903974447632E-1    3.156499776670562E-1
