#  HZ   S   RI   R     50.00 
! Rohde & Schwarz Vector Network Analyzer 
! Rohde-Schwarz,ZNB20-2Port,1311601062101988,3.16
! Created: UTC 3/20/2024, 11:04:51 PM
! freq[Hz]                re:S11                  im:S11                  re:S21                  im:S21                  re:S12                  im:S12                  re:S22                  im:S22
 8.061752955000000E9     3.614358954128562E-1    4.485245060324229E-1   -2.103718009817770E-3    2.242467788928472E-3   -1.970331618491518E-3    2.346656123178835E-3    4.012468415240123E-1    3.252102105662072E-1
 8.061754494075000E9     3.614745407293134E-1    4.483583582420894E-1   -2.118636300858672E-3    2.228604516650739E-3   -1.983115002802582E-3    2.388165461982376E-3    4.012447384480626E-1    3.251625646153041E-1
 8.061756033150000E9     3.615139338119507E-1    4.482838050295265E-1   -2.116385741039910E-3    2.254552403704254E-3   -1.990058109479707E-3    2.407743740425171E-3    4.012454856563030E-1    3.249355786053165E-1
 8.061757572225000E9     3.616445060334380E-1    4.482256187809734E-1   -2.118712902101030E-3    2.263180140465345E-3   -2.009961265634632E-3    2.403662188567077E-3    4.012958350489733E-1    3.247627566556545E-1
 8.061759111300000E9     3.618740438419488E-1    4.481051450372424E-1   -2.117299541516116E-3    2.227398744646614E-3   -2.021138175794592E-3    2.389990972483277E-3    4.013564848288318E-1    3.249164167926107E-1
 8.061760650375000E9     3.619829289870955E-1    4.480652336100714E-1   -2.120146922822536E-3    2.252032810898081E-3   -1.973848851770228E-3    2.395147359920397E-3    4.015229977469616E-1    3.248002580057845E-1
 8.061762189450000E9     3.620640443587338E-1    4.479516852770800E-1   -2.134161945202006E-3    2.261106057526018E-3   -2.016518732078026E-3    2.412000962160252E-3    4.016026807332634E-1    3.248023486416408E-1
 8.061763728525000E9     3.621660326050419E-1    4.478346767155864E-1   -2.131966506891398E-3    2.254917856064408E-3   -1.987450975531547E-3    2.430546865219307E-3    4.015678753076896E-1    3.246462368604959E-1
 8.061765267600000E9     3.621006169177702E-1    4.478391339595552E-1   -2.139593381901170E-3    2.287446995307833E-3   -2.021238473768192E-3    2.422062344877316E-3    4.015740182866711E-1    3.246185618516798E-1
 8.061766806675000E9     3.622219829627509E-1    4.476265985609944E-1   -2.135091015720912E-3    2.284477011956412E-3   -2.049866393835493E-3    2.435008064964229E-3    4.016451639002326E-1    3.245385572551288E-1
 8.061768345750000E9     3.624591471588088E-1    4.476408263689252E-1   -2.134959327889545E-3    2.286695558834018E-3   -2.008880066024104E-3    2.446011860802780E-3    4.017485942623047E-1    3.244889969498263E-1
 8.061769884825000E9     3.624712491084897E-1    4.474832872370291E-1   -2.155262915793977E-3    2.263779036599807E-3   -2.016219559334297E-3    2.421986379321835E-3    4.018623710358643E-1    3.244061035384231E-1
 8.061771423900000E9     3.626623964852971E-1    4.474251957051590E-1   -2.169326018603655E-3    2.287955921940493E-3   -2.043293921371048E-3    2.405135904529669E-3    4.019374182483322E-1    3.242995851572723E-1
 8.061772962975000E9     3.626753969733678E-1    4.472949566367933E-1   -2.147552817800753E-3    2.296446047751880E-3   -2.025627982912021E-3    2.438916327733747E-3    4.020456055307828E-1    3.241537874575106E-1
 8.061774502050000E9     3.627967200790317E-1    4.472764824836490E-1   -2.157521677120371E-3    2.316525776288164E-3   -2.011770711784479E-3    2.463286064705885E-3    4.019635620691612E-1    3.240232353868235E-1
 8.061776041125000E9     3.629741036404268E-1    4.470999149088299E-1   -2.155665001015793E-3    2.314662727476968E-3   -2.034719435587991E-3    2.462895682980601E-3    4.020690658618964E-1    3.240099547310074E-1
 8.061777580200000E9     3.631466725382597E-1    4.470353382805528E-1   -2.154332372336685E-3    2.294898766151528E-3   -2.040959697671277E-3    2.454682194298899E-3    4.021001469562455E-1    3.239497610671624E-1
 8.061779119275000E9     3.632036521865322E-1    4.469455206410346E-1   -2.162956955191186E-3    2.316680624642667E-3   -2.040811673391207E-3    2.462940531668615E-3    4.021838323031659E-1    3.238275745052189E-1
 8.061780658350000E9     3.632370651990539E-1    4.468787831689446E-1   -2.190457218778617E-3    2.359716465520400E-3   -2.009471454152100E-3    2.466981023863090E-3    4.023858949691976E-1    3.239463972043745E-1
 8.061782197425000E9     3.633141526576094E-1    4.468059647843279E-1   -2.188451776545669E-3    2.348891495551492E-3   -2.047786433097095E-3    2.496375926375105E-3    4.022075431087503E-1    3.236582231665578E-1
 8.061783736500000E9     3.634835278033768E-1    4.467202081609525E-1   -2.176714147318604E-3    2.353128888787913E-3   -2.025207210600938E-3    2.490603148846921E-3    4.024611339844392E-1    3.236555201896403E-1
 8.061785275575000E9     3.635771361328587E-1    4.466253317932507E-1   -2.170420120068266E-3    2.337497339117453E-3   -2.031011207428620E-3    2.475033914216598E-3    4.024374288441332E-1    3.236471997352154E-1
 8.061786814650000E9     3.636672241158244E-1    4.465597414863944E-1   -2.171134240559524E-3    2.361805552842785E-3   -2.045406818306440E-3    2.476442958585145E-3    4.025333852932365E-1    3.234997072672939E-1
 8.061788353725000E9     3.638054987157971E-1    4.464753290120008E-1   -2.174029939162356E-3    2.354164006902110E-3   -2.065393815445025E-3    2.480897085511980E-3    4.027140205925396E-1    3.233504170533001E-1
 8.061789892800000E9     3.638931408447771E-1    4.463126920736722E-1   -2.167721114891984E-3    2.368934356450618E-3   -2.044623732428104E-3    2.518044649147711E-3    4.025329754530254E-1    3.233160607707760E-1
 8.061791431875000E9     3.640733665028438E-1    4.462581220062741E-1   -2.170894162895469E-3    2.376442969725758E-3   -2.029366132225824E-3    2.494958349457036E-3    4.026702626956044E-1    3.233304137551716E-1
 8.061792970950000E9     3.640005538567435E-1    4.462039543028866E-1   -2.173538612278767E-3    2.373851485223733E-3   -2.082105464097248E-3    2.529799853657475E-3    4.027642115268418E-1    3.231625766515781E-1
 8.061794510025000E9     3.642329911975648E-1    4.460065293129700E-1   -2.193752543197724E-3    2.348025979919570E-3   -2.061690824289496E-3    2.537273689025805E-3    4.027010871822834E-1    3.231051679195991E-1
 8.061796049100000E9     3.643174488191709E-1    4.459730484984207E-1   -2.186912379348946E-3    2.360773180142373E-3   -2.071592892840558E-3    2.529146827742740E-3    4.028591154062287E-1    3.230765131878681E-1
 8.061797588175000E9     3.644650782488869E-1    4.459187619130464E-1   -2.195990879721737E-3    2.375019120421542E-3   -2.050377487881018E-3    2.538481868451140E-3    4.028857409188183E-1    3.228887788214045E-1
 8.061799127250000E9     3.646135442886931E-1    4.457500791720895E-1   -2.197065941336899E-3    2.394217917390258E-3   -2.087600361943445E-3    2.542102924338571E-3    4.030336079603303E-1    3.229243797671744E-1
 8.061800666325000E9     3.647324221144013E-1    4.457365216264057E-1   -2.149768022400975E-3    2.392542264623670E-3   -2.082838217759573E-3    2.524962635242833E-3    4.030667700923129E-1    3.227370846924540E-1
 8.061802205400000E9     3.646709301949513E-1    4.456765166322496E-1   -2.200548670098032E-3    2.390531234424603E-3   -2.118188479254320E-3    2.531094077516770E-3    4.029921312520518E-1    3.227125596613108E-1
 8.061803744475000E9     3.647807032409247E-1    4.455046044946507E-1   -2.182526235851026E-3    2.403449385664247E-3   -2.078983240107921E-3    2.545690424570045E-3    4.031255868444852E-1    3.226966802182727E-1
 8.061805283550000E9     3.649509416129001E-1    4.454940159269559E-1   -2.193897463918866E-3    2.432751261344665E-3   -2.082243790220513E-3    2.555057089677206E-3    4.031834860755422E-1    3.225941587058986E-1
 8.061806822625000E9     3.651082589430583E-1    4.454564619790046E-1   -2.205950014697383E-3    2.416986078675440E-3   -2.070654965651885E-3    2.576107403141277E-3    4.032468872819115E-1    3.224422177445844E-1
 8.061808361700000E9     3.651180078789743E-1    4.452093976462677E-1   -2.201408770532603E-3    2.429554654695492E-3   -2.125729814590038E-3    2.578214061905302E-3    4.033368803182605E-1    3.224401811112960E-1
 8.061809900775000E9     3.650834823806673E-1    4.451260867280687E-1   -2.226627005872541E-3    2.444117963285151E-3   -2.104561440244077E-3    2.567577722800034E-3    4.034446804613180E-1    3.221830401064879E-1
 8.061811439850000E9     3.654078140861995E-1    4.450461619997371E-1   -2.247051370248560E-3    2.448870352898220E-3   -2.130258461226262E-3    2.563476477085961E-3    4.034658020562736E-1    3.222773948518048E-1
 8.061812978925000E9     3.654143661823320E-1    4.449657793125021E-1   -2.216573774646481E-3    2.436464483727470E-3   -2.093322113504411E-3    2.585322184284098E-3    4.034179665962512E-1    3.221495028794569E-1
 8.061814518000000E9     3.655631477469668E-1    4.448106411386767E-1   -2.246719416055914E-3    2.450979207211804E-3   -2.064382566344457E-3    2.600423986462673E-3    4.035589919956282E-1    3.219915890631082E-1
 8.061816057075000E9     3.656938490162419E-1    4.446504634573452E-1   -2.209972483274421E-3    2.466313598196393E-3   -2.113078459399857E-3    2.653927044137309E-3    4.036825364776782E-1    3.219864693479382E-1
 8.061817596150000E9     3.658949423995848E-1    4.446700293319904E-1   -2.240479396289021E-3    2.466527006774619E-3   -2.088707835050811E-3    2.609402400499962E-3    4.037969771622096E-1    3.219055315760981E-1
 8.061819135225000E9     3.659634193071552E-1    4.445107652580265E-1   -2.239366376882430E-3    2.470523426822668E-3   -2.141351978959231E-3    2.625848386451924E-3    4.036847730727687E-1    3.218314225100649E-1
 8.061820674300000E9     3.660578557617716E-1    4.445261960672836E-1   -2.254080712792180E-3    2.492136630424586E-3   -2.104277375052225E-3    2.618889036896679E-3    4.037105122027114E-1    3.217263165663424E-1
 8.061822213375000E9     3.661424548507959E-1    4.444682676715053E-1   -2.248684833542316E-3    2.483671919449809E-3   -2.141380108372865E-3    2.648160133971665E-3    4.038602736994413E-1    3.217165567122611E-1
 8.061823752450000E9     3.662630801039763E-1    4.442764859535240E-1   -2.248280960829706E-3    2.477633933880706E-3   -2.093568324863300E-3    2.678107743536593E-3    4.038112154592410E-1    3.217111568746160E-1
 8.061825291525000E9     3.664823514963352E-1    4.442072747102137E-1   -2.256784703736443E-3    2.479081941837319E-3   -2.109098187943739E-3    2.683429628962999E-3    4.040412105853937E-1    3.215538848676503E-1
 8.061826830600000E9     3.664969366990500E-1    4.442286097139613E-1   -2.270021815012659E-3    2.509951895861172E-3   -2.154539936875400E-3    2.647025804176977E-3    4.040079497744058E-1    3.214262754816799E-1
 8.061828369675000E9     3.665581925517109E-1    4.438793409646319E-1   -2.259580531387423E-3    2.480881352057447E-3   -2.152246667826585E-3    2.695163143340213E-3    4.040994440615422E-1    3.214142153895088E-1
 8.061829908750000E9     3.666424372228063E-1    4.439090253194926E-1   -2.286473298380536E-3    2.519106964362647E-3   -2.149243303757120E-3    2.714280346875800E-3    4.041028626263126E-1    3.212001571664337E-1
 8.061831447825000E9     3.667978517440840E-1    4.438225401943648E-1   -2.273204014886023E-3    2.527286463223933E-3   -2.142178258938420E-3    2.690117989458596E-3    4.042310102931784E-1    3.211916543915316E-1
 8.061832986900000E9     3.668017099694725E-1    4.437781928022190E-1   -2.271181368779411E-3    2.551072600525973E-3   -2.138101765563102E-3    2.709626486190764E-3    4.042916149739293E-1    3.210380475722793E-1
 8.061834525975000E9     3.669785537691280E-1    4.436036954678800E-1   -2.265274272746036E-3    2.533626735363339E-3   -2.098899277757861E-3    2.712493249677377E-3    4.044092142053770E-1    3.209602520751078E-1
 8.061836065050000E9     3.671010435113869E-1    4.435165714686753E-1   -2.279662222495489E-3    2.522576984439592E-3   -2.143006185851145E-3    2.691902100618226E-3    4.041630866793254E-1    3.209971251480225E-1
 8.061837604125000E9     3.672611625141453E-1    4.434676922923883E-1   -2.286680249734794E-3    2.541751065839180E-3   -2.171972671640556E-3    2.695410821011997E-3    4.043571444453572E-1    3.208370753816560E-1
 8.061839143200000E9     3.672991375590152E-1    4.433049621116969E-1   -2.287711340999673E-3    2.562213147167836E-3   -2.166221857702093E-3    2.726517289102281E-3    4.043652725012256E-1    3.209330337607237E-1
 8.061840682275000E9     3.674930428666985E-1    4.432064329665726E-1   -2.258354618691144E-3    2.576779280888779E-3   -2.168730281890018E-3    2.699276647868415E-3    4.044460259240301E-1    3.209021798739941E-1
 8.061842221350000E9     3.677059820139425E-1    4.431838888382346E-1   -2.310841084642626E-3    2.592194404812264E-3   -2.183021515814044E-3    2.734950184826730E-3    4.046200682679855E-1    3.206059469131116E-1
 8.061843760425000E9     3.677040539459385E-1    4.430268195368254E-1   -2.276333167025448E-3    2.559758855471471E-3   -2.160456842001252E-3    2.758371354744761E-3    4.045805764401647E-1    3.205138779415147E-1
 8.061845299500000E9     3.677461884572790E-1    4.428465443129650E-1   -2.298801810656553E-3    2.599527451273236E-3   -2.144653718391266E-3    2.772341899781076E-3    4.047707320616555E-1    3.204299026841346E-1
 8.061846838575000E9     3.678727828168406E-1    4.427474262906113E-1   -2.314026076957102E-3    2.601037836750398E-3   -2.183770048788552E-3    2.756471392273393E-3    4.047926101421251E-1    3.204991219763864E-1
 8.061848377650000E9     3.679621162156486E-1    4.427054698990563E-1   -2.275131367969267E-3    2.617282094837538E-3   -2.196465858785012E-3    2.806797254956935E-3    4.049139625639672E-1    3.204445739541082E-1
 8.061849916725000E9     3.681114947569497E-1    4.425295628958177E-1   -2.317384412163851E-3    2.643318703988758E-3   -2.209074097595673E-3    2.837995306707297E-3    4.047528268448046E-1    3.203433469817413E-1
 8.061851455800000E9     3.681624985752274E-1    4.425398533121390E-1   -2.317963576053439E-3    2.625946097659703E-3   -2.149891794833503E-3    2.773374497863413E-3    4.050713664329022E-1    3.201584504857895E-1
 8.061852994875000E9     3.682934113429097E-1    4.423769324319727E-1   -2.315896231361945E-3    2.627052039388076E-3   -2.192063180465135E-3    2.806861936581195E-3    4.050747145624496E-1    3.200594024602063E-1
 8.061854533950000E9     3.683966504312888E-1    4.421238276489312E-1   -2.331269150975460E-3    2.677466214139280E-3   -2.161779650720065E-3    2.779948778850452E-3    4.050683054624365E-1    3.201614228312448E-1
 8.061856073025000E9     3.684440483898468E-1    4.421024530788950E-1   -2.334339001783767E-3    2.619558588077060E-3   -2.218278182704504E-3    2.853763912748132E-3    4.051298540019426E-1    3.199257142480282E-1
 8.061857612100000E9     3.688265237377443E-1    4.420904960007324E-1   -2.324719041035388E-3    2.693774496634003E-3   -2.175249587020344E-3    2.829617980236664E-3    4.050940027556315E-1    3.198786950766181E-1
 8.061859151175000E9     3.689086068633695E-1    4.419957011687820E-1   -2.341983492716592E-3    2.700100952787961E-3   -2.201355460684922E-3    2.821048753254778E-3    4.052065386349898E-1    3.197877796366025E-1
 8.061860690250000E9     3.688079164054346E-1    4.418092646569308E-1   -2.361817733886259E-3    2.695285070436145E-3   -2.225291761547526E-3    2.841571735769081E-3    4.052295100461558E-1    3.196936171213846E-1
 8.061862229325000E9     3.690071514801544E-1    4.416569091989991E-1   -2.345695872437704E-3    2.726918133998585E-3   -2.243008146457331E-3    2.848626341727447E-3    4.053503700708075E-1    3.197677816960573E-1
 8.061863768400000E9     3.691495033864245E-1    4.416678062906936E-1   -2.364670593933867E-3    2.720602698906948E-3   -2.255845835639894E-3    2.842681958609963E-3    4.053911769359586E-1    3.196768576957493E-1
 8.061865307475000E9     3.692661354327341E-1    4.415335229401103E-1   -2.358209762065030E-3    2.717528534035037E-3   -2.238974282777338E-3    2.891457069668290E-3    4.053826433449508E-1    3.195143539372656E-1
 8.061866846550000E9     3.693236272398541E-1    4.414312054823908E-1   -2.351758116713677E-3    2.711787053119951E-3   -2.233232816107197E-3    2.893101730555647E-3    4.054638955374871E-1    3.194676147965043E-1
 8.061868385625000E9     3.695348925939901E-1    4.413267342483486E-1   -2.402186633907879E-3    2.750922327496911E-3   -2.238408128200556E-3    2.890774237620302E-3    4.056783485179225E-1    3.193928694072915E-1
 8.061869924700000E9     3.695781217957925E-1    4.411304789103829E-1   -2.371669644887821E-3    2.787552948367137E-3   -2.212570630937877E-3    2.888708431167046E-3    4.057388151595632E-1    3.192997218849228E-1
 8.061871463775000E9     3.698099076856777E-1    4.411052787249102E-1   -2.394403910598667E-3    2.800383731827360E-3   -2.233416869605941E-3    2.952879036556553E-3    4.056483183280634E-1    3.192030543908844E-1
 8.061873002850000E9     3.698815145118279E-1    4.410260506738474E-1   -2.386259205282636E-3    2.770795518987536E-3   -2.257038030997747E-3    2.914654147099972E-3    4.056902459466088E-1    3.190508172601040E-1
 8.061874541925000E9     3.699611607270208E-1    4.408795004594924E-1   -2.388609478489409E-3    2.774306680607874E-3   -2.263699312051857E-3    2.957539444835459E-3    4.058705719905620E-1    3.190085033211112E-1
 8.061876081000000E9     3.699966362842100E-1    4.407868173803035E-1   -2.386347167687895E-3    2.807659680900076E-3   -2.268570707823402E-3    2.998542151541766E-3    4.059520417841244E-1    3.188455957890169E-1
 8.061877620075000E9     3.700985141612138E-1    4.407242255627185E-1   -2.380600877261224E-3    2.789727057158340E-3   -2.253216656173193E-3    2.962444729941555E-3    4.059777653666297E-1    3.188479601629807E-1
 8.061879159150000E9     3.702847181869011E-1    4.404667676706774E-1   -2.430719708403325E-3    2.818014637837443E-3   -2.263268664763521E-3    2.974424443473459E-3    4.059292014154710E-1    3.186679823799754E-1
 8.061880698225000E9     3.704942590825366E-1    4.402645963311690E-1   -2.406749681112782E-3    2.819417293578629E-3   -2.233243541030947E-3    2.987725103723765E-3    4.059746285884520E-1    3.185605665753449E-1
 8.061882237300000E9     3.705175297544124E-1    4.402378680368443E-1   -2.408399825644377E-3    2.841421341547355E-3   -2.270146009084165E-3    3.012504589703191E-3    4.061668785217617E-1    3.185832417972242E-1
 8.061883776375000E9     3.706539121378943E-1    4.400491333066475E-1   -2.406284169191655E-3    2.850192888840471E-3   -2.288541187697544E-3    3.017560928106981E-3    4.061508741863542E-1    3.185182948790723E-1
 8.061885315450000E9     3.706260063502165E-1    4.400145218886033E-1   -2.419135750320317E-3    2.879107218089526E-3   -2.285909064108224E-3    3.041094027775313E-3    4.062482776711921E-1    3.184694153558173E-1
 8.061886854525000E9     3.708629221700914E-1    4.399903916099603E-1   -2.424192378581671E-3    2.852826605879178E-3   -2.284557289782982E-3    3.070339433997035E-3    4.062755885331296E-1    3.184291809929652E-1
 8.061888393600000E9     3.710451385972989E-1    4.398175099732287E-1   -2.460057988302758E-3    2.881923816602418E-3   -2.286303064672040E-3    3.040629957943544E-3    4.063357866872412E-1    3.183669701485527E-1
 8.061889932675000E9     3.710607891311811E-1    4.397354464852298E-1   -2.459484248935247E-3    2.904096603251352E-3   -2.303140213152297E-3    3.064481099224211E-3    4.064606370295864E-1    3.183686720567794E-1
 8.061891471750000E9     3.712680400743958E-1    4.396228716577654E-1   -2.438039918338630E-3    2.943682255681184E-3   -2.306399822462303E-3    3.083393225669360E-3    4.064547461748006E-1    3.180871590371440E-1
