#  HZ   S   RI   R     50.00 
! Rohde & Schwarz Vector Network Analyzer 
! Rohde-Schwarz,ZNB20-2Port,1311601062101988,3.16
! Created: UTC 3/20/2024, 11:05:06 PM
! freq[Hz]                re:S11                  im:S11                  re:S21                  im:S21                  re:S12                  im:S12                  re:S22                  im:S22
 8.061754980000000E9     3.614232566385188E-1    4.483002856991337E-1   -2.110582451730807E-3    2.198410438149367E-3   -1.991170258547215E-3    2.366697455795588E-3    3.924865306209427E-1    3.282582040900845E-1
 8.061756496150000E9     3.617127335695678E-1    4.481613537883802E-1   -2.136672737782081E-3    2.202905797015254E-3   -1.994104180076537E-3    2.383791608118863E-3    3.925772084698300E-1    3.282845552030594E-1
 8.061758012300000E9     3.617627375200009E-1    4.480509724284955E-1   -2.091634926872722E-3    2.232843459233279E-3   -1.995822787443306E-3    2.377619593909448E-3    3.925790397678172E-1    3.281314193925671E-1
 8.061759528450000E9     3.618514702840589E-1    4.480285442186577E-1   -2.105466909158834E-3    2.232687157288118E-3   -2.020201114740135E-3    2.434101434318045E-3    3.925242954923477E-1    3.281878822691025E-1
 8.061761044600000E9     3.619973787847679E-1    4.478886304121555E-1   -2.120718888752887E-3    2.253306806171195E-3   -2.012720528326360E-3    2.415555066721451E-3    3.926731101227298E-1    3.279696730253489E-1
 8.061762560750000E9     3.621095274546097E-1    4.477776046144540E-1   -2.146063166133444E-3    2.249928767840284E-3   -2.033040454252633E-3    2.389622453468940E-3    3.926961496659196E-1    3.279008712062236E-1
 8.061764076900000E9     3.621927245018520E-1    4.477776493435514E-1   -2.109231978732185E-3    2.250312476117838E-3   -2.019014055880609E-3    2.402780620574660E-3    3.927935255805292E-1    3.279086672389900E-1
 8.061765593050000E9     3.623844068914777E-1    4.476419176257166E-1   -2.141854123789082E-3    2.262109214940178E-3   -2.013611669628326E-3    2.392408430208847E-3    3.928520365155836E-1    3.278786610768413E-1
 8.061767109200000E9     3.624033884390859E-1    4.476052018784082E-1   -2.155876880117345E-3    2.250380349167289E-3   -2.007385551072380E-3    2.382043044471983E-3    3.930322956681641E-1    3.278235377713081E-1
 8.061768625350000E9     3.626874901733461E-1    4.475072394128367E-1   -2.129835775112149E-3    2.260050707089969E-3   -2.036854101284872E-3    2.399214593686356E-3    3.928330755803359E-1    3.276794090150090E-1
 8.061770141500000E9     3.626260521422700E-1    4.473252007880070E-1   -2.135529379444469E-3    2.273796987782426E-3   -2.001307939390851E-3    2.411669741525398E-3    3.929674311295316E-1    3.276486326997001E-1
 8.061771657650000E9     3.627347221819737E-1    4.473762005954202E-1   -2.146081427847762E-3    2.258764378123300E-3   -2.032007337578113E-3    2.407584317451011E-3    3.929712066304644E-1    3.274495323098495E-1
 8.061773173800000E9     3.629166192465624E-1    4.470656381804685E-1   -2.142339722982296E-3    2.271701200805857E-3   -2.017194731287358E-3    2.435840171554972E-3    3.931330582739714E-1    3.274460011223604E-1
 8.061774689950000E9     3.629149315570856E-1    4.471642792713098E-1   -2.133793901365942E-3    2.290848572661684E-3   -2.027185529591365E-3    2.443219891674106E-3    3.932612361772163E-1    3.274208395251387E-1
 8.061776206100000E9     3.630859906813518E-1    4.470717071846540E-1   -2.127348644312045E-3    2.287168858826935E-3   -2.047075018598138E-3    2.454849869202106E-3    3.933027432076893E-1    3.273268842537662E-1
 8.061777722250000E9     3.631272757849023E-1    4.470528818244291E-1   -2.167808603392381E-3    2.283763142423360E-3   -2.029722007538781E-3    2.457733366933554E-3    3.932548709425044E-1    3.272607029645821E-1
 8.061779238400000E9     3.632632554357897E-1    4.469064763191458E-1   -2.116231539711518E-3    2.294515085137534E-3   -2.037194189099480E-3    2.442338035956064E-3    3.934593045034791E-1    3.271364700640834E-1
 8.061780754550000E9     3.634088398036145E-1    4.468402982645903E-1   -2.152000552955179E-3    2.289194448804266E-3   -2.041917975819915E-3    2.460007235164499E-3    3.934587534187594E-1    3.269058433398203E-1
 8.061782270700000E9     3.635385945912997E-1    4.467822058464360E-1   -2.168213160006067E-3    2.304689342320281E-3   -2.044822141591488E-3    2.474869301135305E-3    3.935013782653424E-1    3.269858821321104E-1
 8.061783786850000E9     3.635837324773168E-1    4.466793141721756E-1   -2.168753979530544E-3    2.334399381242077E-3   -2.039523648994986E-3    2.423109200305791E-3    3.936169979464570E-1    3.269255061530487E-1
 8.061785303000000E9     3.637190749916336E-1    4.464764792962898E-1   -2.174476838092237E-3    2.312311852898157E-3   -2.039530411562073E-3    2.462356679286026E-3    3.935513861510819E-1    3.268196778113560E-1
 8.061786819150000E9     3.637057253245768E-1    4.464493090213237E-1   -2.167418689237803E-3    2.330455322671815E-3   -2.029817855927190E-3    2.463522630231737E-3    3.936596972420067E-1    3.268067279158927E-1
 8.061788335300000E9     3.639340974426820E-1    4.463965002885954E-1   -2.166534743695923E-3    2.284370140392932E-3   -2.039085784420434E-3    2.473467725869430E-3    3.937350048370872E-1    3.267324043504768E-1
 8.061789851450000E9     3.641004042297835E-1    4.462375006837025E-1   -2.186010098466223E-3    2.352874167837617E-3   -2.051193832946933E-3    2.476969824049672E-3    3.937673032044157E-1    3.265894747781705E-1
 8.061791367600000E9     3.642145993742709E-1    4.462011514660605E-1   -2.193660866664573E-3    2.330094183832824E-3   -2.058098989898764E-3    2.488561503323178E-3    3.938082451492504E-1    3.266107703267285E-1
 8.061792883750000E9     3.641367817322256E-1    4.461009456836896E-1   -2.172085469257976E-3    2.346785651908775E-3   -2.068313163135907E-3    2.490877393915880E-3    3.939228956079385E-1    3.265654226517652E-1
 8.061794399900000E9     3.643382970776999E-1    4.459011988430741E-1   -2.186214885034079E-3    2.351221089996561E-3   -2.033951453098786E-3    2.500616513352020E-3    3.939406171789826E-1    3.263948008568401E-1
 8.061795916050000E9     3.645224037839256E-1    4.458870054681626E-1   -2.195617207941149E-3    2.335730503645891E-3   -2.046413040482537E-3    2.518660070450438E-3    3.940373023005930E-1    3.262887104859935E-1
 8.061797432200000E9     3.645574339320826E-1    4.458037651210828E-1   -2.184324976961511E-3    2.371429595059692E-3   -2.083141565656883E-3    2.502641140781778E-3    3.941827118082665E-1    3.261134640513658E-1
 8.061798948350000E9     3.646348711603628E-1    4.457400954389150E-1   -2.199508750280639E-3    2.363714570418714E-3   -2.058398481852722E-3    2.525235921772401E-3    3.941844721497095E-1    3.262027994661696E-1
 8.061800464500000E9     3.647185469448236E-1    4.455225854704917E-1   -2.180651655145920E-3    2.372659395401791E-3   -2.076208546235970E-3    2.529408420343578E-3    3.943361574430446E-1    3.260251802429466E-1
 8.061801980650000E9     3.647378285429992E-1    4.455411456087003E-1   -2.195577644981160E-3    2.371420387317206E-3   -2.102494287109574E-3    2.511286562990683E-3    3.943349093449061E-1    3.261098979845512E-1
 8.061803496800000E9     3.648774350849590E-1    4.454385976602514E-1   -2.187298861210746E-3    2.386377450385380E-3   -2.092923848151346E-3    2.535674514001434E-3    3.943895349013998E-1    3.258602871238417E-1
 8.061805012950000E9     3.649205066382296E-1    4.453810798231403E-1   -2.211542599761676E-3    2.392747075179939E-3   -2.098779359552688E-3    2.562766073468155E-3    3.944970864349813E-1    3.258307078679251E-1
 8.061806529100000E9     3.651231024713247E-1    4.453011935346763E-1   -2.190150139123081E-3    2.392950606473070E-3   -2.091083057138339E-3    2.545499291722872E-3    3.945913892585663E-1    3.258354123509167E-1
 8.061808045250000E9     3.652506265712301E-1    4.450948787908858E-1   -2.200432608656809E-3    2.410715384009836E-3   -2.100032416316621E-3    2.579939375297849E-3    3.945853914290265E-1    3.256837423894866E-1
 8.061809561400000E9     3.653432446811348E-1    4.451821661895116E-1   -2.187942273670751E-3    2.407121602970798E-3   -2.106434074638181E-3    2.577765104004833E-3    3.946532083194879E-1    3.256397537562163E-1
 8.061811077550000E9     3.655911471098309E-1    4.449210620909855E-1   -2.227040128793222E-3    2.434707006085332E-3   -2.121654859744498E-3    2.589797402537852E-3    3.946586662132437E-1    3.256327434182189E-1
 8.061812593700000E9     3.654835894207023E-1    4.449455195557169E-1   -2.212345050608068E-3    2.415216097472798E-3   -2.098085682357120E-3    2.620454745345175E-3    3.945883021164921E-1    3.255526432684048E-1
 8.061814109850000E9     3.656248422302376E-1    4.447778353760536E-1   -2.219493798132310E-3    2.408699149126742E-3   -2.084809768930546E-3    2.552151625345255E-3    3.947842563758344E-1    3.254597932399519E-1
 8.061815626000000E9     3.656961693412134E-1    4.447640421856000E-1   -2.235087102291486E-3    2.445821925299117E-3   -2.038331364972923E-3    2.586166558637492E-3    3.947800634774643E-1    3.253637415192552E-1
 8.061817142150000E9     3.659283863033832E-1    4.447081482404416E-1   -2.225665972878657E-3    2.445141809980525E-3   -2.101475703266110E-3    2.614093564793262E-3    3.948749508045586E-1    3.253277008982609E-1
 8.061818658300000E9     3.660158439756925E-1    4.445436573673888E-1   -2.259949790628204E-3    2.444095545012214E-3   -2.116025403774824E-3    2.598062952245497E-3    3.949314504267120E-1    3.251923722044370E-1
 8.061820174450000E9     3.660196055495291E-1    4.442632067239333E-1   -2.239787736360313E-3    2.451837461612721E-3   -2.084116893078332E-3    2.630958340551673E-3    3.949282588555034E-1    3.250746435304719E-1
 8.061821690600000E9     3.662098751448748E-1    4.443524577397543E-1   -2.217444575120435E-3    2.468465871284489E-3   -2.103087857598311E-3    2.607099317645659E-3    3.950202092208315E-1    3.251092319952213E-1
 8.061823206750000E9     3.662359650864477E-1    4.441767884788235E-1   -2.247534179795957E-3    2.458986035631464E-3   -2.131650556604292E-3    2.642362250432068E-3    3.951434467187814E-1    3.249662365540433E-1
 8.061824722900000E9     3.663283908542526E-1    4.441808525566245E-1   -2.240609740165884E-3    2.491634938089462E-3   -2.101888848507503E-3    2.637025368521254E-3    3.950758673421932E-1    3.249768135989072E-1
 8.061826239050000E9     3.664719563514942E-1    4.440519949202090E-1   -2.242345222868784E-3    2.503418862148313E-3   -2.127387196682325E-3    2.628214865698354E-3    3.952295927239385E-1    3.248753767719934E-1
 8.061827755200000E9     3.666789436622042E-1    4.440237295752446E-1   -2.242229345406059E-3    2.485609510996854E-3   -2.110145578501358E-3    2.657292512891461E-3    3.952215403660224E-1    3.247556549232215E-1
 8.061829271350000E9     3.668018796829241E-1    4.438736148336118E-1   -2.258059622375284E-3    2.492685665291313E-3   -2.124290530835730E-3    2.664756826269030E-3    3.954339761432117E-1    3.248038439175049E-1
 8.061830787500000E9     3.668553632582586E-1    4.436240885398859E-1   -2.252907918878071E-3    2.488127491877956E-3   -2.135263162388419E-3    2.654485029481190E-3    3.953682449741299E-1    3.245199889775012E-1
 8.061832303650000E9     3.669270527824505E-1    4.436137009246675E-1   -2.244037759232423E-3    2.487014325851637E-3   -2.111711884620677E-3    2.689692224262974E-3    3.955643939237304E-1    3.245115511625356E-1
 8.061833819800000E9     3.670745554123160E-1    4.434753786024478E-1   -2.255419214172217E-3    2.531584570582079E-3   -2.115201338290177E-3    2.633819351906071E-3    3.955751845910458E-1    3.244455884188337E-1
 8.061835335950000E9     3.671099311448800E-1    4.434194885192999E-1   -2.260336701556827E-3    2.520624890151038E-3   -2.120451863327398E-3    2.685972847892868E-3    3.955644016283032E-1    3.243124638018300E-1
 8.061836852100000E9     3.672923848298412E-1    4.434095991034580E-1   -2.266321533459663E-3    2.529726356568006E-3   -2.171698754715997E-3    2.686099283237521E-3    3.955126007923542E-1    3.242030539526494E-1
 8.061838368250000E9     3.673580362347426E-1    4.432470456138656E-1   -2.258456956744832E-3    2.530450151824011E-3   -2.144171174892141E-3    2.701200994892387E-3    3.956061694863708E-1    3.242608926043440E-1
 8.061839884400000E9     3.675406002611865E-1    4.431875881203440E-1   -2.284139655660436E-3    2.569705337292963E-3   -2.147904345629376E-3    2.725811582981380E-3    3.956572280577011E-1    3.241743623818371E-1
 8.061841400550000E9     3.676198009269809E-1    4.430400969269332E-1   -2.285878088141160E-3    2.558399207356359E-3   -2.136206167246095E-3    2.707149718020338E-3    3.959575765713564E-1    3.241410413147287E-1
 8.061842916700000E9     3.677584452130125E-1    4.430292206907923E-1   -2.285279459811649E-3    2.552746821471208E-3   -2.129815477277046E-3    2.717393975155580E-3    3.960071618278471E-1    3.239269536746291E-1
 8.061844432850000E9     3.678464212326242E-1    4.428668563246419E-1   -2.289894965768530E-3    2.574075433071002E-3   -2.183647685126928E-3    2.793754986584525E-3    3.959494527355171E-1    3.240540439187793E-1
 8.061845949000000E9     3.679575180531788E-1    4.426573519928630E-1   -2.300388917171075E-3    2.591271799349189E-3   -2.172018385245815E-3    2.792995723028938E-3    3.959994505229881E-1    3.238377630294498E-1
 8.061847465150000E9     3.679576736388275E-1    4.425931424539464E-1   -2.310535291096908E-3    2.586350440284204E-3   -2.163372715713854E-3    2.773350590118640E-3    3.960400574693808E-1    3.236294025602325E-1
 8.061848981300000E9     3.681651419994362E-1    4.425798338397272E-1   -2.297857083067764E-3    2.562729844986269E-3   -2.197220636431036E-3    2.754080431791221E-3    3.961805381074290E-1    3.235813648191933E-1
 8.061850497450000E9     3.682099924654947E-1    4.424855578240758E-1   -2.313565436885839E-3    2.608049961138935E-3   -2.191547029865206E-3    2.789995413907810E-3    3.962883335547506E-1    3.237204721496389E-1
 8.061852013600000E9     3.683645827468420E-1    4.424362081578472E-1   -2.329374784007908E-3    2.609229576461578E-3   -2.174681850373870E-3    2.760145862707975E-3    3.962218014193559E-1    3.236096330483665E-1
 8.061853529750000E9     3.684405245245251E-1    4.421713973570215E-1   -2.319945902265887E-3    2.617359465679926E-3   -2.167655655328851E-3    2.797068588893978E-3    3.962901737092572E-1    3.234727717228510E-1
 8.061855045900000E9     3.687591379675815E-1    4.421260505255880E-1   -2.310136687356302E-3    2.661632411955291E-3   -2.184557595725246E-3    2.811012036841155E-3    3.962356263513682E-1    3.232469237339914E-1
 8.061856562050000E9     3.686067811294791E-1    4.420200224269205E-1   -2.325615921915990E-3    2.646197025285936E-3   -2.195686612995143E-3    2.808384628616571E-3    3.962885069947507E-1    3.233390855855287E-1
 8.061858078200000E9     3.688347586161534E-1    4.419256237296829E-1   -2.347357581425251E-3    2.670862443456611E-3   -2.185727877942114E-3    2.817695905148396E-3    3.963883122463279E-1    3.231825449547656E-1
 8.061859594350000E9     3.690137568929363E-1    4.418486516028994E-1   -2.346187834621908E-3    2.683853984250752E-3   -2.209905254117208E-3    2.836803934798126E-3    3.965362147140274E-1    3.230630791338155E-1
 8.061861110500000E9     3.689919389951543E-1    4.416993124213287E-1   -2.355068694103167E-3    2.694515142114520E-3   -2.209493980365474E-3    2.864641729107658E-3    3.964903158837344E-1    3.229728057570000E-1
 8.061862626650000E9     3.691550717390453E-1    4.416838441398524E-1   -2.354540421845868E-3    2.686844486112324E-3   -2.227008476795570E-3    2.862310995676138E-3    3.966147000245022E-1    3.228629735487182E-1
 8.061864142800000E9     3.693916208641410E-1    4.414187113791146E-1   -2.358720561531344E-3    2.687076537797503E-3   -2.225376398840331E-3    2.853946541467634E-3    3.967393162660032E-1    3.228473168520000E-1
 8.061865658950000E9     3.694586246662268E-1    4.414419001351958E-1   -2.342897892018945E-3    2.711684876001647E-3   -2.223694474291707E-3    2.879045966144162E-3    3.969445340412686E-1    3.229398404139188E-1
 8.061867175100000E9     3.694453467606431E-1    4.413616376587289E-1   -2.371365154936595E-3    2.733413483246626E-3   -2.223676450848266E-3    2.890377280081531E-3    3.966870620106952E-1    3.226694422283775E-1
 8.061868691250000E9     3.695504318003143E-1    4.411277864502882E-1   -2.391564203528130E-3    2.728034775658385E-3   -2.263195643394523E-3    2.894655841871342E-3    3.968270418913978E-1    3.228329742458989E-1
 8.061870207400000E9     3.696259836919157E-1    4.411701476938842E-1   -2.366254365431627E-3    2.753621901671472E-3   -2.212467105057153E-3    2.913186586396568E-3    3.968968361801448E-1    3.226022837270807E-1
 8.061871723550000E9     3.698446420554219E-1    4.408600259376302E-1   -2.393706788983883E-3    2.740928126252287E-3   -2.203707281484336E-3    2.912789019365692E-3    3.968549359660860E-1    3.225130696346735E-1
 8.061873239700000E9     3.699132570664189E-1    4.408521622344004E-1   -2.380778307065005E-3    2.765105199877703E-3   -2.261538639478006E-3    2.884845949589019E-3    3.969572763106943E-1    3.225924193458107E-1
 8.061874755850000E9     3.700097246457118E-1    4.407246476916202E-1   -2.375799201836784E-3    2.755012786305959E-3   -2.252239349101448E-3    2.941356416296963E-3    3.970848865824818E-1    3.224561383791226E-1
 8.061876272000000E9     3.701516899418922E-1    4.406098580908592E-1   -2.394158110039898E-3    2.774853110236526E-3   -2.270722976724417E-3    2.950341345603926E-3    3.971594151459344E-1    3.222640744160998E-1
 8.061877788150000E9     3.702615868922858E-1    4.405167333111915E-1   -2.402706808704480E-3    2.796913074016584E-3   -2.238116714889206E-3    2.973632121307252E-3    3.972290178832979E-1    3.224280274556955E-1
 8.061879304300000E9     3.704432745137701E-1    4.404520431913939E-1   -2.411317571216619E-3    2.800790056537739E-3   -2.230818147311665E-3    2.981648057817862E-3    3.972582568067040E-1    3.221947128979679E-1
 8.061880820450000E9     3.706062558145772E-1    4.401401292668399E-1   -2.434096404632818E-3    2.802516003598199E-3   -2.281362182188522E-3    2.962430827198895E-3    3.972697356015770E-1    3.220149015479719E-1
 8.061882336600000E9     3.706079153015253E-1    4.401483283732424E-1   -2.393649477262697E-3    2.834292693654114E-3   -2.220965552587572E-3    3.003162239789528E-3    3.973637121834434E-1    3.219575815961822E-1
 8.061883852750000E9     3.708315238314738E-1    4.399381958903592E-1   -2.427182550996412E-3    2.840831939750477E-3   -2.273550663380375E-3    3.019583266670327E-3    3.973143544809425E-1    3.218698298694626E-1
 8.061885368900000E9     3.708756251755169E-1    4.398018334116269E-1   -2.441478560506661E-3    2.857575404798016E-3   -2.280302281898726E-3    3.023130100730261E-3    3.975153815786798E-1    3.218503311910231E-1
 8.061886885050000E9     3.708982192220540E-1    4.397832612569129E-1   -2.428458000877692E-3    2.875940462839561E-3   -2.283560807405334E-3    3.056482755877084E-3    3.973872614910086E-1    3.217610781757123E-1
 8.061888401200000E9     3.711250714658967E-1    4.396160624323733E-1   -2.446566684424546E-3    2.879555731720229E-3   -2.287353516346893E-3    3.070339702261989E-3    3.976151452793814E-1    3.217058069238651E-1
 8.061889917350000E9     3.711089752756526E-1    4.396746145813469E-1   -2.422190670578957E-3    2.883462846845163E-3   -2.323695859515073E-3    3.089827610274113E-3    3.977142812243141E-1    3.217379720228979E-1
 8.061891433500000E9     3.714299598665106E-1    4.393677047650288E-1   -2.475439626828454E-3    2.910955809114902E-3   -2.296180545806983E-3    3.091853382776280E-3    3.977236868110849E-1    3.215278428112057E-1
