#  HZ   S   RI   R     50.00 
! Rohde & Schwarz Vector Network Analyzer 
! Rohde-Schwarz,ZNB20-2Port,1311601062101988,3.16
! Created: UTC 3/20/2024, 11:05:56 PM
! freq[Hz]                re:S11                  im:S11                  re:S21                  im:S21                  re:S12                  im:S12                  re:S22                  im:S22
 8.061725687000000E9     3.597923170342937E-1    4.495583860433365E-1   -2.081491057550683E-3    2.165321547110666E-3   -2.001745759769406E-3    2.320673518199606E-3    3.923096405875658E-1    3.268161086361200E-1
 8.061727299500000E9     3.599999823458196E-1    4.495443618077504E-1   -2.088748284992180E-3    2.164389458372245E-3   -1.955426108380857E-3    2.344553554733685E-3    3.924733197727153E-1    3.268328681835385E-1
 8.061728912000000E9     3.601802366483792E-1    4.494151214348829E-1   -2.103376252013548E-3    2.188944982250156E-3   -1.978458474963101E-3    2.340531963768707E-3    3.925506361758865E-1    3.267211588268270E-1
 8.061730524500000E9     3.601778464053158E-1    4.493606689229676E-1   -2.086210968424786E-3    2.200970081787886E-3   -1.959131397079602E-3    2.301403636663520E-3    3.924554996379102E-1    3.266032690281905E-1
 8.061732137000000E9     3.603752463536662E-1    4.493324565530504E-1   -2.087082611756352E-3    2.183299403601147E-3   -1.993492013485614E-3    2.349841347076254E-3    3.925857087693317E-1    3.265581755449548E-1
 8.061733749500000E9     3.604969305509825E-1    4.491692803196782E-1   -2.098256699514789E-3    2.174297729123436E-3   -1.987593667969058E-3    2.336374449274858E-3    3.927051727385307E-1    3.265665190489886E-1
 8.061735362000000E9     3.605718222982526E-1    4.490832880458730E-1   -2.091902413271924E-3    2.203467836207554E-3   -1.981593574048289E-3    2.351593829842527E-3    3.928319141539823E-1    3.264327513947430E-1
 8.061736974500000E9     3.606184604780842E-1    4.489985710660135E-1   -2.082166139522379E-3    2.193481615172320E-3   -1.975614317646829E-3    2.338365219100328E-3    3.928688417810567E-1    3.263261303119453E-1
 8.061738587000000E9     3.609084656073731E-1    4.488279982069227E-1   -2.110482139784973E-3    2.225050800726007E-3   -1.995307886264186E-3    2.343462468857474E-3    3.929490399418772E-1    3.261859852361914E-1
 8.061740199500000E9     3.608745022631983E-1    4.488486394857309E-1   -2.100890265832343E-3    2.202937386028779E-3   -1.977448871397813E-3    2.376089745653278E-3    3.930988822762551E-1    3.261657329406598E-1
 8.061741812000000E9     3.609892368387160E-1    4.486741770708058E-1   -2.103552700227025E-3    2.229491612976745E-3   -2.003168479151494E-3    2.378136963265383E-3    3.930417995778710E-1    3.261034979946786E-1
 8.061743424500000E9     3.611884243071155E-1    4.487376993675522E-1   -2.094564976140738E-3    2.203214098692595E-3   -1.963985269966281E-3    2.365276248576523E-3    3.931298059929368E-1    3.260539065775097E-1
 8.061745037000000E9     3.611841589104975E-1    4.485403778230527E-1   -2.102472852193679E-3    2.204857990335139E-3   -1.999133466781683E-3    2.357611265649119E-3    3.931996804843121E-1    3.259212217663461E-1
 8.061746649500000E9     3.612950096427888E-1    4.485071183123804E-1   -2.081345422753125E-3    2.229472430221418E-3   -2.011807833430608E-3    2.382611466860879E-3    3.932975675954450E-1    3.260561814425597E-1
 8.061748262000000E9     3.613911639357887E-1    4.483828391208838E-1   -2.104064927367730E-3    2.207835138023911E-3   -1.980625759243986E-3    2.374558350662902E-3    3.932580309058037E-1    3.260151317027438E-1
 8.061749874500000E9     3.615058485278399E-1    4.482545724297108E-1   -2.105216464962724E-3    2.237971590333918E-3   -1.981352436050767E-3    2.394482773407233E-3    3.933024818397974E-1    3.257902802340357E-1
 8.061751487000000E9     3.615826636539178E-1    4.482516231698025E-1   -2.121178217174849E-3    2.251210985792404E-3   -1.958432074952672E-3    2.387381108455230E-3    3.934065577995453E-1    3.257076589664147E-1
 8.061753099500000E9     3.617675902596030E-1    4.480745186357483E-1   -2.123633405483917E-3    2.263321828271330E-3   -1.999871568117804E-3    2.370520893621100E-3    3.934826780986244E-1    3.256107047096528E-1
 8.061754712000000E9     3.620075353244356E-1    4.479959838162322E-1   -2.120744217951144E-3    2.226946897729467E-3   -2.005513192291066E-3    2.395129927158162E-3    3.936095416978468E-1    3.255168448662514E-1
 8.061756324500000E9     3.619894483446658E-1    4.479111675290082E-1   -2.129279512255924E-3    2.269832004069469E-3   -2.001378842664265E-3    2.414879530942856E-3    3.935327212925068E-1    3.254770436166109E-1
 8.061757937000000E9     3.620406053078053E-1    4.478179758773456E-1   -2.128789430936045E-3    2.264271156321039E-3   -2.028189461261817E-3    2.400248201534844E-3    3.936462550616955E-1    3.255216160484662E-1
 8.061759549500000E9     3.622175713300037E-1    4.477567494844154E-1   -2.121390498094695E-3    2.266849388697599E-3   -2.019067668353567E-3    2.395578665557052E-3    3.937075437475547E-1    3.252275532507976E-1
 8.061761162000000E9     3.622883281362364E-1    4.477927928807672E-1   -2.132235903341744E-3    2.253817265189692E-3   -2.015512890882792E-3    2.401605056391502E-3    3.937100723989269E-1    3.251442699788199E-1
 8.061762774500000E9     3.624105890103505E-1    4.475549370337934E-1   -2.148788240083323E-3    2.281485577457344E-3   -1.992094227290117E-3    2.410677823528862E-3    3.938692035333322E-1    3.251292238804373E-1
 8.061764387000000E9     3.624616990262017E-1    4.474489967385226E-1   -2.138784628415639E-3    2.287059132744024E-3   -2.002362190753258E-3    2.423131344373899E-3    3.939253133569890E-1    3.249643038359001E-1
 8.061765999500000E9     3.626401159625077E-1    4.473119452865243E-1   -2.152810976145619E-3    2.287515583140819E-3   -2.052088830943087E-3    2.400127950712436E-3    3.939151488368564E-1    3.250747166117329E-1
 8.061767612000000E9     3.627553286188727E-1    4.472293461009462E-1   -2.157922953976247E-3    2.305115335191853E-3   -2.007747850643090E-3    2.451041455587074E-3    3.940205399204213E-1    3.247928417828916E-1
 8.061769224500000E9     3.628393781735213E-1    4.471533837934761E-1   -2.166500303488302E-3    2.289510069522165E-3   -2.030516395398299E-3    2.446223095464428E-3    3.939896165406265E-1    3.246458624787356E-1
 8.061770837000000E9     3.629569957445418E-1    4.470592445662738E-1   -2.146828143822526E-3    2.295028840310841E-3   -2.052254004716342E-3    2.467384165120563E-3    3.942019869798900E-1    3.247326125472091E-1
 8.061772449500000E9     3.631627361686698E-1    4.469222648991849E-1   -2.141922987064668E-3    2.321412449573480E-3   -1.999042786466433E-3    2.458300273833419E-3    3.940406487187544E-1    3.246146321812167E-1
 8.061774062000000E9     3.632295796723086E-1    4.469034062671469E-1   -2.127353430173789E-3    2.300823915702580E-3   -2.025486103933234E-3    2.500736374862759E-3    3.943074061219328E-1    3.245939448599832E-1
 8.061775674500000E9     3.632588673990408E-1    4.468220419109063E-1   -2.150578822069760E-3    2.331334869028850E-3   -2.058176435503551E-3    2.431400722734310E-3    3.943941554359776E-1    3.244882464048937E-1
 8.061777287000000E9     3.634243946914676E-1    4.467214625671803E-1   -2.150731097911286E-3    2.333226449562616E-3   -2.015792125350245E-3    2.474982417149711E-3    3.944450975101108E-1    3.244053398649188E-1
 8.061778899500000E9     3.635069094215170E-1    4.466284987945714E-1   -2.143290935394369E-3    2.331101420205136E-3   -1.984053723571167E-3    2.496487045402522E-3    3.945799072524295E-1    3.243821940122750E-1
 8.061780512000000E9     3.635964701522405E-1    4.465061677644546E-1   -2.164231870875966E-3    2.356857266396895E-3   -2.064385794663426E-3    2.463061991337379E-3    3.944828610127873E-1    3.241923603235533E-1
 8.061782124500000E9     3.636580667609570E-1    4.463603752406790E-1   -2.165890289098460E-3    2.358617508917942E-3   -2.009318182349910E-3    2.499128595784868E-3    3.946685785858340E-1    3.241637495828927E-1
 8.061783737000000E9     3.638911580774701E-1    4.462702704848063E-1   -2.167224734822106E-3    2.351353616320036E-3   -2.086639196313740E-3    2.497232150154108E-3    3.946769809457308E-1    3.241560276430458E-1
 8.061785349500000E9     3.638604263836491E-1    4.462428596788697E-1   -2.194995506531674E-3    2.360601834615907E-3   -2.020974511552828E-3    2.515974072837725E-3    3.946470341596566E-1    3.239898390530324E-1
 8.061786962000000E9     3.639191082494901E-1    4.461599772520982E-1   -2.178423270206971E-3    2.363438616736744E-3   -2.087789757875125E-3    2.521747455925783E-3    3.948388671062520E-1    3.239898123858258E-1
 8.061788574500000E9     3.642002202712373E-1    4.460711950272616E-1   -2.179633191355329E-3    2.375436698057481E-3   -2.068778604196844E-3    2.523679136527191E-3    3.947354406654287E-1    3.239085900019578E-1
 8.061790187000000E9     3.642477976257931E-1    4.459522665897647E-1   -2.162972414060816E-3    2.390401783913340E-3   -2.041172800880054E-3    2.544130186107411E-3    3.948014491239533E-1    3.238578028601368E-1
 8.061791799500000E9     3.644626948891945E-1    4.458822163949910E-1   -2.189444323100976E-3    2.385143856376837E-3   -2.032839626641705E-3    2.551815456797634E-3    3.949430807364280E-1    3.238383146394115E-1
 8.061793412000000E9     3.644599889567482E-1    4.458028472896112E-1   -2.201282598295097E-3    2.408320332152640E-3   -2.040246890299103E-3    2.537076185856844E-3    3.950302285940939E-1    3.234522875571404E-1
 8.061795024500000E9     3.646266207672178E-1    4.456779350601097E-1   -2.206105921936141E-3    2.408281913137003E-3   -2.074303827003719E-3    2.550938412328713E-3    3.950000275849347E-1    3.235000765153770E-1
 8.061796637000000E9     3.647589848304640E-1    4.456082625394726E-1   -2.182480432093866E-3    2.414501138764773E-3   -2.106992498000808E-3    2.548218141792828E-3    3.952782210207094E-1    3.233555952702171E-1
 8.061798249500000E9     3.649694567447456E-1    4.455278474955085E-1   -2.181284570878026E-3    2.408141659692014E-3   -2.071152264864607E-3    2.530789917106645E-3    3.951972527425029E-1    3.234422185972387E-1
 8.061799862000000E9     3.649545261908393E-1    4.453849467497419E-1   -2.186221978318474E-3    2.402241226187020E-3   -2.090893212488772E-3    2.546960492970647E-3    3.952510368896644E-1    3.232657710582508E-1
 8.061801474500000E9     3.650028264324044E-1    4.452683837375908E-1   -2.219146343855520E-3    2.411699247731211E-3   -2.097161349892104E-3    2.578783844515735E-3    3.952296484945184E-1    3.232694411067995E-1
 8.061803087000000E9     3.650937255199709E-1    4.450591695956691E-1   -2.242248986670845E-3    2.420143508925098E-3   -2.074561751949397E-3    2.617471215302755E-3    3.953746247109804E-1    3.230620057453544E-1
 8.061804699500000E9     3.653261704519064E-1    4.451293120750958E-1   -2.221495098946872E-3    2.424824907091874E-3   -2.067199186111067E-3    2.575293720458951E-3    3.953327740372412E-1    3.229088319390806E-1
 8.061806312000000E9     3.654557670629421E-1    4.450176070935112E-1   -2.212765341225160E-3    2.453926510624895E-3   -2.105452584426765E-3    2.612991785117242E-3    3.955561410572208E-1    3.229375159750266E-1
 8.061807924500000E9     3.656099650427628E-1    4.449480023507193E-1   -2.193645310521520E-3    2.454078547767376E-3   -2.100244971399017E-3    2.607950679935169E-3    3.956622014622722E-1    3.229520132125509E-1
 8.061809537000000E9     3.655920973727392E-1    4.448385144050910E-1   -2.258977407740177E-3    2.466686144734217E-3   -2.087053706474441E-3    2.584557315838576E-3    3.956066489300651E-1    3.227894714105182E-1
 8.061811149500000E9     3.657882094108740E-1    4.445477021555876E-1   -2.230695266327813E-3    2.448624708836639E-3   -2.133445482233446E-3    2.642544138629506E-3    3.957423372503705E-1    3.227777163054887E-1
 8.061812762000000E9     3.658105920204396E-1    4.445416112262675E-1   -2.238143362445333E-3    2.479614317136789E-3   -2.111167566385174E-3    2.632965524727504E-3    3.957404970650606E-1    3.227397083818693E-1
 8.061814374500000E9     3.660635691530777E-1    4.443934163924371E-1   -2.248208540763332E-3    2.478283571804753E-3   -2.098360447610625E-3    2.632578117175636E-3    3.957943449415414E-1    3.225080370393974E-1
 8.061815987000000E9     3.661253545449891E-1    4.443474294540137E-1   -2.250171333195684E-3    2.482056873851973E-3   -2.121767007528155E-3    2.619676664099450E-3    3.957820789709655E-1    3.225821689193503E-1
 8.061817599500000E9     3.661974915300877E-1    4.442658830253063E-1   -2.252617522598626E-3    2.466314224049580E-3   -2.114712752329596E-3    2.654855075464862E-3    3.959506590933448E-1    3.224682075143800E-1
 8.061819212000000E9     3.662198371256842E-1    4.442033298150169E-1   -2.237150202992507E-3    2.499108580476808E-3   -2.084491921506591E-3    2.661320431365974E-3    3.959088135933543E-1    3.224984730787849E-1
 8.061820824500000E9     3.664165121297360E-1    4.440467021515174E-1   -2.250234817490254E-3    2.494088331522820E-3   -2.132269060432607E-3    2.685804192687325E-3    3.961385757572766E-1    3.221925508938487E-1
 8.061822437000000E9     3.664949650072025E-1    4.439221143391003E-1   -2.274879540550808E-3    2.537082871365716E-3   -2.136413508754743E-3    2.684822593876481E-3    3.960149610146389E-1    3.221358900432809E-1
 8.061824049500000E9     3.665548284456830E-1    4.438429368343199E-1   -2.238753149228251E-3    2.501962849867621E-3   -2.127154835128451E-3    2.669657178970193E-3    3.962367956616729E-1    3.221478142784184E-1
 8.061825662000000E9     3.668153685182030E-1    4.437298578287805E-1   -2.257458664348397E-3    2.521252927940879E-3   -2.111745184638333E-3    2.712262542664181E-3    3.961613607737172E-1    3.220554152915743E-1
 8.061827274500000E9     3.669302751154317E-1    4.437188247591114E-1   -2.241842790746288E-3    2.537874986692161E-3   -2.088234426564536E-3    2.651959588138044E-3    3.961276858635152E-1    3.220386965925532E-1
 8.061828887000000E9     3.670679230233809E-1    4.435702904235408E-1   -2.264414248596025E-3    2.561480391227838E-3   -2.141759422136412E-3    2.712221259443076E-3    3.963664407076273E-1    3.218957657909778E-1
 8.061830499500000E9     3.671531333852836E-1    4.434829325964806E-1   -2.294237573208648E-3    2.547450240293038E-3   -2.117641989968930E-3    2.694105733493595E-3    3.964073330773132E-1    3.217659464598251E-1
 8.061832112000000E9     3.672968562422425E-1    4.433851239455502E-1   -2.287652047996384E-3    2.569024697675311E-3   -2.166920151717290E-3    2.767816138873079E-3    3.964784214969846E-1    3.216141787124613E-1
 8.061833724500000E9     3.673330132884143E-1    4.433438519184444E-1   -2.307881781496195E-3    2.570007489159832E-3   -2.143188294289904E-3    2.760322095631974E-3    3.965270325878388E-1    3.214902557266758E-1
 8.061835337000000E9     3.674045149369363E-1    4.431286633206106E-1   -2.276713318224215E-3    2.578784028959873E-3   -2.134509923316314E-3    2.767389248875469E-3    3.966204622916774E-1    3.216181912982080E-1
 8.061836949500000E9     3.675479201419300E-1    4.430410853102531E-1   -2.270518461212477E-3    2.605804120056261E-3   -2.145044888861614E-3    2.739996771405080E-3    3.966821554571282E-1    3.214279483953183E-1
 8.061838562000000E9     3.676367194117479E-1    4.428742702327280E-1   -2.288731416710641E-3    2.610559753985692E-3   -2.158220002124326E-3    2.748414258128002E-3    3.966969569161485E-1    3.214680127014038E-1
 8.061840174500000E9     3.678522076047752E-1    4.428745198882704E-1   -2.327363383300931E-3    2.607188621141008E-3   -2.145437348976756E-3    2.791614281202442E-3    3.967539366150880E-1    3.212228062070797E-1
 8.061841787000000E9     3.679342053211114E-1    4.426952907113515E-1   -2.296995055862542E-3    2.612471749802121E-3   -2.173004349443178E-3    2.815728971950438E-3    3.967909768575729E-1    3.212005437462087E-1
 8.061843399500000E9     3.680540213321245E-1    4.426870372983094E-1   -2.321697681871081E-3    2.640916710062643E-3   -2.195643270081881E-3    2.764773112944752E-3    3.969700100893179E-1    3.211254603978628E-1
 8.061845012000000E9     3.681130037017107E-1    4.425788520443705E-1   -2.325988988534291E-3    2.653078838221205E-3   -2.181609191996149E-3    2.832325845331510E-3    3.969409130114148E-1    3.209595535350618E-1
 8.061846624500000E9     3.682079959011908E-1    4.423626323411988E-1   -2.337306948732618E-3    2.640308784181181E-3   -2.206338613448470E-3    2.787251281597446E-3    3.969395190615147E-1    3.209407294571979E-1
 8.061848237000000E9     3.682391338571939E-1    4.422573224054460E-1   -2.329756561255747E-3    2.667720844585863E-3   -2.189526453110246E-3    2.843185703914882E-3    3.972351753472482E-1    3.209493449489105E-1
 8.061849849500000E9     3.684771663919177E-1    4.419893939969165E-1   -2.298390884375840E-3    2.644722657461772E-3   -2.181560246941669E-3    2.820708896907190E-3    3.971032556755779E-1    3.207507843539036E-1
 8.061851462000000E9     3.686480765037862E-1    4.420311765927697E-1   -2.337733344201996E-3    2.663356053275560E-3   -2.211199774544697E-3    2.822892627058741E-3    3.971008950124643E-1    3.205540323057168E-1
 8.061853074500000E9     3.687749377389874E-1    4.419476855701298E-1   -2.342229565020038E-3    2.698694505403105E-3   -2.190010081027923E-3    2.830203858293887E-3    3.972710429661357E-1    3.206081373800372E-1
 8.061854687000000E9     3.688433143900490E-1    4.417129185963160E-1   -2.346420891602093E-3    2.709276417609439E-3   -2.214373768794063E-3    2.848298346820446E-3    3.972674127528871E-1    3.205464888309941E-1
 8.061856299500000E9     3.688753160231602E-1    4.415829586715317E-1   -2.352264978502168E-3    2.700671137874647E-3   -2.180515054725347E-3    2.861644198249713E-3    3.974031590748489E-1    3.205441321940660E-1
 8.061857912000000E9     3.690669402160315E-1    4.415065767598617E-1   -2.345372511825381E-3    2.722880131231426E-3   -2.238609720733468E-3    2.873477448266120E-3    3.974765565931968E-1    3.203510304444489E-1
 8.061859524500000E9     3.692974080190659E-1    4.414591968455083E-1   -2.358780431979306E-3    2.740766003019575E-3   -2.196111740451948E-3    2.863692013010260E-3    3.976125234639207E-1    3.202326903170860E-1
 8.061861137000000E9     3.692950986436434E-1    4.413891918342921E-1   -2.365736129420163E-3    2.741989207550016E-3   -2.207410477108379E-3    2.939687655859782E-3    3.974933096005319E-1    3.202180387354693E-1
 8.061862749500000E9     3.695272835004946E-1    4.411153244228826E-1   -2.367884075437029E-3    2.769345352477811E-3   -2.250720119706291E-3    2.931310414791295E-3    3.976580040788306E-1    3.200726635884538E-1
 8.061864362000000E9     3.696611567935337E-1    4.410440566976868E-1   -2.379613293259586E-3    2.780678257669365E-3   -2.233445140816870E-3    2.982480622604020E-3    3.977999063748199E-1    3.201344413174821E-1
 8.061865974500000E9     3.696744884587804E-1    4.409933010034324E-1   -2.375440646656689E-3    2.779392500664541E-3   -2.203451931034114E-3    2.968408781833247E-3    3.977940206094648E-1    3.199520590083443E-1
 8.061867587000000E9     3.698512021542963E-1    4.407341621057771E-1   -2.382783004767546E-3    2.753228550652866E-3   -2.275665030915420E-3    2.947711084483352E-3    3.977739256308671E-1    3.198052841631323E-1
 8.061869199500000E9     3.698377222056892E-1    4.406408104404500E-1   -2.401324105632650E-3    2.803876666723086E-3   -2.256517790042881E-3    2.955482092972727E-3    3.979798822461201E-1    3.199116779107010E-1
 8.061870812000000E9     3.700797900433768E-1    4.406002926575300E-1   -2.414767266806231E-3    2.804351164995834E-3   -2.285443504562765E-3    2.979560440016215E-3    3.979333553962059E-1    3.197322706808113E-1
