#  HZ   S   RI   R     50.00 
! Rohde & Schwarz Vector Network Analyzer 
! Rohde-Schwarz,ZNB20-2Port,1311601062101988,3.16
! Created: UTC 3/20/2024, 10:53:21 PM
! freq[Hz]                re:S11                  im:S11                  re:S21                  im:S21                  re:S12                  im:S12                  re:S22                  im:S22
 8.062179568000000E9     3.904638204728176E-1    4.221967419116640E-1   -3.130536707031516E-3    4.087211841572265E-3   -2.892955908170279E-3    4.281158227808527E-3    3.918868369337058E-1    2.805265597077933E-1
 8.062180054150000E9     3.905483014953834E-1    4.219736304762388E-1   -3.131578351994113E-3    4.083718713351385E-3   -2.868831267047001E-3    4.326987403836398E-3    3.917789640531757E-1    2.805905336347947E-1
 8.062180540300000E9     3.907745585148311E-1    4.218959844729689E-1   -3.142631542450834E-3    4.090544985732129E-3   -2.920781606893439E-3    4.301007877328886E-3    3.918811291062981E-1    2.805691298890167E-1
 8.062181026450000E9     3.908373480818907E-1    4.218462251781648E-1   -3.177094564095613E-3    4.093088666016879E-3   -2.929865847364845E-3    4.385320153215699E-3    3.918792108296921E-1    2.805092998546411E-1
 8.062181512600000E9     3.908657749036700E-1    4.217665231901914E-1   -3.162293450620357E-3    4.116941694285964E-3   -2.925620574196547E-3    4.373308018389100E-3    3.919503948578370E-1    2.804979672723495E-1
 8.062181998750000E9     3.909817845879722E-1    4.216157325544326E-1   -3.183483998448962E-3    4.149016765547895E-3   -2.930367467184588E-3    4.407434328564433E-3    3.918873155302234E-1    2.804807287422063E-1
 8.062182484900000E9     3.911301765696182E-1    4.215487639821242E-1   -3.193077815887638E-3    4.148517372118216E-3   -2.975387157906358E-3    4.387620454736183E-3    3.919415845157342E-1    2.804917912510628E-1
 8.062182971050000E9     3.910745784435218E-1    4.215488321833467E-1   -3.194502712257453E-3    4.166489482507896E-3   -2.958501833655853E-3    4.414289390570372E-3    3.919851928396174E-1    2.803467995330363E-1
 8.062183457200000E9     3.911400733121400E-1    4.213792570388161E-1   -3.182062574607519E-3    4.197632072447064E-3   -2.967429941222010E-3    4.418147690995374E-3    3.919893043648883E-1    2.803160691617817E-1
 8.062183943350000E9     3.913661100217275E-1    4.212567627940254E-1   -3.175352597611954E-3    4.202119412705214E-3   -2.977163491993877E-3    4.454283986037272E-3    3.920014302243852E-1    2.803749703836770E-1
 8.062184429500000E9     3.913305014074116E-1    4.211979649967206E-1   -3.173124548619054E-3    4.197289774889646E-3   -2.997084303944908E-3    4.444925274120475E-3    3.920101862458871E-1    2.802923970999150E-1
 8.062184915650000E9     3.913243894072292E-1    4.211387407143375E-1   -3.197110933940180E-3    4.243252372341271E-3   -2.994947941374816E-3    4.473817740973806E-3    3.919317948115448E-1    2.803392549276882E-1
 8.062185401800000E9     3.914437851646361E-1    4.209460069042928E-1   -3.240842768367500E-3    4.251655293944921E-3   -2.984975461560365E-3    4.495970211267559E-3    3.919898450388488E-1    2.802700618470942E-1
 8.062185887950000E9     3.916092525444441E-1    4.209383556278335E-1   -3.227495255463745E-3    4.277966262634261E-3   -2.982338932205359E-3    4.507506971988060E-3    3.920633711185187E-1    2.802709412185719E-1
 8.062186374100000E9     3.916423396746438E-1    4.209401586256514E-1   -3.224440696580270E-3    4.286379048780478E-3   -2.999130097967607E-3    4.540343396602128E-3    3.920363269964125E-1    2.802363426872144E-1
 8.062186860250000E9     3.917418719597627E-1    4.206406018315114E-1   -3.260208022607350E-3    4.289083796850566E-3   -3.042142503352352E-3    4.522941541026631E-3    3.921071573858685E-1    2.801380412689259E-1
 8.062187346400000E9     3.918926834279572E-1    4.205722037151144E-1   -3.258341687839773E-3    4.304310208295986E-3   -3.044832228144019E-3    4.550152881737836E-3    3.921567157571376E-1    2.801887999825560E-1
 8.062187832550000E9     3.917889308669884E-1    4.204644867574455E-1   -3.282217227026999E-3    4.313043191148952E-3   -3.048919549716014E-3    4.575079425340122E-3    3.921707663955898E-1    2.800871629418319E-1
 8.062188318700000E9     3.920476479930503E-1    4.205043850676541E-1   -3.267041758538653E-3    4.343578657248525E-3   -3.066175045608801E-3    4.615758326674421E-3    3.921433077786028E-1    2.800588907750085E-1
 8.062188804850000E9     3.920202717314576E-1    4.203865319174998E-1   -3.282309751071262E-3    4.356280742595330E-3   -3.074417051108755E-3    4.627045374535312E-3    3.921386839293679E-1    2.800859881607363E-1
 8.062189291000000E9     3.921402606800394E-1    4.202128720483252E-1   -3.265073576806243E-3    4.363410852338390E-3   -3.076652278646509E-3    4.623402072139588E-3    3.922109357215898E-1    2.800554710239603E-1
 8.062189777150000E9     3.922279722793336E-1    4.201154093355256E-1   -3.295735891396543E-3    4.403997711831839E-3   -3.077842314409831E-3    4.635773133012779E-3    3.922105148163462E-1    2.800017057479815E-1
 8.062190263300000E9     3.924474525535139E-1    4.201353941751267E-1   -3.305678707617762E-3    4.405184078883536E-3   -3.054707449247338E-3    4.650881057883323E-3    3.922106807333768E-1    2.800835391298451E-1
 8.062190749450000E9     3.924433841530663E-1    4.199992833879788E-1   -3.305329735253327E-3    4.427206915844241E-3   -3.088807487670726E-3    4.671884333953396E-3    3.923764278185891E-1    2.799464372354253E-1
 8.062191235600000E9     3.925430936430007E-1    4.198533204171520E-1   -3.323786602092692E-3    4.450942328217599E-3   -3.118715956360571E-3    4.691117429924295E-3    3.922438666611258E-1    2.799467242089940E-1
 8.062191721750000E9     3.925750327930200E-1    4.196924999381231E-1   -3.333209138608975E-3    4.446779856261104E-3   -3.116373340774214E-3    4.732703026138766E-3    3.922662789827663E-1    2.799776436640096E-1
 8.062192207900000E9     3.925388259750504E-1    4.197483928933470E-1   -3.349936280432074E-3    4.470536477453036E-3   -3.087783984832373E-3    4.761847045658089E-3    3.922750680617484E-1    2.800086931657034E-1
 8.062192694050000E9     3.927856325758696E-1    4.195890451132225E-1   -3.333122887395521E-3    4.496021658778885E-3   -3.147701561045992E-3    4.760756822546506E-3    3.921989863740454E-1    2.798392755082187E-1
 8.062193180200000E9     3.928663550739241E-1    4.194126239062503E-1   -3.375622044335950E-3    4.527562441441091E-3   -3.139726619601589E-3    4.784602070071781E-3    3.924240761667397E-1    2.799351645178856E-1
 8.062193666350000E9     3.929237012670841E-1    4.192578602863375E-1   -3.369402681140766E-3    4.522834531493197E-3   -3.160863552325700E-3    4.808084878519908E-3    3.923979170437246E-1    2.798671543042915E-1
 8.062194152500000E9     3.930596993661395E-1    4.191668327203822E-1   -3.364617044814228E-3    4.568372526237274E-3   -3.138076389906166E-3    4.837144445007066E-3    3.924286392341279E-1    2.797178510384160E-1
 8.062194638650000E9     3.930397826735723E-1    4.191654257260772E-1   -3.375808184598029E-3    4.583567004096937E-3   -3.144133409599965E-3    4.874495847519631E-3    3.922698024004489E-1    2.797708999591562E-1
 8.062195124800000E9     3.932997254440393E-1    4.189820113232233E-1   -3.386870931395303E-3    4.592449667432555E-3   -3.186369526427215E-3    4.846302357681543E-3    3.924505114279302E-1    2.796861156842043E-1
 8.062195610950000E9     3.932792004377471E-1    4.188987000673511E-1   -3.422844842648642E-3    4.618328324934651E-3   -3.185532199272160E-3    4.873643158605200E-3    3.924820343093157E-1    2.796439383676451E-1
 8.062196097100000E9     3.931986057951417E-1    4.187956368079255E-1   -3.417133273277168E-3    4.624302655419330E-3   -3.198217426680650E-3    4.885024946920805E-3    3.925384020579855E-1    2.795111946845913E-1
 8.062196583250000E9     3.934200170688286E-1    4.186371521490600E-1   -3.429260400113688E-3    4.669347620698872E-3   -3.192605192270832E-3    4.900929056041116E-3    3.925828288003309E-1    2.795891524258894E-1
 8.062197069400000E9     3.936470786736045E-1    4.185406293573686E-1   -3.434922612900026E-3    4.644298058475395E-3   -3.200320578609401E-3    4.972409343720978E-3    3.924240412066142E-1    2.795881580146047E-1
 8.062197555550000E9     3.936437530068368E-1    4.185194139392654E-1   -3.465567229394590E-3    4.708802702023168E-3   -3.207764906474338E-3    4.931504661750239E-3    3.924404267070185E-1    2.795718366266440E-1
 8.062198041700000E9     3.937114800816801E-1    4.183902181890867E-1   -3.474821674472366E-3    4.703209285910883E-3   -3.170361177750779E-3    4.995934445191846E-3    3.925616770333240E-1    2.796140637730811E-1
 8.062198527850000E9     3.937840525262807E-1    4.181611564952513E-1   -3.471226335520860E-3    4.735685237896736E-3   -3.227771270899139E-3    5.029501020283352E-3    3.926435744163257E-1    2.794491185871676E-1
 8.062199014000000E9     3.938220761089488E-1    4.180657261721975E-1   -3.485004971145278E-3    4.771651512554852E-3   -3.268879079161206E-3    5.062383390564132E-3    3.924440287265017E-1    2.794669603928587E-1
 8.062199500150000E9     3.940025023318340E-1    4.179735965148772E-1   -3.499282058895804E-3    4.765944533064463E-3   -3.256538331735160E-3    5.080303526267317E-3    3.926204365650511E-1    2.794893730039114E-1
 8.062199986300000E9     3.941337271883886E-1    4.178718926037787E-1   -3.492021148124183E-3    4.814879899301903E-3   -3.220847773472223E-3    5.079621242874400E-3    3.927439631327720E-1    2.795063139714024E-1
 8.062200472450000E9     3.940152854319389E-1    4.177135016922701E-1   -3.528645852636412E-3    4.828617295144918E-3   -3.275405771451855E-3    5.126288292247161E-3    3.925820163570043E-1    2.793751231449187E-1
 8.062200958600000E9     3.942103518143771E-1    4.176563921000697E-1   -3.522402598383807E-3    4.845052762821547E-3   -3.285437323209968E-3    5.101238449446066E-3    3.925662457695672E-1    2.793565389794473E-1
 8.062201444750000E9     3.943430506794258E-1    4.175007738196152E-1   -3.551272114574226E-3    4.889924062479312E-3   -3.268669942885658E-3    5.171031653157326E-3    3.926130113376689E-1    2.793524865021145E-1
 8.062201930900000E9     3.944276934978009E-1    4.174044604949861E-1   -3.541467116286689E-3    4.892187011223070E-3   -3.312113797851006E-3    5.162536833019938E-3    3.927673804414786E-1    2.794486386223590E-1
 8.062202417050000E9     3.945986770730838E-1    4.171948753032094E-1   -3.562192679538194E-3    4.918472008152363E-3   -3.314335943985611E-3    5.207887151268471E-3    3.925450445624352E-1    2.793639151076512E-1
 8.062202903200000E9     3.946974597574537E-1    4.172312696737807E-1   -3.574993815949328E-3    4.954784959984446E-3   -3.350832578173251E-3    5.240781389861215E-3    3.926559252062573E-1    2.792716142335030E-1
 8.062203389350000E9     3.948784652329515E-1    4.170365411435494E-1   -3.607859460074658E-3    4.984272103941229E-3   -3.340425259539520E-3    5.233141819486770E-3    3.927496927552734E-1    2.793844423932864E-1
 8.062203875500000E9     3.948724734539388E-1    4.169380369914251E-1   -3.581021158113781E-3    5.016060387838420E-3   -3.336996852262723E-3    5.282213205080591E-3    3.926742210292800E-1    2.790476844846944E-1
 8.062204361650000E9     3.950153530784777E-1    4.166729939489824E-1   -3.612992479157307E-3    5.037260654463822E-3   -3.331826839841375E-3    5.277349343392002E-3    3.927135601717189E-1    2.791469846549618E-1
 8.062204847800000E9     3.950185463349542E-1    4.165553728727117E-1   -3.615931553813364E-3    5.034663949387055E-3   -3.330764563141686E-3    5.304931797082725E-3    3.927956746429818E-1    2.791852160626072E-1
 8.062205333950000E9     3.951522777898445E-1    4.166423912299175E-1   -3.641952300370816E-3    5.069619698801322E-3   -3.408369380268159E-3    5.369960891516730E-3    3.928423874394045E-1    2.791365335225786E-1
 8.062205820100000E9     3.951777684620130E-1    4.162380872924810E-1   -3.667601680566329E-3    5.095800657700778E-3   -3.402784785066020E-3    5.387943910956376E-3    3.926407976186559E-1    2.790597087356294E-1
 8.062206306250000E9     3.954266931049533E-1    4.162973450700485E-1   -3.673332984480296E-3    5.138756230851075E-3   -3.414102636336933E-3    5.381761208574999E-3    3.927945047862409E-1    2.791251701704518E-1
 8.062206792400000E9     3.956022853499197E-1    4.159969515619440E-1   -3.680407064680791E-3    5.142466565522521E-3   -3.395564110948715E-3    5.448072776321994E-3    3.928820391964457E-1    2.790683629690812E-1
 8.062207278550000E9     3.954351759143287E-1    4.158048082818406E-1   -3.692498876352468E-3    5.167358172779383E-3   -3.428389451933141E-3    5.476114533225071E-3    3.927566529983936E-1    2.790309939735373E-1
 8.062207764700000E9     3.957316733758649E-1    4.158235444181058E-1   -3.691698410034020E-3    5.196073859979569E-3   -3.421129591453196E-3    5.488202509026565E-3    3.928401466296692E-1    2.790738073409887E-1
 8.062208250850000E9     3.958297348500261E-1    4.155938641755484E-1   -3.721346375566137E-3    5.234870209396985E-3   -3.474710076673444E-3    5.554814664051117E-3    3.928849298943964E-1    2.789130180768142E-1
 8.062208737000000E9     3.959711995440314E-1    4.153807617140824E-1   -3.735853944077197E-3    5.263658083844154E-3   -3.463474179220173E-3    5.562826658244973E-3    3.929679327379661E-1    2.788717364549312E-1
 8.062209223150000E9     3.960528925958713E-1    4.153142924860052E-1   -3.698928971005185E-3    5.265223693457002E-3   -3.492384204733060E-3    5.589290610065633E-3    3.927291695796626E-1    2.788188745418586E-1
 8.062209709300000E9     3.960510369143272E-1    4.150307317220184E-1   -3.760603063292825E-3    5.340341750477389E-3   -3.503816728401732E-3    5.629437723150271E-3    3.929117667208323E-1    2.789828282457860E-1
 8.062210195450000E9     3.961810551658764E-1    4.149792616714813E-1   -3.745690336321429E-3    5.363512113587924E-3   -3.474576904755967E-3    5.685702747734308E-3    3.930481998643550E-1    2.788335654368403E-1
 8.062210681600000E9     3.964402869789672E-1    4.148050502766240E-1   -3.766209416385208E-3    5.358522609130598E-3   -3.486614338566493E-3    5.704435597968125E-3    3.929887020324237E-1    2.788124773856672E-1
 8.062211167750000E9     3.964370335805119E-1    4.146791432784542E-1   -3.800569679683809E-3    5.403256918664286E-3   -3.504782029827288E-3    5.725674816866782E-3    3.930081963087682E-1    2.788552989721867E-1
 8.062211653900000E9     3.964446592294024E-1    4.145835569431250E-1   -3.814108542149372E-3    5.447568037450170E-3   -3.533141597552002E-3    5.731995903201512E-3    3.929110138406164E-1    2.787649222857988E-1
 8.062212140050000E9     3.967448405945910E-1    4.144685248365570E-1   -3.824981334624323E-3    5.479439252337519E-3   -3.533842477334161E-3    5.779315605035926E-3    3.930532319175454E-1    2.787511854485017E-1
 8.062212626200000E9     3.967847296098151E-1    4.142387034488331E-1   -3.815544704978197E-3    5.503444745754843E-3   -3.539721732109608E-3    5.843644732504889E-3    3.929939663425242E-1    2.786383878808525E-1
 8.062213112350000E9     3.967899076698920E-1    4.141083984436962E-1   -3.822407917247005E-3    5.541701962434338E-3   -3.548752573485787E-3    5.863248013480608E-3    3.930847455573678E-1    2.786713176139110E-1
 8.062213598500000E9     3.969600441980460E-1    4.139606504137419E-1   -3.848302601535623E-3    5.585827396959523E-3   -3.575556837628875E-3    5.889375221774200E-3    3.930058549939909E-1    2.785143579795958E-1
 8.062214084650000E9     3.971148441458898E-1    4.136850553316952E-1   -3.885029229388450E-3    5.636635705558810E-3   -3.603061602936589E-3    5.921311384274810E-3    3.930365447440308E-1    2.787084742485695E-1
 8.062214570800000E9     3.973075282346515E-1    4.135318830126173E-1   -3.878154622569485E-3    5.633728718450297E-3   -3.616270496811496E-3    5.953481549336993E-3    3.931448102794876E-1    2.785665092214037E-1
 8.062215056950000E9     3.973520892346656E-1    4.133110468157846E-1   -3.908859891619286E-3    5.676593415118743E-3   -3.607168890092107E-3    6.002877457658187E-3    3.929929382187758E-1    2.784742769621842E-1
 8.062215543100000E9     3.975291612571658E-1    4.131218379160385E-1   -3.937039785824359E-3    5.737045653167654E-3   -3.595536611475481E-3    6.004925047612987E-3    3.930481341926140E-1    2.785478219143027E-1
 8.062216029250000E9     3.975428121655186E-1    4.130544872517022E-1   -3.944445280627083E-3    5.748391375201911E-3   -3.641722694683597E-3    6.106542149584240E-3    3.932398582833062E-1    2.785312214125865E-1
 8.062216515400000E9     3.977150861019534E-1    4.128085642986616E-1   -3.913573223626212E-3    5.778889688965748E-3   -3.646750713512449E-3    6.128884924542634E-3    3.931334908571965E-1    2.785536380795171E-1
 8.062217001550000E9     3.978865801795822E-1    4.125998641885155E-1   -3.959626756629327E-3    5.839211081615953E-3   -3.662795092679372E-3    6.146094272663163E-3    3.931556898812411E-1    2.784168310071832E-1
 8.062217487700000E9     3.979607817713404E-1    4.123258685520727E-1   -3.989567232130325E-3    5.848447415538287E-3   -3.672934293292980E-3    6.189577006777199E-3    3.931494880385896E-1    2.783806861610932E-1
 8.062217973850000E9     3.981011369399433E-1    4.121771013738394E-1   -3.970493189847706E-3    5.908062260760434E-3   -3.677042826697368E-3    6.225312896942208E-3    3.931585968150679E-1    2.782301172104049E-1
 8.062218460000000E9     3.981813926266802E-1    4.120306258917433E-1   -4.007592396398044E-3    5.934378623425211E-3   -3.687680796219331E-3    6.251138719529981E-3    3.932792329282604E-1    2.783561053981617E-1
 8.062218946150000E9     3.984153455013849E-1    4.117556475109739E-1   -4.010218290227653E-3    5.996428188497863E-3   -3.667330457853545E-3    6.338957589650537E-3    3.932093481830303E-1    2.782266358358624E-1
 8.062219432300000E9     3.985003327075131E-1    4.116962034913493E-1   -4.039675905228829E-3    6.005186042532860E-3   -3.739458782319211E-3    6.368829350750027E-3    3.932383055534185E-1    2.782538799045045E-1
 8.062219918450000E9     3.986175503647997E-1    4.114376699735364E-1   -4.042348370616937E-3    6.058554692897336E-3   -3.702321289030168E-3    6.424416984033389E-3    3.932417984160597E-1    2.781665845880307E-1
 8.062220404600000E9     3.988447931015079E-1    4.112138432894487E-1   -4.069245077538116E-3    6.102726674002050E-3   -3.742145284273142E-3    6.448203875559084E-3    3.932195416712223E-1    2.781767975591110E-1
 8.062220890750000E9     3.988026336850620E-1    4.110271606211707E-1   -4.084283869278993E-3    6.147825449170414E-3   -3.750316054365889E-3    6.485770995419345E-3    3.932600114988783E-1    2.780929004242052E-1
 8.062221376900000E9     3.991552782863238E-1    4.107384348439246E-1   -4.109610492236792E-3    6.215408315273258E-3   -3.753299248794840E-3    6.540898829211912E-3    3.932253527990198E-1    2.780332175127624E-1
 8.062221863050000E9     3.991675625876037E-1    4.105775137873001E-1   -4.119004388777006E-3    6.218954912680311E-3   -3.789020278111543E-3    6.587350542285638E-3    3.932475761456124E-1    2.782076676963482E-1
 8.062222349200000E9     3.993014762552726E-1    4.103757740473370E-1   -4.145442010228084E-3    6.304244314585367E-3   -3.795338841848150E-3    6.611719548723537E-3    3.932846407875940E-1    2.779217189864968E-1
 8.062222835350000E9     3.994674413366375E-1    4.100909172218235E-1   -4.142653087970486E-3    6.317126730474306E-3   -3.821258381277890E-3    6.679682678168254E-3    3.933672703068076E-1    2.780707524372229E-1
 8.062223321500000E9     3.996682416435259E-1    4.098724188012881E-1   -4.168349237950398E-3    6.411261812300891E-3   -3.844053608335453E-3    6.725862615169918E-3    3.934410062081674E-1    2.778810274472497E-1
