#  HZ   S   RI   R     50.00 
! Rohde & Schwarz Vector Network Analyzer 
! Rohde-Schwarz,ZNB20-2Port,1311601062101988,3.16
! Created: UTC 3/20/2024, 11:06:43 PM
! freq[Hz]                re:S11                  im:S11                  re:S21                  im:S21                  re:S12                  im:S12                  re:S22                  im:S22
 8.061712702000000E9     3.591715250202160E-1    4.500518797809720E-1   -2.058534922943834E-3    2.145788571485998E-3   -1.973790300598229E-3    2.324128285252683E-3    3.926327966597318E-1    3.276460395860922E-1
 8.061714332725000E9     3.593034328713847E-1    4.500197842389411E-1   -2.081591307895444E-3    2.178598811794524E-3   -1.965277230504491E-3    2.308622189375793E-3    3.925000883272146E-1    3.275141912106780E-1
 8.061715963450000E9     3.594737659678752E-1    4.499990329533172E-1   -2.049808204609187E-3    2.184526641895728E-3   -1.956945336335133E-3    2.334218841975562E-3    3.924388040561592E-1    3.275448656198826E-1
 8.061717594175000E9     3.596391158841799E-1    4.497486432269620E-1   -2.099980349187114E-3    2.180487231577017E-3   -1.987125278188566E-3    2.336637348878369E-3    3.927312362806680E-1    3.273013753113400E-1
 8.061719224900000E9     3.597529514359973E-1    4.497573232306794E-1   -2.073773775120566E-3    2.168156539558867E-3   -1.983502627068772E-3    2.316086075093361E-3    3.927406914939170E-1    3.273117154481502E-1
 8.061720855625000E9     3.599303231577496E-1    4.496082726658268E-1   -2.100326143568472E-3    2.193037772672460E-3   -1.953443006269612E-3    2.358080680260559E-3    3.928174453625452E-1    3.271988860997041E-1
 8.061722486350000E9     3.600375822421891E-1    4.494962608263218E-1   -2.096110151698509E-3    2.198241283312832E-3   -1.985550831303294E-3    2.338616556304384E-3    3.928039500164307E-1    3.270411081667106E-1
 8.061724117075000E9     3.600969596863091E-1    4.494444839719603E-1   -2.088936632857090E-3    2.188887470447196E-3   -1.972955381015393E-3    2.320551124777607E-3    3.927957376017761E-1    3.270746153015807E-1
 8.061725747800000E9     3.603229222864322E-1    4.494160108069595E-1   -2.101761738366081E-3    2.200423657351985E-3   -1.982203747356925E-3    2.321606229299083E-3    3.931624174571939E-1    3.269883560760476E-1
 8.061727378525000E9     3.602416966502371E-1    4.492492703021906E-1   -2.121080237319612E-3    2.186932948193221E-3   -1.977867969581872E-3    2.338757612694262E-3    3.931227239670897E-1    3.268569951482035E-1
 8.061729009250000E9     3.604314035811308E-1    4.492268242850136E-1   -2.116318648481517E-3    2.194816948261261E-3   -2.008756696071528E-3    2.334810734209214E-3    3.931200458301293E-1    3.266587536128424E-1
 8.061730639975000E9     3.605917759309996E-1    4.491116248824252E-1   -2.110589518059212E-3    2.193858954200500E-3   -2.001493549267173E-3    2.358479757735074E-3    3.930803286039493E-1    3.266990716757023E-1
 8.061732270700000E9     3.606732351104047E-1    4.490729424161753E-1   -2.104398048579525E-3    2.200578161261142E-3   -1.988412929012599E-3    2.352263447292528E-3    3.932205004183197E-1    3.267425860205054E-1
 8.061733901425000E9     3.609024515860677E-1    4.489424648869819E-1   -2.115877050179689E-3    2.229544149168647E-3   -1.983713246930830E-3    2.337576352478793E-3    3.934065047603461E-1    3.265403895762017E-1
 8.061735532150000E9     3.608763179085668E-1    4.488198893845525E-1   -2.119085307361221E-3    2.232113298539601E-3   -2.050030535230669E-3    2.363362118449335E-3    3.934377141307752E-1    3.264524310119722E-1
 8.061737162875000E9     3.609909481539335E-1    4.488237050020334E-1   -2.075942218484525E-3    2.243229209854673E-3   -1.975134671625714E-3    2.369355061775487E-3    3.933656787175688E-1    3.264941191741098E-1
 8.061738793600000E9     3.610751930167510E-1    4.486670567840612E-1   -2.096949990171261E-3    2.237582201082393E-3   -1.991972030068625E-3    2.418318047813931E-3    3.934001302377602E-1    3.264747007225726E-1
 8.061740424325000E9     3.612144341927991E-1    4.486623784215181E-1   -2.125925905108755E-3    2.258964546572088E-3   -2.021163277408542E-3    2.377704051752419E-3    3.935030306618252E-1    3.262925109049606E-1
 8.061742055050000E9     3.612591306646318E-1    4.485208826711685E-1   -2.109365621965466E-3    2.228658394631798E-3   -2.014664011973334E-3    2.413015361287074E-3    3.936362803320472E-1    3.261549818444234E-1
 8.061743685775000E9     3.614457780998221E-1    4.483724769496241E-1   -2.107110903891719E-3    2.236058860414026E-3   -2.024084242829810E-3    2.400869241141653E-3    3.936254449686467E-1    3.261509646865596E-1
 8.061745316500000E9     3.615800436666378E-1    4.483404670720619E-1   -2.118457826117413E-3    2.247218744246894E-3   -1.990977167072135E-3    2.401958877177797E-3    3.936842182224095E-1    3.260254854892084E-1
 8.061746947225000E9     3.615772972337378E-1    4.481636269697581E-1   -2.101562110416790E-3    2.247586551464749E-3   -2.015552224403717E-3    2.396798263499543E-3    3.938544001782507E-1    3.259205966270926E-1
 8.061748577950000E9     3.617618328519461E-1    4.481008051871328E-1   -2.146583849906736E-3    2.271851872841320E-3   -1.992849326649249E-3    2.418534665324611E-3    3.938552454760651E-1    3.258850982965811E-1
 8.061750208675000E9     3.618135120532294E-1    4.480763285151481E-1   -2.113267128822357E-3    2.265402520722098E-3   -1.986139575128070E-3    2.386869544169018E-3    3.939071330257469E-1    3.256962973741692E-1
 8.061751839400000E9     3.618457911924003E-1    4.479429157927948E-1   -2.130635343804036E-3    2.288639977037587E-3   -2.021416955465055E-3    2.416164627190280E-3    3.940681632681219E-1    3.255771397163231E-1
 8.061753470125000E9     3.621323017956417E-1    4.478019633817164E-1   -2.141036490110118E-3    2.296761257221137E-3   -2.013618937744442E-3    2.447271448857328E-3    3.939527552327206E-1    3.256764578336603E-1
 8.061755100850000E9     3.621878837780195E-1    4.476243155860432E-1   -2.147926460161210E-3    2.266784766152853E-3   -2.012117996924417E-3    2.418523021562157E-3    3.941083955062414E-1    3.255211710438279E-1
 8.061756731575000E9     3.623092312540614E-1    4.476325562795920E-1   -2.128783789393878E-3    2.277378072213510E-3   -2.033736858479349E-3    2.457232870260017E-3    3.941030966255175E-1    3.255918022239367E-1
 8.061758362300000E9     3.624588505175797E-1    4.475149680387223E-1   -2.134477474777063E-3    2.270467544768960E-3   -1.998372391728852E-3    2.441361418220358E-3    3.942756703434449E-1    3.254256893178050E-1
 8.061759993025000E9     3.624355983760020E-1    4.474327457065719E-1   -2.135609316735866E-3    2.299062648210357E-3   -2.048615223306938E-3    2.447808340985850E-3    3.944499519902862E-1    3.253597914687374E-1
 8.061761623750000E9     3.625796765602271E-1    4.472951793440733E-1   -2.127295564396771E-3    2.302933615057166E-3   -2.047139323488469E-3    2.422626605404164E-3    3.945128572846749E-1    3.252789953642317E-1
 8.061763254475000E9     3.627895161383479E-1    4.471933510302530E-1   -2.143938017295770E-3    2.322691616332456E-3   -2.004169887837333E-3    2.453644871956564E-3    3.944945283798603E-1    3.252278324381488E-1
 8.061764885200000E9     3.629241801194131E-1    4.472340108994384E-1   -2.138021686857994E-3    2.338505401364629E-3   -2.006978886222306E-3    2.473301065247610E-3    3.944383425962433E-1    3.251318350616939E-1
 8.061766515925000E9     3.630300430163560E-1    4.470936985175483E-1   -2.153034380595378E-3    2.329562917249604E-3   -2.055805724443518E-3    2.429355895770365E-3    3.945717620379044E-1    3.249942527605733E-1
 8.061768146650000E9     3.630922177855422E-1    4.471334248318101E-1   -2.129318845679482E-3    2.344415527973767E-3   -2.042791497468687E-3    2.495571349132048E-3    3.945429836180584E-1    3.249680516282767E-1
 8.061769777375000E9     3.631385650071274E-1    4.470871512203345E-1   -2.167030287396200E-3    2.338955171066645E-3   -2.065371581062367E-3    2.499443967854443E-3    3.947038202796003E-1    3.247686394262513E-1
 8.061771408100000E9     3.632849105562574E-1    4.468778500755137E-1   -2.138147728068607E-3    2.339762718379471E-3   -2.016298285921705E-3    2.511014207189504E-3    3.946545911189206E-1    3.246525791132264E-1
 8.061773038825000E9     3.634081849695193E-1    4.466660740311904E-1   -2.152674578358937E-3    2.330074104416372E-3   -2.048589445315149E-3    2.458876086571533E-3    3.948010686768647E-1    3.247852890763184E-1
 8.061774669550000E9     3.635201536273698E-1    4.465063307534937E-1   -2.146416499844826E-3    2.349718387971880E-3   -2.026748938146411E-3    2.484270869907357E-3    3.948128288085558E-1    3.245949621521450E-1
 8.061776300275000E9     3.636619574924603E-1    4.465008890375241E-1   -2.174658482181886E-3    2.381254444056631E-3   -2.041837660352589E-3    2.511115370542823E-3    3.949635819528124E-1    3.244853389429219E-1
 8.061777931000000E9     3.635871468163371E-1    4.464062560476693E-1   -2.191693718566357E-3    2.364404737733897E-3   -2.067340152787638E-3    2.528772450768799E-3    3.950271833606088E-1    3.244662912806928E-1
 8.061779561725000E9     3.637836890028260E-1    4.462341638875222E-1   -2.179421776835305E-3    2.374028165482289E-3   -2.049007686490649E-3    2.478633574722927E-3    3.950301496052048E-1    3.243663015368985E-1
 8.061781192450000E9     3.638972895925915E-1    4.461811202709544E-1   -2.215896892009617E-3    2.375323464906097E-3   -2.033808151592509E-3    2.542325695604039E-3    3.950744430784681E-1    3.242693794133579E-1
 8.061782823175000E9     3.640440097005342E-1    4.460083639401922E-1   -2.180511074308526E-3    2.388402444758677E-3   -2.070825289176841E-3    2.526487277262941E-3    3.952066196322675E-1    3.242176382961560E-1
 8.061784453900000E9     3.642567162924548E-1    4.461692736333767E-1   -2.208928393944078E-3    2.397113871426267E-3   -2.028671280299495E-3    2.561716159168132E-3    3.953228765775783E-1    3.241279390986656E-1
 8.061786084625000E9     3.643460291403162E-1    4.459585862547193E-1   -2.199676873602576E-3    2.398885942858022E-3   -2.037111700056923E-3    2.562733259589466E-3    3.952745645295668E-1    3.241502573243827E-1
 8.061787715350000E9     3.643434331814587E-1    4.459058224738705E-1   -2.190609093524592E-3    2.376709699540398E-3   -2.093616599351358E-3    2.601667611622835E-3    3.954784558181109E-1    3.239603088710042E-1
 8.061789346075000E9     3.645055555842781E-1    4.457726513866712E-1   -2.221408304189842E-3    2.391547875343023E-3   -2.050888494024250E-3    2.597800943160032E-3    3.955340375198567E-1    3.240239161780246E-1
 8.061790976800000E9     3.646045568553114E-1    4.457702879628481E-1   -2.221235763699651E-3    2.433261703991875E-3   -2.088835390241203E-3    2.558134003593182E-3    3.955557294525658E-1    3.237395917988966E-1
 8.061792607525000E9     3.647168657900549E-1    4.455729363557113E-1   -2.207538505429231E-3    2.405822982242138E-3   -2.080045733278221E-3    2.541134189733726E-3    3.955732919661597E-1    3.237643238698881E-1
 8.061794238250000E9     3.647858851512736E-1    4.453731954632344E-1   -2.180263466959480E-3    2.414214924771662E-3   -2.078954050434815E-3    2.585673951883962E-3    3.956364599489156E-1    3.237137017316803E-1
 8.061795868975000E9     3.649586184223262E-1    4.454188672678475E-1   -2.218936151570878E-3    2.446619372882950E-3   -2.072627508230480E-3    2.601516412728909E-3    3.957101685006780E-1    3.235555224157337E-1
 8.061797499700000E9     3.650473902733922E-1    4.452495151655729E-1   -2.200239113868633E-3    2.435516381503659E-3   -2.057382000532124E-3    2.581109756000275E-3    3.957415183367868E-1    3.234849544731351E-1
 8.061799130425000E9     3.651189466805923E-1    4.451708740160155E-1   -2.230176081783853E-3    2.446240223882248E-3   -2.059881528932232E-3    2.589829601300892E-3    3.959087784581884E-1    3.232982583480476E-1
 8.061800761150000E9     3.653529191137927E-1    4.450721607627557E-1   -2.233710543266992E-3    2.458699455721677E-3   -2.100912837450836E-3    2.602571027857741E-3    3.958120005738991E-1    3.234341312056225E-1
 8.061802391875000E9     3.654078915882719E-1    4.448442620224122E-1   -2.227674999304597E-3    2.482998212611430E-3   -2.067923289636662E-3    2.631410538254862E-3    3.959299876641784E-1    3.232555923734698E-1
 8.061804022600000E9     3.654406869953277E-1    4.448689390600023E-1   -2.221867454817527E-3    2.477939577140384E-3   -2.133124300929227E-3    2.606096596453316E-3    3.960448202043132E-1    3.231138991462250E-1
 8.061805653325000E9     3.655707000653193E-1    4.447913870949748E-1   -2.235068790582070E-3    2.477493994082168E-3   -2.113246857034551E-3    2.635104930312716E-3    3.961465551717413E-1    3.230584142256304E-1
 8.061807284050000E9     3.657213869288199E-1    4.446344267445745E-1   -2.223617864974321E-3    2.490967148545931E-3   -2.091203767913795E-3    2.652411150157844E-3    3.961914685327062E-1    3.229835449385656E-1
 8.061808914775000E9     3.659252839539672E-1    4.446300590192906E-1   -2.236560188264982E-3    2.485025939967708E-3   -2.126717543751813E-3    2.642684374379607E-3    3.962528803038567E-1    3.230204528551829E-1
 8.061810545500000E9     3.659984080691229E-1    4.443849554283683E-1   -2.242247499681176E-3    2.489236492840893E-3   -2.132381752794882E-3    2.659826635848277E-3    3.963180042221813E-1    3.226876008516835E-1
 8.061812176225000E9     3.661075317292412E-1    4.443350485474303E-1   -2.254392605580347E-3    2.495992296411983E-3   -2.154840163807250E-3    2.680998178826354E-3    3.961938086351792E-1    3.227056385662232E-1
 8.061813806950000E9     3.662036173406239E-1    4.441924320540154E-1   -2.248265323574247E-3    2.541485942338569E-3   -2.126331070019054E-3    2.682636465124422E-3    3.965689978402945E-1    3.226305865507881E-1
 8.061815437675000E9     3.663212566148555E-1    4.440896675511231E-1   -2.273976012310064E-3    2.552365418213475E-3   -2.161758744804885E-3    2.717200601391334E-3    3.964748264765983E-1    3.226744097585415E-1
 8.061817068400000E9     3.665606590522612E-1    4.439469518341822E-1   -2.255739052397107E-3    2.537278636419772E-3   -2.119962993498335E-3    2.703918506373920E-3    3.964316750128214E-1    3.225171052898251E-1
 8.061818699125000E9     3.665979780213383E-1    4.439219874076316E-1   -2.257028864745205E-3    2.551593433606124E-3   -2.132631301603070E-3    2.689000556187901E-3    3.965641584174537E-1    3.224023199087886E-1
 8.061820329850000E9     3.667015294619864E-1    4.436877137135127E-1   -2.296768567126975E-3    2.566280523275768E-3   -2.107483332359973E-3    2.722083232521367E-3    3.965008313989076E-1    3.222981154442609E-1
 8.061821960575000E9     3.667888925434707E-1    4.437034083161550E-1   -2.302612607685542E-3    2.535876331696932E-3   -2.115742739294741E-3    2.693429666675338E-3    3.966564902743556E-1    3.221155063273703E-1
 8.061823591300000E9     3.670383907022177E-1    4.435603093673188E-1   -2.291188285180909E-3    2.564808777371404E-3   -2.134169343690705E-3    2.739959596798564E-3    3.967168378858458E-1    3.222408421682233E-1
 8.061825222025000E9     3.670920461573255E-1    4.433577807778319E-1   -2.267019123757214E-3    2.562036974811870E-3   -2.176146410799783E-3    2.749130149579921E-3    3.967830957680236E-1    3.221730596466740E-1
 8.061826852750000E9     3.670998694549013E-1    4.434771540058656E-1   -2.281282966018263E-3    2.584276631501234E-3   -2.146572010640055E-3    2.719661862433256E-3    3.968409106254986E-1    3.220325192631254E-1
 8.061828483475000E9     3.672149962221392E-1    4.432879646277746E-1   -2.303703391857802E-3    2.583937996918283E-3   -2.144583581067279E-3    2.759109550783608E-3    3.968628843643956E-1    3.219223946016270E-1
 8.061830114200000E9     3.673998286513043E-1    4.430934119898510E-1   -2.287920214427848E-3    2.625682188106711E-3   -2.162151732408386E-3    2.781999751404349E-3    3.971283300529617E-1    3.219021803812500E-1
 8.061831744925000E9     3.675262337056448E-1    4.429663850408326E-1   -2.292875224497571E-3    2.635376199966578E-3   -2.154645515076035E-3    2.765416502454071E-3    3.971295651404743E-1    3.217456629668177E-1
 8.061833375650000E9     3.675557015290344E-1    4.428157976984791E-1   -2.310717646702800E-3    2.621373553001430E-3   -2.162104601209374E-3    2.774927093344557E-3    3.973418344244909E-1    3.217373868934015E-1
 8.061835006375000E9     3.676920157109153E-1    4.427562329366827E-1   -2.315858334123704E-3    2.657669504851550E-3   -2.166101823347938E-3    2.825871969619708E-3    3.971828561209235E-1    3.214987114101898E-1
 8.061836637100000E9     3.678163328165256E-1    4.425983452633134E-1   -2.333446673532850E-3    2.660542649023654E-3   -2.164124295832987E-3    2.834102924955209E-3    3.973011812550894E-1    3.214873364625414E-1
 8.061838267825000E9     3.678772043918173E-1    4.425705196912477E-1   -2.324759601047999E-3    2.677611634167180E-3   -2.190434038899306E-3    2.821396690405500E-3    3.973095342687248E-1    3.215153483928027E-1
 8.061839898550000E9     3.680326448310223E-1    4.424738721375502E-1   -2.334990486958193E-3    2.658020111161839E-3   -2.172581432733104E-3    2.827956134555254E-3    3.974333579267611E-1    3.213880256042270E-1
 8.061841529275000E9     3.680841940165166E-1    4.422697072815746E-1   -2.356400788380498E-3    2.672267954552893E-3   -2.184098599371558E-3    2.827898048877523E-3    3.974817987334255E-1    3.212296572258471E-1
 8.061843160000000E9     3.682901944223385E-1    4.423444213542529E-1   -2.325293690275107E-3    2.665732671374318E-3   -2.189790457947970E-3    2.850506059270509E-3    3.975920274854280E-1    3.211647489766152E-1
 8.061844790725000E9     3.684596252471998E-1    4.421026286075871E-1   -2.346525854594553E-3    2.693157194382836E-3   -2.190412852218241E-3    2.880028587525761E-3    3.975788181908286E-1    3.211106461586549E-1
 8.061846421450000E9     3.685928804725137E-1    4.420338054969610E-1   -2.334170277435956E-3    2.722767346974388E-3   -2.193782949684761E-3    2.890001035958782E-3    3.975914335058780E-1    3.209994520244212E-1
 8.061848052175000E9     3.686790517857653E-1    4.420011061068789E-1   -2.357766357401589E-3    2.718146371961403E-3   -2.196851146137460E-3    2.906439450454313E-3    3.976314202070568E-1    3.209908832424359E-1
 8.061849682900000E9     3.687831255139954E-1    4.418153692409296E-1   -2.355353983157230E-3    2.714403258555073E-3   -2.188286440768748E-3    2.896994690749197E-3    3.978892203622906E-1    3.207972140672178E-1
 8.061851313625000E9     3.689514618734218E-1    4.416355154873258E-1   -2.395527625686196E-3    2.751186756727321E-3   -2.212260301436176E-3    2.939930624286547E-3    3.978264554070753E-1    3.208571855210426E-1
 8.061852944350000E9     3.690720595950712E-1    4.415368335059819E-1   -2.372611312480385E-3    2.764957195101757E-3   -2.209103687549182E-3    2.918888581358042E-3    3.979454491956135E-1    3.206050132031731E-1
 8.061854575075000E9     3.691831954221747E-1    4.413611298759250E-1   -2.370362698171542E-3    2.762712363683850E-3   -2.231817348316876E-3    2.922626236614435E-3    3.978608218064220E-1    3.205130168798845E-1
 8.061856205800000E9     3.692716089036238E-1    4.413741949544661E-1   -2.371483468490601E-3    2.761107337748490E-3   -2.237350769650222E-3    2.917341489297230E-3    3.979974955174946E-1    3.205266464529057E-1
 8.061857836525000E9     3.693724833190075E-1    4.411915912043111E-1   -2.368459185036571E-3    2.797555792123589E-3   -2.203993361243013E-3    2.937866176566652E-3    3.979639720986678E-1    3.203766912707228E-1
 8.061859467250000E9     3.694563986473856E-1    4.410371589770039E-1   -2.397497869837823E-3    2.805534639341073E-3   -2.247833809009731E-3    2.984241535469005E-3    3.982090815875384E-1    3.203085198561763E-1
