#  HZ   S   RI   R     50.00 
! Rohde & Schwarz Vector Network Analyzer 
! Rohde-Schwarz,ZNB20-2Port,1311601062101988,3.16
! Created: UTC 3/20/2024, 11:06:55 PM
! freq[Hz]                re:S11                  im:S11                  re:S21                  im:S21                  re:S12                  im:S12                  re:S22                  im:S22
 8.061696621000000E9     3.582667295571103E-1    4.508955257277861E-1   -2.060316496159624E-3    2.114986443173713E-3   -1.979138226227551E-3    2.266177902409282E-3    3.920796845730076E-1    3.288044540021750E-1
 8.061698319300000E9     3.583737078907774E-1    4.507932359399009E-1   -2.078476299947873E-3    2.109171106046206E-3   -1.952473643736757E-3    2.283979913583353E-3    3.920943006307653E-1    3.286651278698185E-1
 8.061700017600000E9     3.584606071387793E-1    4.507397426473482E-1   -2.091839228427605E-3    2.162433552074351E-3   -1.952076917716139E-3    2.282208192546486E-3    3.922099000602081E-1    3.286555079392097E-1
 8.061701715900000E9     3.585898241588774E-1    4.506516037132403E-1   -2.085254422929873E-3    2.113595438588052E-3   -1.949287697710542E-3    2.297414042335363E-3    3.921431609661458E-1    3.284425610760297E-1
 8.061703414200000E9     3.586133592735310E-1    4.506020426376984E-1   -2.082153341884912E-3    2.130957579749645E-3   -1.950854701280190E-3    2.301767278300672E-3    3.922646329156271E-1    3.285887243557549E-1
 8.061705112500000E9     3.588874272445588E-1    4.504705432106234E-1   -2.081696257276112E-3    2.171934200703628E-3   -1.970523518383705E-3    2.317651396677094E-3    3.922867952237300E-1    3.284508683990592E-1
 8.061706810800000E9     3.590986246049606E-1    4.504412980480660E-1   -2.064102171335406E-3    2.165535409618720E-3   -1.977441548590484E-3    2.322018025247546E-3    3.925091213312006E-1    3.283149083320247E-1
 8.061708509100000E9     3.591613921936626E-1    4.502587976184282E-1   -2.054128167659342E-3    2.162966805996959E-3   -1.964937812203086E-3    2.270909345251675E-3    3.924450325957465E-1    3.281759042999089E-1
 8.061710207400000E9     3.592736028514575E-1    4.502072814178198E-1   -2.087486889035155E-3    2.174800911792227E-3   -1.960417860505012E-3    2.270674598628429E-3    3.924647654452330E-1    3.282644665699316E-1
 8.061711905700000E9     3.594488533772216E-1    4.500356246542803E-1   -2.070644951963917E-3    2.151256742262637E-3   -1.967177635180575E-3    2.327234032882808E-3    3.927680843643425E-1    3.280224478817593E-1
 8.061713604000000E9     3.594721034504446E-1    4.499643069923331E-1   -2.079386349350343E-3    2.185072492218077E-3   -1.999369108157289E-3    2.299759583486946E-3    3.928924862794047E-1    3.281155542486813E-1
 8.061715302300000E9     3.596438303551240E-1    4.498273491189111E-1   -2.069089962730322E-3    2.168837112553113E-3   -1.932011952057900E-3    2.344899301134664E-3    3.928575144165353E-1    3.278899053306930E-1
 8.061717000600000E9     3.597656661454761E-1    4.498448990369073E-1   -2.088852806403254E-3    2.167532599252148E-3   -1.941663912619551E-3    2.311572912272067E-3    3.928086322401190E-1    3.277782342968492E-1
 8.061718698900000E9     3.598482449842528E-1    4.496774112363893E-1   -2.064734267642684E-3    2.187833687949201E-3   -1.963067104807269E-3    2.326982364403474E-3    3.928608496319443E-1    3.278127272240945E-1
 8.061720397200000E9     3.599071042400748E-1    4.496090276376241E-1   -2.063804871649409E-3    2.163423621656598E-3   -1.999802603123054E-3    2.322578820293875E-3    3.928806444366048E-1    3.275950889155847E-1
 8.061722095500000E9     3.600702398383845E-1    4.494765439004513E-1   -2.089990529529687E-3    2.183099528705477E-3   -2.006891725835128E-3    2.340926544053261E-3    3.928569948910403E-1    3.276486213669522E-1
 8.061723793800000E9     3.602706503274796E-1    4.494034121996965E-1   -2.106429157144407E-3    2.205745603564657E-3   -2.018660573881470E-3    2.353591829817518E-3    3.930994175978340E-1    3.274010047935891E-1
 8.061725492100000E9     3.602472347125809E-1    4.492450081585799E-1   -2.080847620567518E-3    2.213917379740735E-3   -1.993048417962627E-3    2.327374039305487E-3    3.932266489115623E-1    3.273550216585701E-1
 8.061727190400000E9     3.603897026841071E-1    4.491500678246603E-1   -2.105099073189431E-3    2.211323003585786E-3   -1.946232580880741E-3    2.329426016232118E-3    3.932620155740732E-1    3.273920794124210E-1
 8.061728888700000E9     3.604654716978688E-1    4.489954481568925E-1   -2.106343600056469E-3    2.207257588178690E-3   -1.996961913993172E-3    2.322437361442541E-3    3.933528513058895E-1    3.272141873260009E-1
 8.061730587000000E9     3.606130312457680E-1    4.490274510975747E-1   -2.114075622060157E-3    2.215776854831611E-3   -1.967371788445791E-3    2.367838628341263E-3    3.934816065969851E-1    3.270579106948261E-1
 8.061732285300000E9     3.607460588823958E-1    4.488878935770978E-1   -2.112432672725382E-3    2.192123565254214E-3   -2.004022338622890E-3    2.377619591425487E-3    3.934681158687154E-1    3.270292713606418E-1
 8.061733983600000E9     3.608341477215274E-1    4.489170188593615E-1   -2.100370640430545E-3    2.229783228431029E-3   -1.965538261623875E-3    2.354808273760850E-3    3.936614406398401E-1    3.269945038938479E-1
 8.061735681900000E9     3.610489008063286E-1    4.486369985316899E-1   -2.098823706075437E-3    2.222128349297620E-3   -2.010084742581432E-3    2.384012496168727E-3    3.936055523666476E-1    3.270022358395439E-1
 8.061737380200000E9     3.610823289041575E-1    4.486961789978245E-1   -2.141611338469320E-3    2.236207559799538E-3   -1.984646120836857E-3    2.379016592615694E-3    3.936859443853821E-1    3.268377306104016E-1
 8.061739078500000E9     3.613121532414456E-1    4.485762666609520E-1   -2.125454983411448E-3    2.220330976958176E-3   -1.976783523653301E-3    2.449686356611777E-3    3.936328930233167E-1    3.268008991776174E-1
 8.061740776800000E9     3.612169527040300E-1    4.486060164144761E-1   -2.127457072629194E-3    2.235731507016905E-3   -1.997981924689699E-3    2.418603050119319E-3    3.938815397857224E-1    3.265870880721359E-1
 8.061742475100000E9     3.614703038648894E-1    4.484419033637118E-1   -2.099162913324255E-3    2.264756392125011E-3   -2.021535826304883E-3    2.388134686710665E-3    3.937776684844027E-1    3.266116043802000E-1
 8.061744173400000E9     3.614980820569669E-1    4.483805271957435E-1   -2.101988654657982E-3    2.269577525774816E-3   -2.009982610548047E-3    2.428111427234447E-3    3.938238148699738E-1    3.265302460860186E-1
 8.061745871700000E9     3.617228085011617E-1    4.481512848622518E-1   -2.138243392380485E-3    2.245692936624398E-3   -1.995383003190796E-3    2.408271221808189E-3    3.940449547429020E-1    3.262455106038301E-1
 8.061747570000000E9     3.617816316606913E-1    4.480997709020133E-1   -2.124783624708680E-3    2.246046490425664E-3   -2.034535781410092E-3    2.398334605015282E-3    3.940550891488733E-1    3.262270539989024E-1
 8.061749268300000E9     3.618951488472824E-1    4.480108833645710E-1   -2.143581226062725E-3    2.259153920968649E-3   -2.012168491476122E-3    2.440781212688174E-3    3.941772641544345E-1    3.261326204127468E-1
 8.061750966600000E9     3.619451556995874E-1    4.480915709821741E-1   -2.149961550947060E-3    2.289411253318988E-3   -2.005448234205165E-3    2.442254510566504E-3    3.942356623163065E-1    3.261863000719900E-1
 8.061752664900000E9     3.620993667461403E-1    4.477860066495494E-1   -2.135141655183921E-3    2.267813579198966E-3   -2.019143190851135E-3    2.429902459819231E-3    3.941929957252002E-1    3.260495442812878E-1
 8.061754363200000E9     3.620988954294571E-1    4.477453672911230E-1   -2.140078764998752E-3    2.291065615122210E-3   -2.041647635009601E-3    2.425503191142718E-3    3.943005500009891E-1    3.260167259825899E-1
 8.061756061500000E9     3.622789367656761E-1    4.476391370411038E-1   -2.150865407257034E-3    2.283892280700176E-3   -2.028164706631785E-3    2.468472175261230E-3    3.942646596059935E-1    3.259089708004456E-1
 8.061757759800000E9     3.624320687466749E-1    4.476240403278142E-1   -2.126226512042598E-3    2.288003954075995E-3   -2.065692021012593E-3    2.414483066996030E-3    3.944425133400921E-1    3.258443547874296E-1
 8.061759458100000E9     3.624799038015423E-1    4.474182170121545E-1   -2.147831917235373E-3    2.313096566026170E-3   -1.992570480223627E-3    2.432363394423619E-3    3.943935966420516E-1    3.257326537040504E-1
 8.061761156400000E9     3.626621185550559E-1    4.472926631968210E-1   -2.146387325572289E-3    2.308996802164437E-3   -2.016653220308267E-3    2.478560141104157E-3    3.946509106678410E-1    3.255134260203802E-1
 8.061762854700000E9     3.628077632302240E-1    4.472401800363890E-1   -2.163116793830082E-3    2.318883230536207E-3   -2.005841617151633E-3    2.512788618416814E-3    3.945410545394681E-1    3.254448193631349E-1
 8.061764553000000E9     3.629617961002644E-1    4.471333159144583E-1   -2.147772512286468E-3    2.315543044471777E-3   -2.071374678019677E-3    2.460420004306466E-3    3.947172313551980E-1    3.254764735189343E-1
 8.061766251300000E9     3.629866767864398E-1    4.469968467611568E-1   -2.132630384498924E-3    2.332364647970118E-3   -2.038738299027111E-3    2.483560061140023E-3    3.946124555645569E-1    3.253944768187721E-1
 8.061767949600000E9     3.631039450200058E-1    4.469337529105091E-1   -2.192109015554057E-3    2.344286961073252E-3   -2.050250341035690E-3    2.482038511856982E-3    3.947678779795243E-1    3.252916877440203E-1
 8.061769647900000E9     3.632503891154998E-1    4.469502083413858E-1   -2.154973521347519E-3    2.328756192438965E-3   -2.030751136042263E-3    2.497053273796538E-3    3.947693018991449E-1    3.252945799385771E-1
 8.061771346200000E9     3.634535930421404E-1    4.467729568164004E-1   -2.186342995066026E-3    2.338934257371024E-3   -2.040543759322032E-3    2.479939012286961E-3    3.947842468985039E-1    3.251945589524229E-1
 8.061773044500000E9     3.634728663463166E-1    4.466213900461166E-1   -2.202260051383886E-3    2.347639453550039E-3   -2.046892130744112E-3    2.521201939585174E-3    3.949339404873237E-1    3.249734168516249E-1
 8.061774742800000E9     3.635601680669011E-1    4.465017324460975E-1   -2.187401851274534E-3    2.362215994218756E-3   -2.059073445958511E-3    2.487141217830645E-3    3.951887779571728E-1    3.249637357142556E-1
 8.061776441100000E9     3.638021046263439E-1    4.464836519582721E-1   -2.184752242076456E-3    2.376008888595516E-3   -2.062355644749549E-3    2.553426982220016E-3    3.951698898887825E-1    3.248091177627378E-1
 8.061778139400000E9     3.639005180650528E-1    4.463097954911777E-1   -2.193112567880481E-3    2.375395446960536E-3   -2.027001885488634E-3    2.520249830223090E-3    3.952570658539584E-1    3.247073450663786E-1
 8.061779837700000E9     3.638477102664319E-1    4.461929833592651E-1   -2.205965093521424E-3    2.377180038191254E-3   -2.027089944283820E-3    2.524332734770614E-3    3.952828879200267E-1    3.247017356953125E-1
 8.061781536000000E9     3.639656184613450E-1    4.461804160408970E-1   -2.204367867617225E-3    2.411324112736924E-3   -2.077086534257657E-3    2.540546856470661E-3    3.952984994308396E-1    3.247214457022129E-1
 8.061783234300000E9     3.641314570710362E-1    4.460780465093557E-1   -2.199909279182989E-3    2.387155537560758E-3   -2.055432309220175E-3    2.542092800718967E-3    3.954133713184132E-1    3.244834554211062E-1
 8.061784932600000E9     3.642898522132701E-1    4.459894284493520E-1   -2.194783572563953E-3    2.391959262094016E-3   -2.114237236606014E-3    2.515352728894796E-3    3.954832468881242E-1    3.244531609054045E-1
 8.061786630900000E9     3.644203557846051E-1    4.457809145746388E-1   -2.197837551706548E-3    2.392739637807717E-3   -2.068434879750415E-3    2.576464081750552E-3    3.955497903100252E-1    3.243485080421247E-1
 8.061788329200000E9     3.645737378404871E-1    4.456413887195402E-1   -2.206807420828236E-3    2.401900218368135E-3   -2.109508520076944E-3    2.568042209912720E-3    3.955449158366778E-1    3.242803797570918E-1
 8.061790027500000E9     3.646180172655555E-1    4.456779163453460E-1   -2.224619995915016E-3    2.421699491614585E-3   -2.051459571100942E-3    2.569896573600700E-3    3.956863826669653E-1    3.241753004068094E-1
 8.061791725800000E9     3.648453850167681E-1    4.456405070352248E-1   -2.196931438434130E-3    2.405625979898950E-3   -2.072874364345499E-3    2.626067579015603E-3    3.958221677026350E-1    3.241991824048582E-1
 8.061793424100000E9     3.647303168122202E-1    4.454368939509210E-1   -2.216482082120006E-3    2.433523956382858E-3   -2.081249333437087E-3    2.569833538500686E-3    3.958248287801160E-1    3.240218600018042E-1
 8.061795122400000E9     3.649047958163457E-1    4.454060701682462E-1   -2.193184680219261E-3    2.454404230103417E-3   -2.099728400295440E-3    2.581864376522647E-3    3.957273411813262E-1    3.240652052608338E-1
 8.061796820700000E9     3.651052861329401E-1    4.453389053540918E-1   -2.210094905172087E-3    2.466602069174671E-3   -2.103778466291264E-3    2.597320976492161E-3    3.959207162475223E-1    3.238471404220588E-1
 8.061798519000000E9     3.652534242458721E-1    4.451396240084741E-1   -2.225662004149543E-3    2.444855033238357E-3   -2.102523412646069E-3    2.636908736983637E-3    3.958589009464905E-1    3.237642131954408E-1
 8.061800217300000E9     3.653830054052399E-1    4.449257127304257E-1   -2.247895331156047E-3    2.452545610379326E-3   -2.109310138638786E-3    2.622538333657864E-3    3.960446447719833E-1    3.235719078659598E-1
 8.061801915600000E9     3.654241452400359E-1    4.448567307471464E-1   -2.246444044910145E-3    2.482455091155327E-3   -2.073530099589290E-3    2.629175165697387E-3    3.959613640070380E-1    3.235770819313057E-1
 8.061803613900000E9     3.655651328370530E-1    4.448189585610382E-1   -2.244299375112568E-3    2.490669110450593E-3   -2.107101117979488E-3    2.649597390446122E-3    3.961044513146205E-1    3.236001540820581E-1
 8.061805312200000E9     3.657526633435588E-1    4.445735475520896E-1   -2.238512745572818E-3    2.490057852141919E-3   -2.095971499124301E-3    2.667936205767792E-3    3.961240456135611E-1    3.234072817855306E-1
 8.061807010500000E9     3.657246147560447E-1    4.446079271328704E-1   -2.244066838405692E-3    2.510202302966970E-3   -2.112614428938592E-3    2.659921006874180E-3    3.963095160930860E-1    3.232734307633708E-1
 8.061808708800000E9     3.659111706726909E-1    4.445823362335270E-1   -2.265656947648272E-3    2.521796715881662E-3   -2.122945069441519E-3    2.641811340277169E-3    3.963586379889040E-1    3.233220553371886E-1
 8.061810407100000E9     3.660387419527388E-1    4.444488370832522E-1   -2.260382323269772E-3    2.511186941483781E-3   -2.148693288924722E-3    2.666845262194647E-3    3.964373502841785E-1    3.231857868588721E-1
 8.061812105400000E9     3.661750958717030E-1    4.442481416474190E-1   -2.279027898079159E-3    2.521086202917635E-3   -2.133799081273619E-3    2.694404280920031E-3    3.964807508762692E-1    3.233400968035899E-1
 8.061813803700000E9     3.662988260968881E-1    4.440935978337652E-1   -2.251964216441996E-3    2.535044862193397E-3   -2.152676092352215E-3    2.700449919198983E-3    3.965847748406766E-1    3.230264394640482E-1
 8.061815502000000E9     3.663941073486560E-1    4.441094023722533E-1   -2.261236450616056E-3    2.533090038697442E-3   -2.138864695441292E-3    2.686227650154496E-3    3.966203886078409E-1    3.229151679457676E-1
 8.061817200300000E9     3.663999497821016E-1    4.439571217870273E-1   -2.263050504321565E-3    2.556402421055849E-3   -2.136105666132438E-3    2.697313506393391E-3    3.966696303392763E-1    3.227999472196524E-1
 8.061818898600000E9     3.666202678894596E-1    4.438043614401263E-1   -2.273798848678524E-3    2.548793569343948E-3   -2.136588186037109E-3    2.714541370970978E-3    3.966730522466387E-1    3.227067659207329E-1
 8.061820596900000E9     3.667144726184020E-1    4.435414834415508E-1   -2.287550661505747E-3    2.559859477413233E-3   -2.151084921420441E-3    2.725966489001047E-3    3.967363044693575E-1    3.226911075439713E-1
 8.061822295200000E9     3.668352626037886E-1    4.436829796346379E-1   -2.288495502456928E-3    2.580955820134452E-3   -2.148355324530017E-3    2.709413671716256E-3    3.968774086697245E-1    3.226678896809942E-1
 8.061823993500000E9     3.669593767444380E-1    4.435732787845405E-1   -2.276752262806412E-3    2.596651458212618E-3   -2.143998903757693E-3    2.716801703764511E-3    3.969332479715748E-1    3.225392366355814E-1
 8.061825691800000E9     3.670896074462275E-1    4.433473780919881E-1   -2.284583851304106E-3    2.594432093578343E-3   -2.176700047197992E-3    2.756793917553196E-3    3.969662708323310E-1    3.224218645105096E-1
 8.061827390100000E9     3.672668446939529E-1    4.432024151678364E-1   -2.281817085053180E-3    2.622316048931610E-3   -2.158959718251789E-3    2.765343114106694E-3    3.971416845090567E-1    3.223458493239057E-1
 8.061829088400000E9     3.672369239591787E-1    4.430730344756896E-1   -2.304502509697895E-3    2.621759410445896E-3   -2.132969250790837E-3    2.759415153278324E-3    3.971469516529986E-1    3.221653391134941E-1
 8.061830786700000E9     3.675437437088302E-1    4.431711711340340E-1   -2.300395859920699E-3    2.616950173169154E-3   -2.184007275158444E-3    2.797818112935500E-3    3.972489702009209E-1    3.221967531739514E-1
 8.061832485000000E9     3.677095229415392E-1    4.428988251358344E-1   -2.310777116083990E-3    2.617001358909743E-3   -2.173937832008036E-3    2.788464733635263E-3    3.973196458511724E-1    3.221739570819625E-1
 8.061834183300000E9     3.677096249378605E-1    4.428059928381578E-1   -2.332237107378968E-3    2.636421756767622E-3   -2.154350121969806E-3    2.823009051989388E-3    3.972681937491278E-1    3.220770237558346E-1
 8.061835881600000E9     3.678052113287548E-1    4.426964370320418E-1   -2.315012790415781E-3    2.659086209539357E-3   -2.202736156118496E-3    2.816528936958442E-3    3.974694522720751E-1    3.218400773732734E-1
 8.061837579900000E9     3.680006046350180E-1    4.425013388117318E-1   -2.341285929923156E-3    2.658644035918398E-3   -2.161870767565560E-3    2.880837477216037E-3    3.974171828813839E-1    3.217924731078036E-1
 8.061839278200000E9     3.681939065459142E-1    4.423390975287520E-1   -2.326535275527212E-3    2.661054586642141E-3   -2.199974093156791E-3    2.798442527412886E-3    3.974142983299926E-1    3.217242531702516E-1
 8.061840976500000E9     3.682927517394577E-1    4.424586454840541E-1   -2.343161231932378E-3    2.668305928162916E-3   -2.202098799541211E-3    2.831298267916453E-3    3.975088395011792E-1    3.216728665222705E-1
 8.061842674800000E9     3.683204406731046E-1    4.422254466606174E-1   -2.353812189865696E-3    2.696222910984071E-3   -2.181078065457846E-3    2.824233133657091E-3    3.975654386376204E-1    3.215743590475696E-1
 8.061844373100000E9     3.685219564776261E-1    4.420577342212147E-1   -2.330428031529552E-3    2.719492834166665E-3   -2.209231493858830E-3    2.870964751822897E-3    3.976979954286850E-1    3.215694837678243E-1
 8.061846071400000E9     3.685272565603606E-1    4.419334337268103E-1   -2.361309853619043E-3    2.720184524130650E-3   -2.198160833549904E-3    2.863750908710321E-3    3.977543029493411E-1    3.215360490827659E-1
 8.061847769700000E9     3.687661398645504E-1    4.418806039211056E-1   -2.370049134685663E-3    2.720429632595739E-3   -2.238024844179324E-3    2.914436551048057E-3    3.977705485306288E-1    3.214575881370460E-1
 8.061849468000000E9     3.688575335288199E-1    4.416622236526030E-1   -2.371760412041314E-3    2.760703348603242E-3   -2.231916354775416E-3    2.910824644520427E-3    3.978592602389428E-1    3.213675638572179E-1
