#  HZ   S   RI   R     50.00 
! Rohde & Schwarz Vector Network Analyzer 
! Rohde-Schwarz,ZNB20-2Port,1311601062101988,3.16
! Created: UTC 3/20/2024, 11:07:00 PM
! freq[Hz]                re:S11                  im:S11                  re:S21                  im:S21                  re:S12                  im:S12                  re:S22                  im:S22
 8.061700229000000E9     3.585001862409377E-1    4.508260017978858E-1   -2.076388790227810E-3    2.148140087703194E-3   -1.939380881595575E-3    2.308037329374592E-3    3.916521028316379E-1    3.286051997636999E-1
 8.061701905050000E9     3.586703932005384E-1    4.506164887895223E-1   -2.078443708849175E-3    2.157092749952426E-3   -1.962652554307237E-3    2.304658058507775E-3    3.918041036285169E-1    3.285825449330311E-1
 8.061703581100000E9     3.588610722198465E-1    4.504576158487987E-1   -2.086064608632674E-3    2.144511244078366E-3   -1.930153256523410E-3    2.274367691448312E-3    3.919191644892291E-1    3.284930911546096E-1
 8.061705257150000E9     3.589678898829015E-1    4.504279230064012E-1   -2.071127772278485E-3    2.148333016211506E-3   -1.983273415771754E-3    2.283587284120380E-3    3.917973205309660E-1    3.283830788113622E-1
 8.061706933200000E9     3.590700950968270E-1    4.502937024900848E-1   -2.088989270557103E-3    2.124453682508240E-3   -1.969665036359344E-3    2.256007405635332E-3    3.919784031233893E-1    3.282930813854998E-1
 8.061708609250000E9     3.592093663016979E-1    4.501370045803283E-1   -2.064042826382509E-3    2.166269261148682E-3   -1.937844194730949E-3    2.342533081011401E-3    3.919880677062041E-1    3.282032268367249E-1
 8.061710285300000E9     3.592140749001734E-1    4.501932384900852E-1   -2.053386937894366E-3    2.154321290661125E-3   -1.932903289480254E-3    2.346000762698783E-3    3.921996579993954E-1    3.279769862331517E-1
 8.061711961350000E9     3.594089735408832E-1    4.500530517881095E-1   -2.063590700383054E-3    2.159690898704584E-3   -1.973482602322102E-3    2.310686841037626E-3    3.921700492025287E-1    3.280474598066520E-1
 8.061713637400000E9     3.595399096655291E-1    4.499776919384524E-1   -2.093422360910223E-3    2.172608618906467E-3   -1.975999616798937E-3    2.335170833659017E-3    3.921798751142800E-1    3.280264325270213E-1
 8.061715313450000E9     3.597082242877337E-1    4.498965853758992E-1   -2.075544683364859E-3    2.194952556001119E-3   -1.987197335228507E-3    2.304270627027410E-3    3.922343282065901E-1    3.278621649670639E-1
 8.061716989500000E9     3.597472478114138E-1    4.498747846249619E-1   -2.079823426772430E-3    2.182395486884551E-3   -1.944057034599995E-3    2.284804890733839E-3    3.923500778465312E-1    3.279188969426085E-1
 8.061718665550000E9     3.598705792409831E-1    4.496572378245897E-1   -2.094861201433628E-3    2.156736965761737E-3   -1.966653336995511E-3    2.317770273375465E-3    3.924523173041584E-1    3.277543599837107E-1
 8.061720341600000E9     3.600320327683146E-1    4.496824834677406E-1   -2.087938808912577E-3    2.166518708553101E-3   -1.954480684501082E-3    2.332951002458225E-3    3.924978097574451E-1    3.276735435050151E-1
 8.061722017650000E9     3.600063691563880E-1    4.495969963240021E-1   -2.077616759549539E-3    2.205877493632778E-3   -1.988439980720822E-3    2.340931949876414E-3    3.925669007686989E-1    3.276015684110695E-1
 8.061723693700000E9     3.602037176271470E-1    4.494829823407811E-1   -2.097585404076142E-3    2.191497998377672E-3   -2.017036979457511E-3    2.348723636599219E-3    3.926636759810896E-1    3.274104953691322E-1
 8.061725369750000E9     3.602551668582164E-1    4.493782723296946E-1   -2.112200756669082E-3    2.217257342272461E-3   -1.989487965492374E-3    2.333475202660022E-3    3.926828366359021E-1    3.274483056379159E-1
 8.061727045800000E9     3.603793531105025E-1    4.492059927575034E-1   -2.085121317630716E-3    2.232636751239870E-3   -1.971343290787575E-3    2.347845955070899E-3    3.926762748536325E-1    3.272664477899405E-1
 8.061728721850000E9     3.605352661263488E-1    4.491756915468589E-1   -2.103670802558402E-3    2.209258656329917E-3   -2.017394598084032E-3    2.358929807035968E-3    3.927348664925274E-1    3.272822200835093E-1
 8.061730397900000E9     3.605409737024874E-1    4.489952238985829E-1   -2.101310690948268E-3    2.190151312259111E-3   -2.008199918211947E-3    2.371889424545442E-3    3.929387552785438E-1    3.271910440215470E-1
 8.061732073950000E9     3.607087652817573E-1    4.489281472884254E-1   -2.113295775809264E-3    2.209722752216944E-3   -1.963699708395733E-3    2.362664091517624E-3    3.929300424932978E-1    3.270741944171389E-1
 8.061733750000000E9     3.608142904101895E-1    4.488739568788876E-1   -2.096968293387450E-3    2.255183722907518E-3   -1.991056151376775E-3    2.370911045027584E-3    3.930281694297401E-1    3.268719555402608E-1
 8.061735426050000E9     3.609656083983383E-1    4.487621937485263E-1   -2.118707257752703E-3    2.248346829115108E-3   -2.015784699419307E-3    2.385187071398436E-3    3.930086257594120E-1    3.268091383399043E-1
 8.061737102100000E9     3.611036039162344E-1    4.486263802070393E-1   -2.114489698597452E-3    2.259086489699540E-3   -1.983057612033039E-3    2.403427034658755E-3    3.930680673871763E-1    3.268936989044606E-1
 8.061738778150000E9     3.609980025858195E-1    4.485506473115276E-1   -2.109216186731413E-3    2.233350028389982E-3   -1.991141815611328E-3    2.388550952385446E-3    3.931876284907451E-1    3.266702628256976E-1
 8.061740454200000E9     3.613117263410087E-1    4.485123971227580E-1   -2.093598211207088E-3    2.242785187289039E-3   -2.018981269381870E-3    2.403788659585000E-3    3.932001424257865E-1    3.267883323116689E-1
 8.061742130250000E9     3.614670035606768E-1    4.484328722681085E-1   -2.140725165552825E-3    2.240305411281712E-3   -2.000451361051600E-3    2.418466544812554E-3    3.932859196859660E-1    3.266938663721261E-1
 8.061743806300000E9     3.615272714680813E-1    4.483474349120920E-1   -2.119681709487336E-3    2.275824546340248E-3   -2.005686094020020E-3    2.414424238887939E-3    3.933999558202892E-1    3.265259466759425E-1
 8.061745482350000E9     3.615463613102691E-1    4.483410858526973E-1   -2.146623734171124E-3    2.267191842002499E-3   -2.027141865821145E-3    2.374274836658926E-3    3.934968171534067E-1    3.264095815178538E-1
 8.061747158400000E9     3.616871819532751E-1    4.480218740941998E-1   -2.133824472458667E-3    2.283269142406597E-3   -1.998422856181745E-3    2.435912087745281E-3    3.935205712620343E-1    3.263834392590044E-1
 8.061748834450000E9     3.619430057888947E-1    4.480738576223757E-1   -2.127463299813223E-3    2.276181689669869E-3   -2.019872897825245E-3    2.394790681915725E-3    3.936347141422895E-1    3.263274937511332E-1
 8.061750510500000E9     3.619839023824385E-1    4.478672346702945E-1   -2.127901324296259E-3    2.282824658471511E-3   -2.057527453886926E-3    2.458543293712668E-3    3.936703231830858E-1    3.261371553817285E-1
 8.061752186550000E9     3.621112665257578E-1    4.478221931918152E-1   -2.138273733022124E-3    2.287303960015012E-3   -2.053651182951794E-3    2.438053034629140E-3    3.937538040441270E-1    3.260048995499578E-1
 8.061753862600000E9     3.621620808803220E-1    4.477736132950485E-1   -2.159604572766082E-3    2.288127735981120E-3   -2.000267921527889E-3    2.447152369742979E-3    3.938116554973916E-1    3.260362791307809E-1
 8.061755538650000E9     3.622262315648804E-1    4.476882122323014E-1   -2.156369528205054E-3    2.292124686436069E-3   -2.033037062814110E-3    2.446319054443355E-3    3.939258400617299E-1    3.258292843111005E-1
 8.061757214700000E9     3.624076971085775E-1    4.475399051341686E-1   -2.141479633676267E-3    2.293427494505012E-3   -2.020970533721811E-3    2.409368424816958E-3    3.938844491729740E-1    3.258329285437123E-1
 8.061758890750000E9     3.625018387988438E-1    4.474825760511451E-1   -2.138922824166569E-3    2.293689882254848E-3   -2.058506661008154E-3    2.459721652434655E-3    3.940448707614351E-1    3.256942177791111E-1
 8.061760566800000E9     3.625991346333467E-1    4.473268962168115E-1   -2.141320549913483E-3    2.315794574418329E-3   -2.050151017162061E-3    2.450503299211553E-3    3.939091538217832E-1    3.256579883816771E-1
 8.061762242850000E9     3.627528508872279E-1    4.472449305505501E-1   -2.147698348324863E-3    2.311124524025283E-3   -1.999965378270304E-3    2.475841165139021E-3    3.939988790159521E-1    3.256818725490079E-1
 8.061763918900000E9     3.628660383398786E-1    4.471904967583032E-1   -2.156344447763677E-3    2.332752882349395E-3   -2.055495822225364E-3    2.454602885677629E-3    3.940771920930345E-1    3.256129411889988E-1
 8.061765594950000E9     3.630108064498294E-1    4.470814637252301E-1   -2.132927806174048E-3    2.313614849116994E-3   -2.024687592917744E-3    2.530705203644156E-3    3.942695247584358E-1    3.253929008478569E-1
 8.061767271000000E9     3.629906274226792E-1    4.471029317105144E-1   -2.185837241362632E-3    2.331990970768534E-3   -2.021054567399289E-3    2.468467081103765E-3    3.942681799158764E-1    3.253116469413546E-1
 8.061768947050000E9     3.632384158895733E-1    4.469215542168261E-1   -2.181208512916923E-3    2.331499783904307E-3   -2.033026270949939E-3    2.474542782030438E-3    3.944722225947921E-1    3.252879718258000E-1
 8.061770623100000E9     3.632260838613491E-1    4.468777890902556E-1   -2.181380209628686E-3    2.357182010677399E-3   -2.035492080140552E-3    2.469195165649480E-3    3.944966951472174E-1    3.252497302237192E-1
 8.061772299150000E9     3.634611093553803E-1    4.466135198935664E-1   -2.185718355882805E-3    2.326618448400896E-3   -2.059124748850403E-3    2.507373101502871E-3    3.945459447019154E-1    3.251012832833109E-1
 8.061773975200000E9     3.635338308291662E-1    4.466004830082009E-1   -2.166011902885123E-3    2.357949791781334E-3   -2.048894867706922E-3    2.508133800604503E-3    3.945264411275471E-1    3.249686946969931E-1
 8.061775651250000E9     3.637066588234187E-1    4.464709022624379E-1   -2.176005040530781E-3    2.361567216697590E-3   -2.066390630557183E-3    2.500403755691537E-3    3.945012108294316E-1    3.249827981144585E-1
 8.061777327300000E9     3.637428325860667E-1    4.464167892386988E-1   -2.186526314897609E-3    2.394590173550232E-3   -2.061287435767026E-3    2.528158989952184E-3    3.945986620145231E-1    3.250246458436078E-1
 8.061779003350000E9     3.639319297335610E-1    4.461172308012092E-1   -2.185392682041495E-3    2.386419997991596E-3   -2.054413542563404E-3    2.554509923854247E-3    3.946507618479481E-1    3.248682313134408E-1
 8.061780679400000E9     3.640655856479061E-1    4.462896431470583E-1   -2.182144138373253E-3    2.398728261467929E-3   -2.102402228539043E-3    2.528716406890206E-3    3.947949638261199E-1    3.247547407449089E-1
 8.061782355450000E9     3.640633607735695E-1    4.460812284942721E-1   -2.197457723306828E-3    2.390494677626776E-3   -2.093289480988959E-3    2.566322908953129E-3    3.948871577494341E-1    3.245842969057512E-1
 8.061784031500000E9     3.642358900726754E-1    4.459619448829981E-1   -2.180096699351285E-3    2.391915301412948E-3   -2.058202100911082E-3    2.564328124603840E-3    3.950034290917399E-1    3.245637682882963E-1
 8.061785707550000E9     3.642968929816578E-1    4.459176123211676E-1   -2.231549228479083E-3    2.398022543064405E-3   -2.078657855748981E-3    2.567387901702846E-3    3.950223744462973E-1    3.245260433078130E-1
 8.061787383600000E9     3.644483889113183E-1    4.457762837118611E-1   -2.208396467133278E-3    2.397505734806528E-3   -2.086646590763149E-3    2.583520937353485E-3    3.950157933345669E-1    3.243538520250548E-1
 8.061789059650000E9     3.645673200196241E-1    4.456518452155711E-1   -2.198191548742540E-3    2.419238467869285E-3   -2.091583570626106E-3    2.558033582105183E-3    3.951334342477351E-1    3.243799319487183E-1
 8.061790735700000E9     3.646580328951099E-1    4.456004194561307E-1   -2.212244782580944E-3    2.433721951936457E-3   -2.060583414277401E-3    2.587682938428314E-3    3.951297114909874E-1    3.241671975843253E-1
 8.061792411750000E9     3.647993420046447E-1    4.454937310333225E-1   -2.200123100208834E-3    2.453579246357383E-3   -2.096113750546072E-3    2.581783324721738E-3    3.952446752481865E-1    3.240889472903450E-1
 8.061794087800000E9     3.649112405229379E-1    4.453920051216800E-1   -2.214776823939469E-3    2.419565229635093E-3   -2.086985589883431E-3    2.584872561824701E-3    3.952276103936783E-1    3.240691257614495E-1
 8.061795763850000E9     3.649553795475305E-1    4.453276389965244E-1   -2.220353947448717E-3    2.431190875626493E-3   -2.105453860548208E-3    2.598658074247304E-3    3.953302128222521E-1    3.241156333234865E-1
 8.061797439900000E9     3.651685175897636E-1    4.452067784013345E-1   -2.227321507888439E-3    2.454354368493744E-3   -2.063258902537897E-3    2.560576139165839E-3    3.952629883856623E-1    3.238362844220005E-1
 8.061799115950000E9     3.652416476185927E-1    4.450128313150815E-1   -2.230646454825271E-3    2.495870189405443E-3   -2.099345834386396E-3    2.619832996172243E-3    3.955273155436165E-1    3.237628277218160E-1
 8.061800792000000E9     3.652898744428022E-1    4.450532551506579E-1   -2.222453465312359E-3    2.463943675372659E-3   -2.124492329878605E-3    2.631195911303813E-3    3.955608551722317E-1    3.237128400078742E-1
 8.061802468050000E9     3.655966750440937E-1    4.449113137863612E-1   -2.268228968970153E-3    2.470351542585089E-3   -2.061923333279774E-3    2.636172617647115E-3    3.956302785911360E-1    3.236772809916484E-1
 8.061804144100000E9     3.656257267133795E-1    4.447197949521356E-1   -2.232945797354765E-3    2.490282373105497E-3   -2.069852898181853E-3    2.681603623164890E-3    3.956012648541939E-1    3.236298913980371E-1
 8.061805820150000E9     3.657799131510203E-1    4.445812440652902E-1   -2.243834034540697E-3    2.498246580163947E-3   -2.101530301467896E-3    2.628045357028616E-3    3.956968604609956E-1    3.234096021283765E-1
 8.061807496200000E9     3.657669926003219E-1    4.445379748324531E-1   -2.244545832952439E-3    2.514728537994342E-3   -2.107067212133747E-3    2.685708965100585E-3    3.958609857011758E-1    3.233411128085557E-1
 8.061809172250000E9     3.659770650517030E-1    4.444131855114588E-1   -2.244923232383419E-3    2.531341171604577E-3   -2.099080406283811E-3    2.676408581850999E-3    3.958049180867424E-1    3.233670971773302E-1
 8.061810848300000E9     3.661158756305327E-1    4.442635989329813E-1   -2.251177070134703E-3    2.509943779863947E-3   -2.159207879845057E-3    2.664263300343504E-3    3.960037797865966E-1    3.231446939571793E-1
 8.061812524350000E9     3.662991223978333E-1    4.442125785023545E-1   -2.277483200552829E-3    2.522987519396910E-3   -2.165766245919732E-3    2.701156630657118E-3    3.960646197704288E-1    3.231688726312078E-1
 8.061814200400000E9     3.661707729340790E-1    4.440613746321875E-1   -2.278324842619888E-3    2.537061774501938E-3   -2.137642365450301E-3    2.686127259920294E-3    3.960312694455614E-1    3.230002220477163E-1
 8.061815876450000E9     3.665463611875493E-1    4.440818276251586E-1   -2.267103325824314E-3    2.571511001118202E-3   -2.109051351183379E-3    2.731503019230083E-3    3.961324054112867E-1    3.230072306254235E-1
 8.061817552500000E9     3.666149639735191E-1    4.438020316202648E-1   -2.259024229634457E-3    2.540858536937673E-3   -2.155086390859550E-3    2.728092743813266E-3    3.962941642972679E-1    3.228985271053524E-1
 8.061819228550000E9     3.665601885002565E-1    4.437582048967731E-1   -2.284215480125103E-3    2.554505132986272E-3   -2.140612508845611E-3    2.720560742755103E-3    3.962101705084798E-1    3.227376191792077E-1
 8.061820904600000E9     3.667946165940341E-1    4.436903870223520E-1   -2.288799573623076E-3    2.569708134327893E-3   -2.146333904427265E-3    2.728541036163617E-3    3.962796787215820E-1    3.227058429654317E-1
 8.061822580650000E9     3.669223607092617E-1    4.435108216881575E-1   -2.283349390068297E-3    2.592441094612475E-3   -2.224594870845807E-3    2.749422891724711E-3    3.963375871223342E-1    3.225761752920235E-1
 8.061824256700000E9     3.669523910556294E-1    4.433518450303448E-1   -2.309509019995441E-3    2.590878871661138E-3   -2.152257859561975E-3    2.733106685166450E-3    3.963314755810785E-1    3.225995157004315E-1
 8.061825932750000E9     3.671588538867954E-1    4.435092865038114E-1   -2.280866204023761E-3    2.610118364361705E-3   -2.174650538397650E-3    2.741975908464684E-3    3.964646534911853E-1    3.224438879499946E-1
 8.061827608800000E9     3.671957065102980E-1    4.433734201724550E-1   -2.275662442840254E-3    2.604300792227254E-3   -2.140982575500702E-3    2.773398491420723E-3    3.966273925387414E-1    3.224467822274626E-1
 8.061829284850000E9     3.674499828175586E-1    4.430836889825421E-1   -2.325378430510538E-3    2.604186669136925E-3   -2.176144318169092E-3    2.775815454903528E-3    3.965196241044200E-1    3.222664111627228E-1
 8.061830960900000E9     3.674373881079914E-1    4.429861489322744E-1   -2.285002003512484E-3    2.642231670875730E-3   -2.193953104935956E-3    2.773355809386614E-3    3.967326912540159E-1    3.221780881959312E-1
 8.061832636950000E9     3.675562236985691E-1    4.429421661250658E-1   -2.292838267436281E-3    2.638519600128464E-3   -2.172554224603691E-3    2.822076586140369E-3    3.969529891827184E-1    3.220104961639860E-1
 8.061834313000000E9     3.677827889915581E-1    4.427241381812879E-1   -2.336488421725290E-3    2.633985823679526E-3   -2.138361430843789E-3    2.793907460415369E-3    3.967866244530079E-1    3.220304859807377E-1
 8.061835989050000E9     3.678506413100647E-1    4.426081386780342E-1   -2.334225924240795E-3    2.685805115940828E-3   -2.225017719482823E-3    2.840982376024900E-3    3.969412371622988E-1    3.220146106281321E-1
 8.061837665100000E9     3.679904317752401E-1    4.426513957669744E-1   -2.321501835394230E-3    2.686875541569929E-3   -2.170645383568476E-3    2.850996337833712E-3    3.970317867410483E-1    3.220597752420261E-1
 8.061839341150000E9     3.681657162963268E-1    4.423827019798729E-1   -2.337114391534401E-3    2.684014842319456E-3   -2.192016064055153E-3    2.863494567465901E-3    3.970727696971834E-1    3.218887885003174E-1
 8.061841017200000E9     3.682362107188667E-1    4.423270860386446E-1   -2.336649734960921E-3    2.693601730665446E-3   -2.210251914924776E-3    2.831971805461326E-3    3.971706880979618E-1    3.216874037067990E-1
 8.061842693250000E9     3.684409743054685E-1    4.421413154864453E-1   -2.332314740439419E-3    2.696445344097506E-3   -2.196129045991275E-3    2.884392402167767E-3    3.971771416137648E-1    3.215681719207125E-1
 8.061844369300000E9     3.684330041857802E-1    4.420201291366291E-1   -2.370516486436022E-3    2.725306535371160E-3   -2.183236018158501E-3    2.897466852725899E-3    3.972459000048310E-1    3.214965541650480E-1
 8.061846045350000E9     3.686209570573979E-1    4.419502680796068E-1   -2.340524551861527E-3    2.718066903409875E-3   -2.187352531610053E-3    2.911551887623421E-3    3.973155978686585E-1    3.213582952095603E-1
 8.061847721400000E9     3.686822990469378E-1    4.418068278016109E-1   -2.354336340033377E-3    2.723330927548594E-3   -2.225222105648056E-3    2.944600874621290E-3    3.973794498414611E-1    3.213905003254025E-1
 8.061849397450000E9     3.689075040452510E-1    4.416858987293584E-1   -2.367703257464055E-3    2.737137771850692E-3   -2.175989967416483E-3    2.955342908115409E-3    3.973983810253803E-1    3.212822696639595E-1
 8.061851073500000E9     3.690887128457587E-1    4.415417833243994E-1   -2.356026247485341E-3    2.770775578369473E-3   -2.198891898388307E-3    2.922793211185758E-3    3.975926606800324E-1    3.211828027329937E-1
