#  HZ   S   RI   R     50.00 
! Rohde & Schwarz Vector Network Analyzer 
! Rohde-Schwarz,ZNB20-2Port,1311601062101988,3.16
! Created: UTC 3/20/2024, 11:07:43 PM
! freq[Hz]                re:S11                  im:S11                  re:S21                  im:S21                  re:S12                  im:S12                  re:S22                  im:S22
 8.061778338000000E9     3.627856757036078E-1    4.474250900605657E-1   -2.023571964246470E-3    2.142633727491174E-3   -1.907458589831678E-3    2.284388756092823E-3    3.957646633561505E-1    3.250633292529281E-1
 8.061780041600000E9     3.628763731796258E-1    4.472718429967391E-1   -2.044874523541363E-3    2.161630149783534E-3   -1.942756003400348E-3    2.288317043485461E-3    3.957771940033028E-1    3.248967105057771E-1
 8.061781745200000E9     3.631782503327863E-1    4.472782440053489E-1   -2.050046910922310E-3    2.186028764669262E-3   -1.905764972604897E-3    2.314983035517191E-3    3.957585283442800E-1    3.246821717187775E-1
 8.061783448800000E9     3.632401716523865E-1    4.470352885887608E-1   -2.047011422046243E-3    2.151737777619068E-3   -1.912396959401700E-3    2.312739346561944E-3    3.959187225099375E-1    3.246054109362336E-1
 8.061785152400000E9     3.633605050394253E-1    4.469293309800986E-1   -2.042770496608402E-3    2.171730237055798E-3   -1.915006874933288E-3    2.318189984586315E-3    3.959018584680440E-1    3.245574982597023E-1
 8.061786856000000E9     3.634667635512260E-1    4.469491764458087E-1   -2.051685571781365E-3    2.153380723962628E-3   -1.890029096675569E-3    2.295268321565024E-3    3.958980930291890E-1    3.244979121507234E-1
 8.061788559600000E9     3.635571357669108E-1    4.468317386564514E-1   -2.040825319890739E-3    2.192415697942282E-3   -1.938006749059384E-3    2.302416075056185E-3    3.960837842621604E-1    3.245256449959478E-1
 8.061790263200000E9     3.638576593813121E-1    4.466214777298721E-1   -2.054345741974654E-3    2.185343812954826E-3   -1.945897346295879E-3    2.314182345846469E-3    3.961124348352601E-1    3.243575841720692E-1
 8.061791966800000E9     3.638180512709586E-1    4.465132611382618E-1   -2.052622365553776E-3    2.194243110406551E-3   -1.961100924063220E-3    2.337025123692615E-3    3.962511237511971E-1    3.242358347597440E-1
 8.061793670400000E9     3.640364285233930E-1    4.464710273691610E-1   -2.045561575334746E-3    2.190959414359204E-3   -1.912955250271954E-3    2.344183041218003E-3    3.963151582001826E-1    3.242124949307556E-1
 8.061795374000000E9     3.641196339121516E-1    4.463492452334152E-1   -2.038485159732293E-3    2.187971997484221E-3   -1.917507354957740E-3    2.323486167524124E-3    3.963671740438346E-1    3.241086578078568E-1
 8.061797077600000E9     3.642168379307552E-1    4.462714277117104E-1   -2.040493429653113E-3    2.191643328307974E-3   -1.898687932078133E-3    2.323189092704167E-3    3.962589356969147E-1    3.241485616828441E-1
 8.061798781200000E9     3.642682170751145E-1    4.461220503601565E-1   -2.067503765843895E-3    2.222446522522587E-3   -1.942832663741796E-3    2.333057236688714E-3    3.964100762688400E-1    3.241124920014690E-1
 8.061800484800000E9     3.643016544647343E-1    4.461863083667307E-1   -2.070869897221181E-3    2.195098460841601E-3   -1.938508163052193E-3    2.329432637153508E-3    3.964184019057474E-1    3.238655298237463E-1
 8.061802188400000E9     3.646435326361996E-1    4.459522059753448E-1   -2.057511353367811E-3    2.197162238658725E-3   -1.962061400117469E-3    2.352307485090451E-3    3.966125815791551E-1    3.238129962492686E-1
 8.061803892000000E9     3.645495283662605E-1    4.458404022225191E-1   -2.101378273902939E-3    2.185482124146015E-3   -1.962245498278128E-3    2.334348063878534E-3    3.966169508105479E-1    3.237548183402332E-1
 8.061805595600000E9     3.647192075993077E-1    4.458809687679335E-1   -2.071889362282128E-3    2.240202606206357E-3   -1.938362109230382E-3    2.341338502099887E-3    3.966288361733051E-1    3.235554945899269E-1
 8.061807299200000E9     3.649096067852151E-1    4.457069819737922E-1   -2.086762721672698E-3    2.204646757901325E-3   -1.949535575656111E-3    2.362195885347466E-3    3.968116765526573E-1    3.236183411542510E-1
 8.061809002800000E9     3.649384200057724E-1    4.455919161894008E-1   -2.057690310140623E-3    2.233517516284801E-3   -1.996564466486417E-3    2.362980612109149E-3    3.968645966632312E-1    3.234087355482780E-1
 8.061810706400000E9     3.651305306739078E-1    4.455688943920909E-1   -2.084279734539855E-3    2.218431702879601E-3   -1.992977989473338E-3    2.371634983578915E-3    3.969718074349249E-1    3.233114453319425E-1
 8.061812410000000E9     3.652294130577451E-1    4.453879644705528E-1   -2.097614012031077E-3    2.243715403094536E-3   -1.986989973393552E-3    2.397956499524121E-3    3.969532360565748E-1    3.233024882419740E-1
 8.061814113600000E9     3.653252562701835E-1    4.452811328579687E-1   -2.073068058082284E-3    2.263262148716976E-3   -1.970225184529630E-3    2.384926050669810E-3    3.970340183847076E-1    3.231283249296161E-1
 8.061815817200000E9     3.655007931765719E-1    4.452702553316971E-1   -2.111528820206441E-3    2.267025705401623E-3   -1.965901245584133E-3    2.409474986050978E-3    3.971015788637599E-1    3.231921877468523E-1
 8.061817520800000E9     3.655428983548545E-1    4.451319760449232E-1   -2.104437837667878E-3    2.254847310263856E-3   -1.983593710579057E-3    2.381351676566972E-3    3.972208792888591E-1    3.230569882700123E-1
 8.061819224400000E9     3.656170107387307E-1    4.451480914067685E-1   -2.076280233408924E-3    2.253953358707182E-3   -1.931720279523447E-3    2.391196313979879E-3    3.974106779013053E-1    3.230152756066821E-1
 8.061820928000000E9     3.656817513321703E-1    4.449740642107670E-1   -2.114426759571390E-3    2.257324710079797E-3   -1.971987478923515E-3    2.440860012569357E-3    3.973823521756013E-1    3.229418426994597E-1
 8.061822631600000E9     3.657858617204875E-1    4.448562955053113E-1   -2.101063663162344E-3    2.304486426337645E-3   -1.979290873037835E-3    2.403295616588658E-3    3.973271082468594E-1    3.228242213196922E-1
 8.061824335200000E9     3.659413096702886E-1    4.447507326043348E-1   -2.098388638002261E-3    2.260607827535601E-3   -1.982054498609016E-3    2.433665916259046E-3    3.974209974641074E-1    3.226738209906816E-1
 8.061826038800000E9     3.660273211471210E-1    4.447005195050498E-1   -2.114815582010176E-3    2.263738712974126E-3   -1.982718907200549E-3    2.393448216209521E-3    3.976385955993344E-1    3.225764925557024E-1
 8.061827742400000E9     3.662174618918431E-1    4.445878837450137E-1   -2.098813471026654E-3    2.301026514044260E-3   -1.967225133269660E-3    2.426152359145638E-3    3.976093907205535E-1    3.225439335129006E-1
 8.061829446000000E9     3.662893785882715E-1    4.444437418994122E-1   -2.085191355076647E-3    2.274524961596820E-3   -1.979676007541888E-3    2.434696099462585E-3    3.975786717573276E-1    3.224571210237809E-1
 8.061831149600000E9     3.663760051636374E-1    4.443146841104026E-1   -2.116979844771843E-3    2.286568127804365E-3   -1.977099025823746E-3    2.432702352181322E-3    3.976453698512101E-1    3.224423205688189E-1
 8.061832853200000E9     3.665686289781939E-1    4.442242506673607E-1   -2.115168879736828E-3    2.311846368170101E-3   -1.996129134835138E-3    2.461818006012178E-3    3.977746890500353E-1    3.223766593348208E-1
 8.061834556800000E9     3.665938260747882E-1    4.442028361058460E-1   -2.088451673348661E-3    2.294105144992320E-3   -2.023008473060562E-3    2.412067047171385E-3    3.977207989329531E-1    3.222281863592495E-1
 8.061836260400000E9     3.667406868543130E-1    4.440576720363765E-1   -2.117171769545308E-3    2.309144939661549E-3   -1.992923692592068E-3    2.440069256890664E-3    3.978655382315521E-1    3.221804865853451E-1
 8.061837964000000E9     3.669054991467584E-1    4.439383048259381E-1   -2.129449183246111E-3    2.294165071455332E-3   -1.969019850027402E-3    2.459947990354214E-3    3.979064977038589E-1    3.220900158081496E-1
 8.061839667600000E9     3.668555047874915E-1    4.439284341913102E-1   -2.112294643896100E-3    2.318325586504332E-3   -2.003194702587106E-3    2.468289961255668E-3    3.979812874179753E-1    3.219621370843957E-1
 8.061841371200000E9     3.671109086916717E-1    4.437369037075699E-1   -2.123618507962765E-3    2.322386417060611E-3   -2.014972349680475E-3    2.441114450685831E-3    3.980463229959337E-1    3.218494938053663E-1
 8.061843074800000E9     3.671779515800814E-1    4.437018334964986E-1   -2.108553468342216E-3    2.314867991445777E-3   -2.023663979720326E-3    2.464914576355206E-3    3.980212608032302E-1    3.218055891308286E-1
 8.061844778400000E9     3.672795813841057E-1    4.434348478817235E-1   -2.139205908994218E-3    2.320851482699461E-3   -2.034013750273471E-3    2.474704130635123E-3    3.981789612557130E-1    3.215583583380019E-1
 8.061846482000000E9     3.675267741596984E-1    4.434471824527492E-1   -2.150151029123304E-3    2.338324261386192E-3   -2.006725046551948E-3    2.493445356895203E-3    3.983417269503350E-1    3.216290754104222E-1
 8.061848185600000E9     3.675738147025625E-1    4.434844208962063E-1   -2.131833675539214E-3    2.353837900167978E-3   -2.023013190752199E-3    2.502295896694576E-3    3.983616721887392E-1    3.215352527372961E-1
 8.061849889200000E9     3.677631438879620E-1    4.432163279699017E-1   -2.124240917965067E-3    2.339234464992433E-3   -2.040216660092090E-3    2.499080269677179E-3    3.983569416286895E-1    3.213594574384867E-1
 8.061851592800000E9     3.678245395311122E-1    4.431500179913985E-1   -2.139831384912871E-3    2.369621132365861E-3   -2.005282608954764E-3    2.526262869911420E-3    3.985805730055108E-1    3.212615676229368E-1
 8.061853296400000E9     3.679333799468782E-1    4.431416466484792E-1   -2.106825286743328E-3    2.365002419518236E-3   -2.037498633439412E-3    2.528372532819599E-3    3.986703197594440E-1    3.212357879014771E-1
 8.061855000000000E9     3.679280798701565E-1    4.429878966667339E-1   -2.148367052196655E-3    2.370332862729476E-3   -2.045618664057208E-3    2.521654671663793E-3    3.985361464014121E-1    3.211269287061876E-1
 8.061856703600000E9     3.681999407168936E-1    4.429091312066453E-1   -2.149677152097199E-3    2.396390568010199E-3   -2.011428917566055E-3    2.482537167003271E-3    3.985414738275324E-1    3.211516862854755E-1
 8.061858407200000E9     3.682172519114706E-1    4.427384551597678E-1   -2.144116068468614E-3    2.387929136713017E-3   -2.024502046712190E-3    2.510030265478084E-3    3.986582824611844E-1    3.208306430131382E-1
 8.061860110800000E9     3.684068727423653E-1    4.426949013882949E-1   -2.173926007336073E-3    2.395384634227123E-3   -2.028610040712516E-3    2.522812736699223E-3    3.988143900019882E-1    3.208163186259159E-1
 8.061861814400000E9     3.685271455838667E-1    4.425401514017642E-1   -2.152875074437749E-3    2.389609864403921E-3   -2.020028041863423E-3    2.536548622993921E-3    3.988163688654406E-1    3.207885799062988E-1
 8.061863518000000E9     3.685990715889657E-1    4.423883960103139E-1   -2.148200628490131E-3    2.382021736779124E-3   -2.025437531517264E-3    2.544682000040478E-3    3.989177257815621E-1    3.206855022789113E-1
 8.061865221600000E9     3.685975750013864E-1    4.423783111418229E-1   -2.166016763450808E-3    2.412099612323582E-3   -2.040147010274195E-3    2.542647646996096E-3    3.990074247829953E-1    3.207846837124235E-1
 8.061866925200000E9     3.687838415840801E-1    4.422921248991914E-1   -2.160666819805450E-3    2.420922098649058E-3   -2.039748335581362E-3    2.606440531430503E-3    3.989899686937117E-1    3.206232287720748E-1
 8.061868628800000E9     3.689584277037317E-1    4.421886279923248E-1   -2.157054051735328E-3    2.410638091094451E-3   -2.008420429997427E-3    2.624201674570247E-3    3.990909367293416E-1    3.204285105224901E-1
 8.061870332400000E9     3.690225790643272E-1    4.420192136176367E-1   -2.191987055011968E-3    2.437301197084178E-3   -2.068587517322484E-3    2.573132045778791E-3    3.992141764655207E-1    3.203848240794835E-1
 8.061872036000000E9     3.691936035188439E-1    4.419381539422444E-1   -2.174212318342839E-3    2.428328448373018E-3   -2.033738982031810E-3    2.615580710766176E-3    3.992866591465852E-1    3.202605432877689E-1
 8.061873739600000E9     3.692571287619582E-1    4.418553286937444E-1   -2.179677174066421E-3    2.446360415363164E-3   -2.044037929661837E-3    2.620084111917527E-3    3.993642845773467E-1    3.203008474856966E-1
 8.061875443200000E9     3.695188873287409E-1    4.417461362331936E-1   -2.191791867360077E-3    2.461337650798763E-3   -2.083996056536194E-3    2.598201626029496E-3    3.994318507260956E-1    3.199976211313073E-1
 8.061877146800000E9     3.694299698853976E-1    4.416625628079000E-1   -2.183047275165152E-3    2.469001908523887E-3   -2.040777620358861E-3    2.637828373181253E-3    3.994269070080577E-1    3.200651444353930E-1
 8.061878850400000E9     3.695602852395736E-1    4.415137256247859E-1   -2.216667640873310E-3    2.472653957997855E-3   -2.033163148208215E-3    2.615130211949341E-3    3.995671832431656E-1    3.199776361054817E-1
 8.061880554000000E9     3.698098481628815E-1    4.413701490453348E-1   -2.199019449551498E-3    2.467875854651149E-3   -2.088768987480819E-3    2.623759777673734E-3    3.996141106332415E-1    3.199302498944802E-1
 8.061882257600000E9     3.698424508822046E-1    4.413440522390882E-1   -2.187777556577548E-3    2.485370253215022E-3   -2.102592000389133E-3    2.634556832413832E-3    3.997160414848897E-1    3.199102433237562E-1
 8.061883961200000E9     3.699776532155394E-1    4.412100069046240E-1   -2.206914675312320E-3    2.467856727187142E-3   -2.068021900131168E-3    2.644705477763590E-3    3.998735149736470E-1    3.197602030619718E-1
 8.061885664800000E9     3.700741293372701E-1    4.411529047165830E-1   -2.214288945960443E-3    2.489148238753711E-3   -2.122462495845823E-3    2.686645137017705E-3    3.996457250876764E-1    3.197720209754419E-1
 8.061887368400000E9     3.702288579974581E-1    4.410073163556827E-1   -2.228929118291928E-3    2.508094260250327E-3   -2.102392764386051E-3    2.657070222127679E-3    3.998584773455224E-1    3.195880504350164E-1
 8.061889072000000E9     3.703486175842253E-1    4.408586706512540E-1   -2.223505344536045E-3    2.510480630300032E-3   -2.049806124963119E-3    2.668908406456845E-3    3.998706314164560E-1    3.194736980420481E-1
 8.061890775600000E9     3.703834072341751E-1    4.407325283647556E-1   -2.209436531989179E-3    2.509698922644911E-3   -2.075065875698201E-3    2.667152437647773E-3    3.999920453720677E-1    3.193943289248347E-1
 8.061892479200000E9     3.705151036900913E-1    4.406813460282225E-1   -2.207492145208809E-3    2.532856952704384E-3   -2.087832288350471E-3    2.709891884886564E-3    3.999486324825521E-1    3.192837125973562E-1
 8.061894182800000E9     3.707976401135979E-1    4.405830854232807E-1   -2.242247153906758E-3    2.542738011921832E-3   -2.110701390188317E-3    2.728617350791258E-3    4.001404108508657E-1    3.191791803950897E-1
 8.061895886400000E9     3.707867343766978E-1    4.404929957608734E-1   -2.217228213619228E-3    2.550626186013921E-3   -2.114679853280694E-3    2.707461320654168E-3    4.002516564888696E-1    3.190842360564415E-1
 8.061897590000000E9     3.708950858926309E-1    4.403218403146656E-1   -2.260494565477198E-3    2.531447105485602E-3   -2.107147203612219E-3    2.717388453571707E-3    4.001339715507303E-1    3.191078411544103E-1
 8.061899293600000E9     3.710289229268073E-1    4.401929546231255E-1   -2.221014365956345E-3    2.584425633828419E-3   -2.108289279188606E-3    2.723238316264585E-3    4.003106472269103E-1    3.190189176124731E-1
 8.061900997200000E9     3.712188594607763E-1    4.401248840235802E-1   -2.253461206908694E-3    2.577501151086804E-3   -2.129229554762929E-3    2.728723182337838E-3    4.002422173066641E-1    3.188215457631528E-1
 8.061902700800000E9     3.713020039751714E-1    4.400781029640918E-1   -2.269130256797517E-3    2.585286448639669E-3   -2.096297211760554E-3    2.737038310511575E-3    4.003520303436139E-1    3.188625182528913E-1
 8.061904404400000E9     3.714396596754947E-1    4.397394590458463E-1   -2.285800656254608E-3    2.599771373728573E-3   -2.109436469958864E-3    2.772739405017190E-3    4.004983761051957E-1    3.187419384252039E-1
 8.061906108000000E9     3.714325672440235E-1    4.397417509358136E-1   -2.251614041080875E-3    2.597267118441103E-3   -2.116277376138436E-3    2.745025952182309E-3    4.004877151584007E-1    3.185820333439536E-1
 8.061907811600000E9     3.716096056582675E-1    4.396307251598818E-1   -2.245784882579315E-3    2.620261093354434E-3   -2.101952867303213E-3    2.784951897867406E-3    4.006628839760846E-1    3.184695700629866E-1
 8.061909515200000E9     3.716994506144457E-1    4.394734930095099E-1   -2.266042507935915E-3    2.632332590903684E-3   -2.139326391657552E-3    2.778725088151622E-3    4.007174586796315E-1    3.184895412735074E-1
 8.061911218800000E9     3.719868191801881E-1    4.395100127626828E-1   -2.262748747402200E-3    2.633357525476553E-3   -2.133988743082481E-3    2.761401736476870E-3    4.008576916370175E-1    3.184394200248555E-1
 8.061912922400000E9     3.719604223997624E-1    4.392207262824900E-1   -2.294804544863463E-3    2.628568926829473E-3   -2.099316033143204E-3    2.782441935086618E-3    4.009470256852730E-1    3.182730562783839E-1
 8.061914626000000E9     3.722085628641078E-1    4.391939060077809E-1   -2.285821573607485E-3    2.638034573055286E-3   -2.156182046811948E-3    2.780910785144953E-3    4.008046865612535E-1    3.182222534123804E-1
 8.061916329600000E9     3.722293173326303E-1    4.390429383959612E-1   -2.275425381851935E-3    2.643621545065703E-3   -2.122357952887831E-3    2.813932344024199E-3    4.008833664743117E-1    3.181645554408154E-1
 8.061918033200000E9     3.723111351683228E-1    4.390189332175710E-1   -2.292135783499551E-3    2.693477056183970E-3   -2.137396072419984E-3    2.824946257950387E-3    4.010985504562335E-1    3.180728849891853E-1
 8.061919736800000E9     3.725129330049211E-1    4.387573042723371E-1   -2.289540608835997E-3    2.704402407841805E-3   -2.151685350782234E-3    2.870560096439292E-3    4.011145770579387E-1    3.179287983497718E-1
 8.061921440400000E9     3.726348049874499E-1    4.386756126584083E-1   -2.309088905551822E-3    2.689649868521293E-3   -2.152403532214874E-3    2.864440514873616E-3    4.011573822022287E-1    3.178063526174291E-1
 8.061923144000000E9     3.726977172867688E-1    4.385491328522750E-1   -2.314535494225717E-3    2.715740011648944E-3   -2.164685615807907E-3    2.859326090606126E-3    4.011354448844003E-1    3.176839120027157E-1
 8.061924847600000E9     3.727894215481247E-1    4.385439444421788E-1   -2.292047082738179E-3    2.715037909672324E-3   -2.161815855006602E-3    2.845509414947685E-3    4.013487612043485E-1    3.176665777802550E-1
 8.061926551200000E9     3.729254456787156E-1    4.383324486010833E-1   -2.300070525688371E-3    2.713597444245571E-3   -2.159226928651422E-3    2.875222577868688E-3    4.012817872176855E-1    3.175776336919977E-1
 8.061928254800000E9     3.731272498368518E-1    4.381463982732680E-1   -2.327041460180485E-3    2.736032909064523E-3   -2.184692835531648E-3    2.909634830876143E-3    4.014174045928200E-1    3.176211994121383E-1
 8.061929958400000E9     3.733453369764733E-1    4.381194970570138E-1   -2.320679880947779E-3    2.740631200302008E-3   -2.210577161040632E-3    2.917029368169690E-3    4.014631054607617E-1    3.174328080330585E-1
 8.061931662000000E9     3.733668776007310E-1    4.378734863152328E-1   -2.327300223488676E-3    2.764608688478241E-3   -2.174407872825400E-3    2.900246748469653E-3    4.014413401131640E-1    3.172903102802844E-1
