#  HZ   S   RI   R     50.00 
! Rohde & Schwarz Vector Network Analyzer 
! Rohde-Schwarz,ZNB20-2Port,1311601062101988,3.16
! Created: UTC 3/20/2024, 11:07:55 PM
! freq[Hz]                re:S11                  im:S11                  re:S21                  im:S21                  re:S12                  im:S12                  re:S22                  im:S22
 8.061792270000000E9     3.636896334274090E-1    4.465607241128841E-1   -2.041504049132589E-3    2.176524502041040E-3   -1.958143307429860E-3    2.294473067414364E-3    3.965617140131572E-1    3.242586853955329E-1
 8.061793911875000E9     3.640544089098297E-1    4.463857640573983E-1   -2.086036425350189E-3    2.182636895494956E-3   -1.908897183356438E-3    2.338495313183824E-3    3.964765473495654E-1    3.241007096365267E-1
 8.061795553750000E9     3.640036313264494E-1    4.464473912624586E-1   -2.046514833783223E-3    2.196898059292963E-3   -1.942655642458952E-3    2.343918422361867E-3    3.966584821193564E-1    3.240151219260174E-1
 8.061797195625000E9     3.642860249141079E-1    4.462374267090379E-1   -2.057099203204368E-3    2.200206182811946E-3   -1.932141586739603E-3    2.331739963175447E-3    3.966120460705740E-1    3.240837515767397E-1
 8.061798837500000E9     3.642582952470122E-1    4.463578717509404E-1   -2.075456218670682E-3    2.186488513403244E-3   -1.936471408084715E-3    2.349033702093566E-3    3.967084769296180E-1    3.237988515210238E-1
 8.061800479375000E9     3.643857834722649E-1    4.461364280431037E-1   -2.076398659434174E-3    2.193047023620233E-3   -1.934468806046312E-3    2.350360005903703E-3    3.967944386249288E-1    3.238624923178985E-1
 8.061802121250000E9     3.645048171183070E-1    4.459263284127634E-1   -2.057289166523651E-3    2.207310263128540E-3   -1.934205880714139E-3    2.355407746767938E-3    3.967304650555731E-1    3.238044854543346E-1
 8.061803763125000E9     3.646477692977948E-1    4.459455602722636E-1   -2.079269350580581E-3    2.181994383835388E-3   -1.951185048406684E-3    2.338952020154451E-3    3.969774497128245E-1    3.235610941716628E-1
 8.061805405000000E9     3.647639646950367E-1    4.457362557752864E-1   -2.060776283034308E-3    2.212651444874913E-3   -1.939688379592096E-3    2.376544537525184E-3    3.969291604958982E-1    3.236413847732695E-1
 8.061807046875000E9     3.647882130701151E-1    4.457659359702758E-1   -2.064199576655373E-3    2.239701459537608E-3   -1.933428830520588E-3    2.365849768442428E-3    3.970125781053218E-1    3.234558427225407E-1
 8.061808688750000E9     3.649170989904445E-1    4.456241617260329E-1   -2.060606845232143E-3    2.224765127702588E-3   -1.963774426198616E-3    2.380874114415995E-3    3.971404390506998E-1    3.235176008746920E-1
 8.061810330625000E9     3.651377552347800E-1    4.457144860043399E-1   -2.072109168039189E-3    2.198603027080562E-3   -1.953341164892319E-3    2.371202649939601E-3    3.972544720115496E-1    3.233364668094519E-1
 8.061811972500000E9     3.652024657938259E-1    4.455563315886019E-1   -2.103258905248884E-3    2.210033657965550E-3   -1.956504621226094E-3    2.382704857570854E-3    3.970600221422071E-1    3.233053733175607E-1
 8.061813614375000E9     3.651837722990359E-1    4.453076667891279E-1   -2.079101978846327E-3    2.228884299358938E-3   -1.963893564402057E-3    2.353247319820053E-3    3.972162131094670E-1    3.233664353463054E-1
 8.061815256250000E9     3.654380903787802E-1    4.452107736100958E-1   -2.069857838874490E-3    2.235768121284971E-3   -1.957280431394469E-3    2.380943849118975E-3    3.973543842087882E-1    3.231453203649741E-1
 8.061816898125000E9     3.655130912645416E-1    4.450894184289164E-1   -2.073836334886867E-3    2.263444216669261E-3   -1.967088814805688E-3    2.411735837719141E-3    3.973772327515289E-1    3.230207827055842E-1
 8.061818540000000E9     3.656533401056655E-1    4.452308030620466E-1   -2.090659578406405E-3    2.251358684333930E-3   -1.980927368068234E-3    2.365828232736052E-3    3.975550229036516E-1    3.229547796224550E-1
 8.061820181875000E9     3.657989861395349E-1    4.450172368404308E-1   -2.099533864206987E-3    2.261686658453064E-3   -2.003076171529713E-3    2.404522155595332E-3    3.975313358668948E-1    3.228938703188022E-1
 8.061821823750000E9     3.658179417704946E-1    4.448630985821885E-1   -2.069175163250502E-3    2.232481609826618E-3   -1.958984592490964E-3    2.386765967010567E-3    3.977080683141814E-1    3.228930892583367E-1
 8.061823465625000E9     3.659488000517959E-1    4.448205920651047E-1   -2.095463472252659E-3    2.282339639955163E-3   -1.989099912355992E-3    2.426009262260725E-3    3.976809573607701E-1    3.226642563375001E-1
 8.061825107500000E9     3.660497389077416E-1    4.446413260550018E-1   -2.108288518630017E-3    2.249882390062036E-3   -1.989790863874502E-3    2.414552489558122E-3    3.976723914079056E-1    3.226263767269949E-1
 8.061826749375000E9     3.661843191132218E-1    4.447195518005768E-1   -2.109659811907338E-3    2.247062143162739E-3   -1.973703723517128E-3    2.410631490389308E-3    3.976868128567970E-1    3.225628177899260E-1
 8.061828391250000E9     3.663988419116653E-1    4.445115337090234E-1   -2.108228999327762E-3    2.280091486945784E-3   -1.974711120376169E-3    2.381221467244273E-3    3.977941475589544E-1    3.224068341182659E-1
 8.061830033125000E9     3.663797396956582E-1    4.443746264609973E-1   -2.102895826639588E-3    2.279815172043212E-3   -1.960560110939355E-3    2.430707271982622E-3    3.979573245804927E-1    3.223313435131347E-1
 8.061831675000000E9     3.665972054857597E-1    4.443926155551357E-1   -2.110904929146363E-3    2.284206200552270E-3   -2.004277673785669E-3    2.417965750257234E-3    3.979114022317088E-1    3.222289678379642E-1
 8.061833316875000E9     3.665992278004720E-1    4.442437897227711E-1   -2.101613933300855E-3    2.278056076697545E-3   -1.972684492069143E-3    2.418993709875033E-3    3.980770726747859E-1    3.221273371241032E-1
 8.061834958750000E9     3.667109492310255E-1    4.441436924846098E-1   -2.106083102621677E-3    2.311632496108698E-3   -1.976573544198328E-3    2.453568488965227E-3    3.980933908097748E-1    3.222329973284359E-1
 8.061836600625000E9     3.668537600542187E-1    4.441326222779153E-1   -2.119971665261402E-3    2.283002071613459E-3   -2.013248979051096E-3    2.470904945645077E-3    3.981815280280087E-1    3.221118580431833E-1
 8.061838242500000E9     3.668291465386514E-1    4.440542291543104E-1   -2.116207884043252E-3    2.297849839684458E-3   -2.018858428319538E-3    2.448299203554560E-3    3.981818390860810E-1    3.219194794270907E-1
 8.061839884375000E9     3.669072227511966E-1    4.437920760819565E-1   -2.106614235157970E-3    2.306461010349850E-3   -2.006277988482413E-3    2.471686632647544E-3    3.982451075637249E-1    3.219239034509884E-1
 8.061841526250000E9     3.671346639827365E-1    4.438480359561844E-1   -2.131876996583231E-3    2.315103752987410E-3   -1.967549004026441E-3    2.445888708176270E-3    3.983898560015257E-1    3.217805527956159E-1
 8.061843168125000E9     3.671872243005018E-1    4.437036972981219E-1   -2.121313795066399E-3    2.329538019541348E-3   -1.965656400284484E-3    2.456440406368246E-3    3.983074463572164E-1    3.218061197648484E-1
 8.061844810000000E9     3.673781834626524E-1    4.436264749127422E-1   -2.142395547671384E-3    2.324233755127361E-3   -1.982900244072450E-3    2.530339018543075E-3    3.985897287443896E-1    3.216912081586759E-1
 8.061846451875000E9     3.675055058900146E-1    4.434806928831656E-1   -2.109243745441969E-3    2.323152855275336E-3   -2.035561789194309E-3    2.464083633295977E-3    3.986023036423105E-1    3.217034996581573E-1
 8.061848093750000E9     3.676260939189257E-1    4.434403088176007E-1   -2.159622496650769E-3    2.334941245596735E-3   -2.008093959062916E-3    2.491840067981562E-3    3.985826557305968E-1    3.214914562701002E-1
 8.061849735625000E9     3.676749780513293E-1    4.433790674504147E-1   -2.149761567630042E-3    2.325082056843759E-3   -1.988640963381796E-3    2.470769996420020E-3    3.987077025690016E-1    3.212896072188781E-1
 8.061851377500000E9     3.678462683024334E-1    4.433091031831130E-1   -2.133219799592881E-3    2.317738188181622E-3   -2.005987424249238E-3    2.487746899046584E-3    3.988233852397691E-1    3.212610493972076E-1
 8.061853019375000E9     3.678209701637706E-1    4.431475872246854E-1   -2.121269875513341E-3    2.351839091884668E-3   -2.023734496435886E-3    2.497775400058806E-3    3.988598941985312E-1    3.211679229534964E-1
 8.061854661250000E9     3.680251479557461E-1    4.430239813267137E-1   -2.124476379570705E-3    2.374293029384789E-3   -2.028457782912647E-3    2.502841901191378E-3    3.988858234733261E-1    3.211532458718303E-1
 8.061856303125000E9     3.680390947395943E-1    4.429020718228207E-1   -2.148531586853922E-3    2.374050819698295E-3   -1.979862967118187E-3    2.521190245211635E-3    3.989127315265543E-1    3.209773771179854E-1
 8.061857945000000E9     3.683019758203487E-1    4.428039543327972E-1   -2.127629665296964E-3    2.372919166888783E-3   -2.012705493942424E-3    2.527287213132108E-3    3.990439950851852E-1    3.210402732402494E-1
 8.061859586875000E9     3.684612038203925E-1    4.427051871891162E-1   -2.159751499420134E-3    2.382441251771879E-3   -2.020855889728020E-3    2.534366171179374E-3    3.990027636380190E-1    3.210419757012839E-1
 8.061861228750000E9     3.683828907778088E-1    4.428027540536680E-1   -2.151907967795959E-3    2.384076143088810E-3   -2.042405196637511E-3    2.515381144387908E-3    3.991389414594940E-1    3.208776333532040E-1
 8.061862870625000E9     3.685764654538819E-1    4.424576193453409E-1   -2.182230335694507E-3    2.375027570976391E-3   -2.027415718757433E-3    2.568245186364781E-3    3.991976869262804E-1    3.208265823642779E-1
 8.061864512500000E9     3.687356601175640E-1    4.424325586006542E-1   -2.170439230336059E-3    2.382506212641294E-3   -2.041089449962805E-3    2.557993660126940E-3    3.991201561606209E-1    3.206574793304059E-1
 8.061866154375000E9     3.688573722405974E-1    4.423248785708195E-1   -2.161207474080318E-3    2.417546611175000E-3   -2.041487295093698E-3    2.544927515781670E-3    3.992901691133263E-1    3.205575512168236E-1
 8.061867796250000E9     3.689014713627796E-1    4.423426189931018E-1   -2.168615544948405E-3    2.414087423215379E-3   -2.024990233819778E-3    2.572237887961701E-3    3.994755269165278E-1    3.205152187312484E-1
 8.061869438125000E9     3.690829296985900E-1    4.421171168355300E-1   -2.170291662090282E-3    2.414647752774149E-3   -2.033058821563690E-3    2.558264994346251E-3    3.994778371331918E-1    3.204251082134318E-1
 8.061871080000000E9     3.690624186894814E-1    4.420994032906839E-1   -2.142440567795593E-3    2.416590552804179E-3   -2.058876797920712E-3    2.566046131644809E-3    3.994675384200238E-1    3.202406994370753E-1
 8.061872721875000E9     3.692538016123730E-1    4.419859141052652E-1   -2.189970269694759E-3    2.441721984431397E-3   -2.070865222333030E-3    2.570895871310988E-3    3.995197877736125E-1    3.202606999690292E-1
 8.061874363750000E9     3.693812704606309E-1    4.419294345166775E-1   -2.175578103790681E-3    2.445415327280826E-3   -2.104807882678758E-3    2.574410350163174E-3    3.996985797589929E-1    3.202351972875723E-1
 8.061876005625000E9     3.695614062842499E-1    4.417146240566134E-1   -2.182349064969541E-3    2.478076489789214E-3   -2.026992664994899E-3    2.605888763830254E-3    3.996946486823955E-1    3.200241164032243E-1
 8.061877647500000E9     3.695622798850066E-1    4.415521759518842E-1   -2.179511754256920E-3    2.473380973581064E-3   -2.060804733724229E-3    2.609220693876587E-3    3.997600423649078E-1    3.198569420341534E-1
 8.061879289375000E9     3.696999525717574E-1    4.416144298171688E-1   -2.184717698183457E-3    2.448981849737355E-3   -2.054925662096105E-3    2.596250617042245E-3    3.997433265988283E-1    3.199533064328126E-1
 8.061880931250000E9     3.698488744584608E-1    4.415307417055870E-1   -2.194254790981411E-3    2.478037500803340E-3   -2.051188301374446E-3    2.638141546636837E-3    3.998710239956740E-1    3.198663063468961E-1
 8.061882573125000E9     3.699022740872885E-1    4.413573455350454E-1   -2.184863595904458E-3    2.473347932663182E-3   -2.060849177989380E-3    2.664125263227613E-3    3.999499768540441E-1    3.196877457336804E-1
 8.061884215000000E9     3.700299178103051E-1    4.413889620991482E-1   -2.182117899318446E-3    2.485891016109775E-3   -2.071547569177399E-3    2.629748614242722E-3    4.001184084011662E-1    3.198101967099108E-1
 8.061885856875000E9     3.701264774056338E-1    4.410628455378419E-1   -2.182141113357633E-3    2.470984012329761E-3   -2.082315943635159E-3    2.649440617731989E-3    4.000742759864691E-1    3.195561545701595E-1
 8.061887498750000E9     3.703240349557664E-1    4.410584252183214E-1   -2.218457230458909E-3    2.507839164299959E-3   -2.077687328127527E-3    2.615858443101901E-3    4.001578238283932E-1    3.196928386709129E-1
 8.061889140625000E9     3.703837854457462E-1    4.409351351652155E-1   -2.221949171966975E-3    2.505165464451870E-3   -2.112515738657522E-3    2.685280972123252E-3    4.001409586477769E-1    3.194784623190862E-1
 8.061890782500000E9     3.704631128267504E-1    4.408475191891858E-1   -2.194906453949250E-3    2.528375111262518E-3   -2.045154582482083E-3    2.646944151232322E-3    4.002949956392289E-1    3.193694908201196E-1
 8.061892424375000E9     3.706301215472557E-1    4.407633237272729E-1   -2.225734444542975E-3    2.510225463259527E-3   -2.094927500936498E-3    2.670020943255712E-3    4.002233457258683E-1    3.193909646022343E-1
 8.061894066250000E9     3.707914085125205E-1    4.405988376159145E-1   -2.206890119890626E-3    2.548712044775248E-3   -2.135578851691683E-3    2.729219481723700E-3    4.004572242336082E-1    3.191352260670767E-1
 8.061895708125000E9     3.707999543851554E-1    4.405625973426311E-1   -2.222399568632859E-3    2.558013561801086E-3   -2.080701327353421E-3    2.694908065102753E-3    4.003587540559290E-1    3.190162839428737E-1
 8.061897350000000E9     3.707595875781526E-1    4.404189288163466E-1   -2.251006627372056E-3    2.555441385546084E-3   -2.090132134236632E-3    2.714459155317782E-3    4.003888330808387E-1    3.190833395146735E-1
 8.061898991875000E9     3.709903340204109E-1    4.402553959903157E-1   -2.247336570226102E-3    2.558056726259323E-3   -2.129009119320883E-3    2.707871962196143E-3    4.005469443428322E-1    3.189823415691426E-1
 8.061900633750000E9     3.711126304787620E-1    4.402228649321843E-1   -2.257308247284617E-3    2.565160896636452E-3   -2.090177138210257E-3    2.744767187208147E-3    4.006074724108642E-1    3.187639857503594E-1
 8.061902275625000E9     3.713426553174148E-1    4.399427188573252E-1   -2.243299058539602E-3    2.596959535446408E-3   -2.118216292436736E-3    2.756616365790459E-3    4.006214035921943E-1    3.188129292051254E-1
 8.061903917500000E9     3.712754583309050E-1    4.399421684822808E-1   -2.267452431926927E-3    2.599218678604024E-3   -2.131215014644763E-3    2.722508202131922E-3    4.007186859222664E-1    3.185632268446955E-1
 8.061905559375000E9     3.714783217493748E-1    4.398091883026515E-1   -2.266706042158202E-3    2.610110430582691E-3   -2.110811439882966E-3    2.707101920679598E-3    4.007660784162079E-1    3.185317334515446E-1
 8.061907201250000E9     3.715931275219012E-1    4.397468809118022E-1   -2.277996700814541E-3    2.607752313532827E-3   -2.134420634985280E-3    2.767035256606247E-3    4.007186994743025E-1    3.185009148417124E-1
 8.061908843125000E9     3.717180650173808E-1    4.395737720811022E-1   -2.261391809835697E-3    2.598750778555460E-3   -2.104144922143997E-3    2.787381126253264E-3    4.009961881046470E-1    3.184285630428889E-1
 8.061910485000000E9     3.718238982854378E-1    4.393042310313520E-1   -2.265495973363248E-3    2.628435518488507E-3   -2.134001545864406E-3    2.768846106771064E-3    4.009190416131612E-1    3.184199630110908E-1
 8.061912126875000E9     3.719081474727080E-1    4.393616549852273E-1   -2.288573714604981E-3    2.603638397660696E-3   -2.145427815849233E-3    2.782499502268365E-3    4.010498592178202E-1    3.181829114493347E-1
 8.061913768750000E9     3.720899949327802E-1    4.393741482231776E-1   -2.261475213236581E-3    2.630258630049359E-3   -2.142377536982278E-3    2.788869846329470E-3    4.011249095340120E-1    3.181243256065028E-1
 8.061915410625000E9     3.722551228488119E-1    4.393271425121733E-1   -2.283292751751635E-3    2.639278550480685E-3   -2.099250921815999E-3    2.762100565720488E-3    4.010989465480758E-1    3.180896230055669E-1
 8.061917052500000E9     3.723831262151685E-1    4.390028870668843E-1   -2.280206215942520E-3    2.680363442999773E-3   -2.173267433636299E-3    2.839488042242871E-3    4.012669833301215E-1    3.179721598319468E-1
 8.061918694375000E9     3.724274050805146E-1    4.390001058573046E-1   -2.298145570182117E-3    2.669809929489958E-3   -2.190364548030733E-3    2.836339307739326E-3    4.013289497347369E-1    3.179001303874025E-1
 8.061920336250000E9     3.725525917039989E-1    4.387534572595114E-1   -2.279931358824198E-3    2.682970603545584E-3   -2.111365472304018E-3    2.836365460711184E-3    4.012967383773047E-1    3.178166192477887E-1
 8.061921978125000E9     3.727596318724992E-1    4.386808498538951E-1   -2.299721566329188E-3    2.701888767364689E-3   -2.172511519803474E-3    2.825988471624635E-3    4.013396591931587E-1    3.178460789640601E-1
 8.061923620000000E9     3.727922251358546E-1    4.385758190667593E-1   -2.311886768714343E-3    2.693988869631664E-3   -2.136259045144190E-3    2.858407424485857E-3    4.016052578783189E-1    3.175842346964772E-1
 8.061925261875000E9     3.728972205046305E-1    4.384547668754558E-1   -2.303548630349892E-3    2.705977620706714E-3   -2.179069005239557E-3    2.838163201536774E-3    4.016484245065832E-1    3.176104398174279E-1
 8.061926903750000E9     3.730133674957792E-1    4.384863589958196E-1   -2.311670726104571E-3    2.694028645887123E-3   -2.174447618095724E-3    2.875571136646387E-3    4.015571567578847E-1    3.174786602143999E-1
 8.061928545625000E9     3.731724790914478E-1    4.382770977593806E-1   -2.300605182426090E-3    2.752546590355699E-3   -2.216270097485062E-3    2.914063191967479E-3    4.017227869958156E-1    3.174796519965201E-1
 8.061930187500000E9     3.733366420898077E-1    4.381365267351766E-1   -2.331347410841007E-3    2.729315799428145E-3   -2.155639383375949E-3    2.885804187330009E-3    4.016655412484754E-1    3.173266782077762E-1
 8.061931829375000E9     3.733358189835693E-1    4.380422547906769E-1   -2.334316762995806E-3    2.748215860742953E-3   -2.187520553725800E-3    2.913981394928193E-3    4.017900596854636E-1    3.173416464500228E-1
 8.061933471250000E9     3.735522660964128E-1    4.378330684537090E-1   -2.333822511193232E-3    2.744306774341598E-3   -2.191173024500294E-3    2.927417475519889E-3    4.017609041263527E-1    3.173632041404097E-1
 8.061935113125000E9     3.736469274836010E-1    4.377231247188289E-1   -2.347131719167251E-3    2.803205674013523E-3   -2.210542419507685E-3    2.945597567838064E-3    4.019227140363256E-1    3.170064599819845E-1
 8.061936755000000E9     3.737885196716703E-1    4.375342190801505E-1   -2.337452034171160E-3    2.778814644201475E-3   -2.165743574758067E-3    2.959101210277564E-3    4.018157244454873E-1    3.169431468142351E-1
 8.061938396875000E9     3.739473458074558E-1    4.375015276957731E-1   -2.360675817587192E-3    2.809373120679052E-3   -2.198418819537400E-3    2.978231740568162E-3    4.019006840143848E-1    3.169161134211098E-1
 8.061940038750000E9     3.740007312973238E-1    4.373713194667986E-1   -2.371954617147287E-3    2.797494473132111E-3   -2.207592499277731E-3    2.975697766151919E-3    4.020530478333267E-1    3.169272387106694E-1
