#  HZ   S   RI   R     50.00 
! Rohde & Schwarz Vector Network Analyzer 
! Rohde-Schwarz,ZNB20-2Port,1311601062101988,3.16
! Created: UTC 3/20/2024, 11:08:59 PM
! freq[Hz]                re:S11                  im:S11                  re:S21                  im:S21                  re:S12                  im:S12                  re:S22                  im:S22
 8.061817541000000E9     3.654111675015221E-1    4.453606362083503E-1   -2.059323755161976E-3    2.226984030035362E-3   -1.947124399525362E-3    2.386751298151226E-3    3.979708513520483E-1    3.227711207271711E-1
 8.061819112775000E9     3.655779700098453E-1    4.452233602997951E-1   -2.069367754059766E-3    2.229795093321167E-3   -1.923014628602150E-3    2.396040077861988E-3    3.980505936478051E-1    3.225452878932088E-1
 8.061820684550000E9     3.655869666123686E-1    4.451394017014345E-1   -2.096806724490151E-3    2.241333714531031E-3   -1.927450442829643E-3    2.362408815713090E-3    3.982395429979115E-1    3.225972504131154E-1
 8.061822256325000E9     3.658212597796101E-1    4.449367294495888E-1   -2.071885407000456E-3    2.254496172190946E-3   -1.982554547490265E-3    2.395052863482213E-3    3.984134413210024E-1    3.224058482830265E-1
 8.061823828100000E9     3.659833807043423E-1    4.449965554156358E-1   -2.079822594657665E-3    2.234307279375924E-3   -1.924005160883541E-3    2.379889362328702E-3    3.981628193391954E-1    3.222801112482935E-1
 8.061825399875000E9     3.660087281537251E-1    4.448734429032206E-1   -2.077570302974876E-3    2.246857668654785E-3   -1.971574223587861E-3    2.387453570304437E-3    3.984239100680252E-1    3.223118336713665E-1
 8.061826971650000E9     3.660181588785907E-1    4.446772180197581E-1   -2.096215278951625E-3    2.224409681876421E-3   -1.959250687346952E-3    2.408728608496555E-3    3.984123519831443E-1    3.222014375263036E-1
 8.061828543425000E9     3.661547858764899E-1    4.447282570025100E-1   -2.081857483639291E-3    2.258161652588795E-3   -1.950557478104938E-3    2.394341731954609E-3    3.984642009116308E-1    3.221659748404219E-1
 8.061830115200000E9     3.662905710399821E-1    4.446124657389138E-1   -2.097117208050258E-3    2.246627113800398E-3   -1.938525608289689E-3    2.378484684382161E-3    3.985944757444786E-1    3.220405354686092E-1
 8.061831686975000E9     3.664547226676548E-1    4.444821385327069E-1   -2.090929613859759E-3    2.252629530527289E-3   -1.958021596813268E-3    2.399249435514351E-3    3.986219511023170E-1    3.220207580371428E-1
 8.061833258750000E9     3.665895214624558E-1    4.445181610325376E-1   -2.083662398680827E-3    2.272513107751202E-3   -1.965895123674834E-3    2.413078590636491E-3    3.986994481427465E-1    3.218945727986052E-1
 8.061834830525000E9     3.666160571066129E-1    4.443687171407225E-1   -2.090261936384352E-3    2.237978504318705E-3   -1.990773641187255E-3    2.405782000007566E-3    3.988097735192955E-1    3.216702739088358E-1
 8.061836402300000E9     3.667437680590254E-1    4.443220591683201E-1   -2.077592273338883E-3    2.282272773169140E-3   -1.992450243278916E-3    2.413116168776912E-3    3.987292512851032E-1    3.218158722676253E-1
 8.061837974075000E9     3.668923542995435E-1    4.442735885075118E-1   -2.104341626127757E-3    2.276378836204272E-3   -2.008440247158873E-3    2.435546990264369E-3    3.988925246809732E-1    3.217619972193014E-1
 8.061839545850000E9     3.670029150401941E-1    4.439149581902483E-1   -2.109165240956523E-3    2.300659636911084E-3   -1.961608483093289E-3    2.399032506205602E-3    3.989606971981020E-1    3.217396833081512E-1
 8.061841117625000E9     3.669908106625877E-1    4.440013874410814E-1   -2.118521053486804E-3    2.264136647253071E-3   -1.987303099245485E-3    2.409627178864001E-3    3.990275489541961E-1    3.215138049894737E-1
 8.061842689400000E9     3.671677234357865E-1    4.437825502832768E-1   -2.093400093564835E-3    2.310461756306198E-3   -2.017031731772266E-3    2.472158803085890E-3    3.990628004789546E-1    3.213631618049410E-1
 8.061844261175000E9     3.673711284618347E-1    4.437895762856638E-1   -2.115296537360813E-3    2.298515827263751E-3   -1.995246491305238E-3    2.405055809829399E-3    3.991750517324974E-1    3.212868498415001E-1
 8.061845832950000E9     3.672891627803394E-1    4.436838146140238E-1   -2.115667096366279E-3    2.332737227744239E-3   -1.966043018721611E-3    2.492873371225223E-3    3.992154503590833E-1    3.212957590393082E-1
 8.061847404725000E9     3.674292420865298E-1    4.436292851795803E-1   -2.105792813011402E-3    2.342107948065502E-3   -2.001392434798060E-3    2.444816963300397E-3    3.992429276188883E-1    3.212787734136570E-1
 8.061848976500000E9     3.675948261986524E-1    4.434904064426275E-1   -2.120417333045133E-3    2.323791896299778E-3   -2.024850582162319E-3    2.465305446443038E-3    3.992849626104342E-1    3.210846691409184E-1
 8.061850548275000E9     3.676843287937442E-1    4.433691676300413E-1   -2.115073500906146E-3    2.315201077761823E-3   -1.998684754754809E-3    2.443342308494349E-3    3.993175374999934E-1    3.211723539762794E-1
 8.061852120050000E9     3.677106533909995E-1    4.432855516858826E-1   -2.144697587697919E-3    2.310052495435612E-3   -1.974531667171946E-3    2.469949446307974E-3    3.994508128607974E-1    3.209881560624828E-1
 8.061853691825000E9     3.679483376556983E-1    4.431694238931302E-1   -2.119883747626939E-3    2.330840937596442E-3   -2.013129313194759E-3    2.427749576771404E-3    3.994843734554753E-1    3.209341952626601E-1
 8.061855263600000E9     3.680466564001499E-1    4.431358106603668E-1   -2.118688951865565E-3    2.344011864707591E-3   -1.999619561347445E-3    2.454849067560954E-3    3.995679339864850E-1    3.208729119437973E-1
 8.061856835375000E9     3.680391166787871E-1    4.430381022358503E-1   -2.132849058432939E-3    2.350492106001699E-3   -1.965276586582730E-3    2.486906939465163E-3    3.996633671780281E-1    3.208121623188385E-1
 8.061858407150000E9     3.682877420172966E-1    4.428148116592925E-1   -2.131276286719214E-3    2.360550996671923E-3   -2.008300220440358E-3    2.473931541928555E-3    3.997608345219876E-1    3.208035538353037E-1
 8.061859978925000E9     3.682677569922815E-1    4.429828356607042E-1   -2.130943219285451E-3    2.373171401041928E-3   -2.009050375515321E-3    2.482126158025742E-3    3.996511734850591E-1    3.206344054843228E-1
 8.061861550700000E9     3.684541773386806E-1    4.428071199361715E-1   -2.135475178292955E-3    2.387160992267036E-3   -2.018541954094742E-3    2.530700743257418E-3    3.997707022367539E-1    3.205073240925609E-1
 8.061863122475000E9     3.684024960280252E-1    4.426400240525025E-1   -2.158400478730223E-3    2.367709955412716E-3   -2.033476578328396E-3    2.514505851531690E-3    3.997983492489989E-1    3.204436581496690E-1
 8.061864694250000E9     3.685800764150876E-1    4.425567177091893E-1   -2.165110286904987E-3    2.370208681487681E-3   -2.029687961055525E-3    2.508249546019661E-3    3.999409092561563E-1    3.203250822241080E-1
 8.061866266025000E9     3.687257227136036E-1    4.424213328987478E-1   -2.150970125414388E-3    2.379724353540813E-3   -2.001237548137946E-3    2.530004354950864E-3    4.000049020281188E-1    3.202827129377926E-1
 8.061867837800000E9     3.687829702332668E-1    4.422682397158671E-1   -2.149360982962440E-3    2.363581672933587E-3   -2.004741985738444E-3    2.518877919578210E-3    4.000396280386584E-1    3.202050224858976E-1
 8.061869409575000E9     3.689052258583316E-1    4.423327297991904E-1   -2.154653380747204E-3    2.382320212641021E-3   -2.035401457718617E-3    2.556905640641703E-3    3.999562649856125E-1    3.203217280941830E-1
 8.061870981350000E9     3.690736627065330E-1    4.422267316930488E-1   -2.156258872220783E-3    2.373850587468332E-3   -2.047494770151192E-3    2.560948609186332E-3    4.001205277617059E-1    3.200818322786514E-1
 8.061872553125000E9     3.691534430046967E-1    4.422761100089296E-1   -2.160248430830275E-3    2.410326716022188E-3   -2.007047187345311E-3    2.523178779819726E-3    4.002471979474738E-1    3.199753245820069E-1
 8.061874124900000E9     3.693174744375349E-1    4.419751745132279E-1   -2.164679021642008E-3    2.390895095416226E-3   -2.032086980938418E-3    2.566003485759505E-3    4.002799911289573E-1    3.200985079958402E-1
 8.061875696675000E9     3.694050150071249E-1    4.418897927597612E-1   -2.153891418568889E-3    2.403821381575840E-3   -2.045025789869969E-3    2.585370462367046E-3    4.003068122891544E-1    3.198191442697109E-1
 8.061877268450000E9     3.695787478745423E-1    4.416859229601161E-1   -2.154182676893622E-3    2.408714135141240E-3   -2.038950040184984E-3    2.550557942710087E-3    4.004190577992817E-1    3.197890876249464E-1
 8.061878840225000E9     3.695793834234908E-1    4.417340989513024E-1   -2.164468552515012E-3    2.430476480428807E-3   -2.038004140791293E-3    2.550864389603303E-3    4.005087742232785E-1    3.198058056049775E-1
 8.061880412000000E9     3.696866517585145E-1    4.415978657140143E-1   -2.200682576016705E-3    2.422050909641885E-3   -2.048273000500675E-3    2.595232158155291E-3    4.004919312809258E-1    3.196531807913530E-1
 8.061881983775000E9     3.697081664477245E-1    4.416291984767872E-1   -2.164888949026302E-3    2.460055586208401E-3   -2.058440332339492E-3    2.586301558363431E-3    4.003930872849401E-1    3.194125745466411E-1
 8.061883555550000E9     3.698028130456555E-1    4.415046609984506E-1   -2.200091332914277E-3    2.440920212631888E-3   -2.048060099781675E-3    2.580878181482823E-3    4.005638624452651E-1    3.194654681079370E-1
 8.061885127325000E9     3.699898348677596E-1    4.412962854732373E-1   -2.196610844739408E-3    2.455251006305729E-3   -2.027605132885035E-3    2.586967493005425E-3    4.005485192368713E-1    3.193547870664753E-1
 8.061886699100000E9     3.701288515441941E-1    4.412957791959141E-1   -2.189827109512499E-3    2.460426263448673E-3   -2.015009756826043E-3    2.617431600908447E-3    4.006787023341435E-1    3.192504640026431E-1
 8.061888270875000E9     3.701711807887160E-1    4.411661677251660E-1   -2.203813621238306E-3    2.456453030560841E-3   -2.044777520413325E-3    2.627958066699946E-3    4.007856326512632E-1    3.191369242511500E-1
 8.061889842650000E9     3.703079082356179E-1    4.411068226937131E-1   -2.183648754413214E-3    2.483543616604621E-3   -2.097345267666341E-3    2.598352068781878E-3    4.007951826955827E-1    3.191990636147013E-1
 8.061891414425000E9     3.704746399821218E-1    4.410375840999142E-1   -2.214536403877670E-3    2.452050611247147E-3   -2.079960077221386E-3    2.599655177827921E-3    4.008094662379122E-1    3.190814523221752E-1
 8.061892986200000E9     3.705283233654181E-1    4.408280521747082E-1   -2.199762852042755E-3    2.497462916402285E-3   -2.063795798184867E-3    2.659711301809107E-3    4.010734393866610E-1    3.188922759579725E-1
 8.061894557975000E9     3.707275863649119E-1    4.408310854669594E-1   -2.194751563712687E-3    2.491079693654785E-3   -2.084328409436786E-3    2.619594293730518E-3    4.009214040107548E-1    3.188415687145186E-1
 8.061896129750000E9     3.707901913432639E-1    4.407228391612655E-1   -2.212340271617807E-3    2.502055852980582E-3   -2.056265186395398E-3    2.636815918403396E-3    4.010889711651737E-1    3.187952175119724E-1
 8.061897701525000E9     3.707923952033457E-1    4.405840722748763E-1   -2.201940153028539E-3    2.500133914686661E-3   -2.072209797602843E-3    2.655497914088785E-3    4.010485790975301E-1    3.186383847366403E-1
 8.061899273300000E9     3.709556006530260E-1    4.404847229814622E-1   -2.202872113151369E-3    2.531262407415394E-3   -2.071524126932860E-3    2.657541193872110E-3    4.011316133604432E-1    3.186903448500468E-1
 8.061900845075000E9     3.711982563109489E-1    4.403995904381056E-1   -2.232606936104484E-3    2.526116818521389E-3   -2.108292159019647E-3    2.697263387048501E-3    4.013673611786723E-1    3.188031710282109E-1
 8.061902416850000E9     3.712266599898565E-1    4.403223390721215E-1   -2.218844165110676E-3    2.534007924842514E-3   -2.085879964800411E-3    2.635672182405179E-3    4.013496607946861E-1    3.184493870419583E-1
 8.061903988625000E9     3.713134173673563E-1    4.401723123683171E-1   -2.244231712050780E-3    2.529463599467058E-3   -2.133725601677445E-3    2.693962999894290E-3    4.014151192222402E-1    3.183988060227300E-1
 8.061905560400000E9     3.714041624708386E-1    4.399844280610840E-1   -2.207512330661957E-3    2.530802909672775E-3   -2.052047807601402E-3    2.685770439350350E-3    4.015770370464818E-1    3.183430418027551E-1
 8.061907132175000E9     3.715079319538173E-1    4.398849900760831E-1   -2.236371944518071E-3    2.513636120073346E-3   -2.086102281910224E-3    2.712537091188831E-3    4.015205274554421E-1    3.181715450286197E-1
 8.061908703950000E9     3.715764172223781E-1    4.397655207677803E-1   -2.277285661901088E-3    2.557692845575458E-3   -2.116551720824543E-3    2.726772883113617E-3    4.015520612938155E-1    3.183652201291578E-1
 8.061910275725000E9     3.717606021327960E-1    4.397062985571940E-1   -2.259030284018709E-3    2.577760843704807E-3   -2.114311119223004E-3    2.731441189568665E-3    4.016174577165353E-1    3.180724273469460E-1
 8.061911847500000E9     3.718478203058277E-1    4.395949998542552E-1   -2.266597027423868E-3    2.591535779270100E-3   -2.122801235950356E-3    2.699394301560165E-3    4.018018225818051E-1    3.180325572638459E-1
 8.061913419275000E9     3.719156140971725E-1    4.394911453602484E-1   -2.278327469980561E-3    2.580066467398998E-3   -2.124030241350425E-3    2.734016316155866E-3    4.017743285503260E-1    3.180158232565625E-1
 8.061914991050000E9     3.721370013560974E-1    4.394091429464394E-1   -2.282956042642864E-3    2.570172626609541E-3   -2.070409234572893E-3    2.745167385060425E-3    4.018257446441786E-1    3.178808070992907E-1
 8.061916562825000E9     3.722263391066394E-1    4.393933999213142E-1   -2.255000200944050E-3    2.643906429838975E-3   -2.109099668403486E-3    2.762639012924954E-3    4.018247503647445E-1    3.178954080787362E-1
 8.061918134600000E9     3.722482047897436E-1    4.392250347338914E-1   -2.252669841288507E-3    2.615332747623142E-3   -2.134405113341650E-3    2.778162501655445E-3    4.019092433106349E-1    3.177615792394214E-1
 8.061919706375000E9     3.724491514700453E-1    4.392708954517999E-1   -2.272125214657117E-3    2.625228266471061E-3   -2.151651731375186E-3    2.763267608784010E-3    4.019736250818003E-1    3.176491819020704E-1
 8.061921278150000E9     3.724803593709455E-1    4.391230153208902E-1   -2.241323370784386E-3    2.600310194912033E-3   -2.157712159826871E-3    2.779657750867969E-3    4.020225444000561E-1    3.174414403202676E-1
 8.061922849925000E9     3.726711992967756E-1    4.390508858631140E-1   -2.276494780356695E-3    2.636275861949226E-3   -2.131409264699687E-3    2.804663622211830E-3    4.019093114426432E-1    3.174868594268915E-1
 8.061924421700000E9     3.727504697078176E-1    4.388207662464250E-1   -2.243653895141251E-3    2.657379935905279E-3   -2.127945111660919E-3    2.804841338437456E-3    4.022414513292193E-1    3.175030282931559E-1
 8.061925993475000E9     3.728706931483382E-1    4.386796650818197E-1   -2.281852980974912E-3    2.636879809399017E-3   -2.185948077392606E-3    2.812857892991205E-3    4.021769563804981E-1    3.173112624981395E-1
 8.061927565250000E9     3.730149810435863E-1    4.386657304534159E-1   -2.287671599111823E-3    2.666203808912128E-3   -2.144491289123926E-3    2.801474317629941E-3    4.023782969076467E-1    3.173221980624148E-1
 8.061929137025000E9     3.731604578342035E-1    4.385153036735804E-1   -2.263898041887704E-3    2.674312678262654E-3   -2.203853699196901E-3    2.849186604138278E-3    4.022469661558931E-1    3.171487471462615E-1
 8.061930708800000E9     3.732436946895964E-1    4.383840927098931E-1   -2.297561622130946E-3    2.681335127480566E-3   -2.175697789488022E-3    2.841773393310676E-3    4.023703996131794E-1    3.170752935745812E-1
 8.061932280575000E9     3.733717849714727E-1    4.383231201574103E-1   -2.313966560728166E-3    2.676331544022315E-3   -2.137178230047998E-3    2.848338111343421E-3    4.024740749122658E-1    3.170945537982045E-1
 8.061933852350000E9     3.733725074470867E-1    4.381102404797104E-1   -2.307731871091814E-3    2.703364720358418E-3   -2.135190447424482E-3    2.846685403471594E-3    4.024725538709257E-1    3.168481785053970E-1
 8.061935424125000E9     3.736333990894015E-1    4.380267628533223E-1   -2.337586583072380E-3    2.720860059873220E-3   -2.156704381129218E-3    2.880569777483983E-3    4.025751269673057E-1    3.167142533398110E-1
 8.061936995900000E9     3.736664505916256E-1    4.378240381577200E-1   -2.330557832458545E-3    2.689382817523830E-3   -2.178208483122935E-3    2.871576054891148E-3    4.025857956981672E-1    3.166385813628467E-1
 8.061938567675000E9     3.738104613223046E-1    4.378022263381139E-1   -2.316834990498584E-3    2.706870207390100E-3   -2.148748720891655E-3    2.894030535386311E-3    4.026148795016875E-1    3.167678171956897E-1
 8.061940139450000E9     3.740407944719726E-1    4.377077557254664E-1   -2.320648849282908E-3    2.727700730411624E-3   -2.201022761779071E-3    2.907288446147493E-3    4.025991291465933E-1    3.166575635728374E-1
 8.061941711225000E9     3.740596205119260E-1    4.374977768592249E-1   -2.316636655363139E-3    2.756732923919986E-3   -2.167583345447433E-3    2.939119712305560E-3    4.028448756225505E-1    3.165760744015420E-1
 8.061943283000000E9     3.741429766276006E-1    4.374067106977144E-1   -2.331442739641732E-3    2.764270495501481E-3   -2.170245014454078E-3    2.891643621317585E-3    4.026976416013893E-1    3.164412004982224E-1
 8.061944854775000E9     3.742236275271619E-1    4.373399341510379E-1   -2.338210979672036E-3    2.782613830861353E-3   -2.214463044372669E-3    2.898135401556368E-3    4.028812029745333E-1    3.163869187037299E-1
 8.061946426550000E9     3.743193382438941E-1    4.373510127422273E-1   -2.331419784757902E-3    2.810892997495294E-3   -2.196590325091851E-3    2.957957763018923E-3    4.030083298883140E-1    3.162082729582959E-1
 8.061947998325000E9     3.744289506658133E-1    4.371926435028490E-1   -2.345022808824928E-3    2.814603515465499E-3   -2.181204121993670E-3    2.970764224748548E-3    4.030109113092186E-1    3.161934856703899E-1
 8.061949570100000E9     3.746329084060687E-1    4.371270286639075E-1   -2.366121984298837E-3    2.793080475095068E-3   -2.236549147225978E-3    2.952040031608065E-3    4.031033775829119E-1    3.160801205900225E-1
 8.061951141875000E9     3.747531753334481E-1    4.368416504002246E-1   -2.341296963759400E-3    2.852139810954001E-3   -2.159231847313996E-3    2.965266191877937E-3    4.031604946710398E-1    3.160723524850508E-1
 8.061952713650000E9     3.747965030076360E-1    4.368225874610627E-1   -2.379607395600250E-3    2.820727849815991E-3   -2.231795574375786E-3    2.977476049708341E-3    4.031557347832438E-1    3.160515656249248E-1
 8.061954285425000E9     3.750882675634888E-1    4.367071712334286E-1   -2.356388839130156E-3    2.846513196584225E-3   -2.209059688284104E-3    3.003385578441907E-3    4.032970763032583E-1    3.158809007633370E-1
 8.061955857200000E9     3.751075746451286E-1    4.364449713414804E-1   -2.361767796336200E-3    2.841167141641481E-3   -2.226236356924592E-3    3.001195119112911E-3    4.033549274244793E-1    3.158256441694227E-1
 8.061957428975000E9     3.751635062936998E-1    4.363715508184013E-1   -2.368631106395616E-3    2.855694825158623E-3   -2.263620430895593E-3    3.027686546287837E-3    4.035199592209375E-1    3.156754043740549E-1
 8.061959000750000E9     3.752995593693457E-1    4.361388067785442E-1   -2.364306339979444E-3    2.877505062526833E-3   -2.217508026295880E-3    3.020423430863688E-3    4.034428290282920E-1    3.155622406032864E-1
