#  HZ   S   RI   R     50.00 
! Rohde & Schwarz Vector Network Analyzer 
! Rohde-Schwarz,ZNB20-2Port,1311601062101988,3.16
! Created: UTC 3/20/2024, 11:09:23 PM
! freq[Hz]                re:S11                  im:S11                  re:S21                  im:S21                  re:S12                  im:S12                  re:S22                  im:S22
 8.061821804000000E9     3.656395472974450E-1    4.451141320319562E-1   -2.080421835911552E-3    2.219966806701964E-3   -1.941066376702856E-3    2.363019823264749E-3    3.984881159668887E-1    3.222654566215289E-1
 8.061823377275000E9     3.657655278340459E-1    4.448868956192492E-1   -2.077797037094282E-3    2.239345303562757E-3   -1.992592089571852E-3    2.385275276305902E-3    3.985426508287952E-1    3.221557581119006E-1
 8.061824950550000E9     3.659615354449630E-1    4.449087819100054E-1   -2.090204748238543E-3    2.217192335359601E-3   -1.957504608596279E-3    2.357810616225464E-3    3.985768245830727E-1    3.222984073219882E-1
 8.061826523825000E9     3.660770361319871E-1    4.448154354643764E-1   -2.059776216269322E-3    2.241927442165511E-3   -1.972494558672761E-3    2.390809468186122E-3    3.985706133323138E-1    3.221594714429318E-1
 8.061828097100000E9     3.660500382059810E-1    4.448132516172777E-1   -2.087071398913487E-3    2.253544257205062E-3   -1.967573984756146E-3    2.377003776724486E-3    3.985575679331170E-1    3.220552199280006E-1
 8.061829670375000E9     3.662078712689631E-1    4.446973553082420E-1   -2.069279140343030E-3    2.245268475591057E-3   -1.967494749398921E-3    2.399864794254410E-3    3.986323696880225E-1    3.220770208334253E-1
 8.061831243650000E9     3.662573049608566E-1    4.446033157752901E-1   -2.075026541329416E-3    2.229992974535794E-3   -1.979963260043658E-3    2.425447606222642E-3    3.988830067993256E-1    3.218519595854475E-1
 8.061832816925000E9     3.664653261472226E-1    4.445208046722532E-1   -2.103467047262975E-3    2.233553664834152E-3   -1.962493000184934E-3    2.362266528799076E-3    3.989188580226878E-1    3.219158021456395E-1
 8.061834390200000E9     3.665796031747011E-1    4.443580962725063E-1   -2.076998129527049E-3    2.256749028068857E-3   -1.970283816355740E-3    2.406116765590630E-3    3.988618755576934E-1    3.217395835642251E-1
 8.061835963475000E9     3.666546359599448E-1    4.441710676213950E-1   -2.101474860466211E-3    2.272872858985902E-3   -1.942425218788897E-3    2.404758364519276E-3    3.988640935204028E-1    3.216491346396897E-1
 8.061837536750000E9     3.667289612266361E-1    4.441698682236788E-1   -2.085232914247628E-3    2.275648579313695E-3   -1.954266801554026E-3    2.429257670203754E-3    3.990151321265632E-1    3.214771961909410E-1
 8.061839110025000E9     3.668647445225762E-1    4.442094468974362E-1   -2.099053179505976E-3    2.276907684765570E-3   -1.959022047392736E-3    2.412959319980524E-3    3.990503728598150E-1    3.215779304168017E-1
 8.061840683300000E9     3.670553812892102E-1    4.440265460078895E-1   -2.085690182426848E-3    2.285944121554641E-3   -1.999471679233237E-3    2.424520284788985E-3    3.993172890020593E-1    3.214807289448257E-1
 8.061842256575000E9     3.670649749494894E-1    4.439043903595407E-1   -2.095537032858857E-3    2.291134538312921E-3   -1.993466980580688E-3    2.412982917584292E-3    3.992297424437934E-1    3.214272490051762E-1
 8.061843829850000E9     3.673209654650153E-1    4.439094785260752E-1   -2.104777254114888E-3    2.267744848685091E-3   -1.982070448826624E-3    2.418361854037650E-3    3.992004558458320E-1    3.212730823578793E-1
 8.061845403125000E9     3.672532908238225E-1    4.437681518887859E-1   -2.099680259964412E-3    2.284185364154267E-3   -1.983313511607046E-3    2.427508781436065E-3    3.993807065930596E-1    3.212547563743430E-1
 8.061846976400000E9     3.674502476070420E-1    4.437571588639446E-1   -2.094547645643872E-3    2.291578360293446E-3   -1.991674005968200E-3    2.480378919621158E-3    3.994281425984030E-1    3.210554944449293E-1
 8.061848549675000E9     3.675729760346076E-1    4.436165514404450E-1   -2.079815377405687E-3    2.275615872859647E-3   -1.977074310289559E-3    2.478506285961601E-3    3.994878758292361E-1    3.210843439518688E-1
 8.061850122950000E9     3.676144592731422E-1    4.435283164809187E-1   -2.110897707958804E-3    2.328023723645819E-3   -1.978435034477616E-3    2.481701622858945E-3    3.993732961554273E-1    3.210551651608212E-1
 8.061851696225000E9     3.677547691017669E-1    4.433396681028872E-1   -2.104402475322128E-3    2.329359488516594E-3   -1.990196405737023E-3    2.453674066994712E-3    3.995176752446106E-1    3.208598236673910E-1
 8.061853269500000E9     3.677767720638101E-1    4.433273909702609E-1   -2.106155670720117E-3    2.306300772293796E-3   -2.008476148937847E-3    2.490375832520136E-3    3.995453284504631E-1    3.208912247214494E-1
 8.061854842775000E9     3.679228274064592E-1    4.431680845303415E-1   -2.114788052946286E-3    2.337860053351788E-3   -2.008902666778984E-3    2.510732023837948E-3    3.996585488723229E-1    3.207127915382565E-1
 8.061856416050000E9     3.680215099817090E-1    4.432397362405395E-1   -2.159473238928632E-3    2.319291478039248E-3   -1.992651849703279E-3    2.479269191456309E-3    3.997661009712875E-1    3.206179317986074E-1
 8.061857989325000E9     3.682002666670920E-1    4.430268763082097E-1   -2.122188020826721E-3    2.325468672357318E-3   -2.003676346353985E-3    2.477536050997735E-3    3.997359803521010E-1    3.206722897953334E-1
 8.061859562600000E9     3.682288577482315E-1    4.428904905369290E-1   -2.135537980154760E-3    2.319320094714875E-3   -2.004920408338608E-3    2.464929110507382E-3    3.998568821995506E-1    3.205019566471321E-1
 8.061861135875000E9     3.684148371331999E-1    4.428812113015857E-1   -2.132360545151152E-3    2.351210627005918E-3   -1.976421011381794E-3    2.456375280101941E-3    3.999746319118562E-1    3.203107320281605E-1
 8.061862709150000E9     3.684961189642105E-1    4.427549228096376E-1   -2.148822935141020E-3    2.355317818305702E-3   -2.052348590434152E-3    2.496111796195830E-3    4.000288884648771E-1    3.202519501589198E-1
 8.061864282425000E9     3.685317371244134E-1    4.426177267502341E-1   -2.121062447614901E-3    2.358279393447647E-3   -2.060849788070798E-3    2.505437971860244E-3    4.000141676757044E-1    3.202372902969673E-1
 8.061865855700000E9     3.686781721315435E-1    4.424487898695295E-1   -2.126336173605347E-3    2.364568500806448E-3   -2.039889447555839E-3    2.531234295896044E-3    4.000698350100137E-1    3.201429936538186E-1
 8.061867428975000E9     3.688777921431984E-1    4.424529965916080E-1   -2.143053966452087E-3    2.365863659212655E-3   -1.990457741667311E-3    2.531556848984894E-3    4.000689218530385E-1    3.200571843778372E-1
 8.061869002250000E9     3.689034455805612E-1    4.423666891896132E-1   -2.137184094881585E-3    2.359904673124267E-3   -2.001569029680298E-3    2.481415508871335E-3    4.000850483701485E-1    3.199689855496953E-1
 8.061870575525000E9     3.689770120633866E-1    4.422930461609766E-1   -2.135133335759734E-3    2.354063230643807E-3   -2.030320858366795E-3    2.488446277119038E-3    4.003428599140775E-1    3.199452453497006E-1
 8.061872148800000E9     3.692001264469365E-1    4.420428429824872E-1   -2.129959094156419E-3    2.383654993891942E-3   -2.024706035734622E-3    2.587899959161507E-3    4.002212167865896E-1    3.199416499515449E-1
 8.061873722075000E9     3.692147552004528E-1    4.420789318888979E-1   -2.163544336726115E-3    2.396229246194292E-3   -2.062512872210536E-3    2.539977237311046E-3    4.003579126688145E-1    3.197835790948215E-1
 8.061875295350000E9     3.694025026250657E-1    4.420096312588154E-1   -2.160537089747199E-3    2.402937235448878E-3   -2.019161385878845E-3    2.553461173063983E-3    4.003585554867191E-1    3.198390801006970E-1
 8.061876868625000E9     3.693412774480074E-1    4.419224617508798E-1   -2.162534743392583E-3    2.424351674696418E-3   -2.026561607865980E-3    2.555078833173577E-3    4.005944633690848E-1    3.196192892032260E-1
 8.061878441900000E9     3.695036817484778E-1    4.418853941686249E-1   -2.163586479664112E-3    2.411712560422903E-3   -2.055033401813089E-3    2.516682494013258E-3    4.005781732701755E-1    3.196884480503544E-1
 8.061880015175000E9     3.696610494821659E-1    4.417574424610378E-1   -2.170966826745860E-3    2.411618063059564E-3   -2.035265617976229E-3    2.546719434756546E-3    4.005001109288052E-1    3.195452368738338E-1
 8.061881588450000E9     3.697907816352602E-1    4.416161953629839E-1   -2.184648715691722E-3    2.422886545898745E-3   -2.036715819420554E-3    2.580464032095024E-3    4.007260070694885E-1    3.193093482626355E-1
 8.061883161725000E9     3.699083688961353E-1    4.416066853979835E-1   -2.172778690034838E-3    2.405904332671309E-3   -2.042680959259402E-3    2.600992839912358E-3    4.006901289683379E-1    3.192903722524821E-1
 8.061884735000000E9     3.699380369914689E-1    4.414830508451090E-1   -2.203179773626475E-3    2.425801212545591E-3   -2.072319900719785E-3    2.597428583204304E-3    4.007677533821214E-1    3.192865556518574E-1
 8.061886308275000E9     3.700568042754288E-1    4.413398043668744E-1   -2.160674493437832E-3    2.424989917013199E-3   -2.049815305866193E-3    2.605861155566107E-3    4.006819216071766E-1    3.191548074171343E-1
 8.061887881550000E9     3.701977915126368E-1    4.412848353737336E-1   -2.214005097531426E-3    2.433223629421694E-3   -2.064223446338477E-3    2.602923592869881E-3    4.009170795705123E-1    3.191245610149382E-1
 8.061889454825000E9     3.702784974856237E-1    4.411772991110880E-1   -2.192856634297677E-3    2.459248108849340E-3   -2.064871503797846E-3    2.615880683220384E-3    4.010581087458966E-1    3.189918637102488E-1
 8.061891028100000E9     3.704959285201930E-1    4.410981466255500E-1   -2.191093879429089E-3    2.438373740383330E-3   -2.077117771011605E-3    2.630200016451563E-3    4.010729575887130E-1    3.189828387860155E-1
 8.061892601375000E9     3.704447454522423E-1    4.409181025467241E-1   -2.181351684547800E-3    2.438829175479729E-3   -2.036255376387219E-3    2.635431890214303E-3    4.010479266754209E-1    3.186594338354625E-1
 8.061894174650000E9     3.705281671621891E-1    4.408978477554372E-1   -2.204934083774156E-3    2.456167219649860E-3   -2.092137804172246E-3    2.610471595191131E-3    4.012480002880960E-1    3.188255191913707E-1
 8.061895747925000E9     3.707990081881243E-1    4.406671759420447E-1   -2.184224066260260E-3    2.484528858328100E-3   -2.068603324220981E-3    2.601897752305621E-3    4.013060947664009E-1    3.186291100045668E-1
 8.061897321200000E9     3.708105598950955E-1    4.406168031435835E-1   -2.202127686377555E-3    2.464881573530835E-3   -2.103251626802768E-3    2.657509644911165E-3    4.013024663571068E-1    3.186653282890610E-1
 8.061898894475000E9     3.709464818514651E-1    4.404730459517875E-1   -2.212851057481837E-3    2.487830861611012E-3   -2.098559293716862E-3    2.628838848624205E-3    4.013724394393917E-1    3.185231420899436E-1
 8.061900467750000E9     3.710469552642817E-1    4.405245820514345E-1   -2.201991255129303E-3    2.509895153191526E-3   -2.092542873264460E-3    2.657544515331138E-3    4.012935277495400E-1    3.185292000277242E-1
 8.061902041025000E9     3.710858214742081E-1    4.405065402438916E-1   -2.220731530181791E-3    2.515705294193448E-3   -2.093471460129620E-3    2.663092363878863E-3    4.014172357636987E-1    3.183215983384000E-1
 8.061903614300000E9     3.712059416277702E-1    4.403600327116029E-1   -2.210103612764445E-3    2.512388139641249E-3   -2.061251454803995E-3    2.674451501786774E-3    4.015252239309882E-1    3.183243805062356E-1
 8.061905187575000E9     3.712841851505635E-1    4.402270799380877E-1   -2.217965938009698E-3    2.542757133316953E-3   -2.089409084180635E-3    2.708197098993866E-3    4.016180544389172E-1    3.180767732395783E-1
 8.061906760850000E9     3.714758529833552E-1    4.400390427315535E-1   -2.212189988941896E-3    2.502483553183831E-3   -2.104265712194885E-3    2.708532303658323E-3    4.015841016707313E-1    3.181141839062835E-1
 8.061908334125000E9     3.716296148222188E-1    4.400117873656575E-1   -2.209089513889167E-3    2.537302088804295E-3   -2.078115738927219E-3    2.692810774451967E-3    4.016505127653250E-1    3.180617150130802E-1
 8.061909907400000E9     3.716600133199724E-1    4.398346903608293E-1   -2.260841855557165E-3    2.550168608171171E-3   -2.083719719575199E-3    2.709150713861129E-3    4.018582336122207E-1    3.179865417527927E-1
 8.061911480675000E9     3.719883400060450E-1    4.397295872070365E-1   -2.241392806436589E-3    2.548890940113905E-3   -2.081015746934721E-3    2.659350815179445E-3    4.018056039262868E-1    3.178867185227817E-1
 8.061913053950000E9     3.719698769954959E-1    4.396738204330862E-1   -2.232047071607123E-3    2.525746746103074E-3   -2.096946562942552E-3    2.716647197823237E-3    4.017589209864464E-1    3.177268325730039E-1
 8.061914627225000E9     3.720207931759666E-1    4.395657102375270E-1   -2.219989670983439E-3    2.561741829504765E-3   -2.117154593989654E-3    2.763492159303326E-3    4.020612659204563E-1    3.177785730190166E-1
 8.061916200500000E9     3.721972550404783E-1    4.394287882701481E-1   -2.242335200798655E-3    2.600337988981146E-3   -2.082975841731944E-3    2.739886991257763E-3    4.020745833719669E-1    3.176481918074203E-1
 8.061917773775000E9     3.723159610083537E-1    4.394375767250236E-1   -2.259054598248851E-3    2.584674184673143E-3   -2.157847273406220E-3    2.735077342833062E-3    4.022167024415922E-1    3.177670932533646E-1
 8.061919347050000E9     3.723369994982370E-1    4.392263783458248E-1   -2.263308515593043E-3    2.596812094095352E-3   -2.138167773347942E-3    2.762766113375391E-3    4.022134959050577E-1    3.174897490374950E-1
 8.061920920325000E9     3.724531788387024E-1    4.391451082938886E-1   -2.282346349466969E-3    2.598826555166697E-3   -2.101160285834352E-3    2.743521568917495E-3    4.022422680945998E-1    3.174852049162737E-1
 8.061922493600000E9     3.725057258503653E-1    4.390992940021857E-1   -2.257197726556684E-3    2.607142232759319E-3   -2.143911522689710E-3    2.767225341584852E-3    4.022873067685516E-1    3.174005561607439E-1
 8.061924066875000E9     3.726824234571327E-1    4.388727037121922E-1   -2.264331520918852E-3    2.605530111069938E-3   -2.146116479221497E-3    2.772809410642826E-3    4.023811207635664E-1    3.173940730667359E-1
 8.061925640150000E9     3.729311985689812E-1    4.387933544331621E-1   -2.274502714598824E-3    2.619447078325475E-3   -2.133373747769494E-3    2.775480019932826E-3    4.023171693007080E-1    3.171532216084134E-1
 8.061927213425000E9     3.728964997976410E-1    4.387631305232966E-1   -2.300451060942110E-3    2.639957206036618E-3   -2.162771168230158E-3    2.799442383466613E-3    4.024445287343942E-1    3.171072772989753E-1
 8.061928786700000E9     3.730127163061021E-1    4.386278278693567E-1   -2.294058672340100E-3    2.640250252675595E-3   -2.170138886778822E-3    2.798691102155342E-3    4.025306764324556E-1    3.169699778817010E-1
 8.061930359975000E9     3.731883803407226E-1    4.384591452368126E-1   -2.288776901245135E-3    2.643976681553608E-3   -2.139840321576352E-3    2.861358108134107E-3    4.025381366223823E-1    3.169062051911946E-1
 8.061931933250000E9     3.733577299045286E-1    4.383443450316050E-1   -2.285340476003741E-3    2.681089990960609E-3   -2.161527014332292E-3    2.832171924808374E-3    4.027424670524312E-1    3.169224229947651E-1
 8.061933506525000E9     3.734783958844695E-1    4.382029078822389E-1   -2.301036290010691E-3    2.668199073382371E-3   -2.147720706591734E-3    2.839061015841183E-3    4.027362976288876E-1    3.166096881748916E-1
 8.061935079800000E9     3.734566072170970E-1    4.381223207117411E-1   -2.292070082311296E-3    2.670619608848214E-3   -2.122006922715439E-3    2.836584175915942E-3    4.027416831817133E-1    3.168117673093843E-1
 8.061936653075000E9     3.736126163341457E-1    4.379199708247900E-1   -2.331993718549465E-3    2.692604007887610E-3   -2.160114278838687E-3    2.879977015517967E-3    4.027507950188587E-1    3.166149585137028E-1
 8.061938226350000E9     3.737015159506558E-1    4.378686039456964E-1   -2.324399988831256E-3    2.710819976967413E-3   -2.165380789708832E-3    2.844796464852354E-3    4.028324556409130E-1    3.165748012556350E-1
 8.061939799625000E9     3.738518915156153E-1    4.377438100775936E-1   -2.316581397311336E-3    2.722594992787934E-3   -2.174835555061286E-3    2.882400211671803E-3    4.028090256545537E-1    3.164748314664210E-1
 8.061941372900000E9     3.739545323549599E-1    4.377039847191032E-1   -2.322112775337214E-3    2.723247474040420E-3   -2.194729988480436E-3    2.879834669383933E-3    4.030049360801679E-1    3.163005173323810E-1
 8.061942946175000E9     3.739619371538957E-1    4.375623228181186E-1   -2.347530498443790E-3    2.731949564463876E-3   -2.174519531248717E-3    2.899836339424516E-3    4.031260770300238E-1    3.163505442826035E-1
 8.061944519450000E9     3.741694502522537E-1    4.375322286181359E-1   -2.331633020307095E-3    2.758460946031198E-3   -2.188547397747646E-3    2.926564293341371E-3    4.029883304576968E-1    3.162275153890431E-1
 8.061946092725000E9     3.744590647509466E-1    4.373817798770837E-1   -2.349690063265047E-3    2.750843259217350E-3   -2.166392998064291E-3    2.912594715549837E-3    4.031713441996065E-1    3.160645888428123E-1
 8.061947666000000E9     3.745693880278766E-1    4.371373864866532E-1   -2.343279123068617E-3    2.756090026026524E-3   -2.177398424595640E-3    2.942503869535736E-3    4.030934441337298E-1    3.159131667358069E-1
 8.061949239275000E9     3.745287274380331E-1    4.371516524392959E-1   -2.342962895715574E-3    2.758462995106287E-3   -2.204201226786304E-3    2.953028802660125E-3    4.031641660880237E-1    3.159573921365469E-1
 8.061950812550000E9     3.747252448729918E-1    4.369456520716623E-1   -2.363957921170124E-3    2.790412427616277E-3   -2.185267138180375E-3    2.928375614167357E-3    4.033207215131298E-1    3.159794613743813E-1
 8.061952385825000E9     3.748201578448641E-1    4.368547330015269E-1   -2.343867703093471E-3    2.810540523927257E-3   -2.210440512174898E-3    2.996883780788477E-3    4.032793182461626E-1    3.157168553709131E-1
 8.061953959100000E9     3.748127935827967E-1    4.366998051563612E-1   -2.358383690470550E-3    2.832724354791455E-3   -2.214776018343060E-3    2.990349051442517E-3    4.032803103155274E-1    3.158467872591047E-1
 8.061955532375000E9     3.750251533116332E-1    4.366692634534217E-1   -2.366451236449065E-3    2.825783116081500E-3   -2.182912367333124E-3    3.009769216573258E-3    4.034031135365118E-1    3.155908872907278E-1
 8.061957105650000E9     3.752639857452847E-1    4.364881448867694E-1   -2.386579573411690E-3    2.831608803010972E-3   -2.212918651838352E-3    2.986701545984928E-3    4.034917716671532E-1    3.155880879810796E-1
 8.061958678925000E9     3.753891108138711E-1    4.364426768572109E-1   -2.365915955540743E-3    2.834015373101185E-3   -2.188928523704660E-3    3.002863940222491E-3    4.036529594845398E-1    3.154842080735832E-1
 8.061960252200000E9     3.754370519215286E-1    4.362019728805153E-1   -2.367977068922358E-3    2.872864174758122E-3   -2.230611850522412E-3    3.010471276088693E-3    4.035868592339334E-1    3.154215869212867E-1
 8.061961825475000E9     3.755999071478161E-1    4.361716127664562E-1   -2.361253870031037E-3    2.897967741545397E-3   -2.231077654892194E-3    3.048690234801114E-3    4.036070849484804E-1    3.153035740006770E-1
 8.061963398750000E9     3.756852715663110E-1    4.360379209293424E-1   -2.380953721439821E-3    2.896741532417858E-3   -2.245377362863668E-3    3.054450569946891E-3    4.038237165003474E-1    3.150814806290068E-1
