#  HZ   S   RI   R     50.00 
! Rohde & Schwarz Vector Network Analyzer 
! Rohde-Schwarz,ZNB20-2Port,1311601062101988,3.16
! Created: UTC 3/20/2024, 10:53:54 PM
! freq[Hz]                re:S11                  im:S11                  re:S21                  im:S21                  re:S12                  im:S12                  re:S22                  im:S22
 8.062149493000000E9     3.884985824794272E-1    4.240022763800527E-1   -3.029115911836698E-3    3.911523563617673E-3   -2.827909449538114E-3    4.184555366098186E-3    3.908175334365104E-1    2.821864988881624E-1
 8.062150004900000E9     3.885334583609731E-1    4.239381045642022E-1   -3.077189479040172E-3    3.946771975744895E-3   -2.866105419734590E-3    4.182919183302615E-3    3.906908485342760E-1    2.820967948020696E-1
 8.062150516800000E9     3.887011776321508E-1    4.239552987527465E-1   -3.058558601239511E-3    3.947873528110032E-3   -2.851403165980120E-3    4.194329826265488E-3    3.907263484715985E-1    2.821194923695147E-1
 8.062151028700000E9     3.887569893299175E-1    4.237626356731888E-1   -3.058207261558693E-3    3.973922408501903E-3   -2.859669072076904E-3    4.189944721691099E-3    3.908642928786687E-1    2.820965241270218E-1
 8.062151540600000E9     3.888577470835940E-1    4.237195084037477E-1   -3.097385284914538E-3    4.003595007555503E-3   -2.909663658236405E-3    4.215284540440399E-3    3.907935871730256E-1    2.820993240318005E-1
 8.062152052500000E9     3.889036737758502E-1    4.236728991115710E-1   -3.109488009257625E-3    3.997305032816984E-3   -2.875623176708318E-3    4.221722569632863E-3    3.908439936177338E-1    2.820093646284904E-1
 8.062152564400000E9     3.889983060259424E-1    4.235090030376006E-1   -3.128652625962748E-3    3.983557695118128E-3   -2.870959481267494E-3    4.251817159533815E-3    3.908446286930221E-1    2.819623673393756E-1
 8.062153076300000E9     3.890676041885893E-1    4.234952012044557E-1   -3.093378102188500E-3    4.019947769514222E-3   -2.890888107575229E-3    4.272104932765951E-3    3.908859376319470E-1    2.818790492973429E-1
 8.062153588200000E9     3.892164544094008E-1    4.234441571619660E-1   -3.118386640363065E-3    4.050822868303939E-3   -2.894093623665555E-3    4.273046315966581E-3    3.908265388578470E-1    2.819981848897670E-1
 8.062154100100000E9     3.892818908404810E-1    4.232997524830281E-1   -3.114856253049869E-3    4.072127064562457E-3   -2.895984238384407E-3    4.318626221969588E-3    3.909312873746826E-1    2.818756422295643E-1
 8.062154612000000E9     3.893694190211087E-1    4.232513870027361E-1   -3.151945527025317E-3    4.066453493001720E-3   -2.909031891887341E-3    4.359392814328339E-3    3.909297925297158E-1    2.818695398458125E-1
 8.062155123900000E9     3.894005633908282E-1    4.230973309533743E-1   -3.168202842064511E-3    4.086585693419937E-3   -2.920866105294830E-3    4.327397425150696E-3    3.909637616526013E-1    2.818656165546501E-1
 8.062155635800000E9     3.894391332514697E-1    4.231280017679916E-1   -3.129465995380642E-3    4.108961372404955E-3   -2.928224404759354E-3    4.330231194085709E-3    3.909396546358073E-1    2.818587572172948E-1
 8.062156147700000E9     3.896742347133347E-1    4.228955957016274E-1   -3.156157578487806E-3    4.106041243863493E-3   -2.912591261181500E-3    4.352387073807320E-3    3.908480786189497E-1    2.816516517180943E-1
 8.062156659600000E9     3.895985456773166E-1    4.229442142579181E-1   -3.137806395048603E-3    4.140885613476153E-3   -2.934712901999802E-3    4.361635209481618E-3    3.911218783634779E-1    2.817411313110773E-1
 8.062157171500000E9     3.896693513736040E-1    4.228182470964962E-1   -3.172663232273617E-3    4.147948088432204E-3   -2.963678811649708E-3    4.368157050452450E-3    3.908654466265021E-1    2.817413165076934E-1
 8.062157683400000E9     3.897813409996276E-1    4.226730581094342E-1   -3.164638504174447E-3    4.164293630178457E-3   -2.995229441281485E-3    4.426268540612716E-3    3.910270864336725E-1    2.817198411690292E-1
 8.062158195300000E9     3.899213387042643E-1    4.224840909476753E-1   -3.141999842127764E-3    4.162808170816159E-3   -2.976561036853502E-3    4.390911016049723E-3    3.908730878411062E-1    2.816145196227408E-1
 8.062158707200000E9     3.899472114544498E-1    4.225572736841725E-1   -3.195111948146166E-3    4.180721817715125E-3   -2.951113487509027E-3    4.430873707739066E-3    3.911696810544275E-1    2.815826333747968E-1
 8.062159219100000E9     3.899504995141367E-1    4.223780301016901E-1   -3.220413544554864E-3    4.218755183221774E-3   -2.955334380403236E-3    4.471465740663534E-3    3.910008718078186E-1    2.815750080307076E-1
 8.062159731000000E9     3.901615964378613E-1    4.223328776263488E-1   -3.189021032993768E-3    4.215468074682747E-3   -3.030712173561525E-3    4.450732714400551E-3    3.911434066928126E-1    2.815680024271427E-1
 8.062160242900000E9     3.901895793433419E-1    4.221035944016210E-1   -3.206957263026107E-3    4.205977175163984E-3   -2.990859986683656E-3    4.454439687185294E-3    3.909596140692300E-1    2.816345752060204E-1
 8.062160754800000E9     3.901913686268374E-1    4.222158613460512E-1   -3.230033912201055E-3    4.260455167493698E-3   -3.021699280408809E-3    4.499418168517879E-3    3.910661890260386E-1    2.816277305014617E-1
 8.062161266700000E9     3.904621229393616E-1    4.219085207561798E-1   -3.239877221314799E-3    4.275162817001884E-3   -2.986935524917503E-3    4.508114515478029E-3    3.911157261147795E-1    2.815123905499849E-1
 8.062161778600000E9     3.904368852424568E-1    4.220283609788636E-1   -3.228813656938449E-3    4.296234484887133E-3   -3.047225114137246E-3    4.524680925653195E-3    3.912779324520396E-1    2.813976913864797E-1
 8.062162290500000E9     3.904528059038483E-1    4.217481768798225E-1   -3.249355875509073E-3    4.310950388400017E-3   -3.013741477583251E-3    4.551789189933339E-3    3.911445705440895E-1    2.814944901318097E-1
 8.062162802400000E9     3.905161044377796E-1    4.217270387524648E-1   -3.289351712934405E-3    4.323822031525000E-3   -3.050001860095414E-3    4.537145155441457E-3    3.912374166473246E-1    2.814742484632505E-1
 8.062163314300000E9     3.907156566302735E-1    4.215431242176766E-1   -3.265967480844384E-3    4.333560626942932E-3   -2.990712667406433E-3    4.611484305847739E-3    3.912461978795368E-1    2.814504041489553E-1
 8.062163826200000E9     3.906450797787091E-1    4.215326308891643E-1   -3.282029355770945E-3    4.366655573239043E-3   -3.039810380322646E-3    4.604856962422165E-3    3.912316978380805E-1    2.812779142576788E-1
 8.062164338100000E9     3.908494237824590E-1    4.214591169804606E-1   -3.289841180673739E-3    4.372672852207544E-3   -3.078693183104261E-3    4.620681891983641E-3    3.912567840743342E-1    2.813887088381375E-1
 8.062164850000000E9     3.909422892525728E-1    4.212932702702397E-1   -3.288043177440912E-3    4.382596621654176E-3   -3.065109486385519E-3    4.654027682843335E-3    3.911984869535728E-1    2.813883367368233E-1
 8.062165361900000E9     3.909929568832458E-1    4.211300592481181E-1   -3.281175438618330E-3    4.404659275213877E-3   -3.096690563336104E-3    4.654369687857222E-3    3.912590779708958E-1    2.813557612514186E-1
 8.062165873800000E9     3.911043366738788E-1    4.210005398227893E-1   -3.305773381810279E-3    4.418230210966732E-3   -3.075513682645888E-3    4.659712248116153E-3    3.913025721867104E-1    2.811782402710851E-1
 8.062166385700000E9     3.911660976705110E-1    4.209643286108932E-1   -3.321495164813017E-3    4.441991639041103E-3   -3.098958485355411E-3    4.676406596909531E-3    3.912820567483195E-1    2.812250553287106E-1
 8.062166897600000E9     3.911802673849466E-1    4.208417497176903E-1   -3.301079888359778E-3    4.485850696349907E-3   -3.110792282753742E-3    4.729116952692885E-3    3.914906065755515E-1    2.810384622754460E-1
 8.062167409500000E9     3.913531061965329E-1    4.207751576590751E-1   -3.345298767725585E-3    4.472850489775966E-3   -3.118429342899315E-3    4.733784005937151E-3    3.914183511626990E-1    2.812188219000630E-1
 8.062167921400000E9     3.914624800207568E-1    4.206409432112737E-1   -3.330578229966759E-3    4.504715837549326E-3   -3.140379932137606E-3    4.779774593398376E-3    3.913955920147374E-1    2.810958237948285E-1
 8.062168433300000E9     3.915428137172213E-1    4.205493112849628E-1   -3.381597971599094E-3    4.506583202449501E-3   -3.121085648177855E-3    4.791872441371347E-3    3.913705973724572E-1    2.812073426448737E-1
 8.062168945200000E9     3.915044377446719E-1    4.204730319416921E-1   -3.382796127475073E-3    4.540658154135908E-3   -3.154257345718806E-3    4.792679960194298E-3    3.913995832050160E-1    2.810939330530919E-1
 8.062169457100000E9     3.916141362098999E-1    4.203757603426144E-1   -3.364712606848388E-3    4.559217655550879E-3   -3.164549884864513E-3    4.809380413409034E-3    3.914937831861383E-1    2.810148286926438E-1
 8.062169969000000E9     3.918618561968024E-1    4.202533271683126E-1   -3.397575770264754E-3    4.561983823768254E-3   -3.158142816733169E-3    4.823182446495451E-3    3.915273904620666E-1    2.810342774565299E-1
 8.062170480900000E9     3.918886279005585E-1    4.201617729016741E-1   -3.401051772797984E-3    4.583178773292985E-3   -3.164566853801288E-3    4.851838535123952E-3    3.915276463469427E-1    2.809724035956978E-1
 8.062170992800000E9     3.920346807607313E-1    4.199376014595674E-1   -3.422693083922445E-3    4.611342002276325E-3   -3.180561012091899E-3    4.877054103292876E-3    3.913388333856201E-1    2.809674631052843E-1
 8.062171504700000E9     3.921098165112328E-1    4.198556352211890E-1   -3.415357065526608E-3    4.643812891552554E-3   -3.172506565568876E-3    4.887671495345112E-3    3.915053500245563E-1    2.808063203861135E-1
 8.062172016600000E9     3.921600974175829E-1    4.197324856202206E-1   -3.421326402399107E-3    4.656715612346182E-3   -3.208424322611689E-3    4.898132379270333E-3    3.915505899571631E-1    2.808863524237444E-1
 8.062172528500000E9     3.922120092985569E-1    4.195684678525982E-1   -3.445903478930822E-3    4.696098163833432E-3   -3.225531857909253E-3    4.948756347724690E-3    3.915361805282935E-1    2.808531699552064E-1
 8.062173040400000E9     3.924242065979804E-1    4.195095034415703E-1   -3.449893768053396E-3    4.712369063471158E-3   -3.240121630170988E-3    4.947429816434224E-3    3.915723591144099E-1    2.806997552575546E-1
 8.062173552300000E9     3.924658359761134E-1    4.193008625456386E-1   -3.460347460461536E-3    4.737371282429925E-3   -3.220681275839108E-3    4.978894445046222E-3    3.914888450828249E-1    2.808752804899101E-1
 8.062174064200000E9     3.925215805007512E-1    4.192891196527128E-1   -3.474306715059784E-3    4.778947592997684E-3   -3.224022610900741E-3    5.053443417060936E-3    3.914809057421711E-1    2.807807086340607E-1
 8.062174576100000E9     3.925498438834257E-1    4.191976733969373E-1   -3.486649334867864E-3    4.777372336213000E-3   -3.237487477791752E-3    5.025045774638547E-3    3.916572088811254E-1    2.807502641257553E-1
 8.062175088000000E9     3.927094288333531E-1    4.192069360549770E-1   -3.497927426762293E-3    4.777564568549530E-3   -3.268172405388299E-3    5.061222301593066E-3    3.915981608615431E-1    2.807067311599329E-1
 8.062175599900000E9     3.927685959083907E-1    4.189287360045825E-1   -3.529461999674425E-3    4.810063517040396E-3   -3.265809239652915E-3    5.098353303102376E-3    3.915532072850371E-1    2.806518531816025E-1
 8.062176111800000E9     3.930326693179364E-1    4.188182198433735E-1   -3.513428829514405E-3    4.876197296898400E-3   -3.271770089806087E-3    5.102336088577152E-3    3.917208967178556E-1    2.805664255207967E-1
 8.062176623700000E9     3.930288551257035E-1    4.185744633300942E-1   -3.550020273316299E-3    4.865181071724882E-3   -3.286723648443348E-3    5.142982926531330E-3    3.915193936500159E-1    2.804601015465065E-1
 8.062177135600000E9     3.930687674290612E-1    4.185425362702828E-1   -3.542570335064039E-3    4.884966585403791E-3   -3.324720516158675E-3    5.162352021687682E-3    3.916310845859612E-1    2.805519645657623E-1
 8.062177647500000E9     3.932824064763186E-1    4.184015092195395E-1   -3.563337766756778E-3    4.925438423113264E-3   -3.319493476441767E-3    5.212819689294644E-3    3.916377464931793E-1    2.805588973049546E-1
 8.062178159400000E9     3.933393892962762E-1    4.182631607026612E-1   -3.562411741824496E-3    4.973081364342208E-3   -3.287816364741564E-3    5.245639628266694E-3    3.916455550168781E-1    2.804441128374017E-1
 8.062178671300000E9     3.933468469357305E-1    4.182203411964550E-1   -3.570265574335801E-3    4.980040803645843E-3   -3.345444130542824E-3    5.243572914140435E-3    3.916949506735433E-1    2.804997781937795E-1
 8.062179183200000E9     3.934725309378382E-1    4.180277148886649E-1   -3.620681108614252E-3    4.982513394350736E-3   -3.320094294009340E-3    5.298512601210694E-3    3.917427746755393E-1    2.803711602440183E-1
 8.062179695100000E9     3.935329441380689E-1    4.178739942046562E-1   -3.600406211256959E-3    5.020857154288560E-3   -3.354259161496331E-3    5.320945122818921E-3    3.918148508337905E-1    2.804386233123053E-1
 8.062180207000000E9     3.936482813386277E-1    4.177654898997180E-1   -3.622625575094974E-3    5.059113644884062E-3   -3.355714522918779E-3    5.341320164320998E-3    3.918198396966946E-1    2.805025651782784E-1
 8.062180718900000E9     3.938384253499252E-1    4.174965744395020E-1   -3.614268826462192E-3    5.096990765225688E-3   -3.363560566257137E-3    5.333177101657795E-3    3.918806014556653E-1    2.802817590891593E-1
 8.062181230800000E9     3.939810222176455E-1    4.174113372157008E-1   -3.632684110434472E-3    5.084706334831061E-3   -3.369543555159287E-3    5.384745686905152E-3    3.917940287831465E-1    2.804036451944560E-1
 8.062181742700000E9     3.940118990310667E-1    4.172885621675230E-1   -3.639057884235659E-3    5.126756652247720E-3   -3.370690077975798E-3    5.397926169294225E-3    3.917813517650688E-1    2.804203517515464E-1
 8.062182254600000E9     3.942680627328992E-1    4.171815783780479E-1   -3.657653441682653E-3    5.188516948391756E-3   -3.368340883646668E-3    5.446491029817430E-3    3.918761571493913E-1    2.803651464592445E-1
 8.062182766500000E9     3.943470714494397E-1    4.170431290193356E-1   -3.678725711286331E-3    5.184478501728505E-3   -3.408112654231924E-3    5.470594251085812E-3    3.919502586214777E-1    2.803055931542708E-1
 8.062183278400000E9     3.943070969764608E-1    4.168367246095862E-1   -3.696878861078490E-3    5.205147465802419E-3   -3.425981863466987E-3    5.510056908885413E-3    3.919069670950479E-1    2.803278919210498E-1
 8.062183790300000E9     3.944740457644511E-1    4.167282431431951E-1   -3.727500755218200E-3    5.235978210600713E-3   -3.437006530312225E-3    5.533423703830673E-3    3.918313968816155E-1    2.801312626647815E-1
 8.062184302200000E9     3.946221904827295E-1    4.163850907560042E-1   -3.751340666257191E-3    5.279259720002722E-3   -3.444533928195946E-3    5.548690911570455E-3    3.919089509335880E-1    2.801774266209032E-1
 8.062184814100000E9     3.947265082765339E-1    4.163926810402085E-1   -3.742250620159592E-3    5.319539374296340E-3   -3.459161710615283E-3    5.587484841486648E-3    3.920997733518122E-1    2.801497546674043E-1
 8.062185326000000E9     3.947606625517512E-1    4.162374897609007E-1   -3.747926880203800E-3    5.354565145926846E-3   -3.487924063138028E-3    5.647574917446522E-3    3.920242565867632E-1    2.800233264653696E-1
 8.062185837900000E9     3.949491826796490E-1    4.160715733759250E-1   -3.743890841898329E-3    5.365677621123287E-3   -3.465596691722211E-3    5.658317276158895E-3    3.918442898034719E-1    2.799759897393323E-1
 8.062186349800000E9     3.949857276689038E-1    4.158939021141667E-1   -3.752569287523785E-3    5.414943012802574E-3   -3.456009104861593E-3    5.705519761361905E-3    3.919846677474181E-1    2.801215827100955E-1
 8.062186861700000E9     3.951609953142413E-1    4.157553122113611E-1   -3.779572051740556E-3    5.404506966746671E-3   -3.512475689236638E-3    5.762698776988982E-3    3.920777219290643E-1    2.801975149451562E-1
 8.062187373600000E9     3.952849832569927E-1    4.154712918194385E-1   -3.799031477338826E-3    5.497529494613073E-3   -3.540564157829332E-3    5.767070913977813E-3    3.920941583552434E-1    2.800538602799098E-1
 8.062187885500000E9     3.954376939306430E-1    4.153321149728341E-1   -3.818687358969124E-3    5.538978975691986E-3   -3.516653660220049E-3    5.839970227171147E-3    3.922523974614577E-1    2.799091035300627E-1
 8.062188397400000E9     3.954957134196216E-1    4.150374414739814E-1   -3.846840361588538E-3    5.561467544596145E-3   -3.529449385340109E-3    5.849474291318088E-3    3.920230028249143E-1    2.798509444116112E-1
 8.062188909300000E9     3.957213972077849E-1    4.149999264755652E-1   -3.867198177450083E-3    5.584205732244077E-3   -3.538071895466724E-3    5.887075234007033E-3    3.921996648160720E-1    2.798528529467884E-1
 8.062189421200000E9     3.958050493839880E-1    4.148361767604047E-1   -3.861436679790872E-3    5.607609774073321E-3   -3.583493154774910E-3    5.946771992555808E-3    3.921604723096703E-1    2.798552499978001E-1
 8.062189933100000E9     3.958302706889530E-1    4.146898867992285E-1   -3.881073615976603E-3    5.666427027716899E-3   -3.561816734602703E-3    5.915232837817382E-3    3.922212097414874E-1    2.798121405154476E-1
 8.062190445000000E9     3.959446085393076E-1    4.145323213742960E-1   -3.853482347306779E-3    5.683025022051781E-3   -3.578444618526259E-3    6.018764564786091E-3    3.920431750116720E-1    2.796864431088905E-1
 8.062190956900000E9     3.960540377542100E-1    4.143838147797895E-1   -3.875820703839006E-3    5.726781113912908E-3   -3.601569492055156E-3    6.045889641482462E-3    3.921726859570590E-1    2.797326623202170E-1
 8.062191468800000E9     3.962896754630226E-1    4.141225524160808E-1   -3.902403589275272E-3    5.767411931391118E-3   -3.633008810552095E-3    6.096680138994117E-3    3.920665627763344E-1    2.797261108535449E-1
 8.062191980700000E9     3.964221599507932E-1    4.138829087470356E-1   -3.918288422574541E-3    5.828936710995358E-3   -3.620475205401435E-3    6.111345750302458E-3    3.922936327235287E-1    2.797244348714611E-1
 8.062192492600000E9     3.964629574788396E-1    4.135806322248540E-1   -3.935495259984315E-3    5.865575552272875E-3   -3.642261011079680E-3    6.169237493518306E-3    3.923169489689304E-1    2.796183296244880E-1
 8.062193004500000E9     3.966011755460623E-1    4.135118948024328E-1   -3.948332063496604E-3    5.897545400567833E-3   -3.634988137294422E-3    6.241013744211221E-3    3.921983151804218E-1    2.795442001148187E-1
 8.062193516400000E9     3.967052478343524E-1    4.133039021633111E-1   -3.986096416739831E-3    5.942739361172487E-3   -3.668340827010749E-3    6.252543938520087E-3    3.923458620654183E-1    2.796597162923563E-1
 8.062194028300000E9     3.968801702322998E-1    4.131380762344919E-1   -3.958978715754735E-3    5.983876032441200E-3   -3.693578789582372E-3    6.282487675994218E-3    3.922155701358700E-1    2.795303581885547E-1
 8.062194540200000E9     3.969370418646774E-1    4.129556107423834E-1   -4.011556843295848E-3    6.044188640156429E-3   -3.707252833546039E-3    6.330137989812162E-3    3.923454624426741E-1    2.795862553620873E-1
 8.062195052100000E9     3.969845633455705E-1    4.126685600051539E-1   -4.006018645849735E-3    6.061797536753425E-3   -3.676635972831520E-3    6.387100201068541E-3    3.923258681942551E-1    2.794514206683651E-1
 8.062195564000000E9     3.972827542268866E-1    4.124243383253141E-1   -4.023750126163832E-3    6.091504077707832E-3   -3.684749286586045E-3    6.406321194145236E-3    3.923533644091534E-1    2.793883806801686E-1
