#  HZ   S   RI   R     50.00 
! Rohde & Schwarz Vector Network Analyzer 
! Rohde-Schwarz,ZNB20-2Port,1311601062101988,3.16
! Created: UTC 3/20/2024, 11:11:21 PM
! freq[Hz]                re:S11                  im:S11                  re:S21                  im:S21                  re:S12                  im:S12                  re:S22                  im:S22
 8.061878081000000E9     3.692930610632749E-1    4.422283952368571E-1   -2.132608678599255E-3    2.342092778838904E-3   -1.969143325926120E-3    2.493822477970967E-3    4.003736034212604E-1    3.187520071999508E-1
 8.061879478500000E9     3.693531719162139E-1    4.421184234261523E-1   -2.140039973984726E-3    2.352028169911026E-3   -1.994089719464129E-3    2.505246464932689E-3    4.002978101863398E-1    3.188520877669532E-1
 8.061880876000000E9     3.695528797712477E-1    4.420356086213219E-1   -2.155149311977073E-3    2.334577395484295E-3   -2.028623583185138E-3    2.467292109853259E-3    4.004973779523602E-1    3.186953256859216E-1
 8.061882273500000E9     3.695607910349698E-1    4.419889095294776E-1   -2.149657007256335E-3    2.351954572186097E-3   -2.001229748783694E-3    2.503959000518003E-3    4.003706867912661E-1    3.186965888056798E-1
 8.061883671000000E9     3.696049671406038E-1    4.418413745280459E-1   -2.130531873008013E-3    2.343710777916080E-3   -1.998746771828419E-3    2.510308572882643E-3    4.004678107839374E-1    3.185716960619669E-1
 8.061885068500000E9     3.697919537321879E-1    4.416689484048200E-1   -2.130110703651700E-3    2.363641352205308E-3   -1.986696691984983E-3    2.512492216526381E-3    4.005575581779096E-1    3.186280227415966E-1
 8.061886466000000E9     3.699489295615243E-1    4.416961437373896E-1   -2.124202761864674E-3    2.346307261598209E-3   -2.022582876257169E-3    2.569716262059474E-3    4.006777932528479E-1    3.183807272819239E-1
 8.061887863500000E9     3.699982702303145E-1    4.415848644428599E-1   -2.141711846890134E-3    2.353964269276653E-3   -2.037718705356312E-3    2.507290716494535E-3    4.008544583395239E-1    3.183821784083281E-1
 8.061889261000000E9     3.701552483129825E-1    4.415435946478286E-1   -2.133097936229838E-3    2.349162109256467E-3   -2.021965525387861E-3    2.523167765338278E-3    4.007091792210021E-1    3.183342709293897E-1
 8.061890658500000E9     3.701646961126985E-1    4.412998380035917E-1   -2.149737454593407E-3    2.402417037495042E-3   -2.030492631412068E-3    2.554364442451064E-3    4.007085301966901E-1    3.182378556133147E-1
 8.061892056000000E9     3.703776787491785E-1    4.412762304357128E-1   -2.157906838524658E-3    2.392988464960552E-3   -1.991236482345352E-3    2.561132639381841E-3    4.007595840702310E-1    3.181463424378627E-1
 8.061893453500000E9     3.704485187929689E-1    4.412628547770174E-1   -2.158908222122012E-3    2.376114963235117E-3   -2.052857936325355E-3    2.552899193068082E-3    4.009100176320161E-1    3.181235395246526E-1
 8.061894851000000E9     3.705518238215271E-1    4.410707726356303E-1   -2.173812764094541E-3    2.392771017299646E-3   -2.052160452199181E-3    2.559342145080750E-3    4.010301360454683E-1    3.179543054534851E-1
 8.061896248500000E9     3.706285908454686E-1    4.411697739009502E-1   -2.151839637756062E-3    2.406872831057327E-3   -1.988671575901256E-3    2.553433541725148E-3    4.009889791301895E-1    3.180571521215069E-1
 8.061897646000000E9     3.706832125488082E-1    4.409237720318067E-1   -2.132084859527625E-3    2.406228984821263E-3   -2.017822032035774E-3    2.513238155391830E-3    4.011077416410715E-1    3.178184089094681E-1
 8.061899043500000E9     3.708114092579926E-1    4.408891149288607E-1   -2.177837916417767E-3    2.394329819950441E-3   -2.019837733039831E-3    2.554608045495876E-3    4.009979305012535E-1    3.178042768442177E-1
 8.061900441000000E9     3.709602758334952E-1    4.407506650174190E-1   -2.175159003276113E-3    2.398150920599645E-3   -2.050960625915563E-3    2.562156941822681E-3    4.012397225673659E-1    3.177210149214481E-1
 8.061901838500000E9     3.709805415620402E-1    4.407769083809640E-1   -2.159131343702855E-3    2.420229033815540E-3   -2.066724091822614E-3    2.563363192963372E-3    4.011885800153780E-1    3.175721879893555E-1
 8.061903236000000E9     3.711666047013185E-1    4.406605859276866E-1   -2.173182900253524E-3    2.398523379542176E-3   -2.026394206623530E-3    2.555287141838190E-3    4.011641065330636E-1    3.175731999357413E-1
 8.061904633500000E9     3.712023778800589E-1    4.405799938238362E-1   -2.161334970406161E-3    2.435426075302009E-3   -2.095397912073002E-3    2.583504058738968E-3    4.012623993505627E-1    3.174707602994660E-1
 8.061906031000000E9     3.713146714315246E-1    4.404533853134339E-1   -2.183070393792643E-3    2.427541994205736E-3   -2.060297734119402E-3    2.602855442620879E-3    4.012365067528096E-1    3.175139767004247E-1
 8.061907428500000E9     3.713746922969256E-1    4.403267279606955E-1   -2.184317446025307E-3    2.441248364264476E-3   -2.064057407555039E-3    2.580688044328508E-3    4.013747251293414E-1    3.173276370826004E-1
 8.061908826000000E9     3.714590355580204E-1    4.403617261242241E-1   -2.173145543405103E-3    2.470473259454958E-3   -2.067812585292970E-3    2.573526498354374E-3    4.014617448309460E-1    3.172755737005943E-1
 8.061910223500000E9     3.716038975652198E-1    4.402936321113597E-1   -2.204986916764540E-3    2.458616758667979E-3   -2.082924931242933E-3    2.616314586570556E-3    4.015561464375524E-1    3.172767387894348E-1
 8.061911621000000E9     3.716540257154058E-1    4.401240860389964E-1   -2.194369392127486E-3    2.464105365197899E-3   -2.096412596788592E-3    2.639282114291059E-3    4.016024505862470E-1    3.172420111097575E-1
 8.061913018500000E9     3.716832339362226E-1    4.400205146298727E-1   -2.186599134793134E-3    2.456762441424164E-3   -2.044642260065586E-3    2.583372136276415E-3    4.016065529660042E-1    3.169845665734619E-1
 8.061914416000000E9     3.717392876912082E-1    4.398375567647975E-1   -2.178601338942887E-3    2.464190439342489E-3   -2.061439157658097E-3    2.654109893409841E-3    4.016791390450963E-1    3.170522912023799E-1
 8.061915813500000E9     3.719186409001494E-1    4.398376907769787E-1   -2.191354377851644E-3    2.498689363417388E-3   -2.049961360484678E-3    2.645610808354054E-3    4.018071944542042E-1    3.169908247673218E-1
 8.061917211000000E9     3.720926675985441E-1    4.397243290912574E-1   -2.212030884687879E-3    2.494279594471152E-3   -2.078701273245490E-3    2.629103880665829E-3    4.017550757192334E-1    3.169110984258429E-1
 8.061918608500000E9     3.722426387459516E-1    4.397708133563824E-1   -2.231557849634870E-3    2.511438194771866E-3   -2.070611771610667E-3    2.635778489250303E-3    4.018365635070223E-1    3.168663833719258E-1
 8.061920006000000E9     3.722299819718697E-1    4.396884837173664E-1   -2.211783319644174E-3    2.508455310052085E-3   -2.104943842647445E-3    2.647722250703614E-3    4.018614217591929E-1    3.167907877761643E-1
 8.061921403500000E9     3.722916651859334E-1    4.394880989676950E-1   -2.217974709085960E-3    2.499622514984914E-3   -2.113653993569344E-3    2.658221606770937E-3    4.019770978148374E-1    3.168449343924140E-1
 8.061922801000000E9     3.725148795040845E-1    4.394047168952847E-1   -2.232449338980495E-3    2.495416080879803E-3   -2.071002534736205E-3    2.651754629598455E-3    4.019788726397873E-1    3.166818831409872E-1
 8.061924198500000E9     3.725607183289327E-1    4.393354373867374E-1   -2.210965468951092E-3    2.519483604144198E-3   -2.053165691402924E-3    2.649263760895086E-3    4.021345682433467E-1    3.165183835431404E-1
 8.061925596000000E9     3.727096901067876E-1    4.392294145381858E-1   -2.225446715921477E-3    2.545367960437258E-3   -2.119627503171128E-3    2.696107179405249E-3    4.020279789841410E-1    3.164563915489735E-1
 8.061926993500000E9     3.727455155159489E-1    4.391240891095395E-1   -2.229905710558732E-3    2.525700463559682E-3   -2.083988951136255E-3    2.674187888372498E-3    4.020983498695764E-1    3.162954611927491E-1
 8.061928391000000E9     3.728765825839842E-1    4.390690141426734E-1   -2.244287645082142E-3    2.558331673166935E-3   -2.052466686890343E-3    2.709925026219041E-3    4.020854557307061E-1    3.163754181562732E-1
 8.061929788500000E9     3.730028007500477E-1    4.390349437094702E-1   -2.210943533856869E-3    2.570308276433378E-3   -2.089285444201314E-3    2.696251699932772E-3    4.022171426700650E-1    3.162892441596305E-1
 8.061931186000000E9     3.729754590101708E-1    4.388103247394023E-1   -2.251018726416702E-3    2.534144665526851E-3   -2.124698353291011E-3    2.694404933022742E-3    4.022532681292433E-1    3.162507272811219E-1
 8.061932583500000E9     3.731062014067950E-1    4.388050516378202E-1   -2.250254997968799E-3    2.549114750137014E-3   -2.108265405799203E-3    2.714917754729628E-3    4.022575819225149E-1    3.160885847269356E-1
 8.061933981000000E9     3.733186424370012E-1    4.386796307496825E-1   -2.283366520377226E-3    2.584881940236569E-3   -2.079283532418512E-3    2.690176151754308E-3    4.024797732805943E-1    3.159630774751762E-1
 8.061935378500000E9     3.732874903931434E-1    4.385900823373796E-1   -2.274027087868506E-3    2.559259220498702E-3   -2.093512027869194E-3    2.704823700557496E-3    4.024489381185419E-1    3.159723672165383E-1
 8.061936776000000E9     3.734221633067098E-1    4.384791476516837E-1   -2.265374501554586E-3    2.579293931174571E-3   -2.121707187027374E-3    2.738553881279526E-3    4.024941047718463E-1    3.158861039745735E-1
 8.061938173500000E9     3.734823381453143E-1    4.384362274185781E-1   -2.251860562003982E-3    2.588926465420185E-3   -2.101331773821171E-3    2.714344627983941E-3    4.024349130763977E-1    3.158699115657007E-1
 8.061939571000000E9     3.736479952267057E-1    4.382338252094864E-1   -2.259639155132138E-3    2.602119600903349E-3   -2.123761728519784E-3    2.744153003816716E-3    4.025605689389944E-1    3.157889483905452E-1
 8.061940968500000E9     3.737231439550891E-1    4.380733959734288E-1   -2.246826730042001E-3    2.601962325469917E-3   -2.121072234431185E-3    2.749546001056735E-3    4.025738963823356E-1    3.157175724769649E-1
 8.061942366000000E9     3.739589222963978E-1    4.381509186786067E-1   -2.249765885555254E-3    2.608977072500541E-3   -2.114944203870559E-3    2.744224631621011E-3    4.026153006663193E-1    3.156624130834349E-1
 8.061943763500000E9     3.739240057640196E-1    4.381045168127123E-1   -2.276264575765041E-3    2.614603300869751E-3   -2.130092291465748E-3    2.782611750005868E-3    4.027407776345870E-1    3.154745372392216E-1
 8.061945161000000E9     3.741072808197992E-1    4.380445468821583E-1   -2.283730121780716E-3    2.614650952083686E-3   -2.130416104613955E-3    2.766971333299855E-3    4.027698653615236E-1    3.154555662726262E-1
 8.061946558500000E9     3.742237975981637E-1    4.377462764752666E-1   -2.271731285676762E-3    2.619982726403427E-3   -2.149751728625281E-3    2.803725853604850E-3    4.028744075848844E-1    3.154043855712932E-1
 8.061947956000000E9     3.742824186516941E-1    4.378098935379210E-1   -2.286404586928217E-3    2.623342225255886E-3   -2.162112211528948E-3    2.794530957779003E-3    4.029118167743464E-1    3.152146982259261E-1
 8.061949353500000E9     3.743424455118418E-1    4.376746916975569E-1   -2.300214015082185E-3    2.663637608154118E-3   -2.136066680370161E-3    2.784803856288951E-3    4.029589446868692E-1    3.153109812529895E-1
 8.061950751000000E9     3.744997034085280E-1    4.374957007736310E-1   -2.295519420213923E-3    2.657618324282088E-3   -2.157075645316563E-3    2.821522583482068E-3    4.028938910720333E-1    3.152129755492558E-1
 8.061952148500000E9     3.744892461665178E-1    4.374121614565647E-1   -2.285700554955048E-3    2.683703165901907E-3   -2.151831786712722E-3    2.840044618757932E-3    4.031065597887790E-1    3.150425611315590E-1
 8.061953546000000E9     3.747402292110901E-1    4.374198581316402E-1   -2.296779852126068E-3    2.674469570031970E-3   -2.135381528736058E-3    2.853820278052177E-3    4.031305360378103E-1    3.150406360464497E-1
 8.061954943500000E9     3.748264054568284E-1    4.371578675345548E-1   -2.308577298418147E-3    2.674561108864110E-3   -2.137980548870230E-3    2.833803912557315E-3    4.030755253289418E-1    3.149349993858034E-1
 8.061956341000000E9     3.749752884469172E-1    4.371863172002098E-1   -2.300076327893198E-3    2.683793113658461E-3   -2.191548411783225E-3    2.799816339173247E-3    4.032351721094018E-1    3.148348128138925E-1
 8.061957738500000E9     3.750168787939230E-1    4.371050552006162E-1   -2.315567752924698E-3    2.696644817120548E-3   -2.167020008286486E-3    2.849094789303845E-3    4.034424725848226E-1    3.148174941193356E-1
 8.061959136000000E9     3.750924731520935E-1    4.369483901855349E-1   -2.310590413319366E-3    2.698974823535775E-3   -2.210637768818421E-3    2.878589693543659E-3    4.034659930928921E-1    3.147825257575955E-1
 8.061960533500000E9     3.751709994783563E-1    4.369724240871701E-1   -2.324058308328808E-3    2.736407002976776E-3   -2.167336095602443E-3    2.886975555289517E-3    4.034211496191486E-1    3.147586263531566E-1
 8.061961931000000E9     3.752814198077681E-1    4.367024584761702E-1   -2.321522539581154E-3    2.722356358147490E-3   -2.172917139002267E-3    2.903245227061003E-3    4.034922669139651E-1    3.145696138951206E-1
 8.061963328500000E9     3.754264222847759E-1    4.365632552668849E-1   -2.317945065656796E-3    2.757037173279008E-3   -2.178704395598158E-3    2.886641707745057E-3    4.035466772806048E-1    3.145683296933429E-1
 8.061964726000000E9     3.755444840752245E-1    4.365784627022423E-1   -2.330082617952108E-3    2.756596016497328E-3   -2.185328202260099E-3    2.913929194772109E-3    4.034424809795975E-1    3.145752709271464E-1
 8.061966123500000E9     3.756360707239302E-1    4.363532534595719E-1   -2.353005414742318E-3    2.768002014647900E-3   -2.189816480538682E-3    2.946075152147857E-3    4.035269732686134E-1    3.145238290095873E-1
 8.061967521000000E9     3.757034577169370E-1    4.362516945798970E-1   -2.352336472174702E-3    2.756463951713709E-3   -2.193500687750395E-3    2.910236933581828E-3    4.036549747026135E-1    3.143203031448903E-1
 8.061968918500000E9     3.757936349325449E-1    4.363632743272506E-1   -2.356187223875532E-3    2.769809007798005E-3   -2.218040363507552E-3    2.905185703000952E-3    4.036413280172718E-1    3.143062867158172E-1
 8.061970316000000E9     3.759266906978478E-1    4.360932366724199E-1   -2.363011385761949E-3    2.783871267436200E-3   -2.219929765706519E-3    2.943691896300802E-3    4.037050478384848E-1    3.140778899430807E-1
 8.061971713500000E9     3.760710485894858E-1    4.360358441709455E-1   -2.366939509102062E-3    2.787287308854049E-3   -2.198164773959213E-3    2.960530544751353E-3    4.038528038894968E-1    3.141055247748770E-1
 8.061973111000000E9     3.760468558706366E-1    4.359689972010309E-1   -2.373606208924170E-3    2.766847725914228E-3   -2.222016404082140E-3    2.949961016099853E-3    4.038458879581669E-1    3.140488760370064E-1
 8.061974508500000E9     3.762090188538719E-1    4.357997356935024E-1   -2.380545890077888E-3    2.799577118294198E-3   -2.191578512419345E-3    2.994178675143530E-3    4.039776695154728E-1    3.139951931943177E-1
 8.061975906000000E9     3.761561368745563E-1    4.357757446026415E-1   -2.354570808383832E-3    2.824324092419756E-3   -2.242470909093015E-3    2.987451931258880E-3    4.039914625268568E-1    3.139553620423858E-1
 8.061977303500000E9     3.763671684007489E-1    4.356310852680917E-1   -2.359191690992519E-3    2.838141413478352E-3   -2.243730897051001E-3    2.999533839220424E-3    4.038797619394396E-1    3.137144481076529E-1
 8.061978701000000E9     3.764939332204341E-1    4.354970628738684E-1   -2.398338303888642E-3    2.860371364486103E-3   -2.259734830691859E-3    3.047521438117347E-3    4.040255071634416E-1    3.136822348167310E-1
 8.061980098500000E9     3.765917728205088E-1    4.354666135746112E-1   -2.399618600776088E-3    2.873553720738357E-3   -2.243381770806443E-3    3.067864451401055E-3    4.041077750857611E-1    3.136915132543703E-1
 8.061981496000000E9     3.767315283006280E-1    4.352711843360948E-1   -2.408911098133569E-3    2.878663092691718E-3   -2.249881579012353E-3    3.059403563376868E-3    4.042769667764937E-1    3.136456703070018E-1
 8.061982893500000E9     3.767799436399670E-1    4.352003285399859E-1   -2.392733301718411E-3    2.881449971975464E-3   -2.266029630649806E-3    3.027061494334407E-3    4.042225757405826E-1    3.136795069258071E-1
 8.061984291000000E9     3.770705927320993E-1    4.350122264505543E-1   -2.413279769959823E-3    2.894950961861934E-3   -2.268336724243865E-3    3.074114895376696E-3    4.042229136529983E-1    3.135446975853762E-1
 8.061985688500000E9     3.771337007311948E-1    4.349100161804204E-1   -2.435292593174535E-3    2.913000299594644E-3   -2.267395003127830E-3    3.069261591998567E-3    4.042940060962174E-1    3.133973234635284E-1
 8.061987086000000E9     3.772136523141849E-1    4.348729623245345E-1   -2.412687893386314E-3    2.898427456320016E-3   -2.258495221628774E-3    3.076674915567229E-3    4.043461189312502E-1    3.134065113223943E-1
 8.061988483500000E9     3.772098557551196E-1    4.347729576361306E-1   -2.411460411815893E-3    2.920623626652744E-3   -2.257098403120201E-3    3.107938336477154E-3    4.043639620940707E-1    3.132516942490931E-1
 8.061989881000000E9     3.774125941367034E-1    4.346170518984552E-1   -2.426978355410215E-3    2.948874540696385E-3   -2.302838826111090E-3    3.117956779478074E-3    4.044713957961443E-1    3.131621309597765E-1
 8.061991278500000E9     3.775159858206105E-1    4.345437137891840E-1   -2.440769477886100E-3    2.970060740022546E-3   -2.279027541876805E-3    3.105948278602877E-3    4.044887854824040E-1    3.131803782449366E-1
 8.061992676000000E9     3.776272372047213E-1    4.343716328526453E-1   -2.434908893402183E-3    2.996338213600799E-3   -2.301179490677728E-3    3.119283330555007E-3    4.045440982642676E-1    3.131395194863144E-1
 8.061994073500000E9     3.777610474278779E-1    4.342424005989278E-1   -2.450453236281313E-3    2.942432684873680E-3   -2.281149018566889E-3    3.140404543424619E-3    4.046544518078830E-1    3.129585436828249E-1
 8.061995471000000E9     3.778239342585422E-1    4.341421214307299E-1   -2.444119467005301E-3    2.998198170496038E-3   -2.292358748632178E-3    3.142840486402517E-3    4.047878686963727E-1    3.127326975938551E-1
 8.061996868500000E9     3.780783310774292E-1    4.338772086621728E-1   -2.449672808670132E-3    3.009641307866677E-3   -2.274410664649259E-3    3.164897229365578E-3    4.047139825387124E-1    3.127678738905887E-1
 8.061998266000000E9     3.780764782261160E-1    4.338837764013020E-1   -2.450406401561876E-3    3.014685387144715E-3   -2.319193084011303E-3    3.199939012776026E-3    4.047204985005217E-1    3.127763431972709E-1
 8.061999663500000E9     3.780986944181177E-1    4.337393364375939E-1   -2.474298110718881E-3    3.028410368594350E-3   -2.327934437798934E-3    3.194834959316712E-3    4.049137140504729E-1    3.127510522562220E-1
 8.062001061000000E9     3.782590504791765E-1    4.336495290472620E-1   -2.472186655748041E-3    3.063051160266321E-3   -2.316168028064568E-3    3.236201331005243E-3    4.049774624118846E-1    3.127133302312800E-1
 8.062002458500000E9     3.784689316669910E-1    4.333833595351457E-1   -2.467447548629547E-3    3.077257001694169E-3   -2.345445217225391E-3    3.270413524814241E-3    4.049272682833358E-1    3.125883296089948E-1
 8.062003856000000E9     3.786020611899215E-1    4.333880452966128E-1   -2.507871924005236E-3    3.083044756169039E-3   -2.299142198297715E-3    3.270806461856932E-3    4.050248076651384E-1    3.124200389944560E-1
