#  HZ   S   RI   R     50.00 
! Rohde & Schwarz Vector Network Analyzer 
! Rohde-Schwarz,ZNB20-2Port,1311601062101988,3.16
! Created: UTC 3/20/2024, 11:12:14 PM
! freq[Hz]                re:S11                  im:S11                  re:S21                  im:S21                  re:S12                  im:S12                  re:S22                  im:S22
 8.061902248000000E9     3.707292094748866E-1    4.409309841458749E-1   -2.146070419169552E-3    2.366044432183717E-3   -2.011836236649703E-3    2.506120381988519E-3    3.998609098316809E-1    3.171203694056036E-1
 8.061903575125000E9     3.709144129984472E-1    4.409186917340426E-1   -2.157976179806492E-3    2.394079073304258E-3   -1.999110618569776E-3    2.566634289928332E-3    4.000246144371324E-1    3.168454736257842E-1
 8.061904902250000E9     3.709711825299403E-1    4.407364578832749E-1   -2.172781609800593E-3    2.403795012057675E-3   -2.061448120240589E-3    2.534226174479197E-3    3.999454965305360E-1    3.169042564560238E-1
 8.061906229375000E9     3.712162196952120E-1    4.407475709261665E-1   -2.158857780206897E-3    2.441323226632024E-3   -2.027687213590236E-3    2.543956643564448E-3    3.999686110722846E-1    3.168732501688798E-1
 8.061907556500000E9     3.711003636402566E-1    4.404895780543185E-1   -2.166355968235356E-3    2.397712177801497E-3   -2.038821386127399E-3    2.536560772030988E-3    4.000931652565972E-1    3.168525646066218E-1
 8.061908883625000E9     3.713039050499550E-1    4.405619590096583E-1   -2.153375853232037E-3    2.421071386540998E-3   -2.024070485367131E-3    2.551249728258237E-3    4.001512420780043E-1    3.167301909901926E-1
 8.061910210750000E9     3.714630324828914E-1    4.403990974811597E-1   -2.149690394810669E-3    2.403364631168874E-3   -2.065027442195089E-3    2.586567694432072E-3    4.001658152082523E-1    3.166365192048094E-1
 8.061911537875000E9     3.714522560132930E-1    4.402927354390129E-1   -2.166276133504542E-3    2.412227936949657E-3   -2.005484154709542E-3    2.547509493933195E-3    4.002336053896391E-1    3.166704270447778E-1
 8.061912865000000E9     3.715812276134574E-1    4.402982463808039E-1   -2.158815277260904E-3    2.411206011173644E-3   -2.045081634795736E-3    2.617133014850131E-3    4.002552919667358E-1    3.164166993075881E-1
 8.061914192125000E9     3.716829254155835E-1    4.400757664957461E-1   -2.148834239468796E-3    2.419133651886709E-3   -2.035039269069294E-3    2.587308285275125E-3    4.003824117772277E-1    3.163030284817115E-1
 8.061915519250000E9     3.717319394104417E-1    4.401007556020040E-1   -2.166248230487406E-3    2.431421931206479E-3   -2.002805351731345E-3    2.583382862423275E-3    4.004857992673799E-1    3.163574229260687E-1
 8.061916846375000E9     3.718515941491234E-1    4.399700269031478E-1   -2.180395110516247E-3    2.428338952787505E-3   -2.036237813221705E-3    2.583754221792583E-3    4.004032247787050E-1    3.163857211119011E-1
 8.061918173500000E9     3.720791757064084E-1    4.399079274040642E-1   -2.168550128000125E-3    2.445390953116495E-3   -2.040570371768027E-3    2.584935916318097E-3    4.004324197356790E-1    3.162755148674107E-1
 8.061919500625000E9     3.720795221518343E-1    4.397679892284953E-1   -2.182818265087235E-3    2.450294525549518E-3   -2.044612366478037E-3    2.591249607556874E-3    4.004246267371895E-1    3.163201219691891E-1
 8.061920827750000E9     3.721011179183298E-1    4.397935270619957E-1   -2.199581484163808E-3    2.479046804613517E-3   -2.092313680452567E-3    2.627660171163627E-3    4.006742508218156E-1    3.160565301473638E-1
 8.061922154875000E9     3.722342434583600E-1    4.396431138475852E-1   -2.219282904802765E-3    2.462769306679941E-3   -2.070778735974461E-3    2.630786338735405E-3    4.005468902566330E-1    3.159991189489031E-1
 8.061923482000000E9     3.723906744387824E-1    4.395942224985723E-1   -2.216545909450285E-3    2.474332520684853E-3   -2.069342841843443E-3    2.625987162742235E-3    4.006827140894429E-1    3.160590847926448E-1
 8.061924809125000E9     3.724702711830563E-1    4.395957300386300E-1   -2.193461296060104E-3    2.481663917977606E-3   -2.090120935075030E-3    2.646725314299724E-3    4.007058427372116E-1    3.159019781584173E-1
 8.061926136250000E9     3.726639798173967E-1    4.392975228892489E-1   -2.216978859544508E-3    2.476035101991810E-3   -2.055102872214047E-3    2.633033303501936E-3    4.006751259078340E-1    3.158542407986356E-1
 8.061927463375000E9     3.725258206101383E-1    4.392174443003186E-1   -2.222865770587425E-3    2.501317169042144E-3   -2.087365743485901E-3    2.641501653511348E-3    4.008830079645915E-1    3.159231549797911E-1
 8.061928790500000E9     3.727286810725899E-1    4.391581259496896E-1   -2.201128171913696E-3    2.497817516470622E-3   -2.057275694919250E-3    2.637415658419209E-3    4.008841446419530E-1    3.158503438205472E-1
 8.061930117625000E9     3.728579730134471E-1    4.390654238550289E-1   -2.197905433003051E-3    2.474733404340181E-3   -2.050549846349435E-3    2.629451217565666E-3    4.008380220131740E-1    3.156883651691310E-1
 8.061931444750000E9     3.729195797850770E-1    4.390351007096058E-1   -2.215502253034531E-3    2.496117902656619E-3   -2.072504389456727E-3    2.634926788591405E-3    4.009197224897111E-1    3.155921483622974E-1
 8.061932771875000E9     3.730707433216388E-1    4.389218696845321E-1   -2.191000169321229E-3    2.547072653706188E-3   -2.074187490020031E-3    2.695335171551708E-3    4.011088829106589E-1    3.155754187062659E-1
 8.061934099000000E9     3.730683258568798E-1    4.389497329255325E-1   -2.230721478968256E-3    2.502928229603233E-3   -2.075282244531128E-3    2.679206677133855E-3    4.012476209632167E-1    3.155220256579033E-1
 8.061935426125000E9     3.731895435050518E-1    4.388178953631041E-1   -2.231276467534114E-3    2.505573905680584E-3   -2.074317693969404E-3    2.646981539798572E-3    4.011450719215520E-1    3.155214427033302E-1
 8.061936753250000E9     3.733382151407295E-1    4.387089130336235E-1   -2.231021917614460E-3    2.538270006978063E-3   -2.093804110614412E-3    2.685989096893158E-3    4.010568619096223E-1    3.152984717114031E-1
 8.061938080375000E9     3.734507425430879E-1    4.384864507156910E-1   -2.227651815606298E-3    2.560951781978514E-3   -2.130511904264595E-3    2.705147490285740E-3    4.012374678994653E-1    3.153093105930465E-1
 8.061939407500000E9     3.734711915699087E-1    4.385785600338382E-1   -2.223699436968767E-3    2.560862043787614E-3   -2.111827074299845E-3    2.700400274687250E-3    4.011547529706268E-1    3.152279144053879E-1
 8.061940734625000E9     3.735438138871507E-1    4.384307517511685E-1   -2.251635264896293E-3    2.540247516508811E-3   -2.112367555337011E-3    2.692951400718659E-3    4.014423573285931E-1    3.152882324665423E-1
 8.061942061750000E9     3.736983002793610E-1    4.383176999528512E-1   -2.261718692852866E-3    2.537969836047255E-3   -2.103440051046349E-3    2.695732577880655E-3    4.013134738691127E-1    3.150573425970161E-1
 8.061943388875000E9     3.737950680674768E-1    4.382915894903987E-1   -2.237243095835301E-3    2.558206207263244E-3   -2.135702919065141E-3    2.716474729387729E-3    4.014678647389688E-1    3.149644619240065E-1
 8.061944716000000E9     3.737279933764820E-1    4.381277041485716E-1   -2.262963493698590E-3    2.572407715846182E-3   -2.115903053516701E-3    2.732231518081480E-3    4.014792214583703E-1    3.148833358142752E-1
 8.061946043125000E9     3.740481714971452E-1    4.380616340731437E-1   -2.254551944263563E-3    2.580426330177212E-3   -2.131903240031592E-3    2.684322711634557E-3    4.013816863299656E-1    3.149182883473745E-1
 8.061947370250000E9     3.739829960683037E-1    4.379742782634528E-1   -2.251911558173164E-3    2.599353506484247E-3   -2.108173513542115E-3    2.722305862152723E-3    4.016598363398003E-1    3.147775236340474E-1
 8.061948697375000E9     3.741256400841252E-1    4.378578951555223E-1   -2.265269455148049E-3    2.593066922638104E-3   -2.090147806337100E-3    2.758922350829997E-3    4.017054108130683E-1    3.148176769953076E-1
 8.061950024500000E9     3.741242938388553E-1    4.376936657017234E-1   -2.256640297868786E-3    2.610917738619693E-3   -2.127288053605061E-3    2.769201887220710E-3    4.016477854391071E-1    3.148099762410385E-1
 8.061951351625000E9     3.743003121698332E-1    4.377140276066454E-1   -2.259125946724708E-3    2.615848108163933E-3   -2.117215850710376E-3    2.746727786470339E-3    4.016711298679722E-1    3.145743158397897E-1
 8.061952678750000E9     3.744275905947414E-1    4.375868057969081E-1   -2.279954668449061E-3    2.600112718095666E-3   -2.117776642200278E-3    2.791969265073534E-3    4.018981186830483E-1    3.144612790331620E-1
 8.061954005875000E9     3.744449227470537E-1    4.375950476099484E-1   -2.284017334208596E-3    2.616873247116661E-3   -2.162192594622748E-3    2.758949017662562E-3    4.018819949377000E-1    3.145643947719503E-1
 8.061955333000000E9     3.745629404102565E-1    4.374227447009063E-1   -2.272384444229476E-3    2.618024934049192E-3   -2.131734475648905E-3    2.793786343632516E-3    4.018745121829091E-1    3.143232023102043E-1
 8.061956660125000E9     3.746674826746675E-1    4.372937254085802E-1   -2.274558269363520E-3    2.646778959614689E-3   -2.127523491911941E-3    2.786824873931303E-3    4.018447831942483E-1    3.143195824505947E-1
 8.061957987250000E9     3.748422344008965E-1    4.372637427819684E-1   -2.286410581274622E-3    2.668172462043139E-3   -2.125183389635080E-3    2.825971663708915E-3    4.020057445182755E-1    3.142643465860567E-1
 8.061959314375000E9     3.747771289106331E-1    4.371992717742257E-1   -2.280259041301871E-3    2.642189399909402E-3   -2.115152962029090E-3    2.765213796515098E-3    4.018332458730082E-1    3.142993462276627E-1
 8.061960641500000E9     3.750997842225677E-1    4.371507680921927E-1   -2.308069294923403E-3    2.655167043665736E-3   -2.159443822385545E-3    2.803262316758888E-3    4.021093748520341E-1    3.140663481032402E-1
 8.061961968625000E9     3.750197266174395E-1    4.369448402287628E-1   -2.277428157592745E-3    2.669951673231123E-3   -2.158257658740626E-3    2.826706487446102E-3    4.021319502700871E-1    3.140693003977112E-1
 8.061963295750000E9     3.750812330884803E-1    4.368436848758769E-1   -2.285947296699765E-3    2.675390303883317E-3   -2.145733244540291E-3    2.841207635113092E-3    4.021841814258387E-1    3.139811244817233E-1
 8.061964622875000E9     3.752021927605698E-1    4.367780360461819E-1   -2.310145454396892E-3    2.677902908717639E-3   -2.158863756982213E-3    2.865667129206933E-3    4.021017448966860E-1    3.139576351435983E-1
 8.061965950000000E9     3.753271007381937E-1    4.367749735767089E-1   -2.308645791834159E-3    2.693904480534984E-3   -2.182945042624838E-3    2.829470065157293E-3    4.021328313594731E-1    3.138724726997333E-1
 8.061967277125000E9     3.755275762998960E-1    4.366125803114742E-1   -2.335165003635725E-3    2.707569464987769E-3   -2.157083519243919E-3    2.885577809021178E-3    4.023138474159109E-1    3.137617008618289E-1
 8.061968604250000E9     3.754762498212371E-1    4.366319278419837E-1   -2.311130607225122E-3    2.676265556157155E-3   -2.185401462507333E-3    2.874421659037120E-3    4.023258394625903E-1    3.137677787252191E-1
 8.061969931375000E9     3.756823187968444E-1    4.364136527531889E-1   -2.342847548311900E-3    2.714550004949366E-3   -2.193267568258691E-3    2.890604557579393E-3    4.023489594700370E-1    3.136866645730544E-1
 8.061971258500000E9     3.758332945103700E-1    4.362135409769028E-1   -2.331049750602923E-3    2.724975209953657E-3   -2.205503966274211E-3    2.857777561797812E-3    4.024278250203770E-1    3.134996003970726E-1
 8.061972585625000E9     3.759486984596602E-1    4.362733760084458E-1   -2.316701962701146E-3    2.713976528728135E-3   -2.168979731964307E-3    2.891835100323745E-3    4.025180870823966E-1    3.135925943462815E-1
 8.061973912750000E9     3.759468643345660E-1    4.361906829401785E-1   -2.341981523720112E-3    2.711945480022675E-3   -2.172770353426285E-3    2.924910703420030E-3    4.025945323318036E-1    3.134375772661812E-1
 8.061975239875000E9     3.759993872220327E-1    4.361071887518342E-1   -2.356840152216592E-3    2.746256080825086E-3   -2.173310027097944E-3    2.927392997091723E-3    4.026420491837958E-1    3.133880498527606E-1
 8.061976567000000E9     3.761510480925797E-1    4.359324695373109E-1   -2.331568273161918E-3    2.776992342887132E-3   -2.206705965072350E-3    2.911004846910301E-3    4.026077643980283E-1    3.132486600447726E-1
 8.061977894125000E9     3.763329263713147E-1    4.357768761344907E-1   -2.356504754874485E-3    2.772167863684515E-3   -2.199934285604680E-3    2.944510461238896E-3    4.025042498501248E-1    3.131474057010125E-1
 8.061979221250000E9     3.762958620278055E-1    4.358094245190994E-1   -2.360434238280106E-3    2.795972926632251E-3   -2.184294432964393E-3    2.937375429697629E-3    4.028365978788253E-1    3.133020570734660E-1
 8.061980548375000E9     3.764162212173738E-1    4.358141536595220E-1   -2.349834300625522E-3    2.796098336395323E-3   -2.216886962958580E-3    2.935849319067364E-3    4.027245692696369E-1    3.129893298666804E-1
 8.061981875500000E9     3.766366206619053E-1    4.356032162280057E-1   -2.381862441944065E-3    2.807408810615108E-3   -2.178377066065167E-3    2.974544128848622E-3    4.027418577715389E-1    3.130551987833219E-1
 8.061983202625000E9     3.766166596482161E-1    4.353570775250837E-1   -2.363020347634034E-3    2.814766993855500E-3   -2.221016453320499E-3    2.962163080524932E-3    4.028608262032885E-1    3.129958959163650E-1
 8.061984529750000E9     3.768389600932772E-1    4.353273390576139E-1   -2.359970077865294E-3    2.816387534893742E-3   -2.226634650424466E-3    2.987278840681677E-3    4.029672087779365E-1    3.129560078465197E-1
 8.061985856875000E9     3.769163905602023E-1    4.351846480779521E-1   -2.378376093063012E-3    2.835499573150115E-3   -2.210520943376720E-3    2.998827713491088E-3    4.029592972545561E-1    3.128286912872005E-1
 8.061987184000000E9     3.769121834329980E-1    4.351300256706683E-1   -2.409456310815291E-3    2.831395347352193E-3   -2.228116419290627E-3    2.998037676594741E-3    4.030947010118140E-1    3.128016911425801E-1
 8.061988511125000E9     3.771213775001409E-1    4.350132029523088E-1   -2.402212847320560E-3    2.826326454150110E-3   -2.198901400046544E-3    3.029462051801471E-3    4.031695095741190E-1    3.126983218789975E-1
 8.061989838250000E9     3.772419930937094E-1    4.349181499922295E-1   -2.389458142148528E-3    2.880593741867540E-3   -2.245104586892928E-3    3.025290552544042E-3    4.031720428213182E-1    3.126413179045754E-1
 8.061991165375000E9     3.773222480142187E-1    4.348801707005880E-1   -2.397034711511715E-3    2.879999399206725E-3   -2.234228776481076E-3    3.025097691838258E-3    4.032461497545470E-1    3.125597137363127E-1
 8.061992492500000E9     3.774833744502671E-1    4.347222868053956E-1   -2.393355934838781E-3    2.888039595730280E-3   -2.252136140363698E-3    3.087761265639126E-3    4.031615027914185E-1    3.124897290988676E-1
 8.061993819625000E9     3.775239018465545E-1    4.346086805476598E-1   -2.422183881185808E-3    2.897529859172989E-3   -2.259102633264979E-3    3.092046051855429E-3    4.033337863070858E-1    3.123390094146764E-1
 8.061995146750000E9     3.776258220278040E-1    4.345734106366114E-1   -2.414414844140690E-3    2.895432569003646E-3   -2.251475028132721E-3    3.097518984664817E-3    4.033104304320361E-1    3.125219037576913E-1
 8.061996473875000E9     3.777644105744208E-1    4.344052918421780E-1   -2.410643634067521E-3    2.905320354007085E-3   -2.278364735243599E-3    3.103524277539099E-3    4.034397399762137E-1    3.122572452804270E-1
 8.061997801000000E9     3.777945662669617E-1    4.343351747153622E-1   -2.422719164418294E-3    2.943485402992926E-3   -2.264427720305193E-3    3.111795929304454E-3    4.034611555178463E-1    3.122849150414469E-1
 8.061999128125000E9     3.779202133576102E-1    4.342293692434975E-1   -2.458150089240110E-3    2.910884250779183E-3   -2.273017381923574E-3    3.099931423231134E-3    4.035536872909687E-1    3.121023190739077E-1
 8.062000455250000E9     3.780569130324965E-1    4.341605554586477E-1   -2.427358478649214E-3    2.962117784829091E-3   -2.266711316380745E-3    3.099605795010992E-3    4.035058107792315E-1    3.121277691334376E-1
 8.062001782375000E9     3.781418622639099E-1    4.339118904519010E-1   -2.450649600044037E-3    2.951847573503203E-3   -2.275214922787679E-3    3.128737495922948E-3    4.035415538789613E-1    3.118739227234578E-1
 8.062003109500000E9     3.782841451727437E-1    4.339172950591125E-1   -2.457307215323872E-3    3.001623479579615E-3   -2.272075670012339E-3    3.136061301154750E-3    4.036145864390644E-1    3.120448017040757E-1
 8.062004436625000E9     3.783096384359711E-1    4.336722585198587E-1   -2.431206078306553E-3    2.957181787156803E-3   -2.290665135212326E-3    3.156117703751020E-3    4.036798019530553E-1    3.119129251082930E-1
 8.062005763750000E9     3.784899634760198E-1    4.336293230568492E-1   -2.488010421912001E-3    3.004433335235544E-3   -2.311926074289971E-3    3.157156683967445E-3    4.035766966343605E-1    3.119898095082259E-1
 8.062007090875000E9     3.786169414744303E-1    4.333491820265110E-1   -2.476175330005036E-3    3.000637078386941E-3   -2.312315449810948E-3    3.201792056370363E-3    4.040004661899970E-1    3.117347097596714E-1
 8.062008418000000E9     3.787528409600145E-1    4.334343547722996E-1   -2.466203198115018E-3    3.004831891285124E-3   -2.274080670651287E-3    3.197208762937852E-3    4.036882444519905E-1    3.115553905744363E-1
 8.062009745125000E9     3.789335683803678E-1    4.332968313790493E-1   -2.471500887884538E-3    3.036160855046513E-3   -2.309598393458991E-3    3.222888603568199E-3    4.038813974811946E-1    3.114971049850862E-1
 8.062011072250000E9     3.788425949624096E-1    4.331812359641813E-1   -2.472366956356901E-3    3.054579582910053E-3   -2.318721894007420E-3    3.207589758700169E-3    4.039580139041723E-1    3.115708847776202E-1
 8.062012399375000E9     3.789994258660882E-1    4.330239461098955E-1   -2.472260405906908E-3    3.080293448936085E-3   -2.348215330437223E-3    3.217776789922012E-3    4.039165042775616E-1    3.114599407499950E-1
 8.062013726500000E9     3.792231276860123E-1    4.328846504687676E-1   -2.472074524166723E-3    3.072546877066441E-3   -2.330514920975567E-3    3.228862172750024E-3    4.040739815885339E-1    3.114405922458207E-1
 8.062015053625000E9     3.792883514604371E-1    4.327511481361664E-1   -2.496870141961848E-3    3.126412647982608E-3   -2.351181832788803E-3    3.274331968170619E-3    4.040411732185242E-1    3.113671529873764E-1
 8.062016380750000E9     3.792135388993569E-1    4.327227082893262E-1   -2.496894109619220E-3    3.122075147161319E-3   -2.348898805170736E-3    3.276293101709714E-3    4.041596887596235E-1    3.113705349656768E-1
 8.062017707875000E9     3.794340097604774E-1    4.326448570438240E-1   -2.522421024477446E-3    3.128280265624500E-3   -2.305436785272248E-3    3.304294050392476E-3    4.042497325494922E-1    3.112849841116758E-1
 8.062019035000000E9     3.794863303195297E-1    4.324116332615039E-1   -2.520878644437101E-3    3.157359600633694E-3   -2.355200615150582E-3    3.307797190505155E-3    4.041916323188960E-1    3.112518711711804E-1
 8.062020362125000E9     3.795870727768516E-1    4.323126926582035E-1   -2.531928859432490E-3    3.147368369562491E-3   -2.369493795026010E-3    3.360327467951705E-3    4.043715097214575E-1    3.111270787110680E-1
 8.062021689250000E9     3.797865645071108E-1    4.321615408700368E-1   -2.535941962968804E-3    3.172569454644600E-3   -2.359293086789355E-3    3.369220225060027E-3    4.043496781447333E-1    3.111275593861041E-1
