#  HZ   S   RI   R     50.00 
! Rohde & Schwarz Vector Network Analyzer 
! Rohde-Schwarz,ZNB20-2Port,1311601062101988,3.16
! Created: UTC 3/20/2024, 11:14:15 PM
! freq[Hz]                re:S11                  im:S11                  re:S21                  im:S21                  re:S12                  im:S12                  re:S22                  im:S22
 8.061952633000000E9     3.738870590697699E-1    4.382794034435030E-1   -2.219565270447059E-3    2.497008743737277E-3   -2.077405472817886E-3    2.645691414464898E-3    4.021686967386302E-1    3.142500185596210E-1
 8.061953829850000E9     3.739852968813992E-1    4.380857276329151E-1   -2.204938827680122E-3    2.481255871765333E-3   -2.079251567823743E-3    2.666350943336330E-3    4.022742353174936E-1    3.141045780061923E-1
 8.061955026700000E9     3.740963956215964E-1    4.380375735443571E-1   -2.219884359940457E-3    2.493676004854508E-3   -2.101148679722333E-3    2.656596301990016E-3    4.023673931259162E-1    3.140177663596339E-1
 8.061956223550000E9     3.741592652825696E-1    4.379696817534965E-1   -2.232206551571580E-3    2.543735264534545E-3   -2.104981755324286E-3    2.674698503417836E-3    4.023175195415531E-1    3.139991475877728E-1
 8.061957420400000E9     3.743240858653988E-1    4.378743416818873E-1   -2.217953055912440E-3    2.514584566761052E-3   -2.094723114651543E-3    2.670833296933433E-3    4.023349849793865E-1    3.139139451643280E-1
 8.061958617250000E9     3.745059928617615E-1    4.378312092814171E-1   -2.239234385293310E-3    2.515089761774604E-3   -2.070876325091273E-3    2.662579366979884E-3    4.024091437394557E-1    3.138610584957428E-1
 8.061959814100000E9     3.744318772884799E-1    4.378704353845295E-1   -2.244703115048953E-3    2.527447726758073E-3   -2.124048227295629E-3    2.674975928182651E-3    4.023283718183011E-1    3.137584604017840E-1
 8.061961010950000E9     3.746861235295150E-1    4.376544541751231E-1   -2.227940230991235E-3    2.527732513611988E-3   -2.118015031765716E-3    2.717428279826630E-3    4.024427587435906E-1    3.137808306669015E-1
 8.061962207800000E9     3.746134778348579E-1    4.375303703489961E-1   -2.234242217543644E-3    2.515525481042655E-3   -2.138230878925296E-3    2.689936631093624E-3    4.026702820090007E-1    3.136753011394097E-1
 8.061963404650000E9     3.747772897032777E-1    4.375126218182145E-1   -2.258780535147609E-3    2.526577202429861E-3   -2.102511076347811E-3    2.670575561564166E-3    4.024998851000309E-1    3.136991321609488E-1
 8.061964601500000E9     3.748673790271724E-1    4.374709001093656E-1   -2.240940562224210E-3    2.546997132481421E-3   -2.082225701029742E-3    2.712638674824744E-3    4.025448386508641E-1    3.137204750058740E-1
 8.061965798350000E9     3.749074644844823E-1    4.373592550553638E-1   -2.255672205922389E-3    2.550776391824295E-3   -2.119419860522192E-3    2.766797556023402E-3    4.026524675822418E-1    3.134405760624115E-1
 8.061966995200000E9     3.748994590278484E-1    4.372431385665205E-1   -2.270106515554061E-3    2.571322674916428E-3   -2.092069079051056E-3    2.747871473532467E-3    4.026593634406621E-1    3.133752793178073E-1
 8.061968192050000E9     3.751317207343174E-1    4.371632628842681E-1   -2.255788927111839E-3    2.557887714896014E-3   -2.134701616053046E-3    2.740186429796860E-3    4.027095976714559E-1    3.133815207540649E-1
 8.061969388900000E9     3.752331142889505E-1    4.372573963517974E-1   -2.260763472463406E-3    2.569494422862279E-3   -2.151532810086434E-3    2.723330577248214E-3    4.027545824468520E-1    3.133159364018780E-1
 8.061970585750000E9     3.752783263184552E-1    4.369952528704886E-1   -2.250186463950270E-3    2.579230106084168E-3   -2.110194795977537E-3    2.745737548894399E-3    4.028331975243270E-1    3.133015031919562E-1
 8.061971782600000E9     3.753812776271808E-1    4.368893550679358E-1   -2.274216111813506E-3    2.611533680123190E-3   -2.146432730383106E-3    2.747568553830731E-3    4.028849171161796E-1    3.132489513882150E-1
 8.061972979450000E9     3.755294043088853E-1    4.368545941346103E-1   -2.279284420334109E-3    2.613923151113801E-3   -2.143457068020212E-3    2.738854126429699E-3    4.029077103999721E-1    3.131587437084164E-1
 8.061974176300000E9     3.754371336141899E-1    4.367705301673913E-1   -2.265754935784332E-3    2.575904612850936E-3   -2.166924661603307E-3    2.768570921681510E-3    4.030382360281056E-1    3.131782650510747E-1
 8.061975373150000E9     3.756927254167587E-1    4.366512587821784E-1   -2.273611329443401E-3    2.617515053552605E-3   -2.144754994595770E-3    2.733023637181429E-3    4.030752941314828E-1    3.130685665798406E-1
 8.061976570000000E9     3.757363485881740E-1    4.365578818615061E-1   -2.276387442196496E-3    2.630756199977540E-3   -2.113879621454756E-3    2.744525464050289E-3    4.031298673118302E-1    3.129593712229200E-1
 8.061977766850000E9     3.758955964239560E-1    4.365014790467163E-1   -2.254678434314709E-3    2.595901078813857E-3   -2.125040552838950E-3    2.796323282250203E-3    4.029475035561275E-1    3.129663915692944E-1
 8.061978963700000E9     3.758076598835280E-1    4.363708545927202E-1   -2.282367391652800E-3    2.628808401586038E-3   -2.137333544396994E-3    2.785990129462459E-3    4.031318275504903E-1    3.128373288066542E-1
 8.061980160550000E9     3.760371545159866E-1    4.363320243419811E-1   -2.305323211659835E-3    2.632827976313587E-3   -2.168925206531611E-3    2.828833893604079E-3    4.031245081153581E-1    3.127643205229146E-1
 8.061981357400000E9     3.761115669546444E-1    4.362528885568735E-1   -2.275196518732820E-3    2.648562537997656E-3   -2.153683658068983E-3    2.811915076831110E-3    4.033152011885585E-1    3.127231838632756E-1
 8.061982554250000E9     3.762711098314332E-1    4.361820398316946E-1   -2.291716411952186E-3    2.648140948916342E-3   -2.151261341921294E-3    2.811133421896837E-3    4.034225968983867E-1    3.125738848560359E-1
 8.061983751100000E9     3.762989380787733E-1    4.360819092091787E-1   -2.298806917075646E-3    2.671530658320335E-3   -2.142514542230179E-3    2.842542293640521E-3    4.032999459551994E-1    3.126895425977000E-1
 8.061984947950000E9     3.763803086007714E-1    4.359810755951654E-1   -2.305346579769454E-3    2.685408768596436E-3   -2.174602276530954E-3    2.833847989111721E-3    4.033280925820532E-1    3.124339842180283E-1
 8.061986144800000E9     3.764602124128683E-1    4.359100827246946E-1   -2.327092033439632E-3    2.716229061829952E-3   -2.158845751939658E-3    2.823290624960040E-3    4.033000644726655E-1    3.125276286985352E-1
 8.061987341650000E9     3.765751415069001E-1    4.358432076074171E-1   -2.335019757991814E-3    2.673949620886264E-3   -2.177842228334020E-3    2.780970989066978E-3    4.034580274748943E-1    3.124322726521102E-1
 8.061988538500000E9     3.766487027579477E-1    4.358080609371305E-1   -2.310328931030016E-3    2.711008244308621E-3   -2.152740330677994E-3    2.880527951235894E-3    4.034157421882417E-1    3.125733600594508E-1
 8.061989735350000E9     3.766904865949416E-1    4.356529371185327E-1   -2.348159874073867E-3    2.674896713346337E-3   -2.178017794672584E-3    2.861425368610284E-3    4.036094786999768E-1    3.122612900686644E-1
 8.061990932200000E9     3.768516444577698E-1    4.356311152803094E-1   -2.345667360744636E-3    2.691315178969319E-3   -2.169399955340561E-3    2.863562934489336E-3    4.035841804593935E-1    3.121963752079469E-1
 8.061992129050000E9     3.768737011254443E-1    4.354539574919451E-1   -2.344821137744731E-3    2.700831546840001E-3   -2.179598488603984E-3    2.864935831034443E-3    4.035439114338381E-1    3.122173355337754E-1
 8.061993325900000E9     3.769252043128778E-1    4.354640286193228E-1   -2.333130258747427E-3    2.722809565236004E-3   -2.220630415941664E-3    2.892171077924883E-3    4.036920674692374E-1    3.121469787343213E-1
 8.061994522750000E9     3.770352868264456E-1    4.353062998546240E-1   -2.363214555499354E-3    2.716894888750179E-3   -2.205793927628851E-3    2.901782878394231E-3    4.036990324072334E-1    3.121174261519949E-1
 8.061995719600000E9     3.771872102991322E-1    4.352615977323480E-1   -2.346393997963987E-3    2.764070656158780E-3   -2.177425269701356E-3    2.881178910132755E-3    4.038532615223799E-1    3.120131286730244E-1
 8.061996916450000E9     3.772981279854015E-1    4.352397689020928E-1   -2.346829488971294E-3    2.750228498320970E-3   -2.165805019437799E-3    2.904239009173697E-3    4.037949815259751E-1    3.118437729576063E-1
 8.061998113300000E9     3.773815282336821E-1    4.350865787094951E-1   -2.362732856400026E-3    2.742524210127893E-3   -2.193826826979505E-3    2.910292698589298E-3    4.038469350244783E-1    3.117755163850722E-1
 8.061999310150000E9     3.774938431459686E-1    4.350838342065110E-1   -2.371507437186096E-3    2.788447673394403E-3   -2.182582256050792E-3    2.915061036008002E-3    4.038573328949516E-1    3.119910391876861E-1
 8.062000507000000E9     3.776300223033854E-1    4.349986186284766E-1   -2.343019578072916E-3    2.749507479796856E-3   -2.187501794550267E-3    2.917935803428917E-3    4.039106050801448E-1    3.116945759514327E-1
 8.062001703850000E9     3.776277614482068E-1    4.348417821844413E-1   -2.341744535545056E-3    2.777223018906998E-3   -2.196911861644434E-3    2.960298513590223E-3    4.038825417869759E-1    3.116368082755226E-1
 8.062002900700000E9     3.778000217296447E-1    4.347645098002945E-1   -2.375590725781887E-3    2.797475793087646E-3   -2.216221945704378E-3    2.996343543515084E-3    4.040934665402102E-1    3.116464160617219E-1
 8.062004097550000E9     3.778380999406997E-1    4.347244655187699E-1   -2.346924566801802E-3    2.818261939594079E-3   -2.216156088500322E-3    2.967988479047352E-3    4.041316712518608E-1    3.115099470247318E-1
 8.062005294400000E9     3.779553525057646E-1    4.345474337942640E-1   -2.371692230350601E-3    2.815873832547242E-3   -2.218338523681713E-3    2.984339067978343E-3    4.040725122021154E-1    3.114787893374347E-1
 8.062006491250000E9     3.780579323333012E-1    4.344580268697601E-1   -2.392258659006624E-3    2.810638077918684E-3   -2.241368021480516E-3    2.979450173759164E-3    4.041049034149343E-1    3.114664347757537E-1
 8.062007688100000E9     3.781387875530100E-1    4.343231294469689E-1   -2.408645793506736E-3    2.826050648056542E-3   -2.245225813251879E-3    2.987327053247884E-3    4.043264876416700E-1    3.113997999450895E-1
 8.062008884950000E9     3.780724263506386E-1    4.341682011720404E-1   -2.395171513492685E-3    2.839444465351019E-3   -2.242025774860076E-3    3.020159585850123E-3    4.042344902446516E-1    3.112669882374207E-1
 8.062010081800000E9     3.782756557625914E-1    4.341640223618703E-1   -2.412637891789376E-3    2.830207763215259E-3   -2.257071209293800E-3    3.002039772906517E-3    4.043137186427303E-1    3.112431979141225E-1
 8.062011278650000E9     3.782608018765805E-1    4.340989879699329E-1   -2.403630177243921E-3    2.845392187109480E-3   -2.287983884962481E-3    2.999327922474100E-3    4.043495642203925E-1    3.113709479037930E-1
 8.062012475500000E9     3.784735475475537E-1    4.340362701211282E-1   -2.400959179594429E-3    2.886883392580901E-3   -2.249320246365126E-3    2.992866332862307E-3    4.043976081717148E-1    3.110830653499438E-1
 8.062013672350000E9     3.784589375901312E-1    4.339023387433203E-1   -2.430132994654129E-3    2.865333156271334E-3   -2.234530358840803E-3    3.018026663530319E-3    4.043397986157788E-1    3.111135871387573E-1
 8.062014869200000E9     3.788006975399558E-1    4.338009688309802E-1   -2.415233655334653E-3    2.895328811779147E-3   -2.260566517731410E-3    3.009380702548087E-3    4.043396596504472E-1    3.109345192024681E-1
 8.062016066050000E9     3.786712285058381E-1    4.337570471785517E-1   -2.426249658093677E-3    2.900807044750436E-3   -2.274933709919425E-3    3.080859431762385E-3    4.045427683112744E-1    3.110624110276820E-1
 8.062017262900000E9     3.789246243349784E-1    4.335700845457687E-1   -2.421927624166841E-3    2.891075645114861E-3   -2.278083552239588E-3    3.068746718048165E-3    4.044637372338420E-1    3.109089935068454E-1
 8.062018459750000E9     3.788385913229437E-1    4.334803584186875E-1   -2.417614026777871E-3    2.898030347419286E-3   -2.264620469803430E-3    3.062987748917397E-3    4.044779135853356E-1    3.108984244241136E-1
 8.062019656600000E9     3.790948920945593E-1    4.334257700670177E-1   -2.437341643042453E-3    2.909820653014544E-3   -2.228367216844794E-3    3.095628992912562E-3    4.046656735459280E-1    3.109232130658801E-1
 8.062020853450000E9     3.791322675659425E-1    4.333355789376205E-1   -2.436984642280864E-3    2.936194522992365E-3   -2.281398955676332E-3    3.094638615129934E-3    4.046424277351260E-1    3.106280856332630E-1
 8.062022050300000E9     3.792216332179965E-1    4.332732358536275E-1   -2.462215649692171E-3    2.941387305396805E-3   -2.306606435162003E-3    3.105563503884548E-3    4.047097617486691E-1    3.106550172819052E-1
 8.062023247150000E9     3.793815522681380E-1    4.331031889170492E-1   -2.441565871820756E-3    2.949333369493435E-3   -2.282716087109898E-3    3.089309209543024E-3    4.048273161005025E-1    3.106079385073295E-1
 8.062024444000000E9     3.794421813706339E-1    4.330262694748282E-1   -2.437745612420459E-3    2.948171533126009E-3   -2.297343058035592E-3    3.114991077276185E-3    4.047867286673431E-1    3.105665689510743E-1
 8.062025640850000E9     3.794741813170814E-1    4.328405837491937E-1   -2.454139862047791E-3    2.989402068613971E-3   -2.278903279115617E-3    3.127537392278868E-3    4.048147058861217E-1    3.105794490890949E-1
 8.062026837700000E9     3.796367909048446E-1    4.328535647456084E-1   -2.458246614832997E-3    2.976505886441102E-3   -2.324098644876272E-3    3.142399384733719E-3    4.049770020088597E-1    3.101880722424838E-1
 8.062028034550000E9     3.797722075494331E-1    4.327306801819881E-1   -2.478578721835115E-3    2.997246058833161E-3   -2.316900940210519E-3    3.198671364589960E-3    4.049172641237758E-1    3.102781153896131E-1
 8.062029231400000E9     3.799578597528692E-1    4.325709777045941E-1   -2.477101268116251E-3    3.015092658971782E-3   -2.318915736735484E-3    3.191160743584556E-3    4.048805572705825E-1    3.102996416511685E-1
 8.062030428250000E9     3.799600447764077E-1    4.324402542559347E-1   -2.492267565061593E-3    2.993596944205553E-3   -2.291820281988847E-3    3.201328122402641E-3    4.051317093268137E-1    3.103867971994728E-1
 8.062031625100000E9     3.799670187383704E-1    4.324180378723267E-1   -2.505557460400344E-3    3.024354467192506E-3   -2.305525579179257E-3    3.224047548739407E-3    4.050814311983080E-1    3.101692378808454E-1
 8.062032821950000E9     3.800807450422006E-1    4.323506261237998E-1   -2.485236129075843E-3    3.034510592788530E-3   -2.307888620355514E-3    3.232210628869752E-3    4.051333424611812E-1    3.100575303314652E-1
 8.062034018800000E9     3.801402004484088E-1    4.321605139480620E-1   -2.483138933894385E-3    3.036221331245677E-3   -2.330725640446662E-3    3.232755165664428E-3    4.051015817005549E-1    3.100517895893648E-1
 8.062035215650000E9     3.804068358056492E-1    4.320536983633956E-1   -2.492004347807920E-3    3.044874378645965E-3   -2.379889302596634E-3    3.266548745292461E-3    4.052389588357416E-1    3.099170245221152E-1
 8.062036412500000E9     3.803718203108259E-1    4.320767169507738E-1   -2.521351510097985E-3    3.064718458258321E-3   -2.331937737004876E-3    3.275455547399905E-3    4.051852102200896E-1    3.098781185253561E-1
 8.062037609350000E9     3.804924940516304E-1    4.318416579102928E-1   -2.498540055899824E-3    3.064335432242435E-3   -2.333674329604913E-3    3.287919231472178E-3    4.053151205221935E-1    3.097716915550153E-1
 8.062038806200000E9     3.805581021237011E-1    4.316299550494396E-1   -2.511252121303665E-3    3.085037148772796E-3   -2.358213505572717E-3    3.235528707282638E-3    4.052746110571266E-1    3.098479362502870E-1
 8.062040003050000E9     3.807184098302432E-1    4.316363612326297E-1   -2.542666638550436E-3    3.110496445050859E-3   -2.377262954590077E-3    3.278138526287624E-3    4.054380991097525E-1    3.096430278042587E-1
 8.062041199900000E9     3.808942898503995E-1    4.315106760366250E-1   -2.539247299410173E-3    3.135315232467578E-3   -2.370657568465309E-3    3.313038694481144E-3    4.055217927122414E-1    3.096345054065515E-1
 8.062042396750000E9     3.809281068150227E-1    4.314325856893577E-1   -2.539273841124824E-3    3.142316016933402E-3   -2.392171806678818E-3    3.302196063218386E-3    4.054183330879731E-1    3.095438550292774E-1
 8.062043593600000E9     3.810508044201434E-1    4.313018010856286E-1   -2.566197222348632E-3    3.166987404312012E-3   -2.391165653625192E-3    3.353267581182400E-3    4.057320994273209E-1    3.095422285472180E-1
 8.062044790450000E9     3.811079366036647E-1    4.311110976653132E-1   -2.555808992815394E-3    3.164723054517335E-3   -2.372827324588575E-3    3.367629554583264E-3    4.055950640011665E-1    3.095410296847440E-1
 8.062045987300000E9     3.811664531008755E-1    4.311389026439510E-1   -2.565732362901332E-3    3.202705278742847E-3   -2.380036840177560E-3    3.370926648989998E-3    4.055830085130228E-1    3.092539390871979E-1
 8.062047184150000E9     3.813003039891708E-1    4.309720006025446E-1   -2.564131140226431E-3    3.200932879690567E-3   -2.398394976208834E-3    3.347623209525482E-3    4.056754478621474E-1    3.093529659530356E-1
 8.062048381000000E9     3.814612308614480E-1    4.308354543029992E-1   -2.574879889004929E-3    3.211842908200580E-3   -2.438051317347873E-3    3.388668828403028E-3    4.057265843435525E-1    3.093728136445443E-1
 8.062049577850000E9     3.815590342062022E-1    4.307993167669938E-1   -2.579094229320160E-3    3.215670615223840E-3   -2.405998243225832E-3    3.384222387231052E-3    4.057449130699681E-1    3.093017951037384E-1
 8.062050774700000E9     3.816289060151824E-1    4.306648161891879E-1   -2.598316405310319E-3    3.240359032033012E-3   -2.445142517176457E-3    3.412010805231033E-3    4.057317113802405E-1    3.090366304947476E-1
 8.062051971550000E9     3.817429978618290E-1    4.303863351991561E-1   -2.581522903101549E-3    3.269709912095553E-3   -2.430412425586536E-3    3.453766646119434E-3    4.057244118171920E-1    3.090850025135788E-1
 8.062053168400000E9     3.817942112619283E-1    4.303802606607731E-1   -2.607728330536825E-3    3.260501320587049E-3   -2.413819571053440E-3    3.425200337145636E-3    4.058177117682675E-1    3.090048498454210E-1
 8.062054365250000E9     3.819252226822588E-1    4.302301692511592E-1   -2.590311100422967E-3    3.295060678896313E-3   -2.436590572870736E-3    3.461107583613397E-3    4.059228418964772E-1    3.089872505182761E-1
 8.062055562100000E9     3.820537026483884E-1    4.301665244922765E-1   -2.645422013450349E-3    3.334210453319859E-3   -2.426208361559653E-3    3.518197224643787E-3    4.059430105060978E-1    3.089682580508324E-1
 8.062056758950000E9     3.821765887981700E-1    4.299404072055096E-1   -2.622741745845506E-3    3.318918538015392E-3   -2.448804524693913E-3    3.504877240519125E-3    4.059961699548074E-1    3.087545884521596E-1
 8.062057955800000E9     3.823375515578040E-1    4.298261347281135E-1   -2.642841319733022E-3    3.328148650045420E-3   -2.456439641051585E-3    3.534691430930130E-3    4.059852659121957E-1    3.086778596594646E-1
 8.062059152650000E9     3.823672786448585E-1    4.297167485107111E-1   -2.640762571661543E-3    3.383133387454285E-3   -2.461561529077235E-3    3.565838331615564E-3    4.061023529443973E-1    3.086965843780489E-1
 8.062060349500000E9     3.824729344099136E-1    4.295686639860636E-1   -2.627533620937131E-3    3.381678403867864E-3   -2.474093749165017E-3    3.545445256542865E-3    4.060669666000820E-1    3.086646086346216E-1
