#  HZ   S   RI   R     50.00 
! Rohde & Schwarz Vector Network Analyzer 
! Rohde-Schwarz,ZNB20-2Port,1311601062101988,3.16
! Created: UTC 3/20/2024, 11:14:48 PM
! freq[Hz]                re:S11                  im:S11                  re:S21                  im:S21                  re:S12                  im:S12                  re:S22                  im:S22
 8.061966016000000E9     3.745490810643471E-1    4.376336862438507E-1   -2.231474219980543E-3    2.537400345056158E-3   -2.098828724824598E-3    2.686568375328904E-3    4.024377436510230E-1    3.133824120995106E-1
 8.061967178425000E9     3.748386700216544E-1    4.374220570852539E-1   -2.245528495876630E-3    2.516301323733538E-3   -2.101215152591672E-3    2.719865930864218E-3    4.024321920917171E-1    3.133618074664511E-1
 8.061968340850000E9     3.749047230623015E-1    4.373330719299894E-1   -2.245813068218806E-3    2.527814079237108E-3   -2.125456335256299E-3    2.688637947526349E-3    4.024861996482310E-1    3.131571296808353E-1
 8.061969503275000E9     3.749643427674528E-1    4.373684802966132E-1   -2.237145094693676E-3    2.543863394727282E-3   -2.100128925068697E-3    2.744646797927037E-3    4.025944775284203E-1    3.133399644076216E-1
 8.061970665700000E9     3.751368664887669E-1    4.372403415905334E-1   -2.279058090947315E-3    2.541687871303787E-3   -2.138796092487303E-3    2.710258110623728E-3    4.027628530115184E-1    3.132483915010245E-1
 8.061971828125000E9     3.752830010172056E-1    4.371280839072365E-1   -2.280896933479132E-3    2.538450143968795E-3   -2.104087796743368E-3    2.709057646963831E-3    4.026840010166804E-1    3.131166469864513E-1
 8.061972990550000E9     3.752495897155333E-1    4.370584594941594E-1   -2.254438854426685E-3    2.555407283952563E-3   -2.106623114258448E-3    2.728491919463786E-3    4.028014586330396E-1    3.131162502402139E-1
 8.061974152975000E9     3.753692387634792E-1    4.370366065173998E-1   -2.261001196509134E-3    2.578534432291453E-3   -2.114995723691999E-3    2.714502806582295E-3    4.029025143212592E-1    3.129329622003106E-1
 8.061975315400000E9     3.753343439015294E-1    4.369156116355105E-1   -2.282723415035152E-3    2.574011000814940E-3   -2.131301826470887E-3    2.714040183625923E-3    4.027431925804466E-1    3.128612426201820E-1
 8.061976477825000E9     3.754861407732254E-1    4.368576886214662E-1   -2.283071693942768E-3    2.570709946954188E-3   -2.118575793787820E-3    2.744440865263835E-3    4.028502161086565E-1    3.129270137782972E-1
 8.061977640250000E9     3.756187308108352E-1    4.367198068636645E-1   -2.277560461536157E-3    2.592162653589138E-3   -2.119037377455893E-3    2.760734569502551E-3    4.029502871640811E-1    3.128980780107515E-1
 8.061978802675000E9     3.757917142903130E-1    4.366436219380893E-1   -2.295263789460539E-3    2.608553750871694E-3   -2.090552565820109E-3    2.749698942171676E-3    4.029642231990160E-1    3.125776845718859E-1
 8.061979965100000E9     3.758588111260072E-1    4.366314275966412E-1   -2.286731881875806E-3    2.578758515099300E-3   -2.169231393861098E-3    2.776530096377672E-3    4.030595335166482E-1    3.126965202479343E-1
 8.061981127525000E9     3.759269091797271E-1    4.366121013997399E-1   -2.255487137875165E-3    2.598988688941917E-3   -2.158672846163934E-3    2.737442979644034E-3    4.030949835399054E-1    3.127182606200335E-1
 8.061982289950000E9     3.761133914373005E-1    4.364041297122832E-1   -2.272131607020050E-3    2.604765217956449E-3   -2.143258770358066E-3    2.762372634333554E-3    4.030193361044712E-1    3.126959230477814E-1
 8.061983452375000E9     3.760822570247269E-1    4.363595127337145E-1   -2.310420092406239E-3    2.614294025336138E-3   -2.144475399118824E-3    2.799766135963552E-3    4.030312263591159E-1    3.125030636980458E-1
 8.061984614800000E9     3.761805882268610E-1    4.363632400523158E-1   -2.296786624715899E-3    2.605810848967314E-3   -2.151451179506300E-3    2.760363329541761E-3    4.032143902100730E-1    3.125097428000087E-1
 8.061985777225000E9     3.763193741839764E-1    4.362223694805958E-1   -2.281999376635368E-3    2.650443295462279E-3   -2.149748564345517E-3    2.793905994574945E-3    4.031121229246795E-1    3.124899088668900E-1
 8.061986939650000E9     3.763281371057994E-1    4.361594331406283E-1   -2.295467169525595E-3    2.629388251748984E-3   -2.144845945770990E-3    2.791364993123252E-3    4.032262339358682E-1    3.123789340829383E-1
 8.061988102075000E9     3.764613114057045E-1    4.359787504172668E-1   -2.301571266680612E-3    2.647657429267047E-3   -2.154479075238793E-3    2.782503502066228E-3    4.032972425860180E-1    3.122839921722766E-1
 8.061989264500000E9     3.764598731169601E-1    4.359480105511828E-1   -2.287165780778709E-3    2.658937836159006E-3   -2.161991885078319E-3    2.790062072771176E-3    4.033221408831851E-1    3.121126946852852E-1
 8.061990426925000E9     3.765510003802200E-1    4.358105660331478E-1   -2.306250328967589E-3    2.650135700563017E-3   -2.140721330557151E-3    2.839215636041963E-3    4.033053069612621E-1    3.121165835456922E-1
 8.061991589350000E9     3.767358693369761E-1    4.359005146572398E-1   -2.322973159893108E-3    2.669059390871873E-3   -2.195242651274544E-3    2.823088495035489E-3    4.034001572635841E-1    3.120489479716959E-1
 8.061992751775000E9     3.767829324481621E-1    4.356703155602719E-1   -2.316458520662646E-3    2.665727095953290E-3   -2.179518642777285E-3    2.798778628109121E-3    4.034502003300188E-1    3.121203430320415E-1
 8.061993914200000E9     3.769271463307484E-1    4.355770477750172E-1   -2.330285320667179E-3    2.670556101871473E-3   -2.168212815233779E-3    2.845531944541187E-3    4.033394633463605E-1    3.120038478687036E-1
 8.061995076625000E9     3.770005354013499E-1    4.353943964829416E-1   -2.317697018064680E-3    2.682441811915967E-3   -2.170808450972989E-3    2.840109877042311E-3    4.035826067983841E-1    3.119592823941346E-1
 8.061996239050000E9     3.769728767963064E-1    4.354445759728710E-1   -2.321406054178985E-3    2.676492827596144E-3   -2.220851285509641E-3    2.839744994818361E-3    4.035539139474389E-1    3.118656608672888E-1
 8.061997401475000E9     3.771119495666051E-1    4.353227945881116E-1   -2.341259024176004E-3    2.684268460263991E-3   -2.164106481239613E-3    2.869525212151172E-3    4.037703723745125E-1    3.118469476968107E-1
 8.061998563900000E9     3.772372858045981E-1    4.352980010157896E-1   -2.325304093531005E-3    2.704624427643345E-3   -2.174052252058732E-3    2.888054577138359E-3    4.037251153166000E-1    3.118319704388327E-1
 8.061999726325000E9     3.772225924146957E-1    4.350903563655427E-1   -2.324524708182932E-3    2.699274299487676E-3   -2.186833666058544E-3    2.861450398562532E-3    4.037394331919640E-1    3.117387525262645E-1
 8.062000888750000E9     3.773160069941986E-1    4.351917092464565E-1   -2.314014877570872E-3    2.720647386435587E-3   -2.214302221090777E-3    2.898984878768878E-3    4.036758777012677E-1    3.115196751424659E-1
 8.062002051175000E9     3.773741981401256E-1    4.351783907148116E-1   -2.341711005620528E-3    2.716037406057785E-3   -2.204389521471571E-3    2.903696689347655E-3    4.037053177159347E-1    3.115867205498096E-1
 8.062003213600000E9     3.775261417111994E-1    4.350384563507952E-1   -2.356220319341971E-3    2.738840666581901E-3   -2.199348228443316E-3    2.890165900325392E-3    4.039421927900206E-1    3.115367463224404E-1
 8.062004376025000E9     3.777208133458039E-1    4.348757658793936E-1   -2.339160770399019E-3    2.746269336784030E-3   -2.223664924518059E-3    2.898854929751104E-3    4.038348679000242E-1    3.113478996657819E-1
 8.062005538450000E9     3.776914979084054E-1    4.347962628372488E-1   -2.343203962175080E-3    2.773852550510406E-3   -2.237130456920277E-3    2.931853308128562E-3    4.039295101223049E-1    3.113613815939923E-1
 8.062006700875000E9     3.778186417115716E-1    4.346273735457031E-1   -2.364567705238911E-3    2.786794661614537E-3   -2.230664010745047E-3    2.910240486417526E-3    4.040889574483961E-1    3.113767311512280E-1
 8.062007863300000E9     3.778895389553110E-1    4.346449054563882E-1   -2.336786506458400E-3    2.762832698791419E-3   -2.216849138674256E-3    2.911335104437463E-3    4.039093928855159E-1    3.113135622290124E-1
 8.062009025725000E9     3.780442784330739E-1    4.345436465964828E-1   -2.393976381913721E-3    2.787587552666387E-3   -2.241848628184721E-3    2.946507196179946E-3    4.039957618301327E-1    3.113034431975466E-1
 8.062010188150000E9     3.780985523976806E-1    4.344992915697646E-1   -2.388206535337724E-3    2.772669487516160E-3   -2.220054388514169E-3    2.958306537254249E-3    4.040654413618897E-1    3.111978213527776E-1
 8.062011350575000E9     3.780385594115259E-1    4.344337108595837E-1   -2.365700850016794E-3    2.778855251802739E-3   -2.237860350729592E-3    2.988239529964842E-3    4.041290636504999E-1    3.110980915910709E-1
 8.062012513000000E9     3.782382105546834E-1    4.343449110674690E-1   -2.375825595515395E-3    2.814410564878019E-3   -2.275815785000102E-3    2.982909576374988E-3    4.041652583903349E-1    3.109330582199385E-1
 8.062013675425000E9     3.782899608886697E-1    4.341741649048440E-1   -2.392460285123374E-3    2.802208280079209E-3   -2.240943021751267E-3    2.981934834268294E-3    4.042339808256991E-1    3.109406191207300E-1
 8.062014837850000E9     3.783821657148110E-1    4.340775723428772E-1   -2.395011898255863E-3    2.833127241380333E-3   -2.236780913629740E-3    3.012411979266728E-3    4.041961182625992E-1    3.109182571543583E-1
 8.062016000275000E9     3.785849436211683E-1    4.340498406604567E-1   -2.405841792292896E-3    2.811555302331763E-3   -2.268785886120519E-3    3.008269327980935E-3    4.042969120772493E-1    3.107165790422886E-1
 8.062017162700000E9     3.786138431677685E-1    4.337820157039838E-1   -2.407813038301233E-3    2.826151426249701E-3   -2.243381043735556E-3    3.009905558490337E-3    4.042825444496983E-1    3.108155912252718E-1
 8.062018325125000E9     3.786937639092360E-1    4.337607196911911E-1   -2.391349506189593E-3    2.854599410937006E-3   -2.257118984466244E-3    3.045385377111473E-3    4.043931831031035E-1    3.105960933072545E-1
 8.062019487550000E9     3.787924687944261E-1    4.337430919482906E-1   -2.414489339653118E-3    2.874046671241305E-3   -2.259750616844259E-3    2.988665713661436E-3    4.043812175308348E-1    3.106994625225069E-1
 8.062020649975000E9     3.788313513128732E-1    4.336558587641480E-1   -2.411793822330781E-3    2.895441414308512E-3   -2.270114398218546E-3    3.033085893994806E-3    4.044936000609975E-1    3.107155735274114E-1
 8.062021812400000E9     3.790523951214871E-1    4.335087759938563E-1   -2.398146263484110E-3    2.880597516123620E-3   -2.286589190495941E-3    3.040814151069326E-3    4.044891547747104E-1    3.105721464330504E-1
 8.062022974825000E9     3.790727031820697E-1    4.334434190902425E-1   -2.426906202440930E-3    2.881638132648650E-3   -2.268335031788239E-3    3.061493990425393E-3    4.045874425142861E-1    3.103481218653881E-1
 8.062024137250000E9     3.791145369549547E-1    4.333736186796622E-1   -2.425144060929920E-3    2.875821403095415E-3   -2.264907227554121E-3    3.033000934123012E-3    4.045596972729255E-1    3.105578742935644E-1
 8.062025299675000E9     3.793470467985440E-1    4.332172876993609E-1   -2.438602275141792E-3    2.910317969397390E-3   -2.271558208237834E-3    3.080937621512406E-3    4.046691340932395E-1    3.103802195129839E-1
 8.062026462100000E9     3.794738678902486E-1    4.332189055501077E-1   -2.433214001518913E-3    2.892493031850110E-3   -2.302097897074177E-3    3.066873941272896E-3    4.047739279381176E-1    3.102253333457082E-1
 8.062027624525000E9     3.794960787102777E-1    4.330796238090868E-1   -2.471086716618921E-3    2.928869760477292E-3   -2.313654760046649E-3    3.096143881406777E-3    4.047423602067930E-1    3.102930257669463E-1
 8.062028786950000E9     3.794978570814665E-1    4.330074856880159E-1   -2.459087008840225E-3    2.929647171510983E-3   -2.303811282415123E-3    3.123887846573264E-3    4.047892323139055E-1    3.102161288120656E-1
 8.062029949375000E9     3.797309399011790E-1    4.328553902161080E-1   -2.481125694829378E-3    2.949049451911506E-3   -2.287949259041127E-3    3.122431138206992E-3    4.048192557716106E-1    3.101137830751899E-1
 8.062031111800000E9     3.797630652216326E-1    4.327957224540093E-1   -2.467448063461186E-3    2.940535511021867E-3   -2.300377650546966E-3    3.108971591557525E-3    4.049101157687280E-1    3.100519303020887E-1
 8.062032274225000E9     3.798806375164155E-1    4.327417744460982E-1   -2.462165345004503E-3    2.956031703803996E-3   -2.318906832979589E-3    3.153579527999638E-3    4.047843989621548E-1    3.099245331635924E-1
 8.062033436650000E9     3.799677714844020E-1    4.325383906939413E-1   -2.472902020857438E-3    2.965221869767203E-3   -2.323088986096634E-3    3.172161696966759E-3    4.049448392983939E-1    3.099169158748229E-1
 8.062034599075000E9     3.799561317013470E-1    4.324923294400868E-1   -2.464938787536860E-3    3.009033427663231E-3   -2.317711830815145E-3    3.141144860419116E-3    4.049670579482785E-1    3.098786569306130E-1
 8.062035761500000E9     3.800873967002850E-1    4.324314184893315E-1   -2.479899242188941E-3    3.017772730624136E-3   -2.324295156754041E-3    3.170063785322630E-3    4.051029729895972E-1    3.098532372845448E-1
 8.062036923925000E9     3.802921523926404E-1    4.321418641517389E-1   -2.478342331767689E-3    3.009145867965125E-3   -2.316508662160782E-3    3.189393389263212E-3    4.050920657419177E-1    3.098634748512488E-1
 8.062038086350000E9     3.803522081636177E-1    4.320976836360996E-1   -2.475798372755076E-3    3.053822033278745E-3   -2.350678472613535E-3    3.179745666882453E-3    4.052088277821956E-1    3.098239018176303E-1
 8.062039248775000E9     3.804037896461344E-1    4.320028697512037E-1   -2.530225853239378E-3    3.018546520810953E-3   -2.339542675171136E-3    3.205625445496393E-3    4.052324103394823E-1    3.096688525111220E-1
 8.062040411200000E9     3.803725738928165E-1    4.319771884176143E-1   -2.492025865697029E-3    3.043162716781180E-3   -2.321687974746063E-3    3.240224195902935E-3    4.051570373875674E-1    3.095367923031546E-1
 8.062041573625000E9     3.806190435089792E-1    4.319405058602085E-1   -2.507712582891357E-3    3.056845216240952E-3   -2.355623292189099E-3    3.229462051760439E-3    4.052195750237249E-1    3.095475637579324E-1
 8.062042736050000E9     3.807327178785300E-1    4.318276426772374E-1   -2.502848447834822E-3    3.078758449855218E-3   -2.329786757581498E-3    3.244656748611210E-3    4.053263195501120E-1    3.095229018757961E-1
 8.062043898475000E9     3.808676470974788E-1    4.316117753398084E-1   -2.514716422833802E-3    3.061920892863463E-3   -2.333935740115286E-3    3.270075448422009E-3    4.053948348778751E-1    3.094931467924050E-1
 8.062045060900000E9     3.808952982687359E-1    4.314980795175797E-1   -2.512399501871739E-3    3.113838638994607E-3   -2.345658034810588E-3    3.292919133394235E-3    4.054533860732864E-1    3.093260606031528E-1
 8.062046223325000E9     3.810359723038141E-1    4.315290014811021E-1   -2.523359695322589E-3    3.132308361675603E-3   -2.374650924821390E-3    3.283821480617451E-3    4.054431049458688E-1    3.093437646117552E-1
 8.062047385750000E9     3.811957440547483E-1    4.313473118372842E-1   -2.542217820787780E-3    3.127861617178198E-3   -2.380963571405423E-3    3.268111558594918E-3    4.054872533707130E-1    3.092652866928501E-1
 8.062048548175000E9     3.812044573454368E-1    4.312119194894375E-1   -2.546318168967488E-3    3.122785574291113E-3   -2.390881622793627E-3    3.288918130273221E-3    4.054709887425344E-1    3.091323180940834E-1
 8.062049710600000E9     3.813279430724515E-1    4.311641674159241E-1   -2.527742094771594E-3    3.148649312012917E-3   -2.358836499025166E-3    3.281322193741994E-3    4.055606774181478E-1    3.090691896576682E-1
 8.062050873025000E9     3.814767750578884E-1    4.310229639367978E-1   -2.571149629122504E-3    3.187069110320761E-3   -2.397202942450183E-3    3.363456586743490E-3    4.056083709566056E-1    3.091763504749267E-1
 8.062052035450000E9     3.815962344443272E-1    4.309574733411302E-1   -2.572446762041959E-3    3.181475769869797E-3   -2.424998928530646E-3    3.358926318383906E-3    4.056762464400697E-1    3.089082373731143E-1
 8.062053197875000E9     3.816279014186444E-1    4.307465067591030E-1   -2.591021318431305E-3    3.181097112255500E-3   -2.425603763851119E-3    3.361960210930993E-3    4.056648665582371E-1    3.088513060949860E-1
 8.062054360300000E9     3.817788126957722E-1    4.307522643313169E-1   -2.575797733751641E-3    3.205863388037415E-3   -2.385153573385299E-3    3.400167442208728E-3    4.058203185102867E-1    3.089557150629275E-1
 8.062055522725000E9     3.817200233627495E-1    4.306026981101571E-1   -2.588301089418014E-3    3.202422951173448E-3   -2.394648839150020E-3    3.368600735595646E-3    4.059442765622709E-1    3.086770851406467E-1
 8.062056685150000E9     3.819868127812313E-1    4.305049739262852E-1   -2.576855088333187E-3    3.242853964201938E-3   -2.393135739428587E-3    3.425487639920079E-3    4.056991190516939E-1    3.088554552088912E-1
 8.062057847575000E9     3.820135111126386E-1    4.303226569223420E-1   -2.613596619130695E-3    3.269136991959202E-3   -2.415717881212589E-3    3.440643636108747E-3    4.057289639816037E-1    3.086772009096619E-1
 8.062059010000000E9     3.821550501918319E-1    4.302319547799422E-1   -2.626505610186618E-3    3.239849631986752E-3   -2.430834041118309E-3    3.451618953010001E-3    4.060226423747830E-1    3.087070951661238E-1
 8.062060172425000E9     3.822321563648534E-1    4.301556148532107E-1   -2.615121429213001E-3    3.287894887691582E-3   -2.448143717900081E-3    3.456847199547787E-3    4.059831060745022E-1    3.085107386433574E-1
 8.062061334850000E9     3.823638950650301E-1    4.300839222551347E-1   -2.621343700554010E-3    3.278667022427489E-3   -2.438257390323970E-3    3.483746054425211E-3    4.060356271274488E-1    3.085743913705978E-1
 8.062062497275000E9     3.823445459402918E-1    4.298362860002736E-1   -2.638087994797335E-3    3.317385473686072E-3   -2.470651646900255E-3    3.486756695740363E-3    4.060078947643475E-1    3.085597976634186E-1
 8.062063659700000E9     3.823773007887649E-1    4.297185415927853E-1   -2.643107424921543E-3    3.316129562765708E-3   -2.447264272892744E-3    3.538431797455557E-3    4.060369064081646E-1    3.084094811856184E-1
 8.062064822125000E9     3.827434632756935E-1    4.296688756714430E-1   -2.662595781022650E-3    3.323326775176536E-3   -2.466415244878545E-3    3.527478087952867E-3    4.060014843604278E-1    3.083938589126021E-1
 8.062065984550000E9     3.828119650085314E-1    4.294892104597054E-1   -2.636091270646422E-3    3.363197020824166E-3   -2.496057915330595E-3    3.572907502703390E-3    4.063544667188050E-1    3.083078857134466E-1
 8.062067146975000E9     3.828570953530453E-1    4.294148800854203E-1   -2.669020672730762E-3    3.394927040903651E-3   -2.499421858542073E-3    3.585354649178449E-3    4.063590274408970E-1    3.081594068139459E-1
 8.062068309400000E9     3.830817867148564E-1    4.292749450900062E-1   -2.649332295226628E-3    3.387866960905346E-3   -2.478801391855764E-3    3.575619888770834E-3    4.061233955519904E-1    3.081971017792250E-1
 8.062069471825000E9     3.830554857040702E-1    4.292175059503953E-1   -2.664055506562076E-3    3.415328058826380E-3   -2.475852014810735E-3    3.589703935693417E-3    4.061949428801518E-1    3.080689989220320E-1
 8.062070634250000E9     3.831717204263186E-1    4.289678161428990E-1   -2.681898801041444E-3    3.422518850919394E-3   -2.489369584261634E-3    3.618322315729690E-3    4.063787071405700E-1    3.080388153731639E-1
