#  HZ   S   RI   R     50.00 
! Rohde & Schwarz Vector Network Analyzer 
! Rohde-Schwarz,ZNB20-2Port,1311601062101988,3.16
! Created: UTC 3/20/2024, 11:15:26 PM
! freq[Hz]                re:S11                  im:S11                  re:S21                  im:S21                  re:S12                  im:S12                  re:S22                  im:S22
 8.061988890000000E9     3.762795893601045E-1    4.361914715444834E-1   -2.291130932179490E-3    2.613625458132367E-3   -2.143579153240595E-3    2.724211333840260E-3    4.023746238751791E-1    3.120069741239436E-1
 8.061989980975000E9     3.761975435783809E-1    4.360960038655313E-1   -2.274327392997865E-3    2.626675245963486E-3   -2.136153829474111E-3    2.743966551539854E-3    4.025369650507338E-1    3.118075268744628E-1
 8.061991071950000E9     3.763553859088049E-1    4.360345058477570E-1   -2.274215077334522E-3    2.619195504470703E-3   -2.167025579388424E-3    2.768719837875241E-3    4.026030297856577E-1    3.119278407112508E-1
 8.061992162925000E9     3.765125456993713E-1    4.360200022018548E-1   -2.292817314175279E-3    2.622485005446912E-3   -2.127457959597876E-3    2.781044183217933E-3    4.025425800899198E-1    3.118585884993694E-1
 8.061993253900000E9     3.765231074288488E-1    4.358698679901722E-1   -2.271683920204178E-3    2.612245418785985E-3   -2.140135316027311E-3    2.786323881809892E-3    4.026646552917166E-1    3.117364330433634E-1
 8.061994344875000E9     3.766463018206835E-1    4.359765630025267E-1   -2.282627935535961E-3    2.632721307988043E-3   -2.172772060907753E-3    2.797915490219859E-3    4.025742511941092E-1    3.116953569379212E-1
 8.061995435850000E9     3.766895029963149E-1    4.357838789584179E-1   -2.284458187351891E-3    2.639500916852619E-3   -2.172932988110933E-3    2.811182587573590E-3    4.026935920925959E-1    3.115388786689926E-1
 8.061996526825000E9     3.768053648977498E-1    4.357172656492305E-1   -2.316986778453376E-3    2.657196735219027E-3   -2.167616545798577E-3    2.810150243914157E-3    4.028368220926634E-1    3.116046314414228E-1
 8.061997617800000E9     3.768817258481454E-1    4.356244694195046E-1   -2.313666659035516E-3    2.651539215132428E-3   -2.096498441081400E-3    2.828799996435873E-3    4.028892363225685E-1    3.113805176306306E-1
 8.061998708775000E9     3.770903155110465E-1    4.354781798029828E-1   -2.315988248630224E-3    2.639611878416673E-3   -2.189495239410173E-3    2.787026482257410E-3    4.027677706146360E-1    3.115863165115871E-1
 8.061999799750000E9     3.770811412268769E-1    4.356202853709263E-1   -2.332438164544592E-3    2.671781799977213E-3   -2.177488547947619E-3    2.829483521441742E-3    4.028677100822872E-1    3.114403287388837E-1
 8.062000890725000E9     3.771587404813146E-1    4.354467633392848E-1   -2.316015827731039E-3    2.673308190713123E-3   -2.187846657630888E-3    2.857721553715191E-3    4.028411437228775E-1    3.113332894334995E-1
 8.062001981700000E9     3.772135021247924E-1    4.352974025932603E-1   -2.323212945078023E-3    2.672586211946259E-3   -2.137747102029827E-3    2.868162422882307E-3    4.028840878149202E-1    3.113162235823987E-1
 8.062003072675000E9     3.773304122397800E-1    4.352341115088250E-1   -2.321079063284955E-3    2.684264515611982E-3   -2.181622737361183E-3    2.859232919914705E-3    4.029176686335682E-1    3.112735904161887E-1
 8.062004163650000E9     3.775743558176926E-1    4.352010902018871E-1   -2.322456437264250E-3    2.682179759239350E-3   -2.195095616687075E-3    2.853534588847108E-3    4.029630492905147E-1    3.111759387536030E-1
 8.062005254625000E9     3.774544528625120E-1    4.349909771381146E-1   -2.327271273395396E-3    2.707023528655405E-3   -2.186706184160491E-3    2.865688182936738E-3    4.029829438841726E-1    3.111188071076150E-1
 8.062006345600000E9     3.775484163545947E-1    4.349936657907428E-1   -2.329202436359780E-3    2.719081636270119E-3   -2.164719231767248E-3    2.881758586250791E-3    4.030567719202768E-1    3.110814510807942E-1
 8.062007436575000E9     3.775916334734551E-1    4.349050373895850E-1   -2.357971891323662E-3    2.710278424095603E-3   -2.202332786760393E-3    2.863547059310047E-3    4.031356367591171E-1    3.110591438576958E-1
 8.062008527550000E9     3.777404605909084E-1    4.348806842056953E-1   -2.344880991805567E-3    2.729388515530721E-3   -2.202622077658248E-3    2.856147552330787E-3    4.031349439955617E-1    3.109859058931666E-1
 8.062009618525000E9     3.779539939900602E-1    4.348406723782294E-1   -2.351130030512546E-3    2.747321618664548E-3   -2.191321801839077E-3    2.870694742058886E-3    4.032738862696561E-1    3.109082100786922E-1
 8.062010709500000E9     3.778924910348764E-1    4.346409705608130E-1   -2.362573716712493E-3    2.735864963819393E-3   -2.197867439438539E-3    2.895312958477485E-3    4.032207653858065E-1    3.109136717883704E-1
 8.062011800475000E9     3.781350348421401E-1    4.345975819700691E-1   -2.342902071724661E-3    2.739971253645444E-3   -2.214443424723061E-3    2.903259845123629E-3    4.033057094969593E-1    3.108294293516255E-1
 8.062012891450000E9     3.780838701960503E-1    4.345185806169948E-1   -2.371073880956034E-3    2.755958617679981E-3   -2.182716267872946E-3    2.897832000758975E-3    4.034700771981959E-1    3.106829223347238E-1
 8.062013982425000E9     3.780833393999588E-1    4.344137954146532E-1   -2.353664692045939E-3    2.766040361039312E-3   -2.229417108616383E-3    2.948944475120560E-3    4.035203641581388E-1    3.108200967378507E-1
 8.062015073400000E9     3.782306093676842E-1    4.343720831361328E-1   -2.385685766594382E-3    2.790734348151447E-3   -2.204310255721623E-3    2.918721608953539E-3    4.034423952486209E-1    3.106912536723552E-1
 8.062016164375000E9     3.783604620541869E-1    4.342446780128123E-1   -2.396588923657782E-3    2.754306891855087E-3   -2.231456247928473E-3    2.941457203438000E-3    4.035185348019159E-1    3.106508196299447E-1
 8.062017255350000E9     3.784268429941552E-1    4.341592751485527E-1   -2.365673561119760E-3    2.779821426687141E-3   -2.222592721540532E-3    2.957959721049025E-3    4.034163358973493E-1    3.104744115003896E-1
 8.062018346325000E9     3.785433080141731E-1    4.340719033520971E-1   -2.385846192738617E-3    2.782949226610443E-3   -2.243658787748795E-3    2.968273475634820E-3    4.035642114455923E-1    3.104148729399840E-1
 8.062019437300000E9     3.786833799274875E-1    4.341013249410198E-1   -2.372448890805943E-3    2.783202333998674E-3   -2.192923732218344E-3    2.980628469797761E-3    4.036078793254853E-1    3.103448995417013E-1
 8.062020528275000E9     3.788199737634804E-1    4.339177363196249E-1   -2.387904498542689E-3    2.825780724915164E-3   -2.218337391296077E-3    2.988413220281926E-3    4.036359436923561E-1    3.103873416826559E-1
 8.062021619250000E9     3.788178075745207E-1    4.339210932631358E-1   -2.389264875687308E-3    2.828701803401338E-3   -2.236605332571613E-3    2.983028200691446E-3    4.036980093587936E-1    3.103313716160530E-1
 8.062022710225000E9     3.788596554547162E-1    4.338187676798189E-1   -2.390768392085298E-3    2.809746295901282E-3   -2.239165557867891E-3    2.985160820362404E-3    4.037623064808116E-1    3.102492670176892E-1
 8.062023801200000E9     3.790726386145407E-1    4.337281019259497E-1   -2.408882176609656E-3    2.830351995284225E-3   -2.243031744848088E-3    3.004014658704724E-3    4.037014998594976E-1    3.102142745465141E-1
 8.062024892175000E9     3.791310632952561E-1    4.336468873730318E-1   -2.397385437660648E-3    2.831231642394269E-3   -2.271623176976077E-3    2.991884535960922E-3    4.037511028350400E-1    3.101868910830498E-1
 8.062025983150000E9     3.790710502057631E-1    4.335890622490927E-1   -2.422264665090959E-3    2.873054513926785E-3   -2.243977305554110E-3    3.011065169171477E-3    4.037953409990092E-1    3.100974388264311E-1
 8.062027074125000E9     3.792475560918558E-1    4.334405415043259E-1   -2.413397281286672E-3    2.860207777815281E-3   -2.270675803540287E-3    3.022329177491526E-3    4.039383724862027E-1    3.099960805849516E-1
 8.062028165100000E9     3.794102111654142E-1    4.332508419517994E-1   -2.417683237336151E-3    2.864796393571275E-3   -2.276131127138264E-3    3.048034590803485E-3    4.037755221303562E-1    3.099307347648103E-1
 8.062029256075000E9     3.794258777160916E-1    4.331641323446192E-1   -2.422293753470856E-3    2.897799719508864E-3   -2.278278339982431E-3    3.019141040861391E-3    4.038172055452156E-1    3.098112864271544E-1
 8.062030347050000E9     3.794532159407323E-1    4.331381609731990E-1   -2.404959494005170E-3    2.884008887661581E-3   -2.285762662335781E-3    3.075293002799250E-3    4.039900336631737E-1    3.098299514547583E-1
 8.062031438025000E9     3.797190512049630E-1    4.330184374501431E-1   -2.442481042272254E-3    2.902573709771210E-3   -2.255313267846715E-3    3.046235700113407E-3    4.041243583551345E-1    3.098415433908853E-1
 8.062032529000000E9     3.796636240279150E-1    4.330104823376355E-1   -2.428751874303712E-3    2.898620353476263E-3   -2.285623619411896E-3    3.066308645032549E-3    4.041052188275198E-1    3.097591840829724E-1
 8.062033619975000E9     3.798719724152486E-1    4.329118815232437E-1   -2.449919799625221E-3    2.910124601977166E-3   -2.269069307482681E-3    3.081493535451190E-3    4.040881837856743E-1    3.097460111783604E-1
 8.062034710950000E9     3.798225132898294E-1    4.328115815272359E-1   -2.462029802561142E-3    2.952354062771759E-3   -2.278082496918222E-3    3.054906693269750E-3    4.040700252779692E-1    3.097149670787602E-1
 8.062035801925000E9     3.800044439716018E-1    4.326197699380139E-1   -2.477086123528492E-3    2.914213454059372E-3   -2.322816515144592E-3    3.082109506419736E-3    4.040995761841547E-1    3.095921244558021E-1
 8.062036892900000E9     3.800695345513881E-1    4.326272608693736E-1   -2.465937305903337E-3    2.930728905397631E-3   -2.294569929121928E-3    3.121765351465898E-3    4.041957663511728E-1    3.094922331477548E-1
 8.062037983875000E9     3.801441166109734E-1    4.324811125968059E-1   -2.491883863547405E-3    2.956410005094617E-3   -2.309546230371740E-3    3.139294670883434E-3    4.044244508295742E-1    3.094807169051912E-1
 8.062039074850000E9     3.801878359677729E-1    4.323903470824661E-1   -2.465185224004593E-3    2.952801503190479E-3   -2.285799399413065E-3    3.141565712984611E-3    4.043799963865071E-1    3.094102073474355E-1
 8.062040165825000E9     3.803657587222964E-1    4.323114425914724E-1   -2.477962761163729E-3    2.972743389046301E-3   -2.285884158621281E-3    3.163528140172969E-3    4.043163214907789E-1    3.093035233174187E-1
 8.062041256800000E9     3.803431263163502E-1    4.322358458491923E-1   -2.489292424561837E-3    2.965232067934921E-3   -2.326330348885503E-3    3.162292140318025E-3    4.043958122492292E-1    3.092914591685676E-1
 8.062042347775000E9     3.805501081642162E-1    4.321215615955531E-1   -2.487685101793562E-3    2.985778586695900E-3   -2.313902738577413E-3    3.162673826863622E-3    4.044098600862352E-1    3.092313711430696E-1
 8.062043438750000E9     3.805586656749728E-1    4.321472835329371E-1   -2.497629914808238E-3    2.991777589755441E-3   -2.327297862046595E-3    3.189185033586712E-3    4.045135809254364E-1    3.092440463552493E-1
 8.062044529725000E9     3.807149561796835E-1    4.319602595991278E-1   -2.492428808740006E-3    3.022829032538942E-3   -2.324268473190282E-3    3.174498425659632E-3    4.045155304746790E-1    3.092209701395082E-1
 8.062045620700000E9     3.807401703482793E-1    4.318483422580608E-1   -2.500183955210269E-3    3.025062822678521E-3   -2.330733357443767E-3    3.188315904090314E-3    4.044567133144195E-1    3.090867876579832E-1
 8.062046711675000E9     3.809052745893637E-1    4.317764369340080E-1   -2.522642622599668E-3    3.033394633897726E-3   -2.346091141952058E-3    3.230371111312749E-3    4.045201584555687E-1    3.089842563352750E-1
 8.062047802650000E9     3.809080702246865E-1    4.317416374609776E-1   -2.491563823008089E-3    3.036530562406685E-3   -2.338162460985450E-3    3.238578631851169E-3    4.045259303184681E-1    3.087946215564116E-1
 8.062048893625000E9     3.809987763543554E-1    4.315804360298592E-1   -2.493803865869547E-3    3.047771005494422E-3   -2.366701229117714E-3    3.203354486444811E-3    4.047598867269357E-1    3.088277447477472E-1
 8.062049984600000E9     3.811299334781016E-1    4.315432881383559E-1   -2.512449904530964E-3    3.065375018110607E-3   -2.314468632428979E-3    3.269434429165930E-3    4.046787605087930E-1    3.088753381785379E-1
 8.062051075575000E9     3.812409673192640E-1    4.314951401427304E-1   -2.529309654101349E-3    3.068657686162509E-3   -2.350915796637390E-3    3.264954957921175E-3    4.046938327032780E-1    3.088535905255015E-1
 8.062052166550000E9     3.813195955684651E-1    4.312114286532967E-1   -2.531213765877874E-3    3.099556591329809E-3   -2.329316267757898E-3    3.275693152657588E-3    4.048904749379253E-1    3.086344878119146E-1
 8.062053257525000E9     3.813938768220387E-1    4.312533739529597E-1   -2.521453546837609E-3    3.100604048709358E-3   -2.380290415266057E-3    3.270716966242856E-3    4.048632336259486E-1    3.086456592712182E-1
 8.062054348500000E9     3.815353603839863E-1    4.310594131777418E-1   -2.536098413938967E-3    3.090063613332080E-3   -2.380544902404498E-3    3.272301729744740E-3    4.048727224124537E-1    3.085394681972223E-1
 8.062055439475000E9     3.816374001378387E-1    4.309627916836649E-1   -2.541309764222819E-3    3.110953775600893E-3   -2.371898419996199E-3    3.311091474036827E-3    4.049860596863661E-1    3.086264486935176E-1
 8.062056530450000E9     3.816799913250611E-1    4.309072596263860E-1   -2.573011762344710E-3    3.125334870066880E-3   -2.374263034948959E-3    3.299377333535872E-3    4.049233847004883E-1    3.085110818101725E-1
 8.062057621425000E9     3.817644984215370E-1    4.307570238605334E-1   -2.562836389390152E-3    3.160412525562598E-3   -2.360714488082772E-3    3.356113100017221E-3    4.050413329278429E-1    3.084456838794382E-1
 8.062058712400000E9     3.819062354833314E-1    4.306611272092838E-1   -2.550112817123720E-3    3.145680290704047E-3   -2.359417004918782E-3    3.350536525767821E-3    4.048933242102495E-1    3.084029986158589E-1
 8.062059803375000E9     3.819784963111955E-1    4.306429548281670E-1   -2.589575704155613E-3    3.153775676559919E-3   -2.401879387498944E-3    3.331480048456858E-3    4.049721225265204E-1    3.082818045583396E-1
 8.062060894350000E9     3.820715036556924E-1    4.305053014153019E-1   -2.574279592719172E-3    3.205508096420048E-3   -2.405135695735161E-3    3.396552983839672E-3    4.050233266580294E-1    3.082910225222089E-1
 8.062061985325000E9     3.822076322053220E-1    4.304031555528530E-1   -2.598101004385082E-3    3.215894742487200E-3   -2.417517088464159E-3    3.397265281353705E-3    4.050033734017413E-1    3.083546358164329E-1
 8.062063076300000E9     3.822424223136371E-1    4.303933149068559E-1   -2.599765140137855E-3    3.219887219925284E-3   -2.432129707700532E-3    3.363063542186256E-3    4.051749575935421E-1    3.081204115481177E-1
 8.062064167275000E9     3.822115415500973E-1    4.301159446090911E-1   -2.579548634228161E-3    3.221677214284917E-3   -2.408585456154217E-3    3.417541712661538E-3    4.052325878630479E-1    3.080820937427710E-1
 8.062065258250000E9     3.824711820694712E-1    4.300523265606072E-1   -2.633461750835126E-3    3.250389841161903E-3   -2.437134294859000E-3    3.428566199451829E-3    4.051859094594781E-1    3.080300045081208E-1
 8.062066349225000E9     3.825068419578091E-1    4.299241262114282E-1   -2.604121312372809E-3    3.247868007784533E-3   -2.433223418148094E-3    3.418836916012041E-3    4.051222873350001E-1    3.082024931206476E-1
 8.062067440200000E9     3.825834233887121E-1    4.298994597752688E-1   -2.607785384118930E-3    3.275299817037434E-3   -2.434113593506080E-3    3.432578183876762E-3    4.053175234961371E-1    3.080082896849536E-1
 8.062068531175000E9     3.826564890483140E-1    4.298454953740216E-1   -2.647595078624695E-3    3.273577658470887E-3   -2.461331532154485E-3    3.456386373707191E-3    4.054401916821664E-1    3.077856932170830E-1
 8.062069622150000E9     3.828637338823630E-1    4.297406059013611E-1   -2.640942775771197E-3    3.285879477070851E-3   -2.469924557971590E-3    3.469746060812937E-3    4.053279485056230E-1    3.078417738920399E-1
 8.062070713125000E9     3.829248630969476E-1    4.294489079919602E-1   -2.645357501417507E-3    3.318158723649941E-3   -2.420229424122588E-3    3.482466815643012E-3    4.054359400186652E-1    3.079536032476197E-1
 8.062071804100000E9     3.829824414356363E-1    4.293992491708555E-1   -2.653999637224368E-3    3.342009906411623E-3   -2.488484899444417E-3    3.548590061414128E-3    4.055020923654176E-1    3.077136279491666E-1
 8.062072895075000E9     3.831230835218266E-1    4.294092470724447E-1   -2.633491346828277E-3    3.338576382393663E-3   -2.460225331622033E-3    3.516647411113205E-3    4.054331202911037E-1    3.076736852000884E-1
 8.062073986050000E9     3.833167823365245E-1    4.291715023528933E-1   -2.652991840215473E-3    3.352132719773009E-3   -2.485700512463194E-3    3.541582002566118E-3    4.055772572054123E-1    3.075263831230672E-1
 8.062075077025000E9     3.833617950695402E-1    4.289948712562165E-1   -2.675122348065859E-3    3.356944405570546E-3   -2.486922830216536E-3    3.578113684443611E-3    4.057012185336155E-1    3.075297629319135E-1
 8.062076168000000E9     3.834884085165591E-1    4.290201080298143E-1   -2.649556324316741E-3    3.387506122557025E-3   -2.472791310052781E-3    3.552253773700341E-3    4.056552453985836E-1    3.074152059265620E-1
 8.062077258975000E9     3.836621670627149E-1    4.290074893847051E-1   -2.705396235072781E-3    3.398412544327176E-3   -2.511578659106728E-3    3.618897917613286E-3    4.057413849500958E-1    3.074518518957062E-1
 8.062078349950000E9     3.836350483070814E-1    4.287388196778473E-1   -2.679825943722447E-3    3.438874223611123E-3   -2.536538099293570E-3    3.616504426015985E-3    4.059213973860249E-1    3.073099644728118E-1
 8.062079440925000E9     3.838116044986943E-1    4.286518606533982E-1   -2.685521866496158E-3    3.435926456110574E-3   -2.482320570690071E-3    3.659345620315615E-3    4.058055855763726E-1    3.072750774039954E-1
 8.062080531900000E9     3.838542276828499E-1    4.284369104220987E-1   -2.709337077609218E-3    3.462748400945919E-3   -2.490440520030994E-3    3.650755017747356E-3    4.057094165364721E-1    3.072636992426409E-1
 8.062081622875000E9     3.839597558240661E-1    4.283915116902713E-1   -2.700597057981426E-3    3.469727523596491E-3   -2.474129204792719E-3    3.664507282921866E-3    4.058150152682559E-1    3.072232430769348E-1
 8.062082713850000E9     3.840914715099815E-1    4.282112681669993E-1   -2.694195039520365E-3    3.504614799082311E-3   -2.495599670177350E-3    3.696236634347389E-3    4.060004671743581E-1    3.069848948416726E-1
 8.062083804825000E9     3.841489465305427E-1    4.281155188462759E-1   -2.698372297995310E-3    3.521872758396424E-3   -2.542168906106366E-3    3.696333828043861E-3    4.060228942714580E-1    3.070861774500971E-1
 8.062084895800000E9     3.841715548706453E-1    4.278542201017524E-1   -2.732170063794595E-3    3.516011594277477E-3   -2.517914460501045E-3    3.732031411923597E-3    4.061551560379361E-1    3.070158241999995E-1
 8.062085986775000E9     3.842804252689452E-1    4.278290758550335E-1   -2.741402741609774E-3    3.558798393444509E-3   -2.558415096719101E-3    3.761568214955039E-3    4.060142828150096E-1    3.068684656679541E-1
 8.062087077750000E9     3.843723335624826E-1    4.276730127384753E-1   -2.765598950526748E-3    3.548657647465161E-3   -2.552644691585189E-3    3.749914208801496E-3    4.060836425093086E-1    3.068300737729465E-1
