#  HZ   S   RI   R     50.00 
! Rohde & Schwarz Vector Network Analyzer 
! Rohde-Schwarz,ZNB20-2Port,1311601062101988,3.16
! Created: UTC 3/20/2024, 11:15:35 PM
! freq[Hz]                re:S11                  im:S11                  re:S21                  im:S21                  re:S12                  im:S12                  re:S22                  im:S22
 8.061989694000000E9     3.762369021677591E-1    4.361216031087694E-1   -2.283983310577680E-3    2.598031385944208E-3   -2.140676003401783E-3    2.770394952339582E-3    4.023809497947632E-1    3.120024664460975E-1
 8.061990783200000E9     3.762949097694748E-1    4.361601439082826E-1   -2.262253132298662E-3    2.600083494680482E-3   -2.128127109003960E-3    2.778455263385591E-3    4.024764010088734E-1    3.118311519461208E-1
 8.061991872400000E9     3.764642635761187E-1    4.361245444363832E-1   -2.293797846472911E-3    2.614369109675334E-3   -2.156635504649511E-3    2.766760410433122E-3    4.025759083534602E-1    3.117877057814945E-1
 8.061992961600000E9     3.765083901906889E-1    4.359337893261400E-1   -2.290006899912945E-3    2.612109073188346E-3   -2.168105094022211E-3    2.791621694828351E-3    4.025156665884518E-1    3.118079396925748E-1
 8.061994050800000E9     3.766655525156712E-1    4.359303517725517E-1   -2.288109241216466E-3    2.618689198543542E-3   -2.121121360617623E-3    2.820861613434340E-3    4.024813474049972E-1    3.116780028340813E-1
 8.061995140000000E9     3.767001620870496E-1    4.358254914583489E-1   -2.292414562796813E-3    2.621409211676219E-3   -2.142151576208476E-3    2.793488349059979E-3    4.025868609030622E-1    3.115939967001420E-1
 8.061996229200000E9     3.767216516396203E-1    4.358340532322721E-1   -2.284584918821705E-3    2.617079193493331E-3   -2.183445652611601E-3    2.770134355352872E-3    4.027523849332822E-1    3.115563503155953E-1
 8.061997318400000E9     3.767629851468893E-1    4.356650053165921E-1   -2.294335145676077E-3    2.642544337429583E-3   -2.149643587130910E-3    2.817892690786642E-3    4.027184888723816E-1    3.114520809376272E-1
 8.061998407600000E9     3.770972920032271E-1    4.355745217469619E-1   -2.306481202335995E-3    2.654082351167227E-3   -2.149294899575387E-3    2.797266313960247E-3    4.026734701820272E-1    3.112884298674233E-1
 8.061999496800000E9     3.770892751278626E-1    4.355113752485852E-1   -2.293043892685822E-3    2.654733280877493E-3   -2.146543226997578E-3    2.805966214503429E-3    4.027082265156294E-1    3.113790484315105E-1
 8.062000586000000E9     3.771701887190900E-1    4.354470112721325E-1   -2.310962225499643E-3    2.654416871195680E-3   -2.176825249961217E-3    2.815493459547865E-3    4.028081804006123E-1    3.112783873096996E-1
 8.062001675200000E9     3.771902097588048E-1    4.352823397450533E-1   -2.300141285638388E-3    2.650988819876555E-3   -2.163474622842902E-3    2.779774339399311E-3    4.028534419998588E-1    3.112074044088265E-1
 8.062002764400000E9     3.772629404030914E-1    4.352104514312955E-1   -2.327978844723057E-3    2.667935116155712E-3   -2.171336074972837E-3    2.847365675293987E-3    4.029495532517150E-1    3.110467129504246E-1
 8.062003853600000E9     3.773424373753297E-1    4.351388655845339E-1   -2.336421938231800E-3    2.679738342051120E-3   -2.167492181993449E-3    2.826408012201925E-3    4.030584357961021E-1    3.110967141817178E-1
 8.062004942800000E9     3.774720202057466E-1    4.351613074304810E-1   -2.311318747453210E-3    2.673758230683450E-3   -2.132329052956504E-3    2.824130026819775E-3    4.028729367722334E-1    3.111092835836888E-1
 8.062006032000000E9     3.775744608512155E-1    4.350936303240092E-1   -2.320337128469423E-3    2.709780065516611E-3   -2.198734332240493E-3    2.864922114766804E-3    4.029954276265613E-1    3.110910898839150E-1
 8.062007121200000E9     3.775864661109510E-1    4.348876729035385E-1   -2.324776802663537E-3    2.713265331564420E-3   -2.157446440823140E-3    2.883989485554975E-3    4.031992720419905E-1    3.110297262238312E-1
 8.062008210400000E9     3.777156506231237E-1    4.348665088529728E-1   -2.341422544823780E-3    2.698431838099505E-3   -2.214695080244705E-3    2.863477846169926E-3    4.030842385480820E-1    3.109240288521091E-1
 8.062009299600000E9     3.778474446780098E-1    4.347428064602585E-1   -2.361073795446848E-3    2.700021053119051E-3   -2.187526208964391E-3    2.897487179483997E-3    4.031150068449161E-1    3.107613511627736E-1
 8.062010388800000E9     3.779482334246040E-1    4.347328202467187E-1   -2.348017629196027E-3    2.709378522155272E-3   -2.191730395674869E-3    2.887411228061953E-3    4.032456447697938E-1    3.107864783307820E-1
 8.062011478000000E9     3.779855362538318E-1    4.345747544274233E-1   -2.340739072917026E-3    2.744638099990497E-3   -2.188399558129573E-3    2.896138020146866E-3    4.031682785682500E-1    3.107735444711714E-1
 8.062012567200000E9     3.780460115221772E-1    4.346040429744869E-1   -2.368792741898093E-3    2.723681976815058E-3   -2.241799531155144E-3    2.931604472570380E-3    4.032354682819189E-1    3.106408047541792E-1
 8.062013656400000E9     3.781320931332927E-1    4.344809287072077E-1   -2.356977702530239E-3    2.746699640518588E-3   -2.166686126145998E-3    2.903186755651105E-3    4.032836077367549E-1    3.106217309133760E-1
 8.062014745600000E9     3.782013992896328E-1    4.344306770109017E-1   -2.346414004518965E-3    2.763740972268693E-3   -2.235033481331136E-3    2.913311141761515E-3    4.033352368175923E-1    3.105731232944457E-1
 8.062015834800000E9     3.782686794662323E-1    4.343035199257500E-1   -2.364462868689971E-3    2.763998313045064E-3   -2.200093531437068E-3    2.926583250764121E-3    4.034848181279283E-1    3.104999124683398E-1
 8.062016924000000E9     3.784812442236906E-1    4.343039421488792E-1   -2.357126871227635E-3    2.776667286414954E-3   -2.247030295663408E-3    2.930402314170863E-3    4.034594068394697E-1    3.105508217183653E-1
 8.062018013200000E9     3.784530968941575E-1    4.341010803255205E-1   -2.374052025802454E-3    2.760404535930874E-3   -2.256440618130578E-3    2.956124125537671E-3    4.034609886710567E-1    3.104667030479705E-1
 8.062019102400000E9     3.785819736158728E-1    4.340723560737884E-1   -2.389186672754942E-3    2.764167750353132E-3   -2.240139222824806E-3    2.960314373211499E-3    4.034773890243762E-1    3.104672822609720E-1
 8.062020191600000E9     3.787180966283521E-1    4.340103140750264E-1   -2.376883967380276E-3    2.779421461411541E-3   -2.256768718668671E-3    2.944021336500282E-3    4.034677527014809E-1    3.102455622719157E-1
 8.062021280800000E9     3.786913804477954E-1    4.338599838089253E-1   -2.396421262746162E-3    2.807775007173308E-3   -2.209947837475533E-3    2.956284759953902E-3    4.035905679982283E-1    3.102036079249578E-1
 8.062022370000000E9     3.787834454107998E-1    4.337945075524888E-1   -2.394886784009551E-3    2.811751671496891E-3   -2.238147962302262E-3    2.975583239730085E-3    4.035846762214723E-1    3.102081229935620E-1
 8.062023459200000E9     3.789645324096728E-1    4.337365984670115E-1   -2.358555207144953E-3    2.806969002808449E-3   -2.221976917881330E-3    2.979515700878595E-3    4.036102486424394E-1    3.102542985466441E-1
 8.062024548400000E9     3.789760328493376E-1    4.337342133138884E-1   -2.396130824345850E-3    2.820643242729499E-3   -2.249295690338615E-3    3.003363869139443E-3    4.036225640502310E-1    3.100994443974361E-1
 8.062025637600000E9     3.790821681077108E-1    4.337137964984000E-1   -2.407982917111894E-3    2.829576921821600E-3   -2.210729890775974E-3    2.995312350251439E-3    4.036408240796829E-1    3.100379035953353E-1
 8.062026726800000E9     3.792031618001158E-1    4.334966721142424E-1   -2.399825839696455E-3    2.841373395150028E-3   -2.255083612651981E-3    3.024779326998969E-3    4.038430093843607E-1    3.099465060172712E-1
 8.062027816000000E9     3.793250678666435E-1    4.333934502301141E-1   -2.413104466114138E-3    2.836807630086852E-3   -2.269360127900150E-3    3.015579768573206E-3    4.038322881675077E-1    3.099066792241268E-1
 8.062028905200000E9     3.793809734996016E-1    4.334030327492924E-1   -2.424514740740184E-3    2.876297845637713E-3   -2.288098730657500E-3    3.024248870124300E-3    4.039316992226085E-1    3.098735142923395E-1
 8.062029994400000E9     3.793733977167375E-1    4.332428017275997E-1   -2.443676182868037E-3    2.868503379063014E-3   -2.252943153688459E-3    3.033664998893132E-3    4.037900074412755E-1    3.098923332897575E-1
 8.062031083600000E9     3.795245231635183E-1    4.331485671430993E-1   -2.418985677635618E-3    2.862622306323132E-3   -2.263435497249449E-3    3.028399054949580E-3    4.039204814510710E-1    3.098363768628187E-1
 8.062032172800000E9     3.795700654428681E-1    4.331000627216115E-1   -2.435321695831028E-3    2.856471649565645E-3   -2.303913602956078E-3    3.068839732683707E-3    4.039022686437805E-1    3.097569248621251E-1
 8.062033262000000E9     3.796023191436187E-1    4.329555466608224E-1   -2.449043067237547E-3    2.910617641832244E-3   -2.269481699018739E-3    3.074267890641222E-3    4.039382771985146E-1    3.096224296161881E-1
 8.062034351200000E9     3.798386172092887E-1    4.327645305517983E-1   -2.446658068468496E-3    2.920848732518286E-3   -2.277410477304819E-3    3.026876062008767E-3    4.040367074332901E-1    3.095701772007290E-1
 8.062035440400000E9     3.798673686866861E-1    4.328464396080102E-1   -2.444634237084064E-3    2.899774709885662E-3   -2.256601147654740E-3    3.075197803795766E-3    4.040263887557544E-1    3.095093972674915E-1
 8.062036529600000E9     3.799594385843675E-1    4.326233843273709E-1   -2.457055527676875E-3    2.911135568251272E-3   -2.273226963181809E-3    3.101796872966958E-3    4.041463958843242E-1    3.094147542368014E-1
 8.062037618800000E9     3.800931495350074E-1    4.326325565441718E-1   -2.423463404947812E-3    2.912960777429492E-3   -2.297082403801455E-3    3.108658422173801E-3    4.041890731221527E-1    3.093372507777764E-1
 8.062038708000000E9     3.801695523826522E-1    4.325836418104730E-1   -2.472849399022382E-3    2.916301592300249E-3   -2.290348205821766E-3    3.139102147370334E-3    4.042595342118714E-1    3.094189510105319E-1
 8.062039797200000E9     3.802720280463843E-1    4.324115703065649E-1   -2.472239756912976E-3    2.931992141243111E-3   -2.299633510975361E-3    3.121241563893682E-3    4.042711347198381E-1    3.092076030513198E-1
 8.062040886400000E9     3.803692498121474E-1    4.323785078368123E-1   -2.472587239542120E-3    2.955939633750092E-3   -2.280994985153790E-3    3.152153395369517E-3    4.043312988071004E-1    3.091907498918162E-1
 8.062041975600000E9     3.805074239633867E-1    4.322784587552704E-1   -2.456473979648992E-3    2.954298908863275E-3   -2.264036929963374E-3    3.129167682904796E-3    4.043778798835214E-1    3.091723991207440E-1
 8.062043064800000E9     3.805034943754285E-1    4.322929795454855E-1   -2.469995041815744E-3    2.981863797168165E-3   -2.310669280261789E-3    3.179412808773831E-3    4.043623448026565E-1    3.090878362945579E-1
 8.062044154000000E9     3.805175160194303E-1    4.321138269756180E-1   -2.477212664663872E-3    2.989177859371661E-3   -2.331412135968763E-3    3.175605662063818E-3    4.043876090002434E-1    3.091872120324715E-1
 8.062045243200000E9     3.806554552692464E-1    4.319015913522847E-1   -2.478743628139659E-3    2.983677131484485E-3   -2.320784124598380E-3    3.189226931138493E-3    4.045156066800835E-1    3.090359513400369E-1
 8.062046332400000E9     3.808853237635324E-1    4.319571452186854E-1   -2.491772110208574E-3    3.019315580713262E-3   -2.333654113150988E-3    3.171618154156816E-3    4.047088162422991E-1    3.089858606139322E-1
 8.062047421600000E9     3.809094116521174E-1    4.317456576928312E-1   -2.497110441619571E-3    3.037579226952409E-3   -2.352160946020896E-3    3.182092920792380E-3    4.044868082774887E-1    3.089575780571186E-1
 8.062048510800000E9     3.810115501912708E-1    4.317119445357088E-1   -2.488119315767320E-3    3.022119992276405E-3   -2.359260215061908E-3    3.215003367644205E-3    4.045063476277110E-1    3.087526162207029E-1
 8.062049600000000E9     3.810812517672338E-1    4.316526302516646E-1   -2.493349927361567E-3    3.014937064055133E-3   -2.322814280874055E-3    3.230729090909887E-3    4.046466764483675E-1    3.087710209857859E-1
 8.062050689200000E9     3.810691837127109E-1    4.313956696539030E-1   -2.522187020738198E-3    3.067104106410967E-3   -2.364342797045614E-3    3.177847276172615E-3    4.046416413190440E-1    3.088769809352807E-1
 8.062051778400000E9     3.812471176280153E-1    4.313560577261559E-1   -2.518498278494098E-3    3.043910354726607E-3   -2.348677976682529E-3    3.253067079159777E-3    4.046881540668839E-1    3.088015384414502E-1
 8.062052867600000E9     3.813281759187169E-1    4.312444152065376E-1   -2.522430434669965E-3    3.071919574323631E-3   -2.358186560485273E-3    3.245731273592909E-3    4.047098649438799E-1    3.087140520828286E-1
 8.062053956800000E9     3.814099955011279E-1    4.312206067970210E-1   -2.539296595430288E-3    3.082295506463510E-3   -2.339721872763842E-3    3.277448089114542E-3    4.048981589292620E-1    3.085250768017975E-1
 8.062055046000000E9     3.815506139729279E-1    4.311274399859068E-1   -2.542134537005613E-3    3.100656390028907E-3   -2.331637909916947E-3    3.279036066798986E-3    4.048810011453176E-1    3.084681671657552E-1
 8.062056135200000E9     3.816084235512234E-1    4.309986544918167E-1   -2.532780130378181E-3    3.101334524278413E-3   -2.366145027898979E-3    3.299018205253122E-3    4.048712641712587E-1    3.084637931086333E-1
 8.062057224400000E9     3.817076073416504E-1    4.308757468213114E-1   -2.548405697645885E-3    3.137172250048802E-3   -2.374452338024577E-3    3.275727891294786E-3    4.048933465919270E-1    3.084243328283168E-1
 8.062058313600000E9     3.818542552739669E-1    4.308466583029587E-1   -2.566835902026848E-3    3.150847005291003E-3   -2.411740922314384E-3    3.305927596618009E-3    4.048985476061739E-1    3.083833689218112E-1
 8.062059402800000E9     3.819408331327310E-1    4.307055051628772E-1   -2.564747475440297E-3    3.141664343950222E-3   -2.382662796899082E-3    3.320265305617863E-3    4.049573964892281E-1    3.083490069748305E-1
 8.062060492000000E9     3.820785949037361E-1    4.306440674752132E-1   -2.575900437879301E-3    3.139378170497860E-3   -2.405324855645861E-3    3.331181731034523E-3    4.050848683182977E-1    3.084282099713768E-1
 8.062061581200000E9     3.822254233191125E-1    4.305239785029601E-1   -2.608851882444754E-3    3.191018407278682E-3   -2.405413337174980E-3    3.373878987995530E-3    4.051134882840024E-1    3.082131003571112E-1
 8.062062670400000E9     3.822318837442163E-1    4.304169083438770E-1   -2.599717608868643E-3    3.178754392106391E-3   -2.438308744007569E-3    3.374815302159136E-3    4.051692930113758E-1    3.081514716382199E-1
 8.062063759600000E9     3.822180517667788E-1    4.302491067041236E-1   -2.591840343701935E-3    3.203874001562742E-3   -2.425961858234399E-3    3.369949569236291E-3    4.051534903704733E-1    3.079772353133180E-1
 8.062064848800000E9     3.823672810872329E-1    4.301602757310423E-1   -2.594587199348313E-3    3.221262080050480E-3   -2.433822907428458E-3    3.382636601160914E-3    4.053142533378138E-1    3.079924610398853E-1
 8.062065938000000E9     3.823559604184281E-1    4.301627015976073E-1   -2.592435276653952E-3    3.235754621592807E-3   -2.407123290591343E-3    3.442791230888654E-3    4.051072858564076E-1    3.080138056404628E-1
 8.062067027200000E9     3.825730018040899E-1    4.298784845414543E-1   -2.598624007349612E-3    3.217504316312364E-3   -2.451868439722320E-3    3.418203609360578E-3    4.053204054864336E-1    3.079044604141661E-1
 8.062068116400000E9     3.827330710928744E-1    4.298017787084790E-1   -2.631578089246790E-3    3.258573238206103E-3   -2.428098404986959E-3    3.452639230494932E-3    4.052383763471184E-1    3.077929999070662E-1
 8.062069205600000E9     3.828292818929699E-1    4.297829165978796E-1   -2.636664678418109E-3    3.278345883849908E-3   -2.480073652145876E-3    3.449637202073354E-3    4.053725474729583E-1    3.078578723448199E-1
 8.062070294800000E9     3.828811633088800E-1    4.296419257973464E-1   -2.642851817790468E-3    3.289127228953266E-3   -2.419439604817109E-3    3.474444107647251E-3    4.054712810529679E-1    3.078364045340842E-1
 8.062071384000000E9     3.830113771755591E-1    4.294405756925431E-1   -2.624418055019152E-3    3.282258712946089E-3   -2.453974452096696E-3    3.482480891604107E-3    4.053813042811862E-1    3.076982437824381E-1
 8.062072473200000E9     3.830354891550003E-1    4.294559584961405E-1   -2.660838502867327E-3    3.330275547192722E-3   -2.463294923681127E-3    3.504551626656820E-3    4.054691540794432E-1    3.076503074296048E-1
 8.062073562400000E9     3.832011359140023E-1    4.291870742260289E-1   -2.667046650545929E-3    3.334398689826268E-3   -2.457695934129606E-3    3.488896776910544E-3    4.054076960137111E-1    3.075802210633160E-1
 8.062074651600000E9     3.832574970186900E-1    4.290537586136207E-1   -2.645723917944872E-3    3.317789232660583E-3   -2.460356526440194E-3    3.576158801360962E-3    4.055642667657166E-1    3.075656735508191E-1
 8.062075740800000E9     3.834080334281029E-1    4.290374057901102E-1   -2.657714693784708E-3    3.354651109001656E-3   -2.492592778563809E-3    3.551824602421165E-3    4.055907940070708E-1    3.075554902213857E-1
 8.062076830000000E9     3.834121630873874E-1    4.290147918295729E-1   -2.672358963738707E-3    3.370825950838490E-3   -2.498354145354690E-3    3.565812433142447E-3    4.055531574620821E-1    3.074464606395811E-1
 8.062077919200000E9     3.835376430032483E-1    4.287598359291286E-1   -2.671775506514925E-3    3.367805041727077E-3   -2.523504224256121E-3    3.584533686866262E-3    4.057069769556895E-1    3.073771565129418E-1
 8.062079008400000E9     3.837302519159834E-1    4.287887253729361E-1   -2.676827758467621E-3    3.429461758487381E-3   -2.492279819029236E-3    3.613028794723212E-3    4.057359108384259E-1    3.072243837672355E-1
 8.062080097600000E9     3.836927730395754E-1    4.287096180897796E-1   -2.712676590197142E-3    3.424840582051875E-3   -2.502057502499962E-3    3.613921625587062E-3    4.057735757417646E-1    3.071643891554619E-1
 8.062081186800000E9     3.839774715178612E-1    4.285472581599994E-1   -2.726743395720194E-3    3.425930992239035E-3   -2.472444421010114E-3    3.618974742001667E-3    4.058263232966688E-1    3.071664103192933E-1
 8.062082276000000E9     3.839413830954770E-1    4.283724608403151E-1   -2.705007667594685E-3    3.472552551600412E-3   -2.491920824118849E-3    3.666011216088616E-3    4.057281279848987E-1    3.070901247675908E-1
 8.062083365200000E9     3.841093282348547E-1    4.282067348191401E-1   -2.703855892726580E-3    3.477476888693887E-3   -2.523434076755150E-3    3.714058173883933E-3    4.057873660528106E-1    3.069548525095512E-1
 8.062084454400000E9     3.841177149248454E-1    4.280638195870423E-1   -2.716014043320845E-3    3.452295583978076E-3   -2.556120550711748E-3    3.677483393987901E-3    4.059284613744757E-1    3.069064503704866E-1
 8.062085543600000E9     3.844257200593293E-1    4.279467456438745E-1   -2.716611487708339E-3    3.485735897379840E-3   -2.589614695333803E-3    3.692409505595643E-3    4.061014365296635E-1    3.070373856376941E-1
 8.062086632800000E9     3.844982431738502E-1    4.278996698229001E-1   -2.742816800360817E-3    3.528318717695566E-3   -2.539063312448108E-3    3.705453334214035E-3    4.060290146131332E-1    3.069610549559483E-1
 8.062087722000000E9     3.845036435747430E-1    4.277318772446968E-1   -2.754170437338185E-3    3.565863859224396E-3   -2.561349889118741E-3    3.737375120296389E-3    4.059849816279428E-1    3.069649906364616E-1
