#  HZ   S   RI   R     50.00 
! Rohde & Schwarz Vector Network Analyzer 
! Rohde-Schwarz,ZNB20-2Port,1311601062101988,3.16
! Created: UTC 3/20/2024, 11:15:45 PM
! freq[Hz]                re:S11                  im:S11                  re:S21                  im:S21                  re:S12                  im:S12                  re:S22                  im:S22
 8.061993912000000E9     3.765558521684989E-1    4.360875373425136E-1   -2.306075002840738E-3    2.602585481456850E-3   -2.171247705467581E-3    2.720144624010627E-3    4.026091009454614E-1    3.117379793090026E-1
 8.061994995100000E9     3.765180553789926E-1    4.358366678649956E-1   -2.273400274035455E-3    2.609511982246094E-3   -2.181381361239255E-3    2.792144446855092E-3    4.027359162976057E-1    3.115491290383211E-1
 8.061996078200000E9     3.765944935343085E-1    4.358415601003920E-1   -2.288383986066730E-3    2.631075475595727E-3   -2.147893189911729E-3    2.786129861128411E-3    4.026561207583526E-1    3.113608330441741E-1
 8.061997161300000E9     3.767650850831653E-1    4.357669963023821E-1   -2.289774739804873E-3    2.603032284735648E-3   -2.160988404243671E-3    2.764161338812244E-3    4.025516767196725E-1    3.115564546673762E-1
 8.061998244400000E9     3.768570906053790E-1    4.357500057886279E-1   -2.326583633176666E-3    2.611981290268867E-3   -2.153626679227101E-3    2.796009942185786E-3    4.027512686515928E-1    3.114945026902943E-1
 8.061999327500000E9     3.769531494269978E-1    4.356945398921452E-1   -2.302974304203726E-3    2.629760805086030E-3   -2.157185926649552E-3    2.770559949063685E-3    4.027609680550751E-1    3.112782929097333E-1
 8.062000410600000E9     3.769429655513828E-1    4.356399229727608E-1   -2.308903932099366E-3    2.654790299024561E-3   -2.130627405888819E-3    2.799163192281344E-3    4.028071428028105E-1    3.111713501377696E-1
 8.062001493700000E9     3.771797867030245E-1    4.353269846004242E-1   -2.292309550912731E-3    2.654543293465364E-3   -2.163505691292129E-3    2.826532478787605E-3    4.029608533328390E-1    3.112857522884275E-1
 8.062002576800000E9     3.772638616327010E-1    4.353572157193171E-1   -2.295929847717160E-3    2.662174826484105E-3   -2.168662952922610E-3    2.829263101678715E-3    4.029568038993772E-1    3.113032403186173E-1
 8.062003659900000E9     3.772634919255706E-1    4.353288208600936E-1   -2.331626394971858E-3    2.655841642872860E-3   -2.160839939009555E-3    2.811115456296562E-3    4.029043703376470E-1    3.111793688699421E-1
 8.062004743000000E9     3.773588014615351E-1    4.351762123953292E-1   -2.326393429051709E-3    2.684398434578217E-3   -2.176652333698700E-3    2.842134313462314E-3    4.029944903374528E-1    3.111381744595305E-1
 8.062005826100000E9     3.774768942231024E-1    4.352021046615597E-1   -2.341081717092481E-3    2.675929908530213E-3   -2.169902066558036E-3    2.860138420510766E-3    4.029991846012358E-1    3.110236659348909E-1
 8.062006909200000E9     3.775909775887879E-1    4.350219112702716E-1   -2.320357062246108E-3    2.690284060890999E-3   -2.175490113756655E-3    2.846600436051542E-3    4.031354091725755E-1    3.109914320765620E-1
 8.062007992300000E9     3.776432928401700E-1    4.350538900841310E-1   -2.316492825232514E-3    2.691414375521028E-3   -2.184385727650540E-3    2.864721359622533E-3    4.032893380189270E-1    3.110236046639682E-1
 8.062009075400000E9     3.776595216963680E-1    4.349416357609759E-1   -2.347364106063634E-3    2.704446940477053E-3   -2.177234265094901E-3    2.861294107376333E-3    4.030236622591675E-1    3.108870533090817E-1
 8.062010158500000E9     3.778230645063636E-1    4.347980835941903E-1   -2.334171365150703E-3    2.695003120748542E-3   -2.174772382868197E-3    2.892902646749607E-3    4.033404455604850E-1    3.107447457499353E-1
 8.062011241600000E9     3.780037461753725E-1    4.347690665896845E-1   -2.345670926210635E-3    2.712750175033696E-3   -2.198798083012509E-3    2.847334220557538E-3    4.032675568003358E-1    3.106373242210213E-1
 8.062012324700000E9     3.779028626596209E-1    4.347237401402329E-1   -2.357286175273505E-3    2.710835489661919E-3   -2.227713541400180E-3    2.892514066098428E-3    4.032117143427510E-1    3.107491856735618E-1
 8.062013407800000E9     3.780892519949340E-1    4.346470083150632E-1   -2.344057766943436E-3    2.748677516974454E-3   -2.165031260070755E-3    2.935014471941467E-3    4.033078929861227E-1    3.106766801559963E-1
 8.062014490900000E9     3.781467346810324E-1    4.345236000855968E-1   -2.335824198876808E-3    2.711697394180872E-3   -2.183919008658195E-3    2.887781677066422E-3    4.033803057140853E-1    3.105079141298304E-1
 8.062015574000000E9     3.782676637924200E-1    4.344086254614505E-1   -2.335276739351196E-3    2.755692349898834E-3   -2.222454761571610E-3    2.909532148120512E-3    4.035046500141574E-1    3.105976907456833E-1
 8.062016657100000E9     3.784146014916955E-1    4.344387951958931E-1   -2.363211732221502E-3    2.763652849040268E-3   -2.234142558791179E-3    2.922951510821900E-3    4.034469328872924E-1    3.106242273503149E-1
 8.062017740200000E9     3.783529851628036E-1    4.342777461087968E-1   -2.371373139892551E-3    2.761798385600652E-3   -2.207624331452114E-3    2.940295439704316E-3    4.035102643035792E-1    3.103403819845935E-1
 8.062018823300000E9     3.785569401658221E-1    4.342385991560919E-1   -2.373886066135221E-3    2.765194583843666E-3   -2.201649678144833E-3    2.932111522930702E-3    4.035473473929390E-1    3.104295922054300E-1
 8.062019906400000E9     3.785800100578895E-1    4.340465353211944E-1   -2.378486141544361E-3    2.767149572161543E-3   -2.249660456782262E-3    2.913348153663365E-3    4.035993531639842E-1    3.102521708117498E-1
 8.062020989500000E9     3.787228569910979E-1    4.339099779701352E-1   -2.377014425133842E-3    2.762941420021592E-3   -2.232969898256634E-3    2.957609499091389E-3    4.035588323581213E-1    3.102874192895874E-1
 8.062022072600000E9     3.787402547500509E-1    4.339434411929490E-1   -2.367325835544826E-3    2.802549276222178E-3   -2.232320876897296E-3    2.947703456295281E-3    4.036041749589993E-1    3.101096491821756E-1
 8.062023155700000E9     3.788172372670700E-1    4.338838001102954E-1   -2.383068685821047E-3    2.788629176077612E-3   -2.220389871201373E-3    2.979052765788312E-3    4.036609385403256E-1    3.101357032275041E-1
 8.062024238800000E9     3.790533556426078E-1    4.336691110636475E-1   -2.398123191323605E-3    2.813068601356323E-3   -2.274398387602356E-3    2.953159346714718E-3    4.038070723303594E-1    3.101003056584729E-1
 8.062025321900000E9     3.789767814384050E-1    4.336659940414333E-1   -2.396894123228811E-3    2.829820133563843E-3   -2.254775205000184E-3    2.984467693850740E-3    4.037115592570673E-1    3.100746730922100E-1
 8.062026405000000E9     3.791121698433878E-1    4.336941208377993E-1   -2.407698595080109E-3    2.809462813492933E-3   -2.269340562925835E-3    3.002568257479193E-3    4.039017064804784E-1    3.101114236829004E-1
 8.062027488100000E9     3.792265262493336E-1    4.334847287026291E-1   -2.410797943300885E-3    2.840297560950155E-3   -2.221140814879808E-3    3.002614141664388E-3    4.038280258515980E-1    3.098840080294250E-1
 8.062028571200000E9     3.793406319235492E-1    4.332409842164889E-1   -2.384506284860032E-3    2.837924316302443E-3   -2.263834939598407E-3    3.009188233396441E-3    4.037906672631266E-1    3.098772235730045E-1
 8.062029654300000E9     3.792663669960822E-1    4.333612280801097E-1   -2.428765199608321E-3    2.840388146426766E-3   -2.235069912127805E-3    3.006475380127287E-3    4.037485106612900E-1    3.098730938719623E-1
 8.062030737400000E9     3.794092285377731E-1    4.332550003413411E-1   -2.430123292852705E-3    2.874909912076891E-3   -2.274065679926069E-3    3.035809765577096E-3    4.039690267223787E-1    3.098230517572134E-1
 8.062031820500000E9     3.795307145421563E-1    4.331112610186750E-1   -2.439691495963636E-3    2.855962936160126E-3   -2.266985251110860E-3    3.015986132184966E-3    4.040355698158624E-1    3.097806586410467E-1
 8.062032903600000E9     3.796967857477236E-1    4.330117892293411E-1   -2.431886069311582E-3    2.852975762604955E-3   -2.296368282313434E-3    3.049854515338383E-3    4.040212788030947E-1    3.096471921129303E-1
 8.062033986700000E9     3.796563879153611E-1    4.328933154952734E-1   -2.414517717285980E-3    2.882754456889546E-3   -2.263454092174345E-3    3.040209147051280E-3    4.041015394277916E-1    3.095412145745040E-1
 8.062035069800000E9     3.797531589711701E-1    4.330233374795154E-1   -2.447158417232602E-3    2.849582014176862E-3   -2.277553648307659E-3    3.058806086132803E-3    4.040500467625628E-1    3.094824915312008E-1
 8.062036152900000E9     3.798683404464770E-1    4.328241335164961E-1   -2.435997087260719E-3    2.920879583462085E-3   -2.270929332628647E-3    3.080077979005554E-3    4.041103549570678E-1    3.094984375315130E-1
 8.062037236000000E9     3.799352635037493E-1    4.326856682321419E-1   -2.420309818767716E-3    2.899989600144509E-3   -2.293664770505950E-3    3.086886358749394E-3    4.041396445626657E-1    3.094896532438732E-1
 8.062038319100000E9     3.800820321030651E-1    4.325753883274410E-1   -2.455908755599626E-3    2.897238573326277E-3   -2.305103858771480E-3    3.040163212816643E-3    4.042187029093391E-1    3.093723719736989E-1
 8.062039402200000E9     3.801631743697741E-1    4.326083783541727E-1   -2.450046693508103E-3    2.945489077817471E-3   -2.312942997735108E-3    3.084487849757519E-3    4.042945500974326E-1    3.092920090257397E-1
 8.062040485300000E9     3.802180308297145E-1    4.324552574635078E-1   -2.434042338741702E-3    2.944206175930885E-3   -2.285419890690849E-3    3.116152798044475E-3    4.044724800556418E-1    3.092311854332948E-1
 8.062041568400000E9     3.802487839568414E-1    4.323245023079290E-1   -2.456806278874435E-3    2.957204122607386E-3   -2.288901718578865E-3    3.139860591734355E-3    4.043129343081165E-1    3.093028855027564E-1
 8.062042651500000E9     3.804119769455488E-1    4.322865876259877E-1   -2.446796355678559E-3    2.951916835824709E-3   -2.290154423477507E-3    3.131625612435392E-3    4.044300523006003E-1    3.091750883637356E-1
 8.062043734600000E9     3.805284170666175E-1    4.322324536785370E-1   -2.472677762861933E-3    2.956694450482945E-3   -2.334182098936727E-3    3.141324316691503E-3    4.044921015755912E-1    3.091175925105283E-1
 8.062044817700000E9     3.805989259577633E-1    4.321781598370558E-1   -2.476245268393473E-3    3.001145651380540E-3   -2.355292152994417E-3    3.149957125665867E-3    4.044516861392695E-1    3.090685011917123E-1
 8.062045900800000E9     3.807000241445664E-1    4.321121299852220E-1   -2.505838435871900E-3    2.979482892047962E-3   -2.330269750879390E-3    3.160886044993255E-3    4.045400083293210E-1    3.090423081126887E-1
 8.062046983900000E9     3.806735631285215E-1    4.319322318717274E-1   -2.453422308792031E-3    2.989069881298207E-3   -2.306739844253596E-3    3.187006472610855E-3    4.046228205198892E-1    3.089992169528026E-1
 8.062048067000000E9     3.808640691409902E-1    4.319032343052154E-1   -2.523036630017287E-3    3.021648864505440E-3   -2.330107918787608E-3    3.177790007558571E-3    4.045882947210666E-1    3.090564863903320E-1
 8.062049150100000E9     3.809441486047996E-1    4.317381550722368E-1   -2.489635146356749E-3    3.015982449711390E-3   -2.378910975731737E-3    3.174715172414768E-3    4.046752763834237E-1    3.088167319899293E-1
 8.062050233200000E9     3.810213834284533E-1    4.316282500926008E-1   -2.513831695502788E-3    3.015232014805997E-3   -2.310068931768835E-3    3.222899972139637E-3    4.045756406212767E-1    3.089143550887089E-1
 8.062051316300000E9     3.811832678254485E-1    4.316101316847080E-1   -2.509726661309681E-3    3.059596217914789E-3   -2.350822140112388E-3    3.250019718604017E-3    4.048689384861746E-1    3.087287152709717E-1
 8.062052399400000E9     3.812400385353945E-1    4.314908502228814E-1   -2.508824168160404E-3    3.064113177990856E-3   -2.328715002520913E-3    3.205019907982590E-3    4.046824969258325E-1    3.087528059913213E-1
 8.062053482500000E9     3.813864997725377E-1    4.312980205857182E-1   -2.496446416400822E-3    3.062690341223168E-3   -2.379408582882985E-3    3.254580154039147E-3    4.047115492951417E-1    3.086628317596642E-1
 8.062054565600000E9     3.814960198814524E-1    4.312757196214212E-1   -2.531801948020696E-3    3.076981539410551E-3   -2.365501763348985E-3    3.239106663952946E-3    4.049190564839950E-1    3.086633461735774E-1
 8.062055648700000E9     3.814518328517764E-1    4.311410716674282E-1   -2.524964727243729E-3    3.089459788037833E-3   -2.350729879291846E-3    3.239026547342358E-3    4.047472127642509E-1    3.084970920036920E-1
 8.062056731800000E9     3.815944356697009E-1    4.311457112227098E-1   -2.566658200610299E-3    3.094472771932931E-3   -2.338965115928281E-3    3.267778110815630E-3    4.048936543066489E-1    3.083638096517776E-1
 8.062057814900000E9     3.817285536332788E-1    4.311146749159738E-1   -2.541906595123700E-3    3.121890455418747E-3   -2.404108338026591E-3    3.263303499800575E-3    4.049593877873068E-1    3.085387899676514E-1
 8.062058898000000E9     3.817999959678972E-1    4.308701072128876E-1   -2.567215659326313E-3    3.121287746516084E-3   -2.395219091847252E-3    3.272907064964860E-3    4.049771402199618E-1    3.084368663815564E-1
 8.062059981100000E9     3.819245504989591E-1    4.307730811133108E-1   -2.568658913746817E-3    3.133743065423193E-3   -2.426398196472370E-3    3.302133220065002E-3    4.049775373683984E-1    3.083974276679084E-1
 8.062061064200000E9     3.819311744293739E-1    4.306557321456311E-1   -2.576143220690298E-3    3.134712990016037E-3   -2.368274351048871E-3    3.319228615737082E-3    4.051125945941444E-1    3.082627787982023E-1
 8.062062147300000E9     3.821250142564720E-1    4.305621657272021E-1   -2.571480817032449E-3    3.161717734010275E-3   -2.385345074973624E-3    3.330486049355955E-3    4.051221836726159E-1    3.082519006599878E-1
 8.062063230400000E9     3.821882868543964E-1    4.304680340751674E-1   -2.603620123463509E-3    3.153605572089073E-3   -2.391927777803529E-3    3.330825567513541E-3    4.050635007716453E-1    3.080665853042222E-1
 8.062064313500000E9     3.822463498720908E-1    4.303950620258832E-1   -2.587194070233227E-3    3.200421000491147E-3   -2.423364262054890E-3    3.358212844090384E-3    4.051499663855438E-1    3.080437902640389E-1
 8.062065396600000E9     3.824201804188733E-1    4.302134725232374E-1   -2.592835171775423E-3    3.193404230809244E-3   -2.422931078047046E-3    3.356008705959732E-3    4.051973190390407E-1    3.079607398650245E-1
 8.062066479700000E9     3.824239049903899E-1    4.301871091402242E-1   -2.601432159901629E-3    3.208132234034262E-3   -2.416503309505732E-3    3.394027740288399E-3    4.053340732475236E-1    3.079072740876335E-1
 8.062067562800000E9     3.824643321959917E-1    4.300834746976869E-1   -2.598655096607175E-3    3.191201961398365E-3   -2.422431000103301E-3    3.386665692565941E-3    4.052646782302352E-1    3.080216249192130E-1
 8.062068645900000E9     3.826133447620677E-1    4.300406684039839E-1   -2.602226781153710E-3    3.216991372091634E-3   -2.445162782833387E-3    3.400580671701846E-3    4.053581499672738E-1    3.078430815653134E-1
 8.062069729000000E9     3.828325006990196E-1    4.297713929566457E-1   -2.607703780784482E-3    3.245841554579765E-3   -2.472245337947595E-3    3.414377945488349E-3    4.054243660586441E-1    3.077688506142243E-1
 8.062070812100000E9     3.828457824158305E-1    4.297182722806513E-1   -2.610158038670846E-3    3.249462782470808E-3   -2.439415018440192E-3    3.419341257577941E-3    4.055682650662090E-1    3.077702682047714E-1
 8.062071895200000E9     3.829207198214431E-1    4.295607068180871E-1   -2.637434288646421E-3    3.263984317839133E-3   -2.434997712392857E-3    3.463258146323363E-3    4.055006790282035E-1    3.077014989836181E-1
 8.062072978300000E9     3.831029337346903E-1    4.294351422897427E-1   -2.619582656830371E-3    3.284604670415312E-3   -2.478627425553967E-3    3.469599798705191E-3    4.053634604129251E-1    3.077805571035067E-1
 8.062074061400000E9     3.831849412629041E-1    4.294704678404867E-1   -2.649901541348728E-3    3.307322571200100E-3   -2.468132922711834E-3    3.485470932352854E-3    4.054947382993365E-1    3.075510028831817E-1
 8.062075144500000E9     3.832510076015240E-1    4.292745834476508E-1   -2.653960210103004E-3    3.338407803562449E-3   -2.479666049889118E-3    3.507768626149711E-3    4.057065518316444E-1    3.075421276622459E-1
 8.062076227600000E9     3.832909319592892E-1    4.291822238444687E-1   -2.692834370279805E-3    3.314557880192826E-3   -2.445958619402906E-3    3.483867365792928E-3    4.056708848458300E-1    3.073817282968775E-1
 8.062077310700000E9     3.833664281240275E-1    4.290414552870584E-1   -2.672856940541526E-3    3.329076139927567E-3   -2.451378589076624E-3    3.522104208267054E-3    4.057014154057620E-1    3.074596975877167E-1
 8.062078393800000E9     3.835788846548137E-1    4.288751915928513E-1   -2.693472012723883E-3    3.363862852451821E-3   -2.527253575247639E-3    3.531613517851677E-3    4.056524610784216E-1    3.072412182697795E-1
 8.062079476900000E9     3.836214985224135E-1    4.288579034082119E-1   -2.675792626793508E-3    3.400310864311780E-3   -2.470093595904865E-3    3.563123834082478E-3    4.057482447487355E-1    3.072013277118000E-1
 8.062080560000000E9     3.837340080037042E-1    4.287104620211992E-1   -2.675929515414414E-3    3.405936838861694E-3   -2.486193225556746E-3    3.617947057708327E-3    4.058536773129806E-1    3.071231280023948E-1
 8.062081643100000E9     3.838417033730839E-1    4.285960211911080E-1   -2.676507223937790E-3    3.409628757502346E-3   -2.519616502064672E-3    3.624055413971988E-3    4.058112395311849E-1    3.070817386406483E-1
 8.062082726200000E9     3.839335977141262E-1    4.283848378063776E-1   -2.693079074070911E-3    3.446663451564494E-3   -2.480975660179312E-3    3.596111925367448E-3    4.058437675374686E-1    3.069787742037984E-1
 8.062083809300000E9     3.840229127531525E-1    4.282815255191935E-1   -2.704402588906946E-3    3.444508153075564E-3   -2.520123638671721E-3    3.662767416673307E-3    4.058595880520093E-1    3.070219493981783E-1
 8.062084892400000E9     3.840139362595623E-1    4.281051140909309E-1   -2.732366509628175E-3    3.484629656579975E-3   -2.538058297272355E-3    3.634864694156855E-3    4.060031042205084E-1    3.070074544534662E-1
 8.062085975500000E9     3.841833591546674E-1    4.281413973722510E-1   -2.681490400659223E-3    3.490810649846457E-3   -2.529030587572355E-3    3.655847278412032E-3    4.059936562205609E-1    3.069167667928918E-1
 8.062087058600000E9     3.843198472232748E-1    4.279457767592296E-1   -2.722056397913976E-3    3.519639600303073E-3   -2.533593889673634E-3    3.674760302240156E-3    4.061471563694415E-1    3.069126938420321E-1
 8.062088141700000E9     3.844239197169436E-1    4.278619612733109E-1   -2.732490771260514E-3    3.510506112057438E-3   -2.556606831403741E-3    3.712537773380414E-3    4.059718822883339E-1    3.067494902345486E-1
 8.062089224800000E9     3.845653783904473E-1    4.277136861098528E-1   -2.760911284410244E-3    3.546735742054098E-3   -2.532383231800263E-3    3.755338802552957E-3    4.061030742434532E-1    3.068035713302351E-1
 8.062090307900000E9     3.845724936559372E-1    4.275437662353221E-1   -2.773355156248690E-3    3.546279398454049E-3   -2.586460001385389E-3    3.750925059467784E-3    4.061047451256253E-1    3.066443522745040E-1
 8.062091391000000E9     3.847974012976145E-1    4.274003699224147E-1   -2.759987116876848E-3    3.577042153254976E-3   -2.572891693667448E-3    3.789540039947111E-3    4.061440662666934E-1    3.065860924740543E-1
