#  HZ   S   RI   R     50.00 
! Rohde & Schwarz Vector Network Analyzer 
! Rohde-Schwarz,ZNB20-2Port,1311601062101988,3.16
! Created: UTC 3/20/2024, 11:15:54 PM
! freq[Hz]                re:S11                  im:S11                  re:S21                  im:S21                  re:S12                  im:S12                  re:S22                  im:S22
 8.062001061000000E9     3.769697114708108E-1    4.356053481214486E-1   -2.295630263002293E-3    2.628309990066815E-3   -2.138972499123889E-3    2.793542739312546E-3    4.028128386906994E-1    3.112011438569683E-1
 8.062002119975000E9     3.770022735828766E-1    4.355526143876626E-1   -2.287275240693850E-3    2.641610891406433E-3   -2.171796275105970E-3    2.789060326451239E-3    4.029811412133637E-1    3.112674398377909E-1
 8.062003178950000E9     3.772007535593657E-1    4.352813050761269E-1   -2.307327452840439E-3    2.666638881197092E-3   -2.190075597446362E-3    2.821239618877776E-3    4.029132906096513E-1    3.110967399814621E-1
 8.062004237925000E9     3.772633726588789E-1    4.353216699838429E-1   -2.332331526227684E-3    2.645956167895084E-3   -2.176298685072003E-3    2.858581039846193E-3    4.028448602857379E-1    3.110395427228561E-1
 8.062005296900000E9     3.773166621656843E-1    4.352349875742247E-1   -2.320641998518561E-3    2.660252854392693E-3   -2.192531759856166E-3    2.819015202807759E-3    4.030554493480458E-1    3.110659972637091E-1
 8.062006355875000E9     3.775933255556322E-1    4.351374191369913E-1   -2.308425576424996E-3    2.648838736892630E-3   -2.188371343710769E-3    2.833813865423220E-3    4.029929451033147E-1    3.109898948565106E-1
 8.062007414850000E9     3.774930654430547E-1    4.350162347688287E-1   -2.351724253053155E-3    2.683095007004583E-3   -2.210592489855397E-3    2.862539598547322E-3    4.031426201525316E-1    3.109545592617184E-1
 8.062008473825000E9     3.776487462727632E-1    4.349283268360705E-1   -2.318125843434771E-3    2.682920914513466E-3   -2.173890811141893E-3    2.848651509121071E-3    4.031072048454680E-1    3.109811191381212E-1
 8.062009532800000E9     3.776993302368455E-1    4.348701603218189E-1   -2.348126176400627E-3    2.707902972903541E-3   -2.226188764299600E-3    2.859148544560657E-3    4.031792057795924E-1    3.108265184452508E-1
 8.062010591775000E9     3.778115997372586E-1    4.347758617281051E-1   -2.321344098255864E-3    2.694323178358297E-3   -2.200285040069447E-3    2.844089120116638E-3    4.031235215400196E-1    3.106997746392891E-1
 8.062011650750000E9     3.777707714201192E-1    4.347265795891752E-1   -2.339209839571352E-3    2.718236155507359E-3   -2.215949040632758E-3    2.860280803706514E-3    4.032382490535871E-1    3.108068477947704E-1
 8.062012709725000E9     3.779302681535168E-1    4.346742259577921E-1   -2.364122860042648E-3    2.717887152950281E-3   -2.161614624119323E-3    2.847937740273058E-3    4.032799992039421E-1    3.106212560481622E-1
 8.062013768700000E9     3.780791679534212E-1    4.346507369835496E-1   -2.325965967786025E-3    2.705419720872581E-3   -2.196014339491188E-3    2.895216202133796E-3    4.033187697853060E-1    3.106248298307820E-1
 8.062014827675000E9     3.781113422140245E-1    4.345383696012692E-1   -2.358225482993517E-3    2.721341522916950E-3   -2.221242608831962E-3    2.903644195150025E-3    4.034835301171275E-1    3.105825341994518E-1
 8.062015886650000E9     3.780897956710814E-1    4.345280062023011E-1   -2.379743546597788E-3    2.742124260514572E-3   -2.200545683227040E-3    2.863459142686996E-3    4.034023497920099E-1    3.104147934275466E-1
 8.062016945625000E9     3.782005244818065E-1    4.343760753436359E-1   -2.341640347307201E-3    2.735077651972734E-3   -2.241553077151370E-3    2.904355774024604E-3    4.034273864217622E-1    3.104079089131396E-1
 8.062018004600000E9     3.783478102052214E-1    4.342713485264008E-1   -2.365306159711772E-3    2.732306998834907E-3   -2.214357580694978E-3    2.893046984218028E-3    4.035093592349757E-1    3.104220067091886E-1
 8.062019063575000E9     3.784039605736994E-1    4.341893409866001E-1   -2.351015489154273E-3    2.757832656277172E-3   -2.209006836704855E-3    2.889208692378492E-3    4.034635917264514E-1    3.104140330266096E-1
 8.062020122550000E9     3.785350209840568E-1    4.341673260808046E-1   -2.370199494375278E-3    2.745981851422050E-3   -2.236592686586318E-3    2.947907469411609E-3    4.035406362645179E-1    3.103005686421912E-1
 8.062021181525000E9     3.785979956692072E-1    4.340436412902001E-1   -2.379784818761349E-3    2.753215552412846E-3   -2.237486198991545E-3    2.933467242781960E-3    4.035726611990250E-1    3.102558901755766E-1
 8.062022240500000E9     3.787270037667718E-1    4.340009612318253E-1   -2.409291569847908E-3    2.794467135592054E-3   -2.218469448522388E-3    2.945732267755589E-3    4.036470262795631E-1    3.102081925849281E-1
 8.062023299475000E9     3.788131675920979E-1    4.339457149741575E-1   -2.375704275335383E-3    2.773169414442293E-3   -2.230708649902259E-3    2.980580076371058E-3    4.037061981153169E-1    3.100378148878758E-1
 8.062024358450000E9     3.788387522969661E-1    4.338124942068753E-1   -2.377574667777844E-3    2.775927208656713E-3   -2.229460950666434E-3    2.931066599756503E-3    4.036808635224449E-1    3.100626837726055E-1
 8.062025417425000E9     3.788115183398225E-1    4.337933530032019E-1   -2.402156924810346E-3    2.806792691767355E-3   -2.253152394199410E-3    2.924511414916012E-3    4.036850188143180E-1    3.099663560441767E-1
 8.062026476400000E9     3.790627126374927E-1    4.336203087874951E-1   -2.402595621986770E-3    2.811039612205705E-3   -2.252328723156816E-3    2.976101791217005E-3    4.037969029999519E-1    3.098762446494175E-1
 8.062027535375000E9     3.789971552895432E-1    4.334957558980688E-1   -2.391285893643769E-3    2.822367036171016E-3   -2.246053298281967E-3    3.034821304550620E-3    4.039248190170781E-1    3.097996910242081E-1
 8.062028594350000E9     3.792110081724073E-1    4.335310638344364E-1   -2.395447912386343E-3    2.792207826676995E-3   -2.269039597323963E-3    2.973388611620855E-3    4.039078618313356E-1    3.098597532489139E-1
 8.062029653325000E9     3.793709029120185E-1    4.333718713534199E-1   -2.397587380124693E-3    2.826246220047456E-3   -2.220620582159610E-3    3.024077089048510E-3    4.040338910728736E-1    3.098179641498496E-1
 8.062030712300000E9     3.793646033306154E-1    4.333654540112034E-1   -2.419488136519325E-3    2.837702015252899E-3   -2.250763975790321E-3    3.014215277536185E-3    4.038527755496532E-1    3.096841491649153E-1
 8.062031771275000E9     3.794653381287998E-1    4.332281606328058E-1   -2.426529460260819E-3    2.862266727653376E-3   -2.259778257159980E-3    3.019396750183154E-3    4.040509858621437E-1    3.097841097862868E-1
 8.062032830250000E9     3.795592246659568E-1    4.332002201464062E-1   -2.423285023747694E-3    2.845461183514455E-3   -2.260589093104204E-3    3.032677616045122E-3    4.039085742734834E-1    3.096654977117413E-1
 8.062033889225000E9     3.796127052920803E-1    4.330442310826577E-1   -2.430089369518868E-3    2.843485225698240E-3   -2.286320365517905E-3    3.055738855760799E-3    4.040693039899134E-1    3.095626152557684E-1
 8.062034948200000E9     3.796272661959821E-1    4.329727048827213E-1   -2.430888656488766E-3    2.868870113806683E-3   -2.288599955072769E-3    3.051788174994885E-3    4.041030642806865E-1    3.095547566839688E-1
 8.062036007175000E9     3.798227515017835E-1    4.328801243838576E-1   -2.415238536996403E-3    2.872704199250275E-3   -2.262523535591925E-3    3.056406098105240E-3    4.041197261747838E-1    3.095385645507716E-1
 8.062037066150000E9     3.798993151466120E-1    4.328377651475168E-1   -2.424796888752454E-3    2.906833660043376E-3   -2.288398753045342E-3    3.080977467017700E-3    4.042098705421385E-1    3.095201436765891E-1
 8.062038125125000E9     3.799658363665963E-1    4.327953299034950E-1   -2.458171918722905E-3    2.883438475252671E-3   -2.257895180789706E-3    3.072619833695949E-3    4.042221223985371E-1    3.093957233887472E-1
 8.062039184100000E9     3.800864794089088E-1    4.326339970843783E-1   -2.449967569824556E-3    2.895279926171591E-3   -2.294703659263762E-3    3.083415572945816E-3    4.043383735901951E-1    3.092086329622599E-1
 8.062040243075000E9     3.800252735780709E-1    4.325727210718151E-1   -2.445906083009476E-3    2.911349320441113E-3   -2.291610306066554E-3    3.120235932492645E-3    4.043061699457934E-1    3.093909982138171E-1
 8.062041302050000E9     3.802406709781249E-1    4.324330540684682E-1   -2.448358915241990E-3    2.931845412320684E-3   -2.251490958837052E-3    3.109815261891025E-3    4.042786020930665E-1    3.093309090180223E-1
 8.062042361025000E9     3.803414098186031E-1    4.323703935692908E-1   -2.461873655558580E-3    2.939991885526786E-3   -2.304696834031485E-3    3.104616600064966E-3    4.044169419649584E-1    3.091372318833163E-1
 8.062043420000000E9     3.804470240143169E-1    4.322105068813879E-1   -2.476384697692060E-3    2.937289199205814E-3   -2.311444776864333E-3    3.135282554866343E-3    4.043374421316375E-1    3.091721596345871E-1
 8.062044478975000E9     3.804177836099354E-1    4.320828694084478E-1   -2.491966224885742E-3    2.941228525967721E-3   -2.326663687863382E-3    3.140262610182776E-3    4.045367177648577E-1    3.090127977873134E-1
 8.062045537950000E9     3.805796201704252E-1    4.321712391800873E-1   -2.469183379451097E-3    2.958118103833151E-3   -2.316600903918118E-3    3.117281375686489E-3    4.043675436710554E-1    3.088380422685635E-1
 8.062046596925000E9     3.806679403205716E-1    4.319862192270134E-1   -2.495398638521388E-3    2.969245192424345E-3   -2.333450990239362E-3    3.159845678961997E-3    4.045026366810066E-1    3.088858171737329E-1
 8.062047655900000E9     3.808681411525779E-1    4.318609914576296E-1   -2.498368072765548E-3    2.971461316718949E-3   -2.336206987604029E-3    3.153989598876804E-3    4.045821281533248E-1    3.090379887740219E-1
 8.062048714875000E9     3.807847296631897E-1    4.318497797389607E-1   -2.519304315710437E-3    3.001047105116012E-3   -2.323602876934801E-3    3.206264218449987E-3    4.045462383568829E-1    3.088255524984462E-1
 8.062049773850000E9     3.809105152176252E-1    4.316833993715913E-1   -2.489276630872482E-3    3.021253229088439E-3   -2.336583355495533E-3    3.174667153501168E-3    4.046145112239874E-1    3.087698800758483E-1
 8.062050832825000E9     3.811078536464662E-1    4.317232562219043E-1   -2.498596912398752E-3    2.997107116701237E-3   -2.310485254258377E-3    3.195563794974904E-3    4.046103989056498E-1    3.086472110540566E-1
 8.062051891800000E9     3.811525968011880E-1    4.315412151474440E-1   -2.479511352176753E-3    3.006974980202410E-3   -2.361689155613102E-3    3.186319454476400E-3    4.045714140096708E-1    3.085714410363105E-1
 8.062052950775000E9     3.812441740172159E-1    4.314996900151478E-1   -2.522894406782084E-3    3.043475403219961E-3   -2.312866316887651E-3    3.212512727291329E-3    4.046482970943700E-1    3.085187918449032E-1
 8.062054009750000E9     3.812912528561557E-1    4.312815617727929E-1   -2.518453241386680E-3    3.037141969166018E-3   -2.354096080033448E-3    3.201903013008194E-3    4.048004681524550E-1    3.085084157222678E-1
 8.062055068725000E9     3.813821761761997E-1    4.312979276962099E-1   -2.508927316538114E-3    3.039815824480730E-3   -2.343057282431023E-3    3.249945498197447E-3    4.048082346738985E-1    3.084561029896964E-1
 8.062056127700000E9     3.815530121209361E-1    4.311331485146319E-1   -2.532119896085125E-3    3.067234453287310E-3   -2.333942334277126E-3    3.231740655894778E-3    4.048880486916934E-1    3.083927714798507E-1
 8.062057186675000E9     3.815087964814224E-1    4.311687238615068E-1   -2.541386153716200E-3    3.092129355473352E-3   -2.362107013969825E-3    3.244511315553927E-3    4.047893152252698E-1    3.083372764209694E-1
 8.062058245650000E9     3.815446789347168E-1    4.310713860636863E-1   -2.535710344345994E-3    3.085544903612816E-3   -2.379966838042189E-3    3.280100051836295E-3    4.050513765866567E-1    3.084333408634860E-1
 8.062059304625000E9     3.817413806428860E-1    4.309774137209706E-1   -2.548259947927146E-3    3.083134214705313E-3   -2.383950051483927E-3    3.266714496206387E-3    4.050248480404756E-1    3.083896661544740E-1
 8.062060363600000E9     3.819532269814732E-1    4.309216029125287E-1   -2.567027598432190E-3    3.115422487985566E-3   -2.419376163806929E-3    3.281935929689568E-3    4.049780159228641E-1    3.082898760216749E-1
 8.062061422575000E9     3.819583999039118E-1    4.307035572279995E-1   -2.567066122198273E-3    3.137666317594550E-3   -2.398069451384013E-3    3.279850330953378E-3    4.049685911861785E-1    3.082472345064330E-1
 8.062062481550000E9     3.819297127759222E-1    4.306693541985523E-1   -2.554871666425703E-3    3.141658668690687E-3   -2.425932436078567E-3    3.316887256355759E-3    4.051804615023053E-1    3.080808623842742E-1
 8.062063540525000E9     3.820756544325482E-1    4.304411024059355E-1   -2.584514817736210E-3    3.145264668577560E-3   -2.420638811928269E-3    3.334122825074685E-3    4.051555649003168E-1    3.080915891231767E-1
 8.062064599500000E9     3.823083551285866E-1    4.305328347593246E-1   -2.566781692849988E-3    3.155417150548730E-3   -2.385944179097505E-3    3.370781596617317E-3    4.052442192221647E-1    3.079184091197306E-1
 8.062065658475000E9     3.824384957767404E-1    4.302721757016764E-1   -2.592189066819323E-3    3.155154540080837E-3   -2.389060294848321E-3    3.372907326877660E-3    4.051670937770489E-1    3.079525991152072E-1
 8.062066717450000E9     3.823982744277252E-1    4.301483283951072E-1   -2.584641332606919E-3    3.169395396866109E-3   -2.438445629879989E-3    3.360487437150833E-3    4.053482541641079E-1    3.079233299967853E-1
 8.062067776425000E9     3.824775265626847E-1    4.301123779365198E-1   -2.589996138412284E-3    3.209506462389569E-3   -2.407567366858362E-3    3.372184679719754E-3    4.052755532549893E-1    3.079319535587980E-1
 8.062068835400000E9     3.825763050242317E-1    4.299259847513259E-1   -2.618062380331211E-3    3.214401567164582E-3   -2.431057264217946E-3    3.383973101610731E-3    4.054610955458628E-1    3.078296154093148E-1
 8.062069894375000E9     3.826502516617028E-1    4.298969704244602E-1   -2.589705064517977E-3    3.225859939142546E-3   -2.423315329658123E-3    3.405262939616240E-3    4.053643063263752E-1    3.077144195212640E-1
 8.062070953350000E9     3.827342767634606E-1    4.297668673266536E-1   -2.595153405136210E-3    3.234540574202646E-3   -2.435328766345920E-3    3.382379408472842E-3    4.054136172266438E-1    3.076362793215385E-1
 8.062072012325000E9     3.828932200454164E-1    4.296574526585626E-1   -2.628898502628068E-3    3.264067805822286E-3   -2.500369468900714E-3    3.459911202231558E-3    4.054826452773644E-1    3.075227530180765E-1
 8.062073071300000E9     3.829685860933265E-1    4.296940065562577E-1   -2.619972460642541E-3    3.260208427328479E-3   -2.460974956651535E-3    3.490756291657001E-3    4.056496817758338E-1    3.076599765658970E-1
 8.062074130275000E9     3.829381114739699E-1    4.294634785081368E-1   -2.653836302416324E-3    3.276161984498100E-3   -2.469290727049371E-3    3.477281994345819E-3    4.055746272230444E-1    3.075891975841377E-1
 8.062075189250000E9     3.831049414699708E-1    4.294087235248598E-1   -2.641492911919177E-3    3.298438665851142E-3   -2.464606108809673E-3    3.453084090915184E-3    4.054244921171334E-1    3.074326485485674E-1
 8.062076248225000E9     3.831839032819663E-1    4.292428747757651E-1   -2.647877901762007E-3    3.323603993563988E-3   -2.479635240295828E-3    3.550662297596884E-3    4.056353021542670E-1    3.074481481267523E-1
 8.062077307200000E9     3.833980447043328E-1    4.291021594446832E-1   -2.629501231148733E-3    3.340342091354343E-3   -2.460855929146480E-3    3.534906721861288E-3    4.056529230096341E-1    3.074101197619213E-1
 8.062078366175000E9     3.834666592835202E-1    4.291077615421018E-1   -2.670378433970252E-3    3.330047990893506E-3   -2.477022431900703E-3    3.532997901599714E-3    4.057527514504384E-1    3.073911264017455E-1
 8.062079425150000E9     3.835107136887863E-1    4.288898505015879E-1   -2.674984405315885E-3    3.346496575741713E-3   -2.493769968736995E-3    3.510135313190912E-3    4.058192898274141E-1    3.071497281643424E-1
 8.062080484125000E9     3.836025314582414E-1    4.287851825286810E-1   -2.683158436168014E-3    3.375992543557496E-3   -2.508103621562471E-3    3.569007798642345E-3    4.057425999436154E-1    3.071206674073604E-1
 8.062081543100000E9     3.837617167851644E-1    4.286780329958518E-1   -2.659705556458879E-3    3.400836979492917E-3   -2.537129446127885E-3    3.549706277096139E-3    4.057665183526050E-1    3.071325081697748E-1
 8.062082602075000E9     3.839487838177347E-1    4.285354842707337E-1   -2.706726232498435E-3    3.385463371893847E-3   -2.520574904273588E-3    3.562258371838286E-3    4.059079345000922E-1    3.070521109063911E-1
 8.062083661050000E9     3.840020371228896E-1    4.285602789149631E-1   -2.688402836392792E-3    3.422240138236009E-3   -2.492755591925957E-3    3.584601478770822E-3    4.059859209456748E-1    3.070373546737474E-1
 8.062084720025000E9     3.840676598907903E-1    4.283464142524123E-1   -2.702284718433042E-3    3.408306820234549E-3   -2.531456156751347E-3    3.597842734827704E-3    4.059173811768820E-1    3.069082643375876E-1
 8.062085779000000E9     3.841791867599937E-1    4.282138578353367E-1   -2.727674897340445E-3    3.439300757446568E-3   -2.515838493043651E-3    3.634047679442864E-3    4.059785747762659E-1    3.069611086894665E-1
 8.062086837975000E9     3.841595350549148E-1    4.281223511131896E-1   -2.741520990432482E-3    3.438295034881799E-3   -2.540425823255000E-3    3.685682944954542E-3    4.059750028382950E-1    3.069676559854786E-1
 8.062087896950000E9     3.842863804927611E-1    4.279906615303969E-1   -2.722363639023195E-3    3.487185489181023E-3   -2.550820044319160E-3    3.692770597229346E-3    4.059619850752239E-1    3.067026604477590E-1
 8.062088955925000E9     3.844947191413112E-1    4.277276682233349E-1   -2.732726418815345E-3    3.510032303254673E-3   -2.529300007540028E-3    3.672066316295060E-3    4.062769134599870E-1    3.067219781101286E-1
 8.062090014900000E9     3.846212824655817E-1    4.278072603179492E-1   -2.723538391027689E-3    3.528433667186910E-3   -2.528497630217089E-3    3.670996624976709E-3    4.061740029862925E-1    3.066806679498312E-1
 8.062091073875000E9     3.846867157737163E-1    4.276067489763711E-1   -2.757609147316071E-3    3.503985738404769E-3   -2.570300062988473E-3    3.695756891529817E-3    4.060067485258791E-1    3.065709045236152E-1
 8.062092132850000E9     3.847664331078369E-1    4.274811811467967E-1   -2.732304251779989E-3    3.553028573787739E-3   -2.546894952493542E-3    3.766304686877622E-3    4.062306829293315E-1    3.065562516959776E-1
 8.062093191825000E9     3.848119089470980E-1    4.272902409286795E-1   -2.773622543656139E-3    3.587716643136476E-3   -2.566419593239356E-3    3.757464745542742E-3    4.062527442128471E-1    3.064573399948899E-1
 8.062094250800000E9     3.849815183460912E-1    4.272207414443679E-1   -2.781520519143833E-3    3.579083942594295E-3   -2.569896445437985E-3    3.798176933230307E-3    4.062818706392355E-1    3.065135496277456E-1
 8.062095309775000E9     3.850949106837756E-1    4.271306322592521E-1   -2.766948317664047E-3    3.628818035440521E-3   -2.579803590849794E-3    3.780486536668598E-3    4.063548365930703E-1    3.062148796935853E-1
 8.062096368750000E9     3.851229754463775E-1    4.269610688285080E-1   -2.809041648037952E-3    3.655784274783188E-3   -2.598408189850784E-3    3.843608410965879E-3    4.063924936819710E-1    3.062887722767659E-1
