#  HZ   S   RI   R     50.00 
! Rohde & Schwarz Vector Network Analyzer 
! Rohde-Schwarz,ZNB20-2Port,1311601062101988,3.16
! Created: UTC 3/20/2024, 11:16:09 PM
! freq[Hz]                re:S11                  im:S11                  re:S21                  im:S21                  re:S12                  im:S12                  re:S22                  im:S22
 8.062012394000000E9     3.777848014152292E-1    4.348483912879040E-1   -2.329267239853916E-3    2.672893382530385E-3   -2.181224262090134E-3    2.830327748074537E-3    4.033335339103492E-1    3.106271657031319E-1
 8.062013412125000E9     3.778865264315900E-1    4.346413348730040E-1   -2.337272717378564E-3    2.672724375012660E-3   -2.187032273273558E-3    2.852133363848230E-3    4.033032068827491E-1    3.105310658455003E-1
 8.062014430250000E9     3.778329134915747E-1    4.347267237170494E-1   -2.336631954715754E-3    2.700998115544593E-3   -2.172102817864863E-3    2.845114661587515E-3    4.032751522278031E-1    3.105632331721371E-1
 8.062015448375000E9     3.780392685617142E-1    4.345643044114059E-1   -2.351772336875474E-3    2.721128002164775E-3   -2.190152007423200E-3    2.884308126665765E-3    4.033790100229394E-1    3.105456386746678E-1
 8.062016466500000E9     3.781154207797058E-1    4.345087367897640E-1   -2.319426774444560E-3    2.718073068378287E-3   -2.211394407963287E-3    2.867866615981514E-3    4.036161583313786E-1    3.104777847827151E-1
 8.062017484625000E9     3.782170657051513E-1    4.344274342042995E-1   -2.346711174931405E-3    2.698863477191503E-3   -2.202939652254505E-3    2.894473049709721E-3    4.035628359877075E-1    3.103547924695763E-1
 8.062018502750000E9     3.783644219841172E-1    4.343514286267584E-1   -2.354851983241949E-3    2.738204945755040E-3   -2.203352410260079E-3    2.908714413281246E-3    4.033756249100717E-1    3.104083335024017E-1
 8.062019520875000E9     3.783581658557524E-1    4.343568622917865E-1   -2.369429849578828E-3    2.721581108378047E-3   -2.189745600163532E-3    2.887360469056010E-3    4.034429035513268E-1    3.103380374203741E-1
 8.062020539000000E9     3.783777644556929E-1    4.341587991993540E-1   -2.366041407129282E-3    2.745049005380819E-3   -2.203466515923289E-3    2.926647449261248E-3    4.035872765201314E-1    3.102600340777190E-1
 8.062021557125000E9     3.785395692448810E-1    4.341158498795718E-1   -2.347704287405372E-3    2.718440269606312E-3   -2.226665351981078E-3    2.912169952201756E-3    4.035820415906173E-1    3.101243144513205E-1
 8.062022575250000E9     3.786365270780297E-1    4.340247450673557E-1   -2.351725743746429E-3    2.754256865800450E-3   -2.242416459186293E-3    2.928536682124467E-3    4.035074773020724E-1    3.102480725702096E-1
 8.062023593375000E9     3.786953433068829E-1    4.341126759322103E-1   -2.345053902690209E-3    2.742595794386353E-3   -2.200846369352619E-3    2.955262472438101E-3    4.037906454151636E-1    3.100281000607676E-1
 8.062024611500000E9     3.788165365971733E-1    4.338812055288666E-1   -2.379315389971761E-3    2.784213143349970E-3   -2.255424635216423E-3    2.923301533039278E-3    4.037853034392134E-1    3.099220172235772E-1
 8.062025629625000E9     3.788690157144366E-1    4.338239481055975E-1   -2.367314051138598E-3    2.764239622375042E-3   -2.221127967420940E-3    2.938150516327415E-3    4.038314288869133E-1    3.101013713496212E-1
 8.062026647750000E9     3.790301045091056E-1    4.337268254634070E-1   -2.378463773607011E-3    2.798623948596456E-3   -2.211277383049741E-3    2.914714131239069E-3    4.038549077697485E-1    3.099096310078218E-1
 8.062027665875000E9     3.789307442463873E-1    4.336191215806885E-1   -2.389713718950718E-3    2.784180641627111E-3   -2.222484353521358E-3    2.952612859284932E-3    4.039036278222444E-1    3.099028693310450E-1
 8.062028684000000E9     3.791935795400281E-1    4.335626943038799E-1   -2.382928353910447E-3    2.786535562351512E-3   -2.216909163071113E-3    2.951379755513996E-3    4.039062968523198E-1    3.097859554520678E-1
 8.062029702125000E9     3.792361659272395E-1    4.334905929144533E-1   -2.379815081408188E-3    2.774238240074802E-3   -2.260033513612816E-3    2.954268436565642E-3    4.040076874452394E-1    3.098110272660048E-1
 8.062030720250000E9     3.792813589138268E-1    4.333923547235096E-1   -2.395191272611362E-3    2.810689010272302E-3   -2.286395558695276E-3    3.008110019617809E-3    4.039537115662832E-1    3.095958589069330E-1
 8.062031738375000E9     3.793828485448210E-1    4.333748623609175E-1   -2.384071617354384E-3    2.822810972901673E-3   -2.256486162960453E-3    2.981050799080058E-3    4.039386277625880E-1    3.097966444950339E-1
 8.062032756500000E9     3.793708615310419E-1    4.333535652193309E-1   -2.387544510700547E-3    2.818305550474370E-3   -2.270907802649845E-3    3.014508864703589E-3    4.041124158397478E-1    3.096588935284009E-1
 8.062033774625000E9     3.795462481235997E-1    4.332528784073622E-1   -2.427289243353104E-3    2.858621277944519E-3   -2.248119358096307E-3    3.010326903477585E-3    4.040861678082360E-1    3.095386675715370E-1
 8.062034792750000E9     3.796359255846888E-1    4.331507356572022E-1   -2.420754961415425E-3    2.835779569461753E-3   -2.267944739848335E-3    3.047299340804748E-3    4.040168099094413E-1    3.095040299074484E-1
 8.062035810875000E9     3.797295944495294E-1    4.330693777223388E-1   -2.408279824431723E-3    2.854429693516521E-3   -2.244681562323559E-3    3.013340769055515E-3    4.041992305272419E-1    3.094721940084676E-1
 8.062036829000000E9     3.796750734444364E-1    4.329587656204482E-1   -2.407972550972444E-3    2.862833915300590E-3   -2.309454078348039E-3    3.036107017543141E-3    4.042978718181052E-1    3.094858265664946E-1
 8.062037847125000E9     3.798058889046578E-1    4.328390922032893E-1   -2.436735232207091E-3    2.880055214022344E-3   -2.260605381097026E-3    3.051673743854118E-3    4.041194454567649E-1    3.094253499050357E-1
 8.062038865250000E9     3.799365744391466E-1    4.329223011276219E-1   -2.429192649132112E-3    2.862933187307354E-3   -2.271755977521204E-3    3.034422641225193E-3    4.042651964954352E-1    3.093133854195701E-1
 8.062039883375000E9     3.800601159035035E-1    4.327548580283855E-1   -2.448611062548178E-3    2.894381441638989E-3   -2.303509477974167E-3    3.038970838674826E-3    4.042913316986135E-1    3.092476595383337E-1
 8.062040901500000E9     3.800560771602191E-1    4.326700192355327E-1   -2.430945002758536E-3    2.916016031570551E-3   -2.295653017198755E-3    3.037243039243924E-3    4.043667510471076E-1    3.092096128764421E-1
 8.062041919625000E9     3.801473625591911E-1    4.325459481989438E-1   -2.440603708110166E-3    2.912622296011262E-3   -2.300838288118628E-3    3.077635410246406E-3    4.042843486364153E-1    3.090930589416385E-1
 8.062042937750000E9     3.802741216193035E-1    4.325675512132454E-1   -2.475461106009969E-3    2.915291136133550E-3   -2.275702624064349E-3    3.076443278849881E-3    4.044183709116356E-1    3.090435089412520E-1
 8.062043955875000E9     3.803019477937477E-1    4.324181649901881E-1   -2.460369365593144E-3    2.908168479607697E-3   -2.327086406454112E-3    3.078599175888824E-3    4.043522635776952E-1    3.090712122640173E-1
 8.062044974000000E9     3.805249671831683E-1    4.324724590889750E-1   -2.461860400667607E-3    2.900536093474106E-3   -2.300576602196398E-3    3.135905944209930E-3    4.044871560582328E-1    3.089538889102790E-1
 8.062045992125000E9     3.805577030862076E-1    4.322085549966938E-1   -2.476084030354766E-3    2.959156210176656E-3   -2.327134830340611E-3    3.150949500917075E-3    4.045417105018628E-1    3.089592320923621E-1
 8.062047010250000E9     3.806155674890327E-1    4.321371871775430E-1   -2.479889633270818E-3    2.961405829825727E-3   -2.300422367424390E-3    3.102644950571977E-3    4.044541245931666E-1    3.088760962301221E-1
 8.062048028375000E9     3.806819313486580E-1    4.320725448163049E-1   -2.475217656074883E-3    2.966287843588418E-3   -2.323283216453377E-3    3.144484631930235E-3    4.045116969560182E-1    3.087239133613229E-1
 8.062049046500000E9     3.807742108366827E-1    4.320052705165100E-1   -2.477900866897143E-3    2.964186267338411E-3   -2.339506976565931E-3    3.132243105649323E-3    4.045822409888372E-1    3.087591062299046E-1
 8.062050064625000E9     3.807716795631059E-1    4.318511830203498E-1   -2.503942224305559E-3    2.969568999515396E-3   -2.328484390295511E-3    3.164164092829927E-3    4.047408198747339E-1    3.089179000793800E-1
 8.062051082750000E9     3.809552705023104E-1    4.317765031026110E-1   -2.479097445834382E-3    2.986398071090738E-3   -2.357966828991971E-3    3.136067631893483E-3    4.047521447763818E-1    3.086210803143413E-1
 8.062052100875000E9     3.809734856727517E-1    4.316184214713280E-1   -2.487734375767557E-3    2.981931597243720E-3   -2.330614275104899E-3    3.127045795200108E-3    4.046030041885583E-1    3.087575228391134E-1
 8.062053119000000E9     3.812467193628843E-1    4.315524212922343E-1   -2.497956141007617E-3    3.017597149248779E-3   -2.351519911687512E-3    3.177362927390276E-3    4.046739645618743E-1    3.086403997519396E-1
 8.062054137125000E9     3.812787304247895E-1    4.315227517665188E-1   -2.512899897109396E-3    3.000506342541090E-3   -2.320429130481833E-3    3.186236001378487E-3    4.046147789010577E-1    3.085928053671262E-1
 8.062055155250000E9     3.814116430737818E-1    4.313881941424720E-1   -2.506301954751538E-3    3.046488377295399E-3   -2.327063667426961E-3    3.201884376842829E-3    4.048099214495248E-1    3.084697754613591E-1
 8.062056173375000E9     3.813717789000017E-1    4.314467504647332E-1   -2.517566159787645E-3    3.006602011583995E-3   -2.349966453954139E-3    3.219574116856247E-3    4.047962496883588E-1    3.083874840757248E-1
 8.062057191500000E9     3.815077185984367E-1    4.312645111555592E-1   -2.547229189762205E-3    3.044866509163389E-3   -2.358169793944001E-3    3.220841863708220E-3    4.049482325111250E-1    3.083368813828073E-1
 8.062058209625000E9     3.816896652220175E-1    4.312369517080283E-1   -2.544372929144906E-3    3.052949768443575E-3   -2.373606389696594E-3    3.254265969134178E-3    4.049875281438478E-1    3.082935512004000E-1
 8.062059227750000E9     3.816521809348280E-1    4.311657201527430E-1   -2.548524840487673E-3    3.066789931037298E-3   -2.375646554298176E-3    3.228640954492374E-3    4.050947733923058E-1    3.083383896154160E-1
 8.062060245875000E9     3.817473998415680E-1    4.309522329905182E-1   -2.526481171548440E-3    3.069841250327817E-3   -2.357615026003164E-3    3.263489597326569E-3    4.049640395661526E-1    3.082524577566659E-1
 8.062061264000000E9     3.818410447228545E-1    4.308200929537780E-1   -2.532802845022827E-3    3.081610243061160E-3   -2.367095477871005E-3    3.286807660212125E-3    4.051069118211281E-1    3.081143456074270E-1
 8.062062282125000E9     3.819213870225945E-1    4.308580783461072E-1   -2.565830194010330E-3    3.121682088413668E-3   -2.378491602358153E-3    3.275939701565167E-3    4.051095766964142E-1    3.080951645787761E-1
 8.062063300250000E9     3.820091977812849E-1    4.307253758550212E-1   -2.536350087459911E-3    3.123768289452112E-3   -2.379954476830107E-3    3.295859270521754E-3    4.051565297409301E-1    3.080427299689146E-1
 8.062064318375000E9     3.820673372910928E-1    4.305861717278862E-1   -2.557655033294309E-3    3.134906612241360E-3   -2.408164857626982E-3    3.299701819079696E-3    4.052600844637727E-1    3.080562823656280E-1
 8.062065336500000E9     3.821864191052567E-1    4.306093592610044E-1   -2.553998244498669E-3    3.119211112848680E-3   -2.372341890686940E-3    3.351289677884035E-3    4.053402585879187E-1    3.078900902250631E-1
 8.062066354625000E9     3.821909792918006E-1    4.304406633710161E-1   -2.579571470720527E-3    3.154916837353180E-3   -2.385983218560236E-3    3.316925065709706E-3    4.053225609812787E-1    3.078699150088238E-1
 8.062067372750000E9     3.822880319097937E-1    4.303840030708959E-1   -2.573634815260096E-3    3.133233085777459E-3   -2.387723752812185E-3    3.321716872297387E-3    4.052781958239419E-1    3.077540640622650E-1
 8.062068390875000E9     3.824793280256115E-1    4.301107345882268E-1   -2.569260044743764E-3    3.191912908920541E-3   -2.383540122131736E-3    3.348317099443729E-3    4.053532575283549E-1    3.077792435952421E-1
 8.062069409000000E9     3.824983924448491E-1    4.302124149964777E-1   -2.604062440411439E-3    3.184084819355384E-3   -2.399916960608327E-3    3.366003738883377E-3    4.054509802553209E-1    3.077741792143449E-1
 8.062070427125000E9     3.826376383301964E-1    4.299500833356349E-1   -2.589359080991225E-3    3.202422668034613E-3   -2.409251330203253E-3    3.379409200432426E-3    4.053579334746782E-1    3.076888141954382E-1
 8.062071445250000E9     3.827007152911741E-1    4.299209975773057E-1   -2.596294679934762E-3    3.191275987539462E-3   -2.425431250252023E-3    3.402516191421391E-3    4.054566297763538E-1    3.074952189907580E-1
 8.062072463375000E9     3.829388719589661E-1    4.296928524950949E-1   -2.612748076907299E-3    3.210527517238007E-3   -2.459170421828375E-3    3.408804810027274E-3    4.054615081004539E-1    3.075910582792248E-1
 8.062073481500000E9     3.828388771447214E-1    4.296758074659734E-1   -2.624405244385512E-3    3.242416637132903E-3   -2.474305605813889E-3    3.407832731212707E-3    4.056009106749565E-1    3.075960222378603E-1
 8.062074499625000E9     3.829093330038249E-1    4.295968264848295E-1   -2.609120484309909E-3    3.241473128164081E-3   -2.444515297414295E-3    3.433172592085375E-3    4.055203552876278E-1    3.074763584631156E-1
 8.062075517750000E9     3.830379186556219E-1    4.294958510149993E-1   -2.627482984667417E-3    3.268918325531420E-3   -2.456577180467852E-3    3.412973145757712E-3    4.056688710285265E-1    3.074916688580369E-1
 8.062076535875000E9     3.831902188199402E-1    4.293682721794784E-1   -2.627955913832011E-3    3.260096416925239E-3   -2.456412361589165E-3    3.477835167743250E-3    4.057503081673428E-1    3.073951185621852E-1
 8.062077554000000E9     3.832747312907690E-1    4.292499695500320E-1   -2.645386356624772E-3    3.283902710025553E-3   -2.482348596211808E-3    3.487103232413186E-3    4.056375864001784E-1    3.071930754523918E-1
 8.062078572125000E9     3.833083433941858E-1    4.291171409200459E-1   -2.669263016489741E-3    3.281067621816065E-3   -2.476836910876803E-3    3.481963570937708E-3    4.057159797139595E-1    3.070915985712436E-1
 8.062079590250000E9     3.834279884225431E-1    4.290730076679241E-1   -2.656707278371114E-3    3.310938998777490E-3   -2.429615501261804E-3    3.529401107305491E-3    4.057460186394060E-1    3.071911054420962E-1
 8.062080608375000E9     3.836431022756203E-1    4.289600568537199E-1   -2.669483333402784E-3    3.352017093482817E-3   -2.464229780250161E-3    3.510358714591317E-3    4.058381020784498E-1    3.071229326845612E-1
 8.062081626500000E9     3.836030184308347E-1    4.288849629887761E-1   -2.649100718108059E-3    3.333478072070279E-3   -2.476425663304099E-3    3.480585081887663E-3    4.058866443200572E-1    3.070871750380484E-1
 8.062082644625000E9     3.838086132693516E-1    4.287493070134457E-1   -2.676591819929853E-3    3.356501150620304E-3   -2.500983960766963E-3    3.535713722321016E-3    4.057766242728185E-1    3.069932184991830E-1
 8.062083662750000E9     3.838444135386637E-1    4.286000442886393E-1   -2.692310794381716E-3    3.365549683360745E-3   -2.497162033860094E-3    3.550146299117295E-3    4.058455928833026E-1    3.068992045269861E-1
 8.062084680875000E9     3.838062200959806E-1    4.285457469064092E-1   -2.703355125848248E-3    3.374755344601439E-3   -2.484095989300325E-3    3.572879510381639E-3    4.059567409895834E-1    3.069193611864041E-1
 8.062085699000000E9     3.840604459381771E-1    4.283507298682322E-1   -2.682584717068993E-3    3.399695660154683E-3   -2.509536705005582E-3    3.549708759089887E-3    4.059741572756621E-1    3.069776363714687E-1
 8.062086717125000E9     3.841077727512451E-1    4.283949999720923E-1   -2.708992336114488E-3    3.392734787173088E-3   -2.522841342088238E-3    3.609811673276610E-3    4.060266662255042E-1    3.068126174813741E-1
 8.062087735250000E9     3.842659423588458E-1    4.282825175077379E-1   -2.704183049077602E-3    3.428680893653756E-3   -2.481556442768816E-3    3.628391725036633E-3    4.060999140340471E-1    3.069252557801888E-1
 8.062088753375000E9     3.843741389472090E-1    4.281549918849783E-1   -2.699381714166102E-3    3.424774672326117E-3   -2.490670749986157E-3    3.629919057268526E-3    4.060558552119484E-1    3.066683421221625E-1
 8.062089771500000E9     3.844092265312215E-1    4.280145245181074E-1   -2.719635404377023E-3    3.464704667107861E-3   -2.520709037697753E-3    3.641576143574623E-3    4.060998779684444E-1    3.066059086246828E-1
 8.062090789625000E9     3.845315047309071E-1    4.279859485938535E-1   -2.720056291711942E-3    3.481204272727586E-3   -2.503970259487668E-3    3.684146335539444E-3    4.062600852221672E-1    3.066290756940995E-1
 8.062091807750000E9     3.846169763761200E-1    4.277230633188660E-1   -2.701067657048256E-3    3.497060065148547E-3   -2.538240957549548E-3    3.677554385430962E-3    4.061977285195665E-1    3.064928960067044E-1
 8.062092825875000E9     3.847549460611756E-1    4.275610068379676E-1   -2.727576573372412E-3    3.503827676498288E-3   -2.576976780866731E-3    3.735276340433963E-3    4.062221953790753E-1    3.064630409010776E-1
 8.062093844000000E9     3.849174162322495E-1    4.275888412394736E-1   -2.750352638626115E-3    3.542250698221595E-3   -2.575389891665343E-3    3.719778715038467E-3    4.062768065821653E-1    3.064740320737203E-1
 8.062094862125000E9     3.849762430375084E-1    4.272470940284260E-1   -2.750497376318019E-3    3.570219359910239E-3   -2.559265451652042E-3    3.761895156053567E-3    4.062732432239146E-1    3.064809773897600E-1
 8.062095880250000E9     3.850907170611173E-1    4.273128272087710E-1   -2.745402387734528E-3    3.585105910325717E-3   -2.566681803674007E-3    3.760615078379124E-3    4.063448282489669E-1    3.063447573933468E-1
 8.062096898375000E9     3.851705601420003E-1    4.271314753944522E-1   -2.779892310803658E-3    3.578512179480267E-3   -2.570157993823027E-3    3.791914374795312E-3    4.064465598209875E-1    3.061788875217035E-1
 8.062097916500000E9     3.853156483816356E-1    4.271139062646721E-1   -2.794556046266331E-3    3.604994722131959E-3   -2.603410778523156E-3    3.815885179533492E-3    4.064641379425858E-1    3.061917697455728E-1
 8.062098934625000E9     3.853557097044778E-1    4.269154695925425E-1   -2.780052572056331E-3    3.634013749576201E-3   -2.593182003407132E-3    3.807390517988660E-3    4.064713135368402E-1    3.062388008236944E-1
 8.062099952750000E9     3.854557982296102E-1    4.268522110860676E-1   -2.817958083080597E-3    3.647312937345352E-3   -2.607095142442782E-3    3.858064851664341E-3    4.064536666931555E-1    3.061228012813686E-1
 8.062100970875000E9     3.855654751657508E-1    4.266151797661122E-1   -2.808116299008269E-3    3.659215019689527E-3   -2.599149430422036E-3    3.862338630307563E-3    4.065521932732010E-1    3.060454613125278E-1
 8.062101989000000E9     3.856044130218665E-1    4.264149925778584E-1   -2.799817360899323E-3    3.683701479737277E-3   -2.615626375787277E-3    3.898674677333756E-3    4.065517609091201E-1    3.060950804931561E-1
 8.062103007125000E9     3.858553272750584E-1    4.263657188469757E-1   -2.799562654838813E-3    3.724285495531753E-3   -2.632053000139985E-3    3.881200965382326E-3    4.066235553124065E-1    3.059263277557041E-1
 8.062104025250000E9     3.857499847867623E-1    4.263749277728205E-1   -2.811680682560916E-3    3.725053868091091E-3   -2.616828310213556E-3    3.911558615414565E-3    4.067019509549052E-1    3.059423914445106E-1
