#  HZ   S   RI   R     50.00 
! Rohde & Schwarz Vector Network Analyzer 
! Rohde-Schwarz,ZNB20-2Port,1311601062101988,3.16
! Created: UTC 3/20/2024, 11:16:18 PM
! freq[Hz]                re:S11                  im:S11                  re:S21                  im:S21                  re:S12                  im:S12                  re:S22                  im:S22
 8.062013775000000E9     3.779289592466110E-1    4.347967045267329E-1   -2.326767235651493E-3    2.694672967271878E-3   -2.205444142099833E-3    2.851570829958869E-3    4.034054653559156E-1    3.106078664262046E-1
 8.062014795525000E9     3.777526169707734E-1    4.346514544151625E-1   -2.304838933194316E-3    2.715691318637691E-3   -2.189437231670956E-3    2.871907122810968E-3    4.033134694885138E-1    3.106252107834417E-1
 8.062015816050000E9     3.780257343892689E-1    4.346829226009410E-1   -2.329654730211479E-3    2.678257106203397E-3   -2.174649562725986E-3    2.839883003142704E-3    4.034328925606160E-1    3.103807537878235E-1
 8.062016836575000E9     3.780849615885679E-1    4.345663626685634E-1   -2.325256457558645E-3    2.703826730804300E-3   -2.212312432539744E-3    2.889048726701637E-3    4.034146660235011E-1    3.104061888673990E-1
 8.062017857100000E9     3.782511078971060E-1    4.345839959383042E-1   -2.350124125666664E-3    2.709582530530549E-3   -2.204509891749301E-3    2.907331442156156E-3    4.034888711758494E-1    3.102972119032745E-1
 8.062018877625000E9     3.782717247283878E-1    4.345091497117448E-1   -2.350085826112489E-3    2.719080667727993E-3   -2.175173638544054E-3    2.886679986100514E-3    4.034297837509538E-1    3.102208095446657E-1
 8.062019898150000E9     3.783728878272617E-1    4.343773713374658E-1   -2.353966434204872E-3    2.716431744817227E-3   -2.207880854157440E-3    2.880287558522480E-3    4.034631574353950E-1    3.101933982679134E-1
 8.062020918675000E9     3.784713441012569E-1    4.342322211874053E-1   -2.352421091949834E-3    2.729024464586489E-3   -2.185211885368425E-3    2.867574301420417E-3    4.036819044020824E-1    3.102044412433811E-1
 8.062021939200000E9     3.785719393656620E-1    4.343011442990025E-1   -2.378675692306880E-3    2.742329140205333E-3   -2.195644398348592E-3    2.889884846737960E-3    4.036557537730228E-1    3.101634019631469E-1
 8.062022959725000E9     3.786819147902421E-1    4.341013353525584E-1   -2.379747695022968E-3    2.747449341699447E-3   -2.204807134904074E-3    2.893203554497535E-3    4.035265379518230E-1    3.100259802790643E-1
 8.062023980250000E9     3.787238428082863E-1    4.341011690114279E-1   -2.348021704145414E-3    2.748443106855356E-3   -2.206785711613035E-3    2.913160154558314E-3    4.037766723693247E-1    3.100831969379741E-1
 8.062025000775000E9     3.787837121302622E-1    4.339059751741918E-1   -2.369191523944977E-3    2.743362099833465E-3   -2.208753303689209E-3    2.974717219496176E-3    4.037432550376147E-1    3.099702882063997E-1
 8.062026021300000E9     3.788562784914439E-1    4.338514372748544E-1   -2.373330546044110E-3    2.788244141935362E-3   -2.229155809854001E-3    2.915090498526294E-3    4.036586008401374E-1    3.098096658546588E-1
 8.062027041825000E9     3.789789015703199E-1    4.338240719209288E-1   -2.366997560231524E-3    2.770710841216465E-3   -2.227602516286906E-3    2.930631149083887E-3    4.037426780551230E-1    3.099786840423562E-1
 8.062028062350000E9     3.790926462901411E-1    4.336943862707869E-1   -2.379750044390839E-3    2.770127296891773E-3   -2.200790438731390E-3    2.925233660536034E-3    4.038388081683971E-1    3.097994031232330E-1
 8.062029082875000E9     3.791578439633443E-1    4.336031343042888E-1   -2.378039880566295E-3    2.787165654123427E-3   -2.240917428213987E-3    2.987757129716706E-3    4.038271315108708E-1    3.097691832669529E-1
 8.062030103400000E9     3.791829934181178E-1    4.335753347553455E-1   -2.405797746958472E-3    2.800805018677325E-3   -2.220832106679752E-3    2.976992873335832E-3    4.039697167958152E-1    3.096699878911440E-1
 8.062031123925000E9     3.793294227688190E-1    4.334716130292462E-1   -2.391291318333158E-3    2.789429967085549E-3   -2.228921766356952E-3    2.964829324841857E-3    4.038407653060316E-1    3.097277481951480E-1
 8.062032144450000E9     3.794318883070109E-1    4.334542076414967E-1   -2.396841186603383E-3    2.793627627637419E-3   -2.249598100394903E-3    2.968993926742343E-3    4.039916940758471E-1    3.096778532128631E-1
 8.062033164975000E9     3.794662140281946E-1    4.332894198486249E-1   -2.407216081081705E-3    2.834384492548443E-3   -2.237869347142168E-3    3.003933107014019E-3    4.038533060858446E-1    3.095571640017550E-1
 8.062034185500000E9     3.796008002066374E-1    4.331532945808807E-1   -2.410960833536525E-3    2.788110244297965E-3   -2.265701220552779E-3    2.988176190573013E-3    4.041840651674798E-1    3.095697080333080E-1
 8.062035206025000E9     3.796170408154170E-1    4.330955795149192E-1   -2.401862897408930E-3    2.832030469306490E-3   -2.278248635447140E-3    3.015769482955868E-3    4.039946751508746E-1    3.095270830308576E-1
 8.062036226550000E9     3.797074751324045E-1    4.330836307560928E-1   -2.416166366807753E-3    2.843142882399773E-3   -2.271688573220394E-3    3.021658538881771E-3    4.041001171736186E-1    3.094769659733005E-1
 8.062037247075000E9     3.798734303996834E-1    4.329870456090630E-1   -2.421334845808766E-3    2.826168189521884E-3   -2.285626441666149E-3    3.024274553798967E-3    4.041024790052886E-1    3.094676470844721E-1
 8.062038267600000E9     3.799833231853280E-1    4.328746358789591E-1   -2.444277113235133E-3    2.843243207275694E-3   -2.250646012835067E-3    3.054693158768483E-3    4.042092576902210E-1    3.093742260034654E-1
 8.062039288125000E9     3.799796012994551E-1    4.328713939367227E-1   -2.425270765986352E-3    2.885112208659232E-3   -2.272071484785886E-3    3.012066786008066E-3    4.042958191949317E-1    3.091938458553264E-1
 8.062040308650000E9     3.800942117095920E-1    4.327182123598400E-1   -2.417958471858773E-3    2.856597938105069E-3   -2.251997217031328E-3    3.062878795964065E-3    4.043407868231591E-1    3.093069481828547E-1
 8.062041329175000E9     3.802142071949333E-1    4.326719397434371E-1   -2.445760835829649E-3    2.877750040602294E-3   -2.269913012383377E-3    3.075096335719236E-3    4.042622499792079E-1    3.090401696513645E-1
 8.062042349700000E9     3.801528700883992E-1    4.325284525270556E-1   -2.441223541755579E-3    2.884138924014314E-3   -2.297401275638348E-3    3.063297378970669E-3    4.042378907005730E-1    3.091332816682547E-1
 8.062043370225000E9     3.803187973325806E-1    4.324961734880348E-1   -2.420823664578341E-3    2.891097260598631E-3   -2.273685367593761E-3    3.079544866856307E-3    4.044694083854942E-1    3.090667180549506E-1
 8.062044390750000E9     3.803621988735594E-1    4.323972904006294E-1   -2.439856542765751E-3    2.920505890642656E-3   -2.311978095821694E-3    3.064831636894831E-3    4.043182207559863E-1    3.090434525547229E-1
 8.062045411275000E9     3.804395131368227E-1    4.321774510102712E-1   -2.457752162643129E-3    2.917905939717904E-3   -2.307780930018359E-3    3.067119574074075E-3    4.044236256323372E-1    3.088973095629352E-1
 8.062046431800000E9     3.806272160373606E-1    4.323251220450138E-1   -2.469787266844061E-3    2.907561194864751E-3   -2.325820465294253E-3    3.105593528362293E-3    4.044043215589805E-1    3.088724930726260E-1
 8.062047452325000E9     3.804648768925074E-1    4.322032154229715E-1   -2.452071083811587E-3    2.939531486736101E-3   -2.296626610224149E-3    3.122189590064171E-3    4.045437187658338E-1    3.087929681621134E-1
 8.062048472850000E9     3.807479588665189E-1    4.320774779197786E-1   -2.479983261946850E-3    2.923729628779023E-3   -2.357353738539737E-3    3.085219814668586E-3    4.045902305590918E-1    3.088705863765159E-1
 8.062049493375000E9     3.808702314176021E-1    4.319559946099069E-1   -2.487151417778184E-3    2.969491259610594E-3   -2.305022687983697E-3    3.133226503356805E-3    4.046055021842394E-1    3.087604591317908E-1
 8.062050513900000E9     3.808843215275253E-1    4.319547185757056E-1   -2.441438235471215E-3    2.937610643811262E-3   -2.296826514323558E-3    3.128805048758444E-3    4.045961552767045E-1    3.085785395401883E-1
 8.062051534425000E9     3.809457859586861E-1    4.318533756492806E-1   -2.490361320499863E-3    2.995181852812429E-3   -2.316496361390833E-3    3.139454249627948E-3    4.047692054161114E-1    3.086488272441798E-1
 8.062052554950000E9     3.809923295117298E-1    4.318372087344941E-1   -2.518377041396204E-3    2.971006851130773E-3   -2.351998947634997E-3    3.154713755727314E-3    4.046799438756674E-1    3.084703334379406E-1
 8.062053575475000E9     3.811701197830895E-1    4.316981394388148E-1   -2.491137994972718E-3    2.991781458860871E-3   -2.338321176060204E-3    3.173533247703170E-3    4.046431513956615E-1    3.084272195627645E-1
 8.062054596000000E9     3.811774684864655E-1    4.315362074347596E-1   -2.494703735789386E-3    3.015983815161950E-3   -2.338594591046810E-3    3.158994160528127E-3    4.046275200759816E-1    3.084858562901550E-1
 8.062055616525000E9     3.812273666728462E-1    4.314836338175136E-1   -2.499028750187533E-3    2.999154612298462E-3   -2.322328064301577E-3    3.208073009246709E-3    4.047449150925540E-1    3.084625251354533E-1
 8.062056637050000E9     3.813094724756344E-1    4.314319586239379E-1   -2.498149348021441E-3    3.035356026000980E-3   -2.352212352485662E-3    3.183925084206339E-3    4.048860184687689E-1    3.084712051512775E-1
 8.062057657575000E9     3.813854895863217E-1    4.312618723840710E-1   -2.531619424338381E-3    3.020226476267723E-3   -2.353114138206690E-3    3.199919251607726E-3    4.048739444623998E-1    3.083325656497982E-1
 8.062058678100000E9     3.816484648373761E-1    4.311326124970921E-1   -2.514285296167657E-3    3.011955540554305E-3   -2.366349100275615E-3    3.217536725115487E-3    4.049585919579856E-1    3.083244609918160E-1
 8.062059698625000E9     3.816307374932287E-1    4.310915311497391E-1   -2.540739732721189E-3    3.026260256042070E-3   -2.337379600040282E-3    3.230108495921272E-3    4.049508136553313E-1    3.082285901635423E-1
 8.062060719150000E9     3.817573264048885E-1    4.309893211029328E-1   -2.550323883752161E-3    3.093686653552101E-3   -2.402387895676707E-3    3.274674859019252E-3    4.049981286818327E-1    3.081116964314113E-1
 8.062061739675000E9     3.819426427432504E-1    4.310043492994173E-1   -2.540863712537672E-3    3.048169773481847E-3   -2.331732551092890E-3    3.297235481091700E-3    4.051201014475449E-1    3.080559401677514E-1
 8.062062760200000E9     3.819189079583159E-1    4.309512517922144E-1   -2.547808948641443E-3    3.058443119464690E-3   -2.376237604488668E-3    3.290744916806616E-3    4.051306406000759E-1    3.079448743839930E-1
 8.062063780725000E9     3.819591734356039E-1    4.307252646249980E-1   -2.559353992034040E-3    3.098897492489215E-3   -2.371081878854596E-3    3.251772822134051E-3    4.052132108918048E-1    3.079737381791427E-1
 8.062064801250000E9     3.821017048531084E-1    4.307290778299184E-1   -2.542784777146096E-3    3.096622494453194E-3   -2.395600759441940E-3    3.289119876922124E-3    4.050058558730099E-1    3.080052965012257E-1
 8.062065821775000E9     3.821065327708610E-1    4.303896373483794E-1   -2.563364503542381E-3    3.104318724365015E-3   -2.399024563589860E-3    3.316728907832357E-3    4.053199100072966E-1    3.078802751233495E-1
 8.062066842300000E9     3.821834748860050E-1    4.304688572003030E-1   -2.560929207388006E-3    3.118962669237105E-3   -2.413611734238484E-3    3.307265389053645E-3    4.052767809286336E-1    3.079559966663113E-1
 8.062067862825000E9     3.824171616065133E-1    4.303578500272602E-1   -2.590823712693827E-3    3.122102499716980E-3   -2.402514866602552E-3    3.299868773123069E-3    4.052401986532070E-1    3.077453807087464E-1
 8.062068883350000E9     3.824537874649272E-1    4.303540838577182E-1   -2.580630401075607E-3    3.151120857710890E-3   -2.418034873788690E-3    3.324583289829817E-3    4.052144956317624E-1    3.077442918651618E-1
 8.062069903875000E9     3.825241555742484E-1    4.301804080387642E-1   -2.592822951294728E-3    3.152125557967694E-3   -2.414478317432208E-3    3.354034520284389E-3    4.052660776832698E-1    3.074982175273420E-1
 8.062070924400000E9     3.826785342736438E-1    4.301329723071270E-1   -2.586671044633322E-3    3.184600683907842E-3   -2.455975435538607E-3    3.362770355004971E-3    4.052763484066411E-1    3.075334888346284E-1
 8.062071944925000E9     3.826921858884705E-1    4.299696558508653E-1   -2.590227258977393E-3    3.211221114858063E-3   -2.428017852316490E-3    3.372864871292316E-3    4.054405038909178E-1    3.075187597169388E-1
 8.062072965450000E9     3.827844416566437E-1    4.298485628949235E-1   -2.591966512399450E-3    3.232083713493861E-3   -2.411786019940942E-3    3.368173988742688E-3    4.055303931390484E-1    3.075300250398900E-1
 8.062073985975000E9     3.829791682604810E-1    4.298668254679269E-1   -2.603138993067747E-3    3.240012459933158E-3   -2.426561283450900E-3    3.387138361016409E-3    4.053053352587903E-1    3.075284013830376E-1
 8.062075006500000E9     3.830393700312652E-1    4.296456816182724E-1   -2.621150094847583E-3    3.227967719379232E-3   -2.434497878491204E-3    3.425357645983361E-3    4.054858335704381E-1    3.074770478147639E-1
 8.062076027025000E9     3.831211102273264E-1    4.295771813443601E-1   -2.632667716022423E-3    3.218922047608797E-3   -2.492600777321512E-3    3.434595191150208E-3    4.055510845454436E-1    3.073886452838601E-1
 8.062077047550000E9     3.831650696560572E-1    4.294962891988728E-1   -2.634887162883089E-3    3.255866132276743E-3   -2.492368218786559E-3    3.457681470739242E-3    4.055873477593578E-1    3.072864862519459E-1
 8.062078068075000E9     3.833100163438569E-1    4.292743513676022E-1   -2.625226578656524E-3    3.256451652993005E-3   -2.440259811005269E-3    3.458691972859012E-3    4.056736391196026E-1    3.073598680421523E-1
 8.062079088600000E9     3.833743219193772E-1    4.291877489732916E-1   -2.634339110590047E-3    3.277743132833281E-3   -2.423236723817566E-3    3.470533600511211E-3    4.055930314786274E-1    3.071166993144720E-1
 8.062080109125000E9     3.835247763588032E-1    4.290611365192117E-1   -2.611244389308554E-3    3.281364801429982E-3   -2.463439845571447E-3    3.478144184765070E-3    4.057679652975530E-1    3.072499009533932E-1
 8.062081129650000E9     3.835808644132122E-1    4.290130030383091E-1   -2.673441318479010E-3    3.314828865164662E-3   -2.473542504372258E-3    3.495782707570738E-3    4.057354247642158E-1    3.069827538129807E-1
 8.062082150175000E9     3.836808672205111E-1    4.289992698801229E-1   -2.652929469826810E-3    3.343409709157199E-3   -2.495030354395190E-3    3.494908450457353E-3    4.058664070437319E-1    3.070883264856797E-1
 8.062083170700000E9     3.837226276693500E-1    4.289142761119187E-1   -2.667270236363237E-3    3.328467176040411E-3   -2.475997617169798E-3    3.521322284427455E-3    4.060702302928685E-1    3.068664421317696E-1
 8.062084191225000E9     3.838096199859647E-1    4.285857012124737E-1   -2.665616232703200E-3    3.357746471097184E-3   -2.512334443423439E-3    3.542950342003147E-3    4.059601082787155E-1    3.069493898755822E-1
 8.062085211750000E9     3.839279201065794E-1    4.286320321287704E-1   -2.681167093352439E-3    3.374934316930524E-3   -2.499483875701162E-3    3.549730142549973E-3    4.058797128432695E-1    3.069393585467097E-1
 8.062086232275000E9     3.840621164318588E-1    4.284371541845902E-1   -2.676441672459467E-3    3.372698592756144E-3   -2.497360823872564E-3    3.594880235241058E-3    4.059612640933513E-1    3.067246355189072E-1
 8.062087252800000E9     3.841475321473096E-1    4.283296902928858E-1   -2.708927105267660E-3    3.404588328244018E-3   -2.533376833218148E-3    3.575620356455820E-3    4.061313154615026E-1    3.068639626939495E-1
 8.062088273325000E9     3.840837129739551E-1    4.283558946388077E-1   -2.710035642443075E-3    3.395600043550584E-3   -2.549309106138253E-3    3.630699775994191E-3    4.060323094123237E-1    3.067643042369553E-1
 8.062089293850000E9     3.844000904978890E-1    4.282881328052749E-1   -2.703930960799215E-3    3.408501586775094E-3   -2.490966111489144E-3    3.602513880023359E-3    4.059803743322320E-1    3.066364465305476E-1
 8.062090314375000E9     3.844814979590678E-1    4.281417241529156E-1   -2.721968981218396E-3    3.417891487669347E-3   -2.537627899027792E-3    3.647361318585409E-3    4.060692086776456E-1    3.065815296868487E-1
 8.062091334900000E9     3.844500594428926E-1    4.279419692074065E-1   -2.719526145583638E-3    3.445244293066311E-3   -2.531705727336716E-3    3.642838660880019E-3    4.061222116738045E-1    3.063810587391976E-1
 8.062092355425000E9     3.845040989671268E-1    4.278544190567449E-1   -2.745456811257629E-3    3.483932175254926E-3   -2.521211368767842E-3    3.654496742857330E-3    4.062092952962836E-1    3.065563672334990E-1
 8.062093375950000E9     3.848503283003192E-1    4.277589668086719E-1   -2.723376783317214E-3    3.489737641744144E-3   -2.523548849246024E-3    3.680915927694922E-3    4.062140624414574E-1    3.063722536330024E-1
 8.062094396475000E9     3.848387799575779E-1    4.275273400126441E-1   -2.749692752532586E-3    3.504313326782526E-3   -2.573992976442660E-3    3.711471453883724E-3    4.062796140731460E-1    3.062949031461887E-1
 8.062095417000000E9     3.848674801438883E-1    4.275436687963195E-1   -2.747424365456083E-3    3.522763566714367E-3   -2.573927862689150E-3    3.703824185884605E-3    4.063111820176138E-1    3.063836619974534E-1
 8.062096437525000E9     3.849909311427082E-1    4.272765957796785E-1   -2.733416428677237E-3    3.521594467774695E-3   -2.578556930296088E-3    3.743201738460059E-3    4.063302272749899E-1    3.061625270306039E-1
 8.062097458050000E9     3.852956107337227E-1    4.272604993028866E-1   -2.766178032726843E-3    3.563246031111160E-3   -2.612235982464451E-3    3.764094961940017E-3    4.063197604971395E-1    3.062079109927832E-1
 8.062098478575000E9     3.853647422030001E-1    4.272229115970880E-1   -2.787211529662823E-3    3.567633150519034E-3   -2.554309751186074E-3    3.790011483524996E-3    4.063686932347382E-1    3.062026750750875E-1
 8.062099499100000E9     3.853410486778229E-1    4.268919832140881E-1   -2.775693351950040E-3    3.584172558417592E-3   -2.612736641200689E-3    3.790140781429792E-3    4.065326497754415E-1    3.061989475896634E-1
 8.062100519625000E9     3.855000315600725E-1    4.267836135998170E-1   -2.798125119914806E-3    3.631120566224689E-3   -2.608038837014154E-3    3.815268455065580E-3    4.064922938624721E-1    3.060490162599581E-1
 8.062101540150000E9     3.855998944616571E-1    4.267170337383041E-1   -2.802684978435670E-3    3.638357507587694E-3   -2.593189048590418E-3    3.806362863068168E-3    4.065426755670874E-1    3.059114301577066E-1
 8.062102560675000E9     3.856882828967863E-1    4.265190303878931E-1   -2.813370167804335E-3    3.655442352018782E-3   -2.577395838814105E-3    3.841651410441735E-3    4.064194023387684E-1    3.059161094049993E-1
 8.062103581200000E9     3.857684540021187E-1    4.265175508157910E-1   -2.788420661373565E-3    3.666740440855774E-3   -2.608285598326156E-3    3.886518825800676E-3    4.065244915686116E-1    3.059426512470145E-1
 8.062104601725000E9     3.858707005787977E-1    4.262978180272652E-1   -2.822136955782471E-3    3.699338184163914E-3   -2.607091591169892E-3    3.894055191205603E-3    4.066041233363759E-1    3.058835945723524E-1
 8.062105622250000E9     3.860115848129547E-1    4.261900536502573E-1   -2.832165047506251E-3    3.705019918787675E-3   -2.666680098141469E-3    3.930735676386632E-3    4.066162724609768E-1    3.058419564400776E-1
