#  HZ   S   RI   R     50.00 
! Rohde & Schwarz Vector Network Analyzer 
! Rohde-Schwarz,ZNB20-2Port,1311601062101988,3.16
! Created: UTC 3/20/2024, 11:16:26 PM
! freq[Hz]                re:S11                  im:S11                  re:S21                  im:S21                  re:S12                  im:S12                  re:S22                  im:S22
 8.062015638000000E9     3.779722359002458E-1    4.347095310909535E-1   -2.307090507817011E-3    2.679529857924265E-3   -2.209089049900481E-3    2.846919321551992E-3    4.033388288489173E-1    3.105346087821144E-1
 8.062016654950000E9     3.780075446781562E-1    4.346411499245563E-1   -2.316638732491858E-3    2.721684416103967E-3   -2.137799720308098E-3    2.884743086751327E-3    4.032959895312755E-1    3.103130520586769E-1
 8.062017671900000E9     3.780834021757098E-1    4.345630782570975E-1   -2.310719180384006E-3    2.726424828035149E-3   -2.225920273173672E-3    2.886507766794668E-3    4.034078106850556E-1    3.102476908779185E-1
 8.062018688850000E9     3.781004872752601E-1    4.345171264480943E-1   -2.383704734773252E-3    2.719911060229378E-3   -2.210620656522691E-3    2.862427297282804E-3    4.033651565930717E-1    3.103147445336243E-1
 8.062019705800000E9     3.782564535578754E-1    4.343968875397975E-1   -2.354889287458768E-3    2.729500523629629E-3   -2.227840211684692E-3    2.876314113875919E-3    4.034605957476896E-1    3.101314337774451E-1
 8.062020722750000E9     3.782964628573003E-1    4.343448764572668E-1   -2.343247167378973E-3    2.717462233909253E-3   -2.191500783241926E-3    2.890572808531295E-3    4.036356799349753E-1    3.101258715929260E-1
 8.062021739700000E9     3.783858763364256E-1    4.342596522028116E-1   -2.352236330854549E-3    2.735529008062489E-3   -2.181065699000331E-3    2.891849870374020E-3    4.037015770789546E-1    3.102599540901818E-1
 8.062022756650000E9     3.786046420495098E-1    4.341731254208311E-1   -2.341722306721112E-3    2.730384652855480E-3   -2.239117882357407E-3    2.904529833871753E-3    4.035340734273174E-1    3.101110861287768E-1
 8.062023773600000E9     3.786817609192875E-1    4.340928921367648E-1   -2.357012450973518E-3    2.755708028599914E-3   -2.210039933873173E-3    2.931371246052425E-3    4.037502280055907E-1    3.100792277371081E-1
 8.062024790550000E9     3.787832729044260E-1    4.340783523851068E-1   -2.374395815095258E-3    2.742316362689275E-3   -2.206419819223520E-3    2.905031199594228E-3    4.037850055805052E-1    3.100233668440590E-1
 8.062025807500000E9     3.787602074634657E-1    4.339619756204312E-1   -2.355048933599666E-3    2.741041757050582E-3   -2.232087763143700E-3    2.919189674505644E-3    4.035983751607905E-1    3.100276596406694E-1
 8.062026824450000E9     3.789699725889475E-1    4.339398315411943E-1   -2.370052748953513E-3    2.778536248186439E-3   -2.217026079700641E-3    2.930958116532489E-3    4.038722860620152E-1    3.098521506419737E-1
 8.062027841400000E9     3.789948772762777E-1    4.338159288836771E-1   -2.388781463475305E-3    2.780641601228226E-3   -2.185253610349792E-3    2.931474460416732E-3    4.037764828706037E-1    3.098004970256800E-1
 8.062028858350000E9     3.790946055031544E-1    4.336606054596460E-1   -2.378966074622032E-3    2.749647342493450E-3   -2.259558496930087E-3    2.949174356814849E-3    4.038045166293325E-1    3.098771539204236E-1
 8.062029875300000E9     3.791369431394459E-1    4.336245382293005E-1   -2.371747090876279E-3    2.777093909385459E-3   -2.203121926178739E-3    2.936325387664513E-3    4.038274066041339E-1    3.097938445491787E-1
 8.062030892250000E9     3.791328361406079E-1    4.335039405893166E-1   -2.388848079846705E-3    2.799816014470478E-3   -2.210271290516248E-3    2.956046393803194E-3    4.041105046426554E-1    3.097776227511149E-1
 8.062031909200000E9     3.793209502907332E-1    4.335420235491716E-1   -2.425838020478488E-3    2.807990356314750E-3   -2.255463922839408E-3    2.977302483691079E-3    4.038571475767788E-1    3.095108501298817E-1
 8.062032926150000E9     3.793533882608092E-1    4.334727973828280E-1   -2.399177574303722E-3    2.826979273246524E-3   -2.249672582387633E-3    2.985057432368211E-3    4.040099543608810E-1    3.096505555156279E-1
 8.062033943100000E9     3.794831191948678E-1    4.333175248995077E-1   -2.405435247894851E-3    2.802728615904877E-3   -2.260449150158289E-3    3.002936994274320E-3    4.039377147507136E-1    3.094151007880500E-1
 8.062034960050000E9     3.794681767720497E-1    4.332856070791739E-1   -2.390049391557648E-3    2.806875609965747E-3   -2.231510367767340E-3    2.976626884434889E-3    4.041040311292540E-1    3.095193547936446E-1
 8.062035977000000E9     3.796555071841991E-1    4.331161227937512E-1   -2.400187643761304E-3    2.845004391325652E-3   -2.262499744545951E-3    2.978375967299789E-3    4.041039369485525E-1    3.094620820648791E-1
 8.062036993950000E9     3.797631511632586E-1    4.330794733876805E-1   -2.412136583223764E-3    2.839371249286417E-3   -2.263757011173420E-3    3.030782979440169E-3    4.041798254453420E-1    3.092451522861914E-1
 8.062038010900000E9     3.798383040148019E-1    4.330328459358676E-1   -2.408085762619061E-3    2.826803207485179E-3   -2.279519495821841E-3    3.015363517039138E-3    4.040117748137219E-1    3.092624276222564E-1
 8.062039027850000E9     3.798962866874813E-1    4.328476604607127E-1   -2.431501737657037E-3    2.840267912257793E-3   -2.258697111732285E-3    3.019192600894585E-3    4.041124761673255E-1    3.093057083528594E-1
 8.062040044800000E9     3.798599456149159E-1    4.328346920370991E-1   -2.436947639635653E-3    2.871551231384089E-3   -2.258129601365155E-3    3.021986210690790E-3    4.041988173618697E-1    3.092159921418586E-1
 8.062041061750000E9     3.800006115198086E-1    4.327002373048483E-1   -2.435570942839665E-3    2.864906496176204E-3   -2.288430757389616E-3    3.052998079742546E-3    4.043233742716100E-1    3.091260500602976E-1
 8.062042078700000E9     3.802072665443780E-1    4.326089373461307E-1   -2.466182533799498E-3    2.871810373429308E-3   -2.314959496383624E-3    3.017045195856362E-3    4.043757000076189E-1    3.091808728931685E-1
 8.062043095650000E9     3.803238284474242E-1    4.325608306915208E-1   -2.435094778805216E-3    2.860994013647989E-3   -2.279367472312434E-3    3.029123296947273E-3    4.043171103053488E-1    3.089778900261840E-1
 8.062044112600000E9     3.802688951473509E-1    4.325369018908017E-1   -2.455671841991267E-3    2.908096580615072E-3   -2.292888354576488E-3    3.058904016636170E-3    4.043706895255927E-1    3.090235621133678E-1
 8.062045129550000E9     3.804142397104227E-1    4.324247762638975E-1   -2.459055429799866E-3    2.927835108730834E-3   -2.271496249720438E-3    3.025978840761715E-3    4.045385513934041E-1    3.088494081274453E-1
 8.062046146500000E9     3.804738694848823E-1    4.323284741201487E-1   -2.444248653160858E-3    2.935720678573883E-3   -2.296982981355282E-3    3.068797290620586E-3    4.044199622122071E-1    3.087808936714236E-1
 8.062047163450000E9     3.805223253008845E-1    4.321867026875496E-1   -2.453157139445248E-3    2.914668377564058E-3   -2.317926264117649E-3    3.072308615940564E-3    4.044327991417491E-1    3.089342716863449E-1
 8.062048180400000E9     3.806713497278322E-1    4.320657440311017E-1   -2.460867457990268E-3    2.923111414973732E-3   -2.295860731805625E-3    3.048672700683112E-3    4.046789073914211E-1    3.088678808263832E-1
 8.062049197350000E9     3.808222321290330E-1    4.320607627754828E-1   -2.474192217261853E-3    2.948066852327874E-3   -2.289450571471184E-3    3.149319123187706E-3    4.046458485980860E-1    3.087506638889773E-1
 8.062050214300000E9     3.808732839366291E-1    4.321286281784685E-1   -2.462819115980610E-3    2.965370101160240E-3   -2.314683686137446E-3    3.097453681648245E-3    4.045456423812951E-1    3.086351961190012E-1
 8.062051231250000E9     3.808145590655139E-1    4.319884301978635E-1   -2.496436476567702E-3    2.958964758696613E-3   -2.328660898747637E-3    3.158757349596546E-3    4.046894286365385E-1    3.087186731624796E-1
 8.062052248200000E9     3.809400741816041E-1    4.318324600030548E-1   -2.476990268193871E-3    2.978998102931734E-3   -2.330954804266376E-3    3.144372763488487E-3    4.046851846923765E-1    3.086619922815050E-1
 8.062053265150000E9     3.811015341016710E-1    4.318095665599070E-1   -2.493840760745895E-3    2.990077698449709E-3   -2.317124822602503E-3    3.176878183859983E-3    4.046312906115033E-1    3.085975416256767E-1
 8.062054282100000E9     3.811770289621300E-1    4.316088554625637E-1   -2.487452357525337E-3    2.987987575445185E-3   -2.357666532775158E-3    3.157462495120628E-3    4.047322325063326E-1    3.085292496871088E-1
 8.062055299050000E9     3.812456177232717E-1    4.316609015926750E-1   -2.511177187778217E-3    2.993183655838853E-3   -2.316949843314112E-3    3.205322140327478E-3    4.047989783142776E-1    3.085014768111342E-1
 8.062056316000000E9     3.813865922207091E-1    4.315222056688228E-1   -2.508934183799371E-3    3.004733120829376E-3   -2.320492719872268E-3    3.205619995127822E-3    4.047746244544256E-1    3.085227295369452E-1
 8.062057332950000E9     3.813185519785744E-1    4.312909012307324E-1   -2.517433419880427E-3    3.015420149332261E-3   -2.327427577355281E-3    3.186708642939296E-3    4.048359129004082E-1    3.084062325393093E-1
 8.062058349900000E9     3.815647104548236E-1    4.313549835916098E-1   -2.532068658522125E-3    3.029679986419917E-3   -2.377296768387034E-3    3.230948666119286E-3    4.049183955242014E-1    3.082138673421181E-1
 8.062059366850000E9     3.817063014451616E-1    4.311871076124220E-1   -2.527128894075579E-3    3.058049814292577E-3   -2.377339860717917E-3    3.248740845896578E-3    4.049150526338727E-1    3.080602169267789E-1
 8.062060383800000E9     3.816747699031382E-1    4.311003731730466E-1   -2.516724694302097E-3    3.066997002674650E-3   -2.332181178847213E-3    3.207450456996773E-3    4.049806842959635E-1    3.082017154237058E-1
 8.062061400750000E9     3.816571413364113E-1    4.311371633665366E-1   -2.527433925722428E-3    3.047998380102878E-3   -2.367401499604595E-3    3.245932759797852E-3    4.049582382529400E-1    3.080533982296209E-1
 8.062062417700000E9     3.817492619675394E-1    4.309563824724379E-1   -2.544243564496939E-3    3.077204426123662E-3   -2.332846888260871E-3    3.250594536037575E-3    4.050656141738041E-1    3.080719609630431E-1
 8.062063434650000E9     3.819876222417367E-1    4.308384210375481E-1   -2.536421916232622E-3    3.063949752387098E-3   -2.360975926390164E-3    3.258764522244282E-3    4.050574005403551E-1    3.079936491629111E-1
 8.062064451600000E9     3.818637033454386E-1    4.307195777912531E-1   -2.543423942450729E-3    3.095353131173972E-3   -2.373978746517998E-3    3.252508534888376E-3    4.051903384424567E-1    3.078834174675144E-1
 8.062065468550000E9     3.821138514318266E-1    4.306682914520696E-1   -2.552823878815138E-3    3.092994423658285E-3   -2.374391230719732E-3    3.284504702246126E-3    4.052023675142059E-1    3.079887358260117E-1
 8.062066485500000E9     3.821792198990047E-1    4.305626287980091E-1   -2.532694822838540E-3    3.106685134933251E-3   -2.406476864109248E-3    3.296833298391282E-3    4.052420513778329E-1    3.079372383377031E-1
 8.062067502450000E9     3.822707940316500E-1    4.305464400176340E-1   -2.553523468001149E-3    3.107434404221661E-3   -2.377890040254307E-3    3.305151363112020E-3    4.051643656390849E-1    3.078339098856882E-1
 8.062068519400000E9     3.824806401947088E-1    4.304426374832574E-1   -2.570765603884546E-3    3.143707314427089E-3   -2.386523334697378E-3    3.321272740844173E-3    4.052100345608374E-1    3.078091328537354E-1
 8.062069536350000E9     3.823504863720805E-1    4.302954918950889E-1   -2.578481082271617E-3    3.137387191633020E-3   -2.401844053331601E-3    3.353961917109848E-3    4.053407205922847E-1    3.077266949479809E-1
 8.062070553300000E9     3.827168517557260E-1    4.301704273582129E-1   -2.585013045957983E-3    3.168806301142605E-3   -2.407199345422342E-3    3.334315311376938E-3    4.053701606014096E-1    3.076280024221862E-1
 8.062071570250000E9     3.825541242317091E-1    4.299896802934393E-1   -2.565634243205967E-3    3.165574060511656E-3   -2.434380323722128E-3    3.342302176734513E-3    4.053283048500136E-1    3.074887329649124E-1
 8.062072587200000E9     3.827343537541100E-1    4.300278798931698E-1   -2.600242084130051E-3    3.205088373070564E-3   -2.438377458968145E-3    3.366064435099149E-3    4.054760430038051E-1    3.074744614752921E-1
 8.062073604150000E9     3.827761921550613E-1    4.299082030649303E-1   -2.592141876795477E-3    3.203302945913536E-3   -2.420183238368651E-3    3.362582958924492E-3    4.055454032184481E-1    3.073298658046856E-1
 8.062074621100000E9     3.829045019278405E-1    4.298905757703427E-1   -2.601268167402664E-3    3.202276944526634E-3   -2.422609561236351E-3    3.409251197463868E-3    4.055076089109698E-1    3.074609864816648E-1
 8.062075638050000E9     3.830410932997635E-1    4.296450274343969E-1   -2.614040545040891E-3    3.218485294713170E-3   -2.424592654812096E-3    3.387199737379179E-3    4.054742431633672E-1    3.074233617324086E-1
 8.062076655000000E9     3.831149069455511E-1    4.296202970038276E-1   -2.619862470195619E-3    3.228184559239268E-3   -2.430971798910680E-3    3.404094661845011E-3    4.055368743128049E-1    3.073234031682894E-1
 8.062077671950000E9     3.832581060143277E-1    4.296064444300153E-1   -2.628121428303886E-3    3.251304282809835E-3   -2.471409864732962E-3    3.451636915395168E-3    4.056545679410362E-1    3.072524351401331E-1
 8.062078688900000E9     3.833109348263382E-1    4.294844366660619E-1   -2.624281480400233E-3    3.233788613826106E-3   -2.437458773369132E-3    3.466070650470321E-3    4.056467955229696E-1    3.071977490200966E-1
 8.062079705850000E9     3.832767259958642E-1    4.293016044817659E-1   -2.632231633197322E-3    3.263833305898639E-3   -2.456111539080046E-3    3.459577729732029E-3    4.056136465062735E-1    3.070967311380818E-1
 8.062080722800000E9     3.834651859138736E-1    4.291538320984224E-1   -2.645131929714222E-3    3.264526193892248E-3   -2.488503266457353E-3    3.440387313302368E-3    4.057643478241298E-1    3.072658056978511E-1
 8.062081739750000E9     3.835209963556209E-1    4.292129551477548E-1   -2.647948100673410E-3    3.282186277845382E-3   -2.454279668239131E-3    3.495304377728629E-3    4.055861985477601E-1    3.069853125368174E-1
 8.062082756700000E9     3.835980280033060E-1    4.290595216862779E-1   -2.654475155184826E-3    3.298125598542704E-3   -2.491605976703402E-3    3.471458754459705E-3    4.057965342693824E-1    3.069910361644534E-1
 8.062083773650000E9     3.836924784712116E-1    4.288363703380922E-1   -2.663439313780403E-3    3.335405042715603E-3   -2.488212842277261E-3    3.517258488737335E-3    4.057698658696102E-1    3.068420779684561E-1
 8.062084790600000E9     3.839436248161095E-1    4.287981229102947E-1   -2.666648082453976E-3    3.347776568803972E-3   -2.508912290247549E-3    3.510745220382602E-3    4.058923803468023E-1    3.068831425348457E-1
 8.062085807550000E9     3.838749386884486E-1    4.288396755455992E-1   -2.669065911666759E-3    3.339694397062698E-3   -2.477825059440776E-3    3.524597329688489E-3    4.058933548843230E-1    3.068841883661519E-1
 8.062086824500000E9     3.840114230718712E-1    4.286578195802886E-1   -2.681121341522318E-3    3.359339828147111E-3   -2.482212243665374E-3    3.554163199025378E-3    4.058465558263205E-1    3.067115803275550E-1
 8.062087841450000E9     3.840998522213261E-1    4.284146837008472E-1   -2.696999605960258E-3    3.410275378328781E-3   -2.476405863001928E-3    3.555865055404598E-3    4.060294422204910E-1    3.066569917804718E-1
 8.062088858400000E9     3.843089198631388E-1    4.282646658474298E-1   -2.695457985760586E-3    3.419513966157230E-3   -2.496683209038313E-3    3.553063474868776E-3    4.060327923079806E-1    3.066502938503615E-1
 8.062089875350000E9     3.841634932210096E-1    4.282773461742002E-1   -2.704367345551841E-3    3.418504465877763E-3   -2.533445034515772E-3    3.587506207365637E-3    4.060585585646921E-1    3.065897678108387E-1
 8.062090892300000E9     3.845074214528004E-1    4.281652316086574E-1   -2.725853127171054E-3    3.421240478480036E-3   -2.534384028151873E-3    3.653478934000599E-3    4.061775176004410E-1    3.065824247583084E-1
 8.062091909250000E9     3.844631574302101E-1    4.280361698151264E-1   -2.724439501106951E-3    3.453605861677268E-3   -2.519698591891107E-3    3.614358575562135E-3    4.060347096586064E-1    3.063279141191255E-1
 8.062092926200000E9     3.845941097283851E-1    4.278533227043184E-1   -2.729484047221631E-3    3.464343828448600E-3   -2.544998632659703E-3    3.656260438978022E-3    4.061341793408130E-1    3.065144302691013E-1
 8.062093943150000E9     3.847367393238046E-1    4.277766557016678E-1   -2.739710993719560E-3    3.480493833345980E-3   -2.553521451050629E-3    3.683171191171162E-3    4.061826712520674E-1    3.064610836377505E-1
 8.062094960100000E9     3.848644061639223E-1    4.277309166942060E-1   -2.731572099831125E-3    3.489030494182649E-3   -2.541312418853225E-3    3.691778042620387E-3    4.062534107391060E-1    3.062617076646040E-1
 8.062095977050000E9     3.849082375608404E-1    4.276246423984578E-1   -2.744903361961787E-3    3.507001313679855E-3   -2.548189932254018E-3    3.696575792211239E-3    4.063231605342192E-1    3.063553630305534E-1
 8.062096994000000E9     3.850691873809122E-1    4.274254271638936E-1   -2.755781541032376E-3    3.518565112198157E-3   -2.568910707279807E-3    3.736667801836897E-3    4.062282987249335E-1    3.062702149264196E-1
 8.062098010950000E9     3.850931133255402E-1    4.272508346767926E-1   -2.750139537418210E-3    3.519736482269785E-3   -2.554153758950206E-3    3.743317301725092E-3    4.064105900199868E-1    3.061063823653957E-1
 8.062099027900000E9     3.851864456564813E-1    4.270788745249307E-1   -2.773281132405113E-3    3.564173870498260E-3   -2.550550234784967E-3    3.741150575092208E-3    4.063282738457854E-1    3.060985962249095E-1
 8.062100044850000E9     3.853396715822393E-1    4.271496184900937E-1   -2.765961110329697E-3    3.570283443894330E-3   -2.585681253158170E-3    3.758324308965753E-3    4.064285231332160E-1    3.059782528728342E-1
 8.062101061800000E9     3.854208588627502E-1    4.270040544716527E-1   -2.755002899911503E-3    3.590051923489134E-3   -2.604425857897408E-3    3.807454938814763E-3    4.064001156726084E-1    3.060355594924368E-1
 8.062102078750000E9     3.855532662805885E-1    4.268378807065935E-1   -2.789355926084959E-3    3.632729208796734E-3   -2.606898844331839E-3    3.837586038405680E-3    4.065490158343206E-1    3.060459129925989E-1
 8.062103095700000E9     3.855514850820856E-1    4.267171027908661E-1   -2.788298883871709E-3    3.652587621480297E-3   -2.574995158771439E-3    3.828739835054025E-3    4.065880434751659E-1    3.058103233849063E-1
 8.062104112650000E9     3.856670431064532E-1    4.265264627223750E-1   -2.808584420658897E-3    3.657681402052689E-3   -2.604098157127722E-3    3.860587444601857E-3    4.065488602597461E-1    3.057784525733931E-1
 8.062105129600000E9     3.858373570086380E-1    4.263928148083015E-1   -2.809785639809393E-3    3.699060272489893E-3   -2.636168401103492E-3    3.884118349109176E-3    4.064951615540361E-1    3.057431716417141E-1
 8.062106146550000E9     3.859516757216689E-1    4.261698738607900E-1   -2.851721257370083E-3    3.703798973718615E-3   -2.662350284671504E-3    3.913012014936494E-3    4.068332581802654E-1    3.057307964004477E-1
 8.062107163500000E9     3.861230339986162E-1    4.261362481939691E-1   -2.860184404542477E-3    3.704198208595435E-3   -2.643413140668893E-3    3.915312003207695E-3    4.066061393670883E-1    3.057557949783902E-1
