#  HZ   S   RI   R     50.00 
! Rohde & Schwarz Vector Network Analyzer 
! Rohde-Schwarz,ZNB20-2Port,1311601062101988,3.16
! Created: UTC 3/20/2024, 11:16:41 PM
! freq[Hz]                re:S11                  im:S11                  re:S21                  im:S21                  re:S12                  im:S12                  re:S22                  im:S22
 8.062028042000000E9     3.787909668296462E-1    4.339477845403390E-1   -2.373175187148161E-3    2.729446937807600E-3   -2.215186237038287E-3    2.876875892378718E-3    4.036893209990916E-1    3.097555142765008E-1
 8.062029016150000E9     3.790240848033314E-1    4.338403865498390E-1   -2.396038120710563E-3    2.752756328774836E-3   -2.223003584172383E-3    2.919454548031748E-3    4.039077314816610E-1    3.097816495326614E-1
 8.062029990300000E9     3.791385054896926E-1    4.336175006046465E-1   -2.384523541920754E-3    2.745690058615426E-3   -2.224362426771271E-3    2.924410935949093E-3    4.038707702263429E-1    3.097213301807373E-1
 8.062030964450000E9     3.791269150453340E-1    4.336032480827002E-1   -2.362352851446604E-3    2.749669320267757E-3   -2.227030251695349E-3    2.920853471379113E-3    4.038210871248215E-1    3.096258392578723E-1
 8.062031938600000E9     3.791467355328252E-1    4.335955758495804E-1   -2.391459394613045E-3    2.769446805939752E-3   -2.231157022545235E-3    2.980740088248333E-3    4.038966952022101E-1    3.095096858424369E-1
 8.062032912750000E9     3.793200941151160E-1    4.335630061619709E-1   -2.393450707112294E-3    2.798238164533101E-3   -2.236059101161324E-3    2.949858709357622E-3    4.040242237690821E-1    3.095665938352447E-1
 8.062033886900000E9     3.793907093258050E-1    4.335103103646148E-1   -2.370457532852339E-3    2.785208614952436E-3   -2.240602256709955E-3    2.961112359461870E-3    4.041035555444746E-1    3.094754716812673E-1
 8.062034861050000E9     3.794547510513677E-1    4.334389397491028E-1   -2.374665407026924E-3    2.787516237583547E-3   -2.262127716674711E-3    2.961922548533626E-3    4.040598020563843E-1    3.094122391372647E-1
 8.062035835200000E9     3.795500240490535E-1    4.332421804931334E-1   -2.384555632266739E-3    2.800444553093655E-3   -2.269548550100904E-3    2.968745311161987E-3    4.041171424570157E-1    3.093157041596672E-1
 8.062036809350000E9     3.796624711841692E-1    4.331853266835464E-1   -2.407558337921924E-3    2.800914587397843E-3   -2.232801177715823E-3    2.983236029771351E-3    4.041116245218489E-1    3.092433994847736E-1
 8.062037783500000E9     3.796890768993162E-1    4.330963017367024E-1   -2.420344814938591E-3    2.820807485397480E-3   -2.272393938317015E-3    2.982231337394253E-3    4.041551295106950E-1    3.093631860565895E-1
 8.062038757650000E9     3.797843172122654E-1    4.331916734806677E-1   -2.410239794601427E-3    2.830099679700774E-3   -2.257292647564454E-3    3.010514962056766E-3    4.042802068126552E-1    3.091535910277777E-1
 8.062039731800000E9     3.798948867460825E-1    4.328883750824574E-1   -2.408812209325364E-3    2.834065280134373E-3   -2.282258550629485E-3    3.006829791656384E-3    4.043142910237710E-1    3.090548252319161E-1
 8.062040705950000E9     3.799215926542087E-1    4.328787453763225E-1   -2.449243520893863E-3    2.819705004211459E-3   -2.263679610880231E-3    3.035721033849551E-3    4.043258040502582E-1    3.092203014820484E-1
 8.062041680100000E9     3.799530708668929E-1    4.328933535365473E-1   -2.434130851912065E-3    2.842148315287201E-3   -2.251056930695137E-3    3.009806591613447E-3    4.042589650740072E-1    3.091114244681520E-1
 8.062042654250000E9     3.800915534726941E-1    4.326983734897600E-1   -2.436389650503158E-3    2.856107326693976E-3   -2.251073229871683E-3    2.999112847975746E-3    4.042160886827002E-1    3.089328798764636E-1
 8.062043628400000E9     3.802290456626979E-1    4.326903477961360E-1   -2.411686344361698E-3    2.862600637812775E-3   -2.279696813923106E-3    3.018448760615895E-3    4.044097341984584E-1    3.090815802666861E-1
 8.062044602550000E9     3.802466497800195E-1    4.325890663909222E-1   -2.419317895309623E-3    2.861190745860401E-3   -2.313822544853241E-3    3.033678450353995E-3    4.043561480397380E-1    3.089908676173342E-1
 8.062045576700000E9     3.802842750715125E-1    4.323940038259078E-1   -2.441007179662156E-3    2.873352716214110E-3   -2.253910965787464E-3    3.045899283441687E-3    4.044396923003798E-1    3.088076892468256E-1
 8.062046550850000E9     3.805179695069094E-1    4.323720955506239E-1   -2.450467188336311E-3    2.879100477016206E-3   -2.300342730790141E-3    3.037333749905005E-3    4.045061279037146E-1    3.088239632117007E-1
 8.062047525000000E9     3.805019069780319E-1    4.323143904636799E-1   -2.438297791142427E-3    2.899790767033786E-3   -2.284874753030183E-3    3.050529797717173E-3    4.044925765550583E-1    3.087746978235553E-1
 8.062048499150000E9     3.806067100890305E-1    4.322049808923941E-1   -2.454334495168866E-3    2.888462531084096E-3   -2.282658631941852E-3    3.078442440743089E-3    4.046632355986083E-1    3.087390038476571E-1
 8.062049473300000E9     3.807757833942763E-1    4.321300899101747E-1   -2.461251380190835E-3    2.939529441673684E-3   -2.309230232023778E-3    3.072309940526422E-3    4.045585123490426E-1    3.086479247834902E-1
 8.062050447450000E9     3.808030190487132E-1    4.320602592419831E-1   -2.447325452114074E-3    2.929805300201187E-3   -2.289110509388721E-3    3.085788721108279E-3    4.046260324424127E-1    3.086745452641798E-1
 8.062051421600000E9     3.809372135555449E-1    4.320439905665727E-1   -2.481847175361292E-3    2.927501400473396E-3   -2.291919199369122E-3    3.093501275603716E-3    4.046671670750025E-1    3.084746977695282E-1
 8.062052395750000E9     3.809478019669271E-1    4.317546335515841E-1   -2.487360608256344E-3    2.933640600745623E-3   -2.308716782750585E-3    3.109032183660241E-3    4.047176848120362E-1    3.085804480445462E-1
 8.062053369900000E9     3.809747863587352E-1    4.318347647466885E-1   -2.473071291241038E-3    2.938192407208923E-3   -2.321955110415644E-3    3.115786508180462E-3    4.047448810048958E-1    3.084732373112345E-1
 8.062054344050000E9     3.810225801094795E-1    4.317121683747838E-1   -2.477404604635052E-3    2.949828405165339E-3   -2.328096552768143E-3    3.140380681045304E-3    4.046997831656772E-1    3.084491440619167E-1
 8.062055318200000E9     3.810791810958117E-1    4.317378960514914E-1   -2.484665430961111E-3    2.954695102784624E-3   -2.339143458140895E-3    3.125545961532704E-3    4.047425929060071E-1    3.084238362073654E-1
 8.062056292350000E9     3.812672562392612E-1    4.315717266948965E-1   -2.466885531101486E-3    2.970382545227476E-3   -2.332627621965624E-3    3.160247204201444E-3    4.047760647857865E-1    3.083702562879690E-1
 8.062057266500000E9     3.814319482739099E-1    4.316156265808715E-1   -2.500130522199398E-3    2.981754463815527E-3   -2.347550522675898E-3    3.175319875958441E-3    4.049362095328746E-1    3.083254231684347E-1
 8.062058240650000E9     3.813481850862371E-1    4.314714573723599E-1   -2.506418436207872E-3    2.962537837560231E-3   -2.342264259055830E-3    3.108278146269039E-3    4.049370969078466E-1    3.080715219657257E-1
 8.062059214800000E9     3.815165823730428E-1    4.313348255897028E-1   -2.479538340034858E-3    2.992211876727434E-3   -2.330418531856774E-3    3.165574257500151E-3    4.049129708446330E-1    3.083182296943993E-1
 8.062060188950000E9     3.815734922333159E-1    4.311555121432751E-1   -2.493595100134311E-3    3.030616617878067E-3   -2.351893503632884E-3    3.155101702693907E-3    4.049876359648433E-1    3.081343860887474E-1
 8.062061163100000E9     3.816530478156338E-1    4.312014701883294E-1   -2.509829362593570E-3    3.013153123313887E-3   -2.348444436551928E-3    3.187892170910872E-3    4.050443436607314E-1    3.079994087099205E-1
 8.062062137250000E9     3.817302051313180E-1    4.312036188985964E-1   -2.534698988794384E-3    3.030892064532617E-3   -2.334435767150941E-3    3.183678818265755E-3    4.050270350534300E-1    3.080074521495652E-1
 8.062063111400000E9     3.818103680380518E-1    4.309573804920608E-1   -2.512880394895091E-3    3.014039534943795E-3   -2.361886689115317E-3    3.216741334444409E-3    4.050734884882551E-1    3.079278664233683E-1
 8.062064085550000E9     3.818166703185003E-1    4.309449612319424E-1   -2.496551905389575E-3    3.045696173384715E-3   -2.365453168609286E-3    3.229829411669609E-3    4.050030366964543E-1    3.077673842874900E-1
 8.062065059700000E9     3.820343795864382E-1    4.308642980439240E-1   -2.530308749954416E-3    3.072278387052820E-3   -2.371978795434916E-3    3.252069716955146E-3    4.052448398572631E-1    3.078383637847092E-1
 8.062066033850000E9     3.820931937868655E-1    4.307638805164601E-1   -2.526662322627046E-3    3.071339170737646E-3   -2.405588175342214E-3    3.221342238902047E-3    4.052836708278860E-1    3.077568222963545E-1
 8.062067008000000E9     3.821646892688038E-1    4.306785607702785E-1   -2.556100347237256E-3    3.071066111769127E-3   -2.377598423352713E-3    3.236029622654039E-3    4.051447659940934E-1    3.077710109202184E-1
 8.062067982150000E9     3.822780204686912E-1    4.306633825084799E-1   -2.555415004427390E-3    3.078798408869960E-3   -2.367102719033414E-3    3.265862837102708E-3    4.051716590367693E-1    3.078202130733602E-1
 8.062068956300000E9     3.823832695008997E-1    4.305529028241243E-1   -2.542289927231700E-3    3.127540341316142E-3   -2.381941078993879E-3    3.313302536236858E-3    4.052748065176098E-1    3.076680706546404E-1
 8.062069930450000E9     3.823573649792270E-1    4.303798869095911E-1   -2.560340067098040E-3    3.097747185134901E-3   -2.402882914203891E-3    3.296744571749383E-3    4.053751532218717E-1    3.076399662232660E-1
 8.062070904600000E9     3.825545607923448E-1    4.302860518179764E-1   -2.556427432243059E-3    3.102703732661186E-3   -2.360533243334941E-3    3.313787399112107E-3    4.053653239638136E-1    3.076379361230521E-1
 8.062071878750000E9     3.826541684797794E-1    4.302213732139342E-1   -2.573222148414370E-3    3.134043703971820E-3   -2.398603954245155E-3    3.333970827577722E-3    4.053664978977200E-1    3.074677732945693E-1
 8.062072852900000E9     3.827466354733369E-1    4.300777350812330E-1   -2.562782884535942E-3    3.134599905855636E-3   -2.407160708409238E-3    3.327613542574372E-3    4.053665411111251E-1    3.074525254379968E-1
 8.062073827050000E9     3.827675280427416E-1    4.301495800364289E-1   -2.598946702238632E-3    3.142040278637251E-3   -2.399956130995466E-3    3.326100556675400E-3    4.054808688346737E-1    3.073622389215694E-1
 8.062074801200000E9     3.828894544749104E-1    4.299849476037308E-1   -2.582925377301289E-3    3.151225656033408E-3   -2.436437512150441E-3    3.343786946071829E-3    4.055166712748396E-1    3.072502981628125E-1
 8.062075775350000E9     3.830335242349335E-1    4.299844440860461E-1   -2.600653408433242E-3    3.199077540566420E-3   -2.433580008604632E-3    3.343955702768438E-3    4.055628772765479E-1    3.072064948520724E-1
 8.062076749500000E9     3.830868838223065E-1    4.297214430863105E-1   -2.593138185302133E-3    3.190404673753036E-3   -2.420031416014941E-3    3.370991669146668E-3    4.056045105223466E-1    3.072353886378019E-1
 8.062077723650000E9     3.830724927298708E-1    4.297585485139889E-1   -2.594945804602004E-3    3.207630297375008E-3   -2.418920203473696E-3    3.364221883534213E-3    4.055496108473696E-1    3.071028579381218E-1
 8.062078697800000E9     3.831571418632575E-1    4.294905511336535E-1   -2.617128053297205E-3    3.199864462465730E-3   -2.422961951809197E-3    3.393155301010654E-3    4.057223867620995E-1    3.072118133154014E-1
 8.062079671950000E9     3.832718546863095E-1    4.294675074031344E-1   -2.611054119086064E-3    3.231597887937696E-3   -2.446960231987218E-3    3.430987749019722E-3    4.056667060977692E-1    3.071437539905207E-1
 8.062080646100000E9     3.834816607316049E-1    4.293179457629636E-1   -2.618369832068088E-3    3.242926352159037E-3   -2.437092596384135E-3    3.407535265531599E-3    4.057199824282200E-1    3.070949479449054E-1
 8.062081620250000E9     3.834531961183757E-1    4.293884606355080E-1   -2.638937726895927E-3    3.235327471291829E-3   -2.455270159260941E-3    3.427988155262468E-3    4.057864551948178E-1    3.068722607110549E-1
 8.062082594400000E9     3.836040361166001E-1    4.292034225813092E-1   -2.642426825638743E-3    3.249651233261171E-3   -2.478500571797593E-3    3.474585132569364E-3    4.057320310046545E-1    3.069199332146128E-1
 8.062083568550000E9     3.835795123450175E-1    4.290350955891726E-1   -2.640585865589129E-3    3.277081346357458E-3   -2.518618796835967E-3    3.473936631848208E-3    4.060061074553447E-1    3.069965427783215E-1
 8.062084542700000E9     3.837841980097044E-1    4.288538054860359E-1   -2.645823763498074E-3    3.296741624131658E-3   -2.460510497588738E-3    3.476881041846772E-3    4.058311648587150E-1    3.066886247303993E-1
 8.062085516850000E9     3.838430055990206E-1    4.288793479277639E-1   -2.625322908589826E-3    3.292906691924604E-3   -2.470475716318173E-3    3.486219641612235E-3    4.059587815074692E-1    3.068183382467830E-1
 8.062086491000000E9     3.839874975242464E-1    4.288516658125632E-1   -2.639523152622638E-3    3.318096616363687E-3   -2.457808116141500E-3    3.526450179428443E-3    4.060722094562289E-1    3.067011832978981E-1
 8.062087465150000E9     3.839501681370017E-1    4.287010499672271E-1   -2.681190532760283E-3    3.303622793668589E-3   -2.480939172558466E-3    3.508391159232983E-3    4.059643305611776E-1    3.066370015602100E-1
 8.062088439300000E9     3.840089991034926E-1    4.285942095243513E-1   -2.674307677415733E-3    3.325751843502557E-3   -2.494156901567548E-3    3.532974636867742E-3    4.060507097810744E-1    3.065356900133828E-1
 8.062089413450000E9     3.841068072448028E-1    4.284502749426115E-1   -2.692710028552947E-3    3.340269085623603E-3   -2.509007883117041E-3    3.531535631257076E-3    4.061328035101426E-1    3.066621198009373E-1
 8.062090387600000E9     3.842990187639539E-1    4.282823080560754E-1   -2.698311879447659E-3    3.361208927963873E-3   -2.484798233755402E-3    3.568169645157429E-3    4.060519629670496E-1    3.064549885150546E-1
 8.062091361750000E9     3.843568101812732E-1    4.281809374394976E-1   -2.686374724731799E-3    3.383011100708449E-3   -2.531451939078958E-3    3.574458127649907E-3    4.063675859230135E-1    3.063837558668955E-1
 8.062092335900000E9     3.845186782706340E-1    4.282518819382096E-1   -2.692917658286871E-3    3.393816158225950E-3   -2.516970031082194E-3    3.581407553806528E-3    4.061419886202744E-1    3.065725919424015E-1
 8.062093310050000E9     3.846465105658153E-1    4.280156324465434E-1   -2.688717505656525E-3    3.392526619396044E-3   -2.493751102834875E-3    3.584341221948431E-3    4.062068356007018E-1    3.063072014012057E-1
 8.062094284200000E9     3.847033867081658E-1    4.279799679714976E-1   -2.710044835248065E-3    3.409391663172590E-3   -2.510027036070896E-3    3.621955196378889E-3    4.061974418867078E-1    3.062760550683081E-1
 8.062095258350000E9     3.848858584201682E-1    4.279084332829536E-1   -2.720027037919541E-3    3.441267423795887E-3   -2.542738449000539E-3    3.630608121027884E-3    4.062877719135825E-1    3.062760103654369E-1
 8.062096232500000E9     3.848312454026225E-1    4.277527930377100E-1   -2.727454948368375E-3    3.442612559350315E-3   -2.560078257591826E-3    3.647135256014968E-3    4.062120035062260E-1    3.062061847111310E-1
 8.062097206650000E9     3.849137772874103E-1    4.276964902446914E-1   -2.730644346798135E-3    3.490978267729350E-3   -2.526361398631503E-3    3.671046082362915E-3    4.062257330534099E-1    3.062526523319217E-1
 8.062098180800000E9     3.849763804912785E-1    4.274847914720344E-1   -2.741221875350889E-3    3.486155118432446E-3   -2.555474790805915E-3    3.683092672839044E-3    4.063045074888004E-1    3.061879680817954E-1
 8.062099154950000E9     3.851904531272388E-1    4.273637205734743E-1   -2.789270698497878E-3    3.524803451483539E-3   -2.544374583232356E-3    3.713260161666326E-3    4.062642205528044E-1    3.060316953472537E-1
 8.062100129100000E9     3.852580604705509E-1    4.272943683751885E-1   -2.778972048648965E-3    3.551739648678439E-3   -2.560588492730623E-3    3.726883268157614E-3    4.064846905083339E-1    3.060127368552794E-1
 8.062101103250000E9     3.852663346110156E-1    4.272909066742745E-1   -2.755271786535586E-3    3.556663263873170E-3   -2.569437421975713E-3    3.733743638646619E-3    4.064634308764297E-1    3.059229383261054E-1
 8.062102077400000E9     3.854026893398966E-1    4.270457492298864E-1   -2.769164055896848E-3    3.539638001323466E-3   -2.595866755067329E-3    3.753661920255602E-3    4.066096423392194E-1    3.059155260001434E-1
 8.062103051550000E9     3.855303862231146E-1    4.269813910698334E-1   -2.785677544566036E-3    3.555833971265945E-3   -2.600616172730144E-3    3.775214601717859E-3    4.064323513398498E-1    3.058357976916527E-1
 8.062104025700000E9     3.857198106604398E-1    4.268477800278976E-1   -2.797486963619765E-3    3.576550684448152E-3   -2.577668361487067E-3    3.781787243368460E-3    4.065616234060607E-1    3.057526523113970E-1
 8.062104999850000E9     3.858083154513509E-1    4.267280745149986E-1   -2.788139242316114E-3    3.603429146713643E-3   -2.608524115089823E-3    3.795268403587354E-3    4.066402674146364E-1    3.056963864558717E-1
 8.062105974000000E9     3.858607411536809E-1    4.265518278125910E-1   -2.799202252070832E-3    3.622049381876874E-3   -2.608229624977402E-3    3.792764228622895E-3    4.066001371992415E-1    3.056891867578209E-1
 8.062106948150000E9     3.860032798590955E-1    4.264946566601390E-1   -2.799050011263252E-3    3.647231124565321E-3   -2.616779540454433E-3    3.849990302707151E-3    4.065778748553805E-1    3.056725839683991E-1
 8.062107922300000E9     3.860294376935954E-1    4.262107849339292E-1   -2.813695203028739E-3    3.652925954811225E-3   -2.664404844394358E-3    3.838133333555390E-3    4.067253971755225E-1    3.056234547117618E-1
 8.062108896450000E9     3.861554268141362E-1    4.262929223547658E-1   -2.836984156489854E-3    3.670231203958554E-3   -2.626289185498084E-3    3.889422563014475E-3    4.067166169628827E-1    3.055629969840092E-1
 8.062109870600000E9     3.861233247087917E-1    4.260468819597104E-1   -2.819232526316798E-3    3.684545993518219E-3   -2.670144894358879E-3    3.895343529819183E-3    4.067754290880740E-1    3.054156443565584E-1
 8.062110844750000E9     3.862738999228779E-1    4.258832166359897E-1   -2.858428732850193E-3    3.696734017476901E-3   -2.643277596553903E-3    3.963464048991923E-3    4.067750799527178E-1    3.053779657775367E-1
 8.062111818900000E9     3.864919227099993E-1    4.256938938868127E-1   -2.859219087129038E-3    3.736920708186340E-3   -2.674401836579097E-3    3.951164656412836E-3    4.069231025182873E-1    3.053786702493224E-1
 8.062112793050000E9     3.864753335656718E-1    4.256707902223089E-1   -2.854185773489812E-3    3.749493346139048E-3   -2.646601826018991E-3    3.969151312149579E-3    4.067383780438726E-1    3.053082710962690E-1
 8.062113767200000E9     3.867302113067174E-1    4.256609891434406E-1   -2.858800119708728E-3    3.793667889147554E-3   -2.653054818693666E-3    3.968919532694126E-3    4.068698107799072E-1    3.052109827791040E-1
 8.062114741350000E9     3.868414606527611E-1    4.255011292245829E-1   -2.881077313294616E-3    3.812585172406126E-3   -2.672981222704143E-3    4.018602862601671E-3    4.070902766542208E-1    3.051973421213680E-1
 8.062115715500000E9     3.868379208472906E-1    4.252743468823135E-1   -2.929248642442005E-3    3.819654129857046E-3   -2.662856881685492E-3    4.071272167799875E-3    4.071019537341545E-1    3.051376362795931E-1
