#  HZ   S   RI   R     50.00 
! Rohde & Schwarz Vector Network Analyzer 
! Rohde-Schwarz,ZNB20-2Port,1311601062101988,3.16
! Created: UTC 3/20/2024, 11:16:48 PM
! freq[Hz]                re:S11                  im:S11                  re:S21                  im:S21                  re:S12                  im:S12                  re:S22                  im:S22
 8.062031701000000E9     3.791177325893763E-1    4.336401833925517E-1   -2.358262654616266E-3    2.775152011475935E-3   -2.226346949814796E-3    2.919155443031075E-3    4.039531506642578E-1    3.094688396377097E-1
 8.062032664750000E9     3.791652250487664E-1    4.336459165776425E-1   -2.377264187189291E-3    2.773981191257882E-3   -2.227517614481806E-3    2.932383418241381E-3    4.039402207742900E-1    3.095087418574856E-1
 8.062033628500000E9     3.792734311923968E-1    4.334963854283866E-1   -2.388557684162104E-3    2.773550086127686E-3   -2.227722150222784E-3    2.907825688136554E-3    4.040254316280059E-1    3.094987207152955E-1
 8.062034592250000E9     3.793246148771443E-1    4.333671456219237E-1   -2.396848501294079E-3    2.782980771931754E-3   -2.251770268863691E-3    2.918454339445761E-3    4.040527803288469E-1    3.093533015255697E-1
 8.062035556000000E9     3.795103092085778E-1    4.333153714165052E-1   -2.398555793015040E-3    2.779139725397534E-3   -2.262417780082824E-3    2.966248338413206E-3    4.040768568963978E-1    3.093984844219124E-1
 8.062036519750000E9     3.795111765766104E-1    4.332528289733918E-1   -2.389576720829384E-3    2.810066448297672E-3   -2.255307381212560E-3    2.935978590206157E-3    4.041454826691395E-1    3.093886505299414E-1
 8.062037483500000E9     3.796543810801983E-1    4.331875014449361E-1   -2.413857806972985E-3    2.788960807297516E-3   -2.267256612315606E-3    2.971280534569682E-3    4.042045506744510E-1    3.092791448248874E-1
 8.062038447250000E9     3.797240839843329E-1    4.332345363750110E-1   -2.400725900291725E-3    2.784083594978704E-3   -2.284708510136624E-3    3.005193130727270E-3    4.041232703203532E-1    3.092659647180231E-1
 8.062039411000000E9     3.798651312021100E-1    4.329578594524979E-1   -2.398044567867965E-3    2.834884240614739E-3   -2.245239736808094E-3    2.981594872125617E-3    4.041255150899344E-1    3.091445815000136E-1
 8.062040374750000E9     3.798805802109809E-1    4.329834030875968E-1   -2.407952342486645E-3    2.831972733630824E-3   -2.269248108185830E-3    3.034095174725049E-3    4.042470762342193E-1    3.091517560245711E-1
 8.062041338500000E9     3.799663299520815E-1    4.329726976869412E-1   -2.427569884642652E-3    2.832405706779167E-3   -2.252760893671493E-3    3.014277849713977E-3    4.043368677820426E-1    3.090552932358623E-1
 8.062042302250000E9     3.800833819257077E-1    4.328503783465958E-1   -2.420546896155429E-3    2.858726243258895E-3   -2.260434840762147E-3    2.979047025948046E-3    4.042801827639042E-1    3.090936385007730E-1
 8.062043266000000E9     3.800899904349756E-1    4.328104155944699E-1   -2.431129593285315E-3    2.854496131151571E-3   -2.263144717916705E-3    3.032132872881402E-3    4.043170148826125E-1    3.089197696027354E-1
 8.062044229750000E9     3.802163116862175E-1    4.327135748926283E-1   -2.443349133895539E-3    2.842962514276286E-3   -2.295211216535639E-3    2.990532076529269E-3    4.044191624852389E-1    3.088973930214929E-1
 8.062045193500000E9     3.802509483975250E-1    4.324308528583518E-1   -2.438034901345050E-3    2.859421990543958E-3   -2.305843941785435E-3    3.029576216757456E-3    4.045089113855675E-1    3.088754085458162E-1
 8.062046157250000E9     3.803077708408635E-1    4.325723962366353E-1   -2.448098647390125E-3    2.864549253364464E-3   -2.270547643873537E-3    3.053688235730511E-3    4.045088271669937E-1    3.088185875974401E-1
 8.062047121000000E9     3.803941617100015E-1    4.324394468862804E-1   -2.446965242718076E-3    2.875436754602754E-3   -2.293142851505211E-3    3.045231687669241E-3    4.045213363180435E-1    3.087449017954551E-1
 8.062048084750000E9     3.804497121313412E-1    4.323421863343045E-1   -2.456477297375328E-3    2.887846067875283E-3   -2.292111880320838E-3    3.067363295958477E-3    4.045231503882350E-1    3.087810271410455E-1
 8.062049048500000E9     3.805508436470161E-1    4.322017830755742E-1   -2.446959055671690E-3    2.913489934859783E-3   -2.293011446885959E-3    3.032089406478856E-3    4.046769763296241E-1    3.087339794279481E-1
 8.062050012250000E9     3.806651540939735E-1    4.322151662067648E-1   -2.464501865307476E-3    2.901635245510683E-3   -2.291039507032702E-3    3.092911224617253E-3    4.046591792287139E-1    3.087440069908888E-1
 8.062050976000000E9     3.808309079231830E-1    4.322285800655230E-1   -2.454953706948262E-3    2.932646487066402E-3   -2.303318086679773E-3    3.073240126541252E-3    4.047776570892221E-1    3.085377761599237E-1
 8.062051939750000E9     3.808326691176339E-1    4.319220328212071E-1   -2.451084837097450E-3    2.912669216350942E-3   -2.298478209475787E-3    3.100562672488751E-3    4.046088144212311E-1    3.085340756442388E-1
 8.062052903500000E9     3.809712475476698E-1    4.320352455344196E-1   -2.449476532711128E-3    2.924560653929814E-3   -2.311275326399648E-3    3.114058082293719E-3    4.046267630919770E-1    3.084482323644151E-1
 8.062053867250000E9     3.810175405138488E-1    4.317927856723117E-1   -2.467756365901814E-3    2.934848017356288E-3   -2.332150020953860E-3    3.099720483681669E-3    4.046558185859477E-1    3.085042322405712E-1
 8.062054831000000E9     3.810882521802694E-1    4.319803328312347E-1   -2.479641330777436E-3    2.932030889156817E-3   -2.340120086914617E-3    3.127774088488334E-3    4.047793681836864E-1    3.084134621817056E-1
 8.062055794750000E9     3.811175185728740E-1    4.316403508725658E-1   -2.489772867130127E-3    2.943361327171484E-3   -2.310367624476929E-3    3.115018280234673E-3    4.048414465803144E-1    3.084046509020238E-1
 8.062056758500000E9     3.811524945160129E-1    4.317005368079263E-1   -2.478002947257427E-3    2.951651214389778E-3   -2.323645057553547E-3    3.136170270358669E-3    4.048235948310336E-1    3.083396769078525E-1
 8.062057722250000E9     3.813999943053765E-1    4.316124807859024E-1   -2.500065134181906E-3    2.966824717989895E-3   -2.325009890885986E-3    3.157567485837196E-3    4.050346867036186E-1    3.083081098500450E-1
 8.062058686000000E9     3.814320817170120E-1    4.314605623319978E-1   -2.483659246827650E-3    2.992553989888243E-3   -2.352101919123206E-3    3.162723921177355E-3    4.049426617977775E-1    3.081887282423522E-1
 8.062059649750000E9     3.814210671318488E-1    4.314402106986411E-1   -2.503717802334525E-3    2.989171954560802E-3   -2.317514172853868E-3    3.177033438361644E-3    4.049237255647178E-1    3.081785806328228E-1
 8.062060613500000E9     3.815872181469570E-1    4.312645788548009E-1   -2.492942034488474E-3    2.973693390277750E-3   -2.342387495297602E-3    3.178302104735054E-3    4.050442459536731E-1    3.081524024454990E-1
 8.062061577250000E9     3.817354443907339E-1    4.312222516591467E-1   -2.514718692889705E-3    2.996367338651620E-3   -2.317743067924559E-3    3.152206125881083E-3    4.050524103780730E-1    3.080563073070736E-1
 8.062062541000000E9     3.817401939992262E-1    4.311068453631885E-1   -2.528093919267828E-3    3.027515559545150E-3   -2.360951020799523E-3    3.216502873574863E-3    4.049028866630627E-1    3.080216771156963E-1
 8.062063504750000E9     3.817728479738632E-1    4.310006883366249E-1   -2.508310494633512E-3    3.026024260710582E-3   -2.343398940638489E-3    3.212810006851751E-3    4.050858962448484E-1    3.080086818615109E-1
 8.062064468500000E9     3.818033012251797E-1    4.309551036169868E-1   -2.535890574137463E-3    3.055546788179842E-3   -2.390373448275753E-3    3.212342731717746E-3    4.050214549602550E-1    3.078328588754968E-1
 8.062065432250000E9     3.820201657829636E-1    4.308976525724026E-1   -2.522253074639492E-3    3.046758838503201E-3   -2.338020075768078E-3    3.242558150112407E-3    4.051511101286607E-1    3.078595616946185E-1
 8.062066396000000E9     3.819961095189023E-1    4.307985716384516E-1   -2.532629968175902E-3    3.069894320080252E-3   -2.369245767521885E-3    3.225599441662121E-3    4.051475823060474E-1    3.076956979965368E-1
 8.062067359750000E9     3.821288612853238E-1    4.306275198817521E-1   -2.537918443500854E-3    3.077121657128838E-3   -2.351625989435814E-3    3.227072660771948E-3    4.052451549878656E-1    3.077208195226007E-1
 8.062068323500000E9     3.822534869761715E-1    4.306626006247661E-1   -2.565679831390586E-3    3.078697647539495E-3   -2.351675729992295E-3    3.221480922025714E-3    4.053856112390092E-1    3.077318563199883E-1
 8.062069287250000E9     3.823083729255353E-1    4.306296728197240E-1   -2.561961633636246E-3    3.084126356898551E-3   -2.392145181721462E-3    3.292882769057257E-3    4.053798731215383E-1    3.076923008397763E-1
 8.062070251000000E9     3.824407924851742E-1    4.304699368170707E-1   -2.574290831023491E-3    3.111017605190405E-3   -2.367503765193797E-3    3.287602069268777E-3    4.053890357526350E-1    3.077814894547363E-1
 8.062071214750000E9     3.825179198136064E-1    4.303977150303598E-1   -2.545890521867016E-3    3.098501444476025E-3   -2.396815729189460E-3    3.263583607193595E-3    4.052988602142832E-1    3.077612089538332E-1
 8.062072178500000E9     3.826846348331959E-1    4.303445506449656E-1   -2.571103353335595E-3    3.153169559474775E-3   -2.412914610008638E-3    3.304889746901757E-3    4.053513238136764E-1    3.073542862407235E-1
 8.062073142250000E9     3.826489619391683E-1    4.302605180007743E-1   -2.601558011540420E-3    3.135588706355145E-3   -2.424621139384920E-3    3.335022814671696E-3    4.054008293575826E-1    3.075050950627946E-1
 8.062074106000000E9     3.828090620028425E-1    4.300517181363376E-1   -2.574266310233870E-3    3.142142325442135E-3   -2.422298451381169E-3    3.308538287605786E-3    4.053914560335851E-1    3.073373122092143E-1
 8.062075069750000E9     3.827837580160861E-1    4.299666509318886E-1   -2.574173029701956E-3    3.149554954995656E-3   -2.406769753491207E-3    3.313975040453328E-3    4.053187133263278E-1    3.073235802874337E-1
 8.062076033500000E9     3.830025929598028E-1    4.298041007568535E-1   -2.595001823186265E-3    3.163386879084702E-3   -2.384549887058024E-3    3.318187619799612E-3    4.054115102713995E-1    3.072585967874448E-1
 8.062076997250000E9     3.830468365296520E-1    4.297900821489557E-1   -2.607088965230154E-3    3.136437152893785E-3   -2.405539126621054E-3    3.354094240268759E-3    4.056586988862274E-1    3.073015289561702E-1
 8.062077961000000E9     3.831482825157496E-1    4.298953612989906E-1   -2.596987151617692E-3    3.197856489532389E-3   -2.435889998571666E-3    3.345159863383156E-3    4.055527790477018E-1    3.072653998696404E-1
 8.062078924750000E9     3.831764889624362E-1    4.297719731081798E-1   -2.607942065075862E-3    3.211415293015437E-3   -2.437898335759308E-3    3.357580270300723E-3    4.056057658137565E-1    3.071287334201183E-1
 8.062079888500000E9     3.833615044307296E-1    4.294903148128892E-1   -2.621155822464397E-3    3.200194435154751E-3   -2.445655388695799E-3    3.397004579040989E-3    4.056733853473135E-1    3.071738867021400E-1
 8.062080852250000E9     3.833995532930678E-1    4.293999798323447E-1   -2.592309135215334E-3    3.209928196241976E-3   -2.423457400884079E-3    3.407663657222704E-3    4.056890284606489E-1    3.071353692037100E-1
 8.062081816000000E9     3.834535459096625E-1    4.293703392083390E-1   -2.628290391103004E-3    3.249603319335896E-3   -2.433353524218774E-3    3.425437402951142E-3    4.058268471443257E-1    3.069897571270335E-1
 8.062082779750000E9     3.835631077972456E-1    4.292421351703135E-1   -2.635514355411274E-3    3.237534331282015E-3   -2.450745716989248E-3    3.447629058289743E-3    4.058696128221516E-1    3.069365861030057E-1
 8.062083743500000E9     3.835670028316090E-1    4.291609763749475E-1   -2.623436794926459E-3    3.269526685878293E-3   -2.448332246299123E-3    3.426288481613209E-3    4.058325812975870E-1    3.069733831934642E-1
 8.062084707250000E9     3.837358025824870E-1    4.290970533573644E-1   -2.628314726127142E-3    3.272964155814031E-3   -2.466938666832658E-3    3.450467425431409E-3    4.057946091888985E-1    3.069673042775008E-1
 8.062085671000000E9     3.837675214449583E-1    4.290144855423272E-1   -2.655762683551340E-3    3.267311457202414E-3   -2.443883657183066E-3    3.477157242640240E-3    4.059435337406604E-1    3.066806182748567E-1
 8.062086634750000E9     3.838956340406400E-1    4.289094257843276E-1   -2.659823140512447E-3    3.291885185182571E-3   -2.429093924830514E-3    3.478788857418176E-3    4.058563563242753E-1    3.068690056873036E-1
 8.062087598500000E9     3.839878326530144E-1    4.288530199566493E-1   -2.663522210072598E-3    3.285151330672401E-3   -2.469369105541401E-3    3.486034174232574E-3    4.059627313931904E-1    3.067082985365290E-1
 8.062088562250000E9     3.839557964822520E-1    4.284927753852501E-1   -2.664978070672815E-3    3.332170713005048E-3   -2.471010271967263E-3    3.521689507337293E-3    4.060940893757822E-1    3.066959586292716E-1
 8.062089526000000E9     3.841523560198896E-1    4.285815085477246E-1   -2.662397526101359E-3    3.361942100675323E-3   -2.509461460495439E-3    3.537911073608537E-3    4.061121149069786E-1    3.065881849100487E-1
 8.062090489750000E9     3.842129222170431E-1    4.284930270743931E-1   -2.674285576372669E-3    3.350553101406073E-3   -2.530816450165049E-3    3.524524240931855E-3    4.060498276265546E-1    3.065340493556696E-1
 8.062091453500000E9     3.843932560628723E-1    4.283520420541760E-1   -2.701224722494411E-3    3.375217508499835E-3   -2.529350424802678E-3    3.557788838293918E-3    4.061347943538567E-1    3.065074963197266E-1
 8.062092417250000E9     3.844036166676346E-1    4.282613074969272E-1   -2.706713223381578E-3    3.342548620002368E-3   -2.522026089739907E-3    3.514037248979791E-3    4.060325920066005E-1    3.063344228519215E-1
 8.062093381000000E9     3.844973314668284E-1    4.281580271372367E-1   -2.712832277330299E-3    3.407661076763213E-3   -2.509468933075026E-3    3.599953855278799E-3    4.061437680852897E-1    3.063524011672832E-1
 8.062094344750000E9     3.846981131740251E-1    4.281115770627704E-1   -2.703631356800576E-3    3.406337372526615E-3   -2.503827746411469E-3    3.580498396389732E-3    4.062154266457305E-1    3.064872810325017E-1
 8.062095308500000E9     3.847065877272128E-1    4.278864432721164E-1   -2.736041709185342E-3    3.392216338476601E-3   -2.547377494660283E-3    3.584092994676326E-3    4.063282229428956E-1    3.062814877598861E-1
 8.062096272250000E9     3.846410601254492E-1    4.278282958144103E-1   -2.743711360583155E-3    3.437911035999058E-3   -2.541792021212458E-3    3.631318488111269E-3    4.064249283850579E-1    3.062683228979218E-1
 8.062097236000000E9     3.849091209559576E-1    4.276444957292151E-1   -2.730797096311077E-3    3.484893911117302E-3   -2.537609264099220E-3    3.661092391553191E-3    4.063638710257079E-1    3.061886295658525E-1
 8.062098199750000E9     3.849948504630906E-1    4.276205442471337E-1   -2.746766823537399E-3    3.473865270587065E-3   -2.525748077067308E-3    3.632777430776923E-3    4.063273033454441E-1    3.062408616989147E-1
 8.062099163500000E9     3.850931112958795E-1    4.274397018027635E-1   -2.753797091968730E-3    3.480694371118938E-3   -2.569650435541202E-3    3.683836460448110E-3    4.064587754771898E-1    3.060154141794798E-1
 8.062100127250000E9     3.852330816532753E-1    4.273895658586384E-1   -2.753977764807667E-3    3.523625837700579E-3   -2.581399364851159E-3    3.727030211706337E-3    4.062749967773648E-1    3.061234889689672E-1
 8.062101091000000E9     3.852619311139001E-1    4.273302331318783E-1   -2.766137195600989E-3    3.514536133609579E-3   -2.572443398695306E-3    3.725336257612759E-3    4.064389104698812E-1    3.059765131768540E-1
 8.062102054750000E9     3.854057665274975E-1    4.271214540851603E-1   -2.757116150276072E-3    3.533531933334455E-3   -2.593549617102811E-3    3.737317175243989E-3    4.064654543253662E-1    3.058387149455852E-1
 8.062103018500000E9     3.854433632269189E-1    4.269504695441888E-1   -2.799042959880266E-3    3.558623033325714E-3   -2.596613569659538E-3    3.749108371658171E-3    4.067191715883655E-1    3.057997665359481E-1
 8.062103982250000E9     3.855887256957410E-1    4.269646496147049E-1   -2.776353279450597E-3    3.561914720153278E-3   -2.590212825579014E-3    3.739731295229414E-3    4.065574783539452E-1    3.057990127057541E-1
 8.062104946000000E9     3.856713694377548E-1    4.268459708720707E-1   -2.789215085953615E-3    3.600456958360371E-3   -2.598137085842221E-3    3.765088657713426E-3    4.066067000757670E-1    3.057108846923726E-1
 8.062105909750000E9     3.856828702105805E-1    4.266847450854383E-1   -2.793187631674337E-3    3.579704579660427E-3   -2.633421354118437E-3    3.765841419638176E-3    4.066372370370605E-1    3.056427189394854E-1
 8.062106873500000E9     3.858635801433768E-1    4.265951399480420E-1   -2.799952498341820E-3    3.619026702389493E-3   -2.663845275776358E-3    3.779271832627249E-3    4.067709923336176E-1    3.056203466465100E-1
 8.062107837250000E9     3.859944151654660E-1    4.265301840122730E-1   -2.803314933937367E-3    3.637252751945504E-3   -2.615898918265671E-3    3.833806772902242E-3    4.066901054719098E-1    3.053920935296218E-1
 8.062108801000000E9     3.860641982229535E-1    4.263809884219184E-1   -2.815403902906459E-3    3.656860520629353E-3   -2.616205115207376E-3    3.849271768652910E-3    4.068759318589352E-1    3.055624819802081E-1
 8.062109764750000E9     3.862159535123532E-1    4.263201638581115E-1   -2.853239954133600E-3    3.679140995496235E-3   -2.638989796342716E-3    3.833269270326303E-3    4.068689223728935E-1    3.054306156407895E-1
 8.062110728500000E9     3.861968826843501E-1    4.260199559192521E-1   -2.839115200317171E-3    3.679595233729624E-3   -2.640717871976522E-3    3.889730644720927E-3    4.068095965002070E-1    3.055078230201938E-1
 8.062111692250000E9     3.863363189001265E-1    4.260391824565899E-1   -2.839698372564321E-3    3.730115633220687E-3   -2.647388052473157E-3    3.898696788408687E-3    4.068141574414164E-1    3.054180144589527E-1
 8.062112656000000E9     3.865128795460168E-1    4.259156240203104E-1   -2.845522547116208E-3    3.736819237272579E-3   -2.647332315277923E-3    3.934408878117206E-3    4.068821779742958E-1    3.051985154155300E-1
 8.062113619750000E9     3.866038906615469E-1    4.257286258754844E-1   -2.859095445519139E-3    3.754796849678616E-3   -2.674176996351529E-3    3.955628074830497E-3    4.069708568644696E-1    3.053379915952338E-1
 8.062114583500000E9     3.866787615863665E-1    4.255266696210626E-1   -2.866090951390026E-3    3.766292404254692E-3   -2.669643306621806E-3    4.012525667901203E-3    4.069285331758903E-1    3.053118251300797E-1
 8.062115547250000E9     3.867419082241227E-1    4.255227741176479E-1   -2.845215792838249E-3    3.780405995881209E-3   -2.694792310941329E-3    4.007331295661596E-3    4.069409690702463E-1    3.050607782534412E-1
 8.062116511000000E9     3.868413016756908E-1    4.253369147823258E-1   -2.879224081467556E-3    3.821351544098586E-3   -2.674638473170006E-3    4.003994267210921E-3    4.070820286763309E-1    3.050990536096682E-1
 8.062117474750000E9     3.869907853083465E-1    4.251585603219327E-1   -2.879577008538641E-3    3.841339321664199E-3   -2.685541591456996E-3    4.030311939981102E-3    4.070599222932972E-1    3.050820710987799E-1
 8.062118438500000E9     3.870224144876345E-1    4.249452625396501E-1   -2.923878052484783E-3    3.844736392429982E-3   -2.671540602522996E-3    4.105305873370252E-3    4.072200041472924E-1    3.050855020250763E-1
