#  HZ   S   RI   R     50.00 
! Rohde & Schwarz Vector Network Analyzer 
! Rohde-Schwarz,ZNB20-2Port,1311601062101988,3.16
! Created: UTC 3/20/2024, 11:16:51 PM
! freq[Hz]                re:S11                  im:S11                  re:S21                  im:S21                  re:S12                  im:S12                  re:S22                  im:S22
 8.062030890000000E9     3.790789948880708E-1    4.337721649068019E-1   -2.385404556548862E-3    2.737814323418908E-3   -2.210696622516415E-3    2.937632164225606E-3    4.038400946810555E-1    3.096504551366283E-1
 8.062031860000000E9     3.790029475702636E-1    4.336684426169898E-1   -2.385651021461102E-3    2.758878684409987E-3   -2.193268339946272E-3    2.957634922010457E-3    4.039415151416507E-1    3.094881437838096E-1
 8.062032830000000E9     3.792395581145181E-1    4.335758186054041E-1   -2.384442203986328E-3    2.749830933827361E-3   -2.223161534441982E-3    2.928263994423432E-3    4.039723054690079E-1    3.094957045447341E-1
 8.062033800000000E9     3.793301214663984E-1    4.334559989181224E-1   -2.375026829275933E-3    2.766574155940063E-3   -2.254243603015280E-3    2.947040416601669E-3    4.040190955646377E-1    3.093972325099489E-1
 8.062034770000000E9     3.794187685896081E-1    4.334636262967033E-1   -2.370600842323085E-3    2.780185650977021E-3   -2.235952835036986E-3    2.934608395926072E-3    4.039405529382817E-1    3.094593778078218E-1
 8.062035740000000E9     3.794713160507653E-1    4.332836258729670E-1   -2.396937683516363E-3    2.785356197592290E-3   -2.280747136281398E-3    2.951808194272928E-3    4.038714563136279E-1    3.093659112063108E-1
 8.062036710000000E9     3.795678315935308E-1    4.331915412128671E-1   -2.399931892622019E-3    2.801043085638283E-3   -2.234215205224020E-3    2.956624588675359E-3    4.042701111413556E-1    3.094252688424919E-1
 8.062037680000000E9     3.797302277340977E-1    4.332080348977647E-1   -2.416712289742832E-3    2.787822888612756E-3   -2.270846862732512E-3    2.962046076943230E-3    4.041500971447678E-1    3.093994028196732E-1
 8.062038650000000E9     3.797475047869475E-1    4.331508646699842E-1   -2.391591499669789E-3    2.807014466069689E-3   -2.257765019596915E-3    2.986824878524225E-3    4.042174713511945E-1    3.090383309383339E-1
 8.062039620000000E9     3.798329969473120E-1    4.330682075473586E-1   -2.421931453485225E-3    2.822366755470190E-3   -2.272693943945648E-3    2.992270727438494E-3    4.041765195603744E-1    3.090745428586619E-1
 8.062040590000000E9     3.800275872945046E-1    4.329585804928041E-1   -2.395222333121701E-3    2.808057726170031E-3   -2.266521239704829E-3    3.018533270838204E-3    4.041520406758223E-1    3.091075951933859E-1
 8.062041560000000E9     3.799443347165144E-1    4.328551187697666E-1   -2.437210470248551E-3    2.826065279335092E-3   -2.272988497836636E-3    3.010328425218961E-3    4.042832622795157E-1    3.090875200626551E-1
 8.062042530000000E9     3.799607744846419E-1    4.327672907798389E-1   -2.427733191138742E-3    2.842306619694368E-3   -2.260561354628812E-3    2.996564002871025E-3    4.043658694907092E-1    3.090189058565569E-1
 8.062043500000000E9     3.801404834896573E-1    4.327311571504295E-1   -2.400675723669792E-3    2.847540420675580E-3   -2.290119195889220E-3    3.037577190514881E-3    4.045467575371178E-1    3.089003997606300E-1
 8.062044470000000E9     3.802580302043461E-1    4.326959429195650E-1   -2.449677746617035E-3    2.848651336727254E-3   -2.250338677067355E-3    3.038689970809432E-3    4.043641824279071E-1    3.089433488870241E-1
 8.062045440000000E9     3.802581160720044E-1    4.325769875215419E-1   -2.447320525342292E-3    2.855307540273941E-3   -2.301215926813210E-3    3.044238588036912E-3    4.043693441144284E-1    3.089190343956195E-1
 8.062046410000000E9     3.803528430306429E-1    4.325496730419174E-1   -2.440918235115723E-3    2.872980184808463E-3   -2.295382025415064E-3    3.004505541510904E-3    4.044400708573188E-1    3.089421025702530E-1
 8.062047380000000E9     3.805386982121126E-1    4.324184149066649E-1   -2.456862294590132E-3    2.871641477755687E-3   -2.275291617575605E-3    3.043668649023599E-3    4.044367458199415E-1    3.087784916583284E-1
 8.062048350000000E9     3.804702076869164E-1    4.322638458245982E-1   -2.433382046137996E-3    2.870622338136368E-3   -2.297347875439480E-3    3.076187154571452E-3    4.046262230182929E-1    3.087682499311882E-1
 8.062049320000000E9     3.807345094823147E-1    4.322723851207218E-1   -2.457789640015755E-3    2.878832549266595E-3   -2.288036164452470E-3    3.076253677122031E-3    4.044990075034784E-1    3.086888025056703E-1
 8.062050290000000E9     3.807245163546254E-1    4.321504438321668E-1   -2.463562656656718E-3    2.901654211490272E-3   -2.293899886692656E-3    3.090477246961043E-3    4.045523254751036E-1    3.087552469304350E-1
 8.062051260000000E9     3.807985835732212E-1    4.320576097570349E-1   -2.442343429140118E-3    2.921447584364670E-3   -2.292443299014570E-3    3.081038803970951E-3    4.046761200588513E-1    3.085480301271924E-1
 8.062052230000000E9     3.808759315676986E-1    4.319505992590836E-1   -2.478842212951930E-3    2.934499034670607E-3   -2.311798023023098E-3    3.084887723284720E-3    4.047057048206566E-1    3.085222482180720E-1
 8.062053200000000E9     3.808414716352453E-1    4.319010851687735E-1   -2.450922381310681E-3    2.922140896178739E-3   -2.295087937559198E-3    3.088506150168847E-3    4.046589715751985E-1    3.085088320306957E-1
 8.062054170000000E9     3.809744937701864E-1    4.318457201469469E-1   -2.461471325933271E-3    2.950514136334686E-3   -2.319856793915092E-3    3.113094434101840E-3    4.047670817467870E-1    3.084105668259582E-1
 8.062055140000000E9     3.811254107893362E-1    4.317521896298294E-1   -2.501218187331288E-3    2.960165752638700E-3   -2.299238721255076E-3    3.134032653696224E-3    4.048803627772180E-1    3.083727376730145E-1
 8.062056110000000E9     3.811854268196702E-1    4.316758397780478E-1   -2.471994670868953E-3    2.929761161104234E-3   -2.306062455059653E-3    3.114408712891142E-3    4.047886753389599E-1    3.084013234260617E-1
 8.062057080000000E9     3.812100086351859E-1    4.316308089347720E-1   -2.466509306346235E-3    2.937763387941170E-3   -2.294144082853948E-3    3.128179068730711E-3    4.047850613838577E-1    3.082069840477889E-1
 8.062058050000000E9     3.812633622165526E-1    4.316032707195800E-1   -2.481534780024157E-3    2.968818560304975E-3   -2.351276012481595E-3    3.118620856499525E-3    4.047973920096818E-1    3.082303367942059E-1
 8.062059020000000E9     3.813764039306931E-1    4.315488353839275E-1   -2.513477041453267E-3    2.976775630428397E-3   -2.332681025186069E-3    3.189045057249644E-3    4.048288220785516E-1    3.082671942505548E-1
 8.062059990000000E9     3.814655046530695E-1    4.314452199894234E-1   -2.514627091711710E-3    2.978684738545785E-3   -2.309175104824113E-3    3.162678327107360E-3    4.048187933090839E-1    3.081794211171087E-1
 8.062060960000000E9     3.814914081421021E-1    4.313040278886487E-1   -2.482751235875628E-3    2.980871473960674E-3   -2.352201891290954E-3    3.158972942966088E-3    4.050335624119317E-1    3.080435715854007E-1
 8.062061930000000E9     3.816304234906895E-1    4.312691904151761E-1   -2.488376607378816E-3    2.996710773281424E-3   -2.318481677792447E-3    3.151611388992765E-3    4.050214816600130E-1    3.079388169490435E-1
 8.062062900000000E9     3.818320202452438E-1    4.310859320654848E-1   -2.531251620907229E-3    3.032423438202201E-3   -2.337144094996287E-3    3.182406970520029E-3    4.051038549593746E-1    3.078577220102309E-1
 8.062063870000000E9     3.818301928788615E-1    4.310269746262363E-1   -2.512246257813149E-3    3.007069171189933E-3   -2.391421945394023E-3    3.225064237045658E-3    4.051100388914542E-1    3.078850290691716E-1
 8.062064840000000E9     3.819948722499731E-1    4.309934397513754E-1   -2.508436754623263E-3    3.016762593933361E-3   -2.358398001519265E-3    3.193299461277547E-3    4.050770965418817E-1    3.078794950778984E-1
 8.062065810000000E9     3.819987187368953E-1    4.308674817690858E-1   -2.526160146242870E-3    3.030682262090113E-3   -2.363331798383931E-3    3.233141865552506E-3    4.052323344194927E-1    3.078387935598112E-1
 8.062066780000000E9     3.820212211232326E-1    4.307780224392609E-1   -2.542408731743765E-3    3.048126184613126E-3   -2.332423549966925E-3    3.246462655378326E-3    4.053384995539124E-1    3.078209302351845E-1
 8.062067750000000E9     3.822598352313826E-1    4.307815539577752E-1   -2.541925709858034E-3    3.064374905048412E-3   -2.357282397207926E-3    3.246224929431582E-3    4.051664185610502E-1    3.076777077436014E-1
 8.062068720000000E9     3.823637156602440E-1    4.304793911759086E-1   -2.561717399006072E-3    3.069740711881402E-3   -2.349547348448476E-3    3.264144370370707E-3    4.052637778426676E-1    3.077127530487034E-1
 8.062069690000000E9     3.822889382762742E-1    4.304497217013810E-1   -2.571217970260965E-3    3.098618263400038E-3   -2.368901425121268E-3    3.273694296754729E-3    4.053489200606852E-1    3.076773112584569E-1
 8.062070660000000E9     3.824666565241072E-1    4.303353400456656E-1   -2.575952920150721E-3    3.111255922696665E-3   -2.386775451607215E-3    3.262844676939438E-3    4.053664521956253E-1    3.076972873139607E-1
 8.062071630000000E9     3.824452284949928E-1    4.302274426539106E-1   -2.553110338059675E-3    3.090084888860411E-3   -2.384477082599666E-3    3.275250857634354E-3    4.053395251647263E-1    3.075963887585836E-1
 8.062072600000000E9     3.825916758478160E-1    4.301798409059372E-1   -2.545002810372109E-3    3.116481057827018E-3   -2.366818652643420E-3    3.294366525272349E-3    4.053893727320096E-1    3.075209985001437E-1
 8.062073570000000E9     3.826800274950559E-1    4.301508436280080E-1   -2.551820572380572E-3    3.107974180725190E-3   -2.402605233441649E-3    3.278042394013652E-3    4.053663382597907E-1    3.075576589020873E-1
 8.062074540000000E9     3.827812920057104E-1    4.300468054890551E-1   -2.592618124126498E-3    3.157232681411207E-3   -2.430096873502675E-3    3.326037185352324E-3    4.055790723792077E-1    3.073616451643618E-1
 8.062075510000000E9     3.828069738636982E-1    4.300487219977070E-1   -2.609585888466748E-3    3.135406744152037E-3   -2.409676824540009E-3    3.310751937440284E-3    4.056165221652486E-1    3.074227092996364E-1
 8.062076480000000E9     3.830086805156331E-1    4.298158885071706E-1   -2.591226737233813E-3    3.136495333046303E-3   -2.424039618072716E-3    3.338662520276209E-3    4.057345664693617E-1    3.072065454531976E-1
 8.062077450000000E9     3.830586188804725E-1    4.297422824231631E-1   -2.608987173781770E-3    3.187721435950959E-3   -2.406864383441713E-3    3.314318301510672E-3    4.056417397717629E-1    3.072756449739193E-1
 8.062078420000000E9     3.830619989055303E-1    4.297171628417361E-1   -2.606714689695327E-3    3.172205936459498E-3   -2.449659757334526E-3    3.372819908870684E-3    4.056744074106235E-1    3.071479297388051E-1
 8.062079390000000E9     3.832938479029987E-1    4.295926337736161E-1   -2.587201463758347E-3    3.186006859885970E-3   -2.420238113042269E-3    3.372135021523508E-3    4.057209752424459E-1    3.070323576816243E-1
 8.062080360000000E9     3.833322459798322E-1    4.293519195076917E-1   -2.602861988164957E-3    3.201125871037006E-3   -2.477789601367652E-3    3.383449561220544E-3    4.056436930007990E-1    3.071048757205750E-1
 8.062081330000000E9     3.832754948491043E-1    4.293721118096164E-1   -2.587803609460797E-3    3.241431248054981E-3   -2.435479383672606E-3    3.413286736520588E-3    4.058841832199311E-1    3.069548119615922E-1
 8.062082300000000E9     3.834285975324704E-1    4.292857331853986E-1   -2.612339755773444E-3    3.235956693687808E-3   -2.441488083254265E-3    3.442269133811105E-3    4.057535150495495E-1    3.070119280122396E-1
 8.062083270000000E9     3.835290571311168E-1    4.292165124290928E-1   -2.614148648197044E-3    3.240377115947427E-3   -2.455793410481463E-3    3.409773015437640E-3    4.059099436765563E-1    3.068167559960991E-1
 8.062084240000000E9     3.836607804427930E-1    4.291187775403238E-1   -2.628840019481678E-3    3.274741471412718E-3   -2.455006553613210E-3    3.435582304611559E-3    4.058935356932679E-1    3.068959410906290E-1
 8.062085210000000E9     3.837358386343955E-1    4.290176779377769E-1   -2.652540317628825E-3    3.246013796225045E-3   -2.454350595199583E-3    3.442874835045728E-3    4.058057515873996E-1    3.067138016069830E-1
 8.062086180000000E9     3.838396930930937E-1    4.289307862112499E-1   -2.636121825880800E-3    3.275087502897785E-3   -2.475119289818172E-3    3.504541465548480E-3    4.058644076953797E-1    3.067659013040656E-1
 8.062087150000000E9     3.839276170358367E-1    4.288481396085634E-1   -2.658969407207893E-3    3.315411181188512E-3   -2.509692429468343E-3    3.510304385386713E-3    4.058921038389708E-1    3.067554505021450E-1
 8.062088120000000E9     3.840219346692251E-1    4.287049652418891E-1   -2.652453893150641E-3    3.301927142071353E-3   -2.476362098734099E-3    3.478173135961659E-3    4.059070862582246E-1    3.067288722324624E-1
 8.062089090000000E9     3.840633274036955E-1    4.286182771007697E-1   -2.652774018319408E-3    3.306455157234698E-3   -2.454575049525514E-3    3.540811144096512E-3    4.059219498429771E-1    3.066962696315761E-1
 8.062090060000000E9     3.842236602052580E-1    4.285879668737801E-1   -2.653893024306347E-3    3.347210931763813E-3   -2.518453380089311E-3    3.562169524608200E-3    4.059945044404988E-1    3.067096772654201E-1
 8.062091030000000E9     3.842366757834155E-1    4.284337147017298E-1   -2.685078008316107E-3    3.317560729513228E-3   -2.500299716799079E-3    3.520110368706506E-3    4.061228530773786E-1    3.064817302064619E-1
 8.062092000000000E9     3.844697269727131E-1    4.284278489092662E-1   -2.670057147465142E-3    3.365093227986183E-3   -2.531977792366504E-3    3.542366155585425E-3    4.061658295871907E-1    3.063478690780427E-1
 8.062092970000000E9     3.845415964986886E-1    4.281720342637443E-1   -2.681694211224193E-3    3.367206114084610E-3   -2.513635322714674E-3    3.593634141323442E-3    4.062563945682794E-1    3.064583538307316E-1
 8.062093940000000E9     3.845444768353353E-1    4.281977814964762E-1   -2.698876231119110E-3    3.390035510059674E-3   -2.522019824925483E-3    3.607991753039596E-3    4.062066883987917E-1    3.063327485472408E-1
 8.062094910000000E9     3.847865937538407E-1    4.280818731097966E-1   -2.716103165129488E-3    3.407117748452833E-3   -2.530581501640634E-3    3.585656708977735E-3    4.062869974312227E-1    3.063592449405005E-1
 8.062095880000000E9     3.848090670900432E-1    4.279240121315826E-1   -2.719489527728373E-3    3.448609538243883E-3   -2.512578058655713E-3    3.601678627253927E-3    4.062236800941705E-1    3.062050124778113E-1
 8.062096850000000E9     3.848058778846741E-1    4.278301951248646E-1   -2.738232211971992E-3    3.429065626326757E-3   -2.547421869495815E-3    3.644506064436741E-3    4.063461929367688E-1    3.062355238255821E-1
 8.062097820000000E9     3.848192803707895E-1    4.276969245577071E-1   -2.712246052991277E-3    3.451186829601652E-3   -2.534569716121662E-3    3.634505787124095E-3    4.062631713481828E-1    3.060937522746951E-1
 8.062098790000000E9     3.850240488655132E-1    4.276727564517279E-1   -2.751069201287623E-3    3.471882208755125E-3   -2.544400328868739E-3    3.643483184367159E-3    4.064236749583156E-1    3.061124067938140E-1
 8.062099760000000E9     3.851673008830777E-1    4.275205693998802E-1   -2.761995398912406E-3    3.491980567035409E-3   -2.587360619861697E-3    3.697654147541415E-3    4.065165738122591E-1    3.059125229341105E-1
 8.062100730000000E9     3.852154039305596E-1    4.273532687953713E-1   -2.751209205066040E-3    3.515115811339617E-3   -2.571061563821293E-3    3.689808507885640E-3    4.063968718738691E-1    3.059835542407754E-1
 8.062101700000000E9     3.853058198867017E-1    4.271828279117127E-1   -2.758262563779962E-3    3.527738640628546E-3   -2.567836606234307E-3    3.680125684252711E-3    4.065251198287276E-1    3.057488363634883E-1
 8.062102670000000E9     3.853924841352161E-1    4.271724032220954E-1   -2.751131340186550E-3    3.528981088266060E-3   -2.584222836582622E-3    3.711066029965902E-3    4.065489326984010E-1    3.059529178232790E-1
 8.062103640000000E9     3.854824526875341E-1    4.269641380172163E-1   -2.752708710192111E-3    3.523447294467952E-3   -2.633346660118155E-3    3.758939828305771E-3    4.065550515665026E-1    3.057786422890301E-1
 8.062104610000000E9     3.856908830173295E-1    4.267894650610557E-1   -2.788478262728722E-3    3.579254606534424E-3   -2.621736460867560E-3    3.790301918756997E-3    4.065374882773736E-1    3.058403471163517E-1
 8.062105580000000E9     3.857505259111251E-1    4.267018208438207E-1   -2.783896790850544E-3    3.589809507029966E-3   -2.579843503085083E-3    3.783123407664939E-3    4.066583078482362E-1    3.057197066838501E-1
 8.062106550000000E9     3.857854090238879E-1    4.265979539195131E-1   -2.786930058318625E-3    3.570612342849652E-3   -2.600520917095945E-3    3.786564450415301E-3    4.066766466415932E-1    3.055771082590686E-1
 8.062107520000000E9     3.859109616039268E-1    4.265301081770780E-1   -2.815892153823831E-3    3.636514792747593E-3   -2.625243574881289E-3    3.810053138553393E-3    4.066832629022057E-1    3.055424347479028E-1
 8.062108490000000E9     3.859839311949793E-1    4.264687315706973E-1   -2.816937319634468E-3    3.662115747810078E-3   -2.605156416345842E-3    3.839405805854303E-3    4.068238133937835E-1    3.056482181890396E-1
 8.062109460000000E9     3.861523471995374E-1    4.263208129640747E-1   -2.830917768494952E-3    3.630752010751730E-3   -2.633949573819606E-3    3.858343440824333E-3    4.067920640047026E-1    3.057005601925245E-1
 8.062110430000000E9     3.861053000785234E-1    4.261515749185162E-1   -2.833918396005640E-3    3.685890662826777E-3   -2.643683688233347E-3    3.860830868686579E-3    4.067364540886564E-1    3.054874292958866E-1
 8.062111400000000E9     3.863534720684477E-1    4.260403693500885E-1   -2.849174274488091E-3    3.709314382752746E-3   -2.659043842455583E-3    3.880245778433995E-3    4.069670414407472E-1    3.052541278791108E-1
 8.062112370000000E9     3.864078673830264E-1    4.258355619859389E-1   -2.836644037593401E-3    3.723632221495834E-3   -2.672209531534503E-3    3.913573509350744E-3    4.068518095010817E-1    3.052608532949551E-1
 8.062113340000000E9     3.865787720199959E-1    4.258833787776545E-1   -2.876791129762124E-3    3.746805735287289E-3   -2.657073005428448E-3    3.929018547584580E-3    4.068757609642201E-1    3.053177565258840E-1
 8.062114310000000E9     3.867767250996536E-1    4.256386557661804E-1   -2.876560885790717E-3    3.762224087455062E-3   -2.645930083586062E-3    3.954257640225151E-3    4.068773613952749E-1    3.052466137069609E-1
 8.062115280000000E9     3.866345394569203E-1    4.255606204648775E-1   -2.877450504531684E-3    3.787799654460017E-3   -2.620484812745834E-3    3.978286810959237E-3    4.068984560628240E-1    3.053042561026723E-1
 8.062116250000000E9     3.869528693081576E-1    4.252441698428781E-1   -2.864441964064747E-3    3.797070441972871E-3   -2.666349516029227E-3    3.978858683804191E-3    4.070952442995029E-1    3.050952605726956E-1
 8.062117220000000E9     3.868832374084748E-1    4.252317456349224E-1   -2.896632824774907E-3    3.806887968938115E-3   -2.678227391740623E-3    4.002561530828418E-3    4.070409133742809E-1    3.051240583190591E-1
 8.062118190000000E9     3.869843914557786E-1    4.250688486922186E-1   -2.897623250228439E-3    3.840526266323104E-3   -2.656613740554290E-3    4.030248075975970E-3    4.071116888707827E-1    3.049614568749736E-1
