#  HZ   S   RI   R     50.00 
! Rohde & Schwarz Vector Network Analyzer 
! Rohde-Schwarz,ZNB20-2Port,1311601062101988,3.16
! Created: UTC 3/20/2024, 11:17:12 PM
! freq[Hz]                re:S11                  im:S11                  re:S21                  im:S21                  re:S12                  im:S12                  re:S22                  im:S22
 8.062042159000000E9     3.796873566536363E-1    4.330803209943450E-1   -2.402340949000624E-3    2.816647244001221E-3   -2.241902718686769E-3    2.977415049257975E-3    4.043048569544683E-1    3.089652170556931E-1
 8.062043096200000E9     3.798344047332602E-1    4.329369056592642E-1   -2.403423911448975E-3    2.798916353178262E-3   -2.257518771741941E-3    2.987417110742004E-3    4.042417696451313E-1    3.090013769018323E-1
 8.062044033400000E9     3.800397611436084E-1    4.330488582582624E-1   -2.419896752323016E-3    2.805477965425033E-3   -2.285372314515996E-3    2.991363523348455E-3    4.043437897021130E-1    3.088478188771829E-1
 8.062044970600000E9     3.801852264548414E-1    4.327451597476498E-1   -2.416288347290289E-3    2.829058108317326E-3   -2.249715341583217E-3    2.981586553707509E-3    4.042883194539090E-1    3.090555800708500E-1
 8.062045907800000E9     3.800567634364647E-1    4.327369518039813E-1   -2.423485224446356E-3    2.824338635511018E-3   -2.282396059689757E-3    2.990820571722716E-3    4.043330380423515E-1    3.089362728412212E-1
 8.062046845000000E9     3.801993142411142E-1    4.326118906009009E-1   -2.388751942655087E-3    2.868875017421462E-3   -2.236640523239064E-3    2.990363626715464E-3    4.043538327228178E-1    3.088099998487321E-1
 8.062047782200000E9     3.804017285239418E-1    4.325820519106865E-1   -2.419105924857232E-3    2.826214618958317E-3   -2.259670041427057E-3    3.008348606103060E-3    4.043914187120866E-1    3.087300084143341E-1
 8.062048719400000E9     3.803898652106087E-1    4.324371182269148E-1   -2.418475347726465E-3    2.847541057331821E-3   -2.283457159936994E-3    2.990261815069535E-3    4.045200638383366E-1    3.087117065407230E-1
 8.062049656600000E9     3.804370614183367E-1    4.323952032967604E-1   -2.458006951245508E-3    2.857633974614516E-3   -2.281064548122398E-3    3.038879815898487E-3    4.044917198156346E-1    3.086953503371160E-1
 8.062050593800000E9     3.805618012077164E-1    4.322802785402453E-1   -2.446367431150092E-3    2.847394384364113E-3   -2.289365133854592E-3    3.036337772770713E-3    4.043690882971635E-1    3.085147678781056E-1
 8.062051531000000E9     3.805843995076713E-1    4.322689463728507E-1   -2.432440956777885E-3    2.851637959820630E-3   -2.296833856323045E-3    3.018522283013539E-3    4.045064853112408E-1    3.085966633144357E-1
 8.062052468200000E9     3.807645076574652E-1    4.322307532521519E-1   -2.434708163452438E-3    2.871302552458945E-3   -2.292187953247674E-3    3.050078314484786E-3    4.045507649553333E-1    3.084732358032133E-1
 8.062053405400000E9     3.807708355816706E-1    4.321990731734623E-1   -2.464667614249843E-3    2.882065351627263E-3   -2.275776225444550E-3    3.062442331918926E-3    4.046312714179784E-1    3.083958665604060E-1
 8.062054342600000E9     3.809474841330460E-1    4.319130695939442E-1   -2.456577872727945E-3    2.894026028932903E-3   -2.287651775940136E-3    3.042776795473029E-3    4.046066650051037E-1    3.084021107544652E-1
 8.062055279800000E9     3.809892151960146E-1    4.319141061865955E-1   -2.451048523718246E-3    2.893940965495872E-3   -2.299628661806201E-3    3.059718758461417E-3    4.046929260422492E-1    3.083509379881764E-1
 8.062056217000000E9     3.810747186862004E-1    4.318981371210933E-1   -2.465658225174669E-3    2.921785126039446E-3   -2.302007543176280E-3    3.125618889113467E-3    4.048528580421174E-1    3.083390869405371E-1
 8.062057154200000E9     3.810443082897741E-1    4.317737437454001E-1   -2.444143462676874E-3    2.914152762344998E-3   -2.301333068098434E-3    3.069274284675357E-3    4.046690653147065E-1    3.083427305723939E-1
 8.062058091400000E9     3.812208586794393E-1    4.318221245240400E-1   -2.464097342909909E-3    2.930350034381400E-3   -2.327756030051094E-3    3.072662801207513E-3    4.047929974779331E-1    3.081886977552479E-1
 8.062059028600000E9     3.812714328486200E-1    4.316284547323545E-1   -2.458520196531782E-3    2.916377694263222E-3   -2.335396402010148E-3    3.095926097661671E-3    4.049522440921920E-1    3.082703861971191E-1
 8.062059965800000E9     3.813365760497107E-1    4.316455554596132E-1   -2.458107869882324E-3    2.961658388249287E-3   -2.310849796165515E-3    3.111953150495313E-3    4.048153500181965E-1    3.081417359785635E-1
 8.062060903000000E9     3.814078491295911E-1    4.315586543608663E-1   -2.471471012869653E-3    2.927981065412977E-3   -2.330544550267505E-3    3.110873882504998E-3    4.047636665995858E-1    3.080831161870393E-1
 8.062061840200000E9     3.815223000791368E-1    4.313544042833409E-1   -2.495848920670535E-3    2.974437428456158E-3   -2.309713775363919E-3    3.158611283966319E-3    4.049335001893032E-1    3.080248238033610E-1
 8.062062777400000E9     3.815429269231956E-1    4.313949689640232E-1   -2.480319806735133E-3    2.963770518989693E-3   -2.350281751703265E-3    3.126909534334834E-3    4.050465782912143E-1    3.079881051843324E-1
 8.062063714600000E9     3.816819145773572E-1    4.313605032768911E-1   -2.494064738379393E-3    2.978942788111038E-3   -2.308955664941118E-3    3.175252846519274E-3    4.049387750590843E-1    3.078794206019784E-1
 8.062064651800000E9     3.816415968793157E-1    4.310851144111953E-1   -2.488716629051016E-3    2.985593468801539E-3   -2.356951011333573E-3    3.155210965458443E-3    4.049874748565869E-1    3.076885131351441E-1
 8.062065589000000E9     3.818541324895729E-1    4.310277308429272E-1   -2.495681258533097E-3    3.000160009806315E-3   -2.345485692354158E-3    3.191833036116473E-3    4.050441611039371E-1    3.077878787352533E-1
 8.062066526200000E9     3.820076732011229E-1    4.309519373399237E-1   -2.500207464512351E-3    2.992568259924078E-3   -2.327549968595266E-3    3.208431953952473E-3    4.051367094380706E-1    3.076841585770504E-1
 8.062067463400000E9     3.820183422932156E-1    4.309563375312087E-1   -2.506801699100618E-3    3.010426225014046E-3   -2.320307804673464E-3    3.179525495299449E-3    4.051229157729153E-1    3.077040562683238E-1
 8.062068400600000E9     3.819006951519889E-1    4.308477454810739E-1   -2.510252011589696E-3    3.007970012659695E-3   -2.372258071324448E-3    3.222454491042991E-3    4.052816064660789E-1    3.077260980101080E-1
 8.062069337800000E9     3.820730503876423E-1    4.307441133780231E-1   -2.524736807522967E-3    3.016748258099958E-3   -2.369884664300770E-3    3.227833431033395E-3    4.051822339900740E-1    3.076293344564843E-1
 8.062070275000000E9     3.821996449117118E-1    4.307060434658700E-1   -2.528400457311551E-3    3.050238358020676E-3   -2.336498725959209E-3    3.222459272847137E-3    4.052234575016984E-1    3.075699418352891E-1
 8.062071212200000E9     3.823593429400137E-1    4.307255602798878E-1   -2.544086993118148E-3    3.052615463687074E-3   -2.391009868246919E-3    3.242305055930914E-3    4.052342410126867E-1    3.075192077995185E-1
 8.062072149400000E9     3.824208993890946E-1    4.305284246065597E-1   -2.511802613416895E-3    3.055645343332225E-3   -2.395546249921857E-3    3.245811740383808E-3    4.052759209896260E-1    3.073166569942050E-1
 8.062073086600000E9     3.824197551917577E-1    4.304744134410731E-1   -2.536812382161634E-3    3.048810085272490E-3   -2.368583446837250E-3    3.220556875371214E-3    4.053305162517587E-1    3.074667658976969E-1
 8.062074023800000E9     3.827180704388590E-1    4.302858747747763E-1   -2.545688663390111E-3    3.070131936455105E-3   -2.356052544851128E-3    3.266866359400148E-3    4.054878515765945E-1    3.073577169904009E-1
 8.062074961000000E9     3.826271138597842E-1    4.302481790524827E-1   -2.553641425060474E-3    3.077544598601313E-3   -2.385835279019906E-3    3.227312550844067E-3    4.054144405619041E-1    3.073904522455371E-1
 8.062075898200000E9     3.826111782689062E-1    4.302598446845288E-1   -2.589004186198654E-3    3.115456844238414E-3   -2.369224414221046E-3    3.256877358399447E-3    4.054999967670811E-1    3.073824588793457E-1
 8.062076835400000E9     3.827376276183888E-1    4.300644510180367E-1   -2.564832046159737E-3    3.110542332632585E-3   -2.433987664966734E-3    3.293317281470658E-3    4.055389376313747E-1    3.070756376742733E-1
 8.062077772600000E9     3.829233587521536E-1    4.299868080193273E-1   -2.579006015388575E-3    3.143700815528270E-3   -2.353918413897661E-3    3.295320239234433E-3    4.055363926662202E-1    3.071565363054635E-1
 8.062078709800000E9     3.828284421900531E-1    4.298745407958866E-1   -2.575202729382145E-3    3.121157403600236E-3   -2.395373356418667E-3    3.330250219403827E-3    4.056528697370466E-1    3.071642254589178E-1
 8.062079647000000E9     3.830516997071449E-1    4.298404318233824E-1   -2.573752898587653E-3    3.158538449017540E-3   -2.457830110989450E-3    3.330840334963892E-3    4.056119802945389E-1    3.069934865270674E-1
 8.062080584200000E9     3.830466168070223E-1    4.297146834291590E-1   -2.614884777664933E-3    3.139272518697812E-3   -2.410894408915041E-3    3.317172962152471E-3    4.055210184203373E-1    3.070450726001103E-1
 8.062081521400000E9     3.832542357222303E-1    4.297042633505822E-1   -2.593605103287056E-3    3.146554006035475E-3   -2.434804513934339E-3    3.346832760640794E-3    4.056891186167369E-1    3.069431391991851E-1
 8.062082458600000E9     3.833268221054117E-1    4.296237316672781E-1   -2.614606399354887E-3    3.180825685914900E-3   -2.408909284477456E-3    3.355702959006681E-3    4.056721498785276E-1    3.069680565384180E-1
 8.062083395800000E9     3.834411691637555E-1    4.294059305617668E-1   -2.617018234456252E-3    3.190810963132658E-3   -2.442669150936136E-3    3.377685241919606E-3    4.058257721020075E-1    3.068883955973553E-1
 8.062084333000000E9     3.835085519319794E-1    4.294581745575813E-1   -2.593166397366539E-3    3.191114108520321E-3   -2.451951333833327E-3    3.357125041976278E-3    4.057581777952465E-1    3.068408507038969E-1
 8.062085270200000E9     3.835754874555499E-1    4.292912911513775E-1   -2.602519766025390E-3    3.207964466262178E-3   -2.442669110473536E-3    3.414549307821868E-3    4.058876597791550E-1    3.068432320031148E-1
 8.062086207400000E9     3.837482202348459E-1    4.292478266923621E-1   -2.613085351185862E-3    3.237884514187014E-3   -2.464834093117901E-3    3.420775548790296E-3    4.058981719943338E-1    3.067201116977228E-1
 8.062087144600000E9     3.836034200285143E-1    4.290579469535941E-1   -2.666107992645010E-3    3.236610861602487E-3   -2.459774316173878E-3    3.398579807818384E-3    4.058100709312774E-1    3.067615202352393E-1
 8.062088081800000E9     3.837954262556917E-1    4.289920130984469E-1   -2.672308567381230E-3    3.263680516271614E-3   -2.445978049386786E-3    3.456570540431226E-3    4.060313407439168E-1    3.066101090345224E-1
 8.062089019000000E9     3.839365721859152E-1    4.288895877155389E-1   -2.668925908838614E-3    3.253577923054404E-3   -2.443979620827777E-3    3.458194435531478E-3    4.058868177751029E-1    3.065312055666683E-1
 8.062089956200000E9     3.839629809227451E-1    4.288519696296781E-1   -2.634379413473891E-3    3.302561282908419E-3   -2.467254746814007E-3    3.494355684331929E-3    4.057795728689251E-1    3.066420032880784E-1
 8.062090893400000E9     3.841187742365004E-1    4.287953927164151E-1   -2.648381658304157E-3    3.270278173457815E-3   -2.488744163131116E-3    3.479503795114264E-3    4.059968664477882E-1    3.064279551457235E-1
 8.062091830600000E9     3.841463227187672E-1    4.286654562332599E-1   -2.681032858026359E-3    3.282394528348283E-3   -2.485489253052509E-3    3.484604540649594E-3    4.061170494163071E-1    3.063823951911739E-1
 8.062092767800000E9     3.842866680248789E-1    4.284354719604329E-1   -2.677061281664131E-3    3.299906608791848E-3   -2.484815659070846E-3    3.536772612522714E-3    4.060382615675802E-1    3.063906322780610E-1
 8.062093705000000E9     3.844049120785372E-1    4.283584884815158E-1   -2.689925905892140E-3    3.324859175305504E-3   -2.489100110500720E-3    3.483079929715966E-3    4.059967601299165E-1    3.062768238552314E-1
 8.062094642200000E9     3.844333914611454E-1    4.282567444563756E-1   -2.661055955687898E-3    3.344274767330103E-3   -2.481392934973048E-3    3.517477227802300E-3    4.062138020921901E-1    3.063087026176053E-1
 8.062095579400000E9     3.845681180650778E-1    4.281999074012874E-1   -2.704404966617385E-3    3.367816527668856E-3   -2.547205983996738E-3    3.534232464031522E-3    4.061970826627258E-1    3.062615198027668E-1
 8.062096516600000E9     3.845388240194650E-1    4.281652387208828E-1   -2.728395085472646E-3    3.351975206448621E-3   -2.530487790396300E-3    3.547189980559467E-3    4.061905243930348E-1    3.063446431515416E-1
 8.062097453800000E9     3.848466366478321E-1    4.279926398160441E-1   -2.715107752332003E-3    3.387880650163527E-3   -2.541523683613930E-3    3.584099012610056E-3    4.063124430655224E-1    3.061693795740282E-1
 8.062098391000000E9     3.847620923216121E-1    4.280049163355963E-1   -2.713309088994637E-3    3.380726095406991E-3   -2.539089073297825E-3    3.598095307537128E-3    4.062509317178916E-1    3.060429302105601E-1
 8.062099328200000E9     3.849483678764503E-1    4.277585012056510E-1   -2.711404087761063E-3    3.383741689615975E-3   -2.542310886024178E-3    3.588222947372489E-3    4.063472204966421E-1    3.060382150013253E-1
 8.062100265400000E9     3.849062738575434E-1    4.276698094896116E-1   -2.727958284052664E-3    3.423232081890615E-3   -2.538695329869299E-3    3.575782507462771E-3    4.063979377597121E-1    3.059585982823694E-1
 8.062101202600000E9     3.850600899821101E-1    4.276454054886768E-1   -2.773028742139453E-3    3.440840336654278E-3   -2.519179805467526E-3    3.580904314081709E-3    4.062913763147208E-1    3.059213504778113E-1
 8.062102139800000E9     3.850232502383234E-1    4.275343969278091E-1   -2.734499921245865E-3    3.450831703951684E-3   -2.541110967327517E-3    3.643872312393390E-3    4.064555040837223E-1    3.060110166316299E-1
 8.062103077000000E9     3.850946080212022E-1    4.274454813200539E-1   -2.750664759219066E-3    3.462730409916965E-3   -2.566607765854757E-3    3.639887767041670E-3    4.063873956306621E-1    3.058742502129757E-1
 8.062104014200000E9     3.853485449228239E-1    4.273212051654898E-1   -2.772677957383634E-3    3.484528996624649E-3   -2.559890280054997E-3    3.665044157821094E-3    4.065122433220291E-1    3.057632589342930E-1
 8.062104951400000E9     3.855666056404286E-1    4.271048016937962E-1   -2.785092694679419E-3    3.492416743189675E-3   -2.566556490631198E-3    3.672713506868983E-3    4.064899145118030E-1    3.057272367800783E-1
 8.062105888600000E9     3.855075220880058E-1    4.270908116588034E-1   -2.753927794807169E-3    3.488824722891002E-3   -2.585666794249419E-3    3.732356974865625E-3    4.065619294348061E-1    3.056290848959696E-1
 8.062106825800000E9     3.855943656774221E-1    4.270706521224741E-1   -2.748095087408974E-3    3.516770774296449E-3   -2.574836771022329E-3    3.672580454070260E-3    4.064980829037759E-1    3.056446915118123E-1
 8.062107763000000E9     3.857177224015076E-1    4.268785455056908E-1   -2.782545055571308E-3    3.547348636039279E-3   -2.582877158916892E-3    3.713572454036462E-3    4.066169435067291E-1    3.055585432901782E-1
 8.062108700200000E9     3.859306410375605E-1    4.266920690568666E-1   -2.755545441187848E-3    3.555956821336118E-3   -2.599870790686935E-3    3.780929159035260E-3    4.067965270230018E-1    3.054066486232476E-1
 8.062109637400000E9     3.859078616714283E-1    4.266857020068719E-1   -2.797773485258124E-3    3.550284979599280E-3   -2.579459081613284E-3    3.770733185751923E-3    4.065540907516386E-1    3.054683983530359E-1
 8.062110574600000E9     3.859366477807571E-1    4.266001578005792E-1   -2.802850723539500E-3    3.609485357012827E-3   -2.623174709656269E-3    3.775233232008671E-3    4.068113723549954E-1    3.054754721775492E-1
 8.062111511800000E9     3.861985445635606E-1    4.264048207992981E-1   -2.808617781108191E-3    3.595431093922921E-3   -2.607673745826144E-3    3.771554503545596E-3    4.068586712268444E-1    3.054414652639725E-1
 8.062112449000000E9     3.862316579448160E-1    4.262603119361999E-1   -2.796196376605803E-3    3.609063111863141E-3   -2.631613246951862E-3    3.811808554008204E-3    4.067905440096919E-1    3.054223194992358E-1
 8.062113386200000E9     3.862792321506958E-1    4.261748995356592E-1   -2.825067109234523E-3    3.652134125694150E-3   -2.653564908084684E-3    3.834044311954288E-3    4.067347930849392E-1    3.051794379180605E-1
 8.062114323400000E9     3.863833235982316E-1    4.261001526544408E-1   -2.834960325705267E-3    3.673909782890241E-3   -2.639331615351463E-3    3.861384637891751E-3    4.067981574088981E-1    3.051446287968356E-1
 8.062115260600000E9     3.865146432346885E-1    4.259925345200408E-1   -2.848269543033083E-3    3.682889252191542E-3   -2.633995619560670E-3    3.874751658547738E-3    4.068111900753277E-1    3.052526712769569E-1
 8.062116197800000E9     3.864791788942515E-1    4.258907782718211E-1   -2.844147783942931E-3    3.690484077541158E-3   -2.631874497184056E-3    3.922080540650004E-3    4.068373711031088E-1    3.050370877349278E-1
 8.062117135000000E9     3.867377971756110E-1    4.256865403714751E-1   -2.867213593855106E-3    3.724984623050762E-3   -2.664818015290308E-3    3.920635820333754E-3    4.070880397875598E-1    3.051320889768098E-1
 8.062118072200000E9     3.868198298120742E-1    4.254606999806649E-1   -2.835981498869183E-3    3.724052929507527E-3   -2.684094465253828E-3    3.922272252890377E-3    4.069645936903028E-1    3.050129388838521E-1
 8.062119009400000E9     3.869177422875286E-1    4.254433713057174E-1   -2.869520536178327E-3    3.759322262615889E-3   -2.674374759875994E-3    3.959466912444566E-3    4.069253632206518E-1    3.049478168546742E-1
 8.062119946600000E9     3.870458910842010E-1    4.253541259621899E-1   -2.865897247775607E-3    3.778214530007137E-3   -2.688261337773506E-3    3.986584541082873E-3    4.070670266516350E-1    3.048598896049678E-1
 8.062120883800000E9     3.871419716998536E-1    4.252659467652942E-1   -2.885566568143245E-3    3.785154913769096E-3   -2.695508503563700E-3    4.036130102970686E-3    4.072099934881431E-1    3.049155341837345E-1
 8.062121821000000E9     3.872521558430931E-1    4.250059152745291E-1   -2.914527314854636E-3    3.811385607243067E-3   -2.693407486787748E-3    4.036608336523653E-3    4.070787438844460E-1    3.048002445980806E-1
 8.062122758200000E9     3.873101708099436E-1    4.248361526311821E-1   -2.902782383842145E-3    3.835300068541687E-3   -2.705087485322289E-3    4.016761784833671E-3    4.071209262608155E-1    3.047184507771395E-1
 8.062123695400000E9     3.873170144363015E-1    4.247895513216196E-1   -2.945366114562933E-3    3.853318644174801E-3   -2.708832590847923E-3    4.056940739883040E-3    4.071517698895253E-1    3.048323047825141E-1
 8.062124632600000E9     3.875081317684448E-1    4.245837555482981E-1   -2.943519712569453E-3    3.874216522370534E-3   -2.733677522981840E-3    4.101020327331035E-3    4.072356953923680E-1    3.046494129576106E-1
 8.062125569800000E9     3.876143733728449E-1    4.245100416344121E-1   -2.939080624970962E-3    3.890694661615247E-3   -2.768720358904655E-3    4.106677396360120E-3    4.072057230248462E-1    3.046257643647065E-1
 8.062126507000000E9     3.877212288509475E-1    4.244260517286564E-1   -2.938014564079469E-3    3.908946574586077E-3   -2.779146394798942E-3    4.142157700101415E-3    4.072066483374895E-1    3.045123936389192E-1
