#  HZ   S   RI   R     50.00 
! Rohde & Schwarz Vector Network Analyzer 
! Rohde-Schwarz,ZNB20-2Port,1311601062101988,3.16
! Created: UTC 3/20/2024, 11:17:17 PM
! freq[Hz]                re:S11                  im:S11                  re:S21                  im:S21                  re:S12                  im:S12                  re:S22                  im:S22
 8.062044735000000E9     3.798839151293090E-1    4.328993856489536E-1   -2.419602190344243E-3    2.819836628787220E-3   -2.261082298952335E-3    2.982691130650529E-3    4.042519341603099E-1    3.089031586199214E-1
 8.062045664100000E9     3.800303044283259E-1    4.329449996594446E-1   -2.435019900020472E-3    2.826952782126840E-3   -2.264158396347445E-3    3.001035927718513E-3    4.043436109869431E-1    3.088620375165612E-1
 8.062046593200000E9     3.801158485359434E-1    4.327376371632417E-1   -2.394606412857037E-3    2.826579127982428E-3   -2.271966008031214E-3    2.996152187207510E-3    4.043590307178802E-1    3.087986021628771E-1
 8.062047522300000E9     3.801594870845386E-1    4.326844944713010E-1   -2.416781453634404E-3    2.820556184084141E-3   -2.270009408238078E-3    2.990277383454339E-3    4.044729871139827E-1    3.086797863467290E-1
 8.062048451400000E9     3.804198699261669E-1    4.325538032407392E-1   -2.429218939715463E-3    2.850930822411994E-3   -2.242448776022420E-3    3.008704145355993E-3    4.045157304472895E-1    3.087287977999391E-1
 8.062049380500000E9     3.803249433938086E-1    4.325208150761202E-1   -2.423995360510555E-3    2.854037218416848E-3   -2.259987714575924E-3    3.043559218565072E-3    4.044930354723401E-1    3.086450849275142E-1
 8.062050309600000E9     3.805231788960446E-1    4.323706017240762E-1   -2.445195449025953E-3    2.861188013465382E-3   -2.270652669741176E-3    3.022862295906440E-3    4.045097938941074E-1    3.086180883199565E-1
 8.062051238700000E9     3.805167325500762E-1    4.323220548807012E-1   -2.455678918640033E-3    2.834531903501426E-3   -2.276322371856750E-3    3.070641477025058E-3    4.045904862777249E-1    3.085582257954333E-1
 8.062052167800000E9     3.806743374403272E-1    4.323006753767112E-1   -2.444166954557193E-3    2.861380520784229E-3   -2.291297804072749E-3    3.011854568236632E-3    4.046589509888206E-1    3.086113242011648E-1
 8.062053096900000E9     3.808061541636848E-1    4.321668458411257E-1   -2.420393154060062E-3    2.883718648286824E-3   -2.293406383201072E-3    3.050883482750178E-3    4.046439387199189E-1    3.085169081653737E-1
 8.062054026000000E9     3.808346520445638E-1    4.321016958668772E-1   -2.445281917935542E-3    2.888819630021883E-3   -2.288593893135811E-3    3.075682465663923E-3    4.046255009253257E-1    3.083508478529745E-1
 8.062054955100000E9     3.809993839847598E-1    4.320508989360902E-1   -2.440662502735741E-3    2.872537007700838E-3   -2.283966878778606E-3    3.074587942418049E-3    4.047230149133956E-1    3.084082777983873E-1
 8.062055884200000E9     3.809092680735491E-1    4.320267078749753E-1   -2.470585565508466E-3    2.891751394565651E-3   -2.305592897755830E-3    3.027502777296726E-3    4.046804219242519E-1    3.081862429517515E-1
 8.062056813300000E9     3.810579346724478E-1    4.319192595484313E-1   -2.460398076298589E-3    2.910049071940418E-3   -2.300275655100351E-3    3.092027574947187E-3    4.049062564446313E-1    3.083893695209580E-1
 8.062057742400000E9     3.811781031809312E-1    4.317947134661368E-1   -2.461086630066671E-3    2.922152446159553E-3   -2.287040661272615E-3    3.083034376934757E-3    4.048771764052623E-1    3.081519743311376E-1
 8.062058671500000E9     3.812121546988663E-1    4.317077847306534E-1   -2.462476768744328E-3    2.938937486103838E-3   -2.293594164982069E-3    3.095957485970068E-3    4.048296785410473E-1    3.081468288167822E-1
 8.062059600600000E9     3.811865917103959E-1    4.316830020000907E-1   -2.492329265918947E-3    2.955620002927533E-3   -2.330351569630405E-3    3.111352831583379E-3    4.048383880107174E-1    3.081081069900603E-1
 8.062060529700000E9     3.812671730162887E-1    4.315467635447111E-1   -2.480256107405677E-3    2.913904373978006E-3   -2.366042294537125E-3    3.078733995610369E-3    4.049130775502428E-1    3.082203565151673E-1
 8.062061458800000E9     3.815853955209524E-1    4.316057647357872E-1   -2.480018463616674E-3    2.932149363154333E-3   -2.360325129738799E-3    3.123902755967999E-3    4.048629735582901E-1    3.080592055378110E-1
 8.062062387900000E9     3.815679793111896E-1    4.316201007104825E-1   -2.487957615144430E-3    2.941492373504000E-3   -2.344166283359046E-3    3.124258648840788E-3    4.049341251729874E-1    3.079842743850675E-1
 8.062063317000000E9     3.815814384884562E-1    4.314384251632011E-1   -2.479793145689801E-3    2.960561579776082E-3   -2.335848537970613E-3    3.154960877841497E-3    4.050673938389211E-1    3.078907935149715E-1
 8.062064246100000E9     3.817447558756950E-1    4.312223008637934E-1   -2.484222519306682E-3    2.972628268474831E-3   -2.361652485612130E-3    3.188086688405391E-3    4.050476009941046E-1    3.078256895703250E-1
 8.062065175200000E9     3.816412734052970E-1    4.312570543193047E-1   -2.505401280790819E-3    2.987001852190175E-3   -2.356523252620235E-3    3.160369959532059E-3    4.050401096475281E-1    3.078487272657340E-1
 8.062066104300000E9     3.818115821544652E-1    4.310964612597954E-1   -2.549400409696666E-3    3.003896025151220E-3   -2.331665271750003E-3    3.173599164807381E-3    4.050692345313625E-1    3.078389405691696E-1
 8.062067033400000E9     3.820059283489900E-1    4.311086198361274E-1   -2.504468737588606E-3    3.015317926145006E-3   -2.387830033290746E-3    3.149883780411390E-3    4.051327186057104E-1    3.079223293546852E-1
 8.062067962500000E9     3.820439625721088E-1    4.309928114791743E-1   -2.521982014927364E-3    2.979862060067479E-3   -2.332185277031821E-3    3.181244033106455E-3    4.051743336889756E-1    3.076271189078436E-1
 8.062068891600000E9     3.820568184046110E-1    4.309928620711450E-1   -2.501850144561146E-3    3.023766946686423E-3   -2.357354642091572E-3    3.186762273148195E-3    4.050876564898745E-1    3.075211194179199E-1
 8.062069820700000E9     3.822036802553556E-1    4.308205752871174E-1   -2.516763593918267E-3    3.022835445027630E-3   -2.393008501175896E-3    3.186143977386457E-3    4.052072206660152E-1    3.075994846733967E-1
 8.062070749800000E9     3.822638854535984E-1    4.307127187763639E-1   -2.523048845529501E-3    3.037466951072043E-3   -2.362579666405705E-3    3.237957686981495E-3    4.051279109107445E-1    3.075217230600005E-1
 8.062071678900000E9     3.822527967375378E-1    4.306193106491782E-1   -2.529118876437790E-3    3.047781613938359E-3   -2.382086116331445E-3    3.245859885163647E-3    4.053288884594207E-1    3.075062835894915E-1
 8.062072608000000E9     3.824462225844149E-1    4.305819892189006E-1   -2.519486878831322E-3    3.050040384618062E-3   -2.378263470574043E-3    3.255037567863324E-3    4.052224407508500E-1    3.075284526729170E-1
 8.062073537100000E9     3.824885548388356E-1    4.304276574806394E-1   -2.564066067992326E-3    3.050532884595759E-3   -2.390309785333083E-3    3.229828496769381E-3    4.054285790861579E-1    3.073262382726784E-1
 8.062074466200000E9     3.826165249088889E-1    4.303432412487674E-1   -2.551924876153834E-3    3.099194127054679E-3   -2.371303716501637E-3    3.229229096344202E-3    4.054223209056342E-1    3.074599617596230E-1
 8.062075395300000E9     3.826227494103958E-1    4.303433423104251E-1   -2.570005115182507E-3    3.091405847913530E-3   -2.358187595983188E-3    3.271074846922383E-3    4.053643379389664E-1    3.072802071582544E-1
 8.062076324400000E9     3.827426156457912E-1    4.303142288255185E-1   -2.574951433214661E-3    3.076455492255858E-3   -2.406167275527533E-3    3.292040999255425E-3    4.055448997490475E-1    3.074245061694466E-1
 8.062077253500000E9     3.828682890934862E-1    4.302098056675352E-1   -2.558107993365723E-3    3.083651323856985E-3   -2.383959848775406E-3    3.274934558683752E-3    4.055095800824378E-1    3.071156147624194E-1
 8.062078182600000E9     3.831136768394056E-1    4.300903801201304E-1   -2.586117414821772E-3    3.127547994939537E-3   -2.413895902209449E-3    3.295436606387901E-3    4.054906552099091E-1    3.072670663187617E-1
 8.062079111700000E9     3.830306543362908E-1    4.299971431211950E-1   -2.575546566907440E-3    3.133269330625112E-3   -2.426456989374235E-3    3.279636764449984E-3    4.055106177404757E-1    3.070821575472924E-1
 8.062080040800000E9     3.831910528823438E-1    4.298578304374776E-1   -2.567672420167611E-3    3.101637844589706E-3   -2.435367897811331E-3    3.313994724665678E-3    4.055193758078089E-1    3.070132521922742E-1
 8.062080969900000E9     3.831555083016474E-1    4.298184168758019E-1   -2.585866341602429E-3    3.155353125773931E-3   -2.436351732276178E-3    3.328311810352365E-3    4.055833057839602E-1    3.070034605428522E-1
 8.062081899000000E9     3.831697865564847E-1    4.296335046401749E-1   -2.600729548402194E-3    3.174772923921835E-3   -2.444970349934265E-3    3.338498606560076E-3    4.056140862989758E-1    3.069752755717576E-1
 8.062082828100000E9     3.833485355745562E-1    4.295916964161167E-1   -2.587761190729696E-3    3.170745555761449E-3   -2.453771369260109E-3    3.333855491744187E-3    4.056476429823655E-1    3.069559301932264E-1
 8.062083757200000E9     3.833168605279815E-1    4.293659773043812E-1   -2.601140383266384E-3    3.159377544472796E-3   -2.423486652514290E-3    3.331589876057765E-3    4.057646434576024E-1    3.068161167149694E-1
 8.062084686300000E9     3.833889255375028E-1    4.294345359003641E-1   -2.616631727364632E-3    3.200247760924987E-3   -2.441483631926247E-3    3.365420148802379E-3    4.057002262547633E-1    3.068865712238221E-1
 8.062085615400000E9     3.835667757974301E-1    4.291730253863716E-1   -2.634134431105668E-3    3.190141311402699E-3   -2.475535466367673E-3    3.392690022418751E-3    4.058373813529060E-1    3.067924683494149E-1
 8.062086544500000E9     3.836686802862267E-1    4.292556691062357E-1   -2.614543076102092E-3    3.184132192747258E-3   -2.436684281164747E-3    3.359571422503023E-3    4.057758116666124E-1    3.067657127748163E-1
 8.062087473600000E9     3.836604913399584E-1    4.291388764611676E-1   -2.646822065385408E-3    3.237557576871816E-3   -2.474898575525490E-3    3.427966103600594E-3    4.058355227708481E-1    3.065979918784678E-1
 8.062088402700000E9     3.838638037270856E-1    4.291126777044074E-1   -2.636578499314991E-3    3.224406967573930E-3   -2.447999754477395E-3    3.398096397700488E-3    4.058636691256701E-1    3.067036479005043E-1
 8.062089331800000E9     3.839830968249183E-1    4.289025951690890E-1   -2.658679887886477E-3    3.255511545320369E-3   -2.459124702156342E-3    3.438643297560524E-3    4.060300378577732E-1    3.064599700896652E-1
 8.062090260900000E9     3.839950328485682E-1    4.288492206230419E-1   -2.626006730944587E-3    3.239785035202964E-3   -2.469090535338670E-3    3.458421749023247E-3    4.058732840619889E-1    3.064617772045737E-1
 8.062091190000000E9     3.841171375689565E-1    4.287501571373812E-1   -2.657129263472439E-3    3.272310554568592E-3   -2.484273421310394E-3    3.470091708766366E-3    4.060822472160484E-1    3.064883612742705E-1
 8.062092119100000E9     3.841371417642559E-1    4.286238250515152E-1   -2.656485361913592E-3    3.271431317708097E-3   -2.485122560663181E-3    3.493820015758880E-3    4.060624444026580E-1    3.063402483539826E-1
 8.062093048200000E9     3.843270630229341E-1    4.284567355356141E-1   -2.658982460757070E-3    3.300183640779774E-3   -2.464589021121661E-3    3.482978846813148E-3    4.060307433534247E-1    3.063333160905355E-1
 8.062093977300000E9     3.842608864559219E-1    4.284604472590229E-1   -2.664800079415651E-3    3.307702483511759E-3   -2.513883046056977E-3    3.501883009126121E-3    4.061321153773314E-1    3.063338677582846E-1
 8.062094906400000E9     3.843603958563309E-1    4.283271990138407E-1   -2.671843756322196E-3    3.322842707933346E-3   -2.482251805359936E-3    3.538400683241784E-3    4.061288118887076E-1    3.061641928106186E-1
 8.062095835500000E9     3.845733625956820E-1    4.282289679839031E-1   -2.695551021017852E-3    3.330048699535937E-3   -2.520744497340419E-3    3.526713307015393E-3    4.061655179448587E-1    3.063048536576572E-1
 8.062096764600000E9     3.846456587751795E-1    4.282416974229582E-1   -2.693781764591521E-3    3.343416070533789E-3   -2.516231550904826E-3    3.541475331121367E-3    4.062802558041159E-1    3.062468125498198E-1
 8.062097693700000E9     3.846566562695583E-1    4.281756803838913E-1   -2.711121741688112E-3    3.357582626899342E-3   -2.513548999860049E-3    3.559872495614057E-3    4.060831423057716E-1    3.061107127700933E-1
 8.062098622800000E9     3.847714065218765E-1    4.280116874561086E-1   -2.689282469563743E-3    3.364539737089886E-3   -2.522244521294958E-3    3.553584119943031E-3    4.062858827278745E-1    3.060285395636534E-1
 8.062099551900000E9     3.848084724690640E-1    4.278754914883344E-1   -2.696240154515952E-3    3.386508410643557E-3   -2.503952831688640E-3    3.536154803075752E-3    4.063067432485762E-1    3.060416848637971E-1
 8.062100481000000E9     3.849642824756037E-1    4.277684744635893E-1   -2.732667146354438E-3    3.394219468616979E-3   -2.579431460235054E-3    3.624218488009883E-3    4.062649936035334E-1    3.059472948746712E-1
 8.062101410100000E9     3.851746266560497E-1    4.277193425992952E-1   -2.750218775773250E-3    3.398432542280427E-3   -2.518669582146286E-3    3.594228571900095E-3    4.064421643256431E-1    3.058781034758530E-1
 8.062102339200000E9     3.852164046247733E-1    4.276212470101134E-1   -2.741429396962692E-3    3.440886746621922E-3   -2.590377073792736E-3    3.623306157017945E-3    4.062615373899942E-1    3.059675215041633E-1
 8.062103268300000E9     3.852236729234936E-1    4.275182146640323E-1   -2.740282122298792E-3    3.444177267693698E-3   -2.575643742950391E-3    3.647212233518324E-3    4.064368962311514E-1    3.059154266759855E-1
 8.062104197400000E9     3.853262625632459E-1    4.274318590753571E-1   -2.744766076506011E-3    3.447193507911039E-3   -2.568234367754453E-3    3.661886267252349E-3    4.064025178732632E-1    3.057992284280951E-1
 8.062105126500000E9     3.855158126296135E-1    4.271644094431776E-1   -2.768341549055242E-3    3.471832982203705E-3   -2.586679944526892E-3    3.627530415413079E-3    4.065692439972539E-1    3.056493018384612E-1
 8.062106055600000E9     3.855851069595799E-1    4.271752829393573E-1   -2.753487383356011E-3    3.474904843364095E-3   -2.564986493286660E-3    3.699459034081640E-3    4.065574853695264E-1    3.057026402504454E-1
 8.062106984700000E9     3.855424090917162E-1    4.271515727700664E-1   -2.778516198608510E-3    3.505823941485203E-3   -2.586250446647559E-3    3.689885421751696E-3    4.065151328941414E-1    3.058223211977232E-1
 8.062107913800000E9     3.857459520268429E-1    4.268945848713431E-1   -2.776225306929697E-3    3.528039091555172E-3   -2.568207976424426E-3    3.739189486858536E-3    4.066453907613876E-1    3.055480648470172E-1
 8.062108842900000E9     3.857943309099471E-1    4.268848369118493E-1   -2.797621322927684E-3    3.548136899510135E-3   -2.607946023873790E-3    3.719011719470078E-3    4.065913673314204E-1    3.055351242049605E-1
 8.062109772000000E9     3.859714794348773E-1    4.265888532240679E-1   -2.768092869407745E-3    3.555182472412661E-3   -2.619067902453179E-3    3.748530449225211E-3    4.066334857609395E-1    3.055415122388062E-1
 8.062110701100000E9     3.859134489253823E-1    4.265245537611941E-1   -2.816814267535459E-3    3.585965233660041E-3   -2.583247211559472E-3    3.751056503751548E-3    4.065302285719538E-1    3.054853556661939E-1
 8.062111630200000E9     3.861299723181605E-1    4.264888244674485E-1   -2.809988931863122E-3    3.581387732229319E-3   -2.614755793059044E-3    3.784012956374590E-3    4.067866571967357E-1    3.054499129323789E-1
 8.062112559300000E9     3.862817792750265E-1    4.263986064273927E-1   -2.830536366563269E-3    3.620770436009360E-3   -2.613045039207149E-3    3.834127166265645E-3    4.068706386198752E-1    3.053215511863003E-1
 8.062113488400000E9     3.862774462749840E-1    4.263366543246678E-1   -2.833363388242647E-3    3.615958163042824E-3   -2.594258643995694E-3    3.810358912857053E-3    4.067493927158198E-1    3.054182893807448E-1
 8.062114417500000E9     3.863672480457040E-1    4.261193816796180E-1   -2.820640104954850E-3    3.649194119097506E-3   -2.584159972927068E-3    3.825039517096162E-3    4.067482138105161E-1    3.051359840413101E-1
 8.062115346600000E9     3.863949440835602E-1    4.259592527720171E-1   -2.831420515748679E-3    3.649038711312622E-3   -2.598746241329167E-3    3.832684986600096E-3    4.069523420833953E-1    3.051518263172600E-1
 8.062116275700000E9     3.867436198159491E-1    4.259217808897245E-1   -2.839410169656616E-3    3.657231628902442E-3   -2.644760496988168E-3    3.870592563167512E-3    4.068093999068194E-1    3.051761616881775E-1
 8.062117204800000E9     3.866146672824122E-1    4.258165460404827E-1   -2.857592572499857E-3    3.690293017228153E-3   -2.663185507759932E-3    3.878747596280740E-3    4.070114897923317E-1    3.050662907413729E-1
 8.062118133900000E9     3.868520389816433E-1    4.256415265520612E-1   -2.852134872598631E-3    3.722857163283503E-3   -2.675757835690359E-3    3.899796501277278E-3    4.068266280715247E-1    3.050491776527513E-1
 8.062119063000000E9     3.869411325388999E-1    4.255298960873286E-1   -2.874530468700171E-3    3.719376085239915E-3   -2.651736093511034E-3    3.939491714812589E-3    4.070298334196477E-1    3.050491948333054E-1
 8.062119992100000E9     3.869504115859969E-1    4.255300201037292E-1   -2.880834586692868E-3    3.753979720284711E-3   -2.683177865557587E-3    3.970658693811072E-3    4.070118317971289E-1    3.048675671653978E-1
 8.062120921200000E9     3.871224417972907E-1    4.253104117052158E-1   -2.890623778602034E-3    3.772690864613413E-3   -2.698582577244606E-3    4.004332615229190E-3    4.070533814046738E-1    3.049837761490389E-1
 8.062121850300000E9     3.871329769845881E-1    4.251884858983376E-1   -2.886218929330088E-3    3.785119680480190E-3   -2.711193611745977E-3    3.969053910468966E-3    4.071687881189501E-1    3.048028976816007E-1
 8.062122779400000E9     3.872098652411708E-1    4.249717666397623E-1   -2.898324690987842E-3    3.809781141590020E-3   -2.704214882236251E-3    3.998028438542051E-3    4.071604021737596E-1    3.047111240849069E-1
 8.062123708500000E9     3.873239261070085E-1    4.249168130405874E-1   -2.914978097218531E-3    3.828115927407171E-3   -2.687500727252096E-3    4.056879674289868E-3    4.071331389677034E-1    3.047884096901357E-1
 8.062124637600000E9     3.875249804409926E-1    4.247637841328011E-1   -2.902323360936611E-3    3.843019039599343E-3   -2.698325627041951E-3    4.037713524000454E-3    4.072282472647165E-1    3.047420612536005E-1
 8.062125566700000E9     3.875881838545029E-1    4.246521698742591E-1   -2.928054433567137E-3    3.853974238118227E-3   -2.677500429483922E-3    4.042749797296435E-3    4.072326100870154E-1    3.045843429488961E-1
 8.062126495800000E9     3.877194884019178E-1    4.245513020009525E-1   -2.938053731902251E-3    3.895527757260350E-3   -2.723025874359360E-3    4.130613292097489E-3    4.073840601886629E-1    3.047291486633962E-1
 8.062127424900000E9     3.877981714837709E-1    4.242945464956434E-1   -2.962659914777191E-3    3.896200707681784E-3   -2.719224356611748E-3    4.094736186248958E-3    4.071889838133234E-1    3.044984990329697E-1
 8.062128354000000E9     3.879063087673887E-1    4.242146882820965E-1   -2.963739136728956E-3    3.940735044144129E-3   -2.770867345010007E-3    4.129625101268252E-3    4.073572290499864E-1    3.045744024017599E-1
