#  HZ   S   RI   R     50.00 
! Rohde & Schwarz Vector Network Analyzer 
! Rohde-Schwarz,ZNB20-2Port,1311601062101988,3.16
! Created: UTC 3/20/2024, 11:17:20 PM
! freq[Hz]                re:S11                  im:S11                  re:S21                  im:S21                  re:S12                  im:S12                  re:S22                  im:S22
 8.062046891000000E9     3.800681966210506E-1    4.326798594937934E-1   -2.419257801729204E-3    2.804857320573066E-3   -2.267506733275614E-3    2.984003552648590E-3    4.043987044907659E-1    3.087739634448384E-1
 8.062047813575000E9     3.802048306979214E-1    4.326735870191959E-1   -2.402923984524366E-3    2.826124884698088E-3   -2.275614507645954E-3    3.017343247362886E-3    4.042461829777385E-1    3.088423041933810E-1
 8.062048736150000E9     3.802959346350701E-1    4.326329812285805E-1   -2.418325378277311E-3    2.820798332788323E-3   -2.259608683968330E-3    2.980565160514027E-3    4.045751763306936E-1    3.086799971502818E-1
 8.062049658725000E9     3.803354027161666E-1    4.325087707150405E-1   -2.408765616224486E-3    2.871122855372581E-3   -2.257130610545169E-3    3.008093221522689E-3    4.043987837995393E-1    3.086608349918375E-1
 8.062050581300000E9     3.805137488583282E-1    4.324887140461655E-1   -2.433874539267599E-3    2.851345022075407E-3   -2.293792373706039E-3    3.039262191832612E-3    4.044748139520867E-1    3.085213604283319E-1
 8.062051503875000E9     3.806286360021409E-1    4.322611222981605E-1   -2.416647112616093E-3    2.859361520076303E-3   -2.269666249507020E-3    3.025791017559748E-3    4.045383629354102E-1    3.083913060197158E-1
 8.062052426450000E9     3.805937024246936E-1    4.322360586838723E-1   -2.436742181511215E-3    2.875863105098367E-3   -2.323144581680702E-3    3.042450758349723E-3    4.045594951936050E-1    3.085046136314794E-1
 8.062053349025000E9     3.806951280778328E-1    4.322040936374805E-1   -2.428395575819019E-3    2.875747257884355E-3   -2.271354550300697E-3    3.028805995258013E-3    4.045564659896014E-1    3.084762228167661E-1
 8.062054271600000E9     3.806867378323501E-1    4.320589354833412E-1   -2.445896732477530E-3    2.897982875429928E-3   -2.295385920947615E-3    3.040563877664551E-3    4.045380047122374E-1    3.084485531665701E-1
 8.062055194175000E9     3.808624231858333E-1    4.320759552807042E-1   -2.446876521505269E-3    2.901871015303726E-3   -2.312172868870973E-3    3.064181889767681E-3    4.045825897587442E-1    3.082388806886128E-1
 8.062056116750000E9     3.808799586100215E-1    4.318804808142943E-1   -2.482598738938518E-3    2.860330178604319E-3   -2.291492700267986E-3    3.048910871341728E-3    4.046398409142430E-1    3.083723596741879E-1
 8.062057039325000E9     3.810315775211524E-1    4.319464102919577E-1   -2.469220103374542E-3    2.901624840234142E-3   -2.306023497610123E-3    3.101973310636224E-3    4.048259251578579E-1    3.081289662028440E-1
 8.062057961900000E9     3.811280776653153E-1    4.318110899027485E-1   -2.462197557897056E-3    2.915755004227692E-3   -2.277948061874899E-3    3.120922422534757E-3    4.047575809013959E-1    3.082381874643911E-1
 8.062058884475000E9     3.811373123616041E-1    4.317073222017840E-1   -2.479021343452086E-3    2.931304961445612E-3   -2.318244462045188E-3    3.089575821062632E-3    4.048563362635467E-1    3.082479217353114E-1
 8.062059807050000E9     3.813449421667453E-1    4.316814646692834E-1   -2.465279925027591E-3    2.900292453791835E-3   -2.306801235420096E-3    3.101033752349586E-3    4.048178136529732E-1    3.081962117156650E-1
 8.062060729625000E9     3.812931735524792E-1    4.315900418548216E-1   -2.470039345063711E-3    2.942152931051432E-3   -2.343569955009289E-3    3.086183163617639E-3    4.047472153944597E-1    3.080516967616137E-1
 8.062061652200000E9     3.813594892138976E-1    4.314235181710198E-1   -2.478662545425056E-3    2.956683860401272E-3   -2.352721463177498E-3    3.107631370384734E-3    4.048616630048682E-1    3.079615969974828E-1
 8.062062574775000E9     3.815486493612714E-1    4.313712391189346E-1   -2.470724224854377E-3    2.953519925982019E-3   -2.301568236207778E-3    3.114009231238698E-3    4.049521847008741E-1    3.079409993145104E-1
 8.062063497350000E9     3.815549314632528E-1    4.313395842268783E-1   -2.497273769405400E-3    2.960474045053150E-3   -2.317732482788761E-3    3.120769930728266E-3    4.049715911491364E-1    3.078311658880933E-1
 8.062064419925000E9     3.816255627741899E-1    4.314109736310062E-1   -2.480146478218973E-3    2.974336599415223E-3   -2.335156815210195E-3    3.129899382842026E-3    4.048798955095437E-1    3.078312799740734E-1
 8.062065342500000E9     3.817177362248148E-1    4.312389737419672E-1   -2.498621090240498E-3    2.994807087829411E-3   -2.314036217192810E-3    3.156392269591587E-3    4.050357319519751E-1    3.076821081729648E-1
 8.062066265075000E9     3.818463343411616E-1    4.310528468612463E-1   -2.530909986927104E-3    2.987724063885320E-3   -2.352836705128622E-3    3.147692556173521E-3    4.050450384002892E-1    3.077471210901107E-1
 8.062067187650000E9     3.819216086414971E-1    4.310374104230033E-1   -2.490594334585411E-3    2.988407275479008E-3   -2.335451908844097E-3    3.183654723095698E-3    4.050867953576011E-1    3.077373479662634E-1
 8.062068110225000E9     3.818283346803774E-1    4.310295225493438E-1   -2.510629214496051E-3    2.990617771591880E-3   -2.379586424338227E-3    3.173386259215068E-3    4.051959597313846E-1    3.076387038825166E-1
 8.062069032800000E9     3.821600341233756E-1    4.308685940605140E-1   -2.528628714971010E-3    3.011688280102915E-3   -2.338721843866378E-3    3.184660462390514E-3    4.050249495329615E-1    3.076903505774776E-1
 8.062069955375000E9     3.820716637509706E-1    4.308223951255585E-1   -2.501504486536275E-3    3.049395085230874E-3   -2.365741315416051E-3    3.190793182407832E-3    4.051891239330309E-1    3.076245148014806E-1
 8.062070877950000E9     3.822084125150004E-1    4.307774726692587E-1   -2.536243378325279E-3    3.012715718957527E-3   -2.336082848933434E-3    3.195743747045335E-3    4.052124192776036E-1    3.075530628649873E-1
 8.062071800525000E9     3.822429703567350E-1    4.305580256917071E-1   -2.537516852935811E-3    3.039135461567915E-3   -2.370232185311810E-3    3.216132783554781E-3    4.051427527260883E-1    3.075256113210009E-1
 8.062072723100000E9     3.824718048622402E-1    4.305723972890065E-1   -2.540604670051409E-3    3.037746554295971E-3   -2.385784521609639E-3    3.252607718058640E-3    4.053492854901060E-1    3.074713899288195E-1
 8.062073645675000E9     3.823951704855060E-1    4.304429939379479E-1   -2.551552135211752E-3    3.049846115345262E-3   -2.362009778820098E-3    3.245380463153486E-3    4.053676131735355E-1    3.073361707688042E-1
 8.062074568250000E9     3.825553889528001E-1    4.304700940124730E-1   -2.565631434331432E-3    3.074418676671188E-3   -2.387994089004089E-3    3.238004248900507E-3    4.053790863078948E-1    3.073288063496627E-1
 8.062075490825000E9     3.825808009195886E-1    4.304342624684374E-1   -2.574854224456933E-3    3.089963814991008E-3   -2.384660199792666E-3    3.233170495299095E-3    4.054008035052843E-1    3.072756609059128E-1
 8.062076413400000E9     3.826161137730501E-1    4.303048356083738E-1   -2.548175367763298E-3    3.115188003795258E-3   -2.386973851457089E-3    3.307227945772964E-3    4.054107795597172E-1    3.072276707066149E-1
 8.062077335975000E9     3.827709759925538E-1    4.301976313318784E-1   -2.562330012168499E-3    3.085872347654600E-3   -2.436254477916802E-3    3.281655430354242E-3    4.054624849957720E-1    3.072337920010670E-1
 8.062078258550000E9     3.828270706452214E-1    4.300495777375128E-1   -2.565666356831173E-3    3.129366793912397E-3   -2.386058227274454E-3    3.276376880702831E-3    4.055260839571487E-1    3.071589765207830E-1
 8.062079181125000E9     3.827999563630919E-1    4.299677904061210E-1   -2.590470332919070E-3    3.141409478413095E-3   -2.397464130495552E-3    3.313987784940990E-3    4.054766388864766E-1    3.069989005206322E-1
 8.062080103700000E9     3.829597175021131E-1    4.298212972375387E-1   -2.593336410127254E-3    3.118675347938088E-3   -2.427789158881147E-3    3.333625585883671E-3    4.054857203623100E-1    3.070889998255258E-1
 8.062081026275000E9     3.830976032243554E-1    4.298167402020884E-1   -2.600140441679135E-3    3.160359417915812E-3   -2.427001788157907E-3    3.311453458610085E-3    4.056295945921490E-1    3.069961814722448E-1
 8.062081948850000E9     3.832315991737954E-1    4.297667982981664E-1   -2.595813327285007E-3    3.118973212689251E-3   -2.407890021695933E-3    3.345038601429572E-3    4.056630957354442E-1    3.070120654186311E-1
 8.062082871425000E9     3.833100113441351E-1    4.296132374763820E-1   -2.592388702457790E-3    3.175833550712571E-3   -2.464289919957324E-3    3.371082789123386E-3    4.055941273815233E-1    3.069283359748086E-1
 8.062083794000000E9     3.833762409957545E-1    4.294428552286144E-1   -2.622023327262677E-3    3.149282782750912E-3   -2.406493782957232E-3    3.330941003380105E-3    4.057264682461313E-1    3.067227335306643E-1
 8.062084716575000E9     3.833664338918805E-1    4.292953513599107E-1   -2.630512676794302E-3    3.182432751123488E-3   -2.416164833894105E-3    3.375200752554093E-3    4.056517697139378E-1    3.068885429085203E-1
 8.062085639150000E9     3.835182936772292E-1    4.292688572499344E-1   -2.635075666225262E-3    3.187073961083724E-3   -2.419124134967662E-3    3.345321466622578E-3    4.058847884458812E-1    3.067440728817626E-1
 8.062086561725000E9     3.835643146310239E-1    4.293133209192809E-1   -2.627917788320078E-3    3.222894759943151E-3   -2.441624901948387E-3    3.413665159736068E-3    4.058087374542360E-1    3.067039938568420E-1
 8.062087484300000E9     3.837172182918932E-1    4.291334362327903E-1   -2.613461097570052E-3    3.195867001589719E-3   -2.480807586286481E-3    3.406487365464986E-3    4.059138159725705E-1    3.066445855906279E-1
 8.062088406875000E9     3.837804788959174E-1    4.290654743775001E-1   -2.644985006154378E-3    3.234426075435040E-3   -2.488544361334022E-3    3.387258261197964E-3    4.059639597807846E-1    3.065727604292822E-1
 8.062089329450000E9     3.837768911051353E-1    4.290213801055254E-1   -2.630471635721472E-3    3.209530601949100E-3   -2.476809367166045E-3    3.430610959220635E-3    4.058181500299390E-1    3.066136973361201E-1
 8.062090252025000E9     3.839920518753002E-1    4.288083371375519E-1   -2.670235959650908E-3    3.273560576860867E-3   -2.472836163395658E-3    3.447309720425660E-3    4.058592778103202E-1    3.064613301888767E-1
 8.062091174600000E9     3.840575423986139E-1    4.289178485720955E-1   -2.652885462630207E-3    3.258086676531206E-3   -2.494374798047580E-3    3.432881484005159E-3    4.058941782771920E-1    3.064722946710002E-1
 8.062092097175000E9     3.841260981834175E-1    4.287161523723582E-1   -2.660019169541315E-3    3.280489711452814E-3   -2.490075036475438E-3    3.417040170837470E-3    4.060152570319763E-1    3.063573478979024E-1
 8.062093019750000E9     3.841205834876926E-1    4.285188527054885E-1   -2.675976851541374E-3    3.293663658237524E-3   -2.530046566033791E-3    3.503345664913427E-3    4.059188866494656E-1    3.064187788861727E-1
 8.062093942325000E9     3.842228283850731E-1    4.284779172125052E-1   -2.668982407508294E-3    3.308330386347371E-3   -2.506189712664601E-3    3.488667630602362E-3    4.060794103946023E-1    3.063888021443586E-1
 8.062094864900000E9     3.842933047897461E-1    4.283373451446230E-1   -2.662666759545464E-3    3.302608371399686E-3   -2.502014693384394E-3    3.503301393897782E-3    4.061529885921546E-1    3.064089378143938E-1
 8.062095787475000E9     3.845305017692890E-1    4.282634446865115E-1   -2.666978683862086E-3    3.320846292805690E-3   -2.486218023576613E-3    3.507412059912534E-3    4.060786503396909E-1    3.061595235673959E-1
 8.062096710050000E9     3.846265852162710E-1    4.282275634047905E-1   -2.701181145383334E-3    3.367747735191839E-3   -2.511832129094125E-3    3.484630996829931E-3    4.061788048423647E-1    3.062152722447937E-1
 8.062097632625000E9     3.846240564980703E-1    4.280086538134749E-1   -2.682492993509959E-3    3.332867680273332E-3   -2.502877842379428E-3    3.538548770380003E-3    4.062601572143332E-1    3.061275757035994E-1
 8.062098555200000E9     3.847300679229378E-1    4.279682476189497E-1   -2.711788035953816E-3    3.359662755305407E-3   -2.520648809865893E-3    3.524165565627222E-3    4.062199470541237E-1    3.062053430589525E-1
 8.062099477775000E9     3.848792767979337E-1    4.278594046524187E-1   -2.712933873026288E-3    3.392559857631578E-3   -2.532928810567433E-3    3.564205686264123E-3    4.062211528004188E-1    3.060836757487914E-1
 8.062100400350000E9     3.848119741421735E-1    4.277540314633235E-1   -2.696696060261779E-3    3.401460403815598E-3   -2.516083907059828E-3    3.578336728125753E-3    4.062535271125711E-1    3.059529093847566E-1
 8.062101322925000E9     3.851036287400187E-1    4.278029112772103E-1   -2.728399605048129E-3    3.427750300852396E-3   -2.550221289827572E-3    3.604205046851211E-3    4.063660304985058E-1    3.059831282487722E-1
 8.062102245500000E9     3.851071139923601E-1    4.275747978332703E-1   -2.742947696929838E-3    3.416318237377093E-3   -2.546598208764580E-3    3.624051743682910E-3    4.065123555436286E-1    3.059467767994770E-1
 8.062103168075000E9     3.851956426791820E-1    4.276244365510121E-1   -2.716328741104975E-3    3.437302166857103E-3   -2.556123144705828E-3    3.627371105943616E-3    4.065724397056341E-1    3.058090061806645E-1
 8.062104090650000E9     3.853874883961805E-1    4.273524428597381E-1   -2.744011095130029E-3    3.439805628738391E-3   -2.551628492544035E-3    3.635661420338978E-3    4.065238311975700E-1    3.058644855796880E-1
 8.062105013225000E9     3.853168375777614E-1    4.272877692140883E-1   -2.755960866996529E-3    3.446644323658262E-3   -2.574923591271460E-3    3.655451463774282E-3    4.064770413564997E-1    3.057084899627284E-1
 8.062105935800000E9     3.853720691680154E-1    4.273041847698079E-1   -2.752448161446122E-3    3.484507410581431E-3   -2.571855018259558E-3    3.669765098913097E-3    4.064475062842304E-1    3.057408447586462E-1
 8.062106858375000E9     3.856154207197602E-1    4.270771332961600E-1   -2.773148608455015E-3    3.514287159172434E-3   -2.568329477571211E-3    3.698919205891429E-3    4.066054855800548E-1    3.056664995340604E-1
 8.062107780950000E9     3.856096900208477E-1    4.269827705394972E-1   -2.798479547465562E-3    3.502880829796272E-3   -2.595107708177129E-3    3.701153586188754E-3    4.066058165292187E-1    3.055619134049610E-1
 8.062108703525000E9     3.856864621241475E-1    4.268502318466850E-1   -2.785299077538089E-3    3.526816413158221E-3   -2.559948015431244E-3    3.717311040626255E-3    4.066900003689421E-1    3.056147100720319E-1
 8.062109626100000E9     3.858676389760938E-1    4.268006035187549E-1   -2.770930789129108E-3    3.563570622023674E-3   -2.582841892607604E-3    3.758826188010894E-3    4.066602490394893E-1    3.056202078584990E-1
 8.062110548675000E9     3.859694799370025E-1    4.266887019878475E-1   -2.796503030185757E-3    3.555088533715157E-3   -2.632379816363954E-3    3.769571280227916E-3    4.066684006106593E-1    3.053848620082539E-1
 8.062111471250000E9     3.860001995604390E-1    4.265269085620453E-1   -2.800159074800029E-3    3.559180280027797E-3   -2.581148673561066E-3    3.785259521703435E-3    4.066712906491081E-1    3.054289375803394E-1
 8.062112393825000E9     3.861532266839278E-1    4.263939652121965E-1   -2.814105438085799E-3    3.600256958237817E-3   -2.649881456844849E-3    3.785968057169398E-3    4.067868822738737E-1    3.054335136962433E-1
 8.062113316400000E9     3.862393331801118E-1    4.263744216298536E-1   -2.785636032586000E-3    3.625733734568709E-3   -2.632833031828058E-3    3.806782554972131E-3    4.067114713942142E-1    3.053244093586688E-1
 8.062114238975000E9     3.861774269811282E-1    4.261898866037988E-1   -2.807844953231599E-3    3.634188599523806E-3   -2.617722289680071E-3    3.847317470406655E-3    4.069112342291465E-1    3.052028156544810E-1
 8.062115161550000E9     3.864244212443467E-1    4.261281353580113E-1   -2.823593310581810E-3    3.656101621624028E-3   -2.651690482017932E-3    3.830302484756844E-3    4.067366226741001E-1    3.051073183320399E-1
 8.062116084125000E9     3.865033337091921E-1    4.260248582737995E-1   -2.840831207608423E-3    3.662494616076400E-3   -2.646236996197079E-3    3.860600337984497E-3    4.068883021880998E-1    3.050548304699667E-1
 8.062117006700000E9     3.867575168660581E-1    4.259060359684133E-1   -2.860208507279416E-3    3.679590947494121E-3   -2.625435875185906E-3    3.884452280378215E-3    4.067395454661205E-1    3.050138870185408E-1
 8.062117929275000E9     3.867876061587935E-1    4.257248585184834E-1   -2.827922530894257E-3    3.716586557680151E-3   -2.667847155747601E-3    3.905686017239291E-3    4.070380965348603E-1    3.049903423771544E-1
 8.062118851850000E9     3.868214898791939E-1    4.256495328398242E-1   -2.855108217904077E-3    3.737963041144314E-3   -2.687086965395162E-3    3.945615267767060E-3    4.070294608878135E-1    3.050306339144778E-1
 8.062119774425000E9     3.869945358275530E-1    4.255808614835879E-1   -2.875603111513846E-3    3.727801644310259E-3   -2.690262527457409E-3    3.934234433262256E-3    4.069698354057993E-1    3.050086780263042E-1
 8.062120697000000E9     3.869285315296722E-1    4.253655320854810E-1   -2.865458912313494E-3    3.738423350507483E-3   -2.673510661405862E-3    3.969166910878849E-3    4.070678424287956E-1    3.048269361341974E-1
 8.062121619575000E9     3.871817286880035E-1    4.251965208362933E-1   -2.870688432193316E-3    3.785363627117698E-3   -2.654595678312483E-3    3.991077979014089E-3    4.069503470013035E-1    3.047652041978543E-1
 8.062122542150000E9     3.872634674148032E-1    4.251417447057041E-1   -2.899486627516437E-3    3.762278695867810E-3   -2.696799770370335E-3    3.989154594205750E-3    4.071350488390152E-1    3.047753094458757E-1
 8.062123464725000E9     3.872249958358333E-1    4.249689610501780E-1   -2.898833691265928E-3    3.828510502787315E-3   -2.689342983486540E-3    4.006430578287240E-3    4.072161170758859E-1    3.048213886339288E-1
 8.062124387300000E9     3.874531359681638E-1    4.248241756598348E-1   -2.935103983673227E-3    3.832696423950251E-3   -2.705383556592935E-3    4.037879374009934E-3    4.071615727219026E-1    3.045776002936222E-1
 8.062125309875000E9     3.875193089137992E-1    4.246665205192993E-1   -2.933867583675170E-3    3.870764918129733E-3   -2.714186729958252E-3    4.060319124852345E-3    4.072431242456393E-1    3.046192783555721E-1
 8.062126232450000E9     3.875976548036716E-1    4.245651174543291E-1   -2.957035478697542E-3    3.868810359089153E-3   -2.730198684951790E-3    4.088732082846485E-3    4.071458567320855E-1    3.045595893192351E-1
 8.062127155025000E9     3.876167614459433E-1    4.244564087852224E-1   -2.925180264389816E-3    3.921556489426628E-3   -2.714529761896376E-3    4.106710568629674E-3    4.073358834327843E-1    3.045540878432985E-1
 8.062128077600000E9     3.879067524650794E-1    4.243158396299194E-1   -2.948939452569131E-3    3.904001502782624E-3   -2.773222974880962E-3    4.130527398494396E-3    4.074332703246013E-1    3.043919844321562E-1
 8.062129000175000E9     3.880673516889073E-1    4.241970393612556E-1   -2.967947110916959E-3    3.932693343478683E-3   -2.748010268947765E-3    4.180595716573769E-3    4.073402299348587E-1    3.044450328608750E-1
 8.062129922750000E9     3.881345521891825E-1    4.239845962344703E-1   -2.972775868425221E-3    3.966201938439756E-3   -2.731061265068636E-3    4.186013250413135E-3    4.074484432717683E-1    3.044046763525825E-1
