#  HZ   S   RI   R     50.00 
! Rohde & Schwarz Vector Network Analyzer 
! Rohde-Schwarz,ZNB20-2Port,1311601062101988,3.16
! Created: UTC 3/20/2024, 11:17:58 PM
! freq[Hz]                re:S11                  im:S11                  re:S21                  im:S21                  re:S12                  im:S12                  re:S22                  im:S22
 8.062069879000000E9     3.817542054465023E-1    4.311633732468720E-1   -2.507220677595297E-3    2.915570117531761E-3   -2.312434256783944E-3    3.085962364195392E-3    4.049447902941021E-1    3.076168788564760E-1
 8.062070728750000E9     3.819867842483863E-1    4.311798517338002E-1   -2.498856919757013E-3    2.940676211200859E-3   -2.342542353929989E-3    3.099454898260909E-3    4.050631349845141E-1    3.073952087075363E-1
 8.062071578500000E9     3.820453360116068E-1    4.310297670114746E-1   -2.510917228381225E-3    2.954408964291159E-3   -2.324978166769312E-3    3.138537146579611E-3    4.052581966980688E-1    3.073552898186599E-1
 8.062072428250000E9     3.820754802160615E-1    4.310387604018631E-1   -2.514926654802760E-3    2.967264015390996E-3   -2.367265117393345E-3    3.147182866195190E-3    4.051618798808068E-1    3.074297807990354E-1
 8.062073278000000E9     3.821318903632213E-1    4.309609872897211E-1   -2.508167043463534E-3    2.975853007202644E-3   -2.367616445593756E-3    3.176649819261069E-3    4.052223358624298E-1    3.074831177852962E-1
 8.062074127750000E9     3.822416141689912E-1    4.308918813396427E-1   -2.501316018353784E-3    2.981488193142515E-3   -2.337563891303329E-3    3.160677116268695E-3    4.053485216142899E-1    3.073261803771923E-1
 8.062074977500000E9     3.823685306150607E-1    4.306102379205510E-1   -2.516271514239817E-3    3.007330518293298E-3   -2.384197474393013E-3    3.158330718442213E-3    4.052371260612257E-1    3.072558741772126E-1
 8.062075827250000E9     3.824331857378902E-1    4.307048750275682E-1   -2.523791783577864E-3    2.980692567581331E-3   -2.324035199043866E-3    3.169464112066696E-3    4.054352645069865E-1    3.074068470155553E-1
 8.062076677000000E9     3.825584806514609E-1    4.306853332229839E-1   -2.536856349150697E-3    3.001012823706779E-3   -2.360899268553953E-3    3.184415609391397E-3    4.054588695175929E-1    3.070875424709698E-1
 8.062077526750000E9     3.826495686799342E-1    4.305278039861601E-1   -2.547778029215052E-3    3.009200318890417E-3   -2.338809358481040E-3    3.190643702079427E-3    4.053614080306743E-1    3.071848380358999E-1
 8.062078376500000E9     3.826244544301894E-1    4.305465459367175E-1   -2.521895354231197E-3    2.977008554937030E-3   -2.395457114093114E-3    3.196101268968481E-3    4.053505570973371E-1    3.070181687222339E-1
 8.062079226250000E9     3.826926627585656E-1    4.304481500388027E-1   -2.544631224539482E-3    3.009778396902946E-3   -2.381118831418917E-3    3.212529521712964E-3    4.054395344947054E-1    3.070849906000289E-1
 8.062080076000000E9     3.828643980988058E-1    4.303889085623694E-1   -2.558093966326774E-3    3.040214999037468E-3   -2.374244550260008E-3    3.222590298261123E-3    4.054585775235463E-1    3.070294960686533E-1
 8.062080925750000E9     3.828778646611535E-1    4.303280360133298E-1   -2.565245171450099E-3    3.022743656615937E-3   -2.404482657336873E-3    3.206724708977364E-3    4.054626195269386E-1    3.071603405663554E-1
 8.062081775500000E9     3.830420575237261E-1    4.301686616099011E-1   -2.557037322182209E-3    3.062581414251919E-3   -2.367354123243594E-3    3.234687027161657E-3    4.054984773020553E-1    3.069870184917055E-1
 8.062082625250000E9     3.830012850420886E-1    4.300543423014241E-1   -2.546692674883906E-3    3.046131306429164E-3   -2.411301657687724E-3    3.245460383406650E-3    4.055666859981112E-1    3.068078068224894E-1
 8.062083475000000E9     3.830452544472426E-1    4.299382119066816E-1   -2.577816179396182E-3    3.079512481233484E-3   -2.372689442027379E-3    3.231827648089501E-3    4.055104125008703E-1    3.068668302247337E-1
 8.062084324750000E9     3.831563409991673E-1    4.298677976991576E-1   -2.551280987527711E-3    3.101121591111735E-3   -2.404285407270445E-3    3.272216545341360E-3    4.056699559073113E-1    3.068101040698166E-1
 8.062085174500000E9     3.832357365029831E-1    4.298103926853347E-1   -2.582532616570695E-3    3.095272530572783E-3   -2.403338369574356E-3    3.257039916608955E-3    4.056148558985126E-1    3.068571768401892E-1
 8.062086024250000E9     3.833241263682288E-1    4.296964217104029E-1   -2.556423761594008E-3    3.091586630938599E-3   -2.399065665423594E-3    3.304279130713007E-3    4.056405771078294E-1    3.068023669005892E-1
 8.062086874000000E9     3.833472657489533E-1    4.296492283901750E-1   -2.591794349565649E-3    3.121929846467954E-3   -2.448888857722385E-3    3.333773985091720E-3    4.057749790457679E-1    3.066317918731398E-1
 8.062087723750000E9     3.834171008865714E-1    4.295741126751675E-1   -2.588497096505053E-3    3.120000275121758E-3   -2.424157774829210E-3    3.293592247322178E-3    4.058118639727014E-1    3.065982866892500E-1
 8.062088573500000E9     3.835486947641261E-1    4.296328085168785E-1   -2.580677057997307E-3    3.105368798524787E-3   -2.413030793557786E-3    3.311581869367006E-3    4.057630612640505E-1    3.066151387386696E-1
 8.062089423250000E9     3.836148518433828E-1    4.294671832937399E-1   -2.596542007154534E-3    3.156335189263820E-3   -2.482457239301119E-3    3.287866179205854E-3    4.057616987176894E-1    3.064246320176063E-1
 8.062090273000000E9     3.836184935875788E-1    4.293778688104127E-1   -2.605332779552975E-3    3.154486219607747E-3   -2.434664675237133E-3    3.348162795393748E-3    4.057571437596595E-1    3.065331084987576E-1
 8.062091122750000E9     3.836884470070955E-1    4.294305229466376E-1   -2.591521975752717E-3    3.161527834133181E-3   -2.442383996059870E-3    3.330975304022323E-3    4.059289445617122E-1    3.064864360896243E-1
 8.062091972500000E9     3.839222600632702E-1    4.292225755879576E-1   -2.627988689146603E-3    3.178021867488603E-3   -2.461238267797571E-3    3.350960972227017E-3    4.059904674668167E-1    3.064329609319048E-1
 8.062092822250000E9     3.839036906139414E-1    4.291982026610881E-1   -2.625429684809051E-3    3.170565284089176E-3   -2.453121854004337E-3    3.359209968503901E-3    4.060317095058875E-1    3.063312435088333E-1
 8.062093672000000E9     3.841002648877341E-1    4.290177575100045E-1   -2.603940187353321E-3    3.200522165704657E-3   -2.427382452849352E-3    3.409942569542374E-3    4.059484149235829E-1    3.063250587268397E-1
 8.062094521750000E9     3.841108876712457E-1    4.289876098153480E-1   -2.614044991487035E-3    3.188890128734209E-3   -2.461606414661267E-3    3.381644391979710E-3    4.060781643729042E-1    3.063186784939821E-1
 8.062095371500000E9     3.841802829761516E-1    4.288125052226955E-1   -2.654777136506762E-3    3.194419255118537E-3   -2.490661773765279E-3    3.383836309922418E-3    4.059113610432565E-1    3.062943772069660E-1
 8.062096221250000E9     3.842724644652028E-1    4.287975587904565E-1   -2.617700868579349E-3    3.219090335537409E-3   -2.437134194143436E-3    3.428689854027110E-3    4.060821863517384E-1    3.063746720069409E-1
 8.062097071000000E9     3.844256835939936E-1    4.287471770775779E-1   -2.657967975449458E-3    3.225263966193965E-3   -2.446856757475360E-3    3.410368325415252E-3    4.061364042874928E-1    3.061735959337931E-1
 8.062097920750000E9     3.844134106578359E-1    4.285338624654715E-1   -2.641799230997610E-3    3.222987279679563E-3   -2.468285409840966E-3    3.416759019444785E-3    4.061220926206195E-1    3.061367580614751E-1
 8.062098770500000E9     3.844831102770274E-1    4.284898581299612E-1   -2.677145807328494E-3    3.267408215132683E-3   -2.510363817336098E-3    3.439776129106860E-3    4.061680050161462E-1    3.059793981707895E-1
 8.062099620250000E9     3.845759704573776E-1    4.283897345969105E-1   -2.696076300675898E-3    3.270832092248706E-3   -2.481342190975053E-3    3.413924503331798E-3    4.063412371008353E-1    3.061880316891580E-1
 8.062100470000000E9     3.846760077174947E-1    4.283746111623027E-1   -2.678775615934716E-3    3.277267900467467E-3   -2.499494506734191E-3    3.464169471096931E-3    4.061980541480091E-1    3.061042926062808E-1
 8.062101319750000E9     3.846696310030379E-1    4.282215249226769E-1   -2.697293505316010E-3    3.279751003327878E-3   -2.516507182034206E-3    3.464133275294377E-3    4.062908314014197E-1    3.059416228500616E-1
 8.062102169500000E9     3.847286759172619E-1    4.282523569187680E-1   -2.684235340489638E-3    3.279079018005511E-3   -2.534119218025046E-3    3.453228859926257E-3    4.063117641732029E-1    3.057834294980953E-1
 8.062103019250000E9     3.849172326707620E-1    4.281403545602633E-1   -2.703563871488234E-3    3.313612718608307E-3   -2.523744528660341E-3    3.480560943106951E-3    4.062287693325090E-1    3.057632481820726E-1
 8.062103869000000E9     3.850870052713160E-1    4.280965402241456E-1   -2.698856632688498E-3    3.347030245764631E-3   -2.532107607233495E-3    3.528915517816914E-3    4.065018856867024E-1    3.057347020582030E-1
 8.062104718750000E9     3.850864980005227E-1    4.278835535022725E-1   -2.708692496859105E-3    3.323454843542285E-3   -2.519616140837268E-3    3.500062452445308E-3    4.062823233785142E-1    3.057586983124320E-1
 8.062105568500000E9     3.852509864671535E-1    4.278145651293115E-1   -2.696982901197273E-3    3.353769983427537E-3   -2.520389535799697E-3    3.555928242254897E-3    4.064170934981470E-1    3.056279310484187E-1
 8.062106418250000E9     3.852955812498111E-1    4.276625557967805E-1   -2.685812529876229E-3    3.359494827152926E-3   -2.552402214460997E-3    3.546733613628793E-3    4.065109765524741E-1    3.056819389068691E-1
 8.062107268000000E9     3.853376627566306E-1    4.276770974244083E-1   -2.727080878629100E-3    3.355972652248869E-3   -2.574928758751933E-3    3.568818041035586E-3    4.066120992282974E-1    3.056437906410127E-1
 8.062108117750000E9     3.853955865137706E-1    4.275030830249253E-1   -2.722812753007234E-3    3.379052138346421E-3   -2.540590646468813E-3    3.573903516987574E-3    4.064405856647018E-1    3.056803395277549E-1
 8.062108967500000E9     3.855045795909844E-1    4.274438006851549E-1   -2.747585757398400E-3    3.426919657685379E-3   -2.538509933832573E-3    3.589168060832130E-3    4.064998880960824E-1    3.054788294086447E-1
 8.062109817250000E9     3.856068108580140E-1    4.274651825064607E-1   -2.754263062781499E-3    3.392501604837399E-3   -2.566200493271569E-3    3.612123971820088E-3    4.066435882343440E-1    3.054271899635186E-1
 8.062110667000000E9     3.856101403140436E-1    4.272926052767650E-1   -2.745860219484134E-3    3.396218448347092E-3   -2.537727744855812E-3    3.623159159992082E-3    4.066155629179502E-1    3.054459063017232E-1
 8.062111516750000E9     3.858223105865047E-1    4.271389517691219E-1   -2.749586106750334E-3    3.432798593865620E-3   -2.577211293649840E-3    3.611068366896990E-3    4.066612124389239E-1    3.053770754181301E-1
 8.062112366500000E9     3.858217453636130E-1    4.269682933754635E-1   -2.752963206086783E-3    3.436478236767449E-3   -2.582306709972681E-3    3.656521238770721E-3    4.067092877788536E-1    3.054320787343552E-1
 8.062113216250000E9     3.858428355486279E-1    4.270122876337802E-1   -2.769623315984862E-3    3.477911144211511E-3   -2.570798752759698E-3    3.669108606368463E-3    4.067049056798950E-1    3.052255580529036E-1
 8.062114066000000E9     3.859970919768763E-1    4.269385966989255E-1   -2.784222525084805E-3    3.469653407920501E-3   -2.611954688534890E-3    3.665362656683479E-3    4.065807888716366E-1    3.052795291854418E-1
 8.062114915750000E9     3.860938777006957E-1    4.266913934913582E-1   -2.788295165096905E-3    3.497399600359228E-3   -2.568053277000460E-3    3.690544013835631E-3    4.067726455816524E-1    3.052979201188218E-1
 8.062115765500000E9     3.860746251478003E-1    4.265748024191668E-1   -2.780335228628737E-3    3.510545215289158E-3   -2.592997046865589E-3    3.678438704841295E-3    4.068220592946920E-1    3.051691827765913E-1
 8.062116615250000E9     3.861221068446410E-1    4.266274097836874E-1   -2.780683855047251E-3    3.494986152974685E-3   -2.644295084917580E-3    3.695608446787717E-3    4.068581501184771E-1    3.052537649680673E-1
 8.062117465000000E9     3.863375925871839E-1    4.266546426234764E-1   -2.827856320112687E-3    3.528831831567232E-3   -2.581340313264930E-3    3.729785899965414E-3    4.068998758445499E-1    3.049925590783142E-1
 8.062118314750000E9     3.863181825100910E-1    4.264099306224124E-1   -2.788608657013283E-3    3.551674157819963E-3   -2.585023068684084E-3    3.755707204339635E-3    4.068515182941799E-1    3.051242577508485E-1
 8.062119164500000E9     3.864097800865424E-1    4.263354243465514E-1   -2.822771725082468E-3    3.550410653184618E-3   -2.629278749329594E-3    3.741978607643143E-3    4.068703224169851E-1    3.049473182311291E-1
 8.062120014250000E9     3.866215558098853E-1    4.261698352675876E-1   -2.812175527510744E-3    3.573782143766049E-3   -2.601617401599985E-3    3.766020428243356E-3    4.071416004043803E-1    3.049126762123474E-1
 8.062120864000000E9     3.867953065960531E-1    4.261717389332324E-1   -2.837911288502243E-3    3.596212125204643E-3   -2.650682827704458E-3    3.817145168252511E-3    4.069506674110896E-1    3.048611430085847E-1
 8.062121713750000E9     3.867874495663656E-1    4.260018379469513E-1   -2.825967970822029E-3    3.603313569207163E-3   -2.635779271357813E-3    3.822074270704771E-3    4.070821717945353E-1    3.048661697149203E-1
 8.062122563500000E9     3.869297389128691E-1    4.258166415825446E-1   -2.828169468108895E-3    3.635960458646569E-3   -2.652708049645760E-3    3.833814428591735E-3    4.069118719698309E-1    3.046989954217017E-1
 8.062123413250000E9     3.870936087557943E-1    4.258261589865353E-1   -2.842806074371816E-3    3.636664082790811E-3   -2.657565697717677E-3    3.840429710909427E-3    4.071180553391499E-1    3.046141692611039E-1
 8.062124263000000E9     3.869690682568300E-1    4.256434685030588E-1   -2.858186745010046E-3    3.655454503085029E-3   -2.665088462017604E-3    3.872442076397152E-3    4.071072893726020E-1    3.047030308020598E-1
 8.062125112750000E9     3.871696522427207E-1    4.255278515400863E-1   -2.880863118823236E-3    3.664171595060258E-3   -2.663923168494548E-3    3.880787271762579E-3    4.071628047222871E-1    3.046320291774413E-1
 8.062125962500000E9     3.873781625961647E-1    4.254796580227299E-1   -2.863274732814150E-3    3.710577687696449E-3   -2.669141526620167E-3    3.882971750376101E-3    4.072713819247368E-1    3.047521405363979E-1
 8.062126812250000E9     3.873044345289668E-1    4.252397520103304E-1   -2.888643422582748E-3    3.714752508531635E-3   -2.686451360796179E-3    3.879958179686242E-3    4.072377890339099E-1    3.044620451541661E-1
 8.062127662000000E9     3.873635462886154E-1    4.253156225574148E-1   -2.906678344004204E-3    3.728419061392329E-3   -2.695169962561141E-3    3.912006134647002E-3    4.072692079797229E-1    3.045992988669520E-1
 8.062128511750000E9     3.875650559830421E-1    4.251377215758062E-1   -2.899115522154451E-3    3.750632620016502E-3   -2.708315657319464E-3    3.926043486553996E-3    4.073777367947469E-1    3.043807397897048E-1
 8.062129361500000E9     3.876804647839213E-1    4.249126541852959E-1   -2.912100443991336E-3    3.775857860900428E-3   -2.684054572671254E-3    3.954204416796604E-3    4.074151643777623E-1    3.045194836025549E-1
 8.062130211250000E9     3.876876612377543E-1    4.248394425293295E-1   -2.926628723150216E-3    3.777836931069358E-3   -2.702615539135682E-3    4.035335533866003E-3    4.072625711370375E-1    3.043124429495873E-1
 8.062131061000000E9     3.877504616268793E-1    4.246907351148225E-1   -2.923815664280584E-3    3.791453682082641E-3   -2.711798818075672E-3    3.991891079032080E-3    4.073674270683406E-1    3.042387579840508E-1
 8.062131910750000E9     3.878671721993847E-1    4.245741846804922E-1   -2.956976633133314E-3    3.796186896453713E-3   -2.721285984431457E-3    4.058200143967679E-3    4.073374622313207E-1    3.042571321358551E-1
 8.062132760500000E9     3.879791960541608E-1    4.245461126310245E-1   -2.934248856191952E-3    3.852439062708885E-3   -2.748147536289842E-3    4.014918503489402E-3    4.074506460313972E-1    3.042016782143561E-1
 8.062133610250000E9     3.881998021613188E-1    4.244502596291446E-1   -2.957953665376556E-3    3.842374261777787E-3   -2.696482801906817E-3    4.038344942560252E-3    4.073939722386390E-1    3.042594037788650E-1
 8.062134460000000E9     3.881763196121529E-1    4.242337974524738E-1   -2.946430242777799E-3    3.877735619795407E-3   -2.776150840049105E-3    4.049810979930216E-3    4.074019096683053E-1    3.042059426054222E-1
 8.062135309750000E9     3.883887215215502E-1    4.242120038130252E-1   -2.967697576457031E-3    3.885124434749199E-3   -2.745499259219015E-3    4.083675644877302E-3    4.074642553584700E-1    3.041813979842179E-1
 8.062136159500000E9     3.884509790273024E-1    4.239972599489166E-1   -2.971422238146288E-3    3.919704096387608E-3   -2.736449143163336E-3    4.126615178527610E-3    4.074429865361581E-1    3.040687090369364E-1
 8.062137009250000E9     3.885600012691358E-1    4.238796456730993E-1   -3.000011145636291E-3    3.964516498168763E-3   -2.783109214510283E-3    4.121995432116751E-3    4.075398387911901E-1    3.040867072092016E-1
 8.062137859000000E9     3.886834778645173E-1    4.237659658979007E-1   -2.987210871083227E-3    3.976694682533657E-3   -2.765733188257317E-3    4.165546385664637E-3    4.076479592886017E-1    3.038925240300880E-1
 8.062138708750000E9     3.886696526994771E-1    4.236174057451340E-1   -3.019443574772155E-3    3.973237725068853E-3   -2.794162493297773E-3    4.194081088462344E-3    4.077319666987140E-1    3.038562332319373E-1
 8.062139558500000E9     3.888047251288545E-1    4.234108370754147E-1   -3.033896757348214E-3    3.988936921468463E-3   -2.812398611946367E-3    4.218948309599895E-3    4.076097153810621E-1    3.038257021824992E-1
 8.062140408250000E9     3.890096223341232E-1    4.234308665045007E-1   -3.030858289257937E-3    4.018913023089604E-3   -2.783379784951661E-3    4.222923495297565E-3    4.077391056058618E-1    3.037921999102205E-1
 8.062141258000000E9     3.889513311224239E-1    4.232205303938554E-1   -3.018734603670326E-3    4.036973429812084E-3   -2.803368932243842E-3    4.278044574002834E-3    4.077403554516374E-1    3.037262973220782E-1
 8.062142107750000E9     3.892648425369582E-1    4.229560893940094E-1   -3.028119057550785E-3    4.039368187658041E-3   -2.817578429928965E-3    4.260300343993880E-3    4.077056662342420E-1    3.038684233720856E-1
 8.062142957500000E9     3.892070624060528E-1    4.229841877982235E-1   -3.037649940296024E-3    4.089221529155691E-3   -2.829771264845873E-3    4.260950173922130E-3    4.078954252675339E-1    3.036006677134356E-1
 8.062143807250000E9     3.892698806491313E-1    4.228344603998282E-1   -3.040100610120467E-3    4.104927309013125E-3   -2.848977560818003E-3    4.316654348189492E-3    4.078784473824567E-1    3.036477172682941E-1
 8.062144657000000E9     3.893754405112240E-1    4.226678286107661E-1   -3.073142538862646E-3    4.106955537827096E-3   -2.847051991360373E-3    4.330192149471564E-3    4.079795840603941E-1    3.035953476641107E-1
 8.062145506750000E9     3.895271627715032E-1    4.224273331223972E-1   -3.063398685964116E-3    4.165083527722017E-3   -2.891727578888410E-3    4.363970750402593E-3    4.079730492302818E-1    3.035184341010205E-1
 8.062146356500000E9     3.896499168224690E-1    4.223336877333794E-1   -3.073416882796530E-3    4.182910864612538E-3   -2.835304873240282E-3    4.417533563210159E-3    4.078822120789957E-1    3.035337193057867E-1
