#  HZ   S   RI   R     50.00 
! Rohde & Schwarz Vector Network Analyzer 
! Rohde-Schwarz,ZNB20-2Port,1311601062101988,3.16
! Created: UTC 3/20/2024, 11:18:19 PM
! freq[Hz]                re:S11                  im:S11                  re:S21                  im:S21                  re:S12                  im:S12                  re:S22                  im:S22
 8.062078871000000E9     3.823701595591170E-1    4.306013099444423E-1   -2.506383966830673E-3    2.966888334810060E-3   -2.340338766192536E-3    3.128228907645937E-3    4.054570885068641E-1    3.071626589085786E-1
 8.062079700300000E9     3.826113785553570E-1    4.306066520024645E-1   -2.527996363410283E-3    2.996357275340660E-3   -2.351912931523302E-3    3.171806612198329E-3    4.055620556084835E-1    3.069658577419482E-1
 8.062080529600000E9     3.825507935508508E-1    4.304332461842287E-1   -2.527735513851649E-3    2.970598561343311E-3   -2.390329216447237E-3    3.150159458889392E-3    4.057194146721804E-1    3.069911812396566E-1
 8.062081358900000E9     3.826671083125648E-1    4.305354073661707E-1   -2.524838587061881E-3    2.988183778017814E-3   -2.382783505824458E-3    3.189990679161213E-3    4.056709221896016E-1    3.069223906217635E-1
 8.062082188200000E9     3.827815596875076E-1    4.303028170834164E-1   -2.538795782800141E-3    2.990439342908958E-3   -2.372506842177490E-3    3.202129379929846E-3    4.055872658255733E-1    3.069943439755283E-1
 8.062083017500000E9     3.827995877171732E-1    4.302896658063780E-1   -2.529575223883411E-3    3.010328165325984E-3   -2.361235152294701E-3    3.201838293698694E-3    4.056436359454537E-1    3.068667530939468E-1
 8.062083846800000E9     3.828669634982640E-1    4.302993572302202E-1   -2.537298657817717E-3    3.013458645775095E-3   -2.376626464860398E-3    3.197676083415751E-3    4.057530174316462E-1    3.068768777238555E-1
 8.062084676100000E9     3.829568143327502E-1    4.300038038646730E-1   -2.563375725561870E-3    3.058029303257419E-3   -2.343499446792227E-3    3.200233424077787E-3    4.057358688042763E-1    3.068290221866190E-1
 8.062085505400000E9     3.830738161014471E-1    4.301529853022341E-1   -2.561712338762357E-3    3.031780878709570E-3   -2.370051172082161E-3    3.217309392736951E-3    4.057596273687233E-1    3.067968197122961E-1
 8.062086334700000E9     3.831650517978677E-1    4.300849993792263E-1   -2.571244128650385E-3    3.050954660711309E-3   -2.387827821883984E-3    3.250550199662481E-3    4.058200781492917E-1    3.067050111029400E-1
 8.062087164000000E9     3.831461972184985E-1    4.298485567887151E-1   -2.553760931267069E-3    3.063731914508790E-3   -2.386214041261480E-3    3.239590753911194E-3    4.059267929426257E-1    3.066299183509918E-1
 8.062087993300000E9     3.833056045657142E-1    4.298770492973675E-1   -2.553503572325047E-3    3.070592318757300E-3   -2.456667981722096E-3    3.277230596970804E-3    4.059712049934412E-1    3.066436580742287E-1
 8.062088822600000E9     3.834381246855673E-1    4.298146841305854E-1   -2.584240467028838E-3    3.096507773007816E-3   -2.402734050559679E-3    3.282382920139419E-3    4.057420430742359E-1    3.066024756860808E-1
 8.062089651900000E9     3.834191301095827E-1    4.296523681841037E-1   -2.573218504672627E-3    3.089569308904245E-3   -2.388090203391539E-3    3.270453178993946E-3    4.058373792555529E-1    3.064665834182413E-1
 8.062090481200000E9     3.836714421789534E-1    4.295736068165858E-1   -2.603384296910255E-3    3.106831893949515E-3   -2.416392575435351E-3    3.280220240662833E-3    4.058987482503327E-1    3.064913883773009E-1
 8.062091310500000E9     3.836796509842860E-1    4.293406901423444E-1   -2.594021731102313E-3    3.088491995384432E-3   -2.422040419103196E-3    3.302620658785630E-3    4.059369477852123E-1    3.064909535765106E-1
 8.062092139800000E9     3.837552129509542E-1    4.294358072506219E-1   -2.611742695854451E-3    3.125888519774227E-3   -2.392772548767449E-3    3.275917330486100E-3    4.060080686040612E-1    3.064207436375084E-1
 8.062092969100000E9     3.838517127023713E-1    4.293801335451096E-1   -2.620658918394589E-3    3.102843339314304E-3   -2.381274501208493E-3    3.299546452559988E-3    4.060549415916913E-1    3.062597541417149E-1
 8.062093798400000E9     3.837665660918326E-1    4.292536289620315E-1   -2.604343831282118E-3    3.128070132868381E-3   -2.450231161354693E-3    3.311139838494957E-3    4.061586308503813E-1    3.063771592118479E-1
 8.062094627700000E9     3.839564820037106E-1    4.292527651713473E-1   -2.599531273924544E-3    3.131082896400988E-3   -2.455705657814072E-3    3.293336768598296E-3    4.062020825415080E-1    3.062754241740103E-1
 8.062095457000000E9     3.840038479883002E-1    4.291956485330383E-1   -2.618768845684936E-3    3.149226952170874E-3   -2.443702957224000E-3    3.350992383866083E-3    4.061290304255201E-1    3.061066882395666E-1
 8.062096286300000E9     3.841138617472082E-1    4.290744803730648E-1   -2.628497875104683E-3    3.165448463999023E-3   -2.445985843459982E-3    3.322092810323906E-3    4.061722756392999E-1    3.062508336266697E-1
 8.062097115600000E9     3.842563111381069E-1    4.288502820664375E-1   -2.619049526118187E-3    3.147964317710699E-3   -2.447461299388097E-3    3.346006039036173E-3    4.062560094872817E-1    3.061681666433205E-1
 8.062097944900000E9     3.843247338450873E-1    4.289258038715132E-1   -2.640815405791333E-3    3.166927273129031E-3   -2.455461893126858E-3    3.337891353517383E-3    4.061751652854855E-1    3.061301813643764E-1
 8.062098774200000E9     3.843183507252809E-1    4.287788400733686E-1   -2.611575042252808E-3    3.165292573780299E-3   -2.479204782743599E-3    3.406588019856757E-3    4.062217781235471E-1    3.059458845451310E-1
 8.062099603500000E9     3.844055564562174E-1    4.287863657929586E-1   -2.635909761410162E-3    3.209538077267581E-3   -2.468183191014948E-3    3.386604897531186E-3    4.062725584060478E-1    3.059352226438474E-1
 8.062100432800000E9     3.844967460294471E-1    4.287532954522546E-1   -2.654698862402801E-3    3.230605460231410E-3   -2.473317657575319E-3    3.410317852227706E-3    4.064059629648525E-1    3.060035162224720E-1
 8.062101262100000E9     3.845490228459176E-1    4.284582761023285E-1   -2.644842842429605E-3    3.221540591764732E-3   -2.456701080968766E-3    3.430950715160262E-3    4.063206831244136E-1    3.058925217176394E-1
 8.062102091400000E9     3.846404349943550E-1    4.284659098148478E-1   -2.664923388250364E-3    3.222791690271303E-3   -2.472709017527784E-3    3.399693141560228E-3    4.064222510365212E-1    3.058082791521459E-1
 8.062102920700000E9     3.847267271890371E-1    4.283277364931430E-1   -2.672525223188342E-3    3.271895441215643E-3   -2.474859777516040E-3    3.436100875813055E-3    4.066120378182304E-1    3.057901144884455E-1
 8.062103750000000E9     3.848398928616240E-1    4.283061679853865E-1   -2.666746627638021E-3    3.240262783331880E-3   -2.486899731227037E-3    3.440364262242558E-3    4.063831901615242E-1    3.058401829055200E-1
 8.062104579300000E9     3.849509339092222E-1    4.282418945017663E-1   -2.666112118774269E-3    3.283494690435393E-3   -2.495893565096454E-3    3.464803276448244E-3    4.065799991344060E-1    3.058157838161004E-1
 8.062105408600000E9     3.849532977202754E-1    4.281568962622446E-1   -2.685247615739632E-3    3.266093794454334E-3   -2.478744107877365E-3    3.477957096045928E-3    4.066203739130632E-1    3.057421945742132E-1
 8.062106237900000E9     3.850130935108229E-1    4.281121487109679E-1   -2.665134782235791E-3    3.270380988583797E-3   -2.479034656269576E-3    3.469500774260486E-3    4.065017287754349E-1    3.056534095002353E-1
 8.062107067200000E9     3.851703664381739E-1    4.279278452259268E-1   -2.696908268834299E-3    3.310352763576547E-3   -2.516497008171728E-3    3.481943964538895E-3    4.065297870800185E-1    3.056488668756628E-1
 8.062107896500000E9     3.851329520474837E-1    4.280044084704497E-1   -2.710806628337204E-3    3.302347729104157E-3   -2.545833149827148E-3    3.472122637345487E-3    4.065228769748899E-1    3.055887968736792E-1
 8.062108725800000E9     3.852460493422035E-1    4.278882763580166E-1   -2.707508625216911E-3    3.317714847495159E-3   -2.524688202028789E-3    3.500441596915545E-3    4.065873156578975E-1    3.055024995511131E-1
 8.062109555100000E9     3.853404650283750E-1    4.277147866963021E-1   -2.694086041112394E-3    3.306582966925114E-3   -2.522082601408734E-3    3.537537326638964E-3    4.066320463877355E-1    3.055180551368890E-1
 8.062110384400000E9     3.854474528981081E-1    4.276353635450655E-1   -2.727392991139698E-3    3.350133750442639E-3   -2.541222108050479E-3    3.545619642861219E-3    4.066666040822651E-1    3.054739744465146E-1
 8.062111213700000E9     3.854875091656140E-1    4.275530035278373E-1   -2.700431061642880E-3    3.361263265927066E-3   -2.532999982200490E-3    3.581006985637901E-3    4.066754038195240E-1    3.052633711969261E-1
 8.062112043000000E9     3.855772436047918E-1    4.274494492086979E-1   -2.725241720347409E-3    3.347215348359504E-3   -2.509747893720606E-3    3.545531458717591E-3    4.067872541865468E-1    3.053396285415678E-1
 8.062112872300000E9     3.856502529953766E-1    4.273966077018725E-1   -2.735887311924716E-3    3.378241975350421E-3   -2.550044670255648E-3    3.574816666208764E-3    4.068176433836489E-1    3.051382436374468E-1
 8.062113701600000E9     3.857813767779408E-1    4.273057571984096E-1   -2.729954719572111E-3    3.382136454136736E-3   -2.564757197547833E-3    3.592802361676524E-3    4.067737994270443E-1    3.052436446240659E-1
 8.062114530900000E9     3.857359237991443E-1    4.272193823252503E-1   -2.740982418586037E-3    3.398474878985344E-3   -2.559700262881950E-3    3.618786229287367E-3    4.067804851569342E-1    3.053245636146828E-1
 8.062115360200000E9     3.859545613697932E-1    4.270188000866555E-1   -2.764305681887955E-3    3.393202362641872E-3   -2.554396407283340E-3    3.608917186088952E-3    4.068069792050548E-1    3.051949400003940E-1
 8.062116189500000E9     3.859913038929345E-1    4.270040978634926E-1   -2.764919643756831E-3    3.438415627869473E-3   -2.578592741421901E-3    3.583906189963139E-3    4.068527088340554E-1    3.049586698209201E-1
 8.062117018800000E9     3.860930344713638E-1    4.270271515244821E-1   -2.761027890533461E-3    3.449053081925518E-3   -2.575200359689439E-3    3.601853079686545E-3    4.069384225462488E-1    3.050995854957964E-1
 8.062117848100000E9     3.861988196678953E-1    4.267504151238499E-1   -2.766792765584456E-3    3.453681517490869E-3   -2.580993887513216E-3    3.681132365243752E-3    4.069814729585838E-1    3.050215461169953E-1
 8.062118677400000E9     3.861866217433318E-1    4.267840382601966E-1   -2.757200126409953E-3    3.463638064232774E-3   -2.586825431615783E-3    3.682518586581391E-3    4.069657252244903E-1    3.049319895562340E-1
 8.062119506700000E9     3.863444963786141E-1    4.266193782332736E-1   -2.767817576525260E-3    3.489272016446377E-3   -2.618803473819874E-3    3.675308537216257E-3    4.070197241934567E-1    3.049449433198566E-1
 8.062120336000000E9     3.864915874945380E-1    4.265282445496896E-1   -2.783551201099772E-3    3.499630145200720E-3   -2.626435667826119E-3    3.719337672427796E-3    4.069476068089719E-1    3.048949641073351E-1
 8.062121165300000E9     3.865135459333967E-1    4.264368189605611E-1   -2.805637492632193E-3    3.505651084177954E-3   -2.629545499063179E-3    3.689051267895161E-3    4.071134834609298E-1    3.047738655914189E-1
 8.062121994600000E9     3.865882686913364E-1    4.263086976578205E-1   -2.799476560396667E-3    3.539943038554991E-3   -2.608703705081573E-3    3.670257614325704E-3    4.070627821721596E-1    3.047748855011988E-1
 8.062122823900000E9     3.868557630815945E-1    4.262853079525852E-1   -2.838940305025156E-3    3.549181540168600E-3   -2.620801955622591E-3    3.720740610972216E-3    4.071159184194973E-1    3.047507960466997E-1
 8.062123653200000E9     3.867834252114318E-1    4.262151290748348E-1   -2.814156444131691E-3    3.563510115495088E-3   -2.621023096142499E-3    3.761385239332291E-3    4.072054322738722E-1    3.046184786284328E-1
 8.062124482500000E9     3.870092796266199E-1    4.259454767550510E-1   -2.850780713873933E-3    3.569423711150571E-3   -2.632423217306416E-3    3.779339593257403E-3    4.071840449429452E-1    3.045771196583417E-1
 8.062125311800000E9     3.869721914235426E-1    4.260257889472894E-1   -2.851757707198942E-3    3.581791737095249E-3   -2.631834118516007E-3    3.747212551309096E-3    4.071430584922833E-1    3.045979368525331E-1
 8.062126141100000E9     3.870381979213006E-1    4.257236994666803E-1   -2.818805601541515E-3    3.599934171345106E-3   -2.659490391181364E-3    3.758809690295052E-3    4.073347793929562E-1    3.046794799286661E-1
 8.062126970400000E9     3.871162239587344E-1    4.258351334301161E-1   -2.839339685206058E-3    3.599912370608890E-3   -2.639865680469983E-3    3.812485023427871E-3    4.072672146556149E-1    3.047241764244714E-1
 8.062127799700000E9     3.872807128666970E-1    4.255456988744599E-1   -2.872360905636249E-3    3.653021767905481E-3   -2.688609009169277E-3    3.816066399352058E-3    4.073100720321633E-1    3.045145873357255E-1
 8.062128629000000E9     3.872173468294609E-1    4.255495361428971E-1   -2.843679080302798E-3    3.613917080613112E-3   -2.676690636389339E-3    3.836973457954224E-3    4.073454765032868E-1    3.044508495380275E-1
 8.062129458300000E9     3.875208305726579E-1    4.254599401006814E-1   -2.869123505920213E-3    3.666713343818255E-3   -2.652146514984181E-3    3.861252233700788E-3    4.073402147187856E-1    3.044217957745547E-1
 8.062130287600000E9     3.874970412743702E-1    4.253601664700138E-1   -2.854111096639514E-3    3.650921439552149E-3   -2.654056616983459E-3    3.903423755453546E-3    4.075594244490043E-1    3.043034332423272E-1
 8.062131116900000E9     3.875522550911374E-1    4.251874720446123E-1   -2.894074521817675E-3    3.687018336253589E-3   -2.699249283152408E-3    3.900025657721603E-3    4.074332775424711E-1    3.043983166681467E-1
 8.062131946200000E9     3.877433125163271E-1    4.250736485535567E-1   -2.875254127257197E-3    3.707314293365991E-3   -2.718115933114739E-3    3.916038925345839E-3    4.074318365905749E-1    3.041859972090468E-1
 8.062132775500000E9     3.877772454038375E-1    4.249906740277831E-1   -2.904612085845175E-3    3.706253740941949E-3   -2.691604484708888E-3    3.923186582773153E-3    4.074669580399150E-1    3.040835244950033E-1
 8.062133604800000E9     3.878501364105463E-1    4.247979290556602E-1   -2.919845651905284E-3    3.732322148747898E-3   -2.697621823349138E-3    3.974857166923288E-3    4.075942011783837E-1    3.041209318223477E-1
 8.062134434100000E9     3.879973808940281E-1    4.247039784347083E-1   -2.924267990761674E-3    3.776053257844236E-3   -2.722622853290438E-3    3.968900456184886E-3    4.075220860735580E-1    3.041127001321839E-1
 8.062135263400000E9     3.879446854358666E-1    4.245642121829316E-1   -2.933335777199864E-3    3.800335019487491E-3   -2.704023678459590E-3    3.981876455337243E-3    4.075000372352432E-1    3.040627254621552E-1
 8.062136092700000E9     3.881494326923528E-1    4.245815868439983E-1   -2.926945781412399E-3    3.794690871565919E-3   -2.762304497753946E-3    4.011875839245779E-3    4.077199458007688E-1    3.040782162034982E-1
 8.062136922000000E9     3.882366145045829E-1    4.243913852670038E-1   -2.924139385074634E-3    3.804829063493987E-3   -2.737812191041532E-3    4.035620368482499E-3    4.075787063792272E-1    3.039814265216639E-1
 8.062137751300000E9     3.882378540584430E-1    4.241814920365932E-1   -2.929563082023613E-3    3.838442396067597E-3   -2.774501800503397E-3    4.024354702725637E-3    4.077811952825336E-1    3.039352977476291E-1
 8.062138580600000E9     3.883989199893615E-1    4.241223803349936E-1   -2.954370119517135E-3    3.847417925508351E-3   -2.750543212568383E-3    4.041096275663088E-3    4.076440227036653E-1    3.039381318677330E-1
 8.062139409900000E9     3.884397352572383E-1    4.240836007201783E-1   -2.989223429531683E-3    3.880507439231640E-3   -2.775924798935483E-3    4.079812081996861E-3    4.078002454714223E-1    3.038628627759158E-1
 8.062140239200000E9     3.885772954306547E-1    4.239639898508861E-1   -2.995803929112397E-3    3.877476974987780E-3   -2.733356150068895E-3    4.078682291892731E-3    4.078191417666659E-1    3.037439675295277E-1
 8.062141068500000E9     3.887170863546861E-1    4.237345357843394E-1   -2.995924962475394E-3    3.905553451245921E-3   -2.790401258315809E-3    4.101380681260386E-3    4.078718320156913E-1    3.037217316838758E-1
 8.062141897800000E9     3.887586477223791E-1    4.236954458362460E-1   -3.006506887035910E-3    3.948599026211982E-3   -2.765660795207606E-3    4.125059955881823E-3    4.079013321809544E-1    3.036575675799115E-1
 8.062142727100000E9     3.889906766354705E-1    4.234744051648159E-1   -2.983091115429738E-3    3.956432258967216E-3   -2.802362498953796E-3    4.140952549368276E-3    4.078200752096411E-1    3.036355478274528E-1
 8.062143556400000E9     3.890175649645806E-1    4.234682600693218E-1   -3.026440704489243E-3    3.965615048149670E-3   -2.787419657522437E-3    4.177285603159904E-3    4.079931574642781E-1    3.035876832397572E-1
 8.062144385700000E9     3.890875131493409E-1    4.233496284094085E-1   -3.045591864119284E-3    3.991158493469545E-3   -2.839032416785356E-3    4.217763712089029E-3    4.078723422995318E-1    3.036483179266780E-1
 8.062145215000000E9     3.892981295700901E-1    4.231765886165514E-1   -3.035692170789763E-3    4.028729400738071E-3   -2.831448128099274E-3    4.223221527656856E-3    4.080434760735701E-1    3.035743706269433E-1
 8.062146044300000E9     3.893159681719094E-1    4.229987632969486E-1   -3.036444651879296E-3    4.030584789891648E-3   -2.839296533770330E-3    4.260965155297476E-3    4.080656354670755E-1    3.034304835362704E-1
 8.062146873600000E9     3.894155132207863E-1    4.229799505483966E-1   -3.065672345849539E-3    4.064101188571583E-3   -2.833597774430666E-3    4.261559200085545E-3    4.080021126013435E-1    3.034227693548371E-1
 8.062147702900000E9     3.894952885595516E-1    4.228109609285397E-1   -3.073459336374033E-3    4.074413521975298E-3   -2.835716790147134E-3    4.310835338960228E-3    4.080949843125219E-1    3.033684702566993E-1
 8.062148532200000E9     3.895568258632324E-1    4.226266007567162E-1   -3.093286420024919E-3    4.107674069397804E-3   -2.837664217911776E-3    4.340305814424246E-3    4.080564088338485E-1    3.033115799526729E-1
 8.062149361500000E9     3.897690960285188E-1    4.224524192388457E-1   -3.075726188165800E-3    4.115166329793586E-3   -2.909157737071241E-3    4.371568285233203E-3    4.082611797017547E-1    3.032102231137473E-1
 8.062150190800000E9     3.899253249407531E-1    4.224223125445004E-1   -3.109373532942392E-3    4.143611681224604E-3   -2.876285124628243E-3    4.370404586707386E-3    4.081886406321484E-1    3.031268371239837E-1
 8.062151020100000E9     3.898941746063712E-1    4.221557451264865E-1   -3.107926330073625E-3    4.164758908615032E-3   -2.866246967236957E-3    4.400891900177130E-3    4.081813821391054E-1    3.032993623582611E-1
 8.062151849400000E9     3.901230709976989E-1    4.219538309736756E-1   -3.117335006648428E-3    4.173932296123212E-3   -2.892317212684515E-3    4.405370232628906E-3    4.082855499338111E-1    3.030348071074727E-1
 8.062152678700000E9     3.901888417877907E-1    4.219568152901028E-1   -3.132298718876120E-3    4.241384007991607E-3   -2.908048141325638E-3    4.466784934886980E-3    4.082375354283809E-1    3.030756381150471E-1
 8.062153508000000E9     3.902755518557374E-1    4.218381663004657E-1   -3.106365115909010E-3    4.231077461179392E-3   -2.928551897560302E-3    4.473106511114702E-3    4.082910809818729E-1    3.029474048929173E-1
