#  HZ   S   RI   R     50.00 
! Rohde & Schwarz Vector Network Analyzer 
! Rohde-Schwarz,ZNB20-2Port,1311601062101988,3.16
! Created: UTC 3/20/2024, 11:18:52 PM
! freq[Hz]                re:S11                  im:S11                  re:S21                  im:S21                  re:S12                  im:S12                  re:S22                  im:S22
 8.062097534000000E9     3.837617023848742E-1    4.294504739849591E-1   -2.596926093637722E-3    3.102043403293967E-3   -2.438525093960753E-3    3.273288773580965E-3    4.064583863638307E-1    3.059360662014902E-1
 8.062098310900000E9     3.838201272204019E-1    4.293161609365566E-1   -2.610817034828525E-3    3.090477507676025E-3   -2.437183404920871E-3    3.291843356614462E-3    4.066889320432481E-1    3.059573860966509E-1
 8.062099087800000E9     3.839856842060370E-1    4.292857009688973E-1   -2.586989357408594E-3    3.096186752113041E-3   -2.442095325969710E-3    3.307130554929669E-3    4.066932949896125E-1    3.058676679143925E-1
 8.062099864700000E9     3.841337035558184E-1    4.290717491754278E-1   -2.599443680015533E-3    3.132394428203513E-3   -2.449275253279225E-3    3.307298221795585E-3    4.065241887592322E-1    3.058601154057456E-1
 8.062100641600000E9     3.842012366867731E-1    4.292303398551203E-1   -2.620696925745284E-3    3.106253361639300E-3   -2.437073031114823E-3    3.318618598765458E-3    4.066427830098538E-1    3.058404817665598E-1
 8.062101418500000E9     3.842170052012367E-1    4.289946146659566E-1   -2.595939539083146E-3    3.111514695830746E-3   -2.443602586805467E-3    3.281721001006946E-3    4.066760990804844E-1    3.058740085133792E-1
 8.062102195400000E9     3.842390262795045E-1    4.290209905352030E-1   -2.620244949440600E-3    3.127573184692857E-3   -2.429673150885946E-3    3.359304795366308E-3    4.067138769542779E-1    3.057579449248195E-1
 8.062102972300000E9     3.843784842149846E-1    4.289124714461833E-1   -2.617636793457105E-3    3.163476110163587E-3   -2.479901362083310E-3    3.332881309432531E-3    4.067519038886120E-1    3.056944591722088E-1
 8.062103749200000E9     3.843197219928666E-1    4.288395720256543E-1   -2.611753012675041E-3    3.150427844647418E-3   -2.447073147514609E-3    3.329858685075761E-3    4.067690024384892E-1    3.057557032126698E-1
 8.062104526100000E9     3.844750292965791E-1    4.287313944212749E-1   -2.627138101764860E-3    3.173107648931083E-3   -2.467102018143747E-3    3.358435678249586E-3    4.066141827181388E-1    3.056436470394298E-1
 8.062105303000000E9     3.846101148772623E-1    4.286493482974478E-1   -2.637383327977029E-3    3.165104524220548E-3   -2.444149754632752E-3    3.345587361362447E-3    4.066606681887852E-1    3.055536113977749E-1
 8.062106079900000E9     3.845771584784781E-1    4.285017528190614E-1   -2.671184145028055E-3    3.166012731728776E-3   -2.481115162789494E-3    3.381380386177416E-3    4.067961402116978E-1    3.055434350471134E-1
 8.062106856800000E9     3.847548026877851E-1    4.283712155789594E-1   -2.649491990832386E-3    3.175108818926237E-3   -2.502429364901989E-3    3.339244194295965E-3    4.068612535088504E-1    3.056271565100198E-1
 8.062107633700000E9     3.848525760993972E-1    4.283831138606339E-1   -2.630700317239039E-3    3.188443645125483E-3   -2.485187607537750E-3    3.374758536830402E-3    4.069831924527531E-1    3.053485930579179E-1
 8.062108410600000E9     3.848705958905190E-1    4.282874239054919E-1   -2.645905420299445E-3    3.208071461036364E-3   -2.504869092453230E-3    3.412552474178880E-3    4.069379876265511E-1    3.055120502316486E-1
 8.062109187500000E9     3.849811748900557E-1    4.283581262568296E-1   -2.678136736555837E-3    3.216382201415518E-3   -2.510479390639950E-3    3.413487526664674E-3    4.069505715551517E-1    3.053156457241916E-1
 8.062109964400000E9     3.850642553025975E-1    4.281372221834127E-1   -2.633295423164113E-3    3.209732870936544E-3   -2.486881168595197E-3    3.433225315876027E-3    4.068867819465473E-1    3.053710798343992E-1
 8.062110741300000E9     3.850332945962778E-1    4.281429208929032E-1   -2.674686012905341E-3    3.230020453395485E-3   -2.509071482342545E-3    3.377177432718235E-3    4.069543888567138E-1    3.052416704293219E-1
 8.062111518200000E9     3.852428760566902E-1    4.279174646122363E-1   -2.703784758229788E-3    3.250862999196701E-3   -2.513438020107565E-3    3.462222092138194E-3    4.070360623928683E-1    3.052691649191310E-1
 8.062112295100000E9     3.853331171761492E-1    4.279144743809408E-1   -2.701826599297855E-3    3.242689285347880E-3   -2.508980348806448E-3    3.460988031962002E-3    4.070026916249123E-1    3.053350554709797E-1
 8.062113072000000E9     3.852919382759863E-1    4.277948020008324E-1   -2.680273882272652E-3    3.264258277151241E-3   -2.506280967299075E-3    3.444541306601050E-3    4.071767593089574E-1    3.049879873473125E-1
 8.062113848900000E9     3.855121078250171E-1    4.277386840521213E-1   -2.697974920812502E-3    3.277476930582810E-3   -2.504382507975068E-3    3.458781016378717E-3    4.070094656921660E-1    3.050444120903850E-1
 8.062114625800000E9     3.855019442213638E-1    4.276638341696787E-1   -2.706064351737151E-3    3.284019734508446E-3   -2.542354426479940E-3    3.498600839307437E-3    4.071851904629344E-1    3.050079132434425E-1
 8.062115402700000E9     3.856726837988643E-1    4.276398728474895E-1   -2.681563452833805E-3    3.288728557559299E-3   -2.545673108192334E-3    3.481604420846144E-3    4.072390969372109E-1    3.050160137981237E-1
 8.062116179600000E9     3.856805948733009E-1    4.275740519794990E-1   -2.707679916205775E-3    3.327561499697220E-3   -2.546317615142650E-3    3.504185685057868E-3    4.071446956746321E-1    3.050110732165354E-1
 8.062116956500000E9     3.856604934384508E-1    4.273410816216179E-1   -2.743895401630362E-3    3.299928852839480E-3   -2.557041186846373E-3    3.526628089656393E-3    4.070828633117055E-1    3.048919187012883E-1
 8.062117733400000E9     3.858057516253910E-1    4.272735970456071E-1   -2.724107481357719E-3    3.327528830456760E-3   -2.520944165399126E-3    3.518686326306226E-3    4.073027824518230E-1    3.048870215227746E-1
 8.062118510300000E9     3.860019950628159E-1    4.271935248046208E-1   -2.730103695543703E-3    3.352766713283091E-3   -2.543562514560580E-3    3.520954089849632E-3    4.071415635608920E-1    3.048729069635928E-1
 8.062119287200000E9     3.859797237403026E-1    4.272677430026023E-1   -2.726092500860989E-3    3.358153855587506E-3   -2.544187752451074E-3    3.552655723378441E-3    4.072778623529889E-1    3.046922218810875E-1
 8.062120064100000E9     3.861090621052200E-1    4.271457084417340E-1   -2.736102248641677E-3    3.361896993090399E-3   -2.568469474100369E-3    3.562961018323294E-3    4.073120513740993E-1    3.049003605471430E-1
 8.062120841000000E9     3.860888177217160E-1    4.269691867089488E-1   -2.744673501850689E-3    3.371907639520295E-3   -2.569893720732636E-3    3.564222061945033E-3    4.074770250958212E-1    3.046650499512157E-1
 8.062121617900000E9     3.863006762699038E-1    4.269972542616807E-1   -2.738940402936487E-3    3.361493032468544E-3   -2.546805726274675E-3    3.589203168309262E-3    4.073411103086471E-1    3.046807307993162E-1
 8.062122394800000E9     3.862865724744458E-1    4.269343321206872E-1   -2.756107234143606E-3    3.407226921869713E-3   -2.577830502771683E-3    3.617444257048392E-3    4.073912016017759E-1    3.047226918705213E-1
 8.062123171700000E9     3.864166115898390E-1    4.268307133126014E-1   -2.769446873416946E-3    3.409975694076113E-3   -2.572542389755710E-3    3.626384396887062E-3    4.075605290237719E-1    3.046219026121533E-1
 8.062123948600000E9     3.863445887255133E-1    4.266627855791433E-1   -2.779872403767200E-3    3.442428194394274E-3   -2.619148644271157E-3    3.591946505260417E-3    4.075073895118049E-1    3.046427260033896E-1
 8.062124725500000E9     3.865026331009830E-1    4.266154314105099E-1   -2.779552688051413E-3    3.444551971417372E-3   -2.602997180849144E-3    3.619389999098253E-3    4.074441913377261E-1    3.045142358717292E-1
 8.062125502400000E9     3.867552808734551E-1    4.264835035240759E-1   -2.782816980566388E-3    3.434276041894818E-3   -2.621149324599284E-3    3.631318116485652E-3    4.074913310318600E-1    3.045648560658269E-1
 8.062126279300000E9     3.867776553103423E-1    4.264257362940559E-1   -2.792541838532412E-3    3.458364583225187E-3   -2.605699533035108E-3    3.657895365607473E-3    4.074569652021520E-1    3.043860770501933E-1
 8.062127056200000E9     3.869077613504557E-1    4.263455184139904E-1   -2.809079389979905E-3    3.479275254778806E-3   -2.612270708344975E-3    3.696095808072048E-3    4.076206602650435E-1    3.045083592849618E-1
 8.062127833100000E9     3.867935071673490E-1    4.263781479050756E-1   -2.813108197304156E-3    3.492315619146100E-3   -2.607049020912927E-3    3.681799138366629E-3    4.075297732016726E-1    3.042834715605128E-1
 8.062128610000000E9     3.869838656657281E-1    4.261922815958675E-1   -2.799978401817157E-3    3.519999645899424E-3   -2.598412464409013E-3    3.669009280283585E-3    4.075609988001069E-1    3.043982576883719E-1
 8.062129386900000E9     3.869091866375877E-1    4.260918084354365E-1   -2.848139014277177E-3    3.515698855581443E-3   -2.643707910516506E-3    3.699875789977888E-3    4.077525341552370E-1    3.043240506938253E-1
 8.062130163800000E9     3.870509132103309E-1    4.261241509747046E-1   -2.829028015775282E-3    3.528748964918782E-3   -2.644563520286986E-3    3.737920517365973E-3    4.076983034225818E-1    3.043157651555987E-1
 8.062130940700000E9     3.871450716134571E-1    4.257972447568402E-1   -2.843959716190128E-3    3.513557467419541E-3   -2.665485452484088E-3    3.705336926250568E-3    4.076805946981115E-1    3.040048490509280E-1
 8.062131717600000E9     3.872846305231013E-1    4.258885052744243E-1   -2.844916943002383E-3    3.565135392717023E-3   -2.628507618771504E-3    3.730961422621324E-3    4.077653804588161E-1    3.041736974902148E-1
 8.062132494500000E9     3.873480351074877E-1    4.256940120497099E-1   -2.839082677731475E-3    3.575291855315660E-3   -2.670487170656132E-3    3.767037412191386E-3    4.077837606135450E-1    3.041652652091830E-1
 8.062133271400000E9     3.873577135399113E-1    4.255544160635354E-1   -2.867255221525208E-3    3.576829791596788E-3   -2.668636141361754E-3    3.741472419823677E-3    4.076596669542162E-1    3.039408191431733E-1
 8.062134048300000E9     3.874775370764230E-1    4.254383525868241E-1   -2.881736607708550E-3    3.572200541255716E-3   -2.651712039497598E-3    3.781912389863906E-3    4.077660885367932E-1    3.039856343380399E-1
 8.062134825200000E9     3.876509130268549E-1    4.253606382744199E-1   -2.874276885836894E-3    3.614442754257013E-3   -2.675082571372432E-3    3.797588496724568E-3    4.078580996841463E-1    3.040091232063623E-1
 8.062135602100000E9     3.877328431455958E-1    4.252930130124048E-1   -2.856654825485703E-3    3.627712265628857E-3   -2.677346019288434E-3    3.834155941858949E-3    4.078673170248492E-1    3.039277728306940E-1
 8.062136379000000E9     3.878388855019617E-1    4.251508580107738E-1   -2.896293050616870E-3    3.631256809728866E-3   -2.693192303240410E-3    3.852502822649290E-3    4.078843534531586E-1    3.038920952461777E-1
 8.062137155900000E9     3.878481926012928E-1    4.250703587669177E-1   -2.889718759332304E-3    3.652809485622130E-3   -2.699519675037522E-3    3.883177589095380E-3    4.079756608820393E-1    3.038360492240061E-1
 8.062137932800000E9     3.880496498871832E-1    4.251300901805506E-1   -2.879725515808708E-3    3.648279195358699E-3   -2.698316593223350E-3    3.882990448130103E-3    4.078859013217914E-1    3.037659504481577E-1
 8.062138709700000E9     3.880445262976036E-1    4.249838452996685E-1   -2.909133113497309E-3    3.669312258187944E-3   -2.702368845423975E-3    3.901979901284698E-3    4.080170955823127E-1    3.039202885942263E-1
 8.062139486600000E9     3.880414722432899E-1    4.247321191963842E-1   -2.906016277613221E-3    3.674358173015336E-3   -2.699584643752632E-3    3.895328744648574E-3    4.080741839330707E-1    3.036451692171515E-1
 8.062140263500000E9     3.882936087058264E-1    4.247675438663760E-1   -2.888622126445989E-3    3.694980771496362E-3   -2.712912114562653E-3    3.930502749941600E-3    4.081715648838285E-1    3.036542176585080E-1
 8.062141040400000E9     3.883427304126841E-1    4.246435900613194E-1   -2.956429483903106E-3    3.741231449881138E-3   -2.748239777756453E-3    3.960865098565473E-3    4.081411170965091E-1    3.038061937293134E-1
 8.062141817300000E9     3.884071411743937E-1    4.244589939721656E-1   -2.942563301079772E-3    3.760502621305859E-3   -2.698437945107253E-3    3.936077474137384E-3    4.081195621885906E-1    3.035060631783896E-1
 8.062142594200000E9     3.884729164481520E-1    4.243981804452380E-1   -2.955302154443089E-3    3.760602298787468E-3   -2.727024353441113E-3    3.960810110058907E-3    4.081988904309136E-1    3.035909069519885E-1
 8.062143371100000E9     3.884747153531093E-1    4.242030908713214E-1   -2.955272520269320E-3    3.784104666303625E-3   -2.729150379946072E-3    3.968816664624694E-3    4.082653619494913E-1    3.035069566603908E-1
 8.062144148000000E9     3.888059183743320E-1    4.242131291085945E-1   -2.952502529026865E-3    3.805629229277504E-3   -2.773686519460331E-3    3.995575687861436E-3    4.081219770499603E-1    3.034332473177922E-1
 8.062144924900000E9     3.888002464539904E-1    4.241383392307999E-1   -2.940112926599678E-3    3.821106822595221E-3   -2.750157420176071E-3    4.025615764569154E-3    4.082360287746661E-1    3.034559088616275E-1
 8.062145701800000E9     3.888762797736983E-1    4.239571430489824E-1   -2.953374321397047E-3    3.834551513696104E-3   -2.773062139181345E-3    4.025063614068526E-3    4.083155133497245E-1    3.033885027062991E-1
 8.062146478700000E9     3.889041595083105E-1    4.240034065267096E-1   -2.996509424331861E-3    3.836378418527537E-3   -2.786991345464894E-3    4.058340140570394E-3    4.083346028948443E-1    3.034454412859521E-1
 8.062147255600000E9     3.890298535226640E-1    4.237386947619779E-1   -3.017363289290489E-3    3.860361431320691E-3   -2.754861669322842E-3    4.076048188762274E-3    4.084449784936248E-1    3.032636150554087E-1
 8.062148032500000E9     3.892403983116690E-1    4.236758241084435E-1   -3.019633742103402E-3    3.883801524688283E-3   -2.765927668502445E-3    4.103033840374385E-3    4.084075768250465E-1    3.033549566785201E-1
 8.062148809400000E9     3.892153806455916E-1    4.235169444518667E-1   -3.015826286028563E-3    3.910482541704966E-3   -2.798440730583977E-3    4.111840833810401E-3    4.083984224006197E-1    3.032300050346398E-1
 8.062149586300000E9     3.892265114087413E-1    4.234592710950493E-1   -3.042118771971555E-3    3.927853216058859E-3   -2.800580011326361E-3    4.103893004889167E-3    4.083877105147468E-1    3.031796957778470E-1
 8.062150363200000E9     3.894590075591446E-1    4.232030221638830E-1   -3.010537489853001E-3    3.917069156565181E-3   -2.820511690260757E-3    4.133399078754045E-3    4.085024429965029E-1    3.031336101874595E-1
 8.062151140100000E9     3.893773709907494E-1    4.231837393890343E-1   -3.032112381881121E-3    3.955009640419883E-3   -2.834256176761748E-3    4.185962848772306E-3    4.085442898018706E-1    3.031437501995256E-1
 8.062151917000000E9     3.894954317452150E-1    4.229429207863111E-1   -3.047366930171914E-3    3.976226365719387E-3   -2.839431031064552E-3    4.176139102091941E-3    4.085129205930818E-1    3.029672815049001E-1
 8.062152693900000E9     3.897664305500298E-1    4.228299271132590E-1   -3.055418309210784E-3    4.005317159614660E-3   -2.853118902039211E-3    4.226248469898290E-3    4.084895442283908E-1    3.029119635181511E-1
 8.062153470800000E9     3.897668947608776E-1    4.228626497608133E-1   -3.045280087669998E-3    4.027428826001739E-3   -2.855309355985356E-3    4.244731669286047E-3    4.086054230307045E-1    3.029148961709034E-1
 8.062154247700000E9     3.899306721681455E-1    4.226247734734880E-1   -3.083071492575249E-3    4.017666394903787E-3   -2.880594587990398E-3    4.264311397327037E-3    4.086320110221514E-1    3.028563433583983E-1
 8.062155024600000E9     3.899662355345955E-1    4.225803862359154E-1   -3.070800365962534E-3    4.057366458094034E-3   -2.875054630363400E-3    4.286205630235110E-3    4.085692112455953E-1    3.027457961380903E-1
 8.062155801500000E9     3.900948370298132E-1    4.224549057446011E-1   -3.087258321519052E-3    4.082154493982666E-3   -2.866535877978753E-3    4.293078731889955E-3    4.086008514656512E-1    3.028444169423580E-1
 8.062156578400000E9     3.901641639802229E-1    4.222121336932225E-1   -3.106938705180397E-3    4.112957497742524E-3   -2.868817260532365E-3    4.315121622118536E-3    4.086841187608669E-1    3.028910377750176E-1
 8.062157355300000E9     3.903380359189969E-1    4.220847660673324E-1   -3.117002526305275E-3    4.120671344116659E-3   -2.887954876797522E-3    4.345563156095060E-3    4.086545621311144E-1    3.027963281488584E-1
 8.062158132200000E9     3.903988736637904E-1    4.220776520044180E-1   -3.118548021109482E-3    4.139226219858221E-3   -2.890735393161754E-3    4.360438304396324E-3    4.087512587169284E-1    3.027393972272467E-1
 8.062158909100000E9     3.904800828259737E-1    4.218519588417428E-1   -3.139496336117354E-3    4.170069758773008E-3   -2.926667379332705E-3    4.360531401312952E-3    4.088212497018862E-1    3.026130130201867E-1
 8.062159686000000E9     3.905329221136284E-1    4.217713271968691E-1   -3.178512562179939E-3    4.192437972521017E-3   -2.906957702533952E-3    4.396148144814501E-3    4.086738491738987E-1    3.027036179883564E-1
 8.062160462900000E9     3.907163618995760E-1    4.217352104894844E-1   -3.130303153923966E-3    4.198662701332765E-3   -2.946582359595106E-3    4.423793191330929E-3    4.088469184951611E-1    3.025531913286940E-1
 8.062161239800000E9     3.908687118013763E-1    4.214384041508886E-1   -3.184700875438739E-3    4.241427153546018E-3   -2.922398388162164E-3    4.486037541253499E-3    4.088348132071286E-1    3.024981334571768E-1
 8.062162016700000E9     3.908631911026600E-1    4.213803287004921E-1   -3.192616082728235E-3    4.252809886687080E-3   -2.943129083387094E-3    4.496851877141363E-3    4.088469380295357E-1    3.024316924849428E-1
 8.062162793600000E9     3.908631579086059E-1    4.212661788402335E-1   -3.196740047818422E-3    4.279566853045234E-3   -2.928917535374372E-3    4.470896251980904E-3    4.089575341464058E-1    3.023591462105392E-1
 8.062163570500000E9     3.911571716086672E-1    4.211456653147198E-1   -3.197575495713664E-3    4.300683180290098E-3   -2.955739999001447E-3    4.514232768658399E-3    4.089026084076115E-1    3.023331765058437E-1
 8.062164347400000E9     3.912453189908412E-1    4.209487922964069E-1   -3.203020857675546E-3    4.332321924623633E-3   -2.963749336137170E-3    4.562028681378776E-3    4.090902973842383E-1    3.023261062261519E-1
 8.062165124300000E9     3.912484764482258E-1    4.207806731519795E-1   -3.228208189326794E-3    4.346285035177847E-3   -2.960487228470257E-3    4.597990983128597E-3    4.090837106366177E-1    3.024114275891306E-1
 8.062165901200000E9     3.914536153778234E-1    4.206891863683409E-1   -3.245617546907042E-3    4.396489326087068E-3   -2.986048534601340E-3    4.633106457603213E-3    4.089867565269648E-1    3.022551754489584E-1
 8.062166678100000E9     3.915869910215189E-1    4.205328401994267E-1   -3.237414957136045E-3    4.399469873152999E-3   -2.981616767141338E-3    4.668549037954954E-3    4.090581984464010E-1    3.022901011485613E-1
 8.062167455000000E9     3.916346165658572E-1    4.202948558723807E-1   -3.235843441643895E-3    4.451035254520835E-3   -3.022232242004954E-3    4.662848816385123E-3    4.090171096442613E-1    3.021476855915970E-1
