#  HZ   S   RI   R     50.00 
! Rohde & Schwarz Vector Network Analyzer 
! Rohde-Schwarz,ZNB20-2Port,1311601062101988,3.16
! Created: UTC 3/20/2024, 11:19:26 PM
! freq[Hz]                re:S11                  im:S11                  re:S21                  im:S21                  re:S12                  im:S12                  re:S22                  im:S22
 8.062118285000000E9     3.852351192463870E-1    4.279091127254434E-1   -2.672885574617638E-3    3.205982306234925E-3   -2.511118731074502E-3    3.369920549991098E-3    4.068451986906403E-1    3.047946286383895E-1
 8.062119003275000E9     3.854064475229347E-1    4.279542380810462E-1   -2.679617732368416E-3    3.194781221457717E-3   -2.493200625179985E-3    3.404451334980774E-3    4.069512024771566E-1    3.048322476318326E-1
 8.062119721550000E9     3.854745873393421E-1    4.278597869815051E-1   -2.705074521776590E-3    3.208993013202307E-3   -2.510254618869160E-3    3.447901084680991E-3    4.068626473991921E-1    3.048354067303132E-1
 8.062120439825000E9     3.856068765549710E-1    4.277544098104326E-1   -2.704213027792824E-3    3.242679604986046E-3   -2.546128591574196E-3    3.448173627678586E-3    4.069306008341859E-1    3.047364806348886E-1
 8.062121158100000E9     3.855791857222231E-1    4.276992472608088E-1   -2.669590060887517E-3    3.223259465259327E-3   -2.499185817790824E-3    3.431713772797779E-3    4.069855320711896E-1    3.046749929442205E-1
 8.062121876375000E9     3.858194329373611E-1    4.275377264017625E-1   -2.677590975801128E-3    3.247233589678016E-3   -2.560388867537502E-3    3.440524467007822E-3    4.072021267216169E-1    3.046786743299857E-1
 8.062122594650000E9     3.859039183501932E-1    4.275014615413587E-1   -2.674556345142942E-3    3.269048929242001E-3   -2.517354923880582E-3    3.456810708647798E-3    4.069306814296541E-1    3.045893570336726E-1
 8.062123312925000E9     3.859237584845673E-1    4.274134861299567E-1   -2.685120124993258E-3    3.275585664613581E-3   -2.542159318272461E-3    3.443819153796554E-3    4.070950856994329E-1    3.046496783213942E-1
 8.062124031200000E9     3.860287238171284E-1    4.274208301241615E-1   -2.715362512242184E-3    3.273128606459911E-3   -2.528113144416325E-3    3.508033989561356E-3    4.071743989315804E-1    3.046347152034460E-1
 8.062124749475000E9     3.861151723731544E-1    4.272794735770070E-1   -2.718845265897184E-3    3.301970547692439E-3   -2.541496462016384E-3    3.500073770089877E-3    4.069390139568686E-1    3.044938128088492E-1
 8.062125467750000E9     3.860935018331443E-1    4.271764183415424E-1   -2.727041426278895E-3    3.320556057929472E-3   -2.567638215294871E-3    3.496358916037489E-3    4.070264226318250E-1    3.044011775204242E-1
 8.062126186025000E9     3.862943983465617E-1    4.270444523994865E-1   -2.695175100602339E-3    3.326916572897785E-3   -2.549897898820364E-3    3.516309395527837E-3    4.071701155504925E-1    3.044526479800713E-1
 8.062126904300000E9     3.862842442884765E-1    4.270358893434183E-1   -2.746770475417740E-3    3.341453930498869E-3   -2.548714726673339E-3    3.468251944420811E-3    4.071940701294504E-1    3.045269540405997E-1
 8.062127622575000E9     3.864022375844018E-1    4.269416316718275E-1   -2.741259859993522E-3    3.321914583535780E-3   -2.566216698334261E-3    3.543938208552285E-3    4.073068432320774E-1    3.043890548608874E-1
 8.062128340850000E9     3.864598047281790E-1    4.270237102429867E-1   -2.740776357786902E-3    3.330730020561288E-3   -2.583170146444935E-3    3.555065199668448E-3    4.073568881116417E-1    3.043172317917123E-1
 8.062129059125000E9     3.865922625524614E-1    4.268949965965405E-1   -2.720409465855780E-3    3.372405331196654E-3   -2.553528592224843E-3    3.565257442476665E-3    4.072140365244299E-1    3.042872293155140E-1
 8.062129777400000E9     3.866291913231398E-1    4.265433337934453E-1   -2.764301756790399E-3    3.366729557474451E-3   -2.551793760375286E-3    3.543713058086263E-3    4.072872285239041E-1    3.041458661773978E-1
 8.062130495675000E9     3.866504547617129E-1    4.266928208403067E-1   -2.768437392474747E-3    3.372494128244641E-3   -2.607073665599034E-3    3.542025586037553E-3    4.074234131851619E-1    3.041903939628553E-1
 8.062131213950000E9     3.867688311104852E-1    4.265411332254908E-1   -2.753640289558605E-3    3.391247689442387E-3   -2.597507095015415E-3    3.586835364052454E-3    4.073901186508992E-1    3.041452942915810E-1
 8.062131932225000E9     3.868617549045417E-1    4.264916731317364E-1   -2.755186183188099E-3    3.411819601831803E-3   -2.578145820737106E-3    3.620597208122204E-3    4.073343142408111E-1    3.041084227235122E-1
 8.062132650500000E9     3.869718726050330E-1    4.263845978251560E-1   -2.763707118593473E-3    3.417240961666223E-3   -2.610666720367240E-3    3.591220397839070E-3    4.074570103372474E-1    3.040925026509697E-1
 8.062133368775000E9     3.869620841523774E-1    4.264344562961056E-1   -2.782031928725393E-3    3.416957084010979E-3   -2.568898155387125E-3    3.606574933624851E-3    4.074018470100342E-1    3.041500674739321E-1
 8.062134087050000E9     3.870594890691865E-1    4.261548756731266E-1   -2.790449449070309E-3    3.437079751919887E-3   -2.606573111514082E-3    3.648284567586028E-3    4.074157176701126E-1    3.040786643994136E-1
 8.062134805325000E9     3.871703741613284E-1    4.261343822064304E-1   -2.836371629167487E-3    3.437915105024780E-3   -2.579729816148346E-3    3.646882257426468E-3    4.075088212069553E-1    3.039657453543111E-1
 8.062135523600000E9     3.872847779185802E-1    4.261063034751870E-1   -2.799271696381023E-3    3.428341507573337E-3   -2.604243677108931E-3    3.609624218229151E-3    4.074922525418218E-1    3.039382087906756E-1
 8.062136241875000E9     3.873097798880344E-1    4.259895746902257E-1   -2.794525621347948E-3    3.449965975785656E-3   -2.635130199049094E-3    3.671645032828206E-3    4.075315684403110E-1    3.039040275277142E-1
 8.062136960150000E9     3.873839896601984E-1    4.259529344914306E-1   -2.811901364641757E-3    3.482054195747448E-3   -2.628794780004863E-3    3.663946273688760E-3    4.075763110509910E-1    3.038298612403277E-1
 8.062137678425000E9     3.875130260894118E-1    4.258446747953503E-1   -2.790215188011100E-3    3.485752088890383E-3   -2.624781375618009E-3    3.715215857737323E-3    4.075885201630935E-1    3.037784695032767E-1
 8.062138396700000E9     3.875582776941747E-1    4.257177215668796E-1   -2.829882151410550E-3    3.501725623610652E-3   -2.657667778023559E-3    3.739893010394265E-3    4.075498131207472E-1    3.037913561000025E-1
 8.062139114975000E9     3.876370640678383E-1    4.256153266126477E-1   -2.821305483345060E-3    3.511608884968412E-3   -2.660506574813813E-3    3.681099187725623E-3    4.075811723795953E-1    3.037827147904876E-1
 8.062139833250000E9     3.876759270971278E-1    4.255249940841774E-1   -2.846242634936482E-3    3.519422967113384E-3   -2.656553888608782E-3    3.713446836393492E-3    4.076114556436645E-1    3.037004225093795E-1
 8.062140551525000E9     3.877798560759898E-1    4.255405137190130E-1   -2.843324677231478E-3    3.536386330868645E-3   -2.668199684637241E-3    3.764127475507587E-3    4.077251004404022E-1    3.036705446473265E-1
 8.062141269800000E9     3.879137040716075E-1    4.255552677811756E-1   -2.843538351800982E-3    3.541840578819372E-3   -2.695131712140981E-3    3.775902969124046E-3    4.077396537705432E-1    3.036097176729088E-1
 8.062141988075000E9     3.879816243338866E-1    4.252259090280540E-1   -2.861485879460927E-3    3.569545606488782E-3   -2.657628354117588E-3    3.750341296915517E-3    4.077573544931046E-1    3.036231145458110E-1
 8.062142706350000E9     3.880708705349197E-1    4.252437033341666E-1   -2.851563893618922E-3    3.558305774290893E-3   -2.662561441169744E-3    3.796156434367086E-3    4.077213157934971E-1    3.035106562822169E-1
 8.062143424625000E9     3.881689124730667E-1    4.250853854398888E-1   -2.845740139661755E-3    3.587199307821230E-3   -2.679699798534089E-3    3.782092241750684E-3    4.077341138588548E-1    3.037195184458231E-1
 8.062144142900000E9     3.881710499485843E-1    4.249994564254816E-1   -2.881400378648083E-3    3.571436722322558E-3   -2.696412693201200E-3    3.800166258556107E-3    4.077993812982981E-1    3.036196753740860E-1
 8.062144861175000E9     3.883107306398919E-1    4.249269594791539E-1   -2.896204888503149E-3    3.622329756822879E-3   -2.698882116222853E-3    3.823203909729431E-3    4.078830047197867E-1    3.034233439939221E-1
 8.062145579450000E9     3.883905987378760E-1    4.248572412067705E-1   -2.901595567058713E-3    3.623759768731368E-3   -2.712104134892661E-3    3.819708463192593E-3    4.078707272640659E-1    3.033775736602423E-1
 8.062146297725000E9     3.884775999194259E-1    4.247451598389734E-1   -2.910693203973473E-3    3.647136430726966E-3   -2.710796800973535E-3    3.848948454093582E-3    4.079226371825191E-1    3.033048162522161E-1
 8.062147016000000E9     3.885346658530596E-1    4.245583608655797E-1   -2.919698389510632E-3    3.656237774914545E-3   -2.741876459068584E-3    3.852139133806070E-3    4.079568265985759E-1    3.033310724369445E-1
 8.062147734275000E9     3.886813923334585E-1    4.245696298190355E-1   -2.903039691369752E-3    3.697558795415434E-3   -2.753669488876757E-3    3.882870390576033E-3    4.078634851757426E-1    3.033197315855723E-1
 8.062148452550000E9     3.885958737831784E-1    4.246505221395274E-1   -2.940375094429860E-3    3.677603261903873E-3   -2.727278117074394E-3    3.912860684899167E-3    4.079663884940372E-1    3.032806226837891E-1
 8.062149170825000E9     3.887956113856304E-1    4.243331796527562E-1   -2.943076451923207E-3    3.703735083751321E-3   -2.735749658851813E-3    3.891870657645410E-3    4.079971063690296E-1    3.030883558961407E-1
 8.062149889100000E9     3.888118261812927E-1    4.242479135294137E-1   -2.955806342569377E-3    3.693201534087667E-3   -2.729466327681562E-3    3.917483147903076E-3    4.081704499112068E-1    3.031081656587815E-1
 8.062150607375000E9     3.889420678356018E-1    4.242733166975823E-1   -2.961394852372407E-3    3.713792676647299E-3   -2.743313959288074E-3    3.899478150579548E-3    4.082045468946230E-1    3.031310569393879E-1
 8.062151325650000E9     3.889113261953024E-1    4.241119730415853E-1   -2.945229707434187E-3    3.734938112312152E-3   -2.750489422329877E-3    3.962716180500346E-3    4.079651799058302E-1    3.030654302389681E-1
 8.062152043925000E9     3.890827478767071E-1    4.240510481722502E-1   -2.966551319881896E-3    3.747562166555276E-3   -2.768399561383293E-3    3.951148933941914E-3    4.082625897199451E-1    3.030494317137414E-1
 8.062152762200000E9     3.891759413769675E-1    4.238694318662889E-1   -2.989086235075841E-3    3.779921178853396E-3   -2.785767172043655E-3    3.965051258596438E-3    4.081390479982647E-1    3.029318781342376E-1
 8.062153480475000E9     3.893208937630332E-1    4.237456107061944E-1   -2.982562232250382E-3    3.775890298740660E-3   -2.759081533050484E-3    4.027009637695268E-3    4.080756886635499E-1    3.030112948693047E-1
 8.062154198750000E9     3.893291219406099E-1    4.237419579750298E-1   -2.983932349389766E-3    3.803826557749905E-3   -2.793422766605341E-3    4.009486897037431E-3    4.083361516000673E-1    3.029562823962345E-1
 8.062154917025000E9     3.893472653877549E-1    4.235497235195663E-1   -3.006775002053924E-3    3.827206083983820E-3   -2.810005614903942E-3    4.028500916531183E-3    4.082099472053666E-1    3.028876268021494E-1
 8.062155635300000E9     3.896165193339057E-1    4.236119024067365E-1   -3.016584200213121E-3    3.836768212765383E-3   -2.782199724007487E-3    4.053808862749647E-3    4.083193354681935E-1    3.028095288224643E-1
 8.062156353575000E9     3.895756835351807E-1    4.233691923941110E-1   -3.021676972162797E-3    3.867961288167677E-3   -2.800863523970618E-3    4.042921943356969E-3    4.081902743439766E-1    3.027708359429984E-1
 8.062157071850000E9     3.895595020021106E-1    4.232647709530847E-1   -3.046906790959533E-3    3.898544495301351E-3   -2.807164084525472E-3    4.074034943789538E-3    4.083654553533528E-1    3.027126453319040E-1
 8.062157790125000E9     3.898695676613257E-1    4.232117562139569E-1   -3.020432063551537E-3    3.899052876147796E-3   -2.824646265348157E-3    4.083644987655018E-3    4.082954500142233E-1    3.027136364247922E-1
 8.062158508400000E9     3.899012714847521E-1    4.230639844440427E-1   -3.041261046550546E-3    3.901063984729828E-3   -2.811741034714607E-3    4.137082400589946E-3    4.083132957401310E-1    3.027446775513593E-1
 8.062159226675000E9     3.899480086574024E-1    4.229866224767294E-1   -3.051679463473582E-3    3.942873244880099E-3   -2.844280334002885E-3    4.122155383234955E-3    4.083521090720709E-1    3.026442750494430E-1
 8.062159944950000E9     3.900516972773179E-1    4.228605950876900E-1   -3.051842539527402E-3    3.949144503445373E-3   -2.847603308241069E-3    4.158162467397175E-3    4.084965640715733E-1    3.026778519563823E-1
 8.062160663225000E9     3.900199672678189E-1    4.227124398147303E-1   -3.052177347006527E-3    3.948839008687859E-3   -2.872511193958357E-3    4.168265400896915E-3    4.084101319837483E-1    3.025503591864357E-1
 8.062161381500000E9     3.901727426350167E-1    4.226480359442014E-1   -3.081212088388071E-3    3.970618981090523E-3   -2.856726809744359E-3    4.187561080248234E-3    4.085044338732983E-1    3.026378187698817E-1
 8.062162099775000E9     3.902707950803393E-1    4.224560534982725E-1   -3.069009683536579E-3    3.999620637581318E-3   -2.844482597273137E-3    4.236749939676280E-3    4.084473687199331E-1    3.026126039923968E-1
 8.062162818050000E9     3.904481015016084E-1    4.224673313059565E-1   -3.110060168356079E-3    3.997516220564174E-3   -2.896399553375515E-3    4.237207994673743E-3    4.084402387899463E-1    3.025400301137883E-1
 8.062163536325000E9     3.905098546787867E-1    4.223323888717389E-1   -3.091847434094609E-3    4.044650264385473E-3   -2.859265278442023E-3    4.274866460289208E-3    4.087024834054163E-1    3.024160702206618E-1
 8.062164254600000E9     3.905414990340959E-1    4.222283201093920E-1   -3.105078242719028E-3    4.046522367740033E-3   -2.865223071556233E-3    4.272000616873735E-3    4.086035027072628E-1    3.023157170507952E-1
 8.062164972875000E9     3.907095528090656E-1    4.220698142545909E-1   -3.119224086585676E-3    4.055115691456221E-3   -2.890276378866903E-3    4.273885858485538E-3    4.085899071293785E-1    3.024150613971265E-1
 8.062165691150000E9     3.908199937614767E-1    4.218608955321193E-1   -3.144802271390705E-3    4.096938571679614E-3   -2.925749277874985E-3    4.343203336959996E-3    4.087180071681015E-1    3.022491435596266E-1
 8.062166409425000E9     3.909302199692828E-1    4.218755503868105E-1   -3.130416747962210E-3    4.111389983799730E-3   -2.936255343526986E-3    4.328405718882203E-3    4.086896374840299E-1    3.021741485083765E-1
 8.062167127700000E9     3.909635482586622E-1    4.217351157895179E-1   -3.137844849645354E-3    4.127069157071116E-3   -2.943077834238178E-3    4.371145034610643E-3    4.085936709087455E-1    3.022440786818682E-1
 8.062167845975000E9     3.909630212289602E-1    4.215536976255074E-1   -3.180794521386450E-3    4.146546480559858E-3   -2.924090734452688E-3    4.356977564711166E-3    4.088502369161663E-1    3.021857733746305E-1
 8.062168564250000E9     3.912113833140948E-1    4.214118104793668E-1   -3.152836490445491E-3    4.169984031694144E-3   -2.937037537759028E-3    4.381571433367212E-3    4.087532176078688E-1    3.021513005678439E-1
 8.062169282525000E9     3.911999942583758E-1    4.214751889944571E-1   -3.185036459335443E-3    4.183433128045273E-3   -2.949749090007584E-3    4.383640288085546E-3    4.088581205821875E-1    3.021808112117881E-1
 8.062170000800000E9     3.912748634573159E-1    4.211528963555918E-1   -3.198126487898772E-3    4.239680715708704E-3   -2.952184923431055E-3    4.422381221296155E-3    4.087989569290355E-1    3.020178192301801E-1
 8.062170719075000E9     3.914340083184576E-1    4.210593863029460E-1   -3.214652580314710E-3    4.203847288476594E-3   -2.967494177022259E-3    4.507915591671635E-3    4.088208169293880E-1    3.020191161401796E-1
 8.062171437350000E9     3.914815609621383E-1    4.209460017516710E-1   -3.220518842669566E-3    4.247941848089243E-3   -2.967544153136480E-3    4.516981330914683E-3    4.087869011674258E-1    3.020151239799709E-1
 8.062172155625000E9     3.916326282156849E-1    4.207897466709957E-1   -3.232415839620350E-3    4.307511128124868E-3   -3.005277723196513E-3    4.525871997152431E-3    4.088739532736226E-1    3.019107388506730E-1
 8.062172873900000E9     3.916972159934326E-1    4.207670925378523E-1   -3.248327786986150E-3    4.312433734863708E-3   -2.993832533022893E-3    4.564477486655420E-3    4.088131990233134E-1    3.019008414265865E-1
 8.062173592175000E9     3.918398049897945E-1    4.205852268360646E-1   -3.247967346203685E-3    4.318343811378239E-3   -2.990127679057771E-3    4.563159909513430E-3    4.089246530707431E-1    3.017426144389972E-1
 8.062174310450000E9     3.918830070043300E-1    4.204582895089303E-1   -3.254535791861693E-3    4.372189789601756E-3   -3.001982902725495E-3    4.599856689228033E-3    4.090533816285197E-1    3.017528749513386E-1
 8.062175028725000E9     3.919995405393123E-1    4.203405424543206E-1   -3.293507814215775E-3    4.398191561118297E-3   -3.045612272835196E-3    4.589762905624800E-3    4.089386593122996E-1    3.017347043572475E-1
 8.062175747000000E9     3.920264914951071E-1    4.201401736168326E-1   -3.280032087889115E-3    4.411874514762793E-3   -3.025647166851100E-3    4.651009477915862E-3    4.088862189670078E-1    3.017045073547316E-1
 8.062176465275000E9     3.922339881686173E-1    4.200438972712598E-1   -3.296363479204171E-3    4.406290966942355E-3   -3.022156711721164E-3    4.681178848199829E-3    4.090520009525574E-1    3.016683192245456E-1
 8.062177183550000E9     3.923083356136305E-1    4.198695122800565E-1   -3.314971225437121E-3    4.474015123528086E-3   -3.061498813672629E-3    4.693407866162892E-3    4.090163826257291E-1    3.016067979937078E-1
 8.062177901825000E9     3.924100769168070E-1    4.197208230927018E-1   -3.303506382014238E-3    4.490672553074291E-3   -3.047627195485779E-3    4.713641569924417E-3    4.091475198930957E-1    3.015600352117435E-1
 8.062178620100000E9     3.925225758075811E-1    4.196501500815191E-1   -3.334750548103507E-3    4.524651378889346E-3   -3.035429832689714E-3    4.750100468005894E-3    4.091782975068692E-1    3.015080238426596E-1
 8.062179338375000E9     3.926978587533412E-1    4.194559282205162E-1   -3.341766156141109E-3    4.538707546779505E-3   -3.098674708449819E-3    4.742340949180344E-3    4.091215608074755E-1    3.016016058073749E-1
 8.062180056650000E9     3.927181031867679E-1    4.193802452819342E-1   -3.344736842229322E-3    4.551578304834415E-3   -3.081213460746484E-3    4.819242066047419E-3    4.091956871171479E-1    3.013255608534783E-1
 8.062180774925000E9     3.927905977769979E-1    4.191650088638760E-1   -3.362167558500035E-3    4.578837504190702E-3   -3.112827830927244E-3    4.797411803533578E-3    4.091301126796039E-1    3.015373277837572E-1
 8.062181493200000E9     3.931245840081435E-1    4.190205843270191E-1   -3.374411380249585E-3    4.618292760274555E-3   -3.127614637346874E-3    4.827957103301410E-3    4.092097443195992E-1    3.013736817127355E-1
 8.062182211475000E9     3.929374565922505E-1    4.188876410144010E-1   -3.408896570333948E-3    4.639485284003059E-3   -3.141163113294396E-3    4.869861186283542E-3    4.093220594219451E-1    3.013056688497029E-1
 8.062182929750000E9     3.932882148349879E-1    4.186152959991005E-1   -3.377951967330826E-3    4.668152198675031E-3   -3.125856762238986E-3    4.916733308426546E-3    4.093058547465036E-1    3.013347553036221E-1
