#  HZ   S   RI   R     50.00 
! Rohde & Schwarz Vector Network Analyzer 
! Rohde-Schwarz,ZNB20-2Port,1311601062101988,3.16
! Created: UTC 3/20/2024, 11:19:56 PM
! freq[Hz]                re:S11                  im:S11                  re:S21                  im:S21                  re:S12                  im:S12                  re:S22                  im:S22
 8.062140884000000E9     3.872150823007760E-1    4.262152471770602E-1   -2.778951521657030E-3    3.389605708313744E-3   -2.623382209357263E-3    3.589744117988521E-3    4.072084740635853E-1    3.037222873872947E-1
 8.062141534225000E9     3.872799351470783E-1    4.260710990217086E-1   -2.813232566638133E-3    3.408167085011606E-3   -2.627239778309988E-3    3.613856589705239E-3    4.072102312371433E-1    3.037162958895622E-1
 8.062142184450000E9     3.875648897383093E-1    4.259841876297283E-1   -2.784590950611348E-3    3.395689181356824E-3   -2.626314135010530E-3    3.590560476732044E-3    4.072186663949120E-1    3.036704945043152E-1
 8.062142834675000E9     3.874967219083727E-1    4.259309076424407E-1   -2.813379651306668E-3    3.424651943261532E-3   -2.623233249841641E-3    3.613610225658967E-3    4.073250603657949E-1    3.036469158050167E-1
 8.062143484900000E9     3.877356197899318E-1    4.258784647545369E-1   -2.787490760180479E-3    3.424712255434383E-3   -2.624366962674814E-3    3.619466509951746E-3    4.071687529161574E-1    3.036683219813560E-1
 8.062144135125000E9     3.876758299172413E-1    4.257722108474816E-1   -2.797008148701619E-3    3.433119956624621E-3   -2.645805365001716E-3    3.643981160465475E-3    4.073266375621944E-1    3.035163880913312E-1
 8.062144785350000E9     3.877268584706230E-1    4.257648209665346E-1   -2.801070408828290E-3    3.419641033041106E-3   -2.625225564957170E-3    3.662308596124596E-3    4.072428504473451E-1    3.035445605314162E-1
 8.062145435575000E9     3.878428600433239E-1    4.255864157114169E-1   -2.828569634372699E-3    3.456466847021649E-3   -2.633801209063365E-3    3.659398853828159E-3    4.073730443090516E-1    3.033949998609902E-1
 8.062146085800000E9     3.879310320588530E-1    4.256241679853416E-1   -2.852088873949763E-3    3.492963136621593E-3   -2.631159598807847E-3    3.715221646679240E-3    4.073043179334886E-1    3.034285341186189E-1
 8.062146736025000E9     3.880077678800790E-1    4.253913790251695E-1   -2.844616844431971E-3    3.491317931649358E-3   -2.633813699338021E-3    3.680557871811913E-3    4.074390558769269E-1    3.033316872828612E-1
 8.062147386250000E9     3.880474557208236E-1    4.254110341692003E-1   -2.855278199495496E-3    3.477748682162813E-3   -2.659329287325344E-3    3.682897300825876E-3    4.073205321951429E-1    3.033140922725641E-1
 8.062148036475000E9     3.881828833951383E-1    4.252715516811255E-1   -2.848097851781463E-3    3.464067071886074E-3   -2.653387700853625E-3    3.678422965378484E-3    4.073954803299994E-1    3.033060739409434E-1
 8.062148686700000E9     3.883173719347621E-1    4.252424158174950E-1   -2.843909535843248E-3    3.483371408167370E-3   -2.625710359215295E-3    3.748407989776154E-3    4.075145607866674E-1    3.033185649309713E-1
 8.062149336925000E9     3.882232518949871E-1    4.252287866430190E-1   -2.857435069597204E-3    3.532071321174723E-3   -2.649596722554396E-3    3.709461300764827E-3    4.073926463430987E-1    3.032893965824056E-1
 8.062149987150000E9     3.883736454612007E-1    4.250276515376751E-1   -2.873393207940208E-3    3.529174899701775E-3   -2.682369110106270E-3    3.744440240735878E-3    4.074548719470988E-1    3.033181175366482E-1
 8.062150637375000E9     3.883676784594125E-1    4.248988304995975E-1   -2.886275428528320E-3    3.538257661410211E-3   -2.699608420018920E-3    3.750286575391306E-3    4.074745337794319E-1    3.032822630293762E-1
 8.062151287600000E9     3.885231729596596E-1    4.249312635658544E-1   -2.855253112982919E-3    3.534440804075330E-3   -2.686681057371552E-3    3.774124190117994E-3    4.077413230003786E-1    3.030888492629508E-1
 8.062151937825000E9     3.885683091423337E-1    4.249390920476279E-1   -2.894374513398367E-3    3.568082922062396E-3   -2.700267751897704E-3    3.771841054105665E-3    4.076369697859186E-1    3.030984546035689E-1
 8.062152588050000E9     3.887221300095217E-1    4.248486373628665E-1   -2.885077929513693E-3    3.594130031118319E-3   -2.675681929736550E-3    3.810954444619419E-3    4.076223169598818E-1    3.031270771018283E-1
 8.062153238275000E9     3.887137826813669E-1    4.246261139473737E-1   -2.904712276755793E-3    3.629003778403989E-3   -2.709755332970248E-3    3.814360774397353E-3    4.076884501683957E-1    3.031679941075514E-1
 8.062153888500000E9     3.887793928777915E-1    4.246160023597763E-1   -2.904865731309564E-3    3.605824631242080E-3   -2.715444365364587E-3    3.828851024840253E-3    4.077818247853506E-1    3.030519267153945E-1
 8.062154538725000E9     3.888326132210811E-1    4.245478711745525E-1   -2.915186964528748E-3    3.621803576417477E-3   -2.693530618212608E-3    3.812076000947819E-3    4.076592802222396E-1    3.030318595639842E-1
 8.062155188950000E9     3.889655633966989E-1    4.244229746992358E-1   -2.925054481034521E-3    3.641374179377234E-3   -2.729764106366993E-3    3.816851278615186E-3    4.077517328754310E-1    3.029997820420463E-1
 8.062155839175000E9     3.890364798448824E-1    4.243354879937008E-1   -2.940250571356281E-3    3.621866744477875E-3   -2.756038561245341E-3    3.840220965075597E-3    4.077753931857220E-1    3.029189620949740E-1
 8.062156489400000E9     3.890680870351087E-1    4.243067057050132E-1   -2.926173217015526E-3    3.651675683857470E-3   -2.744973659789684E-3    3.872463389150136E-3    4.078761174258382E-1    3.029762201040129E-1
 8.062157139625000E9     3.892159357779677E-1    4.241513201355280E-1   -2.930521961770129E-3    3.673743019522929E-3   -2.728177881377504E-3    3.890123504319009E-3    4.077803374775354E-1    3.027841911111994E-1
 8.062157789850000E9     3.893637603176401E-1    4.241308022400239E-1   -2.971388150198233E-3    3.683462154840205E-3   -2.739324470679757E-3    3.865293093266541E-3    4.078042110942505E-1    3.028452557556424E-1
 8.062158440075000E9     3.892662767819675E-1    4.240334458209756E-1   -2.971236440012355E-3    3.709776096372899E-3   -2.742218390969713E-3    3.900030390364360E-3    4.079842809379114E-1    3.028021169086002E-1
 8.062159090300000E9     3.894245504918770E-1    4.239850478633887E-1   -2.937828185322616E-3    3.707289179052671E-3   -2.780311917383577E-3    3.937203154582293E-3    4.078959462599328E-1    3.027832963127747E-1
 8.062159740525000E9     3.893744658645118E-1    4.237986668874320E-1   -2.944024402456804E-3    3.725384127829628E-3   -2.764626940055504E-3    3.970138168286214E-3    4.078772443113759E-1    3.025529938947324E-1
 8.062160390750000E9     3.894963277282605E-1    4.237031823339965E-1   -2.970331319055892E-3    3.745925763264372E-3   -2.792950699088932E-3    3.931653857948535E-3    4.079183576482241E-1    3.026049400399670E-1
 8.062161040975000E9     3.896706388995439E-1    4.236618668262311E-1   -2.942522479691907E-3    3.748215714212092E-3   -2.744496561159860E-3    4.000918460351841E-3    4.079600091184644E-1    3.026362198258758E-1
 8.062161691200000E9     3.897475734037523E-1    4.235290608863191E-1   -2.987770271929553E-3    3.745724971174974E-3   -2.763580341165189E-3    3.959052281712766E-3    4.079368013200118E-1    3.026859388811408E-1
 8.062162341425000E9     3.897547227319825E-1    4.235051843692484E-1   -2.981804860904726E-3    3.800592343746905E-3   -2.788672820490069E-3    3.991463181312444E-3    4.080686679556088E-1    3.026642460047376E-1
 8.062162991650000E9     3.898353882040863E-1    4.233803922980631E-1   -3.016588060873388E-3    3.784591598390251E-3   -2.761738024314389E-3    4.000129974836754E-3    4.081424536125401E-1    3.026802123030117E-1
 8.062163641875000E9     3.899582357046036E-1    4.232749179434054E-1   -3.001705389487968E-3    3.835164096061220E-3   -2.823415703107909E-3    4.011902131028642E-3    4.081229938564800E-1    3.025395631273712E-1
 8.062164292100000E9     3.900575659777341E-1    4.232425640112487E-1   -3.013353743680910E-3    3.821200302602448E-3   -2.825638054821825E-3    4.018295126953007E-3    4.080570561636612E-1    3.022963483761817E-1
 8.062164942325000E9     3.900271342150987E-1    4.231259853661063E-1   -3.024398575608182E-3    3.823074668362396E-3   -2.809809318286667E-3    4.046387447305871E-3    4.080959270287033E-1    3.023731621474124E-1
 8.062165592550000E9     3.902342170087389E-1    4.230740474102648E-1   -3.036745631232834E-3    3.836406161986919E-3   -2.824731350736457E-3    4.034505802634564E-3    4.080996292115120E-1    3.023980935574149E-1
 8.062166242775000E9     3.902454197056874E-1    4.229756163945258E-1   -3.048717342991768E-3    3.846218674425937E-3   -2.818144078831106E-3    4.078283903423024E-3    4.081059303377023E-1    3.024049931419492E-1
 8.062166893000000E9     3.903851427873550E-1    4.227998629333378E-1   -3.057037642155227E-3    3.900674690268517E-3   -2.819570450650725E-3    4.085186587734816E-3    4.081722362265516E-1    3.022706139604401E-1
 8.062167543225000E9     3.903612936302333E-1    4.227706356587633E-1   -3.083946455112992E-3    3.899374929478941E-3   -2.827285860024854E-3    4.105569800087021E-3    4.080521763726999E-1    3.023605707196070E-1
 8.062168193450000E9     3.904993147500232E-1    4.226287121882517E-1   -3.079073071510682E-3    3.910425105535921E-3   -2.882472034131055E-3    4.140655235659431E-3    4.081834085398485E-1    3.022762414845568E-1
 8.062168843675000E9     3.906722672796706E-1    4.224366449091645E-1   -3.063126176536137E-3    3.917665651005516E-3   -2.848052814928150E-3    4.155289259469562E-3    4.082094719988036E-1    3.022495041550909E-1
 8.062169493900000E9     3.907024888374201E-1    4.224209473049790E-1   -3.052857676229417E-3    3.946639877125524E-3   -2.908474347668662E-3    4.150633391087941E-3    4.082133037703122E-1    3.021598489007087E-1
 8.062170144125000E9     3.906871800039909E-1    4.222898111073946E-1   -3.085085035174803E-3    3.983019831876520E-3   -2.874888404864297E-3    4.192028859191807E-3    4.081631118922481E-1    3.021267506165332E-1
 8.062170794350000E9     3.908698449009885E-1    4.221721404813917E-1   -3.099442862493895E-3    3.960049036866079E-3   -2.894765975290746E-3    4.225491976472377E-3    4.082693484848387E-1    3.020720925891870E-1
 8.062171444575000E9     3.909530479082471E-1    4.220885650487038E-1   -3.093908397174079E-3    3.987281213459887E-3   -2.911065384738091E-3    4.210984128921108E-3    4.082263212695282E-1    3.020983774315416E-1
 8.062172094800000E9     3.910633112402265E-1    4.220451110784154E-1   -3.131064488528291E-3    3.997331292297412E-3   -2.933565106479821E-3    4.226266008532007E-3    4.084053108129308E-1    3.020568427756097E-1
 8.062172745025000E9     3.911777360333359E-1    4.220127442673274E-1   -3.116236292198771E-3    4.039803029337056E-3   -2.895101828842544E-3    4.230954152532120E-3    4.084039772472808E-1    3.019491552078225E-1
 8.062173395250000E9     3.912353970982420E-1    4.218178513366183E-1   -3.125710337410836E-3    4.048906049846249E-3   -2.931564715490575E-3    4.256959636419682E-3    4.084105351006736E-1    3.019072520025980E-1
 8.062174045475000E9     3.912613057161426E-1    4.216889585505729E-1   -3.161192575431164E-3    4.077666996219672E-3   -2.932120438050979E-3    4.296079469835391E-3    4.085357917305658E-1    3.019924318970392E-1
 8.062174695700000E9     3.913967521919415E-1    4.215727587341024E-1   -3.150305261494000E-3    4.086656502386595E-3   -2.921506395452803E-3    4.293705230258068E-3    4.084790824192824E-1    3.018232521129507E-1
 8.062175345925000E9     3.915600753747127E-1    4.214755479539286E-1   -3.152673004354953E-3    4.099597869410817E-3   -2.909140892717162E-3    4.336213141208550E-3    4.083406571877028E-1    3.018604167265524E-1
 8.062175996150000E9     3.914652270248519E-1    4.214655748767061E-1   -3.185272861415200E-3    4.111033305101116E-3   -2.948274320005736E-3    4.346907090420061E-3    4.085494400910875E-1    3.016902637737698E-1
 8.062176646375000E9     3.916388371229986E-1    4.212819032373852E-1   -3.189032336362831E-3    4.141270754450890E-3   -2.938424516924331E-3    4.349633376876434E-3    4.086407111098599E-1    3.017000710972659E-1
 8.062177296600000E9     3.917270287302894E-1    4.211229210975360E-1   -3.183856909718780E-3    4.157096626525885E-3   -2.960740154284429E-3    4.372693515660480E-3    4.085517269463438E-1    3.016806806583860E-1
 8.062177946825000E9     3.918215146861692E-1    4.210944879505509E-1   -3.202817867344450E-3    4.176530487151599E-3   -2.998642866826474E-3    4.411810427926643E-3    4.085984709536091E-1    3.017713644732394E-1
 8.062178597050000E9     3.919693927003529E-1    4.210355709984965E-1   -3.223845800725993E-3    4.205968034542880E-3   -2.996285277256752E-3    4.429046898391123E-3    4.085346045453586E-1    3.017315477936322E-1
 8.062179247275000E9     3.920415152321082E-1    4.208393799593095E-1   -3.222985325078120E-3    4.189998705845304E-3   -2.983282773760358E-3    4.439014588608939E-3    4.086278576897939E-1    3.016330753949747E-1
 8.062179897500000E9     3.920796830651632E-1    4.206849308997117E-1   -3.238421331042319E-3    4.248140009758830E-3   -2.990657236512492E-3    4.468299323473817E-3    4.086812468418025E-1    3.016338713297059E-1
 8.062180547725000E9     3.921489401454358E-1    4.204794083353911E-1   -3.229862660698571E-3    4.259143830843548E-3   -2.985230567258952E-3    4.473934310003064E-3    4.088508284034053E-1    3.016240644943255E-1
 8.062181197950000E9     3.922734512034067E-1    4.205050807359685E-1   -3.260985492195197E-3    4.295177790248093E-3   -3.014853856435682E-3    4.502564682647952E-3    4.086105866364050E-1    3.014711420255138E-1
 8.062181848175000E9     3.923576011748329E-1    4.203663292898279E-1   -3.260267327958242E-3    4.313914861464219E-3   -2.994324457752928E-3    4.525177246732486E-3    4.086844681560929E-1    3.015084678359022E-1
 8.062182498400000E9     3.924696493262599E-1    4.202345141720256E-1   -3.244934612716503E-3    4.352783380056363E-3   -3.020426068751065E-3    4.549440632355969E-3    4.088242327037175E-1    3.015146980425710E-1
 8.062183148625000E9     3.925432974573747E-1    4.202335549452173E-1   -3.278476528506428E-3    4.337312270588302E-3   -3.032260756203211E-3    4.593252733575547E-3    4.087013988044698E-1    3.014660176281928E-1
 8.062183798850000E9     3.926782694217313E-1    4.200327612097736E-1   -3.290386869648712E-3    4.362254741523227E-3   -3.064577267976607E-3    4.574295813537217E-3    4.089157684157041E-1    3.011995121081024E-1
 8.062184449075000E9     3.928774443391491E-1    4.199060305467611E-1   -3.310516052684453E-3    4.395318411515046E-3   -3.069861686777759E-3    4.611948200250356E-3    4.087962344307626E-1    3.011845207652566E-1
 8.062185099300000E9     3.928171688401055E-1    4.198287676168381E-1   -3.309929223151095E-3    4.400512258464254E-3   -3.069005426695889E-3    4.646393685317136E-3    4.087247036602786E-1    3.012698410624048E-1
 8.062185749525000E9     3.929263746707128E-1    4.195501273012471E-1   -3.327501391420921E-3    4.415443387905239E-3   -3.066527500515625E-3    4.650060036395958E-3    4.087620271681273E-1    3.014071131768341E-1
 8.062186399750000E9     3.929402172993189E-1    4.195118701723329E-1   -3.336895529910480E-3    4.438182300324021E-3   -3.086169364743909E-3    4.660688563306010E-3    4.088289902498123E-1    3.012814929785981E-1
 8.062187049975000E9     3.931339767732692E-1    4.192692715533938E-1   -3.327872602838971E-3    4.474310830705061E-3   -3.095746147677215E-3    4.693566324637888E-3    4.090137451387463E-1    3.012279453618879E-1
 8.062187700200000E9     3.931826671713281E-1    4.192025679806753E-1   -3.376045015039253E-3    4.487131507415465E-3   -3.109013911452939E-3    4.724550703974850E-3    4.088634881595949E-1    3.011941634983666E-1
 8.062188350425000E9     3.933578613385052E-1    4.192045003256696E-1   -3.363277623966395E-3    4.504611938541197E-3   -3.134480226281043E-3    4.751002248645426E-3    4.090438907724705E-1    3.010552315029630E-1
 8.062189000650000E9     3.934615257979866E-1    4.190530370210423E-1   -3.389411347967649E-3    4.554236508640471E-3   -3.111012755483940E-3    4.777139380759543E-3    4.091228371959226E-1    3.010949961405379E-1
 8.062189650875000E9     3.935770743232660E-1    4.189002692308413E-1   -3.395268037331205E-3    4.557499575395231E-3   -3.110469197805233E-3    4.844276756115500E-3    4.090151312084758E-1    3.010485801787320E-1
 8.062190301100000E9     3.936781610771001E-1    4.185977973930003E-1   -3.394412946630241E-3    4.587928514155922E-3   -3.112273731093178E-3    4.831549470477658E-3    4.090745684121795E-1    3.008108954033733E-1
 8.062190951325000E9     3.938495679059930E-1    4.184275155525378E-1   -3.404582772236196E-3    4.620600893224966E-3   -3.186783574132783E-3    4.876195270251659E-3    4.090093338925671E-1    3.009914084813169E-1
 8.062191601550000E9     3.939454563665993E-1    4.183531497216141E-1   -3.428458888974008E-3    4.653629625775896E-3   -3.181351319250090E-3    4.885784965812125E-3    4.090873577729672E-1    3.009367985963973E-1
 8.062192251775000E9     3.941273454753326E-1    4.182043991459880E-1   -3.459576947543616E-3    4.659241735902045E-3   -3.172059804085945E-3    4.954554221152587E-3    4.090418740064924E-1    3.009145934545709E-1
 8.062192902000000E9     3.941308445707891E-1    4.179830437913190E-1   -3.446619527160622E-3    4.707950176371945E-3   -3.187853696135076E-3    4.935110716834997E-3    4.091663608762651E-1    3.007515813393702E-1
 8.062193552225000E9     3.942089519579073E-1    4.179027519445699E-1   -3.453382489783444E-3    4.725937280306731E-3   -3.169176564330366E-3    4.949851264572573E-3    4.091632029934436E-1    3.007645313331723E-1
 8.062194202450000E9     3.942404028478721E-1    4.178883544466692E-1   -3.486788794062068E-3    4.766484313659257E-3   -3.212677837993590E-3    5.000949950371555E-3    4.091816244609842E-1    3.006845625726616E-1
 8.062194852675000E9     3.944304302930906E-1    4.176138670204688E-1   -3.473236904254201E-3    4.789304465760051E-3   -3.221852071829708E-3    5.032571134010832E-3    4.091960339433055E-1    3.005997991980844E-1
 8.062195502900000E9     3.944747990732997E-1    4.174539318957228E-1   -3.479871424318506E-3    4.794992914382887E-3   -3.255334039565143E-3    5.094006021987931E-3    4.091531128784356E-1    3.006814299977480E-1
 8.062196153125000E9     3.946106511822386E-1    4.172116397438275E-1   -3.500266610688100E-3    4.842054802627459E-3   -3.210826970520904E-3    5.061353254520014E-3    4.093138070046261E-1    3.005798127720149E-1
 8.062196803350000E9     3.947123136692944E-1    4.172464724850671E-1   -3.530440914020627E-3    4.884769512592704E-3   -3.275357286249791E-3    5.144375392729079E-3    4.091380987639945E-1    3.005868999879122E-1
 8.062197453575000E9     3.949198112686850E-1    4.169044858746137E-1   -3.540023894660400E-3    4.882622904329740E-3   -3.265470061321799E-3    5.178052930854726E-3    4.093568196859534E-1    3.006377080079922E-1
 8.062198103800000E9     3.949057516240525E-1    4.167922514020970E-1   -3.516578900552309E-3    4.926676389206424E-3   -3.264838632426333E-3    5.206789878771663E-3    4.093285541175953E-1    3.005249913779303E-1
 8.062198754025000E9     3.949370428069667E-1    4.166805266928449E-1   -3.578438089965170E-3    4.962365469395164E-3   -3.260762646340062E-3    5.229889058594678E-3    4.092772151402410E-1    3.003671023203683E-1
 8.062199404250000E9     3.951284547771843E-1    4.164710600048352E-1   -3.571635739095908E-3    4.991978665470436E-3   -3.296569659254997E-3    5.254459695448309E-3    4.093622022995058E-1    3.003215299013752E-1
