#  HZ   S   RI   R     50.00 
! Rohde & Schwarz Vector Network Analyzer 
! Rohde-Schwarz,ZNB20-2Port,1311601062101988,3.16
! Created: UTC 3/20/2024, 11:20:01 PM
! freq[Hz]                re:S11                  im:S11                  re:S21                  im:S21                  re:S12                  im:S12                  re:S22                  im:S22
 8.062141661000000E9     3.872802327978631E-1    4.262509385831117E-1   -2.795058493064556E-3    3.398886119679914E-3   -2.608021639288672E-3    3.559987635231156E-3    4.071570370954122E-1    3.036953050118383E-1
 8.062142315250000E9     3.873039871687630E-1    4.262157617637553E-1   -2.797649677064324E-3    3.387101946925520E-3   -2.571416204445219E-3    3.593382312870505E-3    4.071755804002342E-1    3.036538597271036E-1
 8.062142969500000E9     3.873528548180640E-1    4.260249662182746E-1   -2.784871990740277E-3    3.366989454661916E-3   -2.608074329508864E-3    3.541907623115952E-3    4.072321889056696E-1    3.037138138281713E-1
 8.062143623750000E9     3.875590044012989E-1    4.259155146331519E-1   -2.814422902458531E-3    3.408332800599310E-3   -2.610311380165882E-3    3.605736307063991E-3    4.072322521188149E-1    3.037043741978110E-1
 8.062144278000000E9     3.875643786695298E-1    4.258904584603422E-1   -2.798280787799643E-3    3.419197336010187E-3   -2.639097671365581E-3    3.620792758257707E-3    4.072945948647115E-1    3.037072721909156E-1
 8.062144932250000E9     3.876265468867491E-1    4.257800224459793E-1   -2.815520365962870E-3    3.412515482214173E-3   -2.616057502301566E-3    3.612782083170639E-3    4.070976464827046E-1    3.035635345446823E-1
 8.062145586500000E9     3.877181260246600E-1    4.257889629794624E-1   -2.827808919345960E-3    3.432513595267620E-3   -2.650638523418139E-3    3.625257903494207E-3    4.072954588172595E-1    3.036232430876213E-1
 8.062146240750000E9     3.879315913409294E-1    4.256971647606076E-1   -2.816736650031515E-3    3.437832623659617E-3   -2.604594827217277E-3    3.623264198913163E-3    4.072663647717772E-1    3.036664172409739E-1
 8.062146895000000E9     3.879139526043918E-1    4.254906263599500E-1   -2.828683987761206E-3    3.457752307864572E-3   -2.665404529864039E-3    3.649149820440019E-3    4.073111802777742E-1    3.033043552619668E-1
 8.062147549250000E9     3.878932807279225E-1    4.254752643520182E-1   -2.842021567286637E-3    3.475999578331399E-3   -2.630162801457793E-3    3.663839089508854E-3    4.074331504977748E-1    3.032847298022301E-1
 8.062148203500000E9     3.880614361984818E-1    4.253876588393771E-1   -2.852185356128211E-3    3.468163850176170E-3   -2.685174471987264E-3    3.705062481045736E-3    4.073981668535827E-1    3.034546171223958E-1
 8.062148857750000E9     3.880878072463668E-1    4.253102453078995E-1   -2.828796067639132E-3    3.491644222234888E-3   -2.640478359202493E-3    3.684964797540373E-3    4.073385824884236E-1    3.032398884547323E-1
 8.062149512000000E9     3.882702578956088E-1    4.251830972160972E-1   -2.826181336374969E-3    3.490854870170043E-3   -2.690061685843439E-3    3.695253003574387E-3    4.075346441923781E-1    3.032701765997619E-1
 8.062150166250000E9     3.884208164232307E-1    4.251797431494814E-1   -2.853753514528693E-3    3.517847911784953E-3   -2.658135526549096E-3    3.729335122415736E-3    4.073463660470460E-1    3.032489531059713E-1
 8.062150820500000E9     3.882505217027863E-1    4.251838421639891E-1   -2.854960970421638E-3    3.510599234303071E-3   -2.701057575275896E-3    3.722179596201294E-3    4.075483259270827E-1    3.034331476113338E-1
 8.062151474750000E9     3.884088615128700E-1    4.250174080386038E-1   -2.869335313645132E-3    3.521701819940428E-3   -2.661275740245410E-3    3.712152030870687E-3    4.075484694285197E-1    3.031945983648832E-1
 8.062152129000000E9     3.884367981377181E-1    4.250202983519457E-1   -2.869173860445930E-3    3.504494363607801E-3   -2.692989395589783E-3    3.771598158121732E-3    4.073944718391918E-1    3.032661191793457E-1
 8.062152783250000E9     3.887107980600096E-1    4.248189108684957E-1   -2.896163149991609E-3    3.580837144165046E-3   -2.715565218973795E-3    3.744049833972847E-3    4.075140390381351E-1    3.031674882246231E-1
 8.062153437500000E9     3.887007489582664E-1    4.248610861178369E-1   -2.898362864334197E-3    3.565894705225781E-3   -2.689466068026034E-3    3.748378632363596E-3    4.076827006981844E-1    3.031566128737319E-1
 8.062154091750000E9     3.886451260510337E-1    4.246471399355397E-1   -2.910483956695424E-3    3.577497938697982E-3   -2.697804436323140E-3    3.776087357658285E-3    4.075401860177378E-1    3.031200142862851E-1
 8.062154746000000E9     3.886680711640383E-1    4.245970903297243E-1   -2.920222709869638E-3    3.596183899861920E-3   -2.732639589278959E-3    3.786961298273508E-3    4.077487945602603E-1    3.029881872222135E-1
 8.062155400250000E9     3.888342845025328E-1    4.245115785861338E-1   -2.920911133648571E-3    3.609624066873882E-3   -2.684674071638551E-3    3.800710467215037E-3    4.076479192501953E-1    3.029377363394453E-1
 8.062156054500000E9     3.890485558298299E-1    4.244958940711695E-1   -2.921871902479393E-3    3.613833184699249E-3   -2.721356360700027E-3    3.809186936741145E-3    4.076427851897688E-1    3.029330464178238E-1
 8.062156708750000E9     3.890065484800035E-1    4.243926986691694E-1   -2.924699195955908E-3    3.618174462927589E-3   -2.719254091314347E-3    3.817424227563500E-3    4.076496390974839E-1    3.028875573791543E-1
 8.062157363000000E9     3.891265901492204E-1    4.243435882429295E-1   -2.926092600559456E-3    3.646359522728708E-3   -2.709934847068962E-3    3.852990621958869E-3    4.076870867236168E-1    3.028162597273565E-1
 8.062158017250000E9     3.891519036093600E-1    4.243179731158840E-1   -2.956345176790207E-3    3.657867050418887E-3   -2.717349487234046E-3    3.838864990926149E-3    4.077017366120950E-1    3.028207251480751E-1
 8.062158671500000E9     3.892147431848552E-1    4.240773063507255E-1   -2.944581088922834E-3    3.684179301714952E-3   -2.742991943023233E-3    3.857958246508746E-3    4.076985119764932E-1    3.028122222574509E-1
 8.062159325750000E9     3.893073757879498E-1    4.240334583771411E-1   -2.957250373151182E-3    3.674406359434718E-3   -2.751119038189182E-3    3.876900755320387E-3    4.077295840938147E-1    3.028539677044005E-1
 8.062159980000000E9     3.894344243529564E-1    4.239073908915232E-1   -2.949864680918742E-3    3.696234481034643E-3   -2.752116163986307E-3    3.881737939151123E-3    4.078669617541206E-1    3.027502037394468E-1
 8.062160634250000E9     3.895491309117419E-1    4.239071937490846E-1   -2.973192387162539E-3    3.692713302985936E-3   -2.793701198600918E-3    3.899024797414850E-3    4.078085115818063E-1    3.028069984435127E-1
 8.062161288500000E9     3.894740883173325E-1    4.238224939320271E-1   -2.985152394211000E-3    3.721100543917279E-3   -2.786189349925279E-3    3.951756641107315E-3    4.078247137913491E-1    3.027236018800677E-1
 8.062161942750000E9     3.896667206988625E-1    4.236467082563113E-1   -2.966392270299614E-3    3.766787194303350E-3   -2.809660367584385E-3    3.945804952782720E-3    4.078892197858614E-1    3.026432820908641E-1
 8.062162597000000E9     3.896505620693780E-1    4.235659267801671E-1   -3.010279467176932E-3    3.752342355395560E-3   -2.798591870198984E-3    3.953400762873536E-3    4.078548376034496E-1    3.024632187410434E-1
 8.062163251250000E9     3.898589821571502E-1    4.234055150323146E-1   -2.983350216811595E-3    3.747420946214311E-3   -2.806058460564168E-3    3.995481038102589E-3    4.079446715146730E-1    3.026082442459267E-1
 8.062163905500000E9     3.898211610656159E-1    4.233850087760321E-1   -2.999782395939738E-3    3.767279113776068E-3   -2.804157894437520E-3    4.017533010513229E-3    4.078675621235071E-1    3.025763847638712E-1
 8.062164559750000E9     3.899819619171761E-1    4.232651125164698E-1   -2.997212650897103E-3    3.780129355261530E-3   -2.821103492538108E-3    3.986437777875372E-3    4.080799475983609E-1    3.026432724852456E-1
 8.062165214000000E9     3.900743815841461E-1    4.232865365324498E-1   -3.015688091179932E-3    3.801766267398689E-3   -2.824397990269947E-3    3.991510049391005E-3    4.080541348012533E-1    3.024993150078449E-1
 8.062165868250000E9     3.901537639462092E-1    4.231125088390055E-1   -3.031205208118142E-3    3.809434620931514E-3   -2.826760034480575E-3    3.998746632055677E-3    4.079661127692365E-1    3.024786551334896E-1
 8.062166522500000E9     3.903363481587199E-1    4.229751488836230E-1   -3.048262192928543E-3    3.846101745444721E-3   -2.816292202801540E-3    4.011637120320541E-3    4.081304916726377E-1    3.024095829677066E-1
 8.062167176750000E9     3.904221993584134E-1    4.229658678444113E-1   -3.053242639532402E-3    3.854626739949137E-3   -2.822076628486518E-3    4.095172626814358E-3    4.082317201819513E-1    3.023971760835556E-1
 8.062167831000000E9     3.904770545675609E-1    4.228457806619264E-1   -3.044493749646381E-3    3.854582050455754E-3   -2.850869322996670E-3    4.087878302612828E-3    4.082080258517700E-1    3.023451836978113E-1
 8.062168485250000E9     3.903862835228022E-1    4.226941698250672E-1   -3.046603704451205E-3    3.874240644173729E-3   -2.856833850286144E-3    4.100952121476118E-3    4.082133888372777E-1    3.022874762014879E-1
 8.062169139500000E9     3.905146404901926E-1    4.225942762858318E-1   -3.054767528544691E-3    3.894537465395287E-3   -2.833530127452417E-3    4.117063395098776E-3    4.082056118890868E-1    3.022555791159386E-1
 8.062169793750000E9     3.906444267261300E-1    4.225444298320492E-1   -3.049005987274713E-3    3.892102547887747E-3   -2.870475204201285E-3    4.144596615998372E-3    4.081569002098832E-1    3.020717371810794E-1
 8.062170448000000E9     3.907877965530229E-1    4.225009555075617E-1   -3.076341022911381E-3    3.926924739597838E-3   -2.874844918864841E-3    4.109122234212032E-3    4.082467999689820E-1    3.022527970588839E-1
 8.062171102250000E9     3.907181866324728E-1    4.222346044365394E-1   -3.101581361624132E-3    3.960298545632492E-3   -2.892436342704178E-3    4.138184245632976E-3    4.081884898640756E-1    3.021849557728929E-1
 8.062171756500000E9     3.908070495683696E-1    4.222129901718576E-1   -3.118013894878781E-3    3.970957347071859E-3   -2.898322210894871E-3    4.172882297598094E-3    4.082871944922642E-1    3.021757463077252E-1
 8.062172410750000E9     3.910150380833799E-1    4.221400514129867E-1   -3.105431609062103E-3    3.990025455749027E-3   -2.880754801107612E-3    4.198886122058302E-3    4.082397132924895E-1    3.022017681168236E-1
 8.062173065000000E9     3.910000026033878E-1    4.221047798655620E-1   -3.118814172075161E-3    3.978269652461185E-3   -2.866392949354400E-3    4.211999976687877E-3    4.083362779562565E-1    3.019307609949210E-1
 8.062173719250000E9     3.910491026803318E-1    4.219081577113033E-1   -3.112463352570997E-3    3.990959005290688E-3   -2.907074866758769E-3    4.224945002820418E-3    4.083607885103281E-1    3.020261919391213E-1
 8.062174373500000E9     3.911404027659042E-1    4.217647823428308E-1   -3.146217008558825E-3    3.995016266381539E-3   -2.907502291389480E-3    4.226658163683946E-3    4.083952982817426E-1    3.018640435077418E-1
 8.062175027750000E9     3.914263355647646E-1    4.216993680644838E-1   -3.123272795583394E-3    4.042369812557645E-3   -2.912487493779350E-3    4.282641282311700E-3    4.084391662892064E-1    3.018308030771148E-1
 8.062175682000000E9     3.914958867159988E-1    4.218032916623250E-1   -3.133704253709438E-3    4.062523817042050E-3   -2.945876638187254E-3    4.295915323104632E-3    4.084057096605980E-1    3.019516888437157E-1
 8.062176336250000E9     3.913858320109321E-1    4.215894269956956E-1   -3.175247297785466E-3    4.067285604520517E-3   -2.925975931961660E-3    4.279333560078001E-3    4.084866181146892E-1    3.017428257577473E-1
 8.062176990500000E9     3.915536309643305E-1    4.213247399705002E-1   -3.165631350188424E-3    4.091692461757940E-3   -2.955087294267141E-3    4.319715152206514E-3    4.086631460539457E-1    3.017862586132808E-1
 8.062177644750000E9     3.915811290984014E-1    4.212466074537397E-1   -3.148789684796273E-3    4.110689550440027E-3   -2.945997038581030E-3    4.358423228301967E-3    4.084338474492835E-1    3.018123163817565E-1
 8.062178299000000E9     3.917398724324255E-1    4.212506166985527E-1   -3.180188134051246E-3    4.163906622891005E-3   -2.948485493524653E-3    4.366905940561440E-3    4.084307176668964E-1    3.016275632437313E-1
 8.062178953250000E9     3.918754403246785E-1    4.209977974582461E-1   -3.197502705587688E-3    4.144198978117944E-3   -2.960001828355442E-3    4.377549359907243E-3    4.085109174031607E-1    3.017437580540568E-1
 8.062179607500000E9     3.919409436354082E-1    4.209754493565853E-1   -3.210879353441370E-3    4.200159380679152E-3   -2.968300948031163E-3    4.393248074408706E-3    4.085539264259945E-1    3.016754438163239E-1
 8.062180261750000E9     3.919976673266134E-1    4.208572786135458E-1   -3.230875735473051E-3    4.192151712987634E-3   -2.998962941635737E-3    4.439910002208089E-3    4.085740445922538E-1    3.015541673131298E-1
 8.062180916000000E9     3.920585930163044E-1    4.208535717018976E-1   -3.196469506196747E-3    4.207867860548875E-3   -3.015533426534128E-3    4.421074399217212E-3    4.085750928209030E-1    3.016029426203379E-1
 8.062181570250000E9     3.922152937376635E-1    4.206430315364449E-1   -3.219645761552151E-3    4.212234575804710E-3   -3.011175956980262E-3    4.483943747806551E-3    4.086775065934286E-1    3.015127593278927E-1
 8.062182224500000E9     3.923931170410696E-1    4.205396192944443E-1   -3.244775686884437E-3    4.236677923141952E-3   -2.993610477647180E-3    4.488763067136561E-3    4.086734984531037E-1    3.013486898721275E-1
 8.062182878750000E9     3.923529337119050E-1    4.203085843854074E-1   -3.258721198310787E-3    4.276398980834687E-3   -3.032151208770964E-3    4.512535838449105E-3    4.087753617195607E-1    3.014298596231380E-1
 8.062183533000000E9     3.923935948553729E-1    4.201715746424337E-1   -3.291105034463345E-3    4.309135606847091E-3   -3.033727605325797E-3    4.549271608798515E-3    4.086900361076483E-1    3.014955321066809E-1
 8.062184187250000E9     3.924921775454131E-1    4.200808353773436E-1   -3.262004029652081E-3    4.320607943036849E-3   -3.029117708737766E-3    4.552222832519296E-3    4.086884782119532E-1    3.014485470443563E-1
 8.062184841500000E9     3.925540134145142E-1    4.200434086977614E-1   -3.272629226188214E-3    4.348340315407797E-3   -3.063355512606580E-3    4.589604685608970E-3    4.087747360129632E-1    3.013310890670442E-1
 8.062185495750000E9     3.927462066831078E-1    4.198263912882958E-1   -3.272130417014968E-3    4.375708299865068E-3   -3.068273112264938E-3    4.591201171413276E-3    4.087886089930736E-1    3.013441255315010E-1
 8.062186150000000E9     3.929194478211441E-1    4.197951662418630E-1   -3.300836162632502E-3    4.383975503459260E-3   -3.063580974625354E-3    4.658733281159112E-3    4.088423019653302E-1    3.012034942023601E-1
 8.062186804250000E9     3.929592396972265E-1    4.196844825347393E-1   -3.338201551174980E-3    4.396377095812250E-3   -3.075538966585613E-3    4.611381396275519E-3    4.087872130451091E-1    3.013082836734167E-1
 8.062187458500000E9     3.930188554978564E-1    4.195173717759347E-1   -3.337076390242462E-3    4.413412809518021E-3   -3.066960400708532E-3    4.668262328709924E-3    4.089167807545736E-1    3.010434573520036E-1
 8.062188112750000E9     3.931998862482607E-1    4.193740867785506E-1   -3.335099734875591E-3    4.465233095249532E-3   -3.088152522586154E-3    4.701068013578622E-3    4.088840555312908E-1    3.011881561650888E-1
 8.062188767000000E9     3.932342176342781E-1    4.192501134063638E-1   -3.345206381640920E-3    4.488164346965324E-3   -3.096187005394286E-3    4.724007204022971E-3    4.088708296687716E-1    3.010345137662674E-1
 8.062189421250000E9     3.933607733356302E-1    4.190415234319977E-1   -3.363017956914214E-3    4.539226944331775E-3   -3.104350130742348E-3    4.732621377813275E-3    4.087598600870386E-1    3.010562028011231E-1
 8.062190075500000E9     3.935479748574209E-1    4.189803607628377E-1   -3.382796396960759E-3    4.548740267877808E-3   -3.131976793855941E-3    4.741826907467889E-3    4.089774204489991E-1    3.010225796628147E-1
 8.062190729750000E9     3.935673784197529E-1    4.188044123342444E-1   -3.388190067581061E-3    4.542042120506923E-3   -3.125248687197347E-3    4.781506741227872E-3    4.090012885659984E-1    3.010797714328663E-1
 8.062191384000000E9     3.937539289035845E-1    4.186492822405643E-1   -3.408502332220783E-3    4.569995070063544E-3   -3.114602469318157E-3    4.798311359852344E-3    4.089994912694828E-1    3.009206723255283E-1
 8.062192038250000E9     3.937783784928516E-1    4.185892220266549E-1   -3.404169193961442E-3    4.598198557331758E-3   -3.122320304894132E-3    4.872783041153134E-3    4.090869469215339E-1    3.008486139321164E-1
 8.062192692500000E9     3.939375307771776E-1    4.183136609825507E-1   -3.413240547690451E-3    4.616699016160706E-3   -3.138934248463455E-3    4.849272990349958E-3    4.090854934415029E-1    3.008816710727214E-1
 8.062193346750000E9     3.939904208478851E-1    4.182778044338119E-1   -3.425159320672492E-3    4.666712127091127E-3   -3.176835265279717E-3    4.901862681175709E-3    4.089927770063937E-1    3.006657475858429E-1
 8.062194001000000E9     3.939730861191416E-1    4.181753584958300E-1   -3.436874726021887E-3    4.682517575080585E-3   -3.198288522286694E-3    4.937835277760466E-3    4.090606513417493E-1    3.008151447007829E-1
 8.062194655250000E9     3.940556826238460E-1    4.179584304570984E-1   -3.449368007932438E-3    4.702823876163091E-3   -3.192773481220885E-3    4.962546090812489E-3    4.090234344636730E-1    3.007918050032061E-1
 8.062195309500000E9     3.942844724046028E-1    4.178692699674303E-1   -3.446345958192341E-3    4.746040722427311E-3   -3.184541401896088E-3    5.013748803270046E-3    4.092483645568402E-1    3.007666416976990E-1
 8.062195963750000E9     3.944549633183975E-1    4.175995579421773E-1   -3.484966632763331E-3    4.760393113651448E-3   -3.216890975320310E-3    5.033222377587376E-3    4.092037513093273E-1    3.006920396922400E-1
 8.062196618000000E9     3.945448266148339E-1    4.175537655875614E-1   -3.496104295866314E-3    4.769395420108998E-3   -3.223334894762181E-3    5.048467915360047E-3    4.092686960245267E-1    3.007219721389748E-1
 8.062197272250000E9     3.946497472301045E-1    4.173260541862669E-1   -3.488552769577863E-3    4.831431700052185E-3   -3.257768904447097E-3    5.067874215001625E-3    4.091628659484969E-1    3.005969437635216E-1
 8.062197926500000E9     3.948370606898121E-1    4.172666895636688E-1   -3.517457521824606E-3    4.862389827484443E-3   -3.228090401507868E-3    5.124441279477132E-3    4.093418439388973E-1    3.006549349340147E-1
 8.062198580750000E9     3.947719824790764E-1    4.170830000614733E-1   -3.538111651772460E-3    4.883223299821754E-3   -3.236225634369827E-3    5.126655822214705E-3    4.092717564705270E-1    3.005732299626491E-1
 8.062199235000000E9     3.949899062113483E-1    4.168603194950887E-1   -3.556286285398178E-3    4.883673947437691E-3   -3.269275968116629E-3    5.162488467964950E-3    4.093303002723595E-1    3.004270549805060E-1
 8.062199889250000E9     3.950836781343309E-1    4.167673259820437E-1   -3.565962021887339E-3    4.941074882915230E-3   -3.276960453363241E-3    5.190967029550637E-3    4.093841858188783E-1    3.004351431687181E-1
 8.062200543500000E9     3.952409623008066E-1    4.165302100884880E-1   -3.540025537574148E-3    4.973176749194927E-3   -3.292601999488430E-3    5.213240858968005E-3    4.093435027931061E-1    3.003796814937860E-1
