#  HZ   S   RI   R     50.00 
! Rohde & Schwarz Vector Network Analyzer 
! Rohde-Schwarz,ZNB20-2Port,1311601062101988,3.16
! Created: UTC 3/20/2024, 11:20:06 PM
! freq[Hz]                re:S11                  im:S11                  re:S21                  im:S21                  re:S12                  im:S12                  re:S22                  im:S22
 8.062145493000000E9     3.875633629520401E-1    4.258648089459347E-1   -2.792490270190425E-3    3.400154581731379E-3   -2.587913952461130E-3    3.591589718305983E-3    4.072510600325893E-1    3.035568582101271E-1
 8.062146136250000E9     3.876718315840166E-1    4.257424532015362E-1   -2.812649447325804E-3    3.435369915338997E-3   -2.618771078878927E-3    3.596810886577293E-3    4.072311115751067E-1    3.033721595912325E-1
 8.062146779500000E9     3.877689351614002E-1    4.257415046305320E-1   -2.814819060356289E-3    3.426807604108325E-3   -2.617883919420742E-3    3.640320707807640E-3    4.072346766755834E-1    3.034427535925609E-1
 8.062147422750000E9     3.878208996078640E-1    4.256670791620363E-1   -2.801238693671144E-3    3.457250682452965E-3   -2.621169580673997E-3    3.626616711036507E-3    4.073473857944130E-1    3.033959559481239E-1
 8.062148066000000E9     3.878443427064971E-1    4.256274408277336E-1   -2.820774960681695E-3    3.458491846035587E-3   -2.623907032442892E-3    3.629584520941009E-3    4.073401126139003E-1    3.033559081425541E-1
 8.062148709250000E9     3.879727671415831E-1    4.254143893280009E-1   -2.819785492940132E-3    3.451722054486531E-3   -2.594649150463403E-3    3.662002150037258E-3    4.074515314005467E-1    3.032996814195961E-1
 8.062149352500000E9     3.880704325512418E-1    4.252640209973317E-1   -2.831370023947585E-3    3.463428123623025E-3   -2.647668063904739E-3    3.665968363752588E-3    4.073821233010233E-1    3.033358364864493E-1
 8.062149995750000E9     3.881202902564903E-1    4.252598495566909E-1   -2.873766878383096E-3    3.460427772692721E-3   -2.639319088470375E-3    3.672906244555898E-3    4.074111743853091E-1    3.033836947458191E-1
 8.062150639000000E9     3.883079144069020E-1    4.252411564087699E-1   -2.856275111644512E-3    3.498678894754223E-3   -2.680463320731821E-3    3.681570624860255E-3    4.075106110649306E-1    3.032344482946154E-1
 8.062151282250000E9     3.883092147788798E-1    4.251875462062490E-1   -2.880106104623171E-3    3.503565711678508E-3   -2.660690401625905E-3    3.687564077091356E-3    4.074718570598628E-1    3.032530200777340E-1
 8.062151925500000E9     3.882956334321450E-1    4.251767772499662E-1   -2.835432589580183E-3    3.491628904089303E-3   -2.676336859427887E-3    3.704846354941733E-3    4.075655401577346E-1    3.031636381629177E-1
 8.062152568750000E9     3.885166128702284E-1    4.249676495687299E-1   -2.871227920053265E-3    3.522877305010028E-3   -2.713108183078493E-3    3.713710476788020E-3    4.075798434846276E-1    3.032241131843239E-1
 8.062153212000000E9     3.886519648727763E-1    4.249786743333991E-1   -2.860928131355564E-3    3.524841982568277E-3   -2.685993597789821E-3    3.723606122383127E-3    4.075091936298585E-1    3.030653537215400E-1
 8.062153855250000E9     3.885622878752608E-1    4.248766661074254E-1   -2.901982541915016E-3    3.567605564298928E-3   -2.674397972984069E-3    3.733273016971968E-3    4.076836772320362E-1    3.030470760132302E-1
 8.062154498500000E9     3.887781946751332E-1    4.248277544577849E-1   -2.882837429531584E-3    3.524608470054430E-3   -2.668939200877851E-3    3.739631605192886E-3    4.074736448150443E-1    3.029151424480085E-1
 8.062155141750000E9     3.888085289928146E-1    4.248193437927411E-1   -2.897793126219000E-3    3.573581116511617E-3   -2.703097904745760E-3    3.751782387795402E-3    4.076154440386441E-1    3.030707666105976E-1
 8.062155785000000E9     3.889468978783956E-1    4.246228319412721E-1   -2.889770210364861E-3    3.563312872255581E-3   -2.701031123146002E-3    3.798242390122821E-3    4.075908486154449E-1    3.030390226370174E-1
 8.062156428250000E9     3.889104159485328E-1    4.246621702648846E-1   -2.888250224371543E-3    3.582582582499482E-3   -2.736538072643250E-3    3.794970056074861E-3    4.076713275324853E-1    3.029663170196857E-1
 8.062157071500000E9     3.889566819072502E-1    4.243164239334453E-1   -2.897665577744711E-3    3.599056970456409E-3   -2.729688565293494E-3    3.803996108977024E-3    4.075876266925773E-1    3.029383659664204E-1
 8.062157714750000E9     3.890769892636952E-1    4.243708057444029E-1   -2.903175474289064E-3    3.623203100967496E-3   -2.736056586281148E-3    3.819592015681496E-3    4.077850260558584E-1    3.028366627702253E-1
 8.062158358000000E9     3.890855337509332E-1    4.243445976678205E-1   -2.934935405125236E-3    3.614969151265195E-3   -2.746917288023880E-3    3.830145299166085E-3    4.077335833384623E-1    3.028314124861026E-1
 8.062159001250000E9     3.892872417280669E-1    4.242784706573755E-1   -2.938366130286899E-3    3.655285054472966E-3   -2.716193807755249E-3    3.833603997296637E-3    4.077823866473254E-1    3.027651260024262E-1
 8.062159644500000E9     3.893585555219081E-1    4.241127625162173E-1   -2.923082008370487E-3    3.644760793942252E-3   -2.731638169028866E-3    3.814697095491234E-3    4.077953790087458E-1    3.026779902920380E-1
 8.062160287750000E9     3.894040788136642E-1    4.239574871352142E-1   -2.951417967430699E-3    3.676337062319349E-3   -2.765361835223302E-3    3.871714477540920E-3    4.077620925779381E-1    3.027693773410963E-1
 8.062160931000000E9     3.894839187086530E-1    4.240641961506850E-1   -2.974506763329503E-3    3.670137837611325E-3   -2.745717612050232E-3    3.885784596425914E-3    4.077931605414964E-1    3.026108869301330E-1
 8.062161574250000E9     3.895478602179834E-1    4.238480037732980E-1   -2.944710351919174E-3    3.701963476376573E-3   -2.746989844819306E-3    3.902042889760399E-3    4.077800099426207E-1    3.026952702943133E-1
 8.062162217500000E9     3.895472258854921E-1    4.237058232820455E-1   -2.980365356579166E-3    3.701465326423035E-3   -2.768323908163973E-3    3.927854357798251E-3    4.077884095394103E-1    3.026125194541531E-1
 8.062162860750000E9     3.897660872367042E-1    4.236589962345649E-1   -3.003560267101660E-3    3.690759098933085E-3   -2.786770371387530E-3    3.923456648675054E-3    4.079122446945939E-1    3.026356169903808E-1
 8.062163504000000E9     3.897298674113505E-1    4.235486616617709E-1   -2.979095142864143E-3    3.723013000714506E-3   -2.757560107850377E-3    3.932401983477069E-3    4.078734132192059E-1    3.026428348477712E-1
 8.062164147250000E9     3.897687907509816E-1    4.236496798703476E-1   -2.984297101624117E-3    3.752645172416527E-3   -2.758986939187078E-3    3.954494275585363E-3    4.078498058735650E-1    3.025849371927825E-1
 8.062164790500000E9     3.898289238848336E-1    4.233871178834826E-1   -2.967176806279149E-3    3.744142847489331E-3   -2.801172381671799E-3    3.948185856979080E-3    4.080684014215354E-1    3.024620209432392E-1
 8.062165433750000E9     3.899593731462419E-1    4.233491260443369E-1   -2.999157964996481E-3    3.750873822024132E-3   -2.786529169524640E-3    3.985903639806225E-3    4.080152304389679E-1    3.024081466255892E-1
 8.062166077000000E9     3.900756318183851E-1    4.232031592783778E-1   -2.981252373770646E-3    3.789522353044717E-3   -2.811083595093381E-3    4.006977769993840E-3    4.079925150528143E-1    3.024922572868331E-1
 8.062166720250000E9     3.901022888468098E-1    4.231961398624380E-1   -3.022556945207953E-3    3.794108594152403E-3   -2.818614133967125E-3    3.999294334269636E-3    4.079706824757269E-1    3.023213535234462E-1
 8.062167363500000E9     3.902106235229986E-1    4.230195287375469E-1   -3.009986767420825E-3    3.824158847643424E-3   -2.797234196852045E-3    4.003071090273840E-3    4.080959542457716E-1    3.022741860677505E-1
 8.062168006750000E9     3.903154724256873E-1    4.229548925520794E-1   -3.010723059134438E-3    3.835513262987425E-3   -2.814693661003213E-3    4.038507562093798E-3    4.081239616841498E-1    3.023106064861487E-1
 8.062168650000000E9     3.904802217011047E-1    4.229203823460039E-1   -3.059403730089076E-3    3.849198536230421E-3   -2.807631121844666E-3    4.074573707431243E-3    4.081657622606312E-1    3.023228405043393E-1
 8.062169293250000E9     3.905447960427093E-1    4.228938974391470E-1   -3.060306763793426E-3    3.880587275737618E-3   -2.849961137405818E-3    4.078521168117801E-3    4.080518829622909E-1    3.022387338083424E-1
 8.062169936500000E9     3.904716455270851E-1    4.227390079173341E-1   -3.060310573971630E-3    3.872909947300494E-3   -2.824976601868960E-3    4.073676969437353E-3    4.080976107845830E-1    3.022351055639461E-1
 8.062170579750000E9     3.906039661642532E-1    4.225404074099972E-1   -3.085624628652207E-3    3.869728205286589E-3   -2.881230132861282E-3    4.104632711676651E-3    4.080684848805351E-1    3.021010039052794E-1
 8.062171223000000E9     3.906361590849795E-1    4.225080972982102E-1   -3.095610868279513E-3    3.887312953891837E-3   -2.843163990827085E-3    4.123497364476122E-3    4.082820996708462E-1    3.020639424675392E-1
 8.062171866250000E9     3.907564584013161E-1    4.224216981130485E-1   -3.080238807071976E-3    3.913724947618681E-3   -2.876297063851016E-3    4.121481956947616E-3    4.082506336795620E-1    3.020555367674064E-1
 8.062172509500000E9     3.908093948432279E-1    4.223661237280437E-1   -3.101741501702841E-3    3.940286081677219E-3   -2.838131294291470E-3    4.151044261310445E-3    4.082689831781948E-1    3.019864500728007E-1
 8.062173152750000E9     3.910333071778087E-1    4.222593812803693E-1   -3.124200335113765E-3    3.957135514204915E-3   -2.897663714936344E-3    4.168616603360535E-3    4.082449293670469E-1    3.020138689520180E-1
 8.062173796000000E9     3.909917476532968E-1    4.222266654311774E-1   -3.091060727517956E-3    3.980698574225338E-3   -2.867049312917621E-3    4.182453687878947E-3    4.082803685592866E-1    3.019499500773044E-1
 8.062174439250000E9     3.910184862349729E-1    4.219566657978883E-1   -3.115672239078080E-3    3.994451586863468E-3   -2.910044627622110E-3    4.196770978764260E-3    4.083405749715820E-1    3.019217155300708E-1
 8.062175082500000E9     3.911735896671515E-1    4.220374545245872E-1   -3.145300065324283E-3    4.000748433944631E-3   -2.868917316171799E-3    4.269891369006742E-3    4.082846229643390E-1    3.017020263983961E-1
 8.062175725750000E9     3.913147833324523E-1    4.218066669723020E-1   -3.139724749287939E-3    4.023732249663318E-3   -2.896675534735125E-3    4.243889423147345E-3    4.083835074582394E-1    3.017750929466529E-1
 8.062176369000000E9     3.914257029306401E-1    4.217431547968514E-1   -3.136675334606909E-3    4.032308650997271E-3   -2.936015995003847E-3    4.230737727773522E-3    4.084330331526387E-1    3.017138975548525E-1
 8.062177012250000E9     3.915029498833482E-1    4.216703713076582E-1   -3.122880714514201E-3    4.054634983344438E-3   -2.882431235170139E-3    4.287789805329128E-3    4.084063022324279E-1    3.017536882899240E-1
 8.062177655500000E9     3.916092247530433E-1    4.214415797617729E-1   -3.153889923967706E-3    4.083087623311200E-3   -2.923910277557753E-3    4.279904250020051E-3    4.084565324283025E-1    3.017807746380751E-1
 8.062178298750000E9     3.916350670061865E-1    4.213223740878226E-1   -3.162152781183138E-3    4.099180681488114E-3   -2.926004584166947E-3    4.263607305520116E-3    4.085303861996974E-1    3.016423260683546E-1
 8.062178942000000E9     3.916731893129079E-1    4.211911029833655E-1   -3.186003401924158E-3    4.105235467363921E-3   -2.954570012839382E-3    4.322736387838287E-3    4.085270454236420E-1    3.016728802974770E-1
 8.062179585250000E9     3.917609372033556E-1    4.211861711378517E-1   -3.158917125022342E-3    4.145992603812851E-3   -2.963575288550095E-3    4.340784729832694E-3    4.084500100425733E-1    3.016232363303190E-1
 8.062180228500000E9     3.919674678548576E-1    4.210911826274584E-1   -3.160015462258788E-3    4.107349488939625E-3   -2.965973407913511E-3    4.370077348835471E-3    4.084611179235422E-1    3.017142357377723E-1
 8.062180871750000E9     3.920018652766413E-1    4.210168317285869E-1   -3.209211360168200E-3    4.154107825336067E-3   -3.017985846161548E-3    4.377574269259799E-3    4.085999085245662E-1    3.016513752715203E-1
 8.062181515000000E9     3.921288477961183E-1    4.208179167028031E-1   -3.202057071695047E-3    4.175611609935219E-3   -2.977058073345392E-3    4.377738094415008E-3    4.085102089527404E-1    3.015524788146444E-1
 8.062182158250000E9     3.921030556324097E-1    4.206641515842708E-1   -3.242265406674751E-3    4.184828915442296E-3   -3.007206407645070E-3    4.455078479829556E-3    4.086271128983089E-1    3.015541576708469E-1
 8.062182801500000E9     3.922460415754078E-1    4.206327680896892E-1   -3.224453204675067E-3    4.194977404478286E-3   -3.003869190939089E-3    4.482954302310084E-3    4.087163102183826E-1    3.015209966547145E-1
 8.062183444750000E9     3.923272293449666E-1    4.205272290686523E-1   -3.239925115256760E-3    4.220580734777496E-3   -3.004235997497169E-3    4.467798316770973E-3    4.087469195998549E-1    3.013823837799313E-1
 8.062184088000000E9     3.925184833458658E-1    4.204372903837933E-1   -3.254623008400423E-3    4.257733128962896E-3   -3.019174368692027E-3    4.456039514118095E-3    4.086847349319533E-1    3.013349448832092E-1
 8.062184731250000E9     3.925296444164854E-1    4.202442555908340E-1   -3.242895714450986E-3    4.282891241840019E-3   -3.043767995623353E-3    4.540081716355620E-3    4.086627785690895E-1    3.013754675735770E-1
 8.062185374500000E9     3.925571849723280E-1    4.201054459611924E-1   -3.280651672106250E-3    4.311124531145703E-3   -3.058971992391470E-3    4.527219877753250E-3    4.087182411220512E-1    3.014327647795839E-1
 8.062186017750000E9     3.927792508413593E-1    4.199644432834476E-1   -3.282282918087896E-3    4.328492001466090E-3   -3.029297732904391E-3    4.566646695846162E-3    4.086659354091948E-1    3.012897031528363E-1
 8.062186661000000E9     3.928305856952731E-1    4.200027825815775E-1   -3.290675548724537E-3    4.345481645843703E-3   -3.075900629228461E-3    4.577526538114380E-3    4.086756912024573E-1    3.012021692060870E-1
 8.062187304250000E9     3.927798039762965E-1    4.198025665472326E-1   -3.293909579410649E-3    4.352958359095197E-3   -3.072373319918213E-3    4.595433053789405E-3    4.087524607268131E-1    3.012496586533834E-1
 8.062187947500000E9     3.930527201136015E-1    4.196559394820874E-1   -3.325453560568294E-3    4.411180961179465E-3   -3.088033792646458E-3    4.618833760835092E-3    4.087371837743332E-1    3.010888162102121E-1
 8.062188590750000E9     3.931264948689071E-1    4.195504492636222E-1   -3.349469669940268E-3    4.417259486401731E-3   -3.067431622996758E-3    4.647184664246320E-3    4.088675683830408E-1    3.010721397819622E-1
 8.062189234000000E9     3.932938126920644E-1    4.194846972406693E-1   -3.343194170378924E-3    4.433853353508321E-3   -3.105135301474381E-3    4.630205969032925E-3    4.088485382744423E-1    3.011636504417246E-1
 8.062189877250000E9     3.932581893962528E-1    4.192158959570395E-1   -3.340039623202460E-3    4.449730807267908E-3   -3.088021436633758E-3    4.712879117889933E-3    4.089009766525333E-1    3.010494177861814E-1
 8.062190520500000E9     3.933835369792893E-1    4.191917684977666E-1   -3.378398404990139E-3    4.473889916402659E-3   -3.108272221490813E-3    4.711528911545426E-3    4.089008282007128E-1    3.011425684929193E-1
 8.062191163750000E9     3.934488053708112E-1    4.190162254523375E-1   -3.368729053215010E-3    4.489877104766870E-3   -3.107484785927313E-3    4.722089267936127E-3    4.089415596232572E-1    3.009425655090949E-1
 8.062191807000000E9     3.935574573852988E-1    4.189513006450404E-1   -3.370329490947503E-3    4.500318250960967E-3   -3.121389252702218E-3    4.759638127621653E-3    4.089551410389983E-1    3.009311390821278E-1
 8.062192450250000E9     3.935307422740820E-1    4.187287697586324E-1   -3.406777047294086E-3    4.531853698602879E-3   -3.149849409668716E-3    4.803815126851541E-3    4.089333347631842E-1    3.008506933208332E-1
 8.062193093500000E9     3.937776646382754E-1    4.187278587354012E-1   -3.432081319190554E-3    4.587580803674953E-3   -3.134521035074456E-3    4.813526111239920E-3    4.088996269772456E-1    3.007730712132318E-1
 8.062193736750000E9     3.938872864880451E-1    4.184635440903513E-1   -3.411616318337678E-3    4.596694525115209E-3   -3.138536255882925E-3    4.857460657790661E-3    4.089863009519382E-1    3.007971825690234E-1
 8.062194380000000E9     3.940398294584052E-1    4.183172566915526E-1   -3.414362971741258E-3    4.653590240698543E-3   -3.135550756689420E-3    4.867347148888192E-3    4.090531103194679E-1    3.006778500112590E-1
 8.062195023250000E9     3.940916393555055E-1    4.182342954743077E-1   -3.423742247334331E-3    4.631242865452850E-3   -3.158983661194410E-3    4.903263164549921E-3    4.090607229060162E-1    3.007405031364631E-1
 8.062195666500000E9     3.942331912603216E-1    4.179273758518777E-1   -3.446665626772196E-3    4.687086063348399E-3   -3.176394986162960E-3    4.865133398688964E-3    4.089847503525283E-1    3.006225575883621E-1
 8.062196309750000E9     3.943662839539487E-1    4.178581364160839E-1   -3.446232882884810E-3    4.707036107342967E-3   -3.196716123100535E-3    4.943559209826412E-3    4.092531911662056E-1    3.005678000163294E-1
 8.062196953000000E9     3.944113024564462E-1    4.176811063596919E-1   -3.484293274346183E-3    4.761631373863344E-3   -3.194893358623021E-3    4.980306751249002E-3    4.091531789171344E-1    3.005753225402981E-1
 8.062197596250000E9     3.946205104021993E-1    4.176114825452206E-1   -3.478568102513605E-3    4.774779067323169E-3   -3.203830876204131E-3    4.993509489460833E-3    4.091449823202515E-1    3.005172791957918E-1
 8.062198239500000E9     3.946624205523311E-1    4.174563139289199E-1   -3.504643534200297E-3    4.802623530522529E-3   -3.196812522722927E-3    5.056156796674187E-3    4.091164205510891E-1    3.005918024619855E-1
 8.062198882750000E9     3.946788063153383E-1    4.173188253071828E-1   -3.517585839733739E-3    4.837528898607252E-3   -3.305784103069663E-3    5.074377319487637E-3    4.092341479567307E-1    3.005222915512109E-1
 8.062199526000000E9     3.949345809165697E-1    4.170942389485088E-1   -3.502107355850175E-3    4.841898456288541E-3   -3.233429809773790E-3    5.107839463924015E-3    4.093343922807631E-1    3.004622844064964E-1
 8.062200169250000E9     3.950746966839759E-1    4.169520724632572E-1   -3.553242253614385E-3    4.868818889448270E-3   -3.283209896535957E-3    5.117677456775977E-3    4.092322968008999E-1    3.004404675611247E-1
 8.062200812500000E9     3.951485516752208E-1    4.168101882670125E-1   -3.553524237711972E-3    4.908312376814769E-3   -3.277974779609792E-3    5.171411073911484E-3    4.093028169438165E-1    3.003670731331942E-1
 8.062201455750000E9     3.952088759375565E-1    4.167188015335479E-1   -3.537354524010950E-3    4.945375028834178E-3   -3.288230412186568E-3    5.186028372691095E-3    4.092819879063896E-1    3.003727378172107E-1
 8.062202099000000E9     3.952173520472577E-1    4.165031430173662E-1   -3.580024604999396E-3    4.979791954822811E-3   -3.305168114827599E-3    5.249865049124299E-3    4.093387019172971E-1    3.004162292694884E-1
 8.062202742250000E9     3.954276065025434E-1    4.163277636990281E-1   -3.589728241331930E-3    4.985340555102922E-3   -3.304035226411012E-3    5.259425151385981E-3    4.094492342214995E-1    3.002750500750677E-1
 8.062203385500000E9     3.954930308560261E-1    4.160218420594842E-1   -3.604670518927808E-3    5.039143559579993E-3   -3.334119703971398E-3    5.297849832116006E-3    4.094021137852785E-1    3.003327818920145E-1
