#  HZ   S   RI   R     50.00 
! Rohde & Schwarz Vector Network Analyzer 
! Rohde-Schwarz,ZNB20-2Port,1311601062101988,3.16
! Created: UTC 3/20/2024, 11:20:38 PM
! freq[Hz]                re:S11                  im:S11                  re:S21                  im:S21                  re:S12                  im:S12                  re:S22                  im:S22
 8.062169554000000E9     3.896889966843096E-1    4.238396284232433E-1   -2.936712098998017E-3    3.583564480322469E-3   -2.711083857813847E-3    3.810904353821754E-3    4.087741589626360E-1    3.021942074262555E-1
 8.062170139325000E9     3.898298450275767E-1    4.237248404024689E-1   -2.936758347780231E-3    3.623450788958246E-3   -2.711809196215581E-3    3.819655082551735E-3    4.087531417412393E-1    3.020239785760503E-1
 8.062170724650000E9     3.898446760094732E-1    4.236740672873469E-1   -2.944273987141607E-3    3.630161923201926E-3   -2.737682455418840E-3    3.813614505185597E-3    4.089514098380899E-1    3.020209632575727E-1
 8.062171309975000E9     3.899739946387396E-1    4.235303361702696E-1   -2.920831845781956E-3    3.620246032168005E-3   -2.752502429847055E-3    3.834716522172084E-3    4.088654724597147E-1    3.020333552183431E-1
 8.062171895300000E9     3.900342825940930E-1    4.234179697731706E-1   -2.945329739904953E-3    3.633930453425713E-3   -2.772010316691758E-3    3.830300968232332E-3    4.089462362549093E-1    3.020371859580621E-1
 8.062172480625000E9     3.901515517262573E-1    4.233710976556080E-1   -2.942146074137886E-3    3.640436096164514E-3   -2.774985797840255E-3    3.857065244543704E-3    4.088907795863509E-1    3.020042561310338E-1
 8.062173065950000E9     3.900884160596947E-1    4.233753826561170E-1   -2.977260909484491E-3    3.670013259027256E-3   -2.768322405209669E-3    3.844164370614168E-3    4.088264177408975E-1    3.020509717820123E-1
 8.062173651275000E9     3.901648274653929E-1    4.232632336038764E-1   -2.947091125091406E-3    3.683579275903951E-3   -2.787589491026350E-3    3.889271387703823E-3    4.090587943330432E-1    3.018307987831010E-1
 8.062174236600000E9     3.903683414969632E-1    4.232681926046201E-1   -2.974790174966486E-3    3.685819271808604E-3   -2.771577134369976E-3    3.908657783833384E-3    4.088609219095087E-1    3.019078939347405E-1
 8.062174821925000E9     3.905435723850949E-1    4.230780345285114E-1   -2.984109022593843E-3    3.683960181528566E-3   -2.797897506163501E-3    3.930342706419667E-3    4.090528677961031E-1    3.017793352807638E-1
 8.062175407250000E9     3.905140249737503E-1    4.230158315751532E-1   -3.004579485606888E-3    3.740438988976868E-3   -2.800091470951045E-3    3.936343230128770E-3    4.092388885320292E-1    3.018483564503709E-1
 8.062175992575000E9     3.904713790131676E-1    4.229712817932467E-1   -2.975704082879437E-3    3.713491083775004E-3   -2.795538965851579E-3    3.922502671650334E-3    4.090733381073234E-1    3.018639663708608E-1
 8.062176577900000E9     3.906018337310637E-1    4.229915861058739E-1   -3.020582237676506E-3    3.743079711865444E-3   -2.821039991428255E-3    3.978954712015138E-3    4.090887622789598E-1    3.017961941916073E-1
 8.062177163225000E9     3.906008147992597E-1    4.227885853323324E-1   -3.015820826375888E-3    3.747796590180007E-3   -2.795344481743835E-3    3.958296888617372E-3    4.090673731644722E-1    3.016763021722020E-1
 8.062177748550000E9     3.907218905827927E-1    4.227108447688269E-1   -3.019772572639424E-3    3.781318162557917E-3   -2.777292957820701E-3    4.010569317816238E-3    4.090353055777403E-1    3.017842402450928E-1
 8.062178333875000E9     3.909158904535170E-1    4.226521968674450E-1   -3.032225044997927E-3    3.767856811233098E-3   -2.854282040067668E-3    3.995563842061572E-3    4.092697349827307E-1    3.016750388173313E-1
 8.062178919200000E9     3.909459553770224E-1    4.226630365702199E-1   -3.066959493242050E-3    3.778425142850459E-3   -2.837424246304751E-3    4.014658512083576E-3    4.091860687209528E-1    3.016736251809738E-1
 8.062179504525000E9     3.910445156675447E-1    4.223287295676664E-1   -3.026315209486391E-3    3.814852057293574E-3   -2.839824425370219E-3    4.004702820326751E-3    4.091397286394434E-1    3.016500936768067E-1
 8.062180089850000E9     3.910621053037595E-1    4.222861303669658E-1   -3.047697219158272E-3    3.825278169346526E-3   -2.860832956094224E-3    4.022843928235860E-3    4.092095242074282E-1    3.015747894492965E-1
 8.062180675175000E9     3.911147973045250E-1    4.223267877377614E-1   -3.045272549401796E-3    3.826799312924084E-3   -2.823880813478032E-3    4.070574900629904E-3    4.092389271565335E-1    3.015003196267975E-1
 8.062181260500000E9     3.912109703660020E-1    4.223183611819782E-1   -3.072176173761227E-3    3.845797615062096E-3   -2.857834441406629E-3    4.047342698609540E-3    4.092884963900712E-1    3.015274430647405E-1
 8.062181845825000E9     3.912242779329628E-1    4.221679504898786E-1   -3.076358662745303E-3    3.853594620446615E-3   -2.869346623181883E-3    4.048724299967122E-3    4.090812821232147E-1    3.014437416542876E-1
 8.062182431150000E9     3.913651339160014E-1    4.220591528216572E-1   -3.077599316985068E-3    3.873767182006096E-3   -2.893876212723316E-3    4.089171889303384E-3    4.092849066500496E-1    3.014232218155966E-1
 8.062183016475000E9     3.915136392005667E-1    4.218502807906714E-1   -3.098625413264406E-3    3.881607662187847E-3   -2.868065973081723E-3    4.105519862026238E-3    4.094807247883454E-1    3.013934180453381E-1
 8.062183601800000E9     3.914944240488427E-1    4.219123632601223E-1   -3.098265053725489E-3    3.904147772372954E-3   -2.879643202896848E-3    4.120456946672920E-3    4.094187458521917E-1    3.011398345846350E-1
 8.062184187125000E9     3.916325017428997E-1    4.218805905010373E-1   -3.083612902915923E-3    3.892357525293689E-3   -2.926609156119482E-3    4.138461219194555E-3    4.094608360310287E-1    3.014343452677002E-1
 8.062184772450000E9     3.916679364326101E-1    4.216057180385141E-1   -3.108615748634452E-3    3.928570204517510E-3   -2.895786951424315E-3    4.161168828296030E-3    4.094064740271405E-1    3.013041140001957E-1
 8.062185357775000E9     3.917231066188363E-1    4.216301345131575E-1   -3.129697288174546E-3    3.953906330005394E-3   -2.864474948579792E-3    4.187370627085351E-3    4.094935175978086E-1    3.013506856603381E-1
 8.062185943100000E9     3.919572855252609E-1    4.215954817565821E-1   -3.112039758484598E-3    3.920471968586504E-3   -2.886108378803510E-3    4.173075624059872E-3    4.093605755681501E-1    3.011860808466828E-1
 8.062186528425000E9     3.919274870277503E-1    4.213386916956343E-1   -3.125820647189363E-3    3.997093055597020E-3   -2.910541375996078E-3    4.205519133953084E-3    4.093322844760669E-1    3.011419409639731E-1
 8.062187113750000E9     3.919770105763581E-1    4.211978992581408E-1   -3.149771058484248E-3    3.962180017363336E-3   -2.949082953686727E-3    4.197906023090215E-3    4.093857065597512E-1    3.010752360705842E-1
 8.062187699075000E9     3.919917434183076E-1    4.211500585030985E-1   -3.151883660645335E-3    3.998904293427592E-3   -2.939146654389572E-3    4.272882349600474E-3    4.094784691477478E-1    3.011912712980608E-1
 8.062188284400000E9     3.921673534621696E-1    4.212203602169690E-1   -3.170073855974123E-3    4.018311847370524E-3   -2.907704152311449E-3    4.189780193704098E-3    4.095789867887498E-1    3.010626748313288E-1
 8.062188869725000E9     3.921960609066199E-1    4.210391912440089E-1   -3.176221745967764E-3    4.034301291609298E-3   -2.960753157548776E-3    4.263132239752522E-3    4.095078493549066E-1    3.010452771531004E-1
 8.062189455050000E9     3.923823640874738E-1    4.210093820808388E-1   -3.147038252572315E-3    4.049309738728427E-3   -2.946713197969577E-3    4.247246214194463E-3    4.095990417744982E-1    3.010597787133747E-1
 8.062190040375000E9     3.923828066030860E-1    4.208825749664149E-1   -3.178014837740941E-3    4.074163283829351E-3   -2.965670259513003E-3    4.294350639728176E-3    4.096181700571119E-1    3.010764713906048E-1
 8.062190625700000E9     3.925630982540475E-1    4.208301500016463E-1   -3.163839947882953E-3    4.073724599286030E-3   -2.960402392141430E-3    4.308138476393318E-3    4.096797089038104E-1    3.009383774258947E-1
 8.062191211025000E9     3.926185049357350E-1    4.207384953497270E-1   -3.178676084896064E-3    4.115096414017095E-3   -2.960482293614231E-3    4.305708205198540E-3    4.095996449295440E-1    3.009261494335529E-1
 8.062191796350000E9     3.926643453847827E-1    4.205224577365190E-1   -3.230044067781842E-3    4.130292017144448E-3   -2.973513455047377E-3    4.352960712575088E-3    4.097219722115585E-1    3.008389181864150E-1
 8.062192381675000E9     3.927396496511321E-1    4.205266256884168E-1   -3.239123542350577E-3    4.133248144923409E-3   -2.956825094665898E-3    4.329496222368900E-3    4.098377559211347E-1    3.008943640364066E-1
 8.062192967000000E9     3.928253326065244E-1    4.203944700958182E-1   -3.200749832635505E-3    4.129701004503167E-3   -2.993714235610678E-3    4.368673217503656E-3    4.097000904698223E-1    3.009355552968810E-1
 8.062193552325000E9     3.929210003661499E-1    4.203186039224901E-1   -3.228795976928378E-3    4.167556400482980E-3   -3.040547775440782E-3    4.378831188719979E-3    4.098187659302262E-1    3.008934093354575E-1
 8.062194137650000E9     3.929917413080132E-1    4.200512037685908E-1   -3.212448110010561E-3    4.171419054409548E-3   -3.029246036626917E-3    4.396028086252818E-3    4.097755942963975E-1    3.007692516480578E-1
 8.062194722975000E9     3.931151542324758E-1    4.200588462585989E-1   -3.241560324671143E-3    4.197475768096126E-3   -3.034504641688661E-3    4.441427373388377E-3    4.098163975921896E-1    3.007828910683423E-1
 8.062195308300000E9     3.930825373893418E-1    4.199189562502359E-1   -3.266243113682714E-3    4.201636073588462E-3   -3.054233197578818E-3    4.460869182276269E-3    4.098307282045859E-1    3.007027767647966E-1
 8.062195893625000E9     3.932570203159848E-1    4.198099809379950E-1   -3.275629835048658E-3    4.246325685870821E-3   -3.040826690026463E-3    4.460802782102158E-3    4.097999808820991E-1    3.007216138109309E-1
 8.062196478950000E9     3.933583682793627E-1    4.197560591725512E-1   -3.293538196473706E-3    4.275332186130553E-3   -3.078857688109961E-3    4.507542850186592E-3    4.098002045357734E-1    3.007438377254554E-1
 8.062197064275000E9     3.933763734426844E-1    4.195008762029188E-1   -3.262991648472007E-3    4.261667104148111E-3   -3.110120848948407E-3    4.516777780459423E-3    4.099883975223436E-1    3.006990914783449E-1
 8.062197649600000E9     3.934463873745699E-1    4.195075899489302E-1   -3.317560762815389E-3    4.288876728507757E-3   -3.084236483820533E-3    4.557124369458667E-3    4.098783004207547E-1    3.004721703553124E-1
 8.062198234925000E9     3.935080557209932E-1    4.193463410310019E-1   -3.324382660054841E-3    4.327140814064733E-3   -3.097356761945598E-3    4.558386792348238E-3    4.099549746495957E-1    3.005082884571656E-1
 8.062198820250000E9     3.937334308487017E-1    4.192759323340067E-1   -3.295244789432777E-3    4.321885482264798E-3   -3.090050830428567E-3    4.549745800852681E-3    4.099510770775524E-1    3.004185257589994E-1
 8.062199405575000E9     3.937237332825809E-1    4.191273076815310E-1   -3.311035259635870E-3    4.345944196300494E-3   -3.079410271894623E-3    4.592822757524040E-3    4.099162833553978E-1    3.004179330014958E-1
 8.062199990900000E9     3.939418091749098E-1    4.190844592551594E-1   -3.339262496592855E-3    4.372722582690199E-3   -3.106523453606319E-3    4.584849062713186E-3    4.100260861714204E-1    3.003895018252965E-1
 8.062200576225000E9     3.938379876764179E-1    4.189068222679879E-1   -3.344756203193157E-3    4.395503734173717E-3   -3.083302965016771E-3    4.624842901839637E-3    4.100171641010062E-1    3.003734114131690E-1
 8.062201161550000E9     3.940293155713283E-1    4.187502133056787E-1   -3.344830401182199E-3    4.400958654503910E-3   -3.161204662476681E-3    4.667965170240356E-3    4.100143231245839E-1    3.003743524741389E-1
 8.062201746875000E9     3.940613700360539E-1    4.187480691050897E-1   -3.347537612755959E-3    4.413046244417189E-3   -3.124944748780525E-3    4.690248789353393E-3    4.100227328574184E-1    3.003946506722777E-1
 8.062202332200000E9     3.941859240104308E-1    4.186322117872086E-1   -3.385800214868617E-3    4.451104904546302E-3   -3.134802844547547E-3    4.702964713521838E-3    4.099905233690370E-1    3.002728320894607E-1
 8.062202917525000E9     3.943559115820913E-1    4.185722720501260E-1   -3.373058489432120E-3    4.479771682964971E-3   -3.137295336192558E-3    4.727265792102435E-3    4.101185332439406E-1    3.002160975275079E-1
 8.062203502850000E9     3.943027349782788E-1    4.183006971504704E-1   -3.403142649248162E-3    4.506148127377342E-3   -3.187010833914896E-3    4.745248035637161E-3    4.100268618647966E-1    3.001590862083892E-1
 8.062204088175000E9     3.944400745138981E-1    4.183578642406983E-1   -3.396485986295200E-3    4.543688345423917E-3   -3.144531200461782E-3    4.767971054472042E-3    4.103078040403362E-1    3.002016415692229E-1
 8.062204673500000E9     3.945745079875161E-1    4.182166862764720E-1   -3.430162541538065E-3    4.549085031235771E-3   -3.174353078541636E-3    4.791424410332533E-3    4.100713040419573E-1    3.001537047484525E-1
 8.062205258825000E9     3.947127600241064E-1    4.180090878726302E-1   -3.422214756689582E-3    4.535081714864522E-3   -3.203484430146830E-3    4.818840449580182E-3    4.100534871482543E-1    3.001004100100778E-1
 8.062205844150000E9     3.948081406318533E-1    4.177986438747299E-1   -3.425547658918931E-3    4.576916229553391E-3   -3.205862673084168E-3    4.845184853210822E-3    4.101762856319369E-1    3.000813684145803E-1
 8.062206429475000E9     3.949630255685300E-1    4.177301235454316E-1   -3.440208172516739E-3    4.625582638474641E-3   -3.178310096756304E-3    4.818446260473733E-3    4.101102144915582E-1    3.001800639958177E-1
 8.062207014800000E9     3.950327367406176E-1    4.176009061451638E-1   -3.440884658336554E-3    4.619960039467488E-3   -3.178959615122978E-3    4.857690112881086E-3    4.102559030846407E-1    2.999756690167246E-1
 8.062207600125000E9     3.950428441852253E-1    4.173964267591612E-1   -3.476252164471900E-3    4.629615268825062E-3   -3.205661482270930E-3    4.900795073106789E-3    4.102380876860792E-1    2.999184998719918E-1
 8.062208185450000E9     3.951292669266780E-1    4.173786358554225E-1   -3.497861376518189E-3    4.681922255213026E-3   -3.246154868877474E-3    4.940243824358376E-3    4.101829391561747E-1    2.999254042297368E-1
 8.062208770775000E9     3.953074398370874E-1    4.171490125962070E-1   -3.499088622776873E-3    4.722221785727150E-3   -3.209163730239356E-3    4.954483962624603E-3    4.103060843824745E-1    2.999881308421574E-1
 8.062209356100000E9     3.953605883662287E-1    4.169931447825059E-1   -3.502114115096760E-3    4.739690050907404E-3   -3.239299891991078E-3    4.987061979836980E-3    4.103421933307521E-1    2.998519021221755E-1
 8.062209941425000E9     3.956207776372466E-1    4.168268246686291E-1   -3.539491989801865E-3    4.723469112290758E-3   -3.259435648987802E-3    4.995610901061515E-3    4.102953437900666E-1    2.999323377251855E-1
 8.062210526750000E9     3.954958985446785E-1    4.167624862221673E-1   -3.537584111251987E-3    4.773581047057947E-3   -3.275101077188399E-3    5.068373102756549E-3    4.102926947238243E-1    2.997731529004919E-1
 8.062211112075000E9     3.958212834832867E-1    4.166447405907090E-1   -3.547684166808571E-3    4.811964685666921E-3   -3.295634754012298E-3    5.064375827989182E-3    4.102120170976292E-1    2.997773467528926E-1
 8.062211697400000E9     3.957353826680867E-1    4.165569824829827E-1   -3.586314314368498E-3    4.848423177847895E-3   -3.294386678591735E-3    5.067711879578784E-3    4.103327676767256E-1    2.996425080403690E-1
 8.062212282725000E9     3.958354358611852E-1    4.163090663838956E-1   -3.549638859985969E-3    4.838633346960586E-3   -3.274536621061634E-3    5.116950458906546E-3    4.104261466615670E-1    2.996914627962682E-1
 8.062212868050000E9     3.958655665960341E-1    4.161762274459245E-1   -3.567361588438093E-3    4.898503872119076E-3   -3.307861806915777E-3    5.158091829818468E-3    4.104363756876924E-1    2.995711818000820E-1
 8.062213453375000E9     3.961492081011815E-1    4.159936631485980E-1   -3.581626368956131E-3    4.894609634804985E-3   -3.326577634941610E-3    5.212715159335242E-3    4.105448349080204E-1    2.997127150989243E-1
 8.062214038700000E9     3.962542897962843E-1    4.158199653030397E-1   -3.610754560972234E-3    4.949891704415042E-3   -3.307388571991404E-3    5.187209308260094E-3    4.104792295377772E-1    2.996262290485683E-1
 8.062214624025000E9     3.963325997250398E-1    4.157477837684609E-1   -3.610993740136023E-3    4.983930757290831E-3   -3.330870567587318E-3    5.213712155735382E-3    4.105289760750735E-1    2.996348740764019E-1
 8.062215209350000E9     3.963966593522054E-1    4.157740612203691E-1   -3.613549916091901E-3    5.001286743892709E-3   -3.340738140862150E-3    5.256470238609828E-3    4.104196011491420E-1    2.996708512100931E-1
 8.062215794675000E9     3.966091358985553E-1    4.154997818856508E-1   -3.652500685219639E-3    5.026651356489249E-3   -3.372246865447777E-3    5.279412449263933E-3    4.106634937087168E-1    2.996035865300642E-1
 8.062216380000000E9     3.965770335009547E-1    4.152728370711201E-1   -3.636128113653656E-3    5.092115898091313E-3   -3.375650974539016E-3    5.319438630961915E-3    4.106109985998984E-1    2.995238745706817E-1
 8.062216965325000E9     3.968359760088726E-1    4.150311672029122E-1   -3.677394573243569E-3    5.120549292172349E-3   -3.423047085780995E-3    5.355512844126420E-3    4.106752977704637E-1    2.994665790883013E-1
 8.062217550650000E9     3.968709602129702E-1    4.149900967669534E-1   -3.685897674892305E-3    5.123098487665446E-3   -3.395217539659386E-3    5.360088653591212E-3    4.106040049790387E-1    2.994113045936478E-1
 8.062218135975000E9     3.970739761920792E-1    4.149531963380995E-1   -3.691721811273982E-3    5.177819681048128E-3   -3.390291007140498E-3    5.380831333126269E-3    4.107350926301142E-1    2.993609895998048E-1
 8.062218721300000E9     3.970845404299349E-1    4.146840103112674E-1   -3.696629245594277E-3    5.170759769005545E-3   -3.414657850671301E-3    5.470930019901486E-3    4.106506616674411E-1    2.993707943010341E-1
 8.062219306625000E9     3.972884371259025E-1    4.144462919232023E-1   -3.729643343861817E-3    5.220199522349362E-3   -3.430137028565128E-3    5.505340840019043E-3    4.106082028746297E-1    2.993853506312572E-1
 8.062219891950000E9     3.973344882254846E-1    4.143553526744662E-1   -3.735846034188449E-3    5.284952414838629E-3   -3.485195709401245E-3    5.510271500590114E-3    4.107464979893993E-1    2.993799680810738E-1
 8.062220477275000E9     3.974684483513233E-1    4.141508918576612E-1   -3.755525538679610E-3    5.292615630278166E-3   -3.491697970009131E-3    5.593729067863175E-3    4.107016050080709E-1    2.992549373992134E-1
 8.062221062600000E9     3.975540529861909E-1    4.139715054708337E-1   -3.763950421016653E-3    5.312719386171646E-3   -3.489825884754638E-3    5.586894794088688E-3    4.107882498548761E-1    2.991842264909523E-1
 8.062221647925000E9     3.976607469292876E-1    4.137398896172438E-1   -3.792590994079293E-3    5.353781133722632E-3   -3.483392499328615E-3    5.613445391081838E-3    4.107667945029509E-1    2.991301424544136E-1
 8.062222233250000E9     3.977425593187880E-1    4.136020967985091E-1   -3.801599792873537E-3    5.404642895476963E-3   -3.484006756130682E-3    5.664891156497883E-3    4.108055819610120E-1    2.991479290488219E-1
