#  HZ   S   RI   R     50.00 
! Rohde & Schwarz Vector Network Analyzer 
! Rohde-Schwarz,ZNB20-2Port,1311601062101988,3.16
! Created: UTC 3/20/2024, 11:20:40 PM
! freq[Hz]                re:S11                  im:S11                  re:S21                  im:S21                  re:S12                  im:S12                  re:S22                  im:S22
 8.062171639000000E9     3.897724662655403E-1    4.236476996504601E-1   -2.934562739040073E-3    3.628055668706375E-3   -2.729390833702782E-3    3.799890029734625E-3    4.090237077962374E-1    3.020344248910319E-1
 8.062172217925000E9     3.899762513775244E-1    4.235508694071267E-1   -2.942388479159906E-3    3.627208760145408E-3   -2.729462554230477E-3    3.843207574716654E-3    4.089621793695092E-1    3.019799939162842E-1
 8.062172796850000E9     3.900468881753726E-1    4.236043782138223E-1   -2.945964625503645E-3    3.638592296717047E-3   -2.739070438779208E-3    3.868985640548295E-3    4.090217925057847E-1    3.019262180101316E-1
 8.062173375775000E9     3.901083973225448E-1    4.234781334866901E-1   -2.949406162191596E-3    3.652445641400188E-3   -2.717531727496443E-3    3.850925933899610E-3    4.089436550469179E-1    3.019430502516838E-1
 8.062173954700000E9     3.901821142435896E-1    4.233654931650386E-1   -2.976321042607887E-3    3.664068905640248E-3   -2.780003911513613E-3    3.861875507636604E-3    4.088684347602106E-1    3.019126816406647E-1
 8.062174533625000E9     3.902939625116777E-1    4.231618324223234E-1   -2.945554633225039E-3    3.677852412779797E-3   -2.782587292378369E-3    3.896821886549996E-3    4.090893236766107E-1    3.018468712480276E-1
 8.062175112550000E9     3.904341827936028E-1    4.232753111853203E-1   -2.979678076369768E-3    3.676546277516992E-3   -2.777752408987638E-3    3.923316199316220E-3    4.090898660811683E-1    3.018745396364692E-1
 8.062175691475000E9     3.904871328652652E-1    4.231284534554261E-1   -3.000546563922642E-3    3.701744862279754E-3   -2.779294741814643E-3    3.876427213713372E-3    4.089901356200444E-1    3.017964890835153E-1
 8.062176270400000E9     3.904594377030270E-1    4.229689182742984E-1   -2.999517702090622E-3    3.696637611880764E-3   -2.787364541349581E-3    3.930100269350633E-3    4.090997120703476E-1    3.018136634563614E-1
 8.062176849325000E9     3.906474866935841E-1    4.229306640887878E-1   -2.986883265406208E-3    3.716847801565651E-3   -2.802871473017541E-3    3.929179407346676E-3    4.091812116822994E-1    3.017310975288405E-1
 8.062177428250000E9     3.907137911249073E-1    4.229118060582451E-1   -3.012065739141468E-3    3.753139048037375E-3   -2.783722747152480E-3    3.954320404914413E-3    4.091978776008411E-1    3.017502743601501E-1
 8.062178007175000E9     3.906675311256178E-1    4.227762361710876E-1   -2.994404297984732E-3    3.751763983200596E-3   -2.763891199041940E-3    3.965435324902913E-3    4.091824261997160E-1    3.017860177748865E-1
 8.062178586100000E9     3.908031369598866E-1    4.227193970106243E-1   -2.992748175146446E-3    3.762755736417838E-3   -2.816651341344384E-3    3.994657330235115E-3    4.091255839831050E-1    3.015910143877530E-1
 8.062179165025000E9     3.909737001523911E-1    4.226152722867735E-1   -3.028431000314419E-3    3.767359874391699E-3   -2.817931604291242E-3    3.984300978413276E-3    4.091233136292068E-1    3.016049448107526E-1
 8.062179743950000E9     3.909799434136917E-1    4.225663359187505E-1   -3.041243974624174E-3    3.796598040413930E-3   -2.829484167885707E-3    4.014423994661186E-3    4.093513225172711E-1    3.014645671979191E-1
 8.062180322875000E9     3.910751983182238E-1    4.225562536381434E-1   -3.078820473869171E-3    3.762417920717536E-3   -2.851940477899832E-3    3.980394373872135E-3    4.091754149858642E-1    3.015173042184402E-1
 8.062180901800000E9     3.911824228088003E-1    4.224797324075218E-1   -3.040259820850376E-3    3.790549099605032E-3   -2.845308849267284E-3    4.019071864300666E-3    4.091903759761032E-1    3.015457569038650E-1
 8.062181480725000E9     3.912742616904595E-1    4.222477616088671E-1   -3.047209940835377E-3    3.822566710434534E-3   -2.851974087811651E-3    4.039163279329173E-3    4.092794820434945E-1    3.014747855834168E-1
 8.062182059650000E9     3.911892610518057E-1    4.222031541583633E-1   -3.058812523679195E-3    3.814095581944418E-3   -2.851802104112111E-3    4.041744421053149E-3    4.092877499211026E-1    3.014945566665378E-1
 8.062182638575000E9     3.913661519547881E-1    4.221284777612740E-1   -3.058276855730237E-3    3.840641169382366E-3   -2.853939563346063E-3    4.076896142356900E-3    4.093078791899663E-1    3.014060900803832E-1
 8.062183217500000E9     3.913865983092229E-1    4.221140434601387E-1   -3.077300726772771E-3    3.841772467633116E-3   -2.844553316365736E-3    4.071076473789468E-3    4.093126757038667E-1    3.014318834791930E-1
 8.062183796425000E9     3.915986560891456E-1    4.218241951050755E-1   -3.120784445882026E-3    3.863622596819467E-3   -2.875762589814201E-3    4.105926959289781E-3    4.094354132514708E-1    3.013693692147629E-1
 8.062184375350000E9     3.915795654835373E-1    4.218386238945312E-1   -3.100256089828198E-3    3.883096538340089E-3   -2.896924862402954E-3    4.142449083039994E-3    4.094627313722613E-1    3.013274116572572E-1
 8.062184954275000E9     3.918239767163130E-1    4.218873050440934E-1   -3.088410877411641E-3    3.881314157222854E-3   -2.891956004637830E-3    4.096144218218420E-3    4.095543914809036E-1    3.013499099894788E-1
 8.062185533200000E9     3.917453535115833E-1    4.216890377933089E-1   -3.111070430470731E-3    3.927213424798731E-3   -2.889443405460662E-3    4.127828739259993E-3    4.094977419955979E-1    3.012275625984753E-1
 8.062186112125000E9     3.917914138422576E-1    4.215558585319861E-1   -3.102527039567635E-3    3.929913721789106E-3   -2.895044465816640E-3    4.143780356623658E-3    4.095508192439065E-1    3.012408551725722E-1
 8.062186691050000E9     3.919043535934649E-1    4.215645526127287E-1   -3.107196222383082E-3    3.964932858376610E-3   -2.942489540042070E-3    4.150047465619690E-3    4.094823797103719E-1    3.012834772326726E-1
 8.062187269975000E9     3.919775923583922E-1    4.214552557019993E-1   -3.120586098981858E-3    3.962793684075995E-3   -2.892054520089999E-3    4.165323330966134E-3    4.095181260397538E-1    3.011003212194636E-1
 8.062187848900000E9     3.920046663069189E-1    4.213870528021323E-1   -3.122425982146383E-3    3.984414173558511E-3   -2.883027166326513E-3    4.182482045414663E-3    4.095355116712640E-1    3.011197620153724E-1
 8.062188427825000E9     3.920284686073215E-1    4.212497176915582E-1   -3.126326854267594E-3    3.999798547952573E-3   -2.948662520767520E-3    4.249767181069633E-3    4.095621732032362E-1    3.011534381029641E-1
 8.062189006750000E9     3.922588773024851E-1    4.211487540281037E-1   -3.143357994567396E-3    4.004036286313678E-3   -2.935611776821852E-3    4.234900763408467E-3    4.095984546844827E-1    3.010971203163667E-1
 8.062189585675000E9     3.923211354778376E-1    4.211013811690243E-1   -3.145489817710957E-3    3.992162859747797E-3   -2.967037591450341E-3    4.249626366338523E-3    4.096074664622364E-1    3.009732568890467E-1
 8.062190164600000E9     3.923162381966759E-1    4.209789654622672E-1   -3.172755766274899E-3    4.013518417202935E-3   -2.979851953958065E-3    4.262430459381754E-3    4.095502378203786E-1    3.009894478387979E-1
 8.062190743525000E9     3.924770356501072E-1    4.208751659325109E-1   -3.164809704565776E-3    4.029681306491272E-3   -2.929348958661707E-3    4.264617981194695E-3    4.097880536939946E-1    3.010122494120293E-1
 8.062191322450000E9     3.925070951398775E-1    4.207512616420389E-1   -3.199179732405739E-3    4.081526139427705E-3   -2.993752209071434E-3    4.281008707294308E-3    4.096073372498387E-1    3.008881931543733E-1
 8.062191901375000E9     3.926084650797767E-1    4.206319566533284E-1   -3.200305919536741E-3    4.085190520161154E-3   -2.973660071526371E-3    4.284560346603854E-3    4.097079339014860E-1    3.008947329490643E-1
 8.062192480300000E9     3.925663324816623E-1    4.206151178738733E-1   -3.198213744489318E-3    4.115209059554583E-3   -3.015294462336232E-3    4.329331533704203E-3    4.097424247496356E-1    3.008630502276143E-1
 8.062193059225000E9     3.926416839952825E-1    4.204592133661032E-1   -3.215554375289968E-3    4.118712432007462E-3   -2.994788010102556E-3    4.348295647666112E-3    4.097689328546090E-1    3.008866352407332E-1
 8.062193638150000E9     3.928119787438613E-1    4.204205602340185E-1   -3.214568936820343E-3    4.140310726113823E-3   -2.980843697677675E-3    4.353389132855622E-3    4.098252977980700E-1    3.009352220027767E-1
 8.062194217075000E9     3.929607181017041E-1    4.202553848737831E-1   -3.222806364855752E-3    4.166512527772044E-3   -3.014146369212993E-3    4.389515114746750E-3    4.096786339898598E-1    3.008483264041146E-1
 8.062194796000000E9     3.930873248260914E-1    4.201206633565051E-1   -3.245542559752219E-3    4.147893282765056E-3   -2.996940982194923E-3    4.410673475666250E-3    4.098358640908544E-1    3.007903535744637E-1
 8.062195374925000E9     3.930276080015003E-1    4.201089220211478E-1   -3.253023486837794E-3    4.207335393257234E-3   -2.995563412677692E-3    4.427889348835270E-3    4.098616858990544E-1    3.007302000620474E-1
 8.062195953850000E9     3.931659904290978E-1    4.198990673736056E-1   -3.255947259450285E-3    4.201530781875801E-3   -3.006353504022324E-3    4.423291777434532E-3    4.097967217653959E-1    3.007622383271207E-1
 8.062196532775000E9     3.931660677855462E-1    4.198378919958531E-1   -3.270021249070608E-3    4.218434950065000E-3   -3.034326008809849E-3    4.476364918911685E-3    4.098199004575424E-1    3.006692365319102E-1
 8.062197111700000E9     3.934223278543758E-1    4.197281617641749E-1   -3.278179707877707E-3    4.240540818396505E-3   -3.006002631129610E-3    4.503148297198711E-3    4.100901098947181E-1    3.006474216666061E-1
 8.062197690625000E9     3.934510795856098E-1    4.195396586461893E-1   -3.292154935220269E-3    4.263777976968974E-3   -3.031088314579572E-3    4.473755823956138E-3    4.099643604826190E-1    3.005624271262383E-1
 8.062198269550000E9     3.935895598282775E-1    4.196195715278679E-1   -3.288782420848237E-3    4.269324960513794E-3   -3.078001045980364E-3    4.504280883627046E-3    4.099428491263836E-1    3.004373969129502E-1
 8.062198848475000E9     3.937054234765859E-1    4.194539305718653E-1   -3.306211687914576E-3    4.302333515449299E-3   -3.054674152805047E-3    4.551949307084473E-3    4.099068434768865E-1    3.006025533733346E-1
 8.062199427400000E9     3.935477037019425E-1    4.192968089369749E-1   -3.322935787370392E-3    4.292165904151771E-3   -3.087148407014300E-3    4.535281693427111E-3    4.100619292047351E-1    3.004587166112480E-1
 8.062200006325000E9     3.938044201497790E-1    4.192072268537501E-1   -3.343043048948896E-3    4.337940357219591E-3   -3.089388981093567E-3    4.532295141249526E-3    4.099764627014787E-1    3.003114583363706E-1
 8.062200585250000E9     3.937470447039855E-1    4.191045301476848E-1   -3.315501408866800E-3    4.365805649119540E-3   -3.079474766287352E-3    4.575218303760028E-3    4.100474877871995E-1    3.004570663640815E-1
 8.062201164175000E9     3.938568652660560E-1    4.189881940484108E-1   -3.330308109675055E-3    4.367669493973548E-3   -3.099970055005352E-3    4.634390365739806E-3    4.099107168675323E-1    3.003583896013662E-1
 8.062201743100000E9     3.940137771042854E-1    4.188896403015699E-1   -3.326302789185921E-3    4.377832524437174E-3   -3.096737460708817E-3    4.600794450231735E-3    4.100548249673344E-1    3.002707084275079E-1
 8.062202322025000E9     3.941483592877030E-1    4.187380652451430E-1   -3.370755178988081E-3    4.439836794412497E-3   -3.108844529102697E-3    4.669976032495792E-3    4.100513513509298E-1    3.003109741619495E-1
 8.062202900950000E9     3.943263882124287E-1    4.187121590588831E-1   -3.368490077418036E-3    4.424886713656456E-3   -3.131345314342478E-3    4.676482123935098E-3    4.102035072592016E-1    3.002664084573883E-1
 8.062203479875000E9     3.942672418538483E-1    4.185278555640156E-1   -3.384391934490358E-3    4.437282801243400E-3   -3.140778391591395E-3    4.694423036994305E-3    4.101064535209353E-1    3.003406806648359E-1
 8.062204058800000E9     3.944066180725903E-1    4.184202164059613E-1   -3.409376675902991E-3    4.490645890677801E-3   -3.144872924016865E-3    4.674068888784235E-3    4.100781357882243E-1    3.001690470679350E-1
 8.062204637725000E9     3.945135649305938E-1    4.183818763792402E-1   -3.406016076224367E-3    4.508228160541281E-3   -3.134883383499397E-3    4.774310612716458E-3    4.101069794714299E-1    3.003396683833952E-1
 8.062205216650000E9     3.946411765126118E-1    4.182147510375630E-1   -3.405509647216050E-3    4.475584966266022E-3   -3.180104629740951E-3    4.780235157888719E-3    4.102410986563844E-1    3.003794967118652E-1
 8.062205795575000E9     3.946618375267708E-1    4.181330127935487E-1   -3.431478106714382E-3    4.553455331428936E-3   -3.175980186594837E-3    4.766842384962834E-3    4.102313552418729E-1    3.002493601446733E-1
 8.062206374500000E9     3.948629896689470E-1    4.178496942449110E-1   -3.427532022432378E-3    4.540378053609292E-3   -3.209375067889141E-3    4.823820171762645E-3    4.101659576399467E-1    3.001216051453306E-1
 8.062206953425000E9     3.948244542507269E-1    4.177213024688872E-1   -3.435949239775401E-3    4.573886219007632E-3   -3.212489591191006E-3    4.846322540109557E-3    4.103119754459342E-1    3.000046817070801E-1
 8.062207532350000E9     3.951082825399940E-1    4.177855842265402E-1   -3.467622089550844E-3    4.628075364666469E-3   -3.179385085440853E-3    4.852648396607427E-3    4.103761778206446E-1    3.000816223496053E-1
 8.062208111275000E9     3.950108173986075E-1    4.175579490534990E-1   -3.453987696444347E-3    4.653276310936174E-3   -3.204136640214060E-3    4.891407994787054E-3    4.102344032379048E-1    2.999984098330452E-1
 8.062208690200000E9     3.952399227019008E-1    4.174586854782304E-1   -3.474007344873824E-3    4.653394794988521E-3   -3.215577224037841E-3    4.899866429756404E-3    4.102079009797175E-1    2.999071808796492E-1
 8.062209269125000E9     3.952029344752777E-1    4.171731987750368E-1   -3.496425204188243E-3    4.708402472505512E-3   -3.239790358092100E-3    4.916097642372084E-3    4.103161112617428E-1    2.999902539468933E-1
 8.062209848050000E9     3.952722514519809E-1    4.171820580499836E-1   -3.524981133922921E-3    4.691352094157292E-3   -3.220506341722033E-3    4.946075335846525E-3    4.104132684233979E-1    2.998659903713982E-1
 8.062210426975000E9     3.954522077056412E-1    4.170433283743389E-1   -3.535113430978217E-3    4.730320480042767E-3   -3.271722961695268E-3    4.967746067962186E-3    4.104332819806220E-1    2.998379578614740E-1
 8.062211005900000E9     3.955920966573347E-1    4.169312732288559E-1   -3.526913984407438E-3    4.763278611859866E-3   -3.249418812124920E-3    4.987275318658745E-3    4.103040404716582E-1    2.999086052404283E-1
 8.062211584825000E9     3.956053823251574E-1    4.167754753989549E-1   -3.536646077333132E-3    4.772816192322791E-3   -3.268947203718010E-3    5.005526612712792E-3    4.103882689406206E-1    2.998662847743691E-1
 8.062212163750000E9     3.957590899010028E-1    4.166433502455658E-1   -3.537762745319370E-3    4.801749392105962E-3   -3.261282261015514E-3    5.032179061865073E-3    4.105187465003982E-1    2.997265739139635E-1
 8.062212742675000E9     3.958959686965953E-1    4.164884895373657E-1   -3.551089623751212E-3    4.839882901965329E-3   -3.298297102176164E-3    5.087826322788564E-3    4.105195732949502E-1    2.996635120671881E-1
 8.062213321600000E9     3.959248481132706E-1    4.163588373141685E-1   -3.561879818536107E-3    4.863281919500759E-3   -3.342160434790846E-3    5.094763558487168E-3    4.105811952102551E-1    2.997341127928725E-1
 8.062213900525000E9     3.960727253977420E-1    4.161907383734277E-1   -3.569287533298029E-3    4.912139015873471E-3   -3.309287279953296E-3    5.141664728174691E-3    4.105501307778854E-1    2.998041003221924E-1
 8.062214479450000E9     3.960810287512120E-1    4.160116746370416E-1   -3.589338037691414E-3    4.904847822918850E-3   -3.323850512698129E-3    5.163986940562692E-3    4.106156103232303E-1    2.994546745910652E-1
 8.062215058375000E9     3.963154248152120E-1    4.159361043474658E-1   -3.612712384340345E-3    4.944229527016938E-3   -3.333256097078321E-3    5.226464270820966E-3    4.105992509466465E-1    2.996283854813614E-1
 8.062215637300000E9     3.963115448613057E-1    4.157071250113114E-1   -3.618544488687952E-3    4.949128883603693E-3   -3.353949195989346E-3    5.232669228452587E-3    4.105680009807609E-1    2.994575437857120E-1
 8.062216216225000E9     3.965292867284739E-1    4.155957417202569E-1   -3.633839305531806E-3    5.015149147318564E-3   -3.344925194763418E-3    5.287444537523436E-3    4.106113533639190E-1    2.994263425820103E-1
 8.062216795150000E9     3.966209101902595E-1    4.154039520024244E-1   -3.646927876643156E-3    5.016749554615922E-3   -3.350461516656774E-3    5.254217827584986E-3    4.106149999520625E-1    2.994971682197347E-1
 8.062217374075000E9     3.967147243272797E-1    4.154093098391005E-1   -3.664747689516667E-3    5.069339387995404E-3   -3.364995424441406E-3    5.310889421830893E-3    4.106396405686972E-1    2.993984206782188E-1
 8.062217953000000E9     3.967440970303528E-1    4.150180407648296E-1   -3.681067446299874E-3    5.091003090687121E-3   -3.414054661454525E-3    5.343349028362034E-3    4.107263473906880E-1    2.993636424844381E-1
 8.062218531925000E9     3.967984214156681E-1    4.149906952091515E-1   -3.676510385578079E-3    5.124904713746406E-3   -3.415677836243332E-3    5.396596787396082E-3    4.106294107214024E-1    2.993273986729197E-1
 8.062219110850000E9     3.971363131889045E-1    4.147162748844548E-1   -3.709033720636414E-3    5.164621269158115E-3   -3.411411113814735E-3    5.423807292184131E-3    4.107232594627506E-1    2.992698229093027E-1
 8.062219689775000E9     3.970502175925117E-1    4.145105525274118E-1   -3.700821960115127E-3    5.193400050620354E-3   -3.417977837245519E-3    5.456391367621959E-3    4.108047341045000E-1    2.991995504562668E-1
 8.062220268700000E9     3.973581161804284E-1    4.144686138267383E-1   -3.738351083347340E-3    5.214457557685671E-3   -3.443907108592516E-3    5.483084867509111E-3    4.107840309369209E-1    2.992437503039996E-1
 8.062220847625000E9     3.973596425942837E-1    4.141909418806675E-1   -3.739603805029381E-3    5.236487102952153E-3   -3.436379245982044E-3    5.545599406106935E-3    4.108261972748987E-1    2.992712813441502E-1
 8.062221426550000E9     3.975234015950129E-1    4.140295529033431E-1   -3.784267434130295E-3    5.297156466354677E-3   -3.474878369497691E-3    5.550429554338100E-3    4.108281933675048E-1    2.991160652506080E-1
 8.062222005475000E9     3.975499205327855E-1    4.138970390572670E-1   -3.761254935922872E-3    5.315349032033937E-3   -3.457518679637063E-3    5.576609408233202E-3    4.108274400159136E-1    2.990558739151560E-1
 8.062222584400000E9     3.977322257878490E-1    4.137890642335637E-1   -3.807887373601476E-3    5.336290507703419E-3   -3.481593597406866E-3    5.607066652262696E-3    4.108241481102412E-1    2.991311832924746E-1
 8.062223163325000E9     3.978248960629124E-1    4.135749689630442E-1   -3.805801103449026E-3    5.370458342906645E-3   -3.505261440391406E-3    5.667189740605323E-3    4.109537772874806E-1    2.990381910417136E-1
 8.062223742250000E9     3.980354485062894E-1    4.133650736746056E-1   -3.817687394724958E-3    5.412693849784002E-3   -3.531945422651803E-3    5.691871116937293E-3    4.108738265540029E-1    2.989592441370099E-1
