#  HZ   S   RI   R     50.00 
! Rohde & Schwarz Vector Network Analyzer 
! Rohde-Schwarz,ZNB20-2Port,1311601062101988,3.16
! Created: UTC 3/20/2024, 11:21:00 PM
! freq[Hz]                re:S11                  im:S11                  re:S21                  im:S21                  re:S12                  im:S12                  re:S22                  im:S22
 8.062187058000000E9     3.911978719902789E-1    4.224898042411891E-1   -2.993442335375111E-3    3.735865922242218E-3   -2.792968531417325E-3    3.904472215277146E-3    4.097002506063541E-1    3.012431944550296E-1
 8.062187608375000E9     3.912022775092956E-1    4.224475438758207E-1   -3.015639872023136E-3    3.723323447630555E-3   -2.768265779697494E-3    3.935259734767306E-3    4.096721274865900E-1    3.011287205631709E-1
 8.062188158750000E9     3.912649834951742E-1    4.222427478882048E-1   -3.007191819968965E-3    3.735126500631544E-3   -2.787821939992299E-3    3.905575040221825E-3    4.096704151544873E-1    3.011795127130082E-1
 8.062188709125000E9     3.912771384922260E-1    4.222173400096071E-1   -3.014948014427166E-3    3.759895550830034E-3   -2.841836700653091E-3    3.942759089786391E-3    4.097349330773432E-1    3.010605444131516E-1
 8.062189259500000E9     3.914850371516731E-1    4.221077910814272E-1   -3.036565812811854E-3    3.758206354860409E-3   -2.810019568844200E-3    3.966480560236937E-3    4.097175252358247E-1    3.010938128344300E-1
 8.062189809875000E9     3.916620080740639E-1    4.220686165401206E-1   -3.034436804690202E-3    3.783932455017717E-3   -2.828896995442916E-3    4.016985724878030E-3    4.097267798297886E-1    3.010648250290469E-1
 8.062190360250000E9     3.915858660522895E-1    4.219405617248635E-1   -3.038201321492226E-3    3.775764145094846E-3   -2.849328466378533E-3    4.031786668108316E-3    4.097406164401606E-1    3.012052152442565E-1
 8.062190910625000E9     3.918337951583662E-1    4.219014715252516E-1   -3.056095455472610E-3    3.804837705077086E-3   -2.838151622593035E-3    4.034547244654354E-3    4.097187108154935E-1    3.009639410807903E-1
 8.062191461000000E9     3.917228074608659E-1    4.218874264579863E-1   -3.044491269093068E-3    3.803662452429342E-3   -2.849220238741227E-3    4.044929872301217E-3    4.097960654797930E-1    3.010112702400216E-1
 8.062192011375000E9     3.918771822551971E-1    4.217015858897711E-1   -3.066887815958158E-3    3.795786560811179E-3   -2.864098214216471E-3    4.039977829048434E-3    4.099723815119280E-1    3.008602673815874E-1
 8.062192561750000E9     3.919695202261785E-1    4.216594923361331E-1   -3.056069875616835E-3    3.844822457875999E-3   -2.844850646729232E-3    4.063503615432438E-3    4.099086394256314E-1    3.009407037295082E-1
 8.062193112125000E9     3.919588096606495E-1    4.215113319024055E-1   -3.094690943434595E-3    3.855041795088019E-3   -2.869955682638067E-3    4.086120860261663E-3    4.100102254293000E-1    3.009040365905189E-1
 8.062193662500000E9     3.921401425675038E-1    4.216830823743500E-1   -3.086600595074431E-3    3.868369266722164E-3   -2.891001520330421E-3    4.080780106398939E-3    4.098959073384704E-1    3.009137432382721E-1
 8.062194212875000E9     3.921741945693990E-1    4.213743715802263E-1   -3.095582817290727E-3    3.880332966700346E-3   -2.887488040509320E-3    4.084443757359821E-3    4.100609453170537E-1    3.008313091875693E-1
 8.062194763250000E9     3.923511378572164E-1    4.212469958869589E-1   -3.081993926441154E-3    3.914855223063475E-3   -2.917165039908038E-3    4.108417063171593E-3    4.099132351293487E-1    3.006113794993290E-1
 8.062195313625000E9     3.923309472899693E-1    4.211599601650587E-1   -3.070054841945009E-3    3.909554505444045E-3   -2.907327320096947E-3    4.118598356004417E-3    4.099832009928684E-1    3.006768250209040E-1
 8.062195864000000E9     3.923197430601709E-1    4.212198089761664E-1   -3.104232580014865E-3    3.930826486958532E-3   -2.880096153747939E-3    4.124586836935990E-3    4.099405157793356E-1    3.006787858138089E-1
 8.062196414375000E9     3.924066070070971E-1    4.210496710567672E-1   -3.107427982602619E-3    3.895651986605117E-3   -2.910285232024346E-3    4.126282736133273E-3    4.098834020888029E-1    3.006732890551294E-1
 8.062196964750000E9     3.924681807826100E-1    4.210105066061631E-1   -3.124030516966619E-3    3.977276711262839E-3   -2.913708298430873E-3    4.171993569776158E-3    4.101141682199726E-1    3.006949906455162E-1
 8.062197515125000E9     3.925773768514627E-1    4.210017758757157E-1   -3.119426996279256E-3    3.956882312625637E-3   -2.931841037653494E-3    4.200136920317913E-3    4.101547325230401E-1    3.007601890123019E-1
 8.062198065500000E9     3.927046312446972E-1    4.207662950677414E-1   -3.148011868467010E-3    3.982853390134362E-3   -2.903775746711159E-3    4.188924470188524E-3    4.101397849122546E-1    3.005568843863173E-1
 8.062198615875000E9     3.927377412027059E-1    4.207656366008021E-1   -3.143686272237834E-3    3.989560967571614E-3   -2.925417615428666E-3    4.171302470709562E-3    4.100517129744692E-1    3.005910367703342E-1
 8.062199166250000E9     3.929284392776327E-1    4.205815498238902E-1   -3.144473308504141E-3    3.999823802709476E-3   -2.956645360700758E-3    4.200365883291650E-3    4.100925197700033E-1    3.004392598668598E-1
 8.062199716625000E9     3.928816792778247E-1    4.205291498470768E-1   -3.158255467378846E-3    4.015568696405270E-3   -2.925337213096170E-3    4.259482643655885E-3    4.101932001274989E-1    3.004571187040309E-1
 8.062200267000000E9     3.930796879577684E-1    4.203655733998941E-1   -3.189694309657898E-3    4.029371360158588E-3   -2.937870123937794E-3    4.244489368561186E-3    4.102291412117510E-1    3.002429389649176E-1
 8.062200817375000E9     3.929669662721840E-1    4.203782943303309E-1   -3.180746172591672E-3    4.061608020627268E-3   -2.977222351469107E-3    4.257579132988616E-3    4.100839697653076E-1    3.004283729416495E-1
 8.062201367750000E9     3.930831975422587E-1    4.203159024556370E-1   -3.203409398706813E-3    4.055980451314314E-3   -2.988197929589285E-3    4.304527778486720E-3    4.102453139548223E-1    3.004226453332353E-1
 8.062201918125000E9     3.933191761916158E-1    4.201799286025357E-1   -3.208054546416192E-3    4.075189854657480E-3   -2.988389980722623E-3    4.327608332541871E-3    4.101730022327305E-1    3.004312644542800E-1
 8.062202468500000E9     3.933263483952363E-1    4.200290297022248E-1   -3.201615276987161E-3    4.118162422734939E-3   -2.982056992438981E-3    4.319929337909769E-3    4.103088130769759E-1    3.004549561789036E-1
 8.062203018875000E9     3.933458110577358E-1    4.199709401355575E-1   -3.214502773595120E-3    4.097658534361986E-3   -3.015387338556550E-3    4.322883330741207E-3    4.102527764637053E-1    3.003385676762200E-1
 8.062203569250000E9     3.934203969198924E-1    4.198634662253605E-1   -3.237889095122860E-3    4.120915470976336E-3   -2.979967046034386E-3    4.338321316394112E-3    4.102638897746633E-1    3.003983073701335E-1
 8.062204119625000E9     3.933996592124786E-1    4.198112395252835E-1   -3.219560224760312E-3    4.150340454131537E-3   -2.970158031217360E-3    4.347694965015114E-3    4.103772744274274E-1    3.003076980469412E-1
 8.062204670000000E9     3.935562343738718E-1    4.195930894070310E-1   -3.263591175369233E-3    4.151989265590044E-3   -3.017548588988835E-3    4.385951143861520E-3    4.102928995577628E-1    3.002206993717748E-1
 8.062205220375000E9     3.936651985913562E-1    4.196947264402727E-1   -3.246960181936881E-3    4.166509122095193E-3   -3.032400046154972E-3    4.388646137784885E-3    4.104684685030722E-1    3.002623904424521E-1
 8.062205770750000E9     3.938391226585564E-1    4.195361032712583E-1   -3.259403489448676E-3    4.174731800975029E-3   -3.021492786032956E-3    4.445113949950076E-3    4.103809348849894E-1    3.001719985424657E-1
 8.062206321125000E9     3.938427950603408E-1    4.193228153736210E-1   -3.261465411162508E-3    4.202681060128996E-3   -3.056887078566902E-3    4.455315438009774E-3    4.103624109669513E-1    3.001062687142934E-1
 8.062206871500000E9     3.938599485597889E-1    4.193400035639933E-1   -3.259105207383005E-3    4.219189791115563E-3   -3.060423863795593E-3    4.427623618132034E-3    4.103527852704036E-1    3.000329289595463E-1
 8.062207421875000E9     3.940577917734260E-1    4.191577179982617E-1   -3.267909277891804E-3    4.248092303606812E-3   -3.015544435610089E-3    4.463812375375696E-3    4.103433625392423E-1    3.000907809044221E-1
 8.062207972250000E9     3.940782533509244E-1    4.190006519267034E-1   -3.271743265352635E-3    4.275411703972659E-3   -3.068650631765755E-3    4.502003229876602E-3    4.105467279605405E-1    2.999435743458128E-1
 8.062208522625000E9     3.941988595067292E-1    4.190275610283855E-1   -3.318477535875748E-3    4.262483160652331E-3   -3.059758797698865E-3    4.518256952827674E-3    4.104859878239223E-1    2.999521462608889E-1
 8.062209073000000E9     3.941165066265513E-1    4.189175247499687E-1   -3.291769387824439E-3    4.267340693739703E-3   -3.058782205080579E-3    4.540622395330531E-3    4.104338218647001E-1    3.000704798268085E-1
 8.062209623375000E9     3.942660083731044E-1    4.188053485328583E-1   -3.311466167754417E-3    4.318233787702228E-3   -3.101648332289575E-3    4.531466324764745E-3    4.106453824229702E-1    2.998981482538480E-1
 8.062210173750000E9     3.944902369025217E-1    4.187252584693831E-1   -3.336933244565401E-3    4.340299215912715E-3   -3.076751722419869E-3    4.602725054164617E-3    4.104302946463889E-1    2.998657368248697E-1
 8.062210724125000E9     3.945093886326894E-1    4.185153479359422E-1   -3.343738691294579E-3    4.339672019735992E-3   -3.104114904515511E-3    4.608243205955951E-3    4.106901878425417E-1    2.998326805667868E-1
 8.062211274500000E9     3.946426840853132E-1    4.184947990321322E-1   -3.324378038874580E-3    4.340483172949867E-3   -3.037010187037128E-3    4.598301422135399E-3    4.107073775354486E-1    2.998396552497560E-1
 8.062211824875000E9     3.946314557692499E-1    4.183927927835688E-1   -3.360474111727239E-3    4.373035306091249E-3   -3.097463031265227E-3    4.646995981056460E-3    4.105458965598861E-1    2.997107518249140E-1
 8.062212375250000E9     3.946881314524698E-1    4.183258118012388E-1   -3.371474920306835E-3    4.391267540812892E-3   -3.143325251506891E-3    4.618628672027288E-3    4.105986569899034E-1    2.998799316705600E-1
 8.062212925625000E9     3.947892811977706E-1    4.180390598765396E-1   -3.377743744774706E-3    4.426431533317401E-3   -3.129009290096282E-3    4.636147577530250E-3    4.106280412842572E-1    2.996343691304345E-1
 8.062213476000000E9     3.949428429214416E-1    4.180548158033286E-1   -3.384407068453250E-3    4.446981032527144E-3   -3.145254991948339E-3    4.694746611256578E-3    4.107100738256825E-1    2.995691873287463E-1
 8.062214026375000E9     3.950510877827291E-1    4.179971275268999E-1   -3.377908593002481E-3    4.448414229670194E-3   -3.129762375549624E-3    4.719135491442056E-3    4.106980044720207E-1    2.997173240728352E-1
 8.062214576750000E9     3.951324612979633E-1    4.178422868582277E-1   -3.421346146993255E-3    4.471866563383385E-3   -3.147358026003979E-3    4.692338599566179E-3    4.107565640881355E-1    2.997260809387083E-1
 8.062215127125000E9     3.952796039250347E-1    4.177527464541987E-1   -3.415245563953833E-3    4.504894398546156E-3   -3.183839443655699E-3    4.758440158454477E-3    4.107665461072525E-1    2.995545843064278E-1
 8.062215677500000E9     3.953126027724538E-1    4.175843317080818E-1   -3.409227746254397E-3    4.524570810722117E-3   -3.193714971284526E-3    4.752144113244330E-3    4.107755217428372E-1    2.996381023839992E-1
 8.062216227875000E9     3.954316906123060E-1    4.174558260099523E-1   -3.448468883360581E-3    4.526310681454238E-3   -3.179010438273773E-3    4.785350615154481E-3    4.107312317713541E-1    2.994541125608776E-1
 8.062216778250000E9     3.954413758756254E-1    4.172865298746238E-1   -3.441910696857716E-3    4.543314639758713E-3   -3.213777269649595E-3    4.800273114834195E-3    4.108995110419728E-1    2.994602055478122E-1
 8.062217328625000E9     3.955148932517942E-1    4.171534720695405E-1   -3.452829336977884E-3    4.580377322990529E-3   -3.191189660269220E-3    4.831432944713420E-3    4.108352125797387E-1    2.994807263170802E-1
 8.062217879000000E9     3.956941165298801E-1    4.169769993776887E-1   -3.479385254164166E-3    4.614099101782837E-3   -3.243121793919758E-3    4.875549468036793E-3    4.108324893722315E-1    2.992939113796580E-1
 8.062218429375000E9     3.957817606524894E-1    4.169581197175347E-1   -3.489140962215370E-3    4.633118747476091E-3   -3.213170761477072E-3    4.852858701358390E-3    4.109387034474108E-1    2.994494169799992E-1
 8.062218979750000E9     3.958360730324835E-1    4.169078796592780E-1   -3.507274439460869E-3    4.672195888023860E-3   -3.246301967729252E-3    4.916711901219737E-3    4.109428591033294E-1    2.994154253990423E-1
 8.062219530125000E9     3.959056205048008E-1    4.166755754022013E-1   -3.498247244822589E-3    4.684888645737441E-3   -3.243420855569127E-3    4.959752444631387E-3    4.108763492338269E-1    2.993526994771231E-1
 8.062220080500000E9     3.960379444146038E-1    4.166096207724245E-1   -3.502076774800713E-3    4.685754297012732E-3   -3.250941660936790E-3    4.960855870604021E-3    4.110505831235547E-1    2.993407688716842E-1
 8.062220630875000E9     3.961685627217035E-1    4.163751833494297E-1   -3.513271767219435E-3    4.711146325825807E-3   -3.276917023173633E-3    4.941176483320460E-3    4.109483799748225E-1    2.992197383673916E-1
 8.062221181250000E9     3.961552842168548E-1    4.163044528802157E-1   -3.549951829534319E-3    4.730875737950196E-3   -3.277010429729496E-3    4.985650104051238E-3    4.107751512608021E-1    2.992420987026200E-1
 8.062221731625000E9     3.963158287809419E-1    4.161848211764790E-1   -3.541503119098370E-3    4.815626768404400E-3   -3.273392733398083E-3    5.013641764574910E-3    4.109263266395670E-1    2.991604133909436E-1
 8.062222282000000E9     3.964149196276232E-1    4.159076441802478E-1   -3.573901410681854E-3    4.771024253323648E-3   -3.312718045140320E-3    5.027136266859202E-3    4.109034554550395E-1    2.991415603379522E-1
 8.062222832375000E9     3.966100475586089E-1    4.158974313649511E-1   -3.570793452885141E-3    4.821762672842882E-3   -3.289801693586958E-3    5.055435113942380E-3    4.109416855057834E-1    2.991679735211549E-1
 8.062223382750000E9     3.966557086165100E-1    4.158032563898089E-1   -3.576148902281901E-3    4.831948763367268E-3   -3.308864987208201E-3    5.085145600908845E-3    4.110567349332262E-1    2.991535072735672E-1
 8.062223933125000E9     3.966831417469017E-1    4.157311904688830E-1   -3.596952071184513E-3    4.887868261189135E-3   -3.374729319225376E-3    5.091423400879783E-3    4.110308542389869E-1    2.990600033198215E-1
 8.062224483500000E9     3.968204115943110E-1    4.154338700936712E-1   -3.610693505502182E-3    4.901416152705680E-3   -3.301680452851377E-3    5.146237796685019E-3    4.110877584735726E-1    2.989634488966519E-1
 8.062225033875000E9     3.969830771390779E-1    4.154069299464793E-1   -3.614033413137490E-3    4.919437405217302E-3   -3.371877827237998E-3    5.213061884408661E-3    4.110720505419225E-1    2.989900033425209E-1
 8.062225584250000E9     3.970425896760685E-1    4.152560417861339E-1   -3.626331536448752E-3    4.949662783180406E-3   -3.365725747847745E-3    5.216441041156062E-3    4.110956531331298E-1    2.990077644108714E-1
 8.062226134625000E9     3.971850945952209E-1    4.150075526441838E-1   -3.642099317645082E-3    5.010171315730449E-3   -3.392558158745629E-3    5.226420190309892E-3    4.112140733459156E-1    2.989308846587966E-1
 8.062226685000000E9     3.972773791893386E-1    4.149362700849583E-1   -3.682254848069989E-3    5.000691421441435E-3   -3.369822014739170E-3    5.271329787417576E-3    4.111534652787125E-1    2.989796051526156E-1
 8.062227235375000E9     3.973561074457808E-1    4.148525614592791E-1   -3.676774024118592E-3    5.051817846710552E-3   -3.412464610104422E-3    5.302205180840677E-3    4.112539833450097E-1    2.988050908660128E-1
 8.062227785750000E9     3.973898241312294E-1    4.145924193858850E-1   -3.661052278593996E-3    5.068722895566846E-3   -3.396055724394591E-3    5.369073415163856E-3    4.111670306316630E-1    2.988322454594776E-1
 8.062228336125000E9     3.975474040694059E-1    4.144140214981559E-1   -3.686431334221518E-3    5.085057378299187E-3   -3.387793682306590E-3    5.361905718752945E-3    4.112406407461718E-1    2.987507850140376E-1
 8.062228886500000E9     3.977598966400507E-1    4.143721414130129E-1   -3.692411701859832E-3    5.125879936093930E-3   -3.388914954563561E-3    5.407478283118175E-3    4.113581126439110E-1    2.986798886098297E-1
 8.062229436875000E9     3.977743804869464E-1    4.141403995564908E-1   -3.701779565765027E-3    5.131629238916214E-3   -3.465420542138742E-3    5.453258815897845E-3    4.113335126264780E-1    2.986819389860477E-1
 8.062229987250000E9     3.978301205643996E-1    4.139817536801938E-1   -3.727974814258873E-3    5.216562835062583E-3   -3.419361694299323E-3    5.462656323485564E-3    4.113311707469254E-1    2.986638907822755E-1
 8.062230537625000E9     3.979807861066787E-1    4.138256599262209E-1   -3.741314125114423E-3    5.222429460515715E-3   -3.480147015718867E-3    5.474206605715876E-3    4.113527034967497E-1    2.986605455639700E-1
 8.062231088000000E9     3.981196903399906E-1    4.138176647565228E-1   -3.735276780120675E-3    5.249440064643626E-3   -3.417754136418628E-3    5.502736185680874E-3    4.113609177331556E-1    2.986100060323211E-1
 8.062231638375000E9     3.981989563527831E-1    4.134655703299126E-1   -3.765757953128140E-3    5.287803455670458E-3   -3.497945097274926E-3    5.547640832662476E-3    4.113782792148398E-1    2.986200355430972E-1
 8.062232188750000E9     3.982665091738505E-1    4.134688000194562E-1   -3.778570557513795E-3    5.313889568793724E-3   -3.504328032031693E-3    5.594658111156238E-3    4.113962665362654E-1    2.983876357406118E-1
 8.062232739125000E9     3.984050959787915E-1    4.132700545006363E-1   -3.806234192804480E-3    5.337531593400306E-3   -3.477020225122016E-3    5.629792333170635E-3    4.114310795547613E-1    2.985720023612071E-1
 8.062233289500000E9     3.985758495471486E-1    4.130045212292133E-1   -3.809254770033614E-3    5.370348815289808E-3   -3.538619114105942E-3    5.635576464780541E-3    4.113940058495992E-1    2.985520830886373E-1
 8.062233839875000E9     3.986853264302710E-1    4.128656401212080E-1   -3.842055537615008E-3    5.395175168377616E-3   -3.520629088489442E-3    5.679123498038901E-3    4.114062040256147E-1    2.985028421981495E-1
 8.062234390250000E9     3.987889141924940E-1    4.126276886941161E-1   -3.846080527441855E-3    5.456114475802070E-3   -3.537575507939904E-3    5.743927103967515E-3    4.114722124799488E-1    2.983746289362577E-1
 8.062234940625000E9     3.988830249813998E-1    4.124523863921162E-1   -3.871001476127504E-3    5.442588012991645E-3   -3.555671185076327E-3    5.786741426879081E-3    4.115120729401660E-1    2.982831855295445E-1
 8.062235491000000E9     3.990635548343322E-1    4.122641087611120E-1   -3.880522745590477E-3    5.518273793049012E-3   -3.545711163461186E-3    5.787254513642003E-3    4.114619865546413E-1    2.983406395709702E-1
 8.062236041375000E9     3.991631312785981E-1    4.121137269567821E-1   -3.901327980269754E-3    5.552875190613695E-3   -3.587839360095246E-3    5.821135691770854E-3    4.116190961657036E-1    2.983222059320220E-1
 8.062236591750000E9     3.993278667902146E-1    4.119207638975347E-1   -3.872751694074911E-3    5.590686697341159E-3   -3.592549063793140E-3    5.890625061298910E-3    4.114879604016952E-1    2.982212432888721E-1
