#  HZ   S   RI   R     50.00 
! Rohde & Schwarz Vector Network Analyzer 
! Rohde-Schwarz,ZNB20-2Port,1311601062101988,3.16
! Created: UTC 3/20/2024, 11:21:55 PM
! freq[Hz]                re:S11                  im:S11                  re:S21                  im:S21                  re:S12                  im:S12                  re:S22                  im:S22
 8.062250999000000E9     3.948361626145815E-1    4.190453815062166E-1   -3.091031121779106E-3    3.860051443924596E-3   -2.840984187341877E-3    4.076114052298466E-3    4.126320953062124E-1    2.976091941500886E-1
 8.062251509750000E9     3.950062324582906E-1    4.189011746061218E-1   -3.074102936202844E-3    3.857017526652776E-3   -2.873456471287293E-3    4.088299920614346E-3    4.126199557285123E-1    2.974979316413542E-1
 8.062252020500000E9     3.951070775613588E-1    4.188215470961957E-1   -3.074772050095216E-3    3.909968910158414E-3   -2.880176200011182E-3    4.105679316011874E-3    4.126795612468228E-1    2.974833063610258E-1
 8.062252531250000E9     3.950689450077449E-1    4.187498060383656E-1   -3.085900728710678E-3    3.891461022118435E-3   -2.860330884593658E-3    4.132609825071753E-3    4.126795965579697E-1    2.975294452708209E-1
 8.062253042000000E9     3.949947859060055E-1    4.188183060401676E-1   -3.097847085202890E-3    3.915546846224226E-3   -2.892679210745686E-3    4.137437102718384E-3    4.127769328160024E-1    2.973935132781027E-1
 8.062253552750000E9     3.952211094303637E-1    4.185672132281862E-1   -3.093527115207662E-3    3.924852075932638E-3   -2.881287334226316E-3    4.162913090715331E-3    4.126673767575738E-1    2.973589962570642E-1
 8.062254063500000E9     3.952538144203833E-1    4.186143157142637E-1   -3.114160368724374E-3    3.953173475615831E-3   -2.918761490667729E-3    4.130455560321977E-3    4.127351660429661E-1    2.973608404065353E-1
 8.062254574250000E9     3.953750782550892E-1    4.185138333342129E-1   -3.088211365280702E-3    3.954339439406450E-3   -2.915019599104992E-3    4.140848840576643E-3    4.127810142472806E-1    2.973734563634080E-1
 8.062255085000000E9     3.954688669133464E-1    4.184243197129215E-1   -3.114028059882014E-3    3.950157000969211E-3   -2.896058538134279E-3    4.204374550078609E-3    4.126998763547029E-1    2.973957070562744E-1
 8.062255595750000E9     3.954823083084685E-1    4.182957836750293E-1   -3.150141692960495E-3    3.961975697835001E-3   -2.936949479009284E-3    4.180375914808754E-3    4.127499914124720E-1    2.973845392352691E-1
 8.062256106500000E9     3.955142164006522E-1    4.181776905364594E-1   -3.122903558205795E-3    3.989716458910423E-3   -2.943337258087163E-3    4.203167334719990E-3    4.128865280578388E-1    2.972723042740281E-1
 8.062256617250000E9     3.956260773432141E-1    4.181161072379975E-1   -3.143635047850203E-3    4.037457625186943E-3   -2.911337850311593E-3    4.190739315742060E-3    4.129882333546472E-1    2.974126354396920E-1
 8.062257128000000E9     3.956690691693838E-1    4.181653945120147E-1   -3.160424119892144E-3    4.011282329060895E-3   -2.925242181323413E-3    4.253622395618726E-3    4.128785873029384E-1    2.973085829484990E-1
 8.062257638750000E9     3.958939794031285E-1    4.179643000039511E-1   -3.149115961036346E-3    4.026392527874229E-3   -2.940823708463399E-3    4.247123156207804E-3    4.129475004308591E-1    2.971818249225897E-1
 8.062258149500000E9     3.959037312724465E-1    4.179059285030135E-1   -3.151679661879928E-3    4.030485127471659E-3   -2.927720394458639E-3    4.250599715732267E-3    4.129089960442736E-1    2.971999689997593E-1
 8.062258660250000E9     3.959792517736823E-1    4.178492425107889E-1   -3.198048068091128E-3    4.070921564783479E-3   -2.943432577266495E-3    4.268796055735611E-3    4.127947328126874E-1    2.970858645227887E-1
 8.062259171000000E9     3.960845921517342E-1    4.177510202145625E-1   -3.178107484880241E-3    4.078670694263716E-3   -2.960790654021075E-3    4.275408128003594E-3    4.131197143973293E-1    2.971116788658955E-1
 8.062259681750000E9     3.961134678637009E-1    4.175881511217486E-1   -3.191037236238323E-3    4.052185104165635E-3   -3.011485937524757E-3    4.287816727967837E-3    4.129720902022654E-1    2.970913795922501E-1
 8.062260192500000E9     3.962109375903443E-1    4.174807224014516E-1   -3.195156418633137E-3    4.073470446132937E-3   -2.981625892565751E-3    4.316724962686979E-3    4.129636363685698E-1    2.970061148131319E-1
 8.062260703250000E9     3.964335304522623E-1    4.174824877442997E-1   -3.202466752481776E-3    4.118061074068189E-3   -2.966041414071079E-3    4.315457044221336E-3    4.128292163129094E-1    2.972107865533799E-1
 8.062261214000000E9     3.962513556028195E-1    4.174310680778763E-1   -3.170932083449650E-3    4.101707540588044E-3   -2.970705304437987E-3    4.332907740039802E-3    4.129194219709436E-1    2.970825697981851E-1
 8.062261724750000E9     3.963707768015106E-1    4.173271202844279E-1   -3.199234553271096E-3    4.149294915811936E-3   -2.953742562806414E-3    4.388386169701348E-3    4.129284491675847E-1    2.970137098622019E-1
 8.062262235500000E9     3.965033145875963E-1    4.172518925533219E-1   -3.240297889122677E-3    4.171313667060720E-3   -3.000258916520365E-3    4.386209285783365E-3    4.130980014064358E-1    2.969737323773933E-1
 8.062262746250000E9     3.965744067902909E-1    4.171166867458899E-1   -3.229093939904816E-3    4.164169255038308E-3   -3.017314546332617E-3    4.399422540563766E-3    4.130536160469753E-1    2.968490981123776E-1
 8.062263257000000E9     3.965399280559241E-1    4.169799560316732E-1   -3.244966238975382E-3    4.188710686047098E-3   -3.008767865060535E-3    4.426385321451352E-3    4.133089769029075E-1    2.967140338205162E-1
 8.062263767750000E9     3.967189553616576E-1    4.168812126704961E-1   -3.260075847049306E-3    4.190076197670214E-3   -3.024873144291442E-3    4.430400539893826E-3    4.131232057078900E-1    2.968755253064213E-1
 8.062264278500000E9     3.968264294781829E-1    4.168615459266348E-1   -3.267314550133944E-3    4.233910916797928E-3   -3.039600101686196E-3    4.433810956822887E-3    4.132098507916310E-1    2.970040705570074E-1
 8.062264789250000E9     3.968531848605625E-1    4.168169974691835E-1   -3.258530562490990E-3    4.249606053565533E-3   -3.044434843409169E-3    4.487028860830709E-3    4.130749895267620E-1    2.967889135905624E-1
 8.062265300000000E9     3.968442368256375E-1    4.166524077277664E-1   -3.268262487942827E-3    4.254871192796127E-3   -3.035318827297591E-3    4.480673277053775E-3    4.132458380665968E-1    2.967155053007623E-1
 8.062265810750000E9     3.969951842624738E-1    4.165468165955812E-1   -3.271308637744543E-3    4.264951478057836E-3   -3.082928885213787E-3    4.487405136181823E-3    4.131039822199114E-1    2.967668524188860E-1
 8.062266321500000E9     3.970248932245432E-1    4.165229344076036E-1   -3.288684862734121E-3    4.284805603197612E-3   -3.094048002516210E-3    4.507428171317143E-3    4.131543226468205E-1    2.966617939602669E-1
 8.062266832250000E9     3.971834933006411E-1    4.163323953954154E-1   -3.329823354662123E-3    4.315255412342626E-3   -3.053586499689995E-3    4.533222550587163E-3    4.132761720521043E-1    2.967153433026134E-1
 8.062267343000000E9     3.973256667198065E-1    4.161559957366978E-1   -3.306657172239043E-3    4.314472983040084E-3   -3.071839838028852E-3    4.510882425361712E-3    4.132060682455133E-1    2.966097733996294E-1
 8.062267853750000E9     3.974506119717068E-1    4.161892303906396E-1   -3.307866689938038E-3    4.344888993804859E-3   -3.063491335023239E-3    4.552250864117709E-3    4.133578462400694E-1    2.965232093963014E-1
 8.062268364500000E9     3.973676803246226E-1    4.162259341675693E-1   -3.332569084580505E-3    4.355582419324716E-3   -3.062368548145513E-3    4.558615599203533E-3    4.131935010818473E-1    2.965625128588536E-1
 8.062268875250000E9     3.974457249665533E-1    4.159561220714010E-1   -3.326321737983874E-3    4.372138181087921E-3   -3.112704703661317E-3    4.608947826757360E-3    4.133404679440291E-1    2.963594212425347E-1
 8.062269386000000E9     3.974453723747761E-1    4.158529263895401E-1   -3.352740172969426E-3    4.374114091064147E-3   -3.146970774509282E-3    4.590307908374835E-3    4.132772322393829E-1    2.965011740578169E-1
 8.062269896750000E9     3.976648026686083E-1    4.157834647325316E-1   -3.338619830650782E-3    4.417039362983108E-3   -3.142347994580421E-3    4.618667338180448E-3    4.132890410593872E-1    2.964597081126572E-1
 8.062270407500000E9     3.977448740869224E-1    4.156526530016389E-1   -3.346878095831681E-3    4.410117334298387E-3   -3.099456429847324E-3    4.624917605909582E-3    4.133870711013218E-1    2.964608932888756E-1
 8.062270918250000E9     3.977442774560734E-1    4.155580766404342E-1   -3.364799180608060E-3    4.445166155629386E-3   -3.106222972667351E-3    4.676523307132618E-3    4.134141152328765E-1    2.963597618821743E-1
 8.062271429000000E9     3.978116587163495E-1    4.155009847838601E-1   -3.394340396339525E-3    4.478453765415251E-3   -3.164745987410567E-3    4.704086125077362E-3    4.133467533685571E-1    2.964499032252538E-1
 8.062271939750000E9     3.980447336557658E-1    4.155262971984620E-1   -3.404930757251242E-3    4.482903594497282E-3   -3.130394320199433E-3    4.704786753165146E-3    4.133950845413010E-1    2.963841072234591E-1
 8.062272450500000E9     3.980357155455080E-1    4.152502774095906E-1   -3.414550434877140E-3    4.494985462068041E-3   -3.161566945398972E-3    4.698450485299556E-3    4.134571654445373E-1    2.963961253836459E-1
 8.062272961250000E9     3.982629944627663E-1    4.152525415227669E-1   -3.417290468679406E-3    4.505193439432853E-3   -3.153325537685791E-3    4.741353343132740E-3    4.132813824366946E-1    2.962431852761175E-1
 8.062273472000000E9     3.982089300288802E-1    4.150789655884831E-1   -3.415090473362676E-3    4.543508977680915E-3   -3.168781976924069E-3    4.790855359578314E-3    4.135118989045500E-1    2.963183554071203E-1
 8.062273982750000E9     3.982770054149616E-1    4.149561844224599E-1   -3.439202398081537E-3    4.543745490135124E-3   -3.158363498791238E-3    4.798213002601197E-3    4.134473685951958E-1    2.962096081257346E-1
 8.062274493500000E9     3.984240384349988E-1    4.148540138553546E-1   -3.440038579209558E-3    4.549513083240504E-3   -3.178530392624445E-3    4.806725174559924E-3    4.135494716541420E-1    2.961681999745555E-1
 8.062275004250000E9     3.985098759075811E-1    4.148310487072236E-1   -3.470992161993891E-3    4.604859945933826E-3   -3.194168936866312E-3    4.824723974826407E-3    4.135177303013177E-1    2.961404555347993E-1
 8.062275515000000E9     3.986318702900963E-1    4.146461573425054E-1   -3.465821483228667E-3    4.638507333249981E-3   -3.223016372349482E-3    4.857074988418201E-3    4.135957551209716E-1    2.961573775428300E-1
 8.062276025750000E9     3.986357966381061E-1    4.144505509501741E-1   -3.489494604250556E-3    4.627571668854872E-3   -3.227668605180954E-3    4.845575826223577E-3    4.135434384417611E-1    2.961041166182981E-1
 8.062276536500000E9     3.987351095513494E-1    4.143268422336263E-1   -3.485179400555429E-3    4.645697544133297E-3   -3.218545828862854E-3    4.900696918569166E-3    4.134815974727097E-1    2.960911823247260E-1
 8.062277047250000E9     3.988446735088743E-1    4.141695393215211E-1   -3.487949923792865E-3    4.672652474771769E-3   -3.226605606821426E-3    4.902883433392058E-3    4.135554024847917E-1    2.960352104010699E-1
 8.062277558000000E9     3.988867256467160E-1    4.142400556587923E-1   -3.498502186397803E-3    4.693327257085808E-3   -3.245870880061736E-3    4.903720307868106E-3    4.134633631208094E-1    2.960435762880638E-1
 8.062278068750000E9     3.990006244315141E-1    4.140282990978197E-1   -3.508869902631499E-3    4.719303743258830E-3   -3.258145402382674E-3    4.947690928091769E-3    4.136129448617406E-1    2.960324867626523E-1
 8.062278579500000E9     3.990318862575333E-1    4.139010413491879E-1   -3.513828186334608E-3    4.719114654395578E-3   -3.268310822334216E-3    4.955079473297631E-3    4.137024258730263E-1    2.959574003316980E-1
 8.062279090250000E9     3.991921062442811E-1    4.138034720272757E-1   -3.530015989998107E-3    4.761681927267688E-3   -3.286607765651977E-3    4.969071505086032E-3    4.135895865693216E-1    2.958426246197051E-1
 8.062279601000000E9     3.995029820676086E-1    4.136771582890481E-1   -3.550248810510888E-3    4.770037906454551E-3   -3.258581503322148E-3    5.017563544664223E-3    4.136414927932250E-1    2.958371476139197E-1
 8.062280111750000E9     3.993580767266952E-1    4.135396761216782E-1   -3.569804318906224E-3    4.790856627234100E-3   -3.280640290438827E-3    5.043462063237883E-3    4.136702300665188E-1    2.958618206642425E-1
 8.062280622500000E9     3.995032779559839E-1    4.133432117039773E-1   -3.582528334240650E-3    4.820328616086244E-3   -3.335000977865541E-3    5.050509853728413E-3    4.138874190954897E-1    2.957702546631800E-1
 8.062281133250000E9     3.996020864520841E-1    4.132779329859762E-1   -3.559909443972334E-3    4.862373977126356E-3   -3.315552277395173E-3    5.079687903783722E-3    4.137024141764411E-1    2.957691171085734E-1
 8.062281644000000E9     3.997285734738353E-1    4.132716987228507E-1   -3.572844876827415E-3    4.875481503704204E-3   -3.313962102570013E-3    5.084813497757165E-3    4.138041468874805E-1    2.957129424643386E-1
 8.062282154750000E9     3.998072251715800E-1    4.130475815510588E-1   -3.592577157947207E-3    4.922931668058176E-3   -3.358738900169341E-3    5.160295059534786E-3    4.137485827495307E-1    2.958076358783028E-1
 8.062282665500000E9     3.998500922901673E-1    4.129457422116665E-1   -3.616588085702079E-3    4.936873743631813E-3   -3.306449177411270E-3    5.186248166891554E-3    4.137438537375385E-1    2.957807366838341E-1
 8.062283176250000E9     3.999921601196831E-1    4.128516054380989E-1   -3.596486780899840E-3    4.956346041444985E-3   -3.338312642078519E-3    5.220959226389248E-3    4.138775181693265E-1    2.956735239915075E-1
 8.062283687000000E9     4.000385238796274E-1    4.127536118266131E-1   -3.646890447773783E-3    4.990113400400000E-3   -3.341541198807131E-3    5.246128692695510E-3    4.137720132557789E-1    2.956485558883048E-1
 8.062284197750000E9     4.000789170402849E-1    4.125917275018012E-1   -3.670196949360192E-3    4.993078035387031E-3   -3.395613993027812E-3    5.250538568750689E-3    4.139215539176316E-1    2.956445670707714E-1
 8.062284708500000E9     4.002319788640459E-1    4.124951544684367E-1   -3.672728825007494E-3    5.023657086841336E-3   -3.369737511683293E-3    5.265392851204470E-3    4.139387241775809E-1    2.956286277474218E-1
 8.062285219250000E9     4.003781281545482E-1    4.123011968985369E-1   -3.689202562446319E-3    5.038853966292422E-3   -3.385493628641682E-3    5.307478600417499E-3    4.138950669538111E-1    2.954665933989136E-1
 8.062285730000000E9     4.003765462458513E-1    4.121000669956016E-1   -3.704430267443825E-3    5.080143771236943E-3   -3.394076311222018E-3    5.358695742101959E-3    4.139031273012253E-1    2.956236231624075E-1
 8.062286240750000E9     4.004894757871531E-1    4.120288923645176E-1   -3.718228846600928E-3    5.099837713198998E-3   -3.413218795880965E-3    5.316295461518828E-3    4.139680044203523E-1    2.954218605186372E-1
 8.062286751500000E9     4.006265620482924E-1    4.118802622254575E-1   -3.697549183149477E-3    5.141955988004359E-3   -3.422922728130435E-3    5.348108316608821E-3    4.139792161532994E-1    2.954633334721802E-1
 8.062287262250000E9     4.008158614749386E-1    4.117784774054324E-1   -3.733866069141198E-3    5.157809383689925E-3   -3.406675216326860E-3    5.393363672535316E-3    4.139128424828762E-1    2.954809736475804E-1
 8.062287773000000E9     4.009050755863756E-1    4.116816826117098E-1   -3.745710803556514E-3    5.178494248362827E-3   -3.418697890543344E-3    5.420931150169938E-3    4.140945733402003E-1    2.953687838656347E-1
 8.062288283750000E9     4.009612063937359E-1    4.114378478920956E-1   -3.766616120066283E-3    5.206753484558635E-3   -3.447981662607135E-3    5.481363214331479E-3    4.140486007230493E-1    2.953787726760225E-1
 8.062288794500000E9     4.010648369718936E-1    4.112382321167381E-1   -3.769073408682527E-3    5.253959464646966E-3   -3.488545942328151E-3    5.500247000136580E-3    4.140997559474970E-1    2.952660586204103E-1
 8.062289305250000E9     4.011145599610768E-1    4.111640850131933E-1   -3.787966702785886E-3    5.258741650086872E-3   -3.460831700950033E-3    5.522336125726279E-3    4.141187841582555E-1    2.953143188843039E-1
 8.062289816000000E9     4.011854262110606E-1    4.109399515915378E-1   -3.806289422771046E-3    5.315312513151814E-3   -3.513127781461922E-3    5.524777098685933E-3    4.139741299945123E-1    2.952893804032448E-1
 8.062290326750000E9     4.013170665483978E-1    4.108647580138557E-1   -3.816698538468128E-3    5.332063860066373E-3   -3.500015230204665E-3    5.556681185847429E-3    4.140563059506782E-1    2.951852366239928E-1
 8.062290837500000E9     4.015974706856502E-1    4.105509747246304E-1   -3.833239009055968E-3    5.373281871763535E-3   -3.500300157673162E-3    5.619443073421405E-3    4.142203066432713E-1    2.951642919456144E-1
 8.062291348250000E9     4.015762607935766E-1    4.104520053962576E-1   -3.841801115638437E-3    5.399462470459243E-3   -3.529454602675541E-3    5.613496881760877E-3    4.142048991348410E-1    2.950755242083601E-1
 8.062291859000000E9     4.016354738216423E-1    4.103590015962298E-1   -3.866992517926659E-3    5.420337543216864E-3   -3.552499309856594E-3    5.689141391759493E-3    4.141901149934492E-1    2.951221546022854E-1
 8.062292369750000E9     4.017717498159146E-1    4.101601735908353E-1   -3.861922198579267E-3    5.458451032641577E-3   -3.506385078039395E-3    5.717448982024777E-3    4.141041117473166E-1    2.950967137252076E-1
 8.062292880500000E9     4.018609804939729E-1    4.100347504908539E-1   -3.873475990089552E-3    5.512200415119801E-3   -3.597131813704464E-3    5.736572228774951E-3    4.142539690441030E-1    2.951601898895962E-1
 8.062293391250000E9     4.020025766561856E-1    4.098558008477441E-1   -3.898601225259458E-3    5.522905169874616E-3   -3.593168658769338E-3    5.776844300604799E-3    4.143454961759198E-1    2.949420875263280E-1
 8.062293902000000E9     4.022134543376465E-1    4.096147480817346E-1   -3.921656405783906E-3    5.556319612688331E-3   -3.603298676169350E-3    5.805293044302830E-3    4.142915911214984E-1    2.950507680556885E-1
 8.062294412750000E9     4.023262764239520E-1    4.093896424807532E-1   -3.927320436528533E-3    5.584906740444474E-3   -3.588969333361279E-3    5.859669233052258E-3    4.142297309028388E-1    2.950244950264372E-1
 8.062294923500000E9     4.023468502481686E-1    4.094151465932607E-1   -3.905247625281763E-3    5.629047973479120E-3   -3.605490351980020E-3    5.886909583437397E-3    4.142497898080956E-1    2.949978927258145E-1
 8.062295434250000E9     4.024721640081380E-1    4.090685337234058E-1   -3.954777453056238E-3    5.650620602122099E-3   -3.614255502412812E-3    5.958834864334948E-3    4.143031739272685E-1    2.949114563679245E-1
 8.062295945000000E9     4.025605946506732E-1    4.088947757419090E-1   -3.966652580880443E-3    5.697118633029963E-3   -3.657726277445108E-3    5.942942310407829E-3    4.142604056946020E-1    2.949813665726996E-1
 8.062296455750000E9     4.026513412341217E-1    4.087112181351495E-1   -3.943602382026280E-3    5.730696351086754E-3   -3.611213845338706E-3    6.010145123574949E-3    4.142948483173917E-1    2.948338966483866E-1
 8.062296966500000E9     4.028647396027772E-1    4.085630804096871E-1   -3.964709113867154E-3    5.781611196766226E-3   -3.669555455818417E-3    6.037756975745034E-3    4.142856245062396E-1    2.949514969023748E-1
