#  HZ   S   RI   R     50.00 
! Rohde & Schwarz Vector Network Analyzer 
! Rohde-Schwarz,ZNB20-2Port,1311601062101988,3.16
! Created: UTC 3/20/2024, 11:21:58 PM
! freq[Hz]                re:S11                  im:S11                  re:S21                  im:S21                  re:S12                  im:S12                  re:S22                  im:S22
 8.062254108000000E9     3.947225043612091E-1    4.191010956863312E-1   -3.024152766886847E-3    3.843925001602057E-3   -2.821375183476417E-3    4.021068832869149E-3    4.127860532767612E-1    2.972775160496957E-1
 8.062254621300000E9     3.950278539689780E-1    4.190199584945178E-1   -3.038038875674392E-3    3.855065220866642E-3   -2.842214269557908E-3    4.062832158527667E-3    4.128092637408969E-1    2.973921582669358E-1
 8.062255134600000E9     3.950936933141179E-1    4.188041589988562E-1   -3.061643442255370E-3    3.852658544616681E-3   -2.853371276916105E-3    4.055436833978418E-3    4.128610829340856E-1    2.973159950431817E-1
 8.062255647900000E9     3.951833792125495E-1    4.187882837444093E-1   -3.050032902520434E-3    3.876342169970790E-3   -2.863834683409471E-3    4.117735423740563E-3    4.127484949632128E-1    2.971227919356169E-1
 8.062256161200000E9     3.951625020864179E-1    4.187509767502185E-1   -3.089013727340834E-3    3.909059761689031E-3   -2.855048325573427E-3    4.057405808259749E-3    4.127882595189425E-1    2.972182590992133E-1
 8.062256674500000E9     3.952874445581788E-1    4.186132702290162E-1   -3.077566310853039E-3    3.905189799103735E-3   -2.870733435291755E-3    4.096902331674110E-3    4.128663767939377E-1    2.972818609533510E-1
 8.062257187800000E9     3.953349809621316E-1    4.186320203453504E-1   -3.062619612785053E-3    3.928994502816209E-3   -2.859049946626637E-3    4.102298619909928E-3    4.129341829537055E-1    2.970697457110228E-1
 8.062257701100000E9     3.953823178157977E-1    4.183715144855240E-1   -3.095724164470840E-3    3.915411581370236E-3   -2.892423396071650E-3    4.113950656467423E-3    4.127724819046512E-1    2.972099087042398E-1
 8.062258214400000E9     3.955788580452099E-1    4.183534445011876E-1   -3.090839775105660E-3    3.924324522555968E-3   -2.870567472607379E-3    4.143806928199934E-3    4.127794316181078E-1    2.971789233875460E-1
 8.062258727700000E9     3.955905795491399E-1    4.183191220882397E-1   -3.111997172745148E-3    3.938218646915044E-3   -2.885920374730530E-3    4.145400302084041E-3    4.128435370678507E-1    2.971439093840040E-1
 8.062259241000000E9     3.956008096640926E-1    4.181826306794100E-1   -3.130474195350951E-3    3.971251722235339E-3   -2.884586405662100E-3    4.174158978942405E-3    4.127971949435250E-1    2.969925620918057E-1
 8.062259754300000E9     3.956491954516811E-1    4.180653239666953E-1   -3.132706093851753E-3    3.963687620878175E-3   -2.885598395416840E-3    4.208921580066829E-3    4.128043243678406E-1    2.970682020607826E-1
 8.062260267600000E9     3.958560653426935E-1    4.180023008138135E-1   -3.126962332710051E-3    3.996803097045679E-3   -2.948480987607439E-3    4.155056063147354E-3    4.129869420792989E-1    2.970589612752698E-1
 8.062260780900000E9     3.958551439764575E-1    4.179044908192600E-1   -3.112898968615551E-3    4.017738304681757E-3   -2.909081918304453E-3    4.222035548730320E-3    4.128845236935415E-1    2.969831681182205E-1
 8.062261294200000E9     3.959190590019714E-1    4.178364672778540E-1   -3.139914927115853E-3    4.018645976857135E-3   -2.916949339802472E-3    4.239970314428724E-3    4.128677115089621E-1    2.969190533418922E-1
 8.062261807500000E9     3.960779536019608E-1    4.178021550995695E-1   -3.136741262928230E-3    4.042561230100182E-3   -2.906925415438349E-3    4.239430429314325E-3    4.130054218134778E-1    2.968282856038595E-1
 8.062262320800000E9     3.960614871484029E-1    4.177196837220384E-1   -3.146796273659227E-3    4.051174907351080E-3   -2.932033243029644E-3    4.229703160370958E-3    4.129905222146794E-1    2.970095642713553E-1
 8.062262834100000E9     3.962089060257011E-1    4.176057198748323E-1   -3.181267566734773E-3    4.068201037153487E-3   -2.935967299694402E-3    4.284622451056120E-3    4.130408362284026E-1    2.968784052989402E-1
 8.062263347400000E9     3.962210160441773E-1    4.175169916440926E-1   -3.194338885386271E-3    4.054120498570998E-3   -2.953451116991445E-3    4.294478825507401E-3    4.131687524195977E-1    2.969384948324652E-1
 8.062263860700000E9     3.962942058368881E-1    4.175288521583817E-1   -3.194333320798251E-3    4.080608174321747E-3   -2.957954977664857E-3    4.265844970315444E-3    4.131138520821854E-1    2.969238897554319E-1
 8.062264374000000E9     3.963369534660899E-1    4.174013123717235E-1   -3.183072462273232E-3    4.105933430152977E-3   -2.966614243253682E-3    4.296763869664022E-3    4.130393876169676E-1    2.967251492773180E-1
 8.062264887300000E9     3.964652886457914E-1    4.174146483610863E-1   -3.195344537167861E-3    4.096733890385560E-3   -2.982579921157236E-3    4.315588657144384E-3    4.131030297179805E-1    2.967381150061992E-1
 8.062265400600000E9     3.965359680451701E-1    4.171819213851292E-1   -3.217967113848588E-3    4.113536616122652E-3   -2.967526212913135E-3    4.377181149016456E-3    4.131797767019716E-1    2.968336249045236E-1
 8.062265913900000E9     3.965044011472881E-1    4.171073260139576E-1   -3.208068504329217E-3    4.163780630981880E-3   -2.980769858298839E-3    4.350600285240145E-3    4.132798384132143E-1    2.967038030691831E-1
 8.062266427200000E9     3.967101542754727E-1    4.170263580955407E-1   -3.230018042634566E-3    4.180340449178185E-3   -2.956439874610977E-3    4.354614985548630E-3    4.132597057177446E-1    2.968053055002660E-1
 8.062266940500000E9     3.967854122765563E-1    4.168600663048353E-1   -3.226590024719409E-3    4.155326633455717E-3   -3.004571769615959E-3    4.409735753169436E-3    4.131044612212700E-1    2.966657867386790E-1
 8.062267453800000E9     3.968270777426365E-1    4.168273927833123E-1   -3.222617602304020E-3    4.197201681170637E-3   -3.000834738211068E-3    4.418049437235101E-3    4.132240752906157E-1    2.966119531518571E-1
 8.062267967100000E9     3.968885390050662E-1    4.167704804801630E-1   -3.260166632437492E-3    4.207826974471180E-3   -3.002282706151948E-3    4.454105890081124E-3    4.132295349983045E-1    2.967472087781885E-1
 8.062268480400000E9     3.970610149514237E-1    4.165580136013592E-1   -3.281058601307721E-3    4.209286412332318E-3   -3.000197513095484E-3    4.451557746735786E-3    4.132696292914146E-1    2.966537011100133E-1
 8.062268993700000E9     3.971376150281416E-1    4.165190542939955E-1   -3.284473437921029E-3    4.222910613009896E-3   -3.003341403753601E-3    4.453112803564950E-3    4.132735165008071E-1    2.964700578584004E-1
 8.062269507000000E9     3.971799434504438E-1    4.164622613926858E-1   -3.289504472301556E-3    4.248347360167702E-3   -3.030541890638232E-3    4.489164770743358E-3    4.132600370782980E-1    2.965756842833465E-1
 8.062270020300000E9     3.972311290519564E-1    4.164577948208737E-1   -3.314620173980140E-3    4.267207327156271E-3   -3.060055300851182E-3    4.461369619913141E-3    4.132382563929472E-1    2.965577497746676E-1
 8.062270533600000E9     3.973635826308041E-1    4.162835666624501E-1   -3.276355467404446E-3    4.276470380021177E-3   -3.067028982741919E-3    4.486939919798646E-3    4.135754927877546E-1    2.964710744239323E-1
 8.062271046900000E9     3.974816542689568E-1    4.162513064415773E-1   -3.314374090857020E-3    4.292433828002546E-3   -3.051979614914994E-3    4.513093312493518E-3    4.133721059917066E-1    2.963401040594310E-1
 8.062271560200000E9     3.973861052811821E-1    4.160461637438745E-1   -3.304966262155888E-3    4.308592289178634E-3   -3.066920892901114E-3    4.554625945814648E-3    4.134248655493061E-1    2.963841711480533E-1
 8.062272073500000E9     3.976161174691192E-1    4.160848416320481E-1   -3.318344792388983E-3    4.319572319175572E-3   -3.100581758848238E-3    4.570927924445187E-3    4.133575022568216E-1    2.965077955727612E-1
 8.062272586800000E9     3.976549665723121E-1    4.159653119430872E-1   -3.322945753557120E-3    4.328692261422603E-3   -3.108995060788837E-3    4.581227246729424E-3    4.134259451414767E-1    2.962078749011526E-1
 8.062273100100000E9     3.976758805095940E-1    4.158753086681202E-1   -3.340736667984247E-3    4.383808983690114E-3   -3.089495360875893E-3    4.562710609350740E-3    4.134008702088092E-1    2.962471390985297E-1
 8.062273613400000E9     3.978836299910310E-1    4.156667063870413E-1   -3.354622292436125E-3    4.413341043643220E-3   -3.091597958023818E-3    4.607191400850062E-3    4.135677459851004E-1    2.963335523167028E-1
 8.062274126700000E9     3.979524605842129E-1    4.156891060719803E-1   -3.364069324415240E-3    4.411919774837794E-3   -3.116662873233620E-3    4.632403547038520E-3    4.135143854848130E-1    2.963022425934192E-1
 8.062274640000000E9     3.979449134494001E-1    4.154843553123305E-1   -3.363380429270615E-3    4.422670877795036E-3   -3.110987919634594E-3    4.638160093441885E-3    4.135214084777927E-1    2.961488961655014E-1
 8.062275153300000E9     3.981011313763768E-1    4.154469576930114E-1   -3.377095466160851E-3    4.474209151304987E-3   -3.131638940009094E-3    4.690237780252915E-3    4.134618430815253E-1    2.961632908670895E-1
 8.062275666600000E9     3.981798764359230E-1    4.152803515256685E-1   -3.376927698317714E-3    4.433061706490649E-3   -3.105392710957516E-3    4.668408340490851E-3    4.135114695192456E-1    2.962292753620869E-1
 8.062276179900000E9     3.980964232248341E-1    4.152609071437126E-1   -3.418431834084425E-3    4.505288622269460E-3   -3.146255790376108E-3    4.700923753785618E-3    4.136187971070108E-1    2.961554442668521E-1
 8.062276693200000E9     3.982921359054621E-1    4.151559637302231E-1   -3.397106459032925E-3    4.480109992139128E-3   -3.139404713674496E-3    4.718568382353110E-3    4.135800263840798E-1    2.961492644140891E-1
 8.062277206500000E9     3.983447333423745E-1    4.150033738303966E-1   -3.406489525041424E-3    4.508559035552214E-3   -3.162783148068231E-3    4.741688748374968E-3    4.136121604258250E-1    2.961029172117800E-1
 8.062277719800000E9     3.984033338204680E-1    4.148079543368755E-1   -3.418634256368170E-3    4.553106225592202E-3   -3.130430443606541E-3    4.741821331612663E-3    4.135934847325183E-1    2.960092453653556E-1
 8.062278233100000E9     3.984325938177632E-1    4.148997262666936E-1   -3.442749762599447E-3    4.549010238222206E-3   -3.185536004678332E-3    4.758257381408354E-3    4.136569777185692E-1    2.961111052853427E-1
 8.062278746400000E9     3.985816510999383E-1    4.146621980904965E-1   -3.458005795724502E-3    4.554639330397654E-3   -3.199450252255796E-3    4.804871863672179E-3    4.137447176738136E-1    2.960074453570484E-1
 8.062279259700000E9     3.986898144407632E-1    4.145731107957737E-1   -3.439082257191268E-3    4.601083387484446E-3   -3.163502404805924E-3    4.828902633048794E-3    4.137359497671570E-1    2.959873891449927E-1
 8.062279773000000E9     3.989045217749125E-1    4.144920124782500E-1   -3.452140509863852E-3    4.601318996508052E-3   -3.198665856635629E-3    4.835004939828738E-3    4.136619741084833E-1    2.959359055254868E-1
 8.062280286300000E9     3.988499288731078E-1    4.143107972774795E-1   -3.472174974122441E-3    4.652256176664784E-3   -3.212351351127430E-3    4.865164999223208E-3    4.137088849242829E-1    2.958936054129243E-1
 8.062280799600000E9     3.988567442523969E-1    4.141895996960056E-1   -3.491912644398963E-3    4.651759667772889E-3   -3.212536330993603E-3    4.891127623601846E-3    4.138363713996995E-1    2.958603790563830E-1
 8.062281312900000E9     3.991446803079202E-1    4.141964968440340E-1   -3.484549776566138E-3    4.681045698341966E-3   -3.249242859193877E-3    4.919811176160424E-3    4.138309362004788E-1    2.958194981078927E-1
 8.062281826200000E9     3.991833437513910E-1    4.140147060554376E-1   -3.486971093206313E-3    4.694699925307250E-3   -3.244456731732052E-3    4.922347441558099E-3    4.138583446040319E-1    2.957039066763776E-1
 8.062282339500000E9     3.992102627029473E-1    4.137827172480489E-1   -3.503539899596169E-3    4.724803717994171E-3   -3.249763917101604E-3    4.943451825963809E-3    4.138432353401169E-1    2.957027595806745E-1
 8.062282852800000E9     3.992926311929065E-1    4.137832273842273E-1   -3.531642305417674E-3    4.730862463397735E-3   -3.252911078641973E-3    4.967016210969479E-3    4.138528946892545E-1    2.956588571805861E-1
 8.062283366100000E9     3.993848136208639E-1    4.135719994732929E-1   -3.529210655174822E-3    4.769338436703775E-3   -3.274300758918366E-3    4.985955269668634E-3    4.138010939617434E-1    2.955340296405344E-1
 8.062283879400000E9     3.994623544218877E-1    4.134956489223701E-1   -3.558092077796588E-3    4.795090900217218E-3   -3.286703455667961E-3    5.025062509793769E-3    4.137813692704977E-1    2.956454449053245E-1
 8.062284392700000E9     3.996858620391809E-1    4.132922558102629E-1   -3.552746212106740E-3    4.800571968788910E-3   -3.296852123199556E-3    5.078213984538543E-3    4.138077028715383E-1    2.956211147264405E-1
 8.062284906000000E9     3.996220170433573E-1    4.131451863327498E-1   -3.575846220382363E-3    4.825350424259587E-3   -3.296106264401463E-3    5.059448519028007E-3    4.139027377785768E-1    2.956197022674114E-1
 8.062285419300000E9     3.997860192743171E-1    4.130330278010294E-1   -3.587154586936899E-3    4.868947263750801E-3   -3.328944415886902E-3    5.108077169813798E-3    4.138256639799840E-1    2.955365629256027E-1
 8.062285932600000E9     3.998968784323206E-1    4.129642737824712E-1   -3.605034571908441E-3    4.861151423753076E-3   -3.343524226733159E-3    5.133042051378804E-3    4.138607813738963E-1    2.954739293890335E-1
 8.062286445900000E9     4.000484685657871E-1    4.127897606839405E-1   -3.607072108426694E-3    4.883272235722272E-3   -3.338809641050720E-3    5.140386165487593E-3    4.138867529687882E-1    2.954479850181647E-1
 8.062286959200000E9     4.001352954676171E-1    4.127847973724411E-1   -3.617552066263886E-3    4.926116698657229E-3   -3.338236031129253E-3    5.160396734780543E-3    4.140611272632722E-1    2.955212367880303E-1
 8.062287472500000E9     4.001691955688175E-1    4.126074433331433E-1   -3.648504892353147E-3    4.945810809149639E-3   -3.334119492409866E-3    5.174541006466994E-3    4.139014568700549E-1    2.955805886812540E-1
 8.062287985800000E9     4.003329690868233E-1    4.124815851671775E-1   -3.639536247170057E-3    4.977702386868882E-3   -3.368391555618367E-3    5.223806873130728E-3    4.140584138605913E-1    2.954629508044577E-1
 8.062288499100000E9     4.002839287845645E-1    4.123085320135591E-1   -3.631588923003923E-3    5.001903307290208E-3   -3.361394459929099E-3    5.243126252896638E-3    4.140791932378491E-1    2.954914568057228E-1
 8.062289012400000E9     4.005075558347012E-1    4.122357492536311E-1   -3.611798915090670E-3    5.002828067425926E-3   -3.402302153900064E-3    5.252805971345304E-3    4.140233622575202E-1    2.952191033700274E-1
 8.062289525700000E9     4.005563529191729E-1    4.119950005531184E-1   -3.681955750580151E-3    5.033366562804545E-3   -3.406930398044674E-3    5.285547212845213E-3    4.139999984640649E-1    2.954084550392214E-1
 8.062290039000000E9     4.006904247424734E-1    4.119240912984815E-1   -3.710635976761430E-3    5.108815164404950E-3   -3.403263786183312E-3    5.298229872813425E-3    4.139998627950570E-1    2.952309810357700E-1
 8.062290552300000E9     4.008032388068912E-1    4.118231581130854E-1   -3.708686429650268E-3    5.101145120144919E-3   -3.394182766790270E-3    5.370083954928005E-3    4.140477932699272E-1    2.952686345830233E-1
 8.062291065600000E9     4.009322307119408E-1    4.115651258530048E-1   -3.727916124841930E-3    5.125021907818430E-3   -3.453147701320138E-3    5.350984837766283E-3    4.139468513419727E-1    2.951124588201062E-1
 8.062291578900000E9     4.010162556313998E-1    4.114124354329159E-1   -3.716241334935967E-3    5.169773923251368E-3   -3.409958424861839E-3    5.386726713766770E-3    4.140535586344257E-1    2.951929012907040E-1
 8.062292092200000E9     4.010725697523524E-1    4.113124770402133E-1   -3.737083265014129E-3    5.213815633702919E-3   -3.427200317246882E-3    5.437369635380785E-3    4.140112494655470E-1    2.951867936621980E-1
 8.062292605500000E9     4.011455044494139E-1    4.112749110415647E-1   -3.749066106990514E-3    5.208313249236777E-3   -3.449234647610934E-3    5.479266074512758E-3    4.141438424452286E-1    2.951244366936267E-1
 8.062293118800000E9     4.012860276081925E-1    4.110375742492048E-1   -3.755566145251893E-3    5.246561762506125E-3   -3.440260594286954E-3    5.493998330834811E-3    4.141951916950731E-1    2.949798617888247E-1
 8.062293632100000E9     4.013720331810510E-1    4.109681023122428E-1   -3.778792487385253E-3    5.287114645364478E-3   -3.447346668854400E-3    5.553903607706518E-3    4.142139037021734E-1    2.952061210555194E-1
 8.062294145400000E9     4.014550043094907E-1    4.107419111681477E-1   -3.810494301854874E-3    5.327899896927554E-3   -3.494961215870801E-3    5.528061709102973E-3    4.141424866730615E-1    2.950756444645560E-1
 8.062294658700000E9     4.014575139540874E-1    4.105753781513357E-1   -3.795799595096263E-3    5.329101251591120E-3   -3.486564418413461E-3    5.572783236207309E-3    4.142994610276116E-1    2.950359880545889E-1
 8.062295172000000E9     4.015819488392591E-1    4.104567732672028E-1   -3.823085554913865E-3    5.353943312105150E-3   -3.499600963671229E-3    5.634205449581379E-3    4.141998404425635E-1    2.949610801777091E-1
 8.062295685300000E9     4.018292513212636E-1    4.103270075056765E-1   -3.832485762973574E-3    5.380760382124523E-3   -3.531774352713903E-3    5.633990267861406E-3    4.144006410232535E-1    2.949428117481258E-1
 8.062296198600000E9     4.020003891621799E-1    4.100452722371319E-1   -3.850382184355763E-3    5.434466994697628E-3   -3.557245323985567E-3    5.690130429579862E-3    4.144761955859709E-1    2.949562598054308E-1
 8.062296711900000E9     4.020349354940818E-1    4.099249082450567E-1   -3.879183207219286E-3    5.479034479712805E-3   -3.573392184271762E-3    5.723779892850933E-3    4.143485216110266E-1    2.948863174167077E-1
 8.062297225200000E9     4.020857502234509E-1    4.097332040808484E-1   -3.896466025527071E-3    5.507910683038232E-3   -3.571868583588270E-3    5.765064971102681E-3    4.143318338303075E-1    2.946690459404217E-1
 8.062297738500000E9     4.022477135672922E-1    4.096068809400721E-1   -3.910371686329510E-3    5.540463106337187E-3   -3.583855154951272E-3    5.781563375094394E-3    4.143809395337145E-1    2.947721404426742E-1
 8.062298251800000E9     4.023391232486504E-1    4.095059365952981E-1   -3.892180684065259E-3    5.559028884277302E-3   -3.641625992582632E-3    5.837204981882208E-3    4.144299434706915E-1    2.947425826612662E-1
 8.062298765100000E9     4.024514055503543E-1    4.093035945875217E-1   -3.936490602838788E-3    5.576666402586291E-3   -3.610682640747126E-3    5.841772457090061E-3    4.143599862528238E-1    2.948064993670905E-1
 8.062299278400000E9     4.026009051334259E-1    4.090558295327238E-1   -3.930079574552869E-3    5.651110910416103E-3   -3.615644690362961E-3    5.901031713219560E-3    4.143992159066745E-1    2.947020966914440E-1
 8.062299791700000E9     4.026500470809044E-1    4.089817072441563E-1   -3.954693222793213E-3    5.693186554720751E-3   -3.617753966784642E-3    5.940240194262757E-3    4.144286022426004E-1    2.947252350859031E-1
 8.062300305000000E9     4.028180268897179E-1    4.086157986113785E-1   -3.964056796784011E-3    5.707664889943275E-3   -3.623669534554397E-3    5.955504909747434E-3    4.145046649873456E-1    2.945008414604656E-1
