#  HZ   S   RI   R     50.00 
! Rohde & Schwarz Vector Network Analyzer 
! Rohde-Schwarz,ZNB20-2Port,1311601062101988,3.16
! Created: UTC 3/20/2024, 10:52:17 PM
! freq[Hz]                re:S11                  im:S11                  re:S21                  im:S21                  re:S12                  im:S12                  re:S22                  im:S22
 8.062205943000000E9     3.914895684246048E-1    4.210906700279541E-1   -3.138751781584942E-3    4.125318521463073E-3   -2.930044069733775E-3    4.434262498264598E-3    3.931689378528306E-1    2.792460929112279E-1
 8.062206468575000E9     3.916273681055343E-1    4.208270238362965E-1   -3.159433788715654E-3    4.173539345455860E-3   -2.944567204201794E-3    4.432574215161201E-3    3.931785728158416E-1    2.792576179947464E-1
 8.062206994150000E9     3.916648403178563E-1    4.207532778516924E-1   -3.152691212779810E-3    4.188214287180814E-3   -2.967219188247161E-3    4.469970781207054E-3    3.931503723402856E-1    2.792706203866603E-1
 8.062207519725000E9     3.916638092476567E-1    4.206107554753133E-1   -3.162518474306901E-3    4.186557800541260E-3   -2.990511145389309E-3    4.491881655727979E-3    3.932860653362181E-1    2.792673178410296E-1
 8.062208045300000E9     3.919375644066367E-1    4.205251809624285E-1   -3.186789765219170E-3    4.215106644819655E-3   -2.965870899701550E-3    4.533616317182934E-3    3.932381433331045E-1    2.791074448843847E-1
 8.062208570875000E9     3.919663704154376E-1    4.205616928199860E-1   -3.186972181426372E-3    4.217108307992747E-3   -2.985922973516774E-3    4.541411767714362E-3    3.932873385073167E-1    2.791736556970671E-1
 8.062209096450000E9     3.920773734509093E-1    4.203635974664161E-1   -3.176079557924876E-3    4.233811409533357E-3   -2.998347499836572E-3    4.533592587404873E-3    3.932764963787375E-1    2.792072396423382E-1
 8.062209622025000E9     3.922620437974579E-1    4.202502256741705E-1   -3.205868162948754E-3    4.258096727188645E-3   -2.980289558044423E-3    4.540660352522402E-3    3.932073108316016E-1    2.791004223035410E-1
 8.062210147600000E9     3.922346015621966E-1    4.202155823842113E-1   -3.203666654185134E-3    4.278345788609577E-3   -3.005070425335809E-3    4.589266874234527E-3    3.932281862397015E-1    2.790907318811213E-1
 8.062210673175000E9     3.923083998540803E-1    4.201370571711610E-1   -3.211354840806097E-3    4.306637990695072E-3   -3.007794407820339E-3    4.584837507414379E-3    3.932802311128745E-1    2.791037837581850E-1
 8.062211198750000E9     3.924426458119441E-1    4.200998108498797E-1   -3.204727236796129E-3    4.311274422363905E-3   -2.999010133889651E-3    4.630575653085650E-3    3.932600759629200E-1    2.790372312347883E-1
 8.062211724325000E9     3.925279294949123E-1    4.199020333476530E-1   -3.224999246441281E-3    4.328462072731054E-3   -3.038260269108074E-3    4.657906724405718E-3    3.933664505195145E-1    2.790004653226701E-1
 8.062212249900000E9     3.926863390915844E-1    4.198101716971734E-1   -3.245419868323007E-3    4.368354373644910E-3   -3.031561709967698E-3    4.647220325515519E-3    3.934394178433807E-1    2.788701803493965E-1
 8.062212775475000E9     3.926712300480026E-1    4.196475684698572E-1   -3.252308045484159E-3    4.367320633448384E-3   -3.026189836839437E-3    4.654196847015400E-3    3.933225454018611E-1    2.789431050517388E-1
 8.062213301050000E9     3.927590026305979E-1    4.195718566026230E-1   -3.244017277606392E-3    4.390741014694361E-3   -3.076406649738074E-3    4.690910635127777E-3    3.934847124142665E-1    2.788429968961086E-1
 8.062213826625000E9     3.928673221330066E-1    4.194508983475602E-1   -3.250988882399401E-3    4.405953446064548E-3   -3.072653317421817E-3    4.691948992144621E-3    3.934462771425444E-1    2.789133543761084E-1
 8.062214352200000E9     3.929058234376291E-1    4.192689574453005E-1   -3.271315708519014E-3    4.431211793522085E-3   -3.079758421571793E-3    4.772011731241285E-3    3.934465312154533E-1    2.787625044000913E-1
 8.062214877775000E9     3.930070847289426E-1    4.191527938520511E-1   -3.299964630816226E-3    4.453103230560623E-3   -3.081961576901607E-3    4.744687524632407E-3    3.936132410115940E-1    2.787680846759897E-1
 8.062215403350000E9     3.930994221189869E-1    4.191437750706681E-1   -3.284111342212210E-3    4.479253269371162E-3   -3.090591191757533E-3    4.785882780894701E-3    3.935004859151554E-1    2.787075419670088E-1
 8.062215928925000E9     3.931333548576065E-1    4.189629875321247E-1   -3.294609164201299E-3    4.500107592773748E-3   -3.059526657164207E-3    4.845861251355268E-3    3.935065090219365E-1    2.788186911184214E-1
 8.062216454500000E9     3.932586663646621E-1    4.189479923724909E-1   -3.329060336981760E-3    4.496976516037901E-3   -3.106697406716282E-3    4.819165183072870E-3    3.935699251505207E-1    2.787451232774200E-1
 8.062216980075000E9     3.933112615924715E-1    4.188222618859833E-1   -3.335325181212465E-3    4.537066210950076E-3   -3.112464587291180E-3    4.850739451526405E-3    3.935683019643667E-1    2.786399483318419E-1
 8.062217505650000E9     3.934635987391917E-1    4.185662644258989E-1   -3.358088645372110E-3    4.537890775869461E-3   -3.147484066226710E-3    4.839806017574897E-3    3.936110156323145E-1    2.785461146846213E-1
 8.062218031225000E9     3.934870061633646E-1    4.186565743689902E-1   -3.335241419351103E-3    4.548275770730778E-3   -3.113270387236587E-3    4.852237482588248E-3    3.936776493409369E-1    2.788223187467139E-1
 8.062218556800000E9     3.936118378455807E-1    4.184952002381921E-1   -3.360360586565621E-3    4.580686296078201E-3   -3.131265511117806E-3    4.906796293027067E-3    3.936890672545753E-1    2.785400743972731E-1
 8.062219082375000E9     3.936556683323995E-1    4.184783760864114E-1   -3.367072317582865E-3    4.621070804068967E-3   -3.161023715531416E-3    4.935585716762637E-3    3.936381132086398E-1    2.788058359824066E-1
 8.062219607950000E9     3.938732049600114E-1    4.183723779098869E-1   -3.376080856212314E-3    4.642267326018658E-3   -3.147719094274612E-3    4.930989952635769E-3    3.937908128907030E-1    2.785646572605400E-1
 8.062220133525000E9     3.939387965886835E-1    4.181185774497083E-1   -3.399932484775845E-3    4.649024199479784E-3   -3.161488860407805E-3    4.958920322333892E-3    3.937252459338938E-1    2.785322740075677E-1
 8.062220659100000E9     3.940296869558662E-1    4.179729132964741E-1   -3.401912908379400E-3    4.677482090305171E-3   -3.182220846608200E-3    5.011068234836017E-3    3.936895029745165E-1    2.784022603038944E-1
 8.062221184675000E9     3.940822317230779E-1    4.179802533551259E-1   -3.390500958378438E-3    4.700848328524885E-3   -3.205436594447089E-3    5.000554166236949E-3    3.938017592095435E-1    2.784532278328905E-1
 8.062221710250000E9     3.940915460891666E-1    4.177185067598064E-1   -3.433733035472319E-3    4.712085659676697E-3   -3.204691048764721E-3    5.043445323613506E-3    3.937265896715808E-1    2.784670401878592E-1
 8.062222235825000E9     3.943421598946817E-1    4.176777688965174E-1   -3.457290226169089E-3    4.752075754854920E-3   -3.222976634382899E-3    5.065515945027582E-3    3.938348125706962E-1    2.784259767378682E-1
 8.062222761400000E9     3.944067437700537E-1    4.175288501192109E-1   -3.442313104660567E-3    4.756801237560657E-3   -3.225994046216989E-3    5.085778214107223E-3    3.937644846653796E-1    2.783796133786299E-1
 8.062223286975000E9     3.944322363920357E-1    4.175056990804779E-1   -3.470635322753787E-3    4.805661008315374E-3   -3.206811786605891E-3    5.129061782717554E-3    3.937599890888624E-1    2.782038492284639E-1
 8.062223812550000E9     3.945591220445860E-1    4.173323597684560E-1   -3.459188888014215E-3    4.788084574754972E-3   -3.271854103013007E-3    5.147896086611375E-3    3.938958803859035E-1    2.783011695727520E-1
 8.062224338125000E9     3.946309149411338E-1    4.172411891656914E-1   -3.475694098260066E-3    4.847400896990760E-3   -3.248758401366546E-3    5.173476997638021E-3    3.938474359883965E-1    2.782183745248733E-1
 8.062224863700000E9     3.948934957929900E-1    4.171286214745418E-1   -3.476238364693683E-3    4.865760458498520E-3   -3.247482593501488E-3    5.187778358989854E-3    3.938449817837399E-1    2.781239496617522E-1
 8.062225389275000E9     3.947509464603824E-1    4.169267382612126E-1   -3.491915378651431E-3    4.914477731079503E-3   -3.248832669656882E-3    5.216518481376663E-3    3.938647537155853E-1    2.781580443832766E-1
 8.062225914850000E9     3.949363216847895E-1    4.168449563403859E-1   -3.497607634763249E-3    4.928420627408905E-3   -3.263756058597854E-3    5.256650483325174E-3    3.938057088391125E-1    2.781667551303280E-1
 8.062226440425000E9     3.950473310074968E-1    4.166774408739033E-1   -3.544063829008374E-3    4.912685077496838E-3   -3.262840810759151E-3    5.250215334598522E-3    3.940202836876311E-1    2.781303623573138E-1
 8.062226966000000E9     3.950978152388691E-1    4.164427113527746E-1   -3.550987969603202E-3    4.962159474753498E-3   -3.303006141243688E-3    5.329599378041962E-3    3.939858190618581E-1    2.780739222774298E-1
 8.062227491575000E9     3.953573834739674E-1    4.164236625588131E-1   -3.567161723683536E-3    5.006515893227734E-3   -3.331656022095102E-3    5.345620698147847E-3    3.939122941218667E-1    2.779575772317570E-1
 8.062228017150000E9     3.953423813211878E-1    4.162334755520379E-1   -3.556288146346826E-3    5.012842594659703E-3   -3.293601077441995E-3    5.354960592500241E-3    3.938508046801786E-1    2.779397385937581E-1
 8.062228542725000E9     3.954259302794895E-1    4.161719216777003E-1   -3.564510921828958E-3    5.054598794441895E-3   -3.319868174579264E-3    5.382496255559675E-3    3.939495228313755E-1    2.780283963964720E-1
 8.062229068300000E9     3.956054551792018E-1    4.159411990463031E-1   -3.586824475444140E-3    5.079483444519067E-3   -3.355050260509085E-3    5.400857389511231E-3    3.940222781038914E-1    2.779131548487683E-1
 8.062229593875000E9     3.956022731224549E-1    4.158299294238323E-1   -3.601526914041091E-3    5.096029119369827E-3   -3.369344681372447E-3    5.422925086921937E-3    3.939958433001390E-1    2.779231192806091E-1
 8.062230119450000E9     3.957552895261967E-1    4.156460231946520E-1   -3.583142171678318E-3    5.133073105447552E-3   -3.391523038845186E-3    5.500439787671616E-3    3.940685259604045E-1    2.779106910126016E-1
 8.062230645025000E9     3.958365876130208E-1    4.155141921419107E-1   -3.606296361420352E-3    5.157881945252481E-3   -3.366348687517921E-3    5.530266869874492E-3    3.942050074123272E-1    2.779497637362613E-1
 8.062231170600000E9     3.958844686770171E-1    4.153359823273481E-1   -3.629609539659600E-3    5.179321743090689E-3   -3.392617460386556E-3    5.535949475815349E-3    3.940269925260976E-1    2.778591194213937E-1
 8.062231696175000E9     3.960638235799594E-1    4.150661185434388E-1   -3.660034776277000E-3    5.210462570529402E-3   -3.368630222273498E-3    5.577904017289482E-3    3.941348438195929E-1    2.778007911776558E-1
 8.062232221750000E9     3.962195489965772E-1    4.151664308231021E-1   -3.646015333975669E-3    5.224499941289915E-3   -3.432253558149859E-3    5.624499460065767E-3    3.940182111803277E-1    2.779319856993701E-1
 8.062232747325000E9     3.962393504512183E-1    4.149749893773649E-1   -3.679003764866377E-3    5.248939353797821E-3   -3.444476582137431E-3    5.649101094536341E-3    3.940795180137232E-1    2.777544978582930E-1
 8.062233272900000E9     3.964117827791471E-1    4.148184024114046E-1   -3.692280051683683E-3    5.279562202966695E-3   -3.438274726340274E-3    5.669020478449784E-3    3.941016611289120E-1    2.776979392911567E-1
 8.062233798475000E9     3.964989225722156E-1    4.146917176651591E-1   -3.689620972576912E-3    5.343512746561987E-3   -3.449555361972963E-3    5.726014922603647E-3    3.941498474642999E-1    2.776320870528265E-1
 8.062234324050000E9     3.966526126504099E-1    4.145360758378968E-1   -3.705710781984486E-3    5.373491139294494E-3   -3.458492927177655E-3    5.743035058489206E-3    3.941749700006085E-1    2.777395745086721E-1
 8.062234849625000E9     3.967226041056263E-1    4.142666264625773E-1   -3.712244995303463E-3    5.415720275396888E-3   -3.424395336217630E-3    5.775470838050367E-3    3.943985201297604E-1    2.776671858334955E-1
 8.062235375200000E9     3.968677079935724E-1    4.140720110984394E-1   -3.727381479726161E-3    5.417627123188730E-3   -3.497254994820800E-3    5.827841508654435E-3    3.941556688219244E-1    2.775503878592476E-1
 8.062235900775000E9     3.969372535547890E-1    4.139642331229011E-1   -3.726506186419624E-3    5.462104411218543E-3   -3.487888768894153E-3    5.864152367294018E-3    3.941667991669818E-1    2.775201131700277E-1
 8.062236426350000E9     3.970575533900464E-1    4.137437340199490E-1   -3.767497437130938E-3    5.499013615992703E-3   -3.515896132134003E-3    5.925113417394633E-3    3.941598039810165E-1    2.774953140096299E-1
 8.062236951925000E9     3.972484529088390E-1    4.136160013530345E-1   -3.776732520685068E-3    5.537850288801211E-3   -3.518531006500500E-3    5.946322933263889E-3    3.941904807539665E-1    2.773203571415179E-1
 8.062237477500000E9     3.973794815829428E-1    4.133115519506708E-1   -3.798876479643091E-3    5.578126659756177E-3   -3.525651161951718E-3    5.956259257514542E-3    3.943130886178157E-1    2.774584099815938E-1
 8.062238003075000E9     3.974990560289678E-1    4.132049474502723E-1   -3.791575757073222E-3    5.608459730394027E-3   -3.496938360855770E-3    6.000987413085749E-3    3.943071811482262E-1    2.775024673745670E-1
 8.062238528650000E9     3.975375275789396E-1    4.130282788147435E-1   -3.818331619183800E-3    5.654437541142345E-3   -3.535075778516251E-3    6.096230138979245E-3    3.942032471730214E-1    2.773903269844246E-1
 8.062239054225000E9     3.976432340711968E-1    4.128003936565026E-1   -3.841908851299541E-3    5.689144793166697E-3   -3.583115082637857E-3    6.079994471850354E-3    3.943960590283382E-1    2.772479965989184E-1
 8.062239579800000E9     3.977455748890108E-1    4.127490765671962E-1   -3.886397074292027E-3    5.732723089967386E-3   -3.561280890097298E-3    6.150140704914208E-3    3.942598365749333E-1    2.773296636684405E-1
 8.062240105375000E9     3.979531060975848E-1    4.124149629677804E-1   -3.877307059708680E-3    5.745487737419252E-3   -3.622616811793350E-3    6.195693362760209E-3    3.943543188521228E-1    2.772739730640260E-1
 8.062240630950000E9     3.980610068901529E-1    4.123010804726004E-1   -3.874983074232904E-3    5.817111727462194E-3   -3.610126303627813E-3    6.228322425731539E-3    3.943668140178612E-1    2.772590203384088E-1
 8.062241156525000E9     3.982253960637031E-1    4.121622671845173E-1   -3.908938432904032E-3    5.839277110521244E-3   -3.605364780371518E-3    6.267268180219477E-3    3.943448885967263E-1    2.772047537496568E-1
 8.062241682100000E9     3.983015397366336E-1    4.117964706800578E-1   -3.908973396232532E-3    5.871751824211956E-3   -3.663446305572753E-3    6.297277202993452E-3    3.943133763083366E-1    2.772430201574705E-1
 8.062242207675000E9     3.984977355130367E-1    4.117665406462188E-1   -3.933488377405563E-3    5.940865370769781E-3   -3.673489434569112E-3    6.369787265103654E-3    3.944421321144363E-1    2.771172516920781E-1
 8.062242733250000E9     3.986255405046933E-1    4.116016768486094E-1   -3.946045504482050E-3    5.969501509371066E-3   -3.659640887609487E-3    6.411037587306189E-3    3.943896504128503E-1    2.771140573319772E-1
 8.062243258825000E9     3.986901209026930E-1    4.113043089283467E-1   -3.945340130274520E-3    6.021809374773663E-3   -3.657737858201488E-3    6.460620666587514E-3    3.943643877596372E-1    2.770029486398998E-1
 8.062243784400000E9     3.987977053820413E-1    4.111070972033112E-1   -3.973120141808368E-3    6.033364847254258E-3   -3.710626074311254E-3    6.482181073262774E-3    3.945805090490714E-1    2.770796132614972E-1
 8.062244309975000E9     3.988832154738021E-1    4.108396707635305E-1   -3.973212300072761E-3    6.125781394775687E-3   -3.719098151117547E-3    6.567405410329937E-3    3.945481451257468E-1    2.769534742882581E-1
 8.062244835550000E9     3.990379169612661E-1    4.105229040781903E-1   -4.008151875200315E-3    6.137475968990044E-3   -3.717582183183488E-3    6.653012993872991E-3    3.945728704675298E-1    2.769787372069241E-1
 8.062245361125000E9     3.992783783485535E-1    4.104502966466171E-1   -4.012563745693380E-3    6.179395249910582E-3   -3.699423727001887E-3    6.664486473255474E-3    3.945691113028759E-1    2.768832093748116E-1
 8.062245886700000E9     3.992851050647944E-1    4.101518474638791E-1   -4.048505330392977E-3    6.226525148253398E-3   -3.764457924337962E-3    6.717239991274548E-3    3.947555200370717E-1    2.768203059313451E-1
 8.062246412275000E9     3.994440794182612E-1    4.100017953533608E-1   -4.060179078017260E-3    6.303466098821656E-3   -3.776557937591300E-3    6.770158351366400E-3    3.945942787912491E-1    2.767586413113891E-1
 8.062246937850000E9     3.996983845801606E-1    4.097551746895567E-1   -4.036537438699495E-3    6.331221486890744E-3   -3.794142696084642E-3    6.813092707155553E-3    3.946298739777468E-1    2.768934052215127E-1
 8.062247463425000E9     3.996837367979178E-1    4.094817602618900E-1   -4.077114204349494E-3    6.397747972260144E-3   -3.798045419693971E-3    6.881209117646023E-3    3.944942193111964E-1    2.768453248512375E-1
 8.062247989000000E9     3.998678610159972E-1    4.091755356721880E-1   -4.128440099902674E-3    6.435406023931984E-3   -3.805680378398594E-3    6.924024906620989E-3    3.946052796302462E-1    2.767245104990051E-1
 8.062248514575000E9     4.000211529566940E-1    4.089253757851417E-1   -4.128338123530581E-3    6.498833138104625E-3   -3.787795086102570E-3    7.007399652843894E-3    3.946865427091341E-1    2.768692022452643E-1
 8.062249040150000E9     4.001740340721293E-1    4.087434455020964E-1   -4.139029799858673E-3    6.553662980212227E-3   -3.839627567903858E-3    7.029472716782083E-3    3.947174370092797E-1    2.766720383427958E-1
 8.062249565725000E9     4.002861142618346E-1    4.083744562724806E-1   -4.158197454972417E-3    6.633262304387483E-3   -3.838048428897111E-3    7.087301903528393E-3    3.945934171246749E-1    2.766300580336306E-1
 8.062250091300000E9     4.004839556782046E-1    4.081278745741841E-1   -4.180647018993316E-3    6.672288274763891E-3   -3.886057714450194E-3    7.176731736128190E-3    3.948563383508661E-1    2.765667608588632E-1
 8.062250616875000E9     4.007297997647476E-1    4.079125529656090E-1   -4.182001655281867E-3    6.718335667892527E-3   -3.882047505608803E-3    7.212339392003188E-3    3.947388425400699E-1    2.766326188087191E-1
 8.062251142450000E9     4.007219009958916E-1    4.076746638818363E-1   -4.210340685420449E-3    6.786175616105648E-3   -3.902418607734691E-3    7.299906525560493E-3    3.946621064898465E-1    2.764983624290016E-1
 8.062251668025000E9     4.009175691378041E-1    4.072349180394076E-1   -4.248870434916233E-3    6.833145457480722E-3   -3.895308738374760E-3    7.379454475461749E-3    3.947238391411841E-1    2.765399394901962E-1
 8.062252193600000E9     4.010780989392523E-1    4.070579898679549E-1   -4.244811144453089E-3    6.898055110522819E-3   -3.939630382505081E-3    7.432136213246292E-3    3.947088797043419E-1    2.763336814812230E-1
 8.062252719175000E9     4.012958645827341E-1    4.067481689161325E-1   -4.269478601045011E-3    6.975217994157679E-3   -3.941455407162153E-3    7.488089249423264E-3    3.949322946342379E-1    2.763598485237615E-1
 8.062253244750000E9     4.013803742869987E-1    4.064683020887692E-1   -4.278436567220125E-3    7.005274061788535E-3   -3.965776827862741E-3    7.544893515522931E-3    3.948535388874476E-1    2.763639255165922E-1
