#  HZ   S   RI   R     50.00 
! Rohde & Schwarz Vector Network Analyzer 
! Rohde-Schwarz,ZNB20-2Port,1311601062101988,3.16
! Created: UTC 3/20/2024, 10:55:36 PM
! freq[Hz]                re:S11                  im:S11                  re:S21                  im:S21                  re:S12                  im:S12                  re:S22                  im:S22
 8.062064434000000E9     3.812343930197493E-1    4.310764525577429E-1   -2.641473858979203E-3    3.236834987359388E-3   -2.461457330478456E-3    3.441788229944084E-3    3.880057601147723E-1    2.865066143281702E-1
 8.062065136275000E9     3.813616950132325E-1    4.307520084411121E-1   -2.618081142548162E-3    3.241019732612778E-3   -2.471023448346834E-3    3.391645164730622E-3    3.881125815507226E-1    2.863054743706971E-1
 8.062065838550000E9     3.814889452652859E-1    4.307352295386016E-1   -2.644642708104548E-3    3.275902299542350E-3   -2.491265107119841E-3    3.454548502044361E-3    3.879882331721989E-1    2.864530309807342E-1
 8.062066540825000E9     3.815787270434821E-1    4.307446531370227E-1   -2.621589793980002E-3    3.258855292595576E-3   -2.440954636107090E-3    3.497591807240606E-3    3.880569457986734E-1    2.861885091009274E-1
 8.062067243100000E9     3.815216113918711E-1    4.305612794209874E-1   -2.631248499455029E-3    3.302345180868759E-3   -2.502474495409563E-3    3.451335096611914E-3    3.880062998093801E-1    2.863101666700706E-1
 8.062067945375000E9     3.816657376604309E-1    4.305301581107412E-1   -2.645123384932688E-3    3.299373607305372E-3   -2.455866220263535E-3    3.497865333815513E-3    3.880843107930212E-1    2.863247555417692E-1
 8.062068647650000E9     3.817028974040379E-1    4.304652899036718E-1   -2.659968884513815E-3    3.313376780120599E-3   -2.502298082537938E-3    3.487778399544326E-3    3.880366499780693E-1    2.862847999562931E-1
 8.062069349925000E9     3.816861881949661E-1    4.303578701545649E-1   -2.668838236677748E-3    3.291075896697522E-3   -2.440026746937814E-3    3.495574834573952E-3    3.882616889079947E-1    2.861299100415610E-1
 8.062070052200000E9     3.818389641129680E-1    4.304197092421480E-1   -2.654063547161358E-3    3.304147585490619E-3   -2.495690132626281E-3    3.523440302096832E-3    3.881678625548358E-1    2.862845731218284E-1
 8.062070754475000E9     3.819553640067438E-1    4.302417392343664E-1   -2.653131883190575E-3    3.320772878055757E-3   -2.489236204255260E-3    3.528505665590557E-3    3.881688475431277E-1    2.861439251213740E-1
 8.062071456750000E9     3.821124131023557E-1    4.301801066777587E-1   -2.683593336059711E-3    3.368705104690439E-3   -2.528151732245005E-3    3.552337057650691E-3    3.882153595482257E-1    2.860310911622566E-1
 8.062072159025000E9     3.820832457526928E-1    4.301365959751179E-1   -2.676674304230886E-3    3.376944952407611E-3   -2.503850276684841E-3    3.568769192658895E-3    3.882621532939080E-1    2.861115339972288E-1
 8.062072861300000E9     3.822023858183677E-1    4.300065644567255E-1   -2.676017410340485E-3    3.372206070887916E-3   -2.497883775223446E-3    3.550109568895882E-3    3.884646214329168E-1    2.859293297024100E-1
 8.062073563575000E9     3.823037632901044E-1    4.298606034184920E-1   -2.673154690349855E-3    3.346288263456651E-3   -2.540167175116330E-3    3.600082911217549E-3    3.883638907784379E-1    2.860271086919801E-1
 8.062074265850000E9     3.823006219748785E-1    4.297524808480200E-1   -2.668678528225613E-3    3.373255333906441E-3   -2.536778251538703E-3    3.585640114288486E-3    3.883120408530504E-1    2.858797951435381E-1
 8.062074968125000E9     3.824879266922152E-1    4.297895531638243E-1   -2.695417340174343E-3    3.396223420911564E-3   -2.569595708686367E-3    3.633905537271983E-3    3.884233495883788E-1    2.859451838577148E-1
 8.062075670400000E9     3.824559093452501E-1    4.297689205544166E-1   -2.721284331117706E-3    3.431067092193738E-3   -2.528504826342267E-3    3.601728849450928E-3    3.884337860384525E-1    2.858508205561315E-1
 8.062076372675000E9     3.824992539678004E-1    4.295559021247328E-1   -2.716777165446421E-3    3.401809756644109E-3   -2.561965608328361E-3    3.605860120185593E-3    3.884085392364987E-1    2.858454056817278E-1
 8.062077074950000E9     3.826254565482176E-1    4.295444454014449E-1   -2.719372405900742E-3    3.428809267268132E-3   -2.549999207276841E-3    3.597619390128890E-3    3.885596547994326E-1    2.857727255083068E-1
 8.062077777225000E9     3.827533715324937E-1    4.294573512665482E-1   -2.692484094404290E-3    3.434129356451847E-3   -2.554816439790645E-3    3.651182564442008E-3    3.885395941179933E-1    2.857015986278369E-1
 8.062078479500000E9     3.827694639245451E-1    4.294362971062564E-1   -2.735862291690608E-3    3.442567402355118E-3   -2.541814373976122E-3    3.641592528207720E-3    3.885620191697851E-1    2.858548782217328E-1
 8.062079181775000E9     3.829228879437819E-1    4.293930763286210E-1   -2.727251522495140E-3    3.450940234819595E-3   -2.561676397629118E-3    3.675476930235014E-3    3.885264701921871E-1    2.857184904257429E-1
 8.062079884050000E9     3.829314005506776E-1    4.292687667368301E-1   -2.726658598433441E-3    3.456066053581791E-3   -2.574125981954302E-3    3.638883562972973E-3    3.886426433906414E-1    2.857444314451973E-1
 8.062080586325000E9     3.829353914289387E-1    4.291202049474683E-1   -2.735818877838347E-3    3.477056334740226E-3   -2.572841928221881E-3    3.695213008405460E-3    3.886366657907968E-1    2.855618730338514E-1
 8.062081288600000E9     3.831624412034555E-1    4.289792575709218E-1   -2.752664390471506E-3    3.500127923794337E-3   -2.595330856021194E-3    3.717868512528671E-3    3.886070260553731E-1    2.856041237877203E-1
 8.062081990875000E9     3.831883422924299E-1    4.290019727313629E-1   -2.747224866900139E-3    3.493151971876472E-3   -2.582366466214811E-3    3.715956714630543E-3    3.886474158645656E-1    2.855175926961986E-1
 8.062082693150000E9     3.833045527100053E-1    4.288703035865410E-1   -2.774811627561557E-3    3.533367077433533E-3   -2.527117437134031E-3    3.739060743361720E-3    3.885174059112462E-1    2.853826832993162E-1
 8.062083395425000E9     3.833383169888235E-1    4.289059775326310E-1   -2.781300444756355E-3    3.531393239472547E-3   -2.595035606552593E-3    3.754502606564917E-3    3.887057757790380E-1    2.854049985227178E-1
 8.062084097700000E9     3.834224026749630E-1    4.287463372306759E-1   -2.797297889894924E-3    3.549260942724381E-3   -2.615179490389921E-3    3.776780216176623E-3    3.887411598706361E-1    2.852996618784181E-1
 8.062084799975000E9     3.834152987754123E-1    4.285767347413100E-1   -2.800428298250083E-3    3.573202178568846E-3   -2.601620401819172E-3    3.753390332702436E-3    3.886928494916472E-1    2.853315749990300E-1
 8.062085502250000E9     3.836072371006212E-1    4.285002308105564E-1   -2.781134530763206E-3    3.542942528383673E-3   -2.613982791187487E-3    3.791009096229472E-3    3.887799416400500E-1    2.853690406028441E-1
 8.062086204525000E9     3.836141848943253E-1    4.283356308696846E-1   -2.805679614092921E-3    3.580081749526568E-3   -2.575668208466002E-3    3.789520729903516E-3    3.886329426237825E-1    2.852519700452500E-1
 8.062086906800000E9     3.836730511252974E-1    4.282542808914188E-1   -2.810760447258572E-3    3.612364317023419E-3   -2.600554684304792E-3    3.798628383982187E-3    3.888563428271395E-1    2.852917568234975E-1
 8.062087609075000E9     3.838210114712580E-1    4.281893160031570E-1   -2.817742871247838E-3    3.625342057537370E-3   -2.619803944634487E-3    3.821537096556535E-3    3.887773009998160E-1    2.852997803987784E-1
 8.062088311350000E9     3.838902259726100E-1    4.281251787718485E-1   -2.807513255148514E-3    3.631156429412118E-3   -2.631371339038044E-3    3.854524819129848E-3    3.888788592366239E-1    2.852227221791963E-1
 8.062089013625000E9     3.840234563583161E-1    4.280368586037803E-1   -2.822115921818343E-3    3.645541560509964E-3   -2.650516430582779E-3    3.879677106035724E-3    3.889871870359070E-1    2.852021089252271E-1
 8.062089715900000E9     3.839752661259255E-1    4.280558566685115E-1   -2.835806571491967E-3    3.618854947134733E-3   -2.623150039338361E-3    3.848203357834023E-3    3.889521409201739E-1    2.850778290052369E-1
 8.062090418175000E9     3.841056427772805E-1    4.280250122061612E-1   -2.840525017769976E-3    3.668120759661739E-3   -2.634932530740066E-3    3.852484676156931E-3    3.889501320469311E-1    2.851845380651691E-1
 8.062091120450000E9     3.842354281539183E-1    4.278550994720035E-1   -2.842091265702590E-3    3.677587806770727E-3   -2.659841454142197E-3    3.916696441165937E-3    3.889814447364009E-1    2.850394194167390E-1
 8.062091822725000E9     3.843596345184224E-1    4.277476849964421E-1   -2.878524435767576E-3    3.693159916689219E-3   -2.657997542899612E-3    3.918069239852723E-3    3.890897426920058E-1    2.850847183042167E-1
 8.062092525000000E9     3.843482507386489E-1    4.276375538971825E-1   -2.845077862934372E-3    3.701291421163511E-3   -2.677283932338946E-3    3.903132709100406E-3    3.888857734692120E-1    2.850318162022837E-1
 8.062093227275000E9     3.843867881492271E-1    4.276431600016948E-1   -2.868646698122979E-3    3.734593260350766E-3   -2.694973276468521E-3    3.924028121245799E-3    3.890282785302309E-1    2.849648875691470E-1
 8.062093929550000E9     3.846490756080248E-1    4.273891471213388E-1   -2.907559971563738E-3    3.720772012817511E-3   -2.647354092969148E-3    3.945805982109748E-3    3.890878193638613E-1    2.849398829965114E-1
 8.062094631825000E9     3.846799913646909E-1    4.273191023342917E-1   -2.871479110273851E-3    3.792862490294297E-3   -2.682957316695081E-3    3.971832181455735E-3    3.890506275566270E-1    2.850128313976944E-1
 8.062095334100000E9     3.847077738611279E-1    4.272827003700868E-1   -2.883210554332011E-3    3.771120453546337E-3   -2.686376403641514E-3    3.964532764777522E-3    3.890698544728601E-1    2.849360484551024E-1
 8.062096036375000E9     3.846751114558796E-1    4.272179692724701E-1   -2.925998225714622E-3    3.778207264725429E-3   -2.705688569580797E-3    3.942921526600040E-3    3.891874566261604E-1    2.846624563478284E-1
 8.062096738650000E9     3.849631832773640E-1    4.271205566186191E-1   -2.896339647392377E-3    3.774751296738789E-3   -2.717834195515327E-3    4.013462882104146E-3    3.890786413515381E-1    2.847044393724376E-1
 8.062097440925000E9     3.850375900392479E-1    4.269997366970991E-1   -2.914905552972839E-3    3.829787110282968E-3   -2.717801707719997E-3    4.032693012926862E-3    3.891326763754518E-1    2.847197596684607E-1
 8.062098143200000E9     3.850995572569447E-1    4.267860339269330E-1   -2.922172744773001E-3    3.827867046940328E-3   -2.744119092834978E-3    4.077162013583110E-3    3.890694324679271E-1    2.846206201902057E-1
 8.062098845475000E9     3.851233770952392E-1    4.266987228086946E-1   -2.906865404817033E-3    3.853058495160307E-3   -2.727271630164258E-3    4.048063612005701E-3    3.892165638357706E-1    2.846628397600809E-1
 8.062099547750000E9     3.852441715121643E-1    4.266799394284401E-1   -2.939468187973904E-3    3.880770492874842E-3   -2.739395560892978E-3    4.093409538619872E-3    3.892655266440420E-1    2.845811486717288E-1
 8.062100250025000E9     3.854018552070196E-1    4.265640623425431E-1   -2.935728528327714E-3    3.888034293991793E-3   -2.761414295013002E-3    4.124636478766349E-3    3.891832231627084E-1    2.846111961257898E-1
 8.062100952300000E9     3.854281207307685E-1    4.265411197216791E-1   -2.950952213314462E-3    3.913427614170737E-3   -2.742179698990323E-3    4.126511150452010E-3    3.892013347272920E-1    2.844943396261354E-1
 8.062101654575000E9     3.854817032644290E-1    4.264813151636588E-1   -2.930688237402954E-3    3.920363465972773E-3   -2.758646165128071E-3    4.153286561708748E-3    3.891059265444676E-1    2.843916569642757E-1
 8.062102356850000E9     3.855438562745711E-1    4.262133330055006E-1   -2.960868239624476E-3    3.957808769970226E-3   -2.793736249956544E-3    4.191916233678778E-3    3.893703178610275E-1    2.845488133224552E-1
 8.062103059125000E9     3.856550125875540E-1    4.260587570349757E-1   -2.977140882556025E-3    3.958739270983308E-3   -2.777171160767004E-3    4.160496061897275E-3    3.893413703228701E-1    2.844382006105343E-1
 8.062103761400000E9     3.858108463183269E-1    4.260747576957701E-1   -2.972599715317117E-3    3.957799390875751E-3   -2.794486855347804E-3    4.204156629207470E-3    3.893614977162568E-1    2.844646761605807E-1
 8.062104463675000E9     3.858113915938073E-1    4.259830999927652E-1   -2.979975181724955E-3    3.978268442214008E-3   -2.766123197245458E-3    4.201087631968809E-3    3.894329119802624E-1    2.843792857218165E-1
 8.062105165950000E9     3.860416696636430E-1    4.258309692125283E-1   -3.016566593571831E-3    3.994973493186595E-3   -2.769432600220683E-3    4.221010259343980E-3    3.894976444751455E-1    2.842982520830029E-1
 8.062105868225000E9     3.859420186708256E-1    4.256521897814798E-1   -3.007540933445371E-3    4.011943982790141E-3   -2.779434808553805E-3    4.280454274266265E-3    3.894183382315216E-1    2.843304516603249E-1
 8.062106570500000E9     3.861042096707856E-1    4.256682030136569E-1   -3.007964455264082E-3    4.043762089078686E-3   -2.809323707192638E-3    4.253518291917607E-3    3.894936377432870E-1    2.842545501032815E-1
 8.062107272775000E9     3.861443648121852E-1    4.254605619248022E-1   -3.034872013901059E-3    4.055997707139847E-3   -2.828340730996300E-3    4.290329987963894E-3    3.895383297320356E-1    2.842573226037944E-1
 8.062107975050000E9     3.863158086808893E-1    4.253773327245774E-1   -3.047254817822399E-3    4.076198874119509E-3   -2.833655875023983E-3    4.303308194180540E-3    3.895219318304509E-1    2.840907923081488E-1
 8.062108677325000E9     3.863755985675454E-1    4.252959161744567E-1   -3.035830925346191E-3    4.103289775719822E-3   -2.829718774955817E-3    4.327983625771260E-3    3.897349258033719E-1    2.841732300471520E-1
 8.062109379600000E9     3.864533760844348E-1    4.250552648550820E-1   -3.045870445517627E-3    4.118981851777571E-3   -2.876913155494794E-3    4.350427535072162E-3    3.895136608935134E-1    2.840238703803448E-1
 8.062110081875000E9     3.865072538329528E-1    4.250539149477854E-1   -3.072423914819604E-3    4.136042861306428E-3   -2.854282152982788E-3    4.371350006781972E-3    3.896304634923762E-1    2.839687301550106E-1
 8.062110784150000E9     3.866451877281175E-1    4.248117352527667E-1   -3.065390428831695E-3    4.177699185630779E-3   -2.871783802646057E-3    4.400468993380607E-3    3.897294278387680E-1    2.840540876936275E-1
 8.062111486425000E9     3.867750084773690E-1    4.247535130856129E-1   -3.086702024622060E-3    4.168811385384283E-3   -2.888922102004109E-3    4.414299885089210E-3    3.897350795312314E-1    2.839053944396796E-1
 8.062112188700000E9     3.869561515608803E-1    4.246591181715428E-1   -3.072176910599249E-3    4.211980493079416E-3   -2.892959122538097E-3    4.440294691099612E-3    3.897063212894257E-1    2.838957869809489E-1
 8.062112890975000E9     3.869982894947989E-1    4.245043662847641E-1   -3.114182400587014E-3    4.221286101188063E-3   -2.887873458586246E-3    4.447586114520501E-3    3.897747679005627E-1    2.838310674573969E-1
 8.062113593250000E9     3.871084239372997E-1    4.244263134609982E-1   -3.104409590214038E-3    4.265161252307628E-3   -2.884960999065093E-3    4.508121158346570E-3    3.897317215151435E-1    2.838276943126221E-1
 8.062114295525000E9     3.872276130805287E-1    4.241923771337776E-1   -3.121158296594543E-3    4.271832866733782E-3   -2.865614414017250E-3    4.511983717192044E-3    3.898110665508465E-1    2.837823840081774E-1
 8.062114997800000E9     3.872838203133271E-1    4.241564299328351E-1   -3.143380131341204E-3    4.308116834220062E-3   -2.884475924867002E-3    4.525219107551014E-3    3.896576178232292E-1    2.837920017053431E-1
 8.062115700075000E9     3.874075778187852E-1    4.239308543295994E-1   -3.131318369885140E-3    4.312608197241428E-3   -2.947413582121554E-3    4.579925434534589E-3    3.897824293894037E-1    2.836175517598269E-1
 8.062116402350000E9     3.875160645360627E-1    4.237889836477794E-1   -3.170749916088932E-3    4.330899210393938E-3   -2.888519463141431E-3    4.551946409852886E-3    3.897383184944041E-1    2.837038617583632E-1
 8.062117104625000E9     3.875376484262082E-1    4.237854145960523E-1   -3.173557081978884E-3    4.377691432186654E-3   -2.940271498713008E-3    4.635802348039656E-3    3.898064734266051E-1    2.837515981954353E-1
 8.062117806900000E9     3.877316184340380E-1    4.235403622936452E-1   -3.175896926357692E-3    4.403320220779250E-3   -2.955202607115844E-3    4.642987648223637E-3    3.897420251763820E-1    2.836067191968168E-1
 8.062118509175000E9     3.878469542650941E-1    4.233962221754557E-1   -3.186156806523654E-3    4.400919550187471E-3   -2.971289498959051E-3    4.628415159654715E-3    3.899435504555180E-1    2.835329849627050E-1
 8.062119211450000E9     3.880038236492585E-1    4.233240940439547E-1   -3.187179387286556E-3    4.433371116154537E-3   -2.916676886147881E-3    4.692821608361607E-3    3.899739272544711E-1    2.836276570376298E-1
 8.062119913725000E9     3.879960615614135E-1    4.231172527961825E-1   -3.215427182569586E-3    4.449837479376133E-3   -2.970254372747157E-3    4.736417032670584E-3    3.899909942490820E-1    2.833804948390609E-1
 8.062120616000000E9     3.880382219673348E-1    4.229890857927229E-1   -3.248297058654316E-3    4.493144589235218E-3   -2.956170840195412E-3    4.740873126696223E-3    3.900402385930637E-1    2.834756090677311E-1
 8.062121318275000E9     3.881746081967420E-1    4.229194137220710E-1   -3.252159813872267E-3    4.544281029045509E-3   -2.965342013258872E-3    4.766764084599717E-3    3.899902205295212E-1    2.834194635606195E-1
 8.062122020550000E9     3.883568063943874E-1    4.227479489504067E-1   -3.231523471468503E-3    4.527300966801108E-3   -2.992258135609713E-3    4.774936657444968E-3    3.901214764225226E-1    2.834800943489423E-1
 8.062122722825000E9     3.882785969002068E-1    4.225529486487464E-1   -3.236421856976495E-3    4.592090942546131E-3   -3.007789838716881E-3    4.787764618159267E-3    3.900848747125750E-1    2.832247174260589E-1
 8.062123425100000E9     3.883794331990268E-1    4.225033850466451E-1   -3.267308253648759E-3    4.623525000363996E-3   -3.015488518875205E-3    4.865151219545112E-3    3.900467634497828E-1    2.833562553211409E-1
 8.062124127375000E9     3.886180108474007E-1    4.222345566119591E-1   -3.278399415234232E-3    4.623194269320275E-3   -3.024949283218089E-3    4.853294025227350E-3    3.900331347678344E-1    2.832011525038481E-1
 8.062124829650000E9     3.887456447804233E-1    4.221043494527559E-1   -3.280452832787045E-3    4.645855299705793E-3   -3.021548324427053E-3    4.925035158441358E-3    3.901943070379590E-1    2.831815916272079E-1
 8.062125531925000E9     3.887504120740809E-1    4.220726752531074E-1   -3.285475399446338E-3    4.684845875512642E-3   -3.025724743095272E-3    4.939343663424559E-3    3.901112288020198E-1    2.832072391800117E-1
 8.062126234200000E9     3.891120635770702E-1    4.217952642263329E-1   -3.305851282964325E-3    4.723092916975636E-3   -3.033471058511739E-3    4.950678206195647E-3    3.902223398658561E-1    2.830768931066912E-1
 8.062126936475000E9     3.890898325039338E-1    4.216927963968592E-1   -3.323051248157463E-3    4.736199216131706E-3   -3.052698140603185E-3    5.005675630573902E-3    3.902300618235328E-1    2.829514869032217E-1
 8.062127638750000E9     3.892406714021013E-1    4.215155502491627E-1   -3.334346040532987E-3    4.787050864138187E-3   -3.059770793296838E-3    5.006566659551326E-3    3.901722295897261E-1    2.828263140904441E-1
