#  HZ   S   RI   R     50.00 
! Rohde & Schwarz Vector Network Analyzer 
! Rohde-Schwarz,ZNB20-2Port,1311601062101988,3.16
! Created: UTC 3/20/2024, 10:56:25 PM
! freq[Hz]                re:S11                  im:S11                  re:S21                  im:S21                  re:S12                  im:S12                  re:S22                  im:S22
 8.062029929000000E9     3.786505458620190E-1    4.333834940574213E-1   -2.501027457075724E-3    3.047276989318013E-3   -2.328095946221352E-3    3.224887313921558E-3    3.872074643252347E-1    2.882037630039331E-1
 8.062030720925000E9     3.786626119735874E-1    4.332639252946992E-1   -2.475648206972109E-3    3.049051010280605E-3   -2.332399458025164E-3    3.252562286446197E-3    3.872767833724722E-1    2.879765756870132E-1
 8.062031512850000E9     3.788682947700482E-1    4.331873005346280E-1   -2.503080520235713E-3    3.034373738072229E-3   -2.317226701541940E-3    3.235103171938398E-3    3.872126845036083E-1    2.880814282227047E-1
 8.062032304775000E9     3.787705757149288E-1    4.330351772659531E-1   -2.491105354314382E-3    3.089880149654731E-3   -2.314089491294751E-3    3.228757939332599E-3    3.872391337414246E-1    2.880367253750429E-1
 8.062033096700000E9     3.790653217338975E-1    4.330843837092454E-1   -2.483703561116954E-3    3.079957964251884E-3   -2.347810475857642E-3    3.236408175240295E-3    3.873898731108004E-1    2.878739667749574E-1
 8.062033888625000E9     3.790133552484576E-1    4.329668731978545E-1   -2.512153255881527E-3    3.075083781975820E-3   -2.379940403541247E-3    3.254658298566276E-3    3.872979445251085E-1    2.878732757964463E-1
 8.062034680550000E9     3.791776354041802E-1    4.328086297129174E-1   -2.530283188272064E-3    3.079341946826138E-3   -2.332669562273748E-3    3.278443040756903E-3    3.873965036100368E-1    2.878894241371582E-1
 8.062035472475000E9     3.792137709921908E-1    4.328017922855832E-1   -2.523276120443538E-3    3.088585720763422E-3   -2.374167772421045E-3    3.285381994594797E-3    3.874363352578119E-1    2.877921918698992E-1
 8.062036264400000E9     3.791530167090928E-1    4.327084463329979E-1   -2.521530901529434E-3    3.090980635504247E-3   -2.347684242043019E-3    3.289356894553764E-3    3.875318588960219E-1    2.876021917910952E-1
 8.062037056325000E9     3.792888290787768E-1    4.327096385776006E-1   -2.541045874225826E-3    3.106764425357351E-3   -2.351693221024519E-3    3.307577561687938E-3    3.875098303209951E-1    2.876842986184400E-1
 8.062037848250000E9     3.794130087798187E-1    4.326379837490816E-1   -2.535118487464542E-3    3.134359878301458E-3   -2.371284140585245E-3    3.296404420291370E-3    3.874874044684751E-1    2.877003140569853E-1
 8.062038640175000E9     3.796875998697581E-1    4.325677969684094E-1   -2.538493313614673E-3    3.154442244427153E-3   -2.374584609059116E-3    3.330006067574076E-3    3.874318729754095E-1    2.876481863792247E-1
 8.062039432100000E9     3.796158508690981E-1    4.324204369902392E-1   -2.547461691516416E-3    3.138555519157120E-3   -2.378216108534330E-3    3.348823277575219E-3    3.875543083396499E-1    2.875668017321996E-1
 8.062040224025000E9     3.797263942112019E-1    4.323998642750554E-1   -2.545596475341253E-3    3.157482210413947E-3   -2.358616975379908E-3    3.340395620625792E-3    3.876250898670384E-1    2.876800702188420E-1
 8.062041015950000E9     3.798328738426071E-1    4.323376584988363E-1   -2.550784533179890E-3    3.131084892438106E-3   -2.415878352452700E-3    3.308901603757117E-3    3.876444757802932E-1    2.876232607222897E-1
 8.062041807875000E9     3.796630088437090E-1    4.321376154514779E-1   -2.553648945487725E-3    3.173324017641041E-3   -2.408849999702518E-3    3.360506083485191E-3    3.876334290896556E-1    2.874523797813808E-1
 8.062042599800000E9     3.797714117676347E-1    4.321459703580041E-1   -2.559752326015817E-3    3.161997689144812E-3   -2.381036278378139E-3    3.361462693022914E-3    3.874840322347659E-1    2.874100510092339E-1
 8.062043391725000E9     3.798965606853335E-1    4.320100624507233E-1   -2.560665283750938E-3    3.192578857171466E-3   -2.396217350175059E-3    3.362218645659761E-3    3.876892885401275E-1    2.874399114984444E-1
 8.062044183650000E9     3.800393632542068E-1    4.318539817235693E-1   -2.561744093419645E-3    3.204751645118714E-3   -2.423582154479837E-3    3.381518399324468E-3    3.877760441974250E-1    2.873847521030232E-1
 8.062044975575000E9     3.801994451799611E-1    4.319433370508889E-1   -2.585097876673739E-3    3.193672175014360E-3   -2.424951120643352E-3    3.411213072173168E-3    3.877563979779425E-1    2.874241039516036E-1
 8.062045767500000E9     3.801129480949918E-1    4.318375438676970E-1   -2.569521736547443E-3    3.220922032942321E-3   -2.424368703878739E-3    3.418800243481168E-3    3.877650773306375E-1    2.872953661374587E-1
 8.062046559425000E9     3.803927584732077E-1    4.317533879238947E-1   -2.592526780213602E-3    3.227676213826499E-3   -2.420740222431995E-3    3.428065844805599E-3    3.878609664736380E-1    2.872165541078600E-1
 8.062047351350000E9     3.804149434969522E-1    4.316620454720508E-1   -2.609971494575545E-3    3.216135605148175E-3   -2.427103433179780E-3    3.441007021980566E-3    3.877872235995076E-1    2.872904529446141E-1
 8.062048143275000E9     3.804344649627405E-1    4.316322527429843E-1   -2.613952461332229E-3    3.261220527421482E-3   -2.422399092128694E-3    3.443256404887067E-3    3.878274667504218E-1    2.871742079991669E-1
 8.062048935200000E9     3.806159016262904E-1    4.315559869865393E-1   -2.623514513226499E-3    3.268211661356316E-3   -2.414820595545005E-3    3.470508829917470E-3    3.879816060448482E-1    2.872212169133752E-1
 8.062049727125000E9     3.806481635082003E-1    4.314653882643031E-1   -2.612738846984643E-3    3.286796599461468E-3   -2.442345859912788E-3    3.461997411968140E-3    3.879492697255581E-1    2.869036493080160E-1
 8.062050519050000E9     3.806630571066811E-1    4.314355224856471E-1   -2.611701672746162E-3    3.279489225182948E-3   -2.441045743656227E-3    3.493321262081973E-3    3.881406285213965E-1    2.870130404839379E-1
 8.062051310975000E9     3.807879501666728E-1    4.313881319922279E-1   -2.616535168131467E-3    3.274685324799141E-3   -2.433191803590867E-3    3.493550987236995E-3    3.880262035038489E-1    2.871156560171699E-1
 8.062052102900000E9     3.807719410178961E-1    4.311306661803526E-1   -2.633318452114698E-3    3.298097634747809E-3   -2.443947237897592E-3    3.507258986651300E-3    3.879812387438088E-1    2.870016312439943E-1
 8.062052894825000E9     3.808743942112239E-1    4.310439718682474E-1   -2.637366510279799E-3    3.310710488621916E-3   -2.443744045112514E-3    3.497840680032588E-3    3.879923528142324E-1    2.869463814020902E-1
 8.062053686750000E9     3.810038295514163E-1    4.310888577330502E-1   -2.640011349729555E-3    3.321097627775989E-3   -2.496170172811657E-3    3.507160309569408E-3    3.881386772811700E-1    2.868969174818642E-1
 8.062054478675000E9     3.810827499813815E-1    4.308917328978614E-1   -2.623657420657049E-3    3.338204866664750E-3   -2.517565877705886E-3    3.506086466896155E-3    3.880577443947832E-1    2.868819806628243E-1
 8.062055270600000E9     3.812450335393796E-1    4.309494654784642E-1   -2.677537127422694E-3    3.335233336996791E-3   -2.486412529569991E-3    3.513170362309490E-3    3.879488287548605E-1    2.868406965782916E-1
 8.062056062525000E9     3.811406357498722E-1    4.307834977755063E-1   -2.671123578401542E-3    3.376894203234782E-3   -2.427553794868153E-3    3.551432263845674E-3    3.882433954152544E-1    2.867868257345741E-1
 8.062056854450000E9     3.812886416353992E-1    4.306864167151052E-1   -2.656612399140465E-3    3.377881617050364E-3   -2.502443195343812E-3    3.575184500577592E-3    3.880076685044804E-1    2.867505721762509E-1
 8.062057646375000E9     3.814289333872842E-1    4.305974060254785E-1   -2.667370067213454E-3    3.390942593508431E-3   -2.501929415248692E-3    3.583577074588590E-3    3.880951125686590E-1    2.868213763966649E-1
 8.062058438300000E9     3.815184532673839E-1    4.304827968346196E-1   -2.666301845570028E-3    3.408778228699084E-3   -2.474190738883800E-3    3.579233052876832E-3    3.881627701530233E-1    2.865456624735172E-1
 8.062059230225000E9     3.816013863166940E-1    4.305600301722617E-1   -2.681732026547903E-3    3.429418149498095E-3   -2.478149330984942E-3    3.572023090170762E-3    3.882577700533179E-1    2.864921239287109E-1
 8.062060022150000E9     3.817641866019238E-1    4.303628738180816E-1   -2.690748240925765E-3    3.429133102598562E-3   -2.529659422760757E-3    3.613436292526434E-3    3.882701736989054E-1    2.866666257751644E-1
 8.062060814075000E9     3.818341275183865E-1    4.302573531445650E-1   -2.675963259967943E-3    3.433572417722026E-3   -2.498372285005005E-3    3.640377103403574E-3    3.883097253603284E-1    2.865175650995853E-1
 8.062061606000000E9     3.818213233181224E-1    4.300855264320331E-1   -2.709269312884565E-3    3.448423729302871E-3   -2.524232911303396E-3    3.660165817741455E-3    3.883485077991721E-1    2.864214744279541E-1
 8.062062397925000E9     3.818909283188801E-1    4.301162911351154E-1   -2.708623649289654E-3    3.470812084522697E-3   -2.538735606730916E-3    3.638798172202851E-3    3.883818023510658E-1    2.863460679663079E-1
 8.062063189850000E9     3.818756744637076E-1    4.299330049204051E-1   -2.703999279535661E-3    3.457925615499259E-3   -2.508416227692006E-3    3.682059416155310E-3    3.883522237884509E-1    2.864633402124032E-1
 8.062063981775000E9     3.821967266033611E-1    4.299445712432675E-1   -2.733985453350066E-3    3.499521840727580E-3   -2.527625364913006E-3    3.674127380244086E-3    3.884435588718772E-1    2.863295535068484E-1
 8.062064773700000E9     3.821715898034243E-1    4.297943241880115E-1   -2.713271151392983E-3    3.515602040642391E-3   -2.566314624908033E-3    3.739729578769893E-3    3.883623322728000E-1    2.863077631274565E-1
 8.062065565625000E9     3.822457524439037E-1    4.297399067711254E-1   -2.732760888636089E-3    3.519426674822398E-3   -2.564889868712676E-3    3.704045403924999E-3    3.884308424603586E-1    2.861967548885462E-1
 8.062066357550000E9     3.823263575745052E-1    4.295752102379898E-1   -2.758510650295978E-3    3.511203878341149E-3   -2.544303069142701E-3    3.719254654183088E-3    3.885414454281239E-1    2.862805907160901E-1
 8.062067149475000E9     3.824985676402221E-1    4.294614064973892E-1   -2.719685416288187E-3    3.538644026432023E-3   -2.571328363210549E-3    3.740263154863605E-3    3.884696601436123E-1    2.861329679934233E-1
 8.062067941400000E9     3.824707526107208E-1    4.294578599669128E-1   -2.759296762321031E-3    3.565422357072050E-3   -2.580393607670282E-3    3.759269391076631E-3    3.886621631699811E-1    2.860706302996787E-1
 8.062068733325000E9     3.826069236860391E-1    4.293910568765038E-1   -2.753791997164213E-3    3.568853304325690E-3   -2.566557738892299E-3    3.800370767565746E-3    3.886381122697865E-1    2.860134418592485E-1
 8.062069525250000E9     3.825845939928862E-1    4.291927658270164E-1   -2.762762454337004E-3    3.587740055483317E-3   -2.594942862078125E-3    3.854368872744718E-3    3.887275890188023E-1    2.860798010587549E-1
 8.062070317175000E9     3.828030052375307E-1    4.290537313709595E-1   -2.785225516766800E-3    3.609172210575321E-3   -2.589461596609028E-3    3.779757938497831E-3    3.885719730601722E-1    2.860188359320342E-1
 8.062071109100000E9     3.828936130521777E-1    4.289333113016692E-1   -2.783844532258784E-3    3.628769200302711E-3   -2.580004986116054E-3    3.854447612500842E-3    3.886461585124293E-1    2.860358065509611E-1
 8.062071901025000E9     3.828510051270438E-1    4.289679584006255E-1   -2.805664668668214E-3    3.618628820952975E-3   -2.635214871438595E-3    3.844659932512493E-3    3.888082705688689E-1    2.858822875113153E-1
 8.062072692950000E9     3.829511065973183E-1    4.288634297388154E-1   -2.780194421228756E-3    3.606583452703602E-3   -2.564021839449777E-3    3.845400945700473E-3    3.886670671844623E-1    2.860047756291682E-1
 8.062073484875000E9     3.831310150134628E-1    4.286735073700752E-1   -2.811871505154560E-3    3.666825765250404E-3   -2.612187119276435E-3    3.859906749703848E-3    3.887871143042449E-1    2.858591843700431E-1
 8.062074276800000E9     3.831778188079985E-1    4.286839327395530E-1   -2.809587299060080E-3    3.671403368199255E-3   -2.611378072004969E-3    3.857333358928858E-3    3.887116147474360E-1    2.857629076720320E-1
 8.062075068725000E9     3.833040823545684E-1    4.285510292307004E-1   -2.829849242449742E-3    3.690492128414964E-3   -2.636675826088289E-3    3.891070809720016E-3    3.887335995994501E-1    2.857853625418291E-1
 8.062075860650000E9     3.833745983685263E-1    4.283418402338441E-1   -2.821925125253312E-3    3.689395669969100E-3   -2.621169309449657E-3    3.913894679294430E-3    3.888776146738039E-1    2.857976004125539E-1
 8.062076652575000E9     3.836347370913569E-1    4.282855058141233E-1   -2.833585989761103E-3    3.723013196075333E-3   -2.653144847933456E-3    3.951824406434804E-3    3.887816299256165E-1    2.856873556670319E-1
 8.062077444500000E9     3.835362601140812E-1    4.281528130445450E-1   -2.856031846378171E-3    3.756004847732207E-3   -2.674957029737442E-3    3.972152653598541E-3    3.888494828102170E-1    2.856681612880342E-1
 8.062078236425000E9     3.836183077812596E-1    4.281886060979735E-1   -2.834268641596449E-3    3.766016699039291E-3   -2.662815249092436E-3    3.989244746159855E-3    3.889186531054591E-1    2.855971879681133E-1
 8.062079028350000E9     3.837172123902598E-1    4.280212476233060E-1   -2.863636728951390E-3    3.755016124937421E-3   -2.687384770458733E-3    3.986758943206441E-3    3.889662252546667E-1    2.855254085027155E-1
 8.062079820275000E9     3.839180341958122E-1    4.279256436334202E-1   -2.844814543891145E-3    3.811092663888853E-3   -2.681003325179160E-3    3.988900884821226E-3    3.889192933583359E-1    2.855307853309670E-1
 8.062080612200000E9     3.839842184019356E-1    4.277410674316004E-1   -2.905174493057579E-3    3.822507948616126E-3   -2.665462340027325E-3    4.026248105305388E-3    3.889805447951072E-1    2.854144422776100E-1
 8.062081404125000E9     3.841357184124363E-1    4.276986904640206E-1   -2.913174785470037E-3    3.836225412599536E-3   -2.710631240495054E-3    4.059006125844775E-3    3.890161256362297E-1    2.853829868096710E-1
 8.062082196050000E9     3.840581923000871E-1    4.274936642298034E-1   -2.888209156584431E-3    3.833828163766155E-3   -2.698594158939424E-3    4.108644890822762E-3    3.890559462506059E-1    2.852908454762220E-1
 8.062082987975000E9     3.842442204943019E-1    4.274491639962902E-1   -2.896043302871696E-3    3.846225271239591E-3   -2.718468957915492E-3    4.098349370878705E-3    3.890572262449615E-1    2.853800546368436E-1
 8.062083779900000E9     3.842957837876596E-1    4.272838519627372E-1   -2.874078842005189E-3    3.875169587390568E-3   -2.670610362249138E-3    4.089647300040558E-3    3.890853883207102E-1    2.852717536636049E-1
 8.062084571825000E9     3.844307317907132E-1    4.271672573534186E-1   -2.917410004140703E-3    3.904481704682227E-3   -2.707981231252593E-3    4.129131927526434E-3    3.890617740699761E-1    2.852450067559068E-1
 8.062085363750000E9     3.845686145485421E-1    4.269345765995313E-1   -2.923653134597148E-3    3.912847783003655E-3   -2.732120787628843E-3    4.146129614372486E-3    3.890525275168851E-1    2.852356828052602E-1
 8.062086155675000E9     3.845792149730933E-1    4.268994738705642E-1   -2.922355394768917E-3    3.926083404212321E-3   -2.726454863353034E-3    4.150272800284210E-3    3.890908844806668E-1    2.851271879166052E-1
 8.062086947600000E9     3.846408677177873E-1    4.268767734044324E-1   -2.953518599225562E-3    3.954178878034951E-3   -2.684367612977620E-3    4.188912135169915E-3    3.891960461529482E-1    2.850660754606226E-1
 8.062087739525000E9     3.848010519335184E-1    4.266487199976268E-1   -2.951498854664910E-3    3.996681518227420E-3   -2.714578024453253E-3    4.211626971745782E-3    3.892310975662699E-1    2.850538812364448E-1
 8.062088531450000E9     3.848766717360864E-1    4.267276951496062E-1   -2.957164138973223E-3    3.979075533105518E-3   -2.745081415124888E-3    4.218618884923992E-3    3.893328001803251E-1    2.850549800394790E-1
 8.062089323375000E9     3.850688243615240E-1    4.264010327932249E-1   -2.940799438878868E-3    4.009970613978035E-3   -2.755484217391944E-3    4.247665881023497E-3    3.892210579450691E-1    2.850525644356980E-1
 8.062090115300000E9     3.850860297154588E-1    4.262155880110133E-1   -2.977950646542394E-3    4.049905359224759E-3   -2.729202044111217E-3    4.262702593531533E-3    3.891938975879446E-1    2.849758403068521E-1
 8.062090907225000E9     3.852026121159820E-1    4.262165341149903E-1   -3.003339871845389E-3    4.066567922647529E-3   -2.781915530019071E-3    4.284300598725655E-3    3.892307201889484E-1    2.849609733253737E-1
 8.062091699150000E9     3.853035578272359E-1    4.260143478162733E-1   -2.990156313652039E-3    4.084769496681939E-3   -2.797741954140596E-3    4.306954332863142E-3    3.893066717493323E-1    2.847409646414754E-1
 8.062092491075000E9     3.852841834415422E-1    4.259816025526830E-1   -2.999126640881201E-3    4.103864735967829E-3   -2.791327176730335E-3    4.383142650860858E-3    3.894310549440568E-1    2.847100789047621E-1
 8.062093283000000E9     3.855866693172332E-1    4.257593997970927E-1   -3.017726811501449E-3    4.128699436584688E-3   -2.774957170920174E-3    4.387230449054115E-3    3.894148165559820E-1    2.848324856194734E-1
 8.062094074925000E9     3.856912300211930E-1    4.255813205627861E-1   -3.016477969835343E-3    4.150105048783975E-3   -2.800312498269808E-3    4.436800334837077E-3    3.894755669872528E-1    2.847243317114688E-1
 8.062094866850000E9     3.857308746743177E-1    4.254927373964292E-1   -3.032910241082345E-3    4.197583601286571E-3   -2.809785018858890E-3    4.434042974788023E-3    3.894435039875654E-1    2.847472833823999E-1
 8.062095658775000E9     3.858390192288821E-1    4.252788316946524E-1   -3.055009947835044E-3    4.209004523051897E-3   -2.821921068740983E-3    4.422263588716612E-3    3.896512826692198E-1    2.845521214412464E-1
 8.062096450700000E9     3.859096469468184E-1    4.251779226228745E-1   -3.028037949414509E-3    4.238500352633428E-3   -2.868062443898684E-3    4.459378297606643E-3    3.895994647728329E-1    2.845996514238039E-1
 8.062097242625000E9     3.860490111116959E-1    4.250842758683760E-1   -3.075039178306754E-3    4.268367229474008E-3   -2.841690619253485E-3    4.496691341848212E-3    3.895729916516914E-1    2.845688595499081E-1
 8.062098034550000E9     3.861624698249939E-1    4.249054766234771E-1   -3.099288876864184E-3    4.268571791085054E-3   -2.829662239733594E-3    4.495862846693159E-3    3.897232873852342E-1    2.845056866200708E-1
 8.062098826475000E9     3.863623241530877E-1    4.248351569612778E-1   -3.074023072050844E-3    4.306128909740142E-3   -2.843345510235997E-3    4.542549323534512E-3    3.895761295251074E-1    2.845798152855736E-1
 8.062099618400000E9     3.863817066702780E-1    4.247834748532981E-1   -3.092357947972718E-3    4.337790831438520E-3   -2.870449101128480E-3    4.565275762100261E-3    3.896107867251903E-1    2.845175718257324E-1
 8.062100410325000E9     3.865388680759746E-1    4.244501260771569E-1   -3.113495764567509E-3    4.347653964017996E-3   -2.895050756905328E-3    4.550851097370187E-3    3.895673364401586E-1    2.843837692053280E-1
 8.062101202250000E9     3.866068139845772E-1    4.243004417177723E-1   -3.143657578116799E-3    4.392625600047281E-3   -2.861064895521733E-3    4.621652737039145E-3    3.896628061230213E-1    2.844359145938533E-1
