#  HZ   S   RI   R     50.00 
! Rohde & Schwarz Vector Network Analyzer 
! Rohde-Schwarz,ZNB20-2Port,1311601062101988,3.16
! Created: UTC 3/20/2024, 10:52:24 PM
! freq[Hz]                re:S11                  im:S11                  re:S21                  im:S21                  re:S12                  im:S12                  re:S22                  im:S22
 8.062175474000000E9     3.896569002966230E-1    4.228195183350015E-1   -3.123730221526442E-3    4.053216002399135E-3   -2.921464194740187E-3    4.332748282349898E-3    3.921612484262946E-1    2.809258978250532E-1
 8.062175993325000E9     3.897635114071520E-1    4.226137756052541E-1   -3.131585180798029E-3    4.084826277685186E-3   -2.907335821507402E-3    4.345655928813709E-3    3.921925232131420E-1    2.807990629430496E-1
 8.062176512650000E9     3.899039710715966E-1    4.225020310301640E-1   -3.131031505320055E-3    4.075406582741707E-3   -2.949186130086251E-3    4.339764460566161E-3    3.920431409144495E-1    2.807587449616259E-1
 8.062177031975000E9     3.899158045534979E-1    4.224588392855550E-1   -3.154760250840689E-3    4.122052954088744E-3   -2.940233354207984E-3    4.337842287040532E-3    3.921421522391950E-1    2.808198781262829E-1
 8.062177551300000E9     3.900417219939987E-1    4.224183967102835E-1   -3.149629965708547E-3    4.119285067018260E-3   -2.936627950723464E-3    4.390463543554598E-3    3.922829614223304E-1    2.806838139908116E-1
 8.062178070625000E9     3.901770305458321E-1    4.222652865867556E-1   -3.161275767452145E-3    4.138468685506194E-3   -2.953326781010394E-3    4.386533395482696E-3    3.922101783385495E-1    2.806436041490623E-1
 8.062178589950000E9     3.902496433001147E-1    4.221325265180528E-1   -3.149330357604024E-3    4.136270888691536E-3   -2.967049223586070E-3    4.431745754000099E-3    3.923504495423557E-1    2.806913883541426E-1
 8.062179109275000E9     3.903166814326126E-1    4.220567617643901E-1   -3.169244749674771E-3    4.170398910116798E-3   -2.961282847749063E-3    4.428486994370365E-3    3.923795677151969E-1    2.806245975526308E-1
 8.062179628600000E9     3.903637802794476E-1    4.221212313014181E-1   -3.178226688234402E-3    4.179106830518663E-3   -2.983127102830795E-3    4.455983099115515E-3    3.922576046107040E-1    2.806389699812005E-1
 8.062180147925000E9     3.906237239357913E-1    4.218681132689444E-1   -3.171395817027608E-3    4.195401925259988E-3   -2.966348342836154E-3    4.491533859512350E-3    3.924737159053049E-1    2.805956882381593E-1
 8.062180667250000E9     3.905253295048766E-1    4.217946502940879E-1   -3.191353063370003E-3    4.207851333987510E-3   -3.010369340501323E-3    4.489419814297226E-3    3.923890053920639E-1    2.806503156741821E-1
 8.062181186575000E9     3.905961916263302E-1    4.216989470778537E-1   -3.212085501247791E-3    4.242648811967391E-3   -3.001045353606342E-3    4.491581954519671E-3    3.922234090774674E-1    2.804046001284115E-1
 8.062181705900000E9     3.906435482329270E-1    4.216291531573690E-1   -3.212860565553713E-3    4.242297496741813E-3   -3.006524445423325E-3    4.546819859371635E-3    3.923804857143969E-1    2.805223575694281E-1
 8.062182225225000E9     3.908631925668768E-1    4.215694299920243E-1   -3.220582596825582E-3    4.264198713275748E-3   -3.040289917421836E-3    4.497729837897538E-3    3.925037595051224E-1    2.805022807308089E-1
 8.062182744550000E9     3.908519664009306E-1    4.214744175452831E-1   -3.237646306159370E-3    4.302301680832417E-3   -3.000941120088832E-3    4.568142573856094E-3    3.924426501870126E-1    2.804111953045865E-1
 8.062183263875000E9     3.910246661301624E-1    4.214187821443876E-1   -3.246069766001937E-3    4.277625985661138E-3   -2.992314620453856E-3    4.568697464241818E-3    3.925195491269919E-1    2.805409023799444E-1
 8.062183783200000E9     3.909410689481680E-1    4.212027638338827E-1   -3.225867622843910E-3    4.297412956231465E-3   -3.015590969507214E-3    4.579057413666253E-3    3.925706359486995E-1    2.803312672418202E-1
 8.062184302525000E9     3.910292482252858E-1    4.211437337330051E-1   -3.254506682164981E-3    4.359511532622195E-3   -3.066080819580033E-3    4.607495946778048E-3    3.923987679649950E-1    2.803361399457639E-1
 8.062184821850000E9     3.912744980507751E-1    4.210753438219964E-1   -3.258281078022228E-3    4.369285811563889E-3   -3.006647003503644E-3    4.631163076924936E-3    3.925002733309219E-1    2.805052351279733E-1
 8.062185341175000E9     3.913568710848505E-1    4.209916298548638E-1   -3.278832515841798E-3    4.374864507648294E-3   -3.071472585387475E-3    4.664987940212236E-3    3.925293940451935E-1    2.803490242983362E-1
 8.062185860500000E9     3.914334216493599E-1    4.209119619787051E-1   -3.270621700192711E-3    4.398435431448150E-3   -3.041068009035044E-3    4.665907613045912E-3    3.925177965860345E-1    2.802828428486456E-1
 8.062186379825000E9     3.914682544055677E-1    4.206740373102452E-1   -3.313396998881486E-3    4.402444990432746E-3   -3.081924088994964E-3    4.671195725902950E-3    3.924647714465612E-1    2.801603936341996E-1
 8.062186899150000E9     3.914985065530590E-1    4.206995724541690E-1   -3.319142522792540E-3    4.411041070085536E-3   -3.102667063211394E-3    4.688190123868131E-3    3.925258741958727E-1    2.802561861054098E-1
 8.062187418475000E9     3.914570247550876E-1    4.205447114448598E-1   -3.315579380498753E-3    4.460216169270019E-3   -3.104651656927952E-3    4.724620816959248E-3    3.926884858132090E-1    2.801133230977411E-1
 8.062187937800000E9     3.917410106025332E-1    4.204250030148333E-1   -3.323462593965961E-3    4.467932288019747E-3   -3.084325871458052E-3    4.755920097141307E-3    3.925778312188381E-1    2.801320728645911E-1
 8.062188457125000E9     3.916674414472203E-1    4.203907134352608E-1   -3.328369615764101E-3    4.477914842517950E-3   -3.093399176233599E-3    4.761493173423384E-3    3.925659568905027E-1    2.800752247917014E-1
 8.062188976450000E9     3.918869202574004E-1    4.201917002540452E-1   -3.346811488031295E-3    4.496189135665841E-3   -3.107416684161406E-3    4.789550005367574E-3    3.925734483655247E-1    2.801082817000934E-1
 8.062189495775000E9     3.919117071530243E-1    4.201103522323710E-1   -3.354370184172931E-3    4.518575896992373E-3   -3.110342807250845E-3    4.775227398258588E-3    3.926613430231036E-1    2.800400506117765E-1
 8.062190015100000E9     3.919796767249398E-1    4.200614551755201E-1   -3.347919898516838E-3    4.535966176693320E-3   -3.175577773486927E-3    4.828645126405560E-3    3.926914547188252E-1    2.800389246692606E-1
 8.062190534425000E9     3.922217811495337E-1    4.198448567202377E-1   -3.363534553774487E-3    4.577213222462291E-3   -3.160318974825169E-3    4.860472305115143E-3    3.927737256985072E-1    2.800425562573767E-1
 8.062191053750000E9     3.922289519100411E-1    4.196747450463398E-1   -3.404420161069795E-3    4.582658265823988E-3   -3.152843992913910E-3    4.874235838074550E-3    3.926887528609515E-1    2.801033472690843E-1
 8.062191573075000E9     3.923383611153028E-1    4.197002921731346E-1   -3.409698218831972E-3    4.602966028961888E-3   -3.166334370535947E-3    4.909970936292605E-3    3.926848891686419E-1    2.800091612003319E-1
 8.062192092400000E9     3.924577428468783E-1    4.195556930462687E-1   -3.403098498835507E-3    4.626425068545706E-3   -3.185869792849454E-3    4.940142897848837E-3    3.927714330943949E-1    2.798740459727783E-1
 8.062192611725000E9     3.925982524115606E-1    4.193624052265347E-1   -3.393061026769137E-3    4.640296428341269E-3   -3.214023190340430E-3    4.950444567577587E-3    3.928409121133203E-1    2.798576878562450E-1
 8.062193131050000E9     3.926843085410189E-1    4.192291299499791E-1   -3.435518348161177E-3    4.680268411675894E-3   -3.183295169564249E-3    4.950743501718664E-3    3.928419592281905E-1    2.797700949657137E-1
 8.062193650375000E9     3.927162444969508E-1    4.191828100766398E-1   -3.444625058129730E-3    4.694621915790402E-3   -3.215392200233345E-3    4.985453900238809E-3    3.928034147357992E-1    2.796669858869181E-1
 8.062194169700000E9     3.928600659607184E-1    4.190367725281480E-1   -3.449458090859301E-3    4.728834278661941E-3   -3.204795917629708E-3    5.030463362915218E-3    3.929021080278368E-1    2.797939134444831E-1
 8.062194689025000E9     3.928532093960189E-1    4.189022713318141E-1   -3.433402691358021E-3    4.748751682751695E-3   -3.236794821898793E-3    5.034759726304603E-3    3.929089882021127E-1    2.797193851336007E-1
 8.062195208350000E9     3.930040677716780E-1    4.189089734934884E-1   -3.481491233297418E-3    4.776995229397701E-3   -3.210756734147995E-3    5.031490844132412E-3    3.928328612276303E-1    2.797116255872302E-1
 8.062195727675000E9     3.930932758313005E-1    4.186467292911804E-1   -3.457724173658036E-3    4.764598492926153E-3   -3.214523615436639E-3    5.077259603628018E-3    3.929013231272901E-1    2.797427122419719E-1
 8.062196247000000E9     3.931816614010706E-1    4.186432230577609E-1   -3.498677112614215E-3    4.790406357856419E-3   -3.242016728074516E-3    5.116473195224469E-3    3.928473432290233E-1    2.795861590051962E-1
 8.062196766325000E9     3.932546253022673E-1    4.184546615926220E-1   -3.500868249270512E-3    4.848352084131000E-3   -3.240505901319601E-3    5.131950135312454E-3    3.929888768346301E-1    2.796064412603757E-1
 8.062197285650000E9     3.934260456564539E-1    4.183595804290162E-1   -3.501295959958882E-3    4.852478884718252E-3   -3.284791660418821E-3    5.150068672209529E-3    3.928854256067814E-1    2.795553662794043E-1
 8.062197804975000E9     3.935368041447865E-1    4.181769389353913E-1   -3.501288299318604E-3    4.897204832189737E-3   -3.272693975540671E-3    5.203740485433491E-3    3.930489207028691E-1    2.794820144127928E-1
 8.062198324300000E9     3.936316602958220E-1    4.181371962474821E-1   -3.531363635840365E-3    4.907736455521058E-3   -3.299976587821679E-3    5.189838040930849E-3    3.929201696706711E-1    2.794802802835654E-1
 8.062198843625000E9     3.937252918057897E-1    4.178084563954989E-1   -3.547898683055585E-3    4.947733586583621E-3   -3.354201022742066E-3    5.262207293701114E-3    3.929723138830767E-1    2.793928324674579E-1
 8.062199362950000E9     3.937849983136882E-1    4.178121283794884E-1   -3.534591664955611E-3    4.945262821654011E-3   -3.274701084070721E-3    5.284870541698080E-3    3.928815351263381E-1    2.794906319008690E-1
 8.062199882275000E9     3.939317801816778E-1    4.176423210765554E-1   -3.552272949744005E-3    5.018141772480897E-3   -3.332249332529940E-3    5.292388724117807E-3    3.930361459953793E-1    2.794054701146129E-1
 8.062200401600000E9     3.940196212042559E-1    4.175762056357984E-1   -3.555761998975582E-3    5.014823445033543E-3   -3.306491584252658E-3    5.326896150809590E-3    3.929899834573959E-1    2.794280865630154E-1
 8.062200920925000E9     3.940151260068638E-1    4.174033606442245E-1   -3.598025132613137E-3    5.031563032424018E-3   -3.332968753827556E-3    5.383367247250433E-3    3.930452378024220E-1    2.794408705219194E-1
 8.062201440250000E9     3.941440732222089E-1    4.173990902782810E-1   -3.613947468288609E-3    5.043935474219187E-3   -3.331971895078912E-3    5.366704000045357E-3    3.931666298996515E-1    2.794410582416164E-1
 8.062201959575000E9     3.943213075793818E-1    4.170744843025161E-1   -3.595068855652927E-3    5.096755335789726E-3   -3.356812121477282E-3    5.428684902728532E-3    3.932196408269676E-1    2.792985041981250E-1
 8.062202478900000E9     3.943948512971394E-1    4.170862648520800E-1   -3.643736964414823E-3    5.121113986730704E-3   -3.416888241443494E-3    5.414210719664749E-3    3.930890440783967E-1    2.793177126394618E-1
 8.062202998225000E9     3.945345322065584E-1    4.169407786448114E-1   -3.643916319498958E-3    5.142842775646837E-3   -3.394964598330927E-3    5.440855895588728E-3    3.931393768113787E-1    2.793419339609509E-1
 8.062203517550000E9     3.946691483248128E-1    4.166524552951271E-1   -3.662404039496899E-3    5.174480649066807E-3   -3.423338762610171E-3    5.484558675280450E-3    3.931975167754404E-1    2.792112269864881E-1
 8.062204036875000E9     3.947815432856777E-1    4.165211131332444E-1   -3.659433161449409E-3    5.217430801379356E-3   -3.423946843640122E-3    5.561887012546660E-3    3.932048190503139E-1    2.792524667554703E-1
 8.062204556200000E9     3.947817182921000E-1    4.163394169300888E-1   -3.685933175748699E-3    5.219207336129825E-3   -3.416830675929940E-3    5.584005985746834E-3    3.931386355861511E-1    2.791827738163800E-1
 8.062205075525000E9     3.948883990943038E-1    4.162676860052267E-1   -3.699533739740409E-3    5.246916797648178E-3   -3.432401914010454E-3    5.613815921913506E-3    3.931026144489844E-1    2.791385638082851E-1
 8.062205594850000E9     3.951059771139750E-1    4.161977325229819E-1   -3.718692222589497E-3    5.291212947807958E-3   -3.440457405411278E-3    5.618706945307692E-3    3.931010132270357E-1    2.790327612592293E-1
 8.062206114175000E9     3.951184441193750E-1    4.160040599640217E-1   -3.709533571995472E-3    5.331458056403497E-3   -3.461087460095309E-3    5.656228155820299E-3    3.932040522539568E-1    2.790371449146541E-1
 8.062206633500000E9     3.952643907627514E-1    4.158449511371483E-1   -3.743250895076522E-3    5.342746660074615E-3   -3.476108112953714E-3    5.696464438135114E-3    3.933996765694760E-1    2.789558282825378E-1
 8.062207152825000E9     3.953971994898764E-1    4.155601565482410E-1   -3.743217724374698E-3    5.385837561095123E-3   -3.494007007633115E-3    5.727161652325877E-3    3.933187261941594E-1    2.791115247927875E-1
 8.062207672150000E9     3.955886609609212E-1    4.154496764955165E-1   -3.738361071619790E-3    5.433394239071877E-3   -3.478370758867361E-3    5.746624721451592E-3    3.933019078535563E-1    2.789646377522988E-1
 8.062208191475000E9     3.956477063105711E-1    4.151619223202180E-1   -3.770950096828106E-3    5.465628027271958E-3   -3.496107410267797E-3    5.830274253563110E-3    3.934391702745896E-1    2.789447230794292E-1
 8.062208710800000E9     3.957309521607390E-1    4.150823302721453E-1   -3.788720268098726E-3    5.488476755165939E-3   -3.526560349502188E-3    5.824442622611701E-3    3.933326872622279E-1    2.788698819905055E-1
 8.062209230125000E9     3.958271615694735E-1    4.148355456615368E-1   -3.798942122447900E-3    5.524904703685881E-3   -3.521238631997695E-3    5.892988681545224E-3    3.933043547414896E-1    2.788991447519838E-1
 8.062209749450000E9     3.959992802540314E-1    4.148584209553320E-1   -3.804667580776926E-3    5.585545578382481E-3   -3.565792991393682E-3    5.908635278480638E-3    3.933754189858623E-1    2.787732588290943E-1
 8.062210268775000E9     3.960766353573985E-1    4.145819803796733E-1   -3.857338506695826E-3    5.605890712726967E-3   -3.577514240087256E-3    5.946736119967857E-3    3.933141641307799E-1    2.788305265283516E-1
 8.062210788100000E9     3.962453125743896E-1    4.144151423857846E-1   -3.819540744556985E-3    5.635822896179405E-3   -3.562344192156678E-3    5.995718805706535E-3    3.934018711291641E-1    2.787383788202178E-1
 8.062211307425000E9     3.963287760069047E-1    4.142080513435821E-1   -3.870581801961019E-3    5.663987892257822E-3   -3.577645466353181E-3    6.035185994904135E-3    3.935451329799655E-1    2.787723764552755E-1
 8.062211826750000E9     3.964139239550061E-1    4.140820960552533E-1   -3.852316310098196E-3    5.719570853630934E-3   -3.577114783200763E-3    6.106624199533025E-3    3.934444161248089E-1    2.786858010403477E-1
 8.062212346075000E9     3.965307774102780E-1    4.137637662026202E-1   -3.909885332527642E-3    5.737611189700949E-3   -3.587800165723634E-3    6.121782536016628E-3    3.934923154409860E-1    2.787399160517251E-1
 8.062212865400000E9     3.966471427633357E-1    4.136774135523109E-1   -3.910671935157078E-3    5.792982852892636E-3   -3.638506306251893E-3    6.170296478092688E-3    3.934079861499383E-1    2.786551517130877E-1
 8.062213384725000E9     3.968707314870212E-1    4.135148741327068E-1   -3.942376884625725E-3    5.816974946005677E-3   -3.629810700824922E-3    6.213342300787584E-3    3.935831831770492E-1    2.786364706234583E-1
 8.062213904050000E9     3.969139703061220E-1    4.133390384656123E-1   -3.922247919596917E-3    5.853493190752380E-3   -3.631468109101359E-3    6.201880133589224E-3    3.935087804339504E-1    2.786188320635893E-1
 8.062214423375000E9     3.969603792370552E-1    4.129410297511833E-1   -3.956080175175771E-3    5.907019495548341E-3   -3.691825201196134E-3    6.283577083215587E-3    3.936088972757400E-1    2.785549156581664E-1
 8.062214942700000E9     3.971728633318716E-1    4.129883948923126E-1   -3.962740327159732E-3    5.936407165403982E-3   -3.659387264240710E-3    6.326902020306396E-3    3.935573856002955E-1    2.784550962208950E-1
 8.062215462025000E9     3.973231833732842E-1    4.125255816568980E-1   -3.968344154544106E-3    5.983980771164684E-3   -3.669025025449876E-3    6.380742559269812E-3    3.935959229659632E-1    2.784861228662884E-1
 8.062215981350000E9     3.974401804171587E-1    4.124478590298858E-1   -3.986784117083195E-3    6.021049058342361E-3   -3.728932367315219E-3    6.424088147582274E-3    3.935016046540825E-1    2.783192485949624E-1
 8.062216500675000E9     3.975719181714996E-1    4.122111177531256E-1   -4.019736380868675E-3    6.082233350724189E-3   -3.687659433043799E-3    6.460798363635064E-3    3.936965560805857E-1    2.783127750668932E-1
 8.062217020000000E9     3.978681586797657E-1    4.119284790577262E-1   -4.050963096195110E-3    6.134798652808159E-3   -3.751913220002746E-3    6.497434100207895E-3    3.936451691453119E-1    2.782941258805736E-1
 8.062217539325000E9     3.978542108899654E-1    4.118467907832680E-1   -4.041777843779107E-3    6.170133354195074E-3   -3.760532613030695E-3    6.555968004329144E-3    3.935846817848552E-1    2.782304460358501E-1
 8.062218058650000E9     3.979587496294389E-1    4.115029291947356E-1   -4.050083966740618E-3    6.226392385060645E-3   -3.759468217140368E-3    6.620743490467615E-3    3.936041228179860E-1    2.782203456405239E-1
 8.062218577975000E9     3.981467623915549E-1    4.113285325777183E-1   -4.072513505209836E-3    6.276835193305717E-3   -3.768502143281284E-3    6.701887215679349E-3    3.937283965429568E-1    2.783094525510363E-1
 8.062219097300000E9     3.982001984470455E-1    4.111074891795219E-1   -4.071937002017043E-3    6.305346203516552E-3   -3.812161967544892E-3    6.710896230521158E-3    3.938200236205220E-1    2.781763077150884E-1
 8.062219616625000E9     3.983646177329076E-1    4.108663683663057E-1   -4.134188017095976E-3    6.351933676353445E-3   -3.789085469941518E-3    6.787955258194193E-3    3.939435272884940E-1    2.781869309858862E-1
 8.062220135950000E9     3.984016905563348E-1    4.105897806201263E-1   -4.114142522273134E-3    6.383198042011339E-3   -3.811407440872644E-3    6.827819914425342E-3    3.936280432489109E-1    2.781284913237875E-1
 8.062220655275000E9     3.985356831903075E-1    4.102894403217489E-1   -4.180377678967596E-3    6.468857211187493E-3   -3.856129000198942E-3    6.921448608046397E-3    3.936380001868263E-1    2.780020822683674E-1
 8.062221174600000E9     3.988523915910603E-1    4.101175644717230E-1   -4.166228928080268E-3    6.527466946230276E-3   -3.844307758011568E-3    6.956704717977744E-3    3.938293588542028E-1    2.781479280671230E-1
 8.062221693925000E9     3.990221495202023E-1    4.098462023108128E-1   -4.197512335428011E-3    6.575668876297955E-3   -3.859362539244946E-3    7.009865631985697E-3    3.938569132197193E-1    2.778712449717951E-1
 8.062222213250000E9     3.991037385897436E-1    4.095749580256430E-1   -4.192806474349864E-3    6.626898290813599E-3   -3.851345851817413E-3    7.075893566669446E-3    3.937659428576743E-1    2.779991283218651E-1
