#  HZ   S   RI   R     50.00 
! Rohde & Schwarz Vector Network Analyzer 
! Rohde-Schwarz,ZNB20-2Port,1311601062101988,3.16
! Created: UTC 3/20/2024, 11:40:40 AM
! freq[Hz]                re:S11                  im:S11                  re:S21                  im:S21                  re:S12                  im:S12                  re:S22                  im:S22
 6.501072494000000E9    -4.317725699557931E-1   -3.012791023016623E-1   -1.483954603837615E-2    3.151974958663951E-2   -1.309167310688116E-2    3.159348560266328E-2   -4.933491222201309E-1   -1.419860933729873E-1
 6.501084598800000E9    -4.325983958190414E-1   -3.003113257231408E-1   -1.490546077257896E-2    3.166614530021933E-2   -1.295221775611625E-2    3.176067291066859E-2   -4.936610027011595E-1   -1.408659578369136E-1
 6.501096703600000E9    -4.329721741615434E-1   -2.995028443926078E-1   -1.477312261747834E-2    3.183924858287100E-2   -1.299919964877177E-2    3.197469416193992E-2   -4.938948075425317E-1   -1.396389983508643E-1
 6.501108808400000E9    -4.336246472255510E-1   -2.987347214316786E-1   -1.475582796696347E-2    3.212041901100542E-2   -1.315851217695948E-2    3.216735035448467E-2   -4.941834573103588E-1   -1.384412612375651E-1
 6.501120913200000E9    -4.339713811742394E-1   -2.979088593481325E-1   -1.483190142429050E-2    3.221628675713492E-2   -1.304446666342346E-2    3.232090135233704E-2   -4.944046359318796E-1   -1.373319709331464E-1
 6.501133018000000E9    -4.346058548639584E-1   -2.970231467657634E-1   -1.491574743224275E-2    3.242653480897667E-2   -1.294288289302851E-2    3.247962279572171E-2   -4.946823904410012E-1   -1.360755271507196E-1
 6.501145122800000E9    -4.351066646157173E-1   -2.963771665074282E-1   -1.477062468069086E-2    3.262190416636755E-2   -1.292965739584623E-2    3.267887783781101E-2   -4.949698313109452E-1   -1.349922702096254E-1
 6.501157227600000E9    -4.356906274988504E-1   -2.953109441647073E-1   -1.463439629024097E-2    3.282199848803197E-2   -1.301423972755897E-2    3.290364423527011E-2   -4.951563366128622E-1   -1.338565516438589E-1
 6.501169332400000E9    -4.362398917540545E-1   -2.945147048386916E-1   -1.481577778081514E-2    3.320678351457677E-2   -1.301623954959593E-2    3.318746220978624E-2   -4.954783734342111E-1   -1.326679343978159E-1
 6.501181437200000E9    -4.367865571166203E-1   -2.936118315141000E-1   -1.485328393324535E-2    3.328059287202550E-2   -1.308087857661962E-2    3.320914594076427E-2   -4.955962448691653E-1   -1.313888420473665E-1
 6.501193542000000E9    -4.372803197237697E-1   -2.928061226037837E-1   -1.484139854458928E-2    3.349576386526581E-2   -1.293549217734809E-2    3.341715804289276E-2   -4.958087317099737E-1   -1.301545391191465E-1
 6.501205646800000E9    -4.378415754642646E-1   -2.918476248325065E-1   -1.475237254664633E-2    3.366376926026316E-2   -1.304115695305516E-2    3.371191537335647E-2   -4.961217136637262E-1   -1.289823662307683E-1
 6.501217751600000E9    -4.383765519458935E-1   -2.910660868333271E-1   -1.481456790199364E-2    3.382570487364978E-2   -1.304508144129088E-2    3.381664134510819E-2   -4.963984750736492E-1   -1.277832962849363E-1
 6.501229856400000E9    -4.388520549816244E-1   -2.902464489091397E-1   -1.475978435598876E-2    3.414244830310926E-2   -1.301182161061377E-2    3.404187725204475E-2   -4.964966596485415E-1   -1.265413271373471E-1
 6.501241961200000E9    -4.395072115113448E-1   -2.893523392977058E-1   -1.486053052285649E-2    3.424303814459944E-2   -1.291367507808869E-2    3.447016965119527E-2   -4.968521224848258E-1   -1.254110708968945E-1
 6.501254066000000E9    -4.400379627649690E-1   -2.884963449922924E-1   -1.479126381089419E-2    3.450507818153001E-2   -1.298422812215887E-2    3.434828022083676E-2   -4.969919664015004E-1   -1.242585006674909E-1
 6.501266170800000E9    -4.406016267092936E-1   -2.875735696164985E-1   -1.476911512443678E-2    3.483750479699201E-2   -1.292080275856533E-2    3.468333993896835E-2   -4.973566034724003E-1   -1.229288298323426E-1
 6.501278275600000E9    -4.410273990274956E-1   -2.868187367651005E-1   -1.487910671280359E-2    3.499589214593082E-2   -1.302723885745123E-2    3.492845881556541E-2   -4.975079582566526E-1   -1.216766523517960E-1
 6.501290380400000E9    -4.416791768630149E-1   -2.858114062770852E-1   -1.468790443567582E-2    3.523634250611555E-2   -1.284335608479571E-2    3.530870004041540E-2   -4.978016544644140E-1   -1.205006230297119E-1
 6.501302485200000E9    -4.420588554181164E-1   -2.849821958340878E-1   -1.482246254436876E-2    3.551971569985297E-2   -1.288618774070448E-2    3.544693883531028E-2   -4.979016922103005E-1   -1.192930647981778E-1
 6.501314590000000E9    -4.427221292261422E-1   -2.841968101152249E-1   -1.489014031393994E-2    3.560488557892990E-2   -1.286183079508635E-2    3.562743823145951E-2   -4.981026660122905E-1   -1.178772287028117E-1
 6.501326694800000E9    -4.432021147317335E-1   -2.832391909794496E-1   -1.495094582732885E-2    3.596571863519495E-2   -1.281816980667815E-2    3.585218637858881E-2   -4.983540441139342E-1   -1.167990758538616E-1
 6.501338799600000E9    -4.436963938181706E-1   -2.824147962646922E-1   -1.467540197386759E-2    3.606926604738784E-2   -1.281005002292204E-2    3.605748418530057E-2   -4.986256124098764E-1   -1.155557763188022E-1
 6.501350904400000E9    -4.443430290187511E-1   -2.814891758848608E-1   -1.473082553494324E-2    3.633656187509406E-2   -1.286222120048772E-2    3.637101738259785E-2   -4.988796060917946E-1   -1.142861617089651E-1
 6.501363009200000E9    -4.447198094213652E-1   -2.806948189172585E-1   -1.486784709620988E-2    3.661678666753720E-2   -1.286179819939123E-2    3.652713881954072E-2   -4.990043169199692E-1   -1.129391244182108E-1
 6.501375114000000E9    -4.452780662844280E-1   -2.797631109906275E-1   -1.478704261475663E-2    3.692300914119534E-2   -1.281048031593973E-2    3.680023471736395E-2   -4.992749959212358E-1   -1.117667387282397E-1
 6.501387218800000E9    -4.457747089972320E-1   -2.787435936589158E-1   -1.478192425055818E-2    3.713856325584904E-2   -1.289376880651684E-2    3.703805372836873E-2   -4.994536393961810E-1   -1.105536474829698E-1
 6.501399323600000E9    -4.462990509287301E-1   -2.779828624477375E-1   -1.475223539408597E-2    3.739146318303380E-2   -1.279131418463923E-2    3.718317621832477E-2   -4.996144528001883E-1   -1.093068616646390E-1
 6.501411428400000E9    -4.468291827718912E-1   -2.769683719149796E-1   -1.474666353051404E-2    3.752889162175265E-2   -1.273752104445574E-2    3.750420867005719E-2   -4.999362515348340E-1   -1.081441554040087E-1
 6.501423533200000E9    -4.473816562540412E-1   -2.761535208573646E-1   -1.466370626061430E-2    3.783627084419457E-2   -1.276570349194759E-2    3.771755783157810E-2   -4.999244699044459E-1   -1.066686671458658E-1
 6.501435638000000E9    -4.478676973796666E-1   -2.753015356853390E-1   -1.476180623647644E-2    3.811813549376055E-2   -1.271961355627749E-2    3.802216988940745E-2   -5.001066648252285E-1   -1.053543245575456E-1
 6.501447742800000E9    -4.483428808869036E-1   -2.744715877175130E-1   -1.482342198584615E-2    3.828551493986648E-2   -1.276599342814689E-2    3.816665073979556E-2   -5.003309199787035E-1   -1.040271902114985E-1
 6.501459847600000E9    -4.489779785092308E-1   -2.733910680458364E-1   -1.476062820631642E-2    3.862354589557713E-2   -1.275038508831272E-2    3.838593442838623E-2   -5.004692943135982E-1   -1.027260887551103E-1
 6.501471952400000E9    -4.494563363265183E-1   -2.725115113941668E-1   -1.473553329915144E-2    3.889563384889162E-2   -1.276993964368430E-2    3.870068696817044E-2   -5.006315974920941E-1   -1.015413977934030E-1
 6.501484057200000E9    -4.498659494006859E-1   -2.716849001689669E-1   -1.463306576099984E-2    3.920266583113931E-2   -1.257942732770920E-2    3.899695703938079E-2   -5.009043852474137E-1   -1.003279746603857E-1
 6.501496162000000E9    -4.504998610901416E-1   -2.706990438827286E-1   -1.466833750812525E-2    3.938091987079243E-2   -1.262505075688514E-2    3.913492781883304E-2   -5.011094458654122E-1   -9.878660713717199E-2
 6.501508266800000E9    -4.508775094309682E-1   -2.697984327110472E-1   -1.458822237500135E-2    3.975915497038536E-2   -1.260296014847204E-2    3.940843279679266E-2   -5.012827595869451E-1   -9.753266566299588E-2
 6.501520371600000E9    -4.514765913504870E-1   -2.689218803604582E-1   -1.479437936880392E-2    3.999785575688759E-2   -1.262070729138187E-2    3.977374395337757E-2   -5.013196794239310E-1   -9.629831264109176E-2
 6.501532476400000E9    -4.520216520296327E-1   -2.680054936513350E-1   -1.470540887892149E-2    4.027383039797619E-2   -1.252651198730105E-2    4.004208285789216E-2   -5.014267537726828E-1   -9.504283903201075E-2
 6.501544581200000E9    -4.524995243072745E-1   -2.670374680941909E-1   -1.472574964985627E-2    4.045483168469959E-2   -1.250912383299933E-2    4.027675510168946E-2   -5.017394194748108E-1   -9.365591372839040E-2
 6.501556686000000E9    -4.529770750329603E-1   -2.661336824649859E-1   -1.465906467191143E-2    4.074576033807868E-2   -1.255031834496931E-2    4.051915424284299E-2   -5.019513503519100E-1   -9.228905743959134E-2
 6.501568790800000E9    -4.534631577185134E-1   -2.651895492114149E-1   -1.455799353818020E-2    4.110459881632619E-2   -1.252911888758753E-2    4.090745500898663E-2   -5.019449173533868E-1   -9.089386060924566E-2
 6.501580895600000E9    -4.539672134770865E-1   -2.643361574708489E-1   -1.464650638556379E-2    4.141992404630251E-2   -1.244818337881963E-2    4.110610369096670E-2   -5.021174344612387E-1   -8.953170963549439E-2
 6.501593000400000E9    -4.544814684839879E-1   -2.634173775027852E-1   -1.465540294241754E-2    4.168041591220388E-2   -1.248941351216787E-2    4.143475243757370E-2   -5.021662187020897E-1   -8.820413585978269E-2
 6.501605105200000E9    -4.549090947472831E-1   -2.624388886355184E-1   -1.462818225072692E-2    4.202652923969221E-2   -1.240601933955255E-2    4.164040245105666E-2   -5.025420282158276E-1   -8.681622781678724E-2
 6.501617210000000E9    -4.554705623903658E-1   -2.614870859323892E-1   -1.454704512841799E-2    4.217199639127378E-2   -1.237542422498450E-2    4.192162445806728E-2   -5.025566296935946E-1   -8.547245750874627E-2
 6.501629314800000E9    -4.559168001764691E-1   -2.605507605910430E-1   -1.443247627507140E-2    4.258802546128197E-2   -1.238163965802631E-2    4.224292015688066E-2   -5.027397786713245E-1   -8.407181028104073E-2
 6.501641419600000E9    -4.564400771218536E-1   -2.596348164108621E-1   -1.453403802450232E-2    4.290780306303153E-2   -1.234208042642273E-2    4.255629227684899E-2   -5.026986258353310E-1   -8.268439435068653E-2
 6.501653524400000E9    -4.568812808820359E-1   -2.587276455463979E-1   -1.443820008868830E-2    4.318642249286882E-2   -1.227152977196535E-2    4.286967813059008E-2   -5.029749928598061E-1   -8.115158960379198E-2
 6.501665629200000E9    -4.574609041097619E-1   -2.576800537254286E-1   -1.449459670577333E-2    4.335969710116823E-2   -1.222681743359059E-2    4.315234969556338E-2   -5.031273091973306E-1   -7.989917626705878E-2
 6.501677734000000E9    -4.578863007657794E-1   -2.566724325481331E-1   -1.449911729285033E-2    4.386045830601115E-2   -1.223550661651830E-2    4.350313875636300E-2   -5.031942180621812E-1   -7.840141043141831E-2
 6.501689838800000E9    -4.583519583605596E-1   -2.559307132852133E-1   -1.443971801171627E-2    4.408210792346336E-2   -1.223781339466341E-2    4.380716215949838E-2   -5.033449462298898E-1   -7.706129569606822E-2
 6.501701943600000E9    -4.588402238816904E-1   -2.548383401027026E-1   -1.444965721372421E-2    4.443688092999484E-2   -1.215920290267922E-2    4.412450575058765E-2   -5.033189119779633E-1   -7.570580966980693E-2
 6.501714048400000E9    -4.593491229860754E-1   -2.538742820559273E-1   -1.436137172476661E-2    4.483622504028094E-2   -1.205166656938868E-2    4.445494202862892E-2   -5.033013272260822E-1   -7.425938983720787E-2
 6.501726153200000E9    -4.597834407950060E-1   -2.528295178313942E-1   -1.430866204158597E-2    4.507907827190872E-2   -1.206491683535472E-2    4.473679586641122E-2   -5.035205962521584E-1   -7.287586132907177E-2
 6.501738258000000E9    -4.602603502964672E-1   -2.519273490726381E-1   -1.434042428431721E-2    4.542477892397723E-2   -1.197483586393528E-2    4.512682352758753E-2   -5.036571167710425E-1   -7.132169678113225E-2
 6.501750362800000E9    -4.607017005217839E-1   -2.510897439809080E-1   -1.436683219230962E-2    4.575762422695054E-2   -1.203089500692455E-2    4.545051884393354E-2   -5.037317971229701E-1   -6.998234178298336E-2
 6.501762467600000E9    -4.611551912052551E-1   -2.499793943961126E-1   -1.440510325522336E-2    4.616420656188135E-2   -1.203275586735939E-2    4.564757168708895E-2   -5.036824950860085E-1   -6.838799327446571E-2
 6.501774572400000E9    -4.617526497014249E-1   -2.490991163231712E-1   -1.423184772418030E-2    4.646282156808260E-2   -1.194403952818667E-2    4.612177596722540E-2   -5.039995879554332E-1   -6.679592655905474E-2
 6.501786677200000E9    -4.621265075010316E-1   -2.481822431477330E-1   -1.436729135544228E-2    4.686879007142811E-2   -1.184575273504626E-2    4.641444479970006E-2   -5.040405985519024E-1   -6.556469023438206E-2
 6.501798782000000E9    -4.627025551060209E-1   -2.471551529178467E-1   -1.421559105028255E-2    4.732146836244419E-2   -1.195023041216778E-2    4.679210049170277E-2   -5.040108294894542E-1   -6.401951218674660E-2
 6.501810886800000E9    -4.630643002817498E-1   -2.461828765119213E-1   -1.423027126189592E-2    4.757112900221878E-2   -1.180851365903681E-2    4.720265658973121E-2   -5.041431807112068E-1   -6.248805469115268E-2
 6.501822991600000E9    -4.636358430087374E-1   -2.452007426554689E-1   -1.418228292325981E-2    4.792280428193974E-2   -1.175907568985857E-2    4.753978469659171E-2   -5.041155321666572E-1   -6.101958771108142E-2
 6.501835096400000E9    -4.639596281988652E-1   -2.441213324959138E-1   -1.407730105117893E-2    4.837117213661640E-2   -1.175106860828160E-2    4.788136357640556E-2   -5.041549880089932E-1   -5.945952154309356E-2
 6.501847201200000E9    -4.645483574323391E-1   -2.431509858329605E-1   -1.405046698090058E-2    4.878736133217548E-2   -1.161967877293904E-2    4.821648223791414E-2   -5.042761100507966E-1   -5.796903696903618E-2
 6.501859306000000E9    -4.649398286302545E-1   -2.421991853119896E-1   -1.393881647755697E-2    4.908081708814960E-2   -1.164188314816965E-2    4.860553145928067E-2   -5.042410655384431E-1   -5.642940656490932E-2
 6.501871410800000E9    -4.653702596527372E-1   -2.411493387026488E-1   -1.400936465021682E-2    4.948263212581969E-2   -1.145308250646249E-2    4.904160111160207E-2   -5.043487715473386E-1   -5.482365537172691E-2
 6.501883515600000E9    -4.658781554480886E-1   -2.401568640882860E-1   -1.394397080390987E-2    4.996347992088666E-2   -1.155243250023083E-2    4.942628908051688E-2   -5.044817000662842E-1   -5.337487823932904E-2
 6.501895620400000E9    -4.663490188694423E-1   -2.391304783102598E-1   -1.381495094394816E-2    5.023353324935846E-2   -1.148460689271319E-2    4.983801578139209E-2   -5.044331376686294E-1   -5.184313104218625E-2
 6.501907725200000E9    -4.667742591755991E-1   -2.381248704796861E-1   -1.386090167670813E-2    5.077592394042270E-2   -1.137057091551478E-2    5.014098576030657E-2   -5.044184145670026E-1   -5.028102199745041E-2
 6.501919830000000E9    -4.671143463284670E-1   -2.371096171506655E-1   -1.386287819923603E-2    5.122128092432713E-2   -1.136581372650539E-2    5.062244822851641E-2   -5.044580341572369E-1   -4.869037554349987E-2
 6.501931934800000E9    -4.676288659472591E-1   -2.360253848798215E-1   -1.366179457898916E-2    5.157973261005723E-2   -1.126045776835690E-2    5.099783259192581E-2   -5.043488252722105E-1   -4.712769984831936E-2
 6.501944039600000E9    -4.681171392266388E-1   -2.351226829492222E-1   -1.366954451947879E-2    5.209154295894045E-2   -1.122724281640496E-2    5.145002317985580E-2   -5.042519572089735E-1   -4.555028013888270E-2
 6.501956144400000E9    -4.686731332626610E-1   -2.340166868142468E-1   -1.377483378198191E-2    5.249964170443251E-2   -1.106958554157699E-2    5.192549606889799E-2   -5.043656782015650E-1   -4.397340840045065E-2
 6.501968249200000E9    -4.690628364476897E-1   -2.329060034699281E-1   -1.357665677128791E-2    5.288700435495956E-2   -1.111030357830926E-2    5.220738417550783E-2   -5.043575177415528E-1   -4.226012694272591E-2
 6.501980354000000E9    -4.693678283170328E-1   -2.319474221860794E-1   -1.348897284760824E-2    5.330853695539826E-2   -1.102896278784035E-2    5.280116708137370E-2   -5.042923661832609E-1   -4.083064881788413E-2
 6.501992458800000E9    -4.698181663265873E-1   -2.308752295375986E-1   -1.356073491257720E-2    5.380799814501820E-2   -1.094033909673592E-2    5.317908175054888E-2   -5.042149910477597E-1   -3.898647740770739E-2
 6.502004563600000E9    -4.703127530177885E-1   -2.298463436611584E-1   -1.344600776833479E-2    5.427796767106199E-2   -1.092017229201094E-2    5.363259081319780E-2   -5.044396882328598E-1   -3.738926007274453E-2
 6.502016668400000E9    -4.707270820829968E-1   -2.288252393996980E-1   -1.340413484099753E-2    5.472487439409528E-2   -1.075445292023789E-2    5.403467227440037E-2   -5.043310655606830E-1   -3.580000238604026E-2
 6.502028773200000E9    -4.712653432311421E-1   -2.277726404502534E-1   -1.329268045728146E-2    5.529489328842871E-2   -1.063479552308298E-2    5.451663660649835E-2   -5.042084315197052E-1   -3.403590969889531E-2
 6.502040878000000E9    -4.716288685216567E-1   -2.266753608211454E-1   -1.340549087701538E-2    5.568483208684546E-2   -1.061785076744959E-2    5.506141576088063E-2   -5.042294467070313E-1   -3.235586775973371E-2
 6.502052982800000E9    -4.719349629135385E-1   -2.255300103664014E-1   -1.324084137015318E-2    5.609739488559539E-2   -1.049643008722370E-2    5.537989178119962E-2   -5.040503974896655E-1   -3.065069464171094E-2
 6.502065087600000E9    -4.725534702119366E-1   -2.245676167465123E-1   -1.330091467310627E-2    5.657444990114082E-2   -1.053142674393837E-2    5.587994801636656E-2   -5.041287089741356E-1   -2.903655519616517E-2
 6.502077192400000E9    -4.728787082452988E-1   -2.234730867834101E-1   -1.309973576896268E-2    5.707228674544137E-2   -1.034694213180115E-2    5.649165998796166E-2   -5.039716705079570E-1   -2.725606423021795E-2
 6.502089297200000E9    -4.732857010814698E-1   -2.225408340151127E-1   -1.294565035195320E-2    5.772109477973010E-2   -1.026922485286691E-2    5.689577335138809E-2   -5.037594755054047E-1   -2.551129394786674E-2
 6.502101402000000E9    -4.736784653569718E-1   -2.212908949420334E-1   -1.291722558890685E-2    5.823647780303700E-2   -1.022519412789269E-2    5.736818056246027E-2   -5.036854549724510E-1   -2.376633663432849E-2
 6.502113506800000E9    -4.741151194165109E-1   -2.202753309411505E-1   -1.290491489423692E-2    5.881409204507695E-2   -1.013959658438438E-2    5.788422702887010E-2   -5.035209868325612E-1   -2.189727857222052E-2
 6.502125611600000E9    -4.746374875986252E-1   -2.191430116825249E-1   -1.278427255837558E-2    5.930410644234881E-2   -1.003485011305518E-2    5.841568303647433E-2   -5.035103034728269E-1   -2.018940624005216E-2
 6.502137716400000E9    -4.750027972046760E-1   -2.179582477406232E-1   -1.271817122588674E-2    5.981018805130666E-2   -9.916174407817700E-3    5.903037891010719E-2   -5.033347156658644E-1   -1.835923501410441E-2
 6.502149821200000E9    -4.753987788368072E-1   -2.168380291974310E-1   -1.250711957275203E-2    6.050367642161750E-2   -9.784698633153165E-3    5.952146296033401E-2   -5.033157957078234E-1   -1.663690395704640E-2
 6.502161926000000E9    -4.758294635106561E-1   -2.157765308231112E-1   -1.253654815785556E-2    6.110446839866631E-2   -9.679717497902935E-3    6.006970926485374E-2   -5.030291201400764E-1   -1.473184493830326E-2
