#  HZ   S   RI   R     50.00 
! Rohde & Schwarz Vector Network Analyzer 
! Rohde-Schwarz,ZNB20-2Port,1311601062101988,3.16
! Created: UTC 3/20/2024, 11:40:59 AM
! freq[Hz]                re:S11                  im:S11                  re:S21                  im:S21                  re:S12                  im:S12                  re:S22                  im:S22
 6.501061482000000E9    -4.311559464281006E-1   -3.018810961398376E-1   -1.475248356820777E-2    3.140766053570310E-2   -1.315927226906728E-2    3.148375228654388E-2   -4.930573467384512E-1   -1.431924787006120E-1
 6.501073625900000E9    -4.318253295300445E-1   -3.012246645871277E-1   -1.478657343784291E-2    3.155300440220871E-2   -1.305528023526767E-2    3.162885829057475E-2   -4.932681243189723E-1   -1.419391982285369E-1
 6.501085769800000E9    -4.324950193547259E-1   -3.002205474627062E-1   -1.484369057956392E-2    3.180096534470708E-2   -1.308241668286849E-2    3.189803061690909E-2   -4.935379252951390E-1   -1.407907998507873E-1
 6.501097913700000E9    -4.328697451451085E-1   -2.994642142410146E-1   -1.479619613428687E-2    3.195256839158526E-2   -1.301703155684718E-2    3.201959631533130E-2   -4.938501949467967E-1   -1.395485655530433E-1
 6.501110057600000E9    -4.335775468135222E-1   -2.985984631444778E-1   -1.467461837963156E-2    3.216946058838695E-2   -1.307208121342511E-2    3.220565007702111E-2   -4.940642057058095E-1   -1.383838677304798E-1
 6.501122201500000E9    -4.341915064360708E-1   -2.979116554331636E-1   -1.481786514482781E-2    3.232405763759587E-2   -1.302009809823971E-2    3.236403631064445E-2   -4.944252150312853E-1   -1.372828558302186E-1
 6.501134345400000E9    -4.346655352915840E-1   -2.969570731322659E-1   -1.484482764717687E-2    3.257924981361864E-2   -1.302467167137019E-2    3.256998999203042E-2   -4.946797023447298E-1   -1.360265033672599E-1
 6.501146489300000E9    -4.351786747514288E-1   -2.960716132393786E-1   -1.484745513727404E-2    3.265765337198107E-2   -1.306242253430110E-2    3.285114731560364E-2   -4.947516652406659E-1   -1.347075409423994E-1
 6.501158633200000E9    -4.356735995615003E-1   -2.951887287095805E-1   -1.490028167251476E-2    3.299741505110517E-2   -1.300388363411791E-2    3.289897001660638E-2   -4.950859127227301E-1   -1.336253147547181E-1
 6.501170777100000E9    -4.363269466010143E-1   -2.943429097552475E-1   -1.471177564739233E-2    3.314890677413274E-2   -1.311405912429173E-2    3.317822026468022E-2   -4.953178497687075E-1   -1.324199275405425E-1
 6.501182921000000E9    -4.368452549427675E-1   -2.935254787119500E-1   -1.480508072840529E-2    3.338617019369196E-2   -1.293822484214509E-2    3.336697519901465E-2   -4.956653772623079E-1   -1.312584542526884E-1
 6.501195064900000E9    -4.373674657509732E-1   -2.926454997659834E-1   -1.503772307086415E-2    3.361042411959422E-2   -1.303951192639251E-2    3.357869871803602E-2   -4.958596924095542E-1   -1.300998714246757E-1
 6.501207208800000E9    -4.380468648453161E-1   -2.917946909244697E-1   -1.467456053467342E-2    3.367221669577872E-2   -1.296370561953009E-2    3.369250440606158E-2   -4.961005695406036E-1   -1.289359066286304E-1
 6.501219352700000E9    -4.384197495326910E-1   -2.909449226929815E-1   -1.478691238725296E-2    3.395098265082970E-2   -1.292005194319610E-2    3.396978665190829E-2   -4.964225438881785E-1   -1.276613363119691E-1
 6.501231496600000E9    -4.389969969293874E-1   -2.901073165278206E-1   -1.473472917872628E-2    3.420542658198408E-2   -1.294352691806504E-2    3.413055497144674E-2   -4.967426197679705E-1   -1.264776945913388E-1
 6.501243640500000E9    -4.395692641770503E-1   -2.891715914499616E-1   -1.473583562328909E-2    3.445372471272208E-2   -1.296768438327299E-2    3.447180585747870E-2   -4.967218870416389E-1   -1.251521398510421E-1
 6.501255784400000E9    -4.401145800661521E-1   -2.883227945673034E-1   -1.488762128858096E-2    3.474306175617685E-2   -1.301680420427319E-2    3.461506335901578E-2   -4.970642817078712E-1   -1.240867557778763E-1
 6.501267928300000E9    -4.406338923658906E-1   -2.874925788627384E-1   -1.486417194000609E-2    3.490928811805900E-2   -1.290832527739711E-2    3.480601424339392E-2   -4.973016898038403E-1   -1.228063698251022E-1
 6.501280072200000E9    -4.411099278265347E-1   -2.866123907764546E-1   -1.465955865762095E-2    3.503402643489122E-2   -1.281098046116268E-2    3.501158832666848E-2   -4.974660269601264E-1   -1.215386015884132E-1
 6.501292216100000E9    -4.417123512272773E-1   -2.857186882243065E-1   -1.470468457436296E-2    3.519257335857097E-2   -1.287385168520377E-2    3.523525178608316E-2   -4.977790418913853E-1   -1.203387703502004E-1
 6.501304360000000E9    -4.421397829712614E-1   -2.849261984793426E-1   -1.475501206997126E-2    3.546336805030035E-2   -1.291721396995947E-2    3.551140036188372E-2   -4.978786994062501E-1   -1.191998235342410E-1
 6.501316503900000E9    -4.426683006621600E-1   -2.840730701926113E-1   -1.483404472364930E-2    3.573193187257526E-2   -1.295212785310480E-2    3.566915477989972E-2   -4.982345858147020E-1   -1.179607532135450E-1
 6.501328647800000E9    -4.432671050824701E-1   -2.831643373629384E-1   -1.464646059060043E-2    3.595717630026583E-2   -1.290110972775125E-2    3.597898643060397E-2   -4.982565806402696E-1   -1.165090537386862E-1
 6.501340791700000E9    -4.438310938154630E-1   -2.822814734944324E-1   -1.475158065017528E-2    3.627267086290693E-2   -1.283963641563198E-2    3.616106274117977E-2   -4.986986676062159E-1   -1.154037405931160E-1
 6.501352935600000E9    -4.443359550218555E-1   -2.813624754049426E-1   -1.481152250296756E-2    3.651044206581518E-2   -1.281507279031422E-2    3.639780518176607E-2   -4.987467233737731E-1   -1.140858086531275E-1
 6.501365079500000E9    -4.448352697112261E-1   -2.804931276471014E-1   -1.477442223426370E-2    3.669493569061396E-2   -1.282952687273312E-2    3.664436476758137E-2   -4.989746145203413E-1   -1.128545221415428E-1
 6.501377223400000E9    -4.453308879174721E-1   -2.794563644042918E-1   -1.485380228501961E-2    3.691468271611838E-2   -1.288188819155935E-2    3.688985224394165E-2   -4.991636727105101E-1   -1.114997943679124E-1
 6.501389367300000E9    -4.459554873009124E-1   -2.786872771017234E-1   -1.477825123682362E-2    3.704537496322084E-2   -1.266524745536565E-2    3.710546188129592E-2   -4.993507767083059E-1   -1.103880262931247E-1
 6.501401511200000E9    -4.463870657387956E-1   -2.776888344427464E-1   -1.468497924460271E-2    3.739629765232592E-2   -1.281291347765298E-2    3.726854829778327E-2   -4.996394326094492E-1   -1.090185031701887E-1
 6.501413655100000E9    -4.468782311654339E-1   -2.768016521506792E-1   -1.483911855120971E-2    3.765209486491138E-2   -1.279400309653431E-2    3.752049133309737E-2   -4.997874945708696E-1   -1.077557236025640E-1
 6.501425799000000E9    -4.474795564037041E-1   -2.759464562542694E-1   -1.486313211528058E-2    3.792724281506894E-2   -1.284750935847273E-2    3.786828915159798E-2   -4.999264238769638E-1   -1.062911529247832E-1
 6.501437942900000E9    -4.479844130167762E-1   -2.750853907425617E-1   -1.481738728074485E-2    3.813741679240536E-2   -1.276168987189286E-2    3.790840532429115E-2   -5.002015231114604E-1   -1.050699222669568E-1
 6.501450086800000E9    -4.485440551635291E-1   -2.740583051012433E-1   -1.479329041506060E-2    3.847962634039305E-2   -1.269380961343502E-2    3.827944672801071E-2   -5.003776568679236E-1   -1.038785172469695E-1
 6.501462230700000E9    -4.490481950855247E-1   -2.732721248087173E-1   -1.477608761669112E-2    3.868542333435096E-2   -1.275412077854707E-2    3.862452801482619E-2   -5.004488292411565E-1   -1.024793256226447E-1
 6.501474374600000E9    -4.495005378621386E-1   -2.723947414513030E-1   -1.458333688801779E-2    3.897411282692231E-2   -1.264868723667412E-2    3.879604832082371E-2   -5.007217785958273E-1   -1.012259149530255E-1
 6.501486518500000E9    -4.499473007810145E-1   -2.714607107629238E-1   -1.467992752040329E-2    3.920593835942403E-2   -1.270175483823611E-2    3.905368876989080E-2   -5.009139303491503E-1   -9.986593659079961E-2
 6.501498662400000E9    -4.505329348758863E-1   -2.704664850933884E-1   -1.474364137973389E-2    3.961938497355387E-2   -1.266894536320949E-2    3.939077309071636E-2   -5.010822687706112E-1   -9.866980598917474E-2
 6.501510806300000E9    -4.510357331973477E-1   -2.696044628228349E-1   -1.482009754383859E-2    3.975015172830206E-2   -1.270201641043925E-2    3.961059000939109E-2   -5.012501639573534E-1   -9.735758431014316E-2
 6.501522950200000E9    -4.515499104466680E-1   -2.687339501126448E-1   -1.468463651804936E-2    4.004570977955554E-2   -1.260614005673827E-2    3.989729164190241E-2   -5.014119021170224E-1   -9.587398087922386E-2
 6.501535094100000E9    -4.520655664679505E-1   -2.677326973409798E-1   -1.482920508081906E-2    4.021894711916808E-2   -1.256268427333214E-2    4.017868974362777E-2   -5.013964733154493E-1   -9.457859297781490E-2
 6.501547238000000E9    -4.525153313958524E-1   -2.668491339421245E-1   -1.465416480628845E-2    4.076158033973266E-2   -1.252602255751839E-2    4.038265507625511E-2   -5.016225407448985E-1   -9.324272030328207E-2
 6.501559381900000E9    -4.531056542646901E-1   -2.658827834854545E-1   -1.470257932219933E-2    4.089521969121297E-2   -1.257671858071649E-2    4.063917756787695E-2   -5.018333647786059E-1   -9.195899158369422E-2
 6.501571525800000E9    -4.535360214756896E-1   -2.650209112671974E-1   -1.461187081707390E-2    4.106034245242948E-2   -1.248209542312768E-2    4.100012978051238E-2   -5.019134894888574E-1   -9.071263752188484E-2
 6.501583669700000E9    -4.539886402380360E-1   -2.640910809485130E-1   -1.458479731083579E-2    4.151068751177296E-2   -1.251860591240582E-2    4.122219443559424E-2   -5.020989581311318E-1   -8.906014479299926E-2
 6.501595813600000E9    -4.546015681552661E-1   -2.630467578143175E-1   -1.457820568399868E-2    4.183696062422523E-2   -1.246802994461777E-2    4.146400781535562E-2   -5.022046082842040E-1   -8.798116646304728E-2
 6.501607957500000E9    -4.550496042910869E-1   -2.621915838991209E-1   -1.450720815671247E-2    4.210630166367286E-2   -1.235821942877107E-2    4.183259353604423E-2   -5.023410249094671E-1   -8.654834047239220E-2
 6.501620101400000E9    -4.555538706673998E-1   -2.612295667861442E-1   -1.447905548356164E-2    4.244909741274023E-2   -1.241782504047126E-2    4.210139491593504E-2   -5.024399501724527E-1   -8.516139659790459E-2
 6.501632245300000E9    -4.560026933461868E-1   -2.603235765158988E-1   -1.459691302636849E-2    4.266461828961279E-2   -1.223030420959014E-2    4.234243203858055E-2   -5.024944603566727E-1   -8.371709500955553E-2
 6.501644389200000E9    -4.564445761099069E-1   -2.593020872112814E-1   -1.447609698929636E-2    4.285464310848962E-2   -1.231785064420027E-2    4.273440958853852E-2   -5.028019611022304E-1   -8.239831886333372E-2
 6.501656533100000E9    -4.570870243577231E-1   -2.583484369301540E-1   -1.459348965508354E-2    4.336349405990690E-2   -1.226810572065276E-2    4.304185461350515E-2   -5.028874263990432E-1   -8.102784197285583E-2
 6.501668677000000E9    -4.575050659000062E-1   -2.575743712829544E-1   -1.462877024547076E-2    4.367786462312623E-2   -1.226452843248390E-2    4.327512752182474E-2   -5.029586520529715E-1   -7.948722666635981E-2
 6.501680820900000E9    -4.579538439586656E-1   -2.565655652472764E-1   -1.442519326154407E-2    4.382163668450000E-2   -1.211254576108189E-2    4.363789484112879E-2   -5.030549437981895E-1   -7.807559715027178E-2
 6.501692964800000E9    -4.584198327891396E-1   -2.554839921502672E-1   -1.438100902353605E-2    4.432422731364201E-2   -1.209051500831444E-2    4.395903498839537E-2   -5.032188973858553E-1   -7.680170158393361E-2
 6.501705108700000E9    -4.589601569108019E-1   -2.546319513782149E-1   -1.440867843373718E-2    4.452808378759716E-2   -1.220187215939653E-2    4.431699900209977E-2   -5.031744171033846E-1   -7.530577220128745E-2
 6.501717252600000E9    -4.592842369535760E-1   -2.535759377483528E-1   -1.436629806915809E-2    4.487703148501306E-2   -1.211862727270601E-2    4.459978338644639E-2   -5.034573706620216E-1   -7.388943415032631E-2
 6.501729396500000E9    -4.600131502595738E-1   -2.526266509771294E-1   -1.443745426030536E-2    4.530778849246518E-2   -1.201490536130326E-2    4.494297122399751E-2   -5.035097091416093E-1   -7.239093897034571E-2
 6.501741540400000E9    -4.603430581934846E-1   -2.516569821678403E-1   -1.441109063491908E-2    4.550558264877971E-2   -1.201450764315702E-2    4.532963395519884E-2   -5.036505554329276E-1   -7.101933973848061E-2
 6.501753684300000E9    -4.609099694427551E-1   -2.506846506077220E-1   -1.429903977796778E-2    4.593364393172423E-2   -1.188126735200973E-2    4.560798088362927E-2   -5.036844571127281E-1   -6.951970063456948E-2
 6.501765828200000E9    -4.612513448698101E-1   -2.498390578824600E-1   -1.436155802390566E-2    4.635262767000908E-2   -1.193775861379641E-2    4.593173620726711E-2   -5.038034510576812E-1   -6.805229274473222E-2
 6.501777972100000E9    -4.618259065252446E-1   -2.488744670044295E-1   -1.420301015238322E-2    4.672380912039667E-2   -1.194117970357693E-2    4.629256364772363E-2   -5.038161117044998E-1   -6.649103666301437E-2
 6.501790116000000E9    -4.622913951315532E-1   -2.477067276826835E-1   -1.431258073741789E-2    4.711958581045213E-2   -1.182921041823611E-2    4.663858303534599E-2   -5.038790722753311E-1   -6.507789309376943E-2
 6.501802259900000E9    -4.628205680980648E-1   -2.468158415003198E-1   -1.413078337261084E-2    4.728509632607030E-2   -1.176209972703475E-2    4.693205684988207E-2   -5.039199324191569E-1   -6.370184791135826E-2
 6.501814403800000E9    -4.632600970895253E-1   -2.458133490460798E-1   -1.419228633388435E-2    4.774849379544240E-2   -1.167525273733942E-2    4.723651839170825E-2   -5.041097177256345E-1   -6.212920412434818E-2
 6.501826547700000E9    -4.636946208078260E-1   -2.448384649423664E-1   -1.415163421333465E-2    4.807357766259574E-2   -1.175573562620863E-2    4.769838973658330E-2   -5.041821358090668E-1   -6.056115578648123E-2
 6.501838691600000E9    -4.641447538235695E-1   -2.437550111218754E-1   -1.403474642218754E-2    4.859034767017449E-2   -1.170836265472767E-2    4.808589585633721E-2   -5.040810409012647E-1   -5.906960054129368E-2
 6.501850835500000E9    -4.645606639083503E-1   -2.428385532972837E-1   -1.410918820257492E-2    4.902608575162256E-2   -1.168359144506456E-2    4.841277888177711E-2   -5.040842076262289E-1   -5.755891843725160E-2
 6.501862979400000E9    -4.651283558550044E-1   -2.417993172379158E-1   -1.397763657071556E-2    4.938821635819698E-2   -1.161234146789191E-2    4.891676135914957E-2   -5.041385971027613E-1   -5.587668033921744E-2
 6.501875123300000E9    -4.654759255582382E-1   -2.408031689664656E-1   -1.411746828201459E-2    4.970656426416888E-2   -1.149850942996925E-2    4.928586516912383E-2   -5.043107847525926E-1   -5.444030228066427E-2
 6.501887267200000E9    -4.659992069058915E-1   -2.398070762322482E-1   -1.394817401982673E-2    5.009163348354140E-2   -1.145142511094615E-2    4.966591775505237E-2   -5.043525260983858E-1   -5.283215047604726E-2
 6.501899411100000E9    -4.665497812122749E-1   -2.388084275754741E-1   -1.387041509559980E-2    5.052832825102424E-2   -1.146695925870547E-2    5.002116144034758E-2   -5.042898963125836E-1   -5.122911902774739E-2
 6.501911555000000E9    -4.669548326479792E-1   -2.378197888961449E-1   -1.390636829468353E-2    5.094854037307292E-2   -1.135067432282816E-2    5.043263736582054E-2   -5.043822025097586E-1   -4.976613642403342E-2
 6.501923698900000E9    -4.673329635824471E-1   -2.366998513606145E-1   -1.380833855734597E-2    5.138190360916813E-2   -1.129472307694439E-2    5.081476360803732E-2   -5.044113680548906E-1   -4.806912058699022E-2
 6.501935842800000E9    -4.678969688588402E-1   -2.356370520458556E-1   -1.381064792363870E-2    5.192184027966237E-2   -1.128515644450557E-2    5.128083486326560E-2   -5.041883566909752E-1   -4.659728069109836E-2
 6.501947986700000E9    -4.681881504548690E-1   -2.346073185686646E-1   -1.365745763631983E-2    5.226174682438724E-2   -1.118177236246347E-2    5.159424880125859E-2   -5.043768099632326E-1   -4.484334324126334E-2
 6.501960130600000E9    -4.686672472658172E-1   -2.337066413470190E-1   -1.368309407303253E-2    5.252474434872190E-2   -1.101227430239527E-2    5.213007507115623E-2   -5.042562135580330E-1   -4.329404740453513E-2
 6.501972274500000E9    -4.692161721294444E-1   -2.326261260815652E-1   -1.373344015466550E-2    5.315222574260261E-2   -1.110164458939369E-2    5.252487277767396E-2   -5.042600002466011E-1   -4.171074088637054E-2
 6.501984418400000E9    -4.695647765326352E-1   -2.316290800051921E-1   -1.351646604261466E-2    5.356960837400570E-2   -1.100263288044946E-2    5.296690232886216E-2   -5.041912936394480E-1   -4.006775920227484E-2
 6.501996562300000E9    -4.699572659939968E-1   -2.304924111433942E-1   -1.347379664172857E-2    5.405802044701850E-2   -1.093515988547401E-2    5.338489309852150E-2   -5.042427603191233E-1   -3.850391039454856E-2
 6.502008706200000E9    -4.705213437439893E-1   -2.294204624741827E-1   -1.346859573580055E-2    5.462234526268084E-2   -1.078014153909478E-2    5.391588539943527E-2   -5.043090605600112E-1   -3.678870681579440E-2
 6.502020850100000E9    -4.709256761885405E-1   -2.283582988061633E-1   -1.335188198471960E-2    5.516696707462002E-2   -1.076709945912428E-2    5.435973360617698E-2   -5.041466614910901E-1   -3.521673502308333E-2
 6.502032994000000E9    -4.713598038611997E-1   -2.273244426418098E-1   -1.321516101970061E-2    5.551098603432358E-2   -1.070376739441810E-2    5.471132531962540E-2   -5.040243752652249E-1   -3.337857887105974E-2
 6.502045137900000E9    -4.717653928868966E-1   -2.262572966325299E-1   -1.328013361560376E-2    5.583894401236692E-2   -1.061021731146751E-2    5.525491414110988E-2   -5.039505873710548E-1   -3.163737861841699E-2
 6.502057281800000E9    -4.721692018721519E-1   -2.251835052502653E-1   -1.325284657376130E-2    5.651634195751242E-2   -1.046588455750441E-2    5.574507322274066E-2   -5.038939299844259E-1   -2.998672383984540E-2
 6.502069425700000E9    -4.725891287038405E-1   -2.241798239590911E-1   -1.318502655475159E-2    5.697866368019137E-2   -1.033026987693220E-2    5.630504455461039E-2   -5.038581964068974E-1   -2.821418102799771E-2
 6.502081569600000E9    -4.730023534029771E-1   -2.231553876430430E-1   -1.303475477369011E-2    5.750238058204242E-2   -1.025601546262191E-2    5.681535301016725E-2   -5.037858429881735E-1   -2.655156687665626E-2
 6.502093713500000E9    -4.735443138643948E-1   -2.219523642249548E-1   -1.293997968351813E-2    5.800305260740404E-2   -1.021426228045333E-2    5.723990533346067E-2   -5.036216140061129E-1   -2.487580758161481E-2
 6.502105857400000E9    -4.739148852293690E-1   -2.208489006157563E-1   -1.297834445226401E-2    5.858534209216264E-2   -1.011085655672630E-2    5.778879619440802E-2   -5.035456412404283E-1   -2.301224045132740E-2
 6.502118001300000E9    -4.742932901852621E-1   -2.197985257890147E-1   -1.280660942323558E-2    5.905869061649043E-2   -1.007557403996710E-2    5.814123335782811E-2   -5.033737754245252E-1   -2.124901644574825E-2
 6.502130145200000E9    -4.747066744694912E-1   -2.185914865923615E-1   -1.266478797908845E-2    5.971081944117291E-2   -9.896439052765119E-3    5.868517797867873E-2   -5.032680902736366E-1   -1.943456590197099E-2
 6.502142289100000E9    -4.751139615271340E-1   -2.174726796156257E-1   -1.255937079626631E-2    6.021863307000791E-2   -9.806481593737575E-3    5.940525140367250E-2   -5.032387481575351E-1   -1.759527603487469E-2
 6.502154433000000E9    -4.754480726386681E-1   -2.163158498460851E-1   -1.258846092480106E-2    6.082375662741377E-2   -9.733378786411121E-3    5.989843152202638E-2   -5.030281293220027E-1   -1.592386613796000E-2
