#  HZ   S   RI   R     50.00 
! Rohde & Schwarz Vector Network Analyzer 
! Rohde-Schwarz,ZNB20-2Port,1311601062101988,3.16
! Created: UTC 3/20/2024, 11:41:02 AM
! freq[Hz]                re:S11                  im:S11                  re:S21                  im:S21                  re:S12                  im:S12                  re:S22                  im:S22
 6.501061738000000E9    -4.313661231194975E-1   -3.018700500352117E-1   -1.488126660008228E-2    3.158097071182758E-2   -1.304208294559992E-2    3.146533891878153E-2   -4.930696848062475E-1   -1.430437239570629E-1
 6.501073880150000E9    -4.318598732627397E-1   -3.011685002052630E-1   -1.487146471082324E-2    3.163448876960228E-2   -1.301303995337094E-2    3.166431450706826E-2   -4.933437760036372E-1   -1.419127962195981E-1
 6.501086022300000E9    -4.324542007080490E-1   -3.003249648119246E-1   -1.478505608767977E-2    3.174399805904094E-2   -1.312549803663617E-2    3.185520365497501E-2   -4.936762363678400E-1   -1.407367146035944E-1
 6.501098164450000E9    -4.330968320308628E-1   -2.994089395446385E-1   -1.488192296217998E-2    3.197408592984286E-2   -1.305102832314856E-2    3.195387156339329E-2   -4.938076368957882E-1   -1.395256645483671E-1
 6.501110306600000E9    -4.334447290481611E-1   -2.986479620496209E-1   -1.483712861188282E-2    3.217232149355681E-2   -1.307810254524970E-2    3.227745448843115E-2   -4.941062119627639E-1   -1.384068000478145E-1
 6.501122448750000E9    -4.340741232450542E-1   -2.977904677136551E-1   -1.488139510337686E-2    3.232015599587340E-2   -1.304376532502493E-2    3.232651260336148E-2   -4.944621019398289E-1   -1.371980494066776E-1
 6.501134590900000E9    -4.345832769360156E-1   -2.968770305550242E-1   -1.482225990555067E-2    3.262443015618785E-2   -1.303457608696084E-2    3.263052792765270E-2   -4.947180021935746E-1   -1.360009970159068E-1
 6.501146733050000E9    -4.351700906894244E-1   -2.960063532413847E-1   -1.485334860662270E-2    3.280708305642514E-2   -1.304289153731148E-2    3.277927697798983E-2   -4.948559090802685E-1   -1.348222372427653E-1
 6.501158875200000E9    -4.356491968203398E-1   -2.952249925668349E-1   -1.487289303412985E-2    3.290295632683980E-2   -1.299092174666699E-2    3.299221382878276E-2   -4.951360523734324E-1   -1.336852709162289E-1
 6.501171017350000E9    -4.363053056925151E-1   -2.943815922882140E-1   -1.486982647423256E-2    3.309176414305661E-2   -1.300698555928666E-2    3.319819735270341E-2   -4.954209174284697E-1   -1.325592931957471E-1
 6.501183159500000E9    -4.368662010645245E-1   -2.935465039623508E-1   -1.484685502904579E-2    3.326689900113477E-2   -1.301331461700344E-2    3.328714163368434E-2   -4.956767407830411E-1   -1.312092214314816E-1
 6.501195301650000E9    -4.373846603423159E-1   -2.926730164955635E-1   -1.483100377496967E-2    3.350781853039154E-2   -1.295189795443299E-2    3.351905891829727E-2   -4.958650126196810E-1   -1.300299226946824E-1
 6.501207443800000E9    -4.379037778431767E-1   -2.918001642319222E-1   -1.473322953065026E-2    3.374971745214215E-2   -1.303535053194256E-2    3.383760281190337E-2   -4.960864167513359E-1   -1.289077442097266E-1
 6.501219585950000E9    -4.384228126528815E-1   -2.908791737026168E-1   -1.490154181617832E-2    3.406782652525420E-2   -1.301483264429727E-2    3.397308562319768E-2   -4.962444206288584E-1   -1.277512386640168E-1
 6.501231728100000E9    -4.390886225933882E-1   -2.900428547341754E-1   -1.483562752042560E-2    3.416132495866499E-2   -1.299342004580984E-2    3.421578661844239E-2   -4.965884538977467E-1   -1.264022298196657E-1
 6.501243870250000E9    -4.395554412552525E-1   -2.891773990827552E-1   -1.485934304613549E-2    3.451392119874575E-2   -1.298172239985673E-2    3.443610122200497E-2   -4.967929152003669E-1   -1.251915318128906E-1
 6.501256012400000E9    -4.401177232906513E-1   -2.884096497582994E-1   -1.488992786164680E-2    3.458993669572129E-2   -1.292756026111364E-2    3.465098043636390E-2   -4.970142937144161E-1   -1.239985055955344E-1
 6.501268154550000E9    -4.406526068026375E-1   -2.873523459758218E-1   -1.481945422139996E-2    3.471810708736951E-2   -1.287677279031802E-2    3.472262123571491E-2   -4.972986018762867E-1   -1.227629012367695E-1
 6.501280296700000E9    -4.411030238818404E-1   -2.866046630199788E-1   -1.490263652845564E-2    3.511657403456581E-2   -1.294279869843859E-2    3.497414566489100E-2   -4.974828287641874E-1   -1.215837434773667E-1
 6.501292438850000E9    -4.417664113804855E-1   -2.858003561588249E-1   -1.492754377499408E-2    3.527438437375448E-2   -1.294236100262161E-2    3.531479177304559E-2   -4.977398148609816E-1   -1.201885966972568E-1
 6.501304581000000E9    -4.422057890849103E-1   -2.849216653886061E-1   -1.480175599305668E-2    3.558121951356805E-2   -1.290692137758708E-2    3.552410679770112E-2   -4.979859989201830E-1   -1.189801837865322E-1
 6.501316723150000E9    -4.426553973736095E-1   -2.839143170619924E-1   -1.477247331352005E-2    3.571635494961457E-2   -1.294066004471653E-2    3.565075955712554E-2   -4.981712397268370E-1   -1.178397084745432E-1
 6.501328865300000E9    -4.432137131427336E-1   -2.828950874987519E-1   -1.471500858013403E-2    3.599847966641107E-2   -1.285808432160625E-2    3.586155253435762E-2   -4.983555540246197E-1   -1.165677406601585E-1
 6.501341007450000E9    -4.437915129365155E-1   -2.822610879483715E-1   -1.474826927659131E-2    3.613697969551312E-2   -1.295380148513975E-2    3.606566886623457E-2   -4.986403109663806E-1   -1.152930182374574E-1
 6.501353149600000E9    -4.442789696745019E-1   -2.812478502726048E-1   -1.483264628270686E-2    3.641099866837580E-2   -1.289009079122228E-2    3.637418585045549E-2   -4.988553899036876E-1   -1.139885586153632E-1
 6.501365291750000E9    -4.448323277302197E-1   -2.804096720491601E-1   -1.489256472344470E-2    3.672040708851636E-2   -1.270402052453006E-2    3.667081153692336E-2   -4.989680655884364E-1   -1.127528174145016E-1
 6.501377433900000E9    -4.453389879630410E-1   -2.795393787026551E-1   -1.484389668821022E-2    3.682384625864174E-2   -1.278765397590229E-2    3.686395123409165E-2   -4.991742000459689E-1   -1.115352904072142E-1
 6.501389576050000E9    -4.458967539588823E-1   -2.786725309110771E-1   -1.482460103179561E-2    3.726472360339382E-2   -1.275806888394039E-2    3.710558350321660E-2   -4.994571435126968E-1   -1.102982204765966E-1
 6.501401718200000E9    -4.463839552533141E-1   -2.777260497124968E-1   -1.485149234396591E-2    3.746861795230733E-2   -1.273529910350288E-2    3.735949682590754E-2   -4.996109982988778E-1   -1.090240841861262E-1
 6.501413860350000E9    -4.468930286711955E-1   -2.768694938195133E-1   -1.487323340912267E-2    3.770191598966105E-2   -1.283635097116460E-2    3.760819518737207E-2   -4.997723434141426E-1   -1.076057912265476E-1
 6.501426002500000E9    -4.474568105532764E-1   -2.759622969840094E-1   -1.473957950136648E-2    3.783357150483547E-2   -1.272839806849663E-2    3.787956205537057E-2   -4.999573501790877E-1   -1.064150378933999E-1
 6.501438144650000E9    -4.479255577302615E-1   -2.750382331195917E-1   -1.482599139786515E-2    3.827987874636145E-2   -1.270453649932249E-2    3.807835244368990E-2   -5.000945694712084E-1   -1.050546077368915E-1
 6.501450286800000E9    -4.484046998463776E-1   -2.741092769166708E-1   -1.479686560691152E-2    3.857118294089476E-2   -1.271247994275345E-2    3.828890095816712E-2   -5.003933040469501E-1   -1.038819331143871E-1
 6.501462428950000E9    -4.489347947544807E-1   -2.732808249270913E-1   -1.487569345054887E-2    3.875283520320131E-2   -1.272683358308863E-2    3.854103591106295E-2   -5.004125661768477E-1   -1.025669762147914E-1
 6.501474571100000E9    -4.495196334923870E-1   -2.723876122158708E-1   -1.481294002660704E-2    3.891405780086665E-2   -1.270435326480908E-2    3.880924191000134E-2   -5.006843475675183E-1   -1.012045464297314E-1
 6.501486713250000E9    -4.500982112945861E-1   -2.714031843975839E-1   -1.472472528651151E-2    3.928767627731668E-2   -1.264740451715208E-2    3.902946264375411E-2   -5.009724389520496E-1   -9.994551560660998E-2
 6.501498855400000E9    -4.505425463671700E-1   -2.705980743617452E-1   -1.476776477934908E-2    3.953846530831152E-2   -1.272058321065785E-2    3.930688841365580E-2   -5.009732728097187E-1   -9.864235597068842E-2
 6.501510997550000E9    -4.510765528645318E-1   -2.695736763615301E-1   -1.472646231507535E-2    3.971300468294298E-2   -1.263138372236066E-2    3.967203744775857E-2   -5.011916948970557E-1   -9.722226966229849E-2
 6.501523139700000E9    -4.515878012444167E-1   -2.687955229704575E-1   -1.467747207809113E-2    4.006836103279101E-2   -1.264189773083157E-2    3.985736897253612E-2   -5.013710959357670E-1   -9.577025117023501E-2
 6.501535281850000E9    -4.521256063766546E-1   -2.677101667607868E-1   -1.477388753139397E-2    4.040180651401515E-2   -1.260691678246087E-2    4.012468593036315E-2   -5.015013245845157E-1   -9.467438646026440E-2
 6.501547424000000E9    -4.525441617727445E-1   -2.668173094082124E-1   -1.468942506497100E-2    4.064351309505197E-2   -1.249299701225569E-2    4.040669535619475E-2   -5.016462317362803E-1   -9.335724892649341E-2
 6.501559566150000E9    -4.529899999238268E-1   -2.658467100358183E-1   -1.460892161224181E-2    4.083015007325174E-2   -1.254032449433619E-2    4.064643367060786E-2   -5.017438551511350E-1   -9.181506231838520E-2
 6.501571708300000E9    -4.535350997921388E-1   -2.650198729580706E-1   -1.468274161259922E-2    4.117797540825135E-2   -1.241317950715059E-2    4.093509189690128E-2   -5.020853086357813E-1   -9.067539498854781E-2
 6.501583850450000E9    -4.540378667747293E-1   -2.640434119159678E-1   -1.460483047576728E-2    4.156350356266310E-2   -1.241049033948917E-2    4.127756942046272E-2   -5.020781571134899E-1   -8.915232747898529E-2
 6.501595992600000E9    -4.545883023876882E-1   -2.631646796068309E-1   -1.465522789379906E-2    4.170001497979973E-2   -1.243668912758261E-2    4.155888439772585E-2   -5.021803162349108E-1   -8.779395723536627E-2
 6.501608134750000E9    -4.549562058739217E-1   -2.621472826956766E-1   -1.453997557011828E-2    4.214845715439873E-2   -1.240383440451377E-2    4.179112251053493E-2   -5.023982672093648E-1   -8.630071510678942E-2
 6.501620276900000E9    -4.556023905630945E-1   -2.612283027099599E-1   -1.455336861923753E-2    4.245808694809829E-2   -1.239626416988325E-2    4.211777342243898E-2   -5.025390299062468E-1   -8.510835803558928E-2
 6.501632419050000E9    -4.560837132336130E-1   -2.603303396769388E-1   -1.451594603749762E-2    4.280580784743296E-2   -1.235551754977993E-2    4.241804833132935E-2   -5.025685734941874E-1   -8.369272133407137E-2
 6.501644561200000E9    -4.565230955113601E-1   -2.594022515668659E-1   -1.471797043865672E-2    4.308167695852847E-2   -1.229134741978089E-2    4.265319824542792E-2   -5.028265591736846E-1   -8.212943096588785E-2
 6.501656703350000E9    -4.569228160382326E-1   -2.584706493221605E-1   -1.444040245094170E-2    4.334487974713784E-2   -1.234565494829013E-2    4.301953229510255E-2   -5.028614950915006E-1   -8.093361456127107E-2
 6.501668845500000E9    -4.575038682137724E-1   -2.574561965831200E-1   -1.455772909203794E-2    4.369879558735999E-2   -1.231002205161951E-2    4.339645117110531E-2   -5.030883939992130E-1   -7.933435007094049E-2
 6.501680987650000E9    -4.579042315187222E-1   -2.564828122714816E-1   -1.446569561217793E-2    4.400070743844340E-2   -1.225667423935455E-2    4.361102857870622E-2   -5.030892773236281E-1   -7.808716311387820E-2
 6.501693129800000E9    -4.584494914580696E-1   -2.556287292889378E-1   -1.440498576477734E-2    4.432434115891444E-2   -1.216677190155230E-2    4.392380947948864E-2   -5.033114372129007E-1   -7.667446577657741E-2
 6.501705271950000E9    -4.589446943619553E-1   -2.545537374045894E-1   -1.442612326949737E-2    4.465583677113544E-2   -1.224851303027292E-2    4.424550507137662E-2   -5.032719636270647E-1   -7.532307614381913E-2
 6.501717414100000E9    -4.594544325116864E-1   -2.535096757812979E-1   -1.449214483075432E-2    4.500628607819358E-2   -1.211972535391853E-2    4.458154518562945E-2   -5.034566316522464E-1   -7.379651062030419E-2
 6.501729556250000E9    -4.598935610359168E-1   -2.526435284435872E-1   -1.430652507527310E-2    4.533601687029663E-2   -1.206800764992988E-2    4.494168105565863E-2   -5.035877269430572E-1   -7.232145641993663E-2
 6.501741698400000E9    -4.604036289806444E-1   -2.516793442880955E-1   -1.425134952719446E-2    4.559516413840819E-2   -1.207165249283628E-2    4.523950838312647E-2   -5.036261088053144E-1   -7.093788627091789E-2
 6.501753840550000E9    -4.607806443324545E-1   -2.507736295988972E-1   -1.427998996940559E-2    4.600481281530980E-2   -1.207525038267406E-2    4.553229046655326E-2   -5.037594990615210E-1   -6.943014697878241E-2
 6.501765982700000E9    -4.612932719638882E-1   -2.496634533307852E-1   -1.431850130747606E-2    4.617260036248201E-2   -1.196426150051733E-2    4.598080997929140E-2   -5.038604118837383E-1   -6.795709860969350E-2
 6.501778124850000E9    -4.618211657684623E-1   -2.487290753019088E-1   -1.433560090088384E-2    4.682646162389117E-2   -1.188696323282598E-2    4.626351845092547E-2   -5.037467730061006E-1   -6.653855916911403E-2
 6.501790267000000E9    -4.622272511909795E-1   -2.477409192015240E-1   -1.420563622195969E-2    4.708723556023155E-2   -1.191554836361101E-2    4.675201413915168E-2   -5.038758803976804E-1   -6.502911716424119E-2
 6.501802409150000E9    -4.627511092131887E-1   -2.468916143512169E-1   -1.421037882072669E-2    4.745069894271427E-2   -1.185386260610187E-2    4.700125301136638E-2   -5.038836201827875E-1   -6.353202978589792E-2
 6.501814551300000E9    -4.632050393128532E-1   -2.457527166465673E-1   -1.417965684038703E-2    4.772235543658755E-2   -1.183357531299629E-2    4.738137109189199E-2   -5.040235239968346E-1   -6.209786469252287E-2
 6.501826693450000E9    -4.637069078882147E-1   -2.446964695388792E-1   -1.418727198346048E-2    4.813261839945694E-2   -1.174313163617831E-2    4.778383676025242E-2   -5.041455476756447E-1   -6.053798357331998E-2
 6.501838835600000E9    -4.641922393543420E-1   -2.438554017319208E-1   -1.415966910017691E-2    4.849292394632058E-2   -1.176211070667065E-2    4.809747334816279E-2   -5.040995937537714E-1   -5.897630843744340E-2
 6.501850977750000E9    -4.646562200738210E-1   -2.426940482445180E-1   -1.407955237265029E-2    4.894100262633476E-2   -1.170987825930900E-2    4.851576229465172E-2   -5.041426497755230E-1   -5.748610396177602E-2
 6.501863119900000E9    -4.651028762031568E-1   -2.417768441540950E-1   -1.405555185585629E-2    4.940109882573215E-2   -1.154324646040198E-2    4.889343899280208E-2   -5.042464881115318E-1   -5.595227282850342E-2
 6.501875262050000E9    -4.654652694649342E-1   -2.408971645693873E-1   -1.386306213020794E-2    4.989160043215465E-2   -1.150065084579028E-2    4.925100951882366E-2   -5.043059641320440E-1   -5.438472786576642E-2
 6.501887404200000E9    -4.659570723789730E-1   -2.397411577836421E-1   -1.392262042545983E-2    5.023706029758650E-2   -1.141959751094403E-2    4.962193575927767E-2   -5.043583617071100E-1   -5.286152098294321E-2
 6.501899546350000E9    -4.664065078874400E-1   -2.387280972715859E-1   -1.383859070496946E-2    5.062596690176591E-2   -1.143257901441160E-2    5.004570478603556E-2   -5.042925197981698E-1   -5.126603790080074E-2
 6.501911688500000E9    -4.668743523239422E-1   -2.376678269746959E-1   -1.388262777535666E-2    5.099486569618274E-2   -1.138962253960115E-2    5.055368598542488E-2   -5.042879528616045E-1   -4.979629447831949E-2
 6.501923830650000E9    -4.672745259572445E-1   -2.367257372041677E-1   -1.390827380833879E-2    5.140154965778367E-2   -1.132891052108383E-2    5.084672604284476E-2   -5.044130079404159E-1   -4.816841342027618E-2
 6.501935972800000E9    -4.677498962334302E-1   -2.356707163468348E-1   -1.388096747708627E-2    5.178651368126136E-2   -1.126608475022413E-2    5.126389475462991E-2   -5.043552108467979E-1   -4.656095797101487E-2
 6.501948114950000E9    -4.682547383373395E-1   -2.346498370009591E-1   -1.377521012595429E-2    5.221530796029687E-2   -1.116429961629433E-2    5.165548890930706E-2   -5.042007146634335E-1   -4.503215944035636E-2
 6.501960257100000E9    -4.687265253834388E-1   -2.335063000545983E-1   -1.372164113306506E-2    5.271273016352320E-2   -1.114389648722420E-2    5.197467569029411E-2   -5.043056914973569E-1   -4.338632151770718E-2
 6.501972399250000E9    -4.691695692316372E-1   -2.324651115939663E-1   -1.355042979682681E-2    5.318763979522675E-2   -1.101636928279773E-2    5.252475295451808E-2   -5.043222841167021E-1   -4.162155602064788E-2
 6.501984541400000E9    -4.695391211266945E-1   -2.316813760230312E-1   -1.357877411889498E-2    5.365489801019877E-2   -1.104322787787382E-2    5.292774760422667E-2   -5.041860461266766E-1   -4.006644764372957E-2
 6.501996683550000E9    -4.700378394780754E-1   -2.305094203996076E-1   -1.354240089975154E-2    5.409455569821394E-2   -1.095892749644491E-2    5.338183689107987E-2   -5.040960049849184E-1   -3.837837061931745E-2
 6.502008825700000E9    -4.704188746496670E-1   -2.295023689366522E-1   -1.338278234661738E-2    5.457615443261347E-2   -1.079301064982606E-2    5.387599102649301E-2   -5.042175491112338E-1   -3.667983012002861E-2
 6.502020967850000E9    -4.708825245435871E-1   -2.283284231803895E-1   -1.336678252275255E-2    5.496844822557072E-2   -1.075889061394716E-2    5.432353022025611E-2   -5.040669869300741E-1   -3.515648182017909E-2
 6.502033110000000E9    -4.713153795885850E-1   -2.272839086389874E-1   -1.335695198775673E-2    5.546447714975948E-2   -1.071982205116847E-2    5.485843531821021E-2   -5.039727734860929E-1   -3.352965579344609E-2
 6.502045252150000E9    -4.717632947156154E-1   -2.262655398150363E-1   -1.313832635480498E-2    5.598641105439331E-2   -1.061665347773076E-2    5.526168236397733E-2   -5.040330851148894E-1   -3.156487522246961E-2
 6.502057394300000E9    -4.722158387284122E-1   -2.251740112204076E-1   -1.334119134415279E-2    5.644579311228389E-2   -1.052456752192839E-2    5.571947663375817E-2   -5.038299282807215E-1   -3.002659670700637E-2
 6.502069536450000E9    -4.725574701887122E-1   -2.240471812547676E-1   -1.319980661782271E-2    5.703413624632173E-2   -1.037316956019164E-2    5.629894399630054E-2   -5.037937452030816E-1   -2.827269272585262E-2
 6.502081678600000E9    -4.729712224492109E-1   -2.230267545168605E-1   -1.303439318369760E-2    5.753731587640904E-2   -1.026447892328523E-2    5.672817515176997E-2   -5.039102027492356E-1   -2.656551117327813E-2
 6.502093820750000E9    -4.734694092077874E-1   -2.219182800047427E-1   -1.298029824845937E-2    5.806181808588404E-2   -1.027969961454009E-2    5.725342328634822E-2   -5.037020418280543E-1   -2.469079511828460E-2
 6.502105962900000E9    -4.737777128231472E-1   -2.208829072395565E-1   -1.286782120934416E-2    5.849935038957919E-2   -1.011334554058605E-2    5.774685702120322E-2   -5.036962609590531E-1   -2.307548520382815E-2
 6.502118105050000E9    -4.742686635085295E-1   -2.197692476073757E-1   -1.289550023939487E-2    5.906139541330619E-2   -1.014930910704260E-2    5.821358575989613E-2   -5.033684149678698E-1   -2.131329835288905E-2
 6.502130247200000E9    -4.746818670186521E-1   -2.185773318443573E-1   -1.278133250077616E-2    5.963814947259927E-2   -9.923742981364060E-3    5.885101485102246E-2   -5.032934963290600E-1   -1.935750102229560E-2
 6.502142389350000E9    -4.751568888975076E-1   -2.174674832601706E-1   -1.271362392173915E-2    6.016721478298214E-2   -9.844310107216214E-3    5.936037847270963E-2   -5.031880511609250E-1   -1.748325988733679E-2
 6.502154531500000E9    -4.754457719919738E-1   -2.164603901485051E-1   -1.261113424132528E-2    6.090725161783292E-2   -9.721636247353230E-3    5.988435398716067E-2   -5.030070770775742E-1   -1.582488473119512E-2
