#  HZ   S   RI   R     50.00 
! Rohde & Schwarz Vector Network Analyzer 
! Rohde-Schwarz,ZNB20-2Port,1311601062101988,3.16
! Created: UTC 3/20/2024, 11:41:16 AM
! freq[Hz]                re:S11                  im:S11                  re:S21                  im:S21                  re:S12                  im:S12                  re:S22                  im:S22
 6.501051585000000E9    -4.308895076696346E-1   -3.024867359603938E-1   -1.491031356519130E-2    3.121704411842757E-2   -1.305910185700423E-2    3.127965175497441E-2   -4.928732104018235E-1   -1.440101390082239E-1
 6.501063766300000E9    -4.314857070249963E-1   -3.017324254355932E-1   -1.471716127621405E-2    3.155878505153462E-2   -1.307830498449920E-2    3.149755467120121E-2   -4.931734607020944E-1   -1.430016920811242E-1
 6.501075947600000E9    -4.319819298494384E-1   -3.008387501720832E-1   -1.473105445263515E-2    3.173336482857649E-2   -1.306397539852476E-2    3.166954975406355E-2   -4.934225876260195E-1   -1.417914296485072E-1
 6.501088128900000E9    -4.325073718327014E-1   -2.999772633885528E-1   -1.492617289746795E-2    3.184113990198136E-2   -1.313948848550640E-2    3.183715750078889E-2   -4.935875670161356E-1   -1.405249799516633E-1
 6.501100310200000E9    -4.331335235001552E-1   -2.991945182394632E-1   -1.480417182063038E-2    3.206411590519319E-2   -1.310879675906208E-2    3.210395963173873E-2   -4.939293633746693E-1   -1.394770103245056E-1
 6.501112491500000E9    -4.336690350499213E-1   -2.982667928035663E-1   -1.477767129104089E-2    3.237320650941700E-2   -1.300532795148365E-2    3.220925400171840E-2   -4.941071688987964E-1   -1.381528004400920E-1
 6.501124672800000E9    -4.341524343359205E-1   -2.974736750311031E-1   -1.485139456048474E-2    3.244519974276824E-2   -1.308231716369987E-2    3.247682599034604E-2   -4.944804688759022E-1   -1.371560249949349E-1
 6.501136854100000E9    -4.347355979295837E-1   -2.965934502664264E-1   -1.491919425165544E-2    3.268070917981297E-2   -1.291074867803939E-2    3.260325939848541E-2   -4.947095513633303E-1   -1.357622428026062E-1
 6.501149035400000E9    -4.353176202701801E-1   -2.957389894605523E-1   -1.481806670757701E-2    3.283955830763344E-2   -1.300810605052623E-2    3.284204469609250E-2   -4.947760099741512E-1   -1.346886232430416E-1
 6.501161216700000E9    -4.359402572124849E-1   -2.949159828449207E-1   -1.477544296826178E-2    3.295344037204769E-2   -1.298125911562428E-2    3.305224553355750E-2   -4.952620162221078E-1   -1.334392058271440E-1
 6.501173398000000E9    -4.364481859888060E-1   -2.941054971493027E-1   -1.481743292301530E-2    3.329719424836780E-2   -1.301485057749134E-2    3.329081080302946E-2   -4.952919396466586E-1   -1.322131855340410E-1
 6.501185579300000E9    -4.369384139221998E-1   -2.931898370137388E-1   -1.491240315218280E-2    3.343718947155512E-2   -1.292986228094508E-2    3.342824687620054E-2   -4.958287966932298E-1   -1.311184806659487E-1
 6.501197760600000E9    -4.374724629268779E-1   -2.923162073380672E-1   -1.473763841999964E-2    3.360175927186271E-2   -1.296432821231634E-2    3.363614867588785E-2   -4.959793059318115E-1   -1.298148872612416E-1
 6.501209941900000E9    -4.380940922458807E-1   -2.914123402286005E-1   -1.489994977829651E-2    3.371555108983029E-2   -1.300707011438789E-2    3.375805515896117E-2   -4.961126762792543E-1   -1.285818930007445E-1
 6.501222123200000E9    -4.387166719293732E-1   -2.905551393882930E-1   -1.474082275344165E-2    3.403268000877838E-2   -1.290519174591560E-2    3.411163668529953E-2   -4.964090872823407E-1   -1.273229773669013E-1
 6.501234304500000E9    -4.391787556831226E-1   -2.898166561745829E-1   -1.487708015168768E-2    3.424894654944235E-2   -1.306176753251437E-2    3.428791467675937E-2   -4.965724006804663E-1   -1.260780883636378E-1
 6.501246485800000E9    -4.397484802852160E-1   -2.889067438354918E-1   -1.485296630538956E-2    3.442039331305700E-2   -1.297166831523622E-2    3.453608911744991E-2   -4.969356035423678E-1   -1.251169703224567E-1
 6.501258667100000E9    -4.401860715434101E-1   -2.879701512474109E-1   -1.483977606951931E-2    3.471478289364029E-2   -1.289508219408082E-2    3.474794243203050E-2   -4.970795576775968E-1   -1.238567158958098E-1
 6.501270848400000E9    -4.406219381615830E-1   -2.871143141364790E-1   -1.491626624890850E-2    3.491432094244772E-2   -1.290171280074241E-2    3.477605288763822E-2   -4.974537455371608E-1   -1.224988135556115E-1
 6.501283029700000E9    -4.413400316865567E-1   -2.862680433058941E-1   -1.490495222225745E-2    3.520761646628036E-2   -1.287527861384023E-2    3.513588656077358E-2   -4.976020888812251E-1   -1.211918805074973E-1
 6.501295211000000E9    -4.418218876806602E-1   -2.853476522187131E-1   -1.492163031703858E-2    3.532144094597640E-2   -1.293381209516851E-2    3.542239245494593E-2   -4.977588120496199E-1   -1.200749594434232E-1
 6.501307392300000E9    -4.423123295263527E-1   -2.844525939457271E-1   -1.485408220150826E-2    3.569031178971670E-2   -1.290369778366797E-2    3.560071673275572E-2   -4.981033168770956E-1   -1.186937161332714E-1
 6.501319573600000E9    -4.428901715320453E-1   -2.836750306383074E-1   -1.483761995738028E-2    3.586783806402279E-2   -1.285734334030140E-2    3.580768477025875E-2   -4.982446706710271E-1   -1.176693058033267E-1
 6.501331754900000E9    -4.433178353964078E-1   -2.827803257986222E-1   -1.476159987631029E-2    3.618131981617537E-2   -1.288880816022744E-2    3.594175728113484E-2   -4.984474474367136E-1   -1.163135500775834E-1
 6.501343936200000E9    -4.440011632060430E-1   -2.818057207887574E-1   -1.482871338887480E-2    3.633596497956506E-2   -1.294760858505252E-2    3.623424873724553E-2   -4.985996992589816E-1   -1.149668997264217E-1
 6.501356117500000E9    -4.444446470752173E-1   -2.810015849854760E-1   -1.467195103113613E-2    3.650069740080028E-2   -1.280782881259089E-2    3.643106497291527E-2   -4.988748870936013E-1   -1.138571983331723E-1
 6.501368298800000E9    -4.450287178438962E-1   -2.800959638915629E-1   -1.488490159757092E-2    3.682279026073641E-2   -1.287539491853561E-2    3.670608245858741E-2   -4.991283204590531E-1   -1.125197804878045E-1
 6.501380480100000E9    -4.455327002881540E-1   -2.790846644949134E-1   -1.481347918138176E-2    3.689254781830573E-2   -1.282422876161386E-2    3.684420895848716E-2   -4.992858745303871E-1   -1.112316529802226E-1
 6.501392661400000E9    -4.461225610539285E-1   -2.783229262674254E-1   -1.486102516902351E-2    3.732227629479803E-2   -1.278363206685613E-2    3.715791306984294E-2   -4.994350219833379E-1   -1.100025269388580E-1
 6.501404842700000E9    -4.466692523361499E-1   -2.773925962989436E-1   -1.466982529379455E-2    3.742901168200913E-2   -1.278619871191379E-2    3.743973911866026E-2   -4.996633775177905E-1   -1.086924397714789E-1
 6.501417024000000E9    -4.470330747892279E-1   -2.765091077534180E-1   -1.475153432695137E-2    3.778425115216334E-2   -1.264120380835050E-2    3.770215314870254E-2   -4.999423160836248E-1   -1.075160247002000E-1
 6.501429205300000E9    -4.477086054565608E-1   -2.756611657809905E-1   -1.482148098904935E-2    3.811109182212174E-2   -1.272529513803101E-2    3.788967648416332E-2   -5.000209719864219E-1   -1.060778924691744E-1
 6.501441386600000E9    -4.480884244607876E-1   -2.747508791259152E-1   -1.479588045753186E-2    3.836218772860873E-2   -1.274767862744480E-2    3.804942264101930E-2   -5.002920026028390E-1   -1.048628499279401E-1
 6.501453567900000E9    -4.486662639518852E-1   -2.737820501087797E-1   -1.462457576957690E-2    3.861672952363562E-2   -1.269296985421627E-2    3.845264175726985E-2   -5.003789935221771E-1   -1.035727403798439E-1
 6.501465749200000E9    -4.492061334382395E-1   -2.727831205601737E-1   -1.481353166473900E-2    3.889533375986076E-2   -1.266915972264819E-2    3.860665256664030E-2   -5.006691796119284E-1   -1.022141903062468E-1
 6.501477930500000E9    -4.496992332271756E-1   -2.718670744192866E-1   -1.472505898457834E-2    3.906103455657262E-2   -1.266825121478859E-2    3.892253662141160E-2   -5.007705330018213E-1   -1.009270326841624E-1
 6.501490111800000E9    -4.502048193825494E-1   -2.709391971660013E-1   -1.460463748091190E-2    3.936047813803546E-2   -1.256528651443793E-2    3.923258139126456E-2   -5.009744779214461E-1   -9.948482710939946E-2
 6.501502293100000E9    -4.506981630527497E-1   -2.701396361991928E-1   -1.478450939015839E-2    3.969720584476234E-2   -1.251464415226054E-2    3.950138712081377E-2   -5.010582261494692E-1   -9.812195278169575E-2
 6.501514474400000E9    -4.511978631725769E-1   -2.691266236015611E-1   -1.464345194881473E-2    3.996517519290742E-2   -1.257370792723099E-2    3.974744481841350E-2   -5.012272388162319E-1   -9.683020935757948E-2
 6.501526655700000E9    -4.516555651936172E-1   -2.683240655260354E-1   -1.468603201869507E-2    4.013044528569137E-2   -1.252152973997958E-2    4.000673775033837E-2   -5.014734585227449E-1   -9.556907609437194E-2
 6.501538837000000E9    -4.522808065182605E-1   -2.673122083957611E-1   -1.458019811170433E-2    4.054391242285856E-2   -1.257343085981201E-2    4.021816984203531E-2   -5.015107672478293E-1   -9.420323174896869E-2
 6.501551018300000E9    -4.527000707334434E-1   -2.663487766047620E-1   -1.470151690626886E-2    4.065841148237704E-2   -1.255957058079352E-2    4.060134429823487E-2   -5.016752550689619E-1   -9.300427208767016E-2
 6.501563199600000E9    -4.533638073291054E-1   -2.655689433068223E-1   -1.486204769389401E-2    4.117535263125600E-2   -1.252381428241780E-2    4.081118730015015E-2   -5.018331390647754E-1   -9.145152161375021E-2
 6.501575380900000E9    -4.537645987618675E-1   -2.645684549117063E-1   -1.457684628452833E-2    4.132777946068950E-2   -1.254011739235860E-2    4.111937821122728E-2   -5.020104297671140E-1   -8.997803147344897E-2
 6.501587562200000E9    -4.541800560106057E-1   -2.635393507592250E-1   -1.457436529300479E-2    4.158247934755212E-2   -1.248669086021380E-2    4.130324918371823E-2   -5.021077782196642E-1   -8.876313258348281E-2
 6.501599743500000E9    -4.547665653783121E-1   -2.626697515550689E-1   -1.467908940391278E-2    4.185097667790019E-2   -1.235147339809342E-2    4.170992198880239E-2   -5.021730827684711E-1   -8.747785474089251E-2
 6.501611924800000E9    -4.551764861574701E-1   -2.617633887931569E-1   -1.464193460070835E-2    4.220864163321091E-2   -1.236861738937663E-2    4.189730859127397E-2   -5.023961440334235E-1   -8.599109619541094E-2
 6.501624106100000E9    -4.557753136501665E-1   -2.608717788623207E-1   -1.462663870316175E-2    4.264040356582639E-2   -1.232172239917624E-2    4.228804623577589E-2   -5.024847478352649E-1   -8.462018945618892E-2
 6.501636287400000E9    -4.562035777331241E-1   -2.598550417809257E-1   -1.455035784713838E-2    4.285152887020889E-2   -1.240230340336274E-2    4.252907198310976E-2   -5.026823058810969E-1   -8.315464240198925E-2
 6.501648468700000E9    -4.566899240903903E-1   -2.589070284332985E-1   -1.446743357012619E-2    4.325366194587969E-2   -1.235759083201294E-2    4.286543055533926E-2   -5.027942002251042E-1   -8.186729872276891E-2
 6.501660650000000E9    -4.572103588217751E-1   -2.579957733286148E-1   -1.455406483162639E-2    4.350127273393987E-2   -1.231035056593758E-2    4.324141675745660E-2   -5.030046558882314E-1   -8.046142338790037E-2
 6.501672831300000E9    -4.577797168187568E-1   -2.570316763331950E-1   -1.451082933514405E-2    4.395316596608369E-2   -1.218789638946277E-2    4.343658820608040E-2   -5.031603763261289E-1   -7.904584945057749E-2
 6.501685012600000E9    -4.582078758382927E-1   -2.559927690447112E-1   -1.461580517006619E-2    4.414745275085705E-2   -1.227395623526572E-2    4.378152405514778E-2   -5.031978705241776E-1   -7.761423422123563E-2
 6.501697193900000E9    -4.586727512322255E-1   -2.550440933405380E-1   -1.452511443557601E-2    4.437974036485361E-2   -1.216068616933694E-2    4.408492674716113E-2   -5.032623579374804E-1   -7.624948718881734E-2
 6.501709375200000E9    -4.591584322256307E-1   -2.541961710182696E-1   -1.437331554698798E-2    4.481780190539697E-2   -1.215829004095732E-2    4.452781387839054E-2   -5.034070424089597E-1   -7.462361036297253E-2
 6.501721556500000E9    -4.596219267334243E-1   -2.531013292549577E-1   -1.435016713218707E-2    4.504376200252579E-2   -1.210192340774706E-2    4.481104338513214E-2   -5.033621822164169E-1   -7.332806257501226E-2
 6.501733737800000E9    -4.601022022447819E-1   -2.522787188726520E-1   -1.444746219199914E-2    4.547187138577868E-2   -1.202584256871111E-2    4.511586211444879E-2   -5.034470711692246E-1   -7.182508089241726E-2
 6.501745919100000E9    -4.607055205783581E-1   -2.512170883195444E-1   -1.433435548218721E-2    4.584442862286806E-2   -1.199894370693867E-2    4.545836371602672E-2   -5.035425586929467E-1   -7.036142446423102E-2
 6.501758100400000E9    -4.611048118847453E-1   -2.502009515920947E-1   -1.432186790320600E-2    4.619581089384059E-2   -1.197988483391653E-2    4.571962744875213E-2   -5.036018116545037E-1   -6.888289557859473E-2
 6.501770281700000E9    -4.616066379576585E-1   -2.492595813151358E-1   -1.427360809955844E-2    4.657215571049776E-2   -1.192905456691573E-2    4.611345509749366E-2   -5.037218481012665E-1   -6.756240858391296E-2
 6.501782463000000E9    -4.620755958072033E-1   -2.482471077336667E-1   -1.429700133465346E-2    4.686889330239498E-2   -1.190764025634669E-2    4.641929977275864E-2   -5.038297171733885E-1   -6.592341249535762E-2
 6.501794644300000E9    -4.626082806741596E-1   -2.472892565669847E-1   -1.416161115778699E-2    4.732258371201422E-2   -1.193187936291328E-2    4.675840989487208E-2   -5.039000009936757E-1   -6.448868708455437E-2
 6.501806825600000E9    -4.629330659562408E-1   -2.463066105468251E-1   -1.413368539800963E-2    4.762805839992061E-2   -1.182608620207752E-2    4.720785860874412E-2   -5.040368374487949E-1   -6.299372568642653E-2
 6.501819006900000E9    -4.633839437982006E-1   -2.452252550378188E-1   -1.423053243159198E-2    4.795572197214864E-2   -1.175380799447455E-2    4.769963731386698E-2   -5.041571184390971E-1   -6.146324637697158E-2
 6.501831188200000E9    -4.638677683034314E-1   -2.442518982522992E-1   -1.412345782696244E-2    4.844520824150334E-2   -1.172860496784840E-2    4.790999166786571E-2   -5.041594437092711E-1   -5.999651778207928E-2
 6.501843369500000E9    -4.643034472530123E-1   -2.432327884650416E-1   -1.406552114275188E-2    4.877804989746889E-2   -1.168732286712063E-2    4.828679009953393E-2   -5.041166521007360E-1   -5.848027395394507E-2
 6.501855550800000E9    -4.647490981515293E-1   -2.422840435107144E-1   -1.413290387662196E-2    4.920669045882550E-2   -1.165607433549949E-2    4.875678114336671E-2   -5.041818162938382E-1   -5.705103142543418E-2
 6.501867732100000E9    -4.652530058223912E-1   -2.411687620488768E-1   -1.398141656430405E-2    4.964465886261543E-2   -1.152603059337684E-2    4.910088899974723E-2   -5.042587660314378E-1   -5.542618809758305E-2
 6.501879913400000E9    -4.658276393980518E-1   -2.402486207119259E-1   -1.402965681862301E-2    5.013549190017620E-2   -1.147387255961217E-2    4.944551518908738E-2   -5.042520433960115E-1   -5.379276369218602E-2
 6.501892094700000E9    -4.661838492078270E-1   -2.392507848634560E-1   -1.398713723369478E-2    5.034885693971967E-2   -1.143644427619929E-2    4.980258695239390E-2   -5.043110128384682E-1   -5.215001742758747E-2
 6.501904276000000E9    -4.665690671287860E-1   -2.382003597075834E-1   -1.388292668947880E-2    5.077996912798704E-2   -1.137191669595230E-2    5.021587195710528E-2   -5.041901645648761E-1   -5.055784792923955E-2
 6.501916457300000E9    -4.671861465949371E-1   -2.371706208082695E-1   -1.390138423191902E-2    5.122716093472274E-2   -1.129465676700058E-2    5.068091857793195E-2   -5.042413335124604E-1   -4.918648024447178E-2
 6.501928638600000E9    -4.674855074144756E-1   -2.361009719795701E-1   -1.383897557431871E-2    5.166688593023158E-2   -1.126622950878193E-2    5.104728136886209E-2   -5.042647380534204E-1   -4.752030636780834E-2
 6.501940819900000E9    -4.679508767944878E-1   -2.351495452872736E-1   -1.371089887339796E-2    5.211160273232027E-2   -1.121683342780660E-2    5.150339373522312E-2   -5.042991469157756E-1   -4.581685267444731E-2
 6.501953001200000E9    -4.683945118908244E-1   -2.341256436236233E-1   -1.372624710689949E-2    5.249196299918566E-2   -1.104933774200072E-2    5.188803949211721E-2   -5.043239623830764E-1   -4.427611935763193E-2
 6.501965182500000E9    -4.689439526304807E-1   -2.330544433603520E-1   -1.360375856851991E-2    5.288162611888499E-2   -1.106402586779846E-2    5.226485079582690E-2   -5.042983324970215E-1   -4.274550528113054E-2
 6.501977363800000E9    -4.693493474307281E-1   -2.320504303469541E-1   -1.359576599755301E-2    5.348653514730324E-2   -1.096449124486420E-2    5.276369747459411E-2   -5.044013242168129E-1   -4.090311751497355E-2
 6.501989545100000E9    -4.698447772351884E-1   -2.308843182143079E-1   -1.368502747875476E-2    5.387917757050816E-2   -1.096207474856028E-2    5.318162987686698E-2   -5.040703321184966E-1   -3.928000105620349E-2
 6.502001726400000E9    -4.702086165079183E-1   -2.299281174873363E-1   -1.345814492027455E-2    5.443667837928556E-2   -1.081988239963217E-2    5.367652801873345E-2   -5.041784065785632E-1   -3.771386046604144E-2
 6.502013907700000E9    -4.706041503703399E-1   -2.288393162425501E-1   -1.348578632720462E-2    5.498886044227337E-2   -1.084940116268591E-2    5.420921561779232E-2   -5.042029474202421E-1   -3.593704096211203E-2
 6.502026089000000E9    -4.710611807861304E-1   -2.278172487572338E-1   -1.328909853770960E-2    5.538749305400492E-2   -1.074007808209260E-2    5.458042282673178E-2   -5.041751098469854E-1   -3.436364627137006E-2
 6.502038270300000E9    -4.715733745419038E-1   -2.266302660803787E-1   -1.322103458175610E-2    5.574645221672198E-2   -1.064940118781898E-2    5.511284004269263E-2   -5.039603444226904E-1   -3.265740475914729E-2
 6.502050451600000E9    -4.719287711000680E-1   -2.255987617890575E-1   -1.322019713774287E-2    5.630789731779786E-2   -1.053951721183194E-2    5.562588285883292E-2   -5.038272755735713E-1   -3.108768956842982E-2
 6.502062632900000E9    -4.724297394899271E-1   -2.245404069427998E-1   -1.309383648740868E-2    5.675683918054137E-2   -1.039139305895522E-2    5.602928649719564E-2   -5.039085576125115E-1   -2.915599836880236E-2
 6.502074814200000E9    -4.727680351441947E-1   -2.234794440292758E-1   -1.309274544636289E-2    5.730655310240380E-2   -1.037777370043513E-2    5.662396624719705E-2   -5.037994710607099E-1   -2.743496227722413E-2
 6.502086995500000E9    -4.732024074540796E-1   -2.223892098532728E-1   -1.289092526098534E-2    5.780982183119587E-2   -1.025559405237279E-2    5.705019919611612E-2   -5.037084993167150E-1   -2.565391405520923E-2
 6.502099176800000E9    -4.736210365149994E-1   -2.212489311835197E-1   -1.289363294349944E-2    5.833812672900277E-2   -1.016424076047346E-2    5.757848296422082E-2   -5.035285084728555E-1   -2.395267363093282E-2
 6.502111358100000E9    -4.740747797648006E-1   -2.202215819736720E-1   -1.288802263505110E-2    5.896233548499336E-2   -1.007886457919567E-2    5.803413975277078E-2   -5.035154385258304E-1   -2.222057961141363E-2
 6.502123539400000E9    -4.745419968344561E-1   -2.189787725653931E-1   -1.278381257746410E-2    5.950487265088440E-2   -9.937643328503673E-3    5.864267416212528E-2   -5.034234898717020E-1   -2.027015909813463E-2
 6.502135720700000E9    -4.749219610135564E-1   -2.179519639496076E-1   -1.277581171880865E-2    6.002490020332098E-2   -9.870168663534136E-3    5.910850280408921E-2   -5.033075805599423E-1   -1.864393931108480E-2
 6.502147902000000E9    -4.752649584051616E-1   -2.169566647703798E-1   -1.260303902395724E-2    6.053838359371360E-2   -9.645687670096006E-3    5.969908897007543E-2   -5.031313232210599E-1   -1.673777276448623E-2
