#  HZ   S   RI   R     50.00 
! Rohde & Schwarz Vector Network Analyzer 
! Rohde-Schwarz,ZNB20-2Port,1311601062101988,3.16
! Created: UTC 3/20/2024, 11:41:30 AM
! freq[Hz]                re:S11                  im:S11                  re:S21                  im:S21                  re:S12                  im:S12                  re:S22                  im:S22
 6.501050383000000E9    -4.309006912667431E-1   -3.024255913054685E-1   -1.470547160258392E-2    3.130112756210904E-2   -1.304599560542749E-2    3.140087200586215E-2   -4.928480895416388E-1   -1.440865313405090E-1
 6.501062565775000E9    -4.313763664095648E-1   -3.015773364121533E-1   -1.479502903735797E-2    3.148172410317017E-2   -1.317594802873332E-2    3.156683545515256E-2   -4.932037779906264E-1   -1.429456188295367E-1
 6.501074748550000E9    -4.319670410580443E-1   -3.008412408748306E-1   -1.469614356059617E-2    3.174305253781673E-2   -1.309279283073627E-2    3.166451132739291E-2   -4.934776735206092E-1   -1.419678411106993E-1
 6.501086931325000E9    -4.325794955232077E-1   -2.998966792850811E-1   -1.485003332938249E-2    3.180581200892649E-2   -1.300428883242112E-2    3.190667043235339E-2   -4.935477556448141E-1   -1.405449808878853E-1
 6.501099114100000E9    -4.331426227299863E-1   -2.990234934188007E-1   -1.476423156490776E-2    3.210638214849677E-2   -1.300048132667053E-2    3.213036685477296E-2   -4.940575011404372E-1   -1.393907034298884E-1
 6.501111296875000E9    -4.336487990524869E-1   -2.981679688936597E-1   -1.481768756055179E-2    3.239724089881885E-2   -1.306554292326294E-2    3.222621578453891E-2   -4.942822782190762E-1   -1.381694484649866E-1
 6.501123479650000E9    -4.342345047162361E-1   -2.973708702718940E-1   -1.476394196740581E-2    3.240889645580813E-2   -1.306308432299478E-2    3.242654272867982E-2   -4.945047735423291E-1   -1.370105063583515E-1
 6.501135662425000E9    -4.347627995352131E-1   -2.965724542815112E-1   -1.482760783063167E-2    3.267294919668094E-2   -1.303795747495886E-2    3.275787376899960E-2   -4.947343106646155E-1   -1.358134837488179E-1
 6.501147845200000E9    -4.352400959674535E-1   -2.955803508410234E-1   -1.466590213442739E-2    3.282844186948448E-2   -1.297830698107214E-2    3.285916789345009E-2   -4.950280800057789E-1   -1.346569131171853E-1
 6.501160027975000E9    -4.359103058787965E-1   -2.947839444688676E-1   -1.489651849273034E-2    3.311118746140023E-2   -1.305109805820680E-2    3.308707730310824E-2   -4.950174719345045E-1   -1.334044361178054E-1
 6.501172210750000E9    -4.364134918640550E-1   -2.939219385155709E-1   -1.476942116764460E-2    3.317486983649892E-2   -1.301820022428600E-2    3.323082018174843E-2   -4.954456931350678E-1   -1.322985658041148E-1
 6.501184393525000E9    -4.369745528201157E-1   -2.931053780383577E-1   -1.486611298326081E-2    3.348367540416994E-2   -1.295685913186828E-2    3.345878016042526E-2   -4.957520856553913E-1   -1.310889360814151E-1
 6.501196576300000E9    -4.375845533244331E-1   -2.921689654332245E-1   -1.481554022896838E-2    3.368021294524214E-2   -1.294748656828461E-2    3.360925573456037E-2   -4.960491421551662E-1   -1.298341397873887E-1
 6.501208759075000E9    -4.380907275068603E-1   -2.913794915462760E-1   -1.481172236045785E-2    3.392294691980034E-2   -1.301094105393899E-2    3.390215787990875E-2   -4.962902790845271E-1   -1.287045404208803E-1
 6.501220941850000E9    -4.385455504365776E-1   -2.905635193508829E-1   -1.481934661090811E-2    3.405741926964494E-2   -1.292694445904138E-2    3.412267679961682E-2   -4.964304004800634E-1   -1.272463400926653E-1
 6.501233124625000E9    -4.392259258894327E-1   -2.894539324843439E-1   -1.474475412544176E-2    3.439923557027521E-2   -1.295939272932435E-2    3.426141643079681E-2   -4.965992151103060E-1   -1.261883730658218E-1
 6.501245307400000E9    -4.396558774937919E-1   -2.888247386476022E-1   -1.478221036476143E-2    3.441177971987476E-2   -1.303494217783465E-2    3.450881373524100E-2   -4.970326403132488E-1   -1.249142303572849E-1
 6.501257490175000E9    -4.402107501204446E-1   -2.878677311947832E-1   -1.492656979922792E-2    3.478519048568655E-2   -1.292350451549282E-2    3.468191818326267E-2   -4.972970820166222E-1   -1.236739912131379E-1
 6.501269672950000E9    -4.407893874868985E-1   -2.870270242737460E-1   -1.472788097744171E-2    3.490196505799130E-2   -1.290893930212904E-2    3.494597109405955E-2   -4.974955200011254E-1   -1.225031454754403E-1
 6.501281855725000E9    -4.413223125899631E-1   -2.861309926789597E-1   -1.487172154934803E-2    3.516176409084237E-2   -1.281959161316163E-2    3.505103043341110E-2   -4.976402896420815E-1   -1.212758424014561E-1
 6.501294038500000E9    -4.418466524710876E-1   -2.852415584204453E-1   -1.470369510822436E-2    3.542238680465640E-2   -1.283808672778364E-2    3.536359133089427E-2   -4.979004705664383E-1   -1.199398121311187E-1
 6.501306221275000E9    -4.424053830747202E-1   -2.844035394552915E-1   -1.475045233604641E-2    3.564785705220903E-2   -1.287561249407566E-2    3.564265227819625E-2   -4.981616130899342E-1   -1.188554093973090E-1
 6.501318404050000E9    -4.428554637678340E-1   -2.834652886029718E-1   -1.477491438454686E-2    3.592761521377179E-2   -1.287640153590827E-2    3.579982536246441E-2   -4.982156892728931E-1   -1.174589240814273E-1
 6.501330586825000E9    -4.434627648736443E-1   -2.825980195098906E-1   -1.480784258567831E-2    3.611043365188759E-2   -1.285636750847217E-2    3.604924509986727E-2   -4.984886026266065E-1   -1.163787887229382E-1
 6.501342769600000E9    -4.439752850961292E-1   -2.817348644165391E-1   -1.473213894004679E-2    3.640721556462832E-2   -1.273380243523124E-2    3.623572204976609E-2   -4.986497711819154E-1   -1.149959611893665E-1
 6.501354952375000E9    -4.444314803729065E-1   -2.808359813782478E-1   -1.476467847758663E-2    3.653183139128301E-2   -1.282278921329203E-2    3.642747945364642E-2   -4.989293780470342E-1   -1.137068238794360E-1
 6.501367135150000E9    -4.449534504122217E-1   -2.800185493237932E-1   -1.487628533399866E-2    3.676831545830835E-2   -1.289412133367121E-2    3.663043223457888E-2   -4.990990074689351E-1   -1.124536058726608E-1
 6.501379317925000E9    -4.455643416747561E-1   -2.791370076352506E-1   -1.485729655924478E-2    3.698872337558021E-2   -1.280291328033639E-2    3.696953029770141E-2   -4.993333288624197E-1   -1.111922335690037E-1
 6.501391500700000E9    -4.461402378418271E-1   -2.781021248770422E-1   -1.479090461011672E-2    3.730442049075256E-2   -1.276946520426560E-2    3.713685824104034E-2   -4.994870598407058E-1   -1.100834687240998E-1
 6.501403683475000E9    -4.466639150762742E-1   -2.772950025903815E-1   -1.487723274664682E-2    3.758076590300116E-2   -1.271351195655721E-2    3.736514447224020E-2   -4.997168192085228E-1   -1.086138229311019E-1
 6.501415866250000E9    -4.470448852230733E-1   -2.764800653877448E-1   -1.475899220959527E-2    3.778627548242320E-2   -1.272838188590314E-2    3.767116193532474E-2   -4.997246577020713E-1   -1.073094037421999E-1
 6.501428049025000E9    -4.475806546215790E-1   -2.754387712718864E-1   -1.478559882495151E-2    3.809626201212863E-2   -1.272330548697905E-2    3.795611696629716E-2   -5.000894796964448E-1   -1.061363216552377E-1
 6.501440231800000E9    -4.480853401136095E-1   -2.744915932449575E-1   -1.475475749759709E-2    3.839446601261975E-2   -1.271370534838243E-2    3.816559322792611E-2   -5.002019602536706E-1   -1.048619390165747E-1
 6.501452414575000E9    -4.485809120314865E-1   -2.736346567562802E-1   -1.467523495727874E-2    3.868550209354200E-2   -1.277086251921238E-2    3.856480026699980E-2   -5.004477531129078E-1   -1.034511439478171E-1
 6.501464597350000E9    -4.493037397684548E-1   -2.728322469391627E-1   -1.470922104353986E-2    3.881742842924441E-2   -1.261197440599929E-2    3.866070763853811E-2   -5.006588881240457E-1   -1.022915784902833E-1
 6.501476780125000E9    -4.497015886649052E-1   -2.718776015279995E-1   -1.468589005031050E-2    3.903158613114459E-2   -1.270290833387737E-2    3.887334307184766E-2   -5.008037340852253E-1   -1.008663877258602E-1
 6.501488962900000E9    -4.500063254383620E-1   -2.710178516586829E-1   -1.463926080998262E-2    3.934894966695643E-2   -1.260778375070175E-2    3.913838910722229E-2   -5.009249748726190E-1   -9.954832055100071E-2
 6.501501145675000E9    -4.507616563987794E-1   -2.699363415953462E-1   -1.475366963615504E-2    3.972629716074293E-2   -1.264822368922839E-2    3.951269653569722E-2   -5.010532596760068E-1   -9.818235004583939E-2
 6.501513328450000E9    -4.512974718266157E-1   -2.690793429164262E-1   -1.467013176628235E-2    3.985496253494560E-2   -1.262661230616227E-2    3.969560507912473E-2   -5.012368160155801E-1   -9.704082050058428E-2
 6.501525511225000E9    -4.517060150908606E-1   -2.681360970649793E-1   -1.468800197893491E-2    4.023529678927575E-2   -1.249737918963626E-2    4.004920394561732E-2   -5.014119440993215E-1   -9.556593405170356E-2
 6.501537694000000E9    -4.522451115574230E-1   -2.672970131628938E-1   -1.470953751276075E-2    4.056993509728690E-2   -1.260578867240189E-2    4.024683241415224E-2   -5.016786690644386E-1   -9.410246292199916E-2
 6.501549876775000E9    -4.527250228245683E-1   -2.663467918631644E-1   -1.469476201369202E-2    4.082498493175566E-2   -1.248557513799705E-2    4.053788772283518E-2   -5.016758779595786E-1   -9.273108284158418E-2
 6.501562059550000E9    -4.531744777518478E-1   -2.654592284416199E-1   -1.464937211119799E-2    4.109401901069725E-2   -1.256204026111860E-2    4.087209584463428E-2   -5.019400195993692E-1   -9.158327859239976E-2
 6.501574242325000E9    -4.537913916001533E-1   -2.644775210608921E-1   -1.460023318247725E-2    4.125234728489027E-2   -1.251711063494096E-2    4.109645750994502E-2   -5.021290286568044E-1   -9.015019533385234E-2
 6.501586425100000E9    -4.542633425440982E-1   -2.635304023035874E-1   -1.458047281386135E-2    4.157965376414718E-2   -1.251259113534929E-2    4.140429781630156E-2   -5.022202226225838E-1   -8.880606860677405E-2
 6.501598607875000E9    -4.547203128468019E-1   -2.626732267034882E-1   -1.461825069129374E-2    4.205847257332475E-2   -1.244077648996291E-2    4.173477491739759E-2   -5.023104976128401E-1   -8.749339175561938E-2
 6.501610790650000E9    -4.552440376818641E-1   -2.617024834370974E-1   -1.464932186043624E-2    4.228501783611016E-2   -1.243807223521459E-2    4.192015406774613E-2   -5.024446620960883E-1   -8.599763893927923E-2
 6.501622973425000E9    -4.557733992514615E-1   -2.608728404860031E-1   -1.460875040743624E-2    4.254805195685567E-2   -1.239406722253243E-2    4.227119635949409E-2   -5.025756634764333E-1   -8.470233424650371E-2
 6.501635156200000E9    -4.562539824171190E-1   -2.597370266965160E-1   -1.443683779113019E-2    4.280710855692136E-2   -1.231226899502351E-2    4.253839235302379E-2   -5.026732827703176E-1   -8.332342342221415E-2
 6.501647338975000E9    -4.567589911153196E-1   -2.589172912756176E-1   -1.446873005415928E-2    4.319983421898576E-2   -1.228367590859939E-2    4.297461903127277E-2   -5.027448764672621E-1   -8.178623617189788E-2
 6.501659521750000E9    -4.572083898913486E-1   -2.579027749313086E-1   -1.444317257903268E-2    4.345394532482052E-2   -1.232502288800505E-2    4.318910237918562E-2   -5.029692206891517E-1   -8.039257431528292E-2
 6.501671704525000E9    -4.577546003132213E-1   -2.569342946287050E-1   -1.451782916442572E-2    4.377575590058948E-2   -1.221269471061775E-2    4.344243773687587E-2   -5.029897038981673E-1   -7.901066536875882E-2
 6.501683887300000E9    -4.581528520844377E-1   -2.559689654846613E-1   -1.435799067066688E-2    4.421069445164729E-2   -1.218454141076108E-2    4.384574770966363E-2   -5.032869249940807E-1   -7.765611463550992E-2
 6.501696070075000E9    -4.586415145658894E-1   -2.549613365245350E-1   -1.448174489115386E-2    4.456390018157946E-2   -1.221186976761524E-2    4.410741361928375E-2   -5.033031723858578E-1   -7.616895166139072E-2
 6.501708252850000E9    -4.592252188666219E-1   -2.540734144740984E-1   -1.437649947041957E-2    4.493186768844991E-2   -1.213951739218110E-2    4.448853737961519E-2   -5.033600101121610E-1   -7.476394124215478E-2
 6.501720435625000E9    -4.595876782843062E-1   -2.529459220818178E-1   -1.441140363259422E-2    4.524769684162230E-2   -1.201113021087568E-2    4.483061279125720E-2   -5.036516785168663E-1   -7.324311854227882E-2
 6.501732618400000E9    -4.601516753365485E-1   -2.521634970727712E-1   -1.441499387750906E-2    4.540457184178538E-2   -1.202314523533968E-2    4.518116697656369E-2   -5.036188282460903E-1   -7.183295507076239E-2
 6.501744801175000E9    -4.605913342359217E-1   -2.511563031623832E-1   -1.436792557601678E-2    4.586538807629929E-2   -1.202481349303327E-2    4.538570449628790E-2   -5.037834448453898E-1   -7.038936548047667E-2
 6.501756983950000E9    -4.610130407345390E-1   -2.501736643976400E-1   -1.424703689284383E-2    4.621037239067613E-2   -1.201028755904739E-2    4.584145180234466E-2   -5.037341384066242E-1   -6.900552966954644E-2
 6.501769166725000E9    -4.616123036849289E-1   -2.491001454960354E-1   -1.432072387547462E-2    4.660158946966492E-2   -1.198058025844984E-2    4.618432429213074E-2   -5.037339977424633E-1   -6.741637796424307E-2
 6.501781349500000E9    -4.620596578674471E-1   -2.481595470725745E-1   -1.431846130477011E-2    4.685812336310563E-2   -1.181746920991395E-2    4.656039517483212E-2   -5.038547243024328E-1   -6.583686261505087E-2
 6.501793532275000E9    -4.624596351134128E-1   -2.471627407995973E-1   -1.417023461233616E-2    4.716781299936130E-2   -1.190517285556609E-2    4.688654044182494E-2   -5.040189909229739E-1   -6.427890006360870E-2
 6.501805715050000E9    -4.629755121597020E-1   -2.461854886788636E-1   -1.409162053957711E-2    4.748917828236240E-2   -1.177522625210618E-2    4.717548189583878E-2   -5.040979890570708E-1   -6.292400443996538E-2
 6.501817897825000E9    -4.634184281994264E-1   -2.451447900884544E-1   -1.416435114940704E-2    4.802058500620458E-2   -1.175798931624716E-2    4.761117649496977E-2   -5.040364582958391E-1   -6.151800584654595E-2
 6.501830080600000E9    -4.638934695442940E-1   -2.442166089334477E-1   -1.412093241410810E-2    4.842187162831378E-2   -1.173584142106249E-2    4.801008594397880E-2   -5.042861694591422E-1   -6.001390540946229E-2
 6.501842263375000E9    -4.643645266738792E-1   -2.432375340182778E-1   -1.406630666970265E-2    4.887302855185416E-2   -1.159595379942208E-2    4.828445821126947E-2   -5.042159594654125E-1   -5.849188919455965E-2
 6.501854446150000E9    -4.648407720446849E-1   -2.421715182781959E-1   -1.406119894648663E-2    4.926568539264544E-2   -1.161559625444452E-2    4.869066222926838E-2   -5.043484043240722E-1   -5.685009970524939E-2
 6.501866628925000E9    -4.653195017469069E-1   -2.412348878861651E-1   -1.394497961220146E-2    4.961224307242874E-2   -1.152661137807964E-2    4.905504288416644E-2   -5.042740679472734E-1   -5.545146138692142E-2
 6.501878811700000E9    -4.657108260455886E-1   -2.402033441367886E-1   -1.399694879484744E-2    4.989746136042986E-2   -1.160227292534212E-2    4.946260378415263E-2   -5.042647532281095E-1   -5.393134561101634E-2
 6.501890994475000E9    -4.661722695698340E-1   -2.390795517235761E-1   -1.396947776304839E-2    5.037459752784942E-2   -1.145869376044321E-2    4.996650341474593E-2   -5.043349869610683E-1   -5.218661359239142E-2
 6.501903177250000E9    -4.667349869984772E-1   -2.381786324943137E-1   -1.388127874090131E-2    5.084555012955863E-2   -1.133702476805344E-2    5.026818214769753E-2   -5.043798357699890E-1   -5.063362384896344E-2
 6.501915360025000E9    -4.671308819045592E-1   -2.371515509605664E-1   -1.388159466899387E-2    5.122669406200658E-2   -1.121835993379835E-2    5.072782135408811E-2   -5.044492192598676E-1   -4.904225747887566E-2
 6.501927542800000E9    -4.675282794416150E-1   -2.361465021672183E-1   -1.378844961612818E-2    5.170187674635264E-2   -1.125065925196878E-2    5.120876471327648E-2   -5.044303474322706E-1   -4.744253887781335E-2
 6.501939725575000E9    -4.680055728875323E-1   -2.350814553842615E-1   -1.376501427454290E-2    5.221295191895928E-2   -1.114181227610083E-2    5.153388706164927E-2   -5.043536061997190E-1   -4.593207441876176E-2
 6.501951908350000E9    -4.683627411934808E-1   -2.340886768827812E-1   -1.371860441065773E-2    5.248550274910655E-2   -1.110047577149059E-2    5.204260522545900E-2   -5.044037331859398E-1   -4.430274228173874E-2
 6.501964091125000E9    -4.688550992809387E-1   -2.329729296552941E-1   -1.353007120474547E-2    5.305901851956567E-2   -1.108716094965308E-2    5.242807676173454E-2   -5.044530606234541E-1   -4.245015809928974E-2
 6.501976273900000E9    -4.693065299346064E-1   -2.318473782223700E-1   -1.352179237616205E-2    5.339966321096207E-2   -1.097336831645493E-2    5.280892309718024E-2   -5.042490244837265E-1   -4.088694943704557E-2
 6.501988456675000E9    -4.697407813016861E-1   -2.309005701180994E-1   -1.358031599121659E-2    5.376405095964631E-2   -1.095226756609182E-2    5.332228260992891E-2   -5.043055329151489E-1   -3.926236062471047E-2
 6.502000639450000E9    -4.701964623848085E-1   -2.298135606377013E-1   -1.353368911735408E-2    5.445192558914869E-2   -1.086702253833465E-2    5.372133876831911E-2   -5.042060476845465E-1   -3.763524927940035E-2
 6.502012822225000E9    -4.705934654072780E-1   -2.288838506607420E-1   -1.339069629445532E-2    5.477496580820070E-2   -1.082697670578868E-2    5.416346330970082E-2   -5.041841226949609E-1   -3.608274171897612E-2
 6.502025005000000E9    -4.711439385864929E-1   -2.276487302703273E-1   -1.337009549218903E-2    5.539341836480292E-2   -1.072418609323363E-2    5.467145448339115E-2   -5.041912454125204E-1   -3.441966575830310E-2
 6.502037187775000E9    -4.714787755487384E-1   -2.266891317566940E-1   -1.314410930158048E-2    5.590984083872505E-2   -1.064188999635960E-2    5.522896617215059E-2   -5.041937917063698E-1   -3.256861461368610E-2
 6.502049370550000E9    -4.718840865369688E-1   -2.256104247562180E-1   -1.315711638071602E-2    5.628448886299564E-2   -1.057367068739644E-2    5.561142615483732E-2   -5.040251039646624E-1   -3.095670814219124E-2
 6.502061553325000E9    -4.724218865503271E-1   -2.244900637704824E-1   -1.319087686991208E-2    5.687576311804555E-2   -1.049816050006406E-2    5.609435926404630E-2   -5.039020453348871E-1   -2.922950894552998E-2
 6.502073736100000E9    -4.727352389364308E-1   -2.234147289049015E-1   -1.301577591848613E-2    5.740702228886080E-2   -1.034691536584446E-2    5.659907425809316E-2   -5.037882986823347E-1   -2.741195408277914E-2
 6.502085918875000E9    -4.732211093132437E-1   -2.224146636409519E-1   -1.292542204579325E-2    5.786547353788932E-2   -1.023749711603360E-2    5.705172341060277E-2   -5.037813838588957E-1   -2.568490268834027E-2
 6.502098101650000E9    -4.736075020716813E-1   -2.212349505810868E-1   -1.280403304664896E-2    5.840207467245723E-2   -1.021333663809731E-2    5.755744823662450E-2   -5.036801741739679E-1   -2.386660618553414E-2
 6.502110284425000E9    -4.740482510320118E-1   -2.202419439359363E-1   -1.274718315807088E-2    5.900210953200791E-2   -1.002308062720389E-2    5.811981349101072E-2   -5.035473158696174E-1   -2.202607018239517E-2
 6.502122467200000E9    -4.743596751856931E-1   -2.189868690927312E-1   -1.273935219612527E-2    5.948563275381014E-2   -9.950748038202164E-3    5.862661254418188E-2   -5.032856211203066E-1   -2.020591686034095E-2
 6.502134649975000E9    -4.748880148812389E-1   -2.179490517848096E-1   -1.253589506124616E-2    6.015539526066389E-2   -9.880826903945122E-3    5.929437786956467E-2   -5.033752834334212E-1   -1.848913500233032E-2
 6.502146832750000E9    -4.752724238124172E-1   -2.167739404572575E-1   -1.247455529252284E-2    6.060100380582990E-2   -9.794254182215394E-3    5.968760185494114E-2   -5.031685772092607E-1   -1.674109504311593E-2
