#  HZ   S   RI   R     50.00 
! Rohde & Schwarz Vector Network Analyzer 
! Rohde-Schwarz,ZNB20-2Port,1311601062101988,3.16
! Created: UTC 3/20/2024, 11:41:40 AM
! freq[Hz]                re:S11                  im:S11                  re:S21                  im:S21                  re:S12                  im:S12                  re:S22                  im:S22
 6.501042079000000E9    -4.305478726919352E-1   -3.032208488693507E-1   -1.493847484139304E-2    3.119231712147334E-2   -1.305815742181775E-2    3.122753861181634E-2   -4.926975823825520E-1   -1.448800467846805E-1
 6.501054291600000E9    -4.309721894077053E-1   -3.022890766937589E-1   -1.480760800548802E-2    3.138850823381700E-2   -1.307341775663169E-2    3.146970794554114E-2   -4.930047167689499E-1   -1.437460657726521E-1
 6.501066504200000E9    -4.315435310857818E-1   -3.014764728095908E-1   -1.481726414732327E-2    3.158637450693332E-2   -1.303208620165106E-2    3.157181150157557E-2   -4.931607530293571E-1   -1.427134435087468E-1
 6.501078716800000E9    -4.321583821780727E-1   -3.006459027309627E-1   -1.486006653068290E-2    3.183410944840324E-2   -1.303174462409610E-2    3.177395958988220E-2   -4.936612868524154E-1   -1.413685302185731E-1
 6.501090929400000E9    -4.327044325195563E-1   -2.997344181509403E-1   -1.493028192167744E-2    3.188550354307209E-2   -1.305008683075351E-2    3.198387462821710E-2   -4.937847268864003E-1   -1.401636503417834E-1
 6.501103142000000E9    -4.332821227564619E-1   -2.989505810379104E-1   -1.477745016599360E-2    3.209652230858400E-2   -1.305550491886749E-2    3.212413410799767E-2   -4.939891738525404E-1   -1.390220779764897E-1
 6.501115354600000E9    -4.337837255846246E-1   -2.980567733065642E-1   -1.469415498659486E-2    3.228730063165954E-2   -1.302805226117089E-2    3.238024380562673E-2   -4.943370700907958E-1   -1.378164057827071E-1
 6.501127567200000E9    -4.342747279268270E-1   -2.972045458504319E-1   -1.493866581531453E-2    3.254227891870966E-2   -1.301507512690948E-2    3.257525515284321E-2   -4.946633933289633E-1   -1.366179258257116E-1
 6.501139779800000E9    -4.349814763609531E-1   -2.963842917985199E-1   -1.489514759050881E-2    3.263880908451029E-2   -1.307270337477759E-2    3.281383204262294E-2   -4.948719908425586E-1   -1.355388129757329E-1
 6.501151992400000E9    -4.354403655590379E-1   -2.955039212913565E-1   -1.476961120013347E-2    3.285632365470514E-2   -1.302173710564184E-2    3.295359883189206E-2   -4.951372529330302E-1   -1.341370756834206E-1
 6.501164205000000E9    -4.359559626768715E-1   -2.946945731640223E-1   -1.478312087043109E-2    3.318435447524976E-2   -1.299990139388560E-2    3.319566116253515E-2   -4.953316139070131E-1   -1.330365709623637E-1
 6.501176417600000E9    -4.365468116907055E-1   -2.938106568736121E-1   -1.476510887515053E-2    3.344284187305072E-2   -1.297580233172571E-2    3.336881331722297E-2   -4.957051837738398E-1   -1.318521365789577E-1
 6.501188630200000E9    -4.371384645710846E-1   -2.929808359800420E-1   -1.489332341893137E-2    3.351281564843252E-2   -1.305580175274086E-2    3.352290281942240E-2   -4.958105808240821E-1   -1.307455505894284E-1
 6.501200842800000E9    -4.376380314093548E-1   -2.919318376660003E-1   -1.484803601765200E-2    3.374415710714691E-2   -1.290033095338976E-2    3.384815835352554E-2   -4.960727089083151E-1   -1.293864947277773E-1
 6.501213055400000E9    -4.382017779783152E-1   -2.912796466658031E-1   -1.481745020719136E-2    3.409172016995802E-2   -1.307589803118024E-2    3.396153213832780E-2   -4.962909561990630E-1   -1.282969893920690E-1
 6.501225268000000E9    -4.387139898079486E-1   -2.903514518645937E-1   -1.479904757578607E-2    3.405048625525457E-2   -1.298893445864202E-2    3.423586209583789E-2   -4.965990971783016E-1   -1.269716264805965E-1
 6.501237480600000E9    -4.392440681419833E-1   -2.895296352429868E-1   -1.488756457470850E-2    3.428843176675068E-2   -1.298539282673160E-2    3.441821541059611E-2   -4.967409714284358E-1   -1.257098632865893E-1
 6.501249693200000E9    -4.398251099032061E-1   -2.886295901056269E-1   -1.467303494954656E-2    3.463808916474855E-2   -1.290069323958567E-2    3.451800087987314E-2   -4.970575025207684E-1   -1.246152305995788E-1
 6.501261905800000E9    -4.403071598807050E-1   -2.876938753195497E-1   -1.492684045427651E-2    3.489400325756458E-2   -1.294321530217033E-2    3.477333971833586E-2   -4.972577708835300E-1   -1.232901850253350E-1
 6.501274118400000E9    -4.408392019173943E-1   -2.869226284682708E-1   -1.474693076205690E-2    3.499088686146642E-2   -1.293087093245498E-2    3.496891927608485E-2   -4.973555577668825E-1   -1.222061658723131E-1
 6.501286331000000E9    -4.414210458556817E-1   -2.860200052503879E-1   -1.490571334518767E-2    3.529185230860413E-2   -1.296412260144731E-2    3.521481921126519E-2   -4.976785974304010E-1   -1.209347907848840E-1
 6.501298543600000E9    -4.419447637472197E-1   -2.851023177363611E-1   -1.493617258829812E-2    3.544151211017969E-2   -1.297583679272893E-2    3.539270713144053E-2   -4.978582568336523E-1   -1.198202686645777E-1
 6.501310756200000E9    -4.426016372994070E-1   -2.841825483091108E-1   -1.479778751469905E-2    3.576601180246996E-2   -1.288046569675126E-2    3.572562086764390E-2   -4.982695120106787E-1   -1.185350352563193E-1
 6.501322968800000E9    -4.429781228166116E-1   -2.832895835370073E-1   -1.485567307759430E-2    3.604035180922506E-2   -1.288006683443123E-2    3.586443265079518E-2   -4.983682713267272E-1   -1.169724285994507E-1
 6.501335181400000E9    -4.435952378740806E-1   -2.824082153935293E-1   -1.473256689006043E-2    3.624535183421613E-2   -1.295704992947144E-2    3.604751358068967E-2   -4.986332076877719E-1   -1.158572463249102E-1
 6.501347394000000E9    -4.441376666256947E-1   -2.816337390975080E-1   -1.482632813184884E-2    3.650476298533845E-2   -1.280402151285461E-2    3.629719372088946E-2   -4.988374618470300E-1   -1.146429150691378E-1
 6.501359606600000E9    -4.446223329350949E-1   -2.807265260895360E-1   -1.471852685316385E-2    3.670929314666054E-2   -1.282770191526632E-2    3.659443926275131E-2   -4.988644709797845E-1   -1.133294266674329E-1
 6.501371819200000E9    -4.451597141186249E-1   -2.797116217165051E-1   -1.477832378816809E-2    3.694881320441253E-2   -1.281970406241801E-2    3.688188329519285E-2   -4.992243417799635E-1   -1.119788290320346E-1
 6.501384031800000E9    -4.456759826463319E-1   -2.787970042495863E-1   -1.482296954651384E-2    3.722256877026766E-2   -1.277048924558265E-2    3.709291264947357E-2   -4.993392226474976E-1   -1.108471917286740E-1
 6.501396244400000E9    -4.461932415883211E-1   -2.780083090899047E-1   -1.482348651094467E-2    3.734206011706744E-2   -1.270924898168925E-2    3.737227802087683E-2   -4.995590432941105E-1   -1.095302389453334E-1
 6.501408457000000E9    -4.467687352076916E-1   -2.771021366137972E-1   -1.470011139850337E-2    3.771806830657559E-2   -1.278695824865367E-2    3.758373885809178E-2   -4.997548766463398E-1   -1.081610887382535E-1
 6.501420669600000E9    -4.472798506217917E-1   -2.761415907074354E-1   -1.471581427623393E-2    3.792776359076867E-2   -1.280489530267612E-2    3.774806124735543E-2   -4.998991808452077E-1   -1.068801690532758E-1
 6.501432882200000E9    -4.478011436644930E-1   -2.752472417137226E-1   -1.478234792302212E-2    3.818147602389077E-2   -1.265960456839782E-2    3.800247884169165E-2   -5.000678602696438E-1   -1.055912978171521E-1
 6.501445094800000E9    -4.483439355951968E-1   -2.743537019426854E-1   -1.464910845926252E-2    3.849919926626685E-2   -1.269979063301921E-2    3.829430886257355E-2   -5.002420993229431E-1   -1.043663651679106E-1
 6.501457307400000E9    -4.489332026247103E-1   -2.734163976872558E-1   -1.480004644937968E-2    3.884012918443207E-2   -1.261795313951434E-2    3.857352867448700E-2   -5.004349099721151E-1   -1.030559789267821E-1
 6.501469520000000E9    -4.493866926514068E-1   -2.726739949491197E-1   -1.479840087544881E-2    3.891905764700698E-2   -1.272725379470545E-2    3.880572241456581E-2   -5.007272764388393E-1   -1.015568356774014E-1
 6.501481732600000E9    -4.497936242440720E-1   -2.715894320843338E-1   -1.466538524588742E-2    3.930732511479232E-2   -1.261649101696505E-2    3.914784450814777E-2   -5.009172621818667E-1   -1.003556222765912E-1
 6.501493945200000E9    -4.503507532214173E-1   -2.706830366700352E-1   -1.471530650044844E-2    3.954038711923356E-2   -1.261204721897009E-2    3.934889564842510E-2   -5.009909249481117E-1   -9.897108221894117E-2
 6.501506157800000E9    -4.508006528486769E-1   -2.697851940460531E-1   -1.476691459078074E-2    3.989488930537416E-2   -1.261332245381337E-2    3.955767484319347E-2   -5.012758043392286E-1   -9.768758640951160E-2
 6.501518370400000E9    -4.513667854798052E-1   -2.688761569476481E-1   -1.461539732577690E-2    4.017430000032490E-2   -1.260655904320148E-2    3.987317468209076E-2   -5.013543469610330E-1   -9.639673317858208E-2
 6.501530583000000E9    -4.518990078760011E-1   -2.679352402425658E-1   -1.460731135940593E-2    4.023160042297935E-2   -1.263713299254532E-2    4.007429273692152E-2   -5.015263976912727E-1   -9.504803329924055E-2
 6.501542795600000E9    -4.524597741380695E-1   -2.669837454707404E-1   -1.466695779374945E-2    4.069529563452135E-2   -1.253324621067860E-2    4.047925437561026E-2   -5.016271222913755E-1   -9.360890280481034E-2
 6.501555008200000E9    -4.529269187260201E-1   -2.660160961140833E-1   -1.464763974036392E-2    4.090592713288509E-2   -1.248238302364118E-2    4.066019533260851E-2   -5.018533308562585E-1   -9.229415370801893E-2
 6.501567220800000E9    -4.533175010834124E-1   -2.650801600842065E-1   -1.471750825252610E-2    4.119799268257879E-2   -1.256291425253949E-2    4.099400602409541E-2   -5.021382175563789E-1   -9.094509584103068E-2
 6.501579433400000E9    -4.539048693583465E-1   -2.641902129817168E-1   -1.463948839461257E-2    4.148931680614198E-2   -1.249361394780379E-2    4.129926484545442E-2   -5.020643911411169E-1   -8.956714867857012E-2
 6.501591646000000E9    -4.544468717201552E-1   -2.632127036132950E-1   -1.459457425589364E-2    4.184553511795583E-2   -1.243130627957728E-2    4.155200801588814E-2   -5.023039055282632E-1   -8.820812080911783E-2
 6.501603858600000E9    -4.549208719087651E-1   -2.623581106909536E-1   -1.457367473728867E-2    4.208651363900792E-2   -1.240663932524700E-2    4.180592056313948E-2   -5.024565452482944E-1   -8.683750655590976E-2
 6.501616071200000E9    -4.553977473356797E-1   -2.614069401757242E-1   -1.466375325979318E-2    4.242458763647047E-2   -1.244473720600044E-2    4.215669097235672E-2   -5.025921944582270E-1   -8.550781694642628E-2
 6.501628283800000E9    -4.559494542322842E-1   -2.604720279390864E-1   -1.452280686195241E-2    4.270421082517997E-2   -1.233356204601769E-2    4.247125816899730E-2   -5.027368349100466E-1   -8.411153145663108E-2
 6.501640496400000E9    -4.562924121874724E-1   -2.594323727252091E-1   -1.449372493118005E-2    4.309629119338592E-2   -1.236261715111768E-2    4.272325928153714E-2   -5.026879925870940E-1   -8.267183743146249E-2
 6.501652709000000E9    -4.568372097274983E-1   -2.585187155429945E-1   -1.448308439060755E-2    4.340945423796692E-2   -1.229376551157343E-2    4.307181180005487E-2   -5.030313685972325E-1   -8.128665308248403E-2
 6.501664921600000E9    -4.573814281531835E-1   -2.575684702680670E-1   -1.452514605650026E-2    4.360096694752997E-2   -1.229746141090657E-2    4.337146255530595E-2   -5.031297759041962E-1   -7.983248715156344E-2
 6.501677134200000E9    -4.578349808679982E-1   -2.566424302101252E-1   -1.437262763186980E-2    4.396610445212350E-2   -1.224882707704971E-2    4.367852476960826E-2   -5.031044916595545E-1   -7.840277359061168E-2
 6.501689346800000E9    -4.583336840958497E-1   -2.555019294968555E-1   -1.450708079563131E-2    4.430163479217464E-2   -1.225355748140882E-2    4.400121132908990E-2   -5.031762644214292E-1   -7.691455584375462E-2
 6.501701559400000E9    -4.588007119573749E-1   -2.546219722831293E-1   -1.455067686688337E-2    4.469973818768825E-2   -1.218995354305462E-2    4.442638446142244E-2   -5.031571485448171E-1   -7.559206324350608E-2
 6.501713772000000E9    -4.592260400530510E-1   -2.537381441451896E-1   -1.444033344085825E-2    4.506485465326944E-2   -1.204422484064588E-2    4.465019905268478E-2   -5.033941560094880E-1   -7.411671748653677E-2
 6.501725984600000E9    -4.598241370984574E-1   -2.526707231380115E-1   -1.439358472565756E-2    4.537930926970720E-2   -1.204404896260645E-2    4.501274756343163E-2   -5.035644734804451E-1   -7.256814281304837E-2
 6.501738197200000E9    -4.603732902948504E-1   -2.516050071745971E-1   -1.432508865174470E-2    4.581336695917109E-2   -1.198276453598378E-2    4.537064712075185E-2   -5.037096026745127E-1   -7.117340109610222E-2
 6.501750409800000E9    -4.606991952649736E-1   -2.507587347939133E-1   -1.441839899367977E-2    4.605717622315351E-2   -1.206014341693691E-2    4.568036484464755E-2   -5.036306828143312E-1   -6.977053357372588E-2
 6.501762622400000E9    -4.612179852169500E-1   -2.497885066828268E-1   -1.437718579616956E-2    4.648111064644123E-2   -1.190407186921750E-2    4.611852074477665E-2   -5.038916776400395E-1   -6.819801074191385E-2
 6.501774835000000E9    -4.617806175599460E-1   -2.487967310983733E-1   -1.436065280981575E-2    4.679436850026573E-2   -1.197829916021813E-2    4.634945430797136E-2   -5.038785720470916E-1   -6.689019964176700E-2
 6.501787047600000E9    -4.622200744524950E-1   -2.478558059163076E-1   -1.426539624204113E-2    4.714413549259933E-2   -1.180192945057933E-2    4.680436340383506E-2   -5.038790021013351E-1   -6.525798195271433E-2
 6.501799260200000E9    -4.627686930036023E-1   -2.468392198893427E-1   -1.425073680870365E-2    4.764145339549582E-2   -1.187989206895060E-2    4.708548592193521E-2   -5.039031533369728E-1   -6.372188449277018E-2
 6.501811472800000E9    -4.631546224315641E-1   -2.458833873475637E-1   -1.407662459000130E-2    4.785462284248200E-2   -1.172945839577187E-2    4.744930343427259E-2   -5.041514278162617E-1   -6.234128943830676E-2
 6.501823685400000E9    -4.635156479001473E-1   -2.448418139249134E-1   -1.407639529756673E-2    4.817764799297292E-2   -1.176252075836684E-2    4.781259521578877E-2   -5.040973128063158E-1   -6.074093807254707E-2
 6.501835898000000E9    -4.640705406890308E-1   -2.439051775316293E-1   -1.408168790289647E-2    4.853971342638102E-2   -1.170980369710391E-2    4.812309199575672E-2   -5.041200467712861E-1   -5.912642867522102E-2
 6.501848110600000E9    -4.644885159829842E-1   -2.427547096294117E-1   -1.402301654551829E-2    4.902071879991893E-2   -1.163730827604444E-2    4.858753086035305E-2   -5.042528216945927E-1   -5.770413178667349E-2
 6.501860323200000E9    -4.650040763340683E-1   -2.416650541666454E-1   -1.394095838571437E-2    4.957882953783432E-2   -1.163475310335534E-2    4.889582537358985E-2   -5.042669102088069E-1   -5.613785310952930E-2
 6.501872535800000E9    -4.654517020963965E-1   -2.408754722136509E-1   -1.400244468881249E-2    4.976446296075715E-2   -1.153306999022493E-2    4.927996738550463E-2   -5.042534703369890E-1   -5.459390261691412E-2
 6.501884748400000E9    -4.659310580890535E-1   -2.398104385065750E-1   -1.397751648710692E-2    5.019206305601750E-2   -1.143339981052622E-2    4.977128205411810E-2   -5.042303711428590E-1   -5.285689726134275E-2
 6.501896961000000E9    -4.664853637771458E-1   -2.388076499609589E-1   -1.384706741951828E-2    5.067842511267309E-2   -1.144132115153059E-2    5.005591853274674E-2   -5.041819449894344E-1   -5.148834969371690E-2
 6.501909173600000E9    -4.668380109648851E-1   -2.376567881329484E-1   -1.376295960336150E-2    5.104793945267345E-2   -1.137470359932154E-2    5.044811196682629E-2   -5.043712614905651E-1   -4.980602204408723E-2
 6.501921386200000E9    -4.672479378116282E-1   -2.367647881863919E-1   -1.382077985925504E-2    5.162116226100461E-2   -1.131706260065174E-2    5.095537962240910E-2   -5.043232728492887E-1   -4.828004301106602E-2
 6.501933598800000E9    -4.677958704289821E-1   -2.356930467008440E-1   -1.372941695650274E-2    5.198425337825624E-2   -1.123729368977248E-2    5.129760872566590E-2   -5.044564178182486E-1   -4.664351507776976E-2
 6.501945811400000E9    -4.681755103992694E-1   -2.346419584987607E-1   -1.380606085535703E-2    5.226121266419856E-2   -1.118679179035720E-2    5.182218539455193E-2   -5.042299763109124E-1   -4.493343118461351E-2
 6.501958024000000E9    -4.686644987471582E-1   -2.335914542270753E-1   -1.354591738454690E-2    5.282822735405229E-2   -1.117099698525996E-2    5.220027269370364E-2   -5.044065803363686E-1   -4.331712429287002E-2
 6.501970236600000E9    -4.692187522765073E-1   -2.325170632737965E-1   -1.371415233542337E-2    5.316471298334381E-2   -1.104830466784229E-2    5.269500142940671E-2   -5.041851219912783E-1   -4.182889256539067E-2
 6.501982449200000E9    -4.695513466622778E-1   -2.315266590439508E-1   -1.352911601995480E-2    5.373489143290560E-2   -1.104455436779199E-2    5.309535741326624E-2   -5.042964909100048E-1   -4.007682455602771E-2
 6.501994661800000E9    -4.699383543644965E-1   -2.303856505149910E-1   -1.345191665102920E-2    5.427717996735140E-2   -1.085429860617189E-2    5.355382784509184E-2   -5.041691361505466E-1   -3.853161538111860E-2
 6.502006874400000E9    -4.704055335241555E-1   -2.293320389527349E-1   -1.341547431130750E-2    5.469322226232711E-2   -1.071381855169576E-2    5.400775230900014E-2   -5.040380093823982E-1   -3.678529625940729E-2
 6.502019087000000E9    -4.709219976273621E-1   -2.284030920336846E-1   -1.333634894807421E-2    5.532270189088780E-2   -1.070572406913442E-2    5.446970007744423E-2   -5.041974886797468E-1   -3.513370657021155E-2
 6.502031299600000E9    -4.712034514539474E-1   -2.272213166084334E-1   -1.323414151125086E-2    5.555617366983298E-2   -1.071778338215506E-2    5.491359530650045E-2   -5.041021932026545E-1   -3.344731878947152E-2
 6.502043512200000E9    -4.716142286780047E-1   -2.261135712148680E-1   -1.327177607068655E-2    5.626900532206393E-2   -1.051928999921516E-2    5.533524850439762E-2   -5.040561826188763E-1   -3.164870120717557E-2
 6.502055724800000E9    -4.720950157538093E-1   -2.251257190202969E-1   -1.316174200732414E-2    5.672042626474788E-2   -1.044382162717813E-2    5.590015704862339E-2   -5.039957239269010E-1   -2.985713577910775E-2
 6.502067937400000E9    -4.724363602419936E-1   -2.239658085397782E-1   -1.312049135475810E-2    5.715922703891992E-2   -1.043055915487017E-2    5.641847221394457E-2   -5.038940796433040E-1   -2.831347189026153E-2
 6.502080150000000E9    -4.729690011901542E-1   -2.229193282677960E-1   -1.304429641533194E-2    5.756100137683162E-2   -1.026707895271643E-2    5.693638617339933E-2   -5.038828484150492E-1   -2.646914444330219E-2
 6.502092362600000E9    -4.733477912482458E-1   -2.217672565299290E-1   -1.291560947782808E-2    5.828001936777213E-2   -1.020568277453104E-2    5.739489739564643E-2   -5.036200406825743E-1   -2.467668488263894E-2
 6.502104575200000E9    -4.738470411540587E-1   -2.207476576826701E-1   -1.285303730604089E-2    5.872822005737604E-2   -1.013031467691865E-2    5.799473956513117E-2   -5.035355006935212E-1   -2.275828783824791E-2
 6.502116787800000E9    -4.742000889700960E-1   -2.196635767178865E-1   -1.275962568197745E-2    5.936483553602215E-2   -9.998105958303674E-3    5.845174241455697E-2   -5.035271627136763E-1   -2.114585424590930E-2
 6.502129000400000E9    -4.746581777489218E-1   -2.185156037255013E-1   -1.270314984945631E-2    5.988889662293367E-2   -9.899786475872065E-3    5.891273081565430E-2   -5.032739503512900E-1   -1.934281511487037E-2
 6.502141213000000E9    -4.750296973108546E-1   -2.174148174545601E-1   -1.256971215689033E-2    6.048755202143490E-2   -9.808304855438219E-3    5.943362635291759E-2   -5.032616427669829E-1   -1.748991138483951E-2
