#  HZ   S   RI   R     50.00 
! Rohde & Schwarz Vector Network Analyzer 
! Rohde-Schwarz,ZNB20-2Port,1311601062101988,3.16
! Created: UTC 3/20/2024, 11:41:42 AM
! freq[Hz]                re:S11                  im:S11                  re:S21                  im:S21                  re:S12                  im:S12                  re:S22                  im:S22
 6.501041151000000E9    -4.303965073826663E-1   -3.031933689936234E-1   -1.486468546568263E-2    3.109674208252550E-2   -1.303984816378271E-2    3.127613176979969E-2   -4.926955771372279E-1   -1.449240570365827E-1
 6.501053366950000E9    -4.309687122551688E-1   -3.024143003764191E-1   -1.480973701651646E-2    3.140468676279404E-2   -1.307323669624378E-2    3.146577385031474E-2   -4.929901415040957E-1   -1.438548929374702E-1
 6.501065582900000E9    -4.314357637462635E-1   -3.015945610609973E-1   -1.493966602227044E-2    3.149290662172662E-2   -1.294776251040357E-2    3.162291327490238E-2   -4.933298698115447E-1   -1.425695077982248E-1
 6.501077798850000E9    -4.320498806059037E-1   -3.007799093163402E-1   -1.475436829687210E-2    3.166128689877916E-2   -1.310542366118889E-2    3.184735984104053E-2   -4.934463556401387E-1   -1.415333797606759E-1
 6.501090014800000E9    -4.327238467749627E-1   -2.999303037325311E-1   -1.479412013853325E-2    3.201189779952525E-2   -1.299287101196195E-2    3.184533654992144E-2   -4.937455816865265E-1   -1.403712816333366E-1
 6.501102230750000E9    -4.332448580338162E-1   -2.990987990270552E-1   -1.484210238958736E-2    3.217735481178466E-2   -1.308368859699892E-2    3.216531597251377E-2   -4.939791029431768E-1   -1.391792835919166E-1
 6.501114446700000E9    -4.337748670705670E-1   -2.981579500059393E-1   -1.493664127909173E-2    3.241196278902164E-2   -1.304294926946478E-2    3.238306536056960E-2   -4.942668161234763E-1   -1.380108518566520E-1
 6.501126662650000E9    -4.342660212616334E-1   -2.972908707126646E-1   -1.487537765515415E-2    3.254913695556962E-2   -1.307540498130391E-2    3.253068031531953E-2   -4.945897483285605E-1   -1.368750808227923E-1
 6.501138878600000E9    -4.349611520933653E-1   -2.964704129379533E-1   -1.480554402564371E-2    3.277264323460264E-2   -1.299534916313678E-2    3.280750629561312E-2   -4.946947370444114E-1   -1.354755083557290E-1
 6.501151094550000E9    -4.354307711237131E-1   -2.956630325840440E-1   -1.471793338770311E-2    3.291475686458590E-2   -1.303311415543036E-2    3.292054887686592E-2   -4.950598347145360E-1   -1.343152424458881E-1
 6.501163310500000E9    -4.359777319712482E-1   -2.946557231544024E-1   -1.487594850865962E-2    3.302899232724134E-2   -1.305501803657947E-2    3.318346693728557E-2   -4.953341975364234E-1   -1.332024622095450E-1
 6.501175526450000E9    -4.366369738385517E-1   -2.938714651435932E-1   -1.484742856464392E-2    3.335418637756348E-2   -1.299007780308875E-2    3.327476460837066E-2   -4.955629230162077E-1   -1.319175678945373E-1
 6.501187742400000E9    -4.371001842757763E-1   -2.929817179826493E-1   -1.480901262073149E-2    3.359063952338245E-2   -1.312292620188712E-2    3.362566704187095E-2   -4.958031580994398E-1   -1.309017002248354E-1
 6.501199958350000E9    -4.375945759061586E-1   -2.922309814434404E-1   -1.495006623228583E-2    3.376297866017253E-2   -1.297907679096469E-2    3.377413448502051E-2   -4.960726049993572E-1   -1.296900392387821E-1
 6.501212174300000E9    -4.381859926178821E-1   -2.912919309548932E-1   -1.494938056692411E-2    3.395574780407652E-2   -1.293789608026888E-2    3.386420098831457E-2   -4.962218410055756E-1   -1.283282153838282E-1
 6.501224390250000E9    -4.386674852935014E-1   -2.904514834210074E-1   -1.476992573630648E-2    3.428576688537208E-2   -1.298320606137369E-2    3.412805610504464E-2   -4.965934593319371E-1   -1.271488625727294E-1
 6.501236606200000E9    -4.392469086779986E-1   -2.895478206463334E-1   -1.484330072899717E-2    3.439970447156797E-2   -1.290156251764555E-2    3.429195952939536E-2   -4.968151144235828E-1   -1.258888534904831E-1
 6.501248822150000E9    -4.398798676228273E-1   -2.886905112227865E-1   -1.490258032826481E-2    3.466337725263838E-2   -1.292368464772654E-2    3.450017002918711E-2   -4.969035884757604E-1   -1.246126776352633E-1
 6.501261038100000E9    -4.403399283657624E-1   -2.877685351991399E-1   -1.480741423614191E-2    3.480776433544672E-2   -1.286820007674581E-2    3.483854083035454E-2   -4.972756478476333E-1   -1.235016247470945E-1
 6.501273254050000E9    -4.408105061891512E-1   -2.869753780267395E-1   -1.479282975096318E-2    3.502756922899865E-2   -1.299798317901361E-2    3.501555958022320E-2   -4.974734918963537E-1   -1.222481527690503E-1
 6.501285470000000E9    -4.415138174914960E-1   -2.860063724328772E-1   -1.481306780451323E-2    3.520350637871732E-2   -1.298012660007206E-2    3.514993870442801E-2   -4.975916796554391E-1   -1.210074943405288E-1
 6.501297685950000E9    -4.418107409206274E-1   -2.852258619236050E-1   -1.482255488575980E-2    3.550464332742354E-2   -1.286999827645863E-2    3.547046249601361E-2   -4.978948554785289E-1   -1.197220359795360E-1
 6.501309901900000E9    -4.425411964993770E-1   -2.842214251769361E-1   -1.485763401351708E-2    3.570802686327702E-2   -1.292264914983299E-2    3.567739435330548E-2   -4.981846951625487E-1   -1.185091742762789E-1
 6.501322117850000E9    -4.430401505501482E-1   -2.832826351642629E-1   -1.472130701529088E-2    3.599133166469899E-2   -1.297646497824687E-2    3.590397101507757E-2   -4.983393739446283E-1   -1.172359360301437E-1
 6.501334333800000E9    -4.435644655310453E-1   -2.825837070014712E-1   -1.479863753902843E-2    3.625666451416848E-2   -1.287722119933848E-2    3.616060325638895E-2   -4.985791952663576E-1   -1.159391303242565E-1
 6.501346549750000E9    -4.440098929859219E-1   -2.816265621620604E-1   -1.493977836461791E-2    3.641652162609112E-2   -1.288984087846978E-2    3.639709691556723E-2   -4.987242379776328E-1   -1.146300196357292E-1
 6.501358765700000E9    -4.446194560710034E-1   -2.807497314975566E-1   -1.482870350123675E-2    3.675754706510104E-2   -1.292382177087790E-2    3.655514648983850E-2   -4.990012787014472E-1   -1.134378039031188E-1
 6.501370981650000E9    -4.450679608556938E-1   -2.798674754200967E-1   -1.483695212388713E-2    3.686343952790654E-2   -1.280002074859087E-2    3.684575595909305E-2   -4.992540079496912E-1   -1.119785338891977E-1
 6.501383197600000E9    -4.456851954433638E-1   -2.789553866307753E-1   -1.489450312279226E-2    3.706893584277330E-2   -1.277754593687140E-2    3.716134639263032E-2   -4.993466167011095E-1   -1.108891565048592E-1
 6.501395413550000E9    -4.463100887093887E-1   -2.780597765294334E-1   -1.477827773938111E-2    3.739121958837639E-2   -1.277448408344555E-2    3.720184418984654E-2   -4.995100914903129E-1   -1.095450212140549E-1
 6.501407629500000E9    -4.467122366427875E-1   -2.771478219995469E-1   -1.478721008762135E-2    3.771578427285834E-2   -1.282818582867970E-2    3.748559626865270E-2   -4.998195463934688E-1   -1.083599757655982E-1
 6.501419845450000E9    -4.472443074009639E-1   -2.762506763679581E-1   -1.483158013017049E-2    3.809688824178320E-2   -1.281420082531877E-2    3.782548943626719E-2   -4.999647077198540E-1   -1.069925622602318E-1
 6.501432061400000E9    -4.476922948456108E-1   -2.752706137366674E-1   -1.462581105743946E-2    3.813232615180089E-2   -1.268643638915840E-2    3.805370685449920E-2   -5.001292444861709E-1   -1.057443892763342E-1
 6.501444277350000E9    -4.481613778007841E-1   -2.743972015232230E-1   -1.488307571703587E-2    3.841680471244231E-2   -1.275698013844734E-2    3.833043638338094E-2   -5.003644822200470E-1   -1.043788583830817E-1
 6.501456493300000E9    -4.487043441274452E-1   -2.735545905407077E-1   -1.495153738856809E-2    3.874502808869156E-2   -1.266906740021918E-2    3.845503409634041E-2   -5.005707037029368E-1   -1.030689218920532E-1
 6.501468709250000E9    -4.492148349134189E-1   -2.727704504478013E-1   -1.470146378447187E-2    3.896329544867275E-2   -1.266294989160097E-2    3.877838790239677E-2   -5.007469097248640E-1   -1.017833029374429E-1
 6.501480925200000E9    -4.499069167955315E-1   -2.716603568583372E-1   -1.470768843043182E-2    3.915039351483608E-2   -1.274999326936930E-2    3.908387214081629E-2   -5.008697494747187E-1   -1.004269905073204E-1
 6.501493141150000E9    -4.502921996157317E-1   -2.708120148041634E-1   -1.473553175536770E-2    3.953767065510733E-2   -1.264920180382747E-2    3.919793471602308E-2   -5.008883234923878E-1   -9.909610857361818E-2
 6.501505357100000E9    -4.508640064870364E-1   -2.700262766763130E-1   -1.477424291528459E-2    3.980262551480008E-2   -1.266662974183008E-2    3.967359775513216E-2   -5.010853223052033E-1   -9.782674084611463E-2
 6.501517573050000E9    -4.513298362992073E-1   -2.689457871619439E-1   -1.463355217901469E-2    4.000175135472488E-2   -1.265918054529052E-2    3.978259004082538E-2   -5.014108755572969E-1   -9.648479974166928E-2
 6.501529789000000E9    -4.518276217470863E-1   -2.679468896646807E-1   -1.467899346625146E-2    4.023626699074789E-2   -1.259663708505778E-2    4.012734449827165E-2   -5.016199481334441E-1   -9.509775794021334E-2
 6.501542004950000E9    -4.523594516702096E-1   -2.670874102000023E-1   -1.471306316313815E-2    4.062206113170711E-2   -1.250458037373474E-2    4.036906558853180E-2   -5.016126576252037E-1   -9.373239725658196E-2
 6.501554220900000E9    -4.529558261877406E-1   -2.661892706017945E-1   -1.461036811463976E-2    4.101119602364517E-2   -1.260810251690538E-2    4.077467362659094E-2   -5.018360286719336E-1   -9.244574589785461E-2
 6.501566436850000E9    -4.534152037820563E-1   -2.651958838693010E-1   -1.462143987332832E-2    4.128741763944331E-2   -1.255534988641135E-2    4.095741218309129E-2   -5.018931695802082E-1   -9.092626133730330E-2
 6.501578652800000E9    -4.537985689778054E-1   -2.642195590596523E-1   -1.456447771442359E-2    4.151849422020561E-2   -1.247160513855419E-2    4.120988375921708E-2   -5.020548547458382E-1   -8.971627609253655E-2
 6.501590868750000E9    -4.543612688756734E-1   -2.633966746004662E-1   -1.479266588233481E-2    4.171274859378117E-2   -1.234629647038004E-2    4.159191891617747E-2   -5.021366631800336E-1   -8.830085558709119E-2
 6.501603084700000E9    -4.549017659699788E-1   -2.624388706852534E-1   -1.455711347418388E-2    4.212014684836583E-2   -1.237032839713458E-2    4.185872860771136E-2   -5.023214157619568E-1   -8.698422523827390E-2
 6.501615300650000E9    -4.554180152072833E-1   -2.614561493620846E-1   -1.464087262651046E-2    4.240462205769690E-2   -1.249490176925888E-2    4.210014355285772E-2   -5.024155836773007E-1   -8.555462903871298E-2
 6.501627516600000E9    -4.558665328879309E-1   -2.604958399983267E-1   -1.465635982921703E-2    4.268764196252300E-2   -1.235474591702304E-2    4.243152469073100E-2   -5.026790795158408E-1   -8.426916297300995E-2
 6.501639732550000E9    -4.563554407708303E-1   -2.594858965148508E-1   -1.448361123008993E-2    4.304503150740845E-2   -1.234711333126164E-2    4.276083517394285E-2   -5.026298997450894E-1   -8.270027865234091E-2
 6.501651948500000E9    -4.568354664930955E-1   -2.585990003366057E-1   -1.454983507013284E-2    4.350121073527252E-2   -1.227610068706646E-2    4.303482981687334E-2   -5.028425410325437E-1   -8.135928237359158E-2
 6.501664164450000E9    -4.573073948590980E-1   -2.576613380161202E-1   -1.456045175328276E-2    4.373842983249390E-2   -1.226790655966709E-2    4.344452400102840E-2   -5.029105464514214E-1   -7.994648377012181E-2
 6.501676380400000E9    -4.578686191575727E-1   -2.566491065459121E-1   -1.448320703675822E-2    4.406867134876188E-2   -1.220075895907278E-2    4.372807075668669E-2   -5.029760402582608E-1   -7.843037495682112E-2
 6.501688596350000E9    -4.583599298084311E-1   -2.556346767849925E-1   -1.447872121881200E-2    4.426652667111401E-2   -1.221078816818496E-2    4.406757755004506E-2   -5.032260073037605E-1   -7.720244312444546E-2
 6.501700812300000E9    -4.588541995007122E-1   -2.547948664995847E-1   -1.434872196488520E-2    4.474839376808642E-2   -1.211198190688969E-2    4.427934392128299E-2   -5.034388736985453E-1   -7.563592000258909E-2
 6.501713028250000E9    -4.593155825298139E-1   -2.538134550083667E-1   -1.441693380994687E-2    4.506684974341231E-2   -1.221421405290915E-2    4.466399913046367E-2   -5.034298067680968E-1   -7.419967267699720E-2
 6.501725244200000E9    -4.597995120420946E-1   -2.527763627248563E-1   -1.446698047960602E-2    4.551328641515806E-2   -1.205641932633979E-2    4.498528281362860E-2   -5.035587885751466E-1   -7.279930562827736E-2
 6.501737460150000E9    -4.602233057013107E-1   -2.518071722628111E-1   -1.435836194527054E-2    4.574305974076906E-2   -1.206033817209468E-2    4.529342224911581E-2   -5.036034191571647E-1   -7.122605770496446E-2
 6.501749676100000E9    -4.608655391763946E-1   -2.508009666457243E-1   -1.434506617982854E-2    4.599531979953642E-2   -1.208657678368551E-2    4.565017685290984E-2   -5.037171288281532E-1   -6.974620047700439E-2
 6.501761892050000E9    -4.612305112529562E-1   -2.498225379934381E-1   -1.443407853862506E-2    4.638086318782436E-2   -1.197591275436644E-2    4.599860672980163E-2   -5.038489579317126E-1   -6.835344165869145E-2
 6.501774108000000E9    -4.617498797084658E-1   -2.488684534161605E-1   -1.431292707052283E-2    4.672914469966424E-2   -1.192393441411325E-2    4.638687573402401E-2   -5.038716594457691E-1   -6.689886427570631E-2
 6.501786323950000E9    -4.620935147024707E-1   -2.478196729818437E-1   -1.432143853865700E-2    4.708734644113310E-2   -1.187781025535018E-2    4.672891146332444E-2   -5.039908721532935E-1   -6.546611332924257E-2
 6.501798539900000E9    -4.626580311346510E-1   -2.468552946458077E-1   -1.424038659574783E-2    4.751473149297167E-2   -1.190361738620607E-2    4.701479939552163E-2   -5.040668512274329E-1   -6.384428577765751E-2
 6.501810755850000E9    -4.630596829211983E-1   -2.459255804380917E-1   -1.416983553519652E-2    4.787613160253309E-2   -1.183253307189635E-2    4.747011909752689E-2   -5.040473359575348E-1   -6.240152226492380E-2
 6.501822971800000E9    -4.636001963795384E-1   -2.448856449276533E-1   -1.426825480164056E-2    4.815593857317841E-2   -1.167363810764344E-2    4.774942153984298E-2   -5.040755873579698E-1   -6.074930376249785E-2
 6.501835187750000E9    -4.640676066607101E-1   -2.438257652038052E-1   -1.408629456854205E-2    4.853213640902158E-2   -1.174604297543841E-2    4.815325529034302E-2   -5.041805393052886E-1   -5.935623830270751E-2
 6.501847403700000E9    -4.645084824610914E-1   -2.428566728710023E-1   -1.406891002560181E-2    4.893795402465939E-2   -1.161935418499640E-2    4.849213722951647E-2   -5.042347449954291E-1   -5.780641391937388E-2
 6.501859619650000E9    -4.649754513984738E-1   -2.418763392674355E-1   -1.405998899644429E-2    4.949337651216247E-2   -1.164255085121075E-2    4.887581568693973E-2   -5.042928351840341E-1   -5.618509916709388E-2
 6.501871835600000E9    -4.654515739959293E-1   -2.408600654713953E-1   -1.399182040665944E-2    4.986322878569503E-2   -1.153039850359528E-2    4.934680360895818E-2   -5.043032417227019E-1   -5.458033577252629E-2
 6.501884051550000E9    -4.658922374900485E-1   -2.398871699536930E-1   -1.395356094870037E-2    5.026730043103980E-2   -1.156063924800535E-2    4.966801335754169E-2   -5.042206949053724E-1   -5.308544024662767E-2
 6.501896267500000E9    -4.663662972998794E-1   -2.388836513414999E-1   -1.396502107197413E-2    5.062621820936424E-2   -1.148693143540441E-2    5.001571963663784E-2   -5.043175559221277E-1   -5.164758194536165E-2
 6.501908483450000E9    -4.667862245072497E-1   -2.378861163146864E-1   -1.400899806490201E-2    5.117376682603496E-2   -1.138853832926676E-2    5.048359549812276E-2   -5.044114571308237E-1   -4.986234151397828E-2
 6.501920699400000E9    -4.673384984696957E-1   -2.367190636452160E-1   -1.376963120049002E-2    5.149292042219040E-2   -1.125420471315964E-2    5.093712827287659E-2   -5.043423555611236E-1   -4.838335903091408E-2
 6.501932915350000E9    -4.677195365190757E-1   -2.356766389962329E-1   -1.382297311920767E-2    5.203825211824876E-2   -1.128248295102989E-2    5.138594577750760E-2   -5.044092159220811E-1   -4.682283611103472E-2
 6.501945131300000E9    -4.681642208161708E-1   -2.347319223169188E-1   -1.379460184662388E-2    5.230803901816678E-2   -1.109751206817951E-2    5.169177882126082E-2   -5.043547615641987E-1   -4.527656133760507E-2
 6.501957347250000E9    -4.686551609017917E-1   -2.336216926805473E-1   -1.360354901234286E-2    5.299013296030698E-2   -1.119099736795992E-2    5.229901896522262E-2   -5.043357787373624E-1   -4.348278070791581E-2
 6.501969563200000E9    -4.690319594160818E-1   -2.325826100251416E-1   -1.361422754016435E-2    5.324224497719354E-2   -1.105090998208578E-2    5.263705935488559E-2   -5.043152188972927E-1   -4.186156519656796E-2
 6.501981779150000E9    -4.695228139010570E-1   -2.316123049512321E-1   -1.362656593716452E-2    5.370748714039631E-2   -1.096709910962250E-2    5.315309751451946E-2   -5.043538447423644E-1   -4.010738360321298E-2
 6.501993995100000E9    -4.699963614623564E-1   -2.305005679041124E-1   -1.359838424105028E-2    5.415473327857917E-2   -1.088195079767437E-2    5.351051337884126E-2   -5.043850002371316E-1   -3.857144528371965E-2
 6.502006211050000E9    -4.703465042784665E-1   -2.294703988780032E-1   -1.347658839608044E-2    5.467438747696048E-2   -1.081301920806403E-2    5.398166852950476E-2   -5.041116591586613E-1   -3.688433357953491E-2
 6.502018427000000E9    -4.707919786603081E-1   -2.283447250693028E-1   -1.334238336605025E-2    5.516707316828406E-2   -1.066766505485624E-2    5.446498970557506E-2   -5.041008745032114E-1   -3.507087358078999E-2
 6.502030642950000E9    -4.711767441471116E-1   -2.271607332059022E-1   -1.336297688150719E-2    5.557338041817055E-2   -1.070933760577400E-2    5.500926687465193E-2   -5.041910463786203E-1   -3.350230843687772E-2
 6.502042858900000E9    -4.716848943391422E-1   -2.262051605405535E-1   -1.326500303538544E-2    5.608887105842443E-2   -1.056835911289999E-2    5.541570806189597E-2   -5.040032062850662E-1   -3.170605475351103E-2
 6.502055074850000E9    -4.721606645422639E-1   -2.252140889345822E-1   -1.324970356680814E-2    5.665856321438670E-2   -1.039675850187614E-2    5.584711202709680E-2   -5.038770697111691E-1   -3.011116035639497E-2
 6.502067290800000E9    -4.725097033101602E-1   -2.241495587581852E-1   -1.296687013213212E-2    5.718260857132308E-2   -1.034909441751401E-2    5.639505366071428E-2   -5.038499165673455E-1   -2.830703191027475E-2
 6.502079506750000E9    -4.729943795959917E-1   -2.229706068196340E-1   -1.314341733616854E-2    5.777946472675863E-2   -1.034925183586043E-2    5.689243306322360E-2   -5.036771853242312E-1   -2.651076513507115E-2
 6.502091722700000E9    -4.733790360128978E-1   -2.218426443258252E-1   -1.299258265027115E-2    5.828074569527334E-2   -1.024841487901427E-2    5.748679697693663E-2   -5.035380852670515E-1   -2.478396571159147E-2
 6.502103938650000E9    -4.737768167825271E-1   -2.207852745622617E-1   -1.272091418516859E-2    5.861441928317599E-2   -1.022776068872936E-2    5.795669776331359E-2   -5.035172213377480E-1   -2.304431215331446E-2
 6.502116154600000E9    -4.741851770869115E-1   -2.197615840015657E-1   -1.271334319671560E-2    5.934715328021693E-2   -9.945392129650387E-3    5.848318551555639E-2   -5.034267806288628E-1   -2.118021747833496E-2
 6.502128370550000E9    -4.746256597588378E-1   -2.185884766710448E-1   -1.269749400259516E-2    5.984669618028413E-2   -9.874720651941152E-3    5.892929802479455E-2   -5.033181722698763E-1   -1.936528763827543E-2
 6.502140586500000E9    -4.749868366756542E-1   -2.174171440119994E-1   -1.254762434928231E-2    6.052465994521931E-2   -9.814391923959415E-3    5.953736003292262E-2   -5.031864964228518E-1   -1.762753661458702E-2
