#  HZ   S   RI   R     50.00 
! Rohde & Schwarz Vector Network Analyzer 
! Rohde-Schwarz,ZNB20-2Port,1311601062101988,3.16
! Created: UTC 3/20/2024, 11:42:06 AM
! freq[Hz]                re:S11                  im:S11                  re:S21                  im:S21                  re:S12                  im:S12                  re:S22                  im:S22
 6.501031927000000E9    -4.299868096355757E-1   -3.039101056737308E-1   -1.491599254398483E-2    3.106154502696961E-2   -1.313372563642237E-2    3.114251327294797E-2   -4.924985630306128E-1   -1.461098160822505E-1
 6.501044171600000E9    -4.305838723415737E-1   -3.029460630942240E-1   -1.482724409597062E-2    3.131920601226344E-2   -1.312288384379850E-2    3.131186359715495E-2   -4.928351878773352E-1   -1.448403046058580E-1
 6.501056416200000E9    -4.311670910146272E-1   -3.020247717392588E-1   -1.481267472644556E-2    3.143842695942222E-2   -1.303056186017672E-2    3.149599952672598E-2   -4.931314748096628E-1   -1.434974492930594E-1
 6.501068660800000E9    -4.316668355694796E-1   -3.012306760835082E-1   -1.479018747287962E-2    3.170094712827197E-2   -1.308540050657398E-2    3.173255995823722E-2   -4.933947432344111E-1   -1.424993357645982E-1
 6.501080905400000E9    -4.322526325927782E-1   -3.003603811101501E-1   -1.483140100115611E-2    3.198301106969657E-2   -1.309682063149973E-2    3.188674130669004E-2   -4.936062802168279E-1   -1.412585295170007E-1
 6.501093150000000E9    -4.328466963794953E-1   -2.996294377796903E-1   -1.492252069922166E-2    3.204009254015309E-2   -1.311776097492065E-2    3.208180743543357E-2   -4.939130879654240E-1   -1.400498974971617E-1
 6.501105394600000E9    -4.333757679662087E-1   -2.987135764418358E-1   -1.485980535648263E-2    3.223879195106914E-2   -1.306065173757257E-2    3.217597105919288E-2   -4.941246388249275E-1   -1.389358996108966E-1
 6.501117639200000E9    -4.339429411609941E-1   -2.978275531451191E-1   -1.478663444201472E-2    3.253054086369310E-2   -1.309616178283651E-2    3.246850382062378E-2   -4.943797436571477E-1   -1.377419599560885E-1
 6.501129883800000E9    -4.345416055907484E-1   -2.970625385804919E-1   -1.498480700995558E-2    3.264874677944093E-2   -1.297881364914212E-2    3.263458384060609E-2   -4.945536569045110E-1   -1.365532647191747E-1
 6.501142128400000E9    -4.350182198003920E-1   -2.960868729562481E-1   -1.489306764512592E-2    3.270848540234459E-2   -1.297910762723398E-2    3.288846249260436E-2   -4.949039486737345E-1   -1.352297460821753E-1
 6.501154373000000E9    -4.356859558812684E-1   -2.953014389337772E-1   -1.481159518172372E-2    3.312685941263562E-2   -1.297329861867737E-2    3.308212870073569E-2   -4.950521827323335E-1   -1.341164254127970E-1
 6.501166617600000E9    -4.361577124231472E-1   -2.944338330714458E-1   -1.487031991276641E-2    3.334046403893935E-2   -1.312269347417623E-2    3.333339742570973E-2   -4.953313594647667E-1   -1.329165631500862E-1
 6.501178862200000E9    -4.366595636764072E-1   -2.934890311900912E-1   -1.485176003981482E-2    3.344993509869155E-2   -1.305872852958642E-2    3.342478992160471E-2   -4.956803093204142E-1   -1.317003462174396E-1
 6.501191106800000E9    -4.372198718285862E-1   -2.926551966442600E-1   -1.488958642014526E-2    3.363094111855860E-2   -1.295980321873729E-2    3.364910951171378E-2   -4.958807002138144E-1   -1.303623829517261E-1
 6.501203351400000E9    -4.377541586613148E-1   -2.918038096236357E-1   -1.489644695661824E-2    3.387733759310806E-2   -1.295772725521969E-2    3.384103881754418E-2   -4.961408972135182E-1   -1.293073744556669E-1
 6.501215596000000E9    -4.383363684958682E-1   -2.910778520375626E-1   -1.486908922924711E-2    3.404178993529156E-2   -1.299688047308188E-2    3.413266756129238E-2   -4.965007713300194E-1   -1.281792625289341E-1
 6.501227840600000E9    -4.388926595974528E-1   -2.901541291720335E-1   -1.480219701818417E-2    3.430108231711824E-2   -1.292819682559236E-2    3.426687273921532E-2   -4.965994116613494E-1   -1.267754582016957E-1
 6.501240085200000E9    -4.394799294828059E-1   -2.892595432915210E-1   -1.479878136014742E-2    3.446523407268320E-2   -1.303797415661337E-2    3.456304539008999E-2   -4.968499651150541E-1   -1.254513180267277E-1
 6.501252329800000E9    -4.400508906833431E-1   -2.884053157537675E-1   -1.488655135946649E-2    3.473497574048064E-2   -1.292497758204110E-2    3.470363030716481E-2   -4.970226394728867E-1   -1.244247484638637E-1
 6.501264574400000E9    -4.405716777676510E-1   -2.874959801272933E-1   -1.484600851127954E-2    3.484794863716503E-2   -1.288770745449172E-2    3.487293479732321E-2   -4.971761328310038E-1   -1.231541850839687E-1
 6.501276819000000E9    -4.410756524097761E-1   -2.864803720119210E-1   -1.485635568376824E-2    3.519147596667476E-2   -1.292537999177445E-2    3.514876402212370E-2   -4.975534118675710E-1   -1.219780698913161E-1
 6.501289063600000E9    -4.416275812385632E-1   -2.857278987961014E-1   -1.469791092762443E-2    3.543491762963127E-2   -1.293733083676060E-2    3.526133442342846E-2   -4.976975414833005E-1   -1.205825963033368E-1
 6.501301308200000E9    -4.422109977438256E-1   -2.847916766632066E-1   -1.483511543591806E-2    3.556460727952771E-2   -1.294887631894847E-2    3.559376119077742E-2   -4.979109555213688E-1   -1.193575642174224E-1
 6.501313552800000E9    -4.426495729933157E-1   -2.839399425278373E-1   -1.480963626372044E-2    3.576684262963573E-2   -1.288977145261244E-2    3.585641735172836E-2   -4.980934236583546E-1   -1.180522928271051E-1
 6.501325797400000E9    -4.432728682315840E-1   -2.830860123705218E-1   -1.481841497652497E-2    3.610259076294491E-2   -1.288136892389125E-2    3.602422703111295E-2   -4.983734579105208E-1   -1.167824601840910E-1
 6.501338042000000E9    -4.436808191528054E-1   -2.821828672730346E-1   -1.478735663474840E-2    3.637940595195265E-2   -1.281902535880874E-2    3.622327811176045E-2   -4.985384278143691E-1   -1.156047946526551E-1
 6.501350286600000E9    -4.442573749715716E-1   -2.813082770699100E-1   -1.485115498874170E-2    3.661233479328834E-2   -1.286725480035789E-2    3.647827478384556E-2   -4.987543764630823E-1   -1.143046459716054E-1
 6.501362531200000E9    -4.447735269190430E-1   -2.803328623595306E-1   -1.478224187492203E-2    3.666928602330202E-2   -1.283148785143311E-2    3.683498711220914E-2   -4.990606713386590E-1   -1.130035806640583E-1
 6.501374775800000E9    -4.452986420345747E-1   -2.795768810571841E-1   -1.465731023880513E-2    3.701726896847545E-2   -1.277487606537747E-2    3.693731595873822E-2   -4.991779017329044E-1   -1.117622823958223E-1
 6.501387020400000E9    -4.458784414716166E-1   -2.785949833052465E-1   -1.483817290280731E-2    3.734223856180775E-2   -1.281704527823134E-2    3.727262095266318E-2   -4.994301777006045E-1   -1.104833377546185E-1
 6.501399265000000E9    -4.462993385558399E-1   -2.777035036521960E-1   -1.490644552740720E-2    3.745376557280282E-2   -1.271231496361238E-2    3.749632871968402E-2   -4.996493386770204E-1   -1.090918330899958E-1
 6.501411509600000E9    -4.468241622755978E-1   -2.767509237447197E-1   -1.478613154790804E-2    3.779307454911749E-2   -1.277886434462940E-2    3.763081660969731E-2   -4.998110806195101E-1   -1.078366324242698E-1
 6.501423754200000E9    -4.474676650631028E-1   -2.759617275120198E-1   -1.479147114217307E-2    3.820185740965205E-2   -1.279135960693903E-2    3.791019222440737E-2   -5.000396521248874E-1   -1.065052455911407E-1
 6.501435998800000E9    -4.479477501157449E-1   -2.749322439994603E-1   -1.481075763200350E-2    3.833240499883499E-2   -1.272292786548989E-2    3.814608951253782E-2   -5.002532433497743E-1   -1.052760075801313E-1
 6.501448243400000E9    -4.484364608362765E-1   -2.741254483209704E-1   -1.481784594159340E-2    3.859049653046548E-2   -1.267951502752398E-2    3.841814800383331E-2   -5.003639140934074E-1   -1.039466456292031E-1
 6.501460488000000E9    -4.490995504235888E-1   -2.731410525130846E-1   -1.482567610062589E-2    3.891465163534126E-2   -1.273372902936306E-2    3.875993232706110E-2   -5.004525030152173E-1   -1.027749502472477E-1
 6.501472732600000E9    -4.495470871087280E-1   -2.721794711061273E-1   -1.481953034397798E-2    3.911177360095745E-2   -1.274858601641103E-2    3.897670974300965E-2   -5.006617771726053E-1   -1.013060013166371E-1
 6.501484977200000E9    -4.500672095110966E-1   -2.713571897140316E-1   -1.468745907611377E-2    3.953188524758797E-2   -1.259686133828220E-2    3.927929353008876E-2   -5.009913045740273E-1   -1.001146701203378E-1
 6.501497221800000E9    -4.505671253730419E-1   -2.702862585678988E-1   -1.474482760626128E-2    3.960306889379826E-2   -1.258968391962902E-2    3.944461991681132E-2   -5.011263034338607E-1   -9.866173432726733E-2
 6.501509466400000E9    -4.509869574508286E-1   -2.693879057801090E-1   -1.475161543103942E-2    3.984272535081040E-2   -1.266229833865871E-2    3.976869697105483E-2   -5.012656910614154E-1   -9.732398767793547E-2
 6.501521711000000E9    -4.515356336921268E-1   -2.684644330451875E-1   -1.463274787908961E-2    4.015448040955254E-2   -1.261610336738977E-2    4.000083058874614E-2   -5.014073350674170E-1   -9.594059182727040E-2
 6.501533955600000E9    -4.521261854084288E-1   -2.675562178036135E-1   -1.460892026764650E-2    4.042018813987008E-2   -1.257127999930477E-2    4.032197654340065E-2   -5.014309198778918E-1   -9.467327745937638E-2
 6.501546200200000E9    -4.524992922867538E-1   -2.666755137676930E-1   -1.468193056864804E-2    4.073334247550929E-2   -1.254183820846173E-2    4.054758504740287E-2   -5.016408974453671E-1   -9.334422592391459E-2
 6.501558444800000E9    -4.530750858597742E-1   -2.657979016748658E-1   -1.462826764828705E-2    4.112576077705565E-2   -1.254733483334922E-2    4.084603514763367E-2   -5.018412801453178E-1   -9.195780451916874E-2
 6.501570689400000E9    -4.535570174213359E-1   -2.647060223602421E-1   -1.462034598536184E-2    4.131527313439300E-2   -1.245089387679751E-2    4.110981328787169E-2   -5.018593065168540E-1   -9.060123300508331E-2
 6.501582934000000E9    -4.539939084796007E-1   -2.637373508381741E-1   -1.463613074628874E-2    4.159391356482394E-2   -1.244432186642886E-2    4.143793024938840E-2   -5.022446137604157E-1   -8.906766986257673E-2
 6.501595178600000E9    -4.545009583098252E-1   -2.629568408783751E-1   -1.465537616467447E-2    4.198616097676115E-2   -1.246426868205677E-2    4.174482067262454E-2   -5.023577579570142E-1   -8.781780373185757E-2
 6.501607423200000E9    -4.550833412622809E-1   -2.619331733554465E-1   -1.462098057690530E-2    4.218049907888204E-2   -1.237886221033141E-2    4.213455699238980E-2   -5.024127663217850E-1   -8.644297243045770E-2
 6.501619667800000E9    -4.555564007079562E-1   -2.610241999944826E-1   -1.462850794851942E-2    4.248484419830971E-2   -1.239790728336188E-2    4.233242815541995E-2   -5.026603595978166E-1   -8.504274318960237E-2
 6.501631912400000E9    -4.561648622959955E-1   -2.600142220452394E-1   -1.452208354346799E-2    4.296689396523212E-2   -1.236836551688822E-2    4.252252333200716E-2   -5.027484708494327E-1   -8.369789536544543E-2
 6.501644157000000E9    -4.565407490090866E-1   -2.590397077377499E-1   -1.450730750578052E-2    4.314186588754450E-2   -1.229170575212383E-2    4.296116550432760E-2   -5.028233542484850E-1   -8.227615020228320E-2
 6.501656401600000E9    -4.570001986665235E-1   -2.581719925904010E-1   -1.438270284608749E-2    4.356771741985931E-2   -1.226737983773391E-2    4.324522714696763E-2   -5.028991615031685E-1   -8.090005951807237E-2
 6.501668646200000E9    -4.574811257939767E-1   -2.571088008829522E-1   -1.444773671000405E-2    4.393565934385275E-2   -1.223295342679342E-2    4.357546267348299E-2   -5.030355880400104E-1   -7.939828523557516E-2
 6.501680890800000E9    -4.580847063003650E-1   -2.562513839322435E-1   -1.453676681190192E-2    4.419501367299410E-2   -1.215960617838009E-2    4.385599819520646E-2   -5.031590134015059E-1   -7.788489937676492E-2
 6.501693135400000E9    -4.586621809185668E-1   -2.552871788462122E-1   -1.445936933267627E-2    4.448104254700350E-2   -1.216819857789603E-2    4.427258518074251E-2   -5.033029749174182E-1   -7.641328698199479E-2
 6.501705380000000E9    -4.589725933106669E-1   -2.541841688603846E-1   -1.434859934677279E-2    4.486577599647932E-2   -1.219105769945247E-2    4.453834971630099E-2   -5.034802795313832E-1   -7.512521600976378E-2
 6.501717624600000E9    -4.594600785667711E-1   -2.532616022442440E-1   -1.447659187248275E-2    4.513890861048385E-2   -1.210164336394226E-2    4.496845141571629E-2   -5.035482056927295E-1   -7.362412239781863E-2
 6.501729869200000E9    -4.600192603409565E-1   -2.523195067677964E-1   -1.430014877843708E-2    4.565101510677742E-2   -1.205590600067889E-2    4.523856111093878E-2   -5.035343887681643E-1   -7.210089270974111E-2
 6.501742113800000E9    -4.604690166297032E-1   -2.513588117080510E-1   -1.441389005465371E-2    4.589434119785298E-2   -1.202380664539257E-2    4.562579620264207E-2   -5.036023447658526E-1   -7.061924913159220E-2
 6.501754358400000E9    -4.608373614485630E-1   -2.503914906590546E-1   -1.421283727513236E-2    4.621575248222899E-2   -1.197648355817517E-2    4.593753969185424E-2   -5.037044180058923E-1   -6.913994049521786E-2
 6.501766603000000E9    -4.614268397989284E-1   -2.493550709589755E-1   -1.437958213505339E-2    4.656075205959666E-2   -1.204024108154101E-2    4.625746114056440E-2   -5.039089638094751E-1   -6.757295573890368E-2
 6.501778847600000E9    -4.618504597200254E-1   -2.484511518874706E-1   -1.426641460287144E-2    4.700429204265068E-2   -1.192212174289151E-2    4.659204897995638E-2   -5.037891407793051E-1   -6.624410906082785E-2
 6.501791092200000E9    -4.624523874661621E-1   -2.473482508334469E-1   -1.425470008870904E-2    4.735118428703344E-2   -1.180541152115027E-2    4.692079073782941E-2   -5.039616280619760E-1   -6.468849852564824E-2
 6.501803336800000E9    -4.628623731699328E-1   -2.464062764412185E-1   -1.423390826714242E-2    4.771193750189185E-2   -1.180068183432553E-2    4.730261098288819E-2   -5.039076486664195E-1   -6.311592420032912E-2
 6.501815581400000E9    -4.632499094915264E-1   -2.454146056966072E-1   -1.409249571887095E-2    4.821439485157352E-2   -1.183151118763120E-2    4.763470667643373E-2   -5.041355979877601E-1   -6.166877348693822E-2
 6.501827826000000E9    -4.638640073601047E-1   -2.443600113164467E-1   -1.419208008027967E-2    4.845341107597038E-2   -1.168961918270588E-2    4.797767781501292E-2   -5.040535699156304E-1   -6.012751649837948E-2
 6.501840070600000E9    -4.642011271270278E-1   -2.433706714688364E-1   -1.408057538910517E-2    4.900802753460901E-2   -1.167365886852637E-2    4.833811857756638E-2   -5.040817947102000E-1   -5.850930756388983E-2
 6.501852315200000E9    -4.646906917151752E-1   -2.423739948695514E-1   -1.402582859073772E-2    4.925662856635326E-2   -1.150869626210960E-2    4.875247758012135E-2   -5.042248842569339E-1   -5.702757691662905E-2
 6.501864559800000E9    -4.652006696276126E-1   -2.413140510143474E-1   -1.382264572291004E-2    4.976846242367938E-2   -1.153704530433930E-2    4.918746414043199E-2   -5.043843738114666E-1   -5.550399767550834E-2
 6.501876804400000E9    -4.656127772888264E-1   -2.403932164587881E-1   -1.405595028722773E-2    5.016124814729950E-2   -1.145170893030079E-2    4.961463026559562E-2   -5.043229674724555E-1   -5.405675425363764E-2
 6.501889049000000E9    -4.660024849803826E-1   -2.391949006071239E-1   -1.396222892799087E-2    5.036151318841662E-2   -1.149002346089125E-2    5.000557213138586E-2   -5.042550261341111E-1   -5.251035635715111E-2
 6.501901293600000E9    -4.665191736406233E-1   -2.382525844202292E-1   -1.398597344290915E-2    5.106025274118182E-2   -1.146808314065608E-2    5.042643227340431E-2   -5.042792871456366E-1   -5.087312578915520E-2
 6.501913538200000E9    -4.669711012581664E-1   -2.373566017074105E-1   -1.392681142810121E-2    5.125026056258540E-2   -1.133293548760706E-2    5.082644476416476E-2   -5.041778241598688E-1   -4.925101324775630E-2
 6.501925782800000E9    -4.674317779377253E-1   -2.362482452474728E-1   -1.369990969777754E-2    5.169542434484011E-2   -1.127935727087250E-2    5.124586907509009E-2   -5.044065384331455E-1   -4.760968641288674E-2
 6.501938027400000E9    -4.679220833172082E-1   -2.352730335619984E-1   -1.370722374471092E-2    5.215965484484660E-2   -1.124901357558059E-2    5.157899714555213E-2   -5.043280336148209E-1   -4.601053798515714E-2
 6.501950272000000E9    -4.684034558813055E-1   -2.342096918996749E-1   -1.379261973802337E-2    5.267414466176812E-2   -1.118663348871011E-2    5.212095485274645E-2   -5.044201108446172E-1   -4.438585931131768E-2
 6.501962516600000E9    -4.687567406285176E-1   -2.331136423073369E-1   -1.366201020816498E-2    5.311692562902882E-2   -1.110091178137958E-2    5.251417055666482E-2   -5.043263565990321E-1   -4.269685370226159E-2
 6.501974761200000E9    -4.692389682855440E-1   -2.319918351600506E-1   -1.359470338989263E-2    5.350905334755972E-2   -1.097408251767906E-2    5.295259166223387E-2   -5.041441232915013E-1   -4.102831833740663E-2
 6.501987005800000E9    -4.696118155894533E-1   -2.309823808680649E-1   -1.353092360925649E-2    5.405624807311096E-2   -1.086867597112364E-2    5.344234386667854E-2   -5.042159497644588E-1   -3.947934689048610E-2
 6.501999250400000E9    -4.701086034545959E-1   -2.298724191325749E-1   -1.351923266102012E-2    5.434798959436826E-2   -1.079106288251778E-2    5.382032551822762E-2   -5.044411086344637E-1   -3.766075746647987E-2
 6.502011495000000E9    -4.705315194988327E-1   -2.288848470835622E-1   -1.339753388104315E-2    5.490660601510439E-2   -1.069009674227646E-2    5.442285923987907E-2   -5.040487481458376E-1   -3.598138433833112E-2
 6.502023739600000E9    -4.710329074780815E-1   -2.277509577032203E-1   -1.335863933808193E-2    5.554307701904877E-2   -1.067715083263950E-2    5.485234469249865E-2   -5.040781240687341E-1   -3.433230351599651E-2
 6.502035984200000E9    -4.714275895822959E-1   -2.267626383202597E-1   -1.322991846720360E-2    5.600380102200483E-2   -1.052984739654636E-2    5.527196856218927E-2   -5.040054383315895E-1   -3.264699689954966E-2
 6.502048228800000E9    -4.718323300765472E-1   -2.255714699694701E-1   -1.326612177092506E-2    5.660528252054906E-2   -1.047794484036746E-2    5.579271653421801E-2   -5.039100887673034E-1   -3.089703517891286E-2
 6.502060473400000E9    -4.723762301245940E-1   -2.245009221392566E-1   -1.320318810362410E-2    5.695630886767783E-2   -1.035705459099437E-2    5.632176100929584E-2   -5.038007811573362E-1   -2.920124146168125E-2
 6.502072718000000E9    -4.727673729036900E-1   -2.234027716775131E-1   -1.314604953550178E-2    5.750600304553999E-2   -1.030015116025570E-2    5.681562481031732E-2   -5.038058628140855E-1   -2.738134573349543E-2
 6.502084962600000E9    -4.731398394289311E-1   -2.223113181187375E-1   -1.289604357658544E-2    5.823617899771515E-2   -1.028402287485282E-2    5.731840866456646E-2   -5.037555866505347E-1   -2.571498569211894E-2
 6.502097207200000E9    -4.735811755947311E-1   -2.213758995462862E-1   -1.299177245000647E-2    5.861320021224300E-2   -1.023456943749764E-2    5.774872335144189E-2   -5.035315101232152E-1   -2.370096865755606E-2
 6.502109451800000E9    -4.739912193334235E-1   -2.201299171243931E-1   -1.276779949405418E-2    5.906761871832650E-2   -1.002944186781951E-2    5.831529443850528E-2   -5.036066184612239E-1   -2.204094511337159E-2
 6.502121696400000E9    -4.744571105569780E-1   -2.191357267122557E-1   -1.266087996426871E-2    5.973674332631464E-2   -9.951082480308291E-3    5.884043150396128E-2   -5.033686268306442E-1   -2.029566444636915E-2
 6.502133941000000E9    -4.747537104520976E-1   -2.180115365793980E-1   -1.274027577480366E-2    6.019268124246741E-2   -9.774655544579052E-3    5.934929478590773E-2   -5.030978993322032E-1   -1.840798911187976E-2
