#  HZ   S   RI   R     50.00 
! Rohde & Schwarz Vector Network Analyzer 
! Rohde-Schwarz,ZNB20-2Port,1311601062101988,3.16
! Created: UTC 3/20/2024, 11:42:36 AM
! freq[Hz]                re:S11                  im:S11                  re:S21                  im:S21                  re:S12                  im:S12                  re:S22                  im:S22
 6.501013518000000E9    -4.291451997914684E-1   -3.050622780183898E-1   -1.487521484361457E-2    3.088998687237219E-2   -1.321406785120897E-2    3.092439076187574E-2   -4.920291897931861E-1   -1.477504229653811E-1
 6.501025832425000E9    -4.297304772521807E-1   -3.041577531339233E-1   -1.489064239623794E-2    3.119275197462393E-2   -1.320754525849471E-2    3.112508687318777E-2   -4.924191932124745E-1   -1.465325692824641E-1
 6.501038146850000E9    -4.303165053113667E-1   -3.033938669526478E-1   -1.480354543290427E-2    3.129055528814901E-2   -1.312160355605105E-2    3.128364697164500E-2   -4.926838324058617E-1   -1.451939432541685E-1
 6.501050461275000E9    -4.309077666813058E-1   -3.025190709299107E-1   -1.479517384557019E-2    3.146192386090546E-2   -1.305081512338303E-2    3.145105581514172E-2   -4.927943168029333E-1   -1.442011464726532E-1
 6.501062775700000E9    -4.313715997219910E-1   -3.015935229020913E-1   -1.473841609191396E-2    3.169113971897468E-2   -1.310874790352029E-2    3.162527688207385E-2   -4.930968670530408E-1   -1.429941622881231E-1
 6.501075090125000E9    -4.320343280023408E-1   -3.007223966389924E-1   -1.484656388407606E-2    3.176736784655421E-2   -1.304610215050145E-2    3.185566693217795E-2   -4.934386208006313E-1   -1.418751305079424E-1
 6.501087404550000E9    -4.325579987088050E-1   -2.999136329705469E-1   -1.482022590092206E-2    3.201287695758632E-2   -1.302969680347743E-2    3.204161032533531E-2   -4.937566610394078E-1   -1.406356673575759E-1
 6.501099718975000E9    -4.331567544719395E-1   -2.990988290819169E-1   -1.484058737004531E-2    3.224518446890404E-2   -1.303043758531156E-2    3.227672145295855E-2   -4.940002387814938E-1   -1.394446439605777E-1
 6.501112033400000E9    -4.337180519980978E-1   -2.983361839674346E-1   -1.483367905739607E-2    3.231592591686109E-2   -1.306152142136013E-2    3.243302087162394E-2   -4.942314674635900E-1   -1.381855842510469E-1
 6.501124347825000E9    -4.342436556105299E-1   -2.973694213504565E-1   -1.486684324115127E-2    3.256596037612586E-2   -1.302152579821469E-2    3.261095109721255E-2   -4.944955815528417E-1   -1.370368471109903E-1
 6.501136662250000E9    -4.349034292309144E-1   -2.965740963806332E-1   -1.482582671893922E-2    3.284590723319506E-2   -1.305893640690224E-2    3.273839201635798E-2   -4.945944669141646E-1   -1.358339641935389E-1
 6.501148976675000E9    -4.353055519897472E-1   -2.956861275668772E-1   -1.482150049502345E-2    3.288638325446020E-2   -1.301020045161786E-2    3.299399180530020E-2   -4.949389247271062E-1   -1.345628628462384E-1
 6.501161291100000E9    -4.359672534317406E-1   -2.947609008619813E-1   -1.485021450578893E-2    3.321700978391769E-2   -1.307171498640684E-2    3.322416622460607E-2   -4.952693801571250E-1   -1.333905556539904E-1
 6.501173605525000E9    -4.365032857455248E-1   -2.939870017518780E-1   -1.495894970648281E-2    3.341413183311449E-2   -1.304609586521402E-2    3.349124700963883E-2   -4.955367402312039E-1   -1.321978384630751E-1
 6.501185919950000E9    -4.369666702179231E-1   -2.929466620006807E-1   -1.496650335078103E-2    3.369920214539269E-2   -1.294811986200908E-2    3.362652499164214E-2   -4.957408523127553E-1   -1.309148335517304E-1
 6.501198234375000E9    -4.375310911103604E-1   -2.920354521752607E-1   -1.482848776276135E-2    3.374024959284462E-2   -1.302760320035919E-2    3.376348506008194E-2   -4.961584175531051E-1   -1.298352197639753E-1
 6.501210548800000E9    -4.380925634122221E-1   -2.913862842263608E-1   -1.498620575637643E-2    3.394229790098296E-2   -1.298442119789200E-2    3.404980379485488E-2   -4.963187276679811E-1   -1.284643904181593E-1
 6.501222863225000E9    -4.386168178137777E-1   -2.904074871889677E-1   -1.480059217861680E-2    3.428078267612476E-2   -1.300828245734698E-2    3.427186436103165E-2   -4.964149005097838E-1   -1.271633971567986E-1
 6.501235177650000E9    -4.393085326796828E-1   -2.894488772958463E-1   -1.489948261719218E-2    3.451296086475968E-2   -1.290505498912339E-2    3.439055844149070E-2   -4.966343148532724E-1   -1.260359628510604E-1
 6.501247492075000E9    -4.397388409247778E-1   -2.886741425550723E-1   -1.487530990049921E-2    3.473466614245846E-2   -1.304367599299118E-2    3.467753977971314E-2   -4.968644797014417E-1   -1.247294830602394E-1
 6.501259806500000E9    -4.403001343978215E-1   -2.878155357754230E-1   -1.475282639367179E-2    3.490513370336362E-2   -1.296155020041042E-2    3.488515249989237E-2   -4.972429275011426E-1   -1.235569787351731E-1
 6.501272120925000E9    -4.408334037920268E-1   -2.868329041353610E-1   -1.484453997626910E-2    3.524738439125245E-2   -1.287644137017822E-2    3.502795996747234E-2   -4.973619346772368E-1   -1.223622518462046E-1
 6.501284435350000E9    -4.413910643403041E-1   -2.860533728731436E-1   -1.484097420028024E-2    3.537699010007033E-2   -1.293619052622666E-2    3.536275253861611E-2   -4.975716676109389E-1   -1.210925459899288E-1
 6.501296749775000E9    -4.419079251602829E-1   -2.851074722690491E-1   -1.470077700831069E-2    3.570005711564370E-2   -1.294202517869341E-2    3.559116115960285E-2   -4.978678456607434E-1   -1.198575543837900E-1
 6.501309064200000E9    -4.424535471804902E-1   -2.840942099288332E-1   -1.465883853895133E-2    3.595549439551535E-2   -1.296729323829132E-2    3.575070886473900E-2   -4.981525016346947E-1   -1.185368240596312E-1
 6.501321378625000E9    -4.430435510786958E-1   -2.833173397590016E-1   -1.485335240420371E-2    3.598751722929344E-2   -1.291798961077412E-2    3.598758270495368E-2   -4.983230377172498E-1   -1.171784689357079E-1
 6.501333693050000E9    -4.435231673283845E-1   -2.824141501478776E-1   -1.470086432322585E-2    3.626630621030851E-2   -1.289054036014344E-2    3.621228031801200E-2   -4.984486872387737E-1   -1.159317102837764E-1
 6.501346007475000E9    -4.440053522266695E-1   -2.815131292148492E-1   -1.480255734876450E-2    3.650555130701691E-2   -1.294108048607810E-2    3.651009645965678E-2   -4.986892679232007E-1   -1.146700259624963E-1
 6.501358321900000E9    -4.446433603599334E-1   -2.806125988412436E-1   -1.477398703213081E-2    3.682572895505481E-2   -1.291983811553726E-2    3.669179447703536E-2   -4.989059003930308E-1   -1.134541300093329E-1
 6.501370636325000E9    -4.449972869958838E-1   -2.795594601449518E-1   -1.491067468057893E-2    3.699499995681663E-2   -1.276702381345720E-2    3.697214473548119E-2   -4.990722335949199E-1   -1.121441397528988E-1
 6.501382950750000E9    -4.455534146941406E-1   -2.788618288950258E-1   -1.473790222267814E-2    3.725030458999480E-2   -1.287553116442891E-2    3.711825179826534E-2   -4.992702862828969E-1   -1.107436473244102E-1
 6.501395265175000E9    -4.462654385338995E-1   -2.779404948189149E-1   -1.487035467086700E-2    3.753204828900152E-2   -1.277233777821980E-2    3.748080194002439E-2   -4.995719164081792E-1   -1.094767396800254E-1
 6.501407579600000E9    -4.466787040359526E-1   -2.769841445803758E-1   -1.478377864732593E-2    3.790289886806207E-2   -1.278414801204734E-2    3.765718620557422E-2   -4.997317720242845E-1   -1.081210245173941E-1
 6.501419894025000E9    -4.471688834094977E-1   -2.760466452173738E-1   -1.482279273458053E-2    3.821162853292261E-2   -1.270243138836098E-2    3.801792005101019E-2   -4.999227190343314E-1   -1.069372258432205E-1
 6.501432208450000E9    -4.478010821587344E-1   -2.751389772957126E-1   -1.474732316554125E-2    3.832224005548608E-2   -1.269155372418133E-2    3.815242340310454E-2   -5.000968297634907E-1   -1.056379598305654E-1
 6.501444522875000E9    -4.483244091619902E-1   -2.742684356091147E-1   -1.477661062441589E-2    3.862933382373978E-2   -1.275735614861275E-2    3.856985132815919E-2   -5.002495401454680E-1   -1.043418053897664E-1
 6.501456837300000E9    -4.487518450356501E-1   -2.733011075626167E-1   -1.479864713616195E-2    3.883716448111663E-2   -1.267787936125632E-2    3.870444921232519E-2   -5.004722446596551E-1   -1.029112665804695E-1
 6.501469151725000E9    -4.492470982709465E-1   -2.724023391939899E-1   -1.473612252026526E-2    3.902440956638194E-2   -1.269221729241026E-2    3.891785573267850E-2   -5.006194189771047E-1   -1.015756873798528E-1
 6.501481466150000E9    -4.497420633136672E-1   -2.715068400180570E-1   -1.471910141814293E-2    3.940888660635677E-2   -1.256711792550473E-2    3.927009247755274E-2   -5.008346816108106E-1   -1.003575826989652E-1
 6.501493780575000E9    -4.503174547520185E-1   -2.706500741116985E-1   -1.471979165433336E-2    3.965429862978617E-2   -1.266957001001433E-2    3.950093175268831E-2   -5.009791986578199E-1   -9.890159008507966E-2
 6.501506095000000E9    -4.508194582234201E-1   -2.697188794624675E-1   -1.462821784063520E-2    4.005285126303916E-2   -1.268623451906717E-2    3.978644846835169E-2   -5.011430773727054E-1   -9.753937631706149E-2
 6.501518409425000E9    -4.514010120163821E-1   -2.687318617774870E-1   -1.474193884035194E-2    4.033613352963215E-2   -1.260546446246506E-2    4.004648581969802E-2   -5.013095696545000E-1   -9.638054475071142E-2
 6.501530723850000E9    -4.518353341219714E-1   -2.677235281317993E-1   -1.467608908274616E-2    4.043765049065299E-2   -1.253438845826379E-2    4.035876918059198E-2   -5.014015798875947E-1   -9.495298865345854E-2
 6.501543038275000E9    -4.524108538400530E-1   -2.669217215632714E-1   -1.470720136262540E-2    4.083928527357531E-2   -1.252802913544577E-2    4.059510079359840E-2   -5.016924742669711E-1   -9.369237991036572E-2
 6.501555352700000E9    -4.529154878320222E-1   -2.658626660716606E-1   -1.473410943895451E-2    4.108697220617150E-2   -1.249579153332510E-2    4.090449068928115E-2   -5.017857333185035E-1   -9.211347096289341E-2
 6.501567667125000E9    -4.533351898549520E-1   -2.649407550731213E-1   -1.464423033011043E-2    4.145298407790969E-2   -1.248631094142968E-2    4.115400160846638E-2   -5.019531652154584E-1   -9.073577913599092E-2
 6.501579981550000E9    -4.538798674349566E-1   -2.639471873757263E-1   -1.474517984135408E-2    4.170449056750102E-2   -1.246385164587195E-2    4.147330236533826E-2   -5.021760188784050E-1   -8.934053883700621E-2
 6.501592295975000E9    -4.544625553203558E-1   -2.630995910515976E-1   -1.460155048198844E-2    4.204220827967830E-2   -1.240260156320269E-2    4.174028044880845E-2   -5.021847544327137E-1   -8.794840854272928E-2
 6.501604610400000E9    -4.548966444295083E-1   -2.621282335629675E-1   -1.465761855662570E-2    4.238240564752060E-2   -1.234400085125830E-2    4.204587688131386E-2   -5.024297304127798E-1   -8.665886780270067E-2
 6.501616924825000E9    -4.554914776565163E-1   -2.611489917797643E-1   -1.449079062776102E-2    4.257942143639067E-2   -1.234493888211969E-2    4.234247406372394E-2   -5.024482500790312E-1   -8.520132913542820E-2
 6.501629239250000E9    -4.559860859298215E-1   -2.602155309768505E-1   -1.451900196824162E-2    4.301349234332024E-2   -1.243175712965520E-2    4.268956153909127E-2   -5.025912661047369E-1   -8.378986209117463E-2
 6.501641553675000E9    -4.564874523344006E-1   -2.592449385331621E-1   -1.457393389595430E-2    4.328682813665964E-2   -1.229763278686667E-2    4.288079020511668E-2   -5.026542838227374E-1   -8.237548047140157E-2
 6.501653868100000E9    -4.569588969114162E-1   -2.582738719304758E-1   -1.449611359006863E-2    4.358879059180954E-2   -1.226383474360423E-2    4.326110259902932E-2   -5.027741103775295E-1   -8.104638036053192E-2
 6.501666182525000E9    -4.574580476902057E-1   -2.573126829086916E-1   -1.456600884425440E-2    4.389419194570087E-2   -1.227794420217715E-2    4.356802892825178E-2   -5.029579384010920E-1   -7.955850296387983E-2
 6.501678496950000E9    -4.578703052929460E-1   -2.563357747506559E-1   -1.445861026673061E-2    4.425706562282537E-2   -1.222869807280364E-2    4.387737152702637E-2   -5.030785993827986E-1   -7.809387477153568E-2
 6.501690811375000E9    -4.585006075379467E-1   -2.553465405690099E-1   -1.441799563104566E-2    4.458418470200329E-2   -1.208216123580838E-2    4.420930709528453E-2   -5.033352895487441E-1   -7.669264500536392E-2
 6.501703125800000E9    -4.589547064240875E-1   -2.543752361891312E-1   -1.456044642973164E-2    4.486584443378879E-2   -1.216356541189334E-2    4.456807744408375E-2   -5.033264202375018E-1   -7.515771206588673E-2
 6.501715440225000E9    -4.594489427338944E-1   -2.534199096262643E-1   -1.436471437312474E-2    4.544381049475096E-2   -1.215365050829987E-2    4.488912660730741E-2   -5.034662997729670E-1   -7.379796938256326E-2
 6.501727754650000E9    -4.597870255018972E-1   -2.524819889267052E-1   -1.441009466069427E-2    4.565150067609438E-2   -1.201011009502944E-2    4.531088018870517E-2   -5.035053134740234E-1   -7.229088546588573E-2
 6.501740069075000E9    -4.604040147504911E-1   -2.514056618233133E-1   -1.438668973822287E-2    4.591977878184121E-2   -1.198322225934406E-2    4.558842947089227E-2   -5.035650159377595E-1   -7.090841008660112E-2
 6.501752383500000E9    -4.608278874974523E-1   -2.504513033453643E-1   -1.427710838815432E-2    4.636691128689420E-2   -1.195039417864034E-2    4.599073161374538E-2   -5.035586563944975E-1   -6.932898422978467E-2
 6.501764697925000E9    -4.613956805088038E-1   -2.494608002718305E-1   -1.435993503018924E-2    4.680353316070764E-2   -1.194512308737163E-2    4.629395056468100E-2   -5.037306704582275E-1   -6.763469246618209E-2
 6.501777012350000E9    -4.618807732202778E-1   -2.483898488123066E-1   -1.426007576807198E-2    4.692376686263437E-2   -1.188198230351540E-2    4.662498772799522E-2   -5.037787920917726E-1   -6.630054572244609E-2
 6.501789326775000E9    -4.623153384576522E-1   -2.474283701606045E-1   -1.428530740548467E-2    4.740110407046490E-2   -1.181301407106467E-2    4.705214470366328E-2   -5.038415402713161E-1   -6.475389644469932E-2
 6.501801641200000E9    -4.628078711424822E-1   -2.464278109301676E-1   -1.418152806053411E-2    4.781866276062911E-2   -1.183765414115491E-2    4.738678159634715E-2   -5.039186643066341E-1   -6.332164047379764E-2
 6.501813955625000E9    -4.632616925005428E-1   -2.454742222430905E-1   -1.422704019093826E-2    4.823719531975347E-2   -1.168708518640586E-2    4.777844915126445E-2   -5.038078580923950E-1   -6.175381081261944E-2
 6.501826270050000E9    -4.636912941737248E-1   -2.444688534976851E-1   -1.415167914260521E-2    4.849251260398715E-2   -1.167711349415851E-2    4.808425548516968E-2   -5.040446073069025E-1   -6.026766609064480E-2
 6.501838584475000E9    -4.642390318304346E-1   -2.434322428892608E-1   -1.416001551012713E-2    4.896887792028762E-2   -1.168407079258108E-2    4.853165067599909E-2   -5.040373039659714E-1   -5.879614403152673E-2
 6.501850898900000E9    -4.646528550403899E-1   -2.424509247133146E-1   -1.409233091391375E-2    4.928483025421300E-2   -1.162704666930248E-2    4.883915181995951E-2   -5.041805139713520E-1   -5.709571481784285E-2
 6.501863213325000E9    -4.650281880809772E-1   -2.413085278339231E-1   -1.404948923311013E-2    4.976328108509639E-2   -1.161076392861420E-2    4.936564715669343E-2   -5.042098125877016E-1   -5.551546403889448E-2
 6.501875527750000E9    -4.656285157088445E-1   -2.403703425872300E-1   -1.387364120030167E-2    5.029025367093719E-2   -1.150089372867320E-2    4.966344800971436E-2   -5.041434174356745E-1   -5.395876428221905E-2
 6.501887842175000E9    -4.659762032419446E-1   -2.393378591668085E-1   -1.408368021053067E-2    5.065674612088555E-2   -1.141738350362755E-2    5.011667919711468E-2   -5.043605232309167E-1   -5.233341468637676E-2
 6.501900156600000E9    -4.664833772491742E-1   -2.383602564978075E-1   -1.395674279077116E-2    5.103406548118958E-2   -1.144709235718817E-2    5.041760980019191E-2   -5.042788423941212E-1   -5.067161107448442E-2
 6.501912471025000E9    -4.669165212774606E-1   -2.372477796412822E-1   -1.393795368755282E-2    5.143521131856700E-2   -1.128435941521636E-2    5.099005167956451E-2   -5.042373822735500E-1   -4.928803592008850E-2
 6.501924785450000E9    -4.674338439762546E-1   -2.362312765035783E-1   -1.374692229425644E-2    5.201128571576651E-2   -1.123607823369122E-2    5.134360252778495E-2   -5.043473708169787E-1   -4.756305087250580E-2
 6.501937099875000E9    -4.678505417938526E-1   -2.352034014816669E-1   -1.382006541463015E-2    5.243789718691438E-2   -1.128068505650499E-2    5.181202526684638E-2   -5.042351777375902E-1   -4.588192936972773E-2
 6.501949414300000E9    -4.684197257961344E-1   -2.341681060643913E-1   -1.380168015669797E-2    5.272967522910715E-2   -1.112540204953348E-2    5.215680295607370E-2   -5.042178693041280E-1   -4.435658122323232E-2
 6.501961728725000E9    -4.687534310053259E-1   -2.331377471728735E-1   -1.360051252963764E-2    5.327370221454265E-2   -1.106377447390168E-2    5.255717826438625E-2   -5.041079266542405E-1   -4.255822565464572E-2
 6.501974043150000E9    -4.693015511210947E-1   -2.320400668218163E-1   -1.360449711827125E-2    5.378808327245574E-2   -1.093646145315825E-2    5.311612963001790E-2   -5.041489037133322E-1   -4.098272356206679E-2
 6.501986357575000E9    -4.697162777960944E-1   -2.309821196889342E-1   -1.346271935346317E-2    5.413593163429135E-2   -1.094011159342776E-2    5.351140852938260E-2   -5.040296524829150E-1   -3.949002765331135E-2
 6.501998672000000E9    -4.700432652915662E-1   -2.298141494008065E-1   -1.343730500749591E-2    5.455161850838669E-2   -1.089447108921245E-2    5.394866223465208E-2   -5.042013691253905E-1   -3.764222380649245E-2
 6.502010986425000E9    -4.705603357224080E-1   -2.287847486179935E-1   -1.339234928078716E-2    5.523470156959490E-2   -1.068031205472879E-2    5.443278716388669E-2   -5.040768969212883E-1   -3.596184793594958E-2
 6.502023300850000E9    -4.709431853893176E-1   -2.276914243805119E-1   -1.340864432823379E-2    5.566885803875705E-2   -1.070735102634548E-2    5.498828209353079E-2   -5.039752203697047E-1   -3.414450242492539E-2
 6.502035615275000E9    -4.714364567655485E-1   -2.266539908166991E-1   -1.328710893595633E-2    5.622149810807683E-2   -1.055532866293758E-2    5.543233286967875E-2   -5.040330441084777E-1   -3.244956540066050E-2
 6.502047929700000E9    -4.717883218172982E-1   -2.255558352517529E-1   -1.303676179032016E-2    5.673139096350365E-2   -1.044071474061307E-2    5.599002515234480E-2   -5.037720022970181E-1   -3.069265055023895E-2
 6.502060244125000E9    -4.722947641929857E-1   -2.244655297643216E-1   -1.313205196344697E-2    5.720066992774946E-2   -1.039543479445007E-2    5.640753957026465E-2   -5.037924403832978E-1   -2.895679824907708E-2
 6.502072558550000E9    -4.725927791853162E-1   -2.233689150713193E-1   -1.304403785913198E-2    5.775663968341666E-2   -1.027167200291053E-2    5.695798404486723E-2   -5.036797459328348E-1   -2.730361377762488E-2
 6.502084872975000E9    -4.731871677810240E-1   -2.222988966588464E-1   -1.313660756109931E-2    5.819172304689597E-2   -1.024199061270727E-2    5.746973770730134E-2   -5.034979494015648E-1   -2.536909197833713E-2
 6.502097187400000E9    -4.735443548015428E-1   -2.211024169322388E-1   -1.278859519036144E-2    5.882169098092718E-2   -1.010904245803585E-2    5.800269883975283E-2   -5.035209858725010E-1   -2.366352256756539E-2
 6.502109501825000E9    -4.739800156485287E-1   -2.199678879286003E-1   -1.262478845951621E-2    5.927620499101072E-2   -1.002824242704916E-2    5.850569917651798E-2   -5.032469073126917E-1   -2.198183146276658E-2
 6.502121816250000E9    -4.743436461023921E-1   -2.188613409766270E-1   -1.264113218687669E-2    5.997134294005860E-2   -9.854720822105074E-3    5.899885537793701E-2   -5.032470918476315E-1   -1.992080187101260E-2
