#  HZ   S   RI   R     50.00 
! Rohde & Schwarz Vector Network Analyzer 
! Rohde-Schwarz,ZNB20-2Port,1311601062101988,3.16
! Created: UTC 3/20/2024, 11:42:58 AM
! freq[Hz]                re:S11                  im:S11                  re:S21                  im:S21                  re:S12                  im:S12                  re:S22                  im:S22
 6.501004596000000E9    -4.286273507875397E-1   -3.056315168634918E-1   -1.485128927828484E-2    3.059934400716886E-2   -1.310599468074655E-2    3.083786077689000E-2   -4.915947642717765E-1   -1.485433596931954E-1
 6.501016938600000E9    -4.292642330579247E-1   -3.047376203148202E-1   -1.493085563061120E-2    3.091876864832425E-2   -1.306261568138829E-2    3.110781906011531E-2   -4.919957394232324E-1   -1.474278908229886E-1
 6.501029281200000E9    -4.299086801765673E-1   -3.039953279665378E-1   -1.488205794436952E-2    3.104963659751555E-2   -1.308003489364523E-2    3.121522613964810E-2   -4.922317620777235E-1   -1.462233758074555E-1
 6.501041623800000E9    -4.304424770410157E-1   -3.030381891721300E-1   -1.482173932335237E-2    3.137617527773773E-2   -1.309531860280679E-2    3.143007670205919E-2   -4.925632011039811E-1   -1.451485966144289E-1
 6.501053966400000E9    -4.309636735255339E-1   -3.022907097841556E-1   -1.469731843337817E-2    3.152391119853751E-2   -1.317382215380667E-2    3.148438312881523E-2   -4.928051431534903E-1   -1.439705455224001E-1
 6.501066309000000E9    -4.316430565548392E-1   -3.013716530752350E-1   -1.472494621917874E-2    3.179464554698462E-2   -1.311643739071343E-2    3.175679044218590E-2   -4.930835727648564E-1   -1.428037217556708E-1
 6.501078651600000E9    -4.321831059557404E-1   -3.004908259466194E-1   -1.477612264170086E-2    3.204654220432222E-2   -1.308168642855705E-2    3.191466936743811E-2   -4.933239200347138E-1   -1.415243096901919E-1
 6.501090994200000E9    -4.326968120920568E-1   -2.996324562253686E-1   -1.484297442737625E-2    3.208226550064653E-2   -1.306917837790342E-2    3.221582396622186E-2   -4.936412793566313E-1   -1.403244896452775E-1
 6.501103336800000E9    -4.331373652176236E-1   -2.988101719568955E-1   -1.489594316740707E-2    3.224999098109530E-2   -1.298512106918411E-2    3.228063771861094E-2   -4.938079236793878E-1   -1.390668444604068E-1
 6.501115679400000E9    -4.338383547565232E-1   -2.980843526563794E-1   -1.489157326092071E-2    3.262864788156837E-2   -1.309040031769653E-2    3.251551108225992E-2   -4.941575910289022E-1   -1.381103462599594E-1
 6.501128022000000E9    -4.343503272883903E-1   -2.971457875804539E-1   -1.476669179134451E-2    3.263381737506766E-2   -1.310234248355057E-2    3.265684853089661E-2   -4.943801988289859E-1   -1.366612006603188E-1
 6.501140364600000E9    -4.348422195398206E-1   -2.962076422584615E-1   -1.480717102321847E-2    3.284837850514046E-2   -1.301828216631510E-2    3.297522698550188E-2   -4.947641429682196E-1   -1.354643463155468E-1
 6.501152707200000E9    -4.355455552682333E-1   -2.952505366859459E-1   -1.486682559135689E-2    3.320838764241238E-2   -1.311515081023019E-2    3.315173964165459E-2   -4.948596604750662E-1   -1.344993607930399E-1
 6.501165049800000E9    -4.360774276534699E-1   -2.943978946711420E-1   -1.486794306340481E-2    3.329123093466445E-2   -1.309676334660470E-2    3.333493007459243E-2   -4.952029840801953E-1   -1.331724371034458E-1
 6.501177392400000E9    -4.366729309754813E-1   -2.935748379070557E-1   -1.498946527532323E-2    3.357134345596371E-2   -1.295259715761176E-2    3.350956984129645E-2   -4.954868872361163E-1   -1.317966721805077E-1
 6.501189735000000E9    -4.371833355795769E-1   -2.928083832758804E-1   -1.486396831533912E-2    3.367947986486946E-2   -1.307839252311549E-2    3.368698796897610E-2   -4.956702387219602E-1   -1.307782028414708E-1
 6.501202077600000E9    -4.377811691744922E-1   -2.918470250061105E-1   -1.490125094160063E-2    3.387278407004812E-2   -1.297545653628155E-2    3.396704001830771E-2   -4.959427675758936E-1   -1.294205630524577E-1
 6.501214420200000E9    -4.382978071410964E-1   -2.910081258324529E-1   -1.484893632762377E-2    3.416184657481204E-2   -1.298020964400177E-2    3.418689044384798E-2   -4.961097666183760E-1   -1.282261305413269E-1
 6.501226762800000E9    -4.388006976225838E-1   -2.901449639025593E-1   -1.489065158907273E-2    3.434118446222972E-2   -1.303407270784760E-2    3.433332659544999E-2   -4.964120788523673E-1   -1.268317008012614E-1
 6.501239105400000E9    -4.394150006786861E-1   -2.892845300569025E-1   -1.502003459509843E-2    3.452750071480026E-2   -1.291883407540633E-2    3.452051176965056E-2   -4.965816233675616E-1   -1.256579123051134E-1
 6.501251448000000E9    -4.399293894794434E-1   -2.883017584836461E-1   -1.486778177187348E-2    3.483343798257344E-2   -1.301925551087483E-2    3.481526254093534E-2   -4.969670246752692E-1   -1.244889568327026E-1
 6.501263790600000E9    -4.404680400812157E-1   -2.875206351978258E-1   -1.482386804706439E-2    3.506597441418725E-2   -1.293702866798921E-2    3.501063061844283E-2   -4.970689098640697E-1   -1.232197752513730E-1
 6.501276133200000E9    -4.409679147463218E-1   -2.865909737710806E-1   -1.479348484648591E-2    3.535221920346283E-2   -1.292861982795425E-2    3.523028725326367E-2   -4.973412756446033E-1   -1.219545575404034E-1
 6.501288475800000E9    -4.415098758771414E-1   -2.857435594969788E-1   -1.469827215446327E-2    3.554301086245881E-2   -1.294205891545657E-2    3.557140462661362E-2   -4.975863178026939E-1   -1.206679456389432E-1
 6.501300818400000E9    -4.419627849153413E-1   -2.848145447787049E-1   -1.488133876147765E-2    3.573748731725483E-2   -1.295160293900710E-2    3.565959751369718E-2   -4.979359184761005E-1   -1.193699828246296E-1
 6.501313161000000E9    -4.425386579845513E-1   -2.839825849012321E-1   -1.478288492070711E-2    3.598796385054388E-2   -1.287898598491003E-2    3.588005497501089E-2   -4.979806310697421E-1   -1.180913778580721E-1
 6.501325503600000E9    -4.431910780829355E-1   -2.830478926167294E-1   -1.495625275958886E-2    3.609101246499348E-2   -1.290606020600101E-2    3.617002956581240E-2   -4.982158827240196E-1   -1.168963292608255E-1
 6.501337846200000E9    -4.436884711916381E-1   -2.821183636003676E-1   -1.488574289236197E-2    3.654607218164437E-2   -1.277773022469444E-2    3.640104027735151E-2   -4.985450602407734E-1   -1.155617588189397E-1
 6.501350188800000E9    -4.441782528120190E-1   -2.813030130491015E-1   -1.493002497537318E-2    3.682958442561338E-2   -1.286682558042379E-2    3.655871664472250E-2   -4.985972922181738E-1   -1.144501805405372E-1
 6.501362531400000E9    -4.447705963331787E-1   -2.803165992634301E-1   -1.475726175940511E-2    3.689446791145187E-2   -1.290098213420488E-2    3.686215572403991E-2   -4.988566137293075E-1   -1.129681731198846E-1
 6.501374874000000E9    -4.452509451959244E-1   -2.793428374284015E-1   -1.485708233873830E-2    3.725372377363202E-2   -1.287667273596926E-2    3.710492883173041E-2   -4.990655600709970E-1   -1.117679748339591E-1
 6.501387216600000E9    -4.457098650242228E-1   -2.785969872998122E-1   -1.484832162395994E-2    3.751028611968929E-2   -1.284042610721076E-2    3.728222768561347E-2   -4.992898332071080E-1   -1.105033487095223E-1
 6.501399559200000E9    -4.462706200197836E-1   -2.775971172638499E-1   -1.481552196998053E-2    3.760744983656244E-2   -1.272680783618242E-2    3.753368068193048E-2   -4.993434216131984E-1   -1.091685390273180E-1
 6.501411901800000E9    -4.468242911506908E-1   -2.766693471356368E-1   -1.477453111216011E-2    3.805349758539643E-2   -1.271852357774879E-2    3.777171724161690E-2   -4.996452852876825E-1   -1.078304227235725E-1
 6.501424244400000E9    -4.474087468732212E-1   -2.758201375207496E-1   -1.473864669434484E-2    3.825460794032874E-2   -1.281729906740424E-2    3.810765644644083E-2   -4.997738301120226E-1   -1.065682388252729E-1
 6.501436587000000E9    -4.478833836110011E-1   -2.749482177417510E-1   -1.477335333551409E-2    3.846172309868687E-2   -1.266576491396748E-2    3.844571642101113E-2   -5.000402010219782E-1   -1.052443668179481E-1
 6.501448929600000E9    -4.483826037729897E-1   -2.738684958306992E-1   -1.466762567205795E-2    3.873225304648024E-2   -1.278935944594344E-2    3.858016849156908E-2   -5.002653704188033E-1   -1.039388255334167E-1
 6.501461272200000E9    -4.490489860511895E-1   -2.729406931700368E-1   -1.468094417603098E-2    3.911316155552273E-2   -1.271176369450207E-2    3.889330939652171E-2   -5.003934024225852E-1   -1.026031572205542E-1
 6.501473614800000E9    -4.495431958151245E-1   -2.720092441941211E-1   -1.486185513114049E-2    3.929208519453711E-2   -1.258710132333012E-2    3.912857171262373E-2   -5.004762610885144E-1   -1.013004017044445E-1
 6.501485957400000E9    -4.500313475163430E-1   -2.710760257392940E-1   -1.478027120180654E-2    3.953386134057487E-2   -1.260795620538639E-2    3.936585244540713E-2   -5.006680154119092E-1   -1.000378343948091E-1
 6.501498300000000E9    -4.504492417825804E-1   -2.701723624247340E-1   -1.477211299477963E-2    3.976106213607369E-2   -1.265854325846927E-2    3.972199086950068E-2   -5.008950688659892E-1   -9.850143208435626E-2
 6.501510642600000E9    -4.511115779705021E-1   -2.692430916111240E-1   -1.476556036476762E-2    4.019677610130547E-2   -1.258758362011612E-2    3.991934283528453E-2   -5.011466979222944E-1   -9.715597455691490E-2
 6.501522985200000E9    -4.515845494511088E-1   -2.684399300436894E-1   -1.464599391991374E-2    4.037830493324713E-2   -1.266574519763542E-2    4.023192967876623E-2   -5.011211082800572E-1   -9.587447020851571E-2
 6.501535327800000E9    -4.519956957020996E-1   -2.675192356203235E-1   -1.476196102714655E-2    4.062114767693557E-2   -1.251110253463968E-2    4.037810386309498E-2   -5.013784054126212E-1   -9.455167107369195E-2
 6.501547670400000E9    -4.526273805018525E-1   -2.664896802391579E-1   -1.462016708108901E-2    4.092411763150504E-2   -1.257998286776877E-2    4.080214062719657E-2   -5.014505946213272E-1   -9.312442048685078E-2
 6.501560013000000E9    -4.530461789059236E-1   -2.654852418411547E-1   -1.457594339615395E-2    4.128989165350615E-2   -1.236256293012056E-2    4.104444159994582E-2   -5.016398701186418E-1   -9.166736911764066E-2
 6.501572355600000E9    -4.536386135398008E-1   -2.645650081691037E-1   -1.470325014140992E-2    4.163993207751645E-2   -1.247999976581559E-2    4.142803929965472E-2   -5.018395116227661E-1   -9.040074915315759E-2
 6.501584698200000E9    -4.540629134504304E-1   -2.635878551058835E-1   -1.459562738805455E-2    4.191640242511091E-2   -1.252526452777657E-2    4.169309294096039E-2   -5.019360653884800E-1   -8.898511039723105E-2
 6.501597040800000E9    -4.545213138873013E-1   -2.627115275257568E-1   -1.471498482529267E-2    4.209480569269480E-2   -1.246328979804425E-2    4.205712181667545E-2   -5.021361155743264E-1   -8.746574490899486E-2
 6.501609383400000E9    -4.550649752453079E-1   -2.617554827164800E-1   -1.452070620443108E-2    4.246927720196921E-2   -1.241316300274922E-2    4.228196073028058E-2   -5.021727007294650E-1   -8.626466250629587E-2
 6.501621726000000E9    -4.557123563392150E-1   -2.607702874197542E-1   -1.458396384712134E-2    4.283508995388065E-2   -1.230397100079773E-2    4.260114024929865E-2   -5.023461828549795E-1   -8.478717378419204E-2
 6.501634068600000E9    -4.561573777304821E-1   -2.596578459752611E-1   -1.456444451662806E-2    4.313877622203459E-2   -1.234255012127955E-2    4.283792786577422E-2   -5.025775499276047E-1   -8.323578297866764E-2
 6.501646411200000E9    -4.565845848652619E-1   -2.588278746556667E-1   -1.453682149544918E-2    4.345391575413081E-2   -1.224291404268356E-2    4.311761711142949E-2   -5.025898066330775E-1   -8.192939030049641E-2
 6.501658753800000E9    -4.569691433484661E-1   -2.579305669934336E-1   -1.441878441752096E-2    4.374502218209246E-2   -1.235071607184724E-2    4.348378070785632E-2   -5.026952736123557E-1   -8.062345136850442E-2
 6.501671096400000E9    -4.575505103195586E-1   -2.568579222852615E-1   -1.463994739449636E-2    4.417271502800010E-2   -1.227222558257909E-2    4.375501797073637E-2   -5.027967774517913E-1   -7.900761806871341E-2
 6.501683439000000E9    -4.579869831165539E-1   -2.559587267247547E-1   -1.446681073110401E-2    4.442733064987248E-2   -1.227222208501776E-2    4.413322604053943E-2   -5.030232060646235E-1   -7.751181641888460E-2
 6.501695781600000E9    -4.586194024177611E-1   -2.549770034967193E-1   -1.444119298433380E-2    4.487073571264893E-2   -1.213288866186597E-2    4.447003225212265E-2   -5.030526683085718E-1   -7.610606682275013E-2
 6.501708124200000E9    -4.590881629132137E-1   -2.539588362634055E-1   -1.445325614862098E-2    4.516659738320167E-2   -1.218107182240705E-2    4.481242936313875E-2   -5.032172829541876E-1   -7.455717830006965E-2
 6.501720466800000E9    -4.595377610340849E-1   -2.530625576001161E-1   -1.451831977770861E-2    4.553435493490155E-2   -1.212135310802842E-2    4.506356708451646E-2   -5.032898737168694E-1   -7.321286590054388E-2
 6.501732809400000E9    -4.600326436826332E-1   -2.519830982785878E-1   -1.438383655681529E-2    4.576895386253630E-2   -1.210271624021206E-2    4.548748158360295E-2   -5.034129674773639E-1   -7.162858371035770E-2
 6.501745152000000E9    -4.605964051809591E-1   -2.509156551944693E-1   -1.437186882095027E-2    4.622842270794239E-2   -1.192450203573909E-2    4.581141397931503E-2   -5.035031309676435E-1   -7.039673577347418E-2
 6.501757494600000E9    -4.610566146649522E-1   -2.500639005113457E-1   -1.422269438737981E-2    4.653450119943923E-2   -1.195459289848320E-2    4.615324594800860E-2   -5.036012786685833E-1   -6.869959027985285E-2
 6.501769837200000E9    -4.614576241414833E-1   -2.489318173415633E-1   -1.416253912064831E-2    4.691498810052638E-2   -1.205172591529803E-2    4.658503670285458E-2   -5.035612752419745E-1   -6.726101834813825E-2
 6.501782179800000E9    -4.619007482904008E-1   -2.479580901749834E-1   -1.426130832587247E-2    4.732422183222399E-2   -1.183939319895740E-2    4.685271174176960E-2   -5.036712784391623E-1   -6.576059708157905E-2
 6.501794522400000E9    -4.624312228988819E-1   -2.470350370829925E-1   -1.431544349701335E-2    4.771146805776468E-2   -1.178842046222981E-2    4.723054432693562E-2   -5.036529577146871E-1   -6.422825836413457E-2
 6.501806865000000E9    -4.629981621583155E-1   -2.461571089497857E-1   -1.427889995742937E-2    4.822057957731334E-2   -1.177594122604794E-2    4.764417224767870E-2   -5.037886104640252E-1   -6.260124750124678E-2
 6.501819207600000E9    -4.633613580127871E-1   -2.450343639325344E-1   -1.417075610029813E-2    4.843288356957522E-2   -1.173683118098308E-2    4.801716186578861E-2   -5.039039725899876E-1   -6.124489256962189E-2
 6.501831550200000E9    -4.639373963334096E-1   -2.440524410118504E-1   -1.420985240992998E-2    4.871359958506059E-2   -1.174489725302697E-2    4.845993552983902E-2   -5.039093213745435E-1   -5.959514952535930E-2
 6.501843892800000E9    -4.643424374641187E-1   -2.428786124745234E-1   -1.415160678816480E-2    4.920521640940523E-2   -1.168521743024701E-2    4.878415492034514E-2   -5.038536454583901E-1   -5.807041635832029E-2
 6.501856235400000E9    -4.648959905944662E-1   -2.418329767652873E-1   -1.411258894551200E-2    4.965828700148601E-2   -1.150859294608263E-2    4.920918400724856E-2   -5.039785456858137E-1   -5.654010186714551E-2
 6.501868578000000E9    -4.653051884694993E-1   -2.408557389277944E-1   -1.407803705418772E-2    5.010635910108597E-2   -1.146519637975788E-2    4.954889590352752E-2   -5.039821112158561E-1   -5.487894232958303E-2
 6.501880920600000E9    -4.657257427351666E-1   -2.398989916986114E-1   -1.388015201377752E-2    5.050112304892264E-2   -1.141326008413951E-2    4.988903446016023E-2   -5.038995828512992E-1   -5.323143513975277E-2
 6.501893263200000E9    -4.661626254730279E-1   -2.387668842776784E-1   -1.390177601509591E-2    5.099817569069470E-2   -1.127484611504015E-2    5.037841802672157E-2   -5.040272999732540E-1   -5.166615813674134E-2
 6.501905605800000E9    -4.666329893383228E-1   -2.378040501248069E-1   -1.391310495311736E-2    5.120920330253188E-2   -1.128355307952382E-2    5.077716023788360E-2   -5.040571201628100E-1   -5.013678590862800E-2
 6.501917948400000E9    -4.671338736656526E-1   -2.367857350004081E-1   -1.385610475937064E-2    5.161104950095452E-2   -1.132275679369001E-2    5.118828366415204E-2   -5.041586404967300E-1   -4.857401966615607E-2
 6.501930291000000E9    -4.676048567318402E-1   -2.358076478699513E-1   -1.376558271928150E-2    5.210096289424838E-2   -1.121589855848909E-2    5.168237599149602E-2   -5.040830281983981E-1   -4.683973484210392E-2
 6.501942633600000E9    -4.679807313429865E-1   -2.346259910549129E-1   -1.374119430125780E-2    5.250129644689364E-2   -1.115655415414130E-2    5.205696199621652E-2   -5.040624549777541E-1   -4.517105986468273E-2
 6.501954976200000E9    -4.684905307102923E-1   -2.336593884647022E-1   -1.373159658910513E-2    5.314652035860378E-2   -1.105254673979876E-2    5.249210191051620E-2   -5.040332804826904E-1   -4.365534061634316E-2
 6.501967318800000E9    -4.689377944628521E-1   -2.326116935429642E-1   -1.358078899041274E-2    5.354789046555103E-2   -1.091893999613515E-2    5.301488324157520E-2   -5.039208834670253E-1   -4.184438610325001E-2
 6.501979661400000E9    -4.693360443796917E-1   -2.315746834926466E-1   -1.346969571186419E-2    5.396427946454910E-2   -1.091379142273957E-2    5.325019726352571E-2   -5.038825652493543E-1   -4.028895729178663E-2
 6.501992004000000E9    -4.698277512230162E-1   -2.303923835216485E-1   -1.341749385767831E-2    5.452562116801329E-2   -1.084893792834080E-2    5.383838779073695E-2   -5.038334680725850E-1   -3.855777314987384E-2
 6.502004346600000E9    -4.702053141672906E-1   -2.293561355504999E-1   -1.347105513861232E-2    5.495904837272869E-2   -1.075812129399894E-2    5.429166003510454E-2   -5.039690525199444E-1   -3.684493805859144E-2
 6.502016689200000E9    -4.707268315019783E-1   -2.282963424007555E-1   -1.329209680701338E-2    5.543100149546179E-2   -1.066231865244829E-2    5.479506127053497E-2   -5.037857172002701E-1   -3.506711791877717E-2
 6.502029031800000E9    -4.711198595949292E-1   -2.271490898915680E-1   -1.325834814203965E-2    5.613042241789717E-2   -1.059468195119220E-2    5.526267148303104E-2   -5.038155650218652E-1   -3.337018016607621E-2
 6.502041374400000E9    -4.714867068560111E-1   -2.261080182890922E-1   -1.326873766739433E-2    5.664956534938229E-2   -1.052240961602120E-2    5.576921615669315E-2   -5.037590033288706E-1   -3.169489298709036E-2
 6.502053717000000E9    -4.719294791238605E-1   -2.249797793083181E-1   -1.320561406559649E-2    5.698697928035025E-2   -1.048454771815248E-2    5.633731179820358E-2   -5.036230214385593E-1   -2.969615784420971E-2
 6.502066059600000E9    -4.724846270672318E-1   -2.239175801007341E-1   -1.294578744343822E-2    5.749695533933807E-2   -1.032173561053610E-2    5.677209535667890E-2   -5.034760525523349E-1   -2.799852407417142E-2
 6.502078402200000E9    -4.728981804704039E-1   -2.228368243386602E-1   -1.290590583168683E-2    5.815306227966665E-2   -1.020197942585714E-2    5.727847034655249E-2   -5.035523476373062E-1   -2.637619776212820E-2
 6.502090744800000E9    -4.733654861992735E-1   -2.216588898038982E-1   -1.286496342605932E-2    5.852547942892514E-2   -1.014035830095984E-2    5.773249947560749E-2   -5.033875889689940E-1   -2.451176183813357E-2
 6.502103087400000E9    -4.736950104756318E-1   -2.205299365776368E-1   -1.274356078986463E-2    5.911719455975443E-2   -9.992527525751388E-3    5.825720086363665E-2   -5.032898205437730E-1   -2.264407857746332E-2
 6.502115430000000E9    -4.740942585241594E-1   -2.194939702005619E-1   -1.279227675263741E-2    5.960795352227020E-2   -9.908553323887107E-3    5.887379887776560E-2   -5.030944465013083E-1   -2.086767595986285E-2
