#  HZ   S   RI   R     50.00 
! Rohde & Schwarz Vector Network Analyzer 
! Rohde-Schwarz,ZNB20-2Port,1311601062101988,3.16
! Created: UTC 3/20/2024, 11:43:10 AM
! freq[Hz]                re:S11                  im:S11                  re:S21                  im:S21                  re:S12                  im:S12                  re:S22                  im:S22
 6.500998311000000E9    -4.284290649762747E-1   -3.061205351207112E-1   -1.488073749865179E-2    3.061743368039021E-2   -1.312426228611110E-2    3.079206428532167E-2   -4.915584574032653E-1   -1.491452166555750E-1
 6.501010676900000E9    -4.290408621315909E-1   -3.051482319861731E-1   -1.494731352137144E-2    3.095153341707932E-2   -1.310375596151041E-2    3.099208309252838E-2   -4.918648603830504E-1   -1.479451175857810E-1
 6.501023042800000E9    -4.296643883168875E-1   -3.043260974103496E-1   -1.487035753552086E-2    3.115627689633685E-2   -1.319850277643450E-2    3.114147895217931E-2   -4.919949056900028E-1   -1.468129062951747E-1
 6.501035408700000E9    -4.301453074717012E-1   -3.035632031117310E-1   -1.489646430613647E-2    3.128546023167036E-2   -1.309316652763172E-2    3.136997874657058E-2   -4.923001307329586E-1   -1.457668645834461E-1
 6.501047774600000E9    -4.307836745506429E-1   -3.026613984259593E-1   -1.492586655828147E-2    3.162913095786675E-2   -1.308209817497951E-2    3.151624992764993E-2   -4.928286114076585E-1   -1.444308989683953E-1
 6.501060140500000E9    -4.312716235499169E-1   -3.018591324980769E-1   -1.500826246991395E-2    3.156421397059413E-2   -1.315804202234159E-2    3.169273776638717E-2   -4.928976141284344E-1   -1.433984741495489E-1
 6.501072506400000E9    -4.318489741072694E-1   -3.010012167404296E-1   -1.483996180392187E-2    3.188604292779356E-2   -1.312677570691682E-2    3.187367129556240E-2   -4.930337723835920E-1   -1.419522208086152E-1
 6.501084872300000E9    -4.323644809585295E-1   -3.001143888319094E-1   -1.488791686863960E-2    3.213624183353805E-2   -1.309503544590273E-2    3.195103693671678E-2   -4.935275915405534E-1   -1.409111500228122E-1
 6.501097238200000E9    -4.329101479408399E-1   -2.992534491419598E-1   -1.484754699289188E-2    3.219630011480779E-2   -1.317090206237361E-2    3.222838790630579E-2   -4.938115080874845E-1   -1.397910656380200E-1
 6.501109604100000E9    -4.336253769397005E-1   -2.984110350303978E-1   -1.480439274318440E-2    3.240576225977545E-2   -1.318442969477353E-2    3.248478302485176E-2   -4.939617269185612E-1   -1.384466803365577E-1
 6.501121970000000E9    -4.341420226887446E-1   -2.975571963131022E-1   -1.486775256891368E-2    3.260983401952169E-2   -1.316180097448846E-2    3.259828737166757E-2   -4.942117162454260E-1   -1.373513607867214E-1
 6.501134335900000E9    -4.347207460492511E-1   -2.966390431890403E-1   -1.477808188805514E-2    3.288515999046823E-2   -1.307944270075865E-2    3.297562000050965E-2   -4.945295461782300E-1   -1.360630119750501E-1
 6.501146701800000E9    -4.351518320108035E-1   -2.957699977674429E-1   -1.492130039846645E-2    3.303918086487646E-2   -1.307186494444345E-2    3.309157737196133E-2   -4.946761594147932E-1   -1.349532000244553E-1
 6.501159067700000E9    -4.357491102877315E-1   -2.948971256070282E-1   -1.485431144774559E-2    3.338825765118765E-2   -1.305678034417408E-2    3.326610418462961E-2   -4.950131364512890E-1   -1.337244290029523E-1
 6.501171433600000E9    -4.363562145749345E-1   -2.939737666858981E-1   -1.497732905376793E-2    3.345588510667451E-2   -1.310234089359878E-2    3.344683468123218E-2   -4.953226034252148E-1   -1.324683597368162E-1
 6.501183799500000E9    -4.368107301323836E-1   -2.932467104843550E-1   -1.479525513096518E-2    3.353950473163847E-2   -1.302245879358862E-2    3.367164732598783E-2   -4.955638296018580E-1   -1.312851940411590E-1
 6.501196165400000E9    -4.374821565078950E-1   -2.923080574432754E-1   -1.497579452018638E-2    3.393546838611884E-2   -1.303057553811157E-2    3.378442921192975E-2   -4.957668201168315E-1   -1.300917021538750E-1
 6.501208531300000E9    -4.380914942428396E-1   -2.914754759036337E-1   -1.493003562393082E-2    3.401310324411019E-2   -1.301224349808675E-2    3.407765997497335E-2   -4.960719035071625E-1   -1.286843877766571E-1
 6.501220897200000E9    -4.385004033041781E-1   -2.904723883446259E-1   -1.475457798083721E-2    3.431849036429364E-2   -1.294810622284847E-2    3.433494182886045E-2   -4.962408607919917E-1   -1.275160215094285E-1
 6.501233263100000E9    -4.390245956374721E-1   -2.896466586211642E-1   -1.500961814042659E-2    3.457717360814171E-2   -1.297281722234426E-2    3.452735079712545E-2   -4.965644510520055E-1   -1.262305350564869E-1
 6.501245629000000E9    -4.396580818983460E-1   -2.886870211605252E-1   -1.493295885931310E-2    3.469526907449341E-2   -1.299779997018361E-2    3.473032155805805E-2   -4.967653274763953E-1   -1.250030962962542E-1
 6.501257994900000E9    -4.402331353259619E-1   -2.879053062187233E-1   -1.482450947167477E-2    3.485085187776486E-2   -1.297654437440284E-2    3.498334231908038E-2   -4.970911092685083E-1   -1.238640526383717E-1
 6.501270360800000E9    -4.407401525722882E-1   -2.870182470203241E-1   -1.486378644607955E-2    3.530712026596447E-2   -1.299869011329796E-2    3.522723023847257E-2   -4.973267594944326E-1   -1.225124395444008E-1
 6.501282726700000E9    -4.412615744254814E-1   -2.861473804166701E-1   -1.489719616332152E-2    3.544557877702997E-2   -1.290656874703512E-2    3.535636915365258E-2   -4.974692151702892E-1   -1.213390801538931E-1
 6.501295092600000E9    -4.418230036959976E-1   -2.851352128377610E-1   -1.484345620320056E-2    3.564276401387686E-2   -1.289926757392255E-2    3.549763824066003E-2   -4.976430324843583E-1   -1.199934952209089E-1
 6.501307458500000E9    -4.423155797428667E-1   -2.843022957268787E-1   -1.487863739390172E-2    3.593065021283604E-2   -1.287847689710871E-2    3.577240521176504E-2   -4.978661252970301E-1   -1.188672611096074E-1
 6.501319824400000E9    -4.429560370493476E-1   -2.834357843382957E-1   -1.492536001509495E-2    3.607448896438641E-2   -1.284422531755010E-2    3.614267511134453E-2   -4.980196708310516E-1   -1.174809566269000E-1
 6.501332190300000E9    -4.434119350496626E-1   -2.825388127797048E-1   -1.489988027473659E-2    3.648400326285063E-2   -1.284261730795606E-2    3.633168815538167E-2   -4.982319427310218E-1   -1.162183770958480E-1
 6.501344556200000E9    -4.439863650220619E-1   -2.816813075064992E-1   -1.481089237873126E-2    3.666082650345315E-2   -1.295222306590291E-2    3.660506699849409E-2   -4.985447268858789E-1   -1.149056832925505E-1
 6.501356922100000E9    -4.444358141012768E-1   -2.806621697797158E-1   -1.488699014931185E-2    3.698114404707050E-2   -1.286579172676781E-2    3.677003418943896E-2   -4.986819117685390E-1   -1.137348253769439E-1
 6.501369288000000E9    -4.450978593434270E-1   -2.798318943670444E-1   -1.485182768348616E-2    3.713851615611218E-2   -1.283892577215964E-2    3.701172255365556E-2   -4.990023089934564E-1   -1.123702622617620E-1
 6.501381653900000E9    -4.455491031896263E-1   -2.789497068137913E-1   -1.479572928570543E-2    3.737887612506338E-2   -1.267180718551580E-2    3.726383387136178E-2   -4.991711235797414E-1   -1.110123370396982E-1
 6.501394019800000E9    -4.460310922732781E-1   -2.781659214552563E-1   -1.488836191817894E-2    3.762609929991150E-2   -1.275536799731541E-2    3.750198770093621E-2   -4.992850979954161E-1   -1.097162024864067E-1
 6.501406385700000E9    -4.466148909303763E-1   -2.770752356364766E-1   -1.494380745565862E-2    3.793685654450398E-2   -1.279733283567256E-2    3.777189939313663E-2   -4.995141790588909E-1   -1.085475739538565E-1
 6.501418751600000E9    -4.472480653874271E-1   -2.762017078122306E-1   -1.464493170796927E-2    3.815848019810189E-2   -1.285511536237383E-2    3.807672708090953E-2   -4.997298584935859E-1   -1.071236301979201E-1
 6.501431117500000E9    -4.476835316249612E-1   -2.752699576230164E-1   -1.489024479475853E-2    3.845250899594208E-2   -1.280083203005959E-2    3.825857189228545E-2   -4.998174712618761E-1   -1.057831239213621E-1
 6.501443483400000E9    -4.482321072972690E-1   -2.742574500235279E-1   -1.485060901075793E-2    3.870506268299127E-2   -1.269939959403964E-2    3.858483793391020E-2   -5.002200718589845E-1   -1.043628253232368E-1
 6.501455849300000E9    -4.487489215568430E-1   -2.735288543147448E-1   -1.484625721528020E-2    3.889029100945798E-2   -1.268854927479188E-2    3.875826952799304E-2   -5.002016985754999E-1   -1.031663269205169E-1
 6.501468215200000E9    -4.492812974226374E-1   -2.724452902814221E-1   -1.477479663179019E-2    3.917436941976158E-2   -1.262526039484120E-2    3.906121811380798E-2   -5.003917290629083E-1   -1.018038872994802E-1
 6.501480581100000E9    -4.497746214647212E-1   -2.716401808423565E-1   -1.477236867780107E-2    3.943436929175586E-2   -1.264532137648870E-2    3.934771711991648E-2   -5.005628899478370E-1   -1.005150739617228E-1
 6.501492947000000E9    -4.502642942982503E-1   -2.705994564321969E-1   -1.472057420838209E-2    3.986503645872949E-2   -1.264847490456578E-2    3.958045672620909E-2   -5.009019234150734E-1   -9.903069519554529E-2
 6.501505312900000E9    -4.507801620438706E-1   -2.696462667155720E-1   -1.466927309890902E-2    3.998784725111629E-2   -1.265642202606988E-2    3.993366064243688E-2   -5.009334105189025E-1   -9.777534950785421E-2
 6.501517678800000E9    -4.513440004235738E-1   -2.687784857877227E-1   -1.479923420694961E-2    4.033842603278366E-2   -1.259670656598706E-2    4.019507924699425E-2   -5.010792512403200E-1   -9.643936495592995E-2
 6.501530044700000E9    -4.518215766275703E-1   -2.677929416257288E-1   -1.467335272865516E-2    4.054555054851021E-2   -1.262402831425537E-2    4.042270732129839E-2   -5.012888667476928E-1   -9.505266636286686E-2
 6.501542410600000E9    -4.523157789960652E-1   -2.668943020855144E-1   -1.471992306255101E-2    4.109669043013076E-2   -1.256949950616105E-2    4.073481213024954E-2   -5.013874822225448E-1   -9.366669206300408E-2
 6.501554776500000E9    -4.529341518805881E-1   -2.659228843088647E-1   -1.471228912138217E-2    4.134891450758825E-2   -1.253072727306205E-2    4.100628111865692E-2   -5.015351647757119E-1   -9.223344533618058E-2
 6.501567142400000E9    -4.533478549575876E-1   -2.649516967397134E-1   -1.462746395551547E-2    4.161464450469438E-2   -1.246765810469718E-2    4.124084928112299E-2   -5.016489957928194E-1   -9.080207794493830E-2
 6.501579508300000E9    -4.537797925197543E-1   -2.639798282500205E-1   -1.470068248461793E-2    4.183389240144645E-2   -1.240746321593821E-2    4.160132216777241E-2   -5.018546634263267E-1   -8.952809137552947E-2
 6.501591874200000E9    -4.543038888143302E-1   -2.630597348946011E-1   -1.459298416515389E-2    4.209094491840643E-2   -1.237923896408938E-2    4.178906335017261E-2   -5.020141307744209E-1   -8.804818246792308E-2
 6.501604240100000E9    -4.549539667542298E-1   -2.620981089545571E-1   -1.460133832187241E-2    4.253431173140977E-2   -1.243577507890051E-2    4.211614800120940E-2   -5.021401592093988E-1   -8.671504471013294E-2
 6.501616606000000E9    -4.554324725892084E-1   -2.612329458519732E-1   -1.462582312863229E-2    4.287858107239232E-2   -1.236684384870285E-2    4.246920743857091E-2   -5.023251300815420E-1   -8.531106732407379E-2
 6.501628971900000E9    -4.560183993924680E-1   -2.602158758064496E-1   -1.453984835048431E-2    4.310380437148333E-2   -1.235764141499155E-2    4.278177448972748E-2   -5.023913021797315E-1   -8.384857150999975E-2
 6.501641337800000E9    -4.563536932634724E-1   -2.592940554243464E-1   -1.457313651437969E-2    4.352168466023728E-2   -1.227850396226401E-2    4.301985608836849E-2   -5.025490407473044E-1   -8.249176218598177E-2
 6.501653703700000E9    -4.568192648907785E-1   -2.582368365104416E-1   -1.459780947400977E-2    4.376877355897575E-2   -1.237037422747047E-2    4.340061967401443E-2   -5.026945845478903E-1   -8.107362505745687E-2
 6.501666069600000E9    -4.573818281951644E-1   -2.573219270240976E-1   -1.448497839042504E-2    4.392024497635673E-2   -1.226361791355412E-2    4.360595971556710E-2   -5.027167211046530E-1   -7.949049763481264E-2
 6.501678435500000E9    -4.578828118340321E-1   -2.563358167801846E-1   -1.449744898981985E-2    4.433413031931495E-2   -1.223084652863080E-2    4.403400494854289E-2   -5.029353572766242E-1   -7.812973073045089E-2
 6.501690801400000E9    -4.584078804825644E-1   -2.552761297652493E-1   -1.445444182629174E-2    4.488862827061164E-2   -1.220910598272438E-2    4.433700832985336E-2   -5.030316922221769E-1   -7.671783850820717E-2
 6.501703167300000E9    -4.589311860400987E-1   -2.544206025918906E-1   -1.459755820859819E-2    4.504202798574378E-2   -1.220520314919244E-2    4.471179355421209E-2   -5.030995303370124E-1   -7.531197819795578E-2
 6.501715533200000E9    -4.593069987977697E-1   -2.532609019145901E-1   -1.435104351703482E-2    4.531633411087171E-2   -1.221486799726457E-2    4.495677480125617E-2   -5.031950443114234E-1   -7.372381021339704E-2
 6.501727899100000E9    -4.597126454041474E-1   -2.523898144711070E-1   -1.437278508030162E-2    4.590901634753682E-2   -1.207500560363929E-2    4.535303809414322E-2   -5.033275339890546E-1   -7.232212871544502E-2
 6.501740265000000E9    -4.603293196357058E-1   -2.513921511369940E-1   -1.441194687618184E-2    4.611701701898790E-2   -1.194166217674660E-2    4.575300515140780E-2   -5.034072483332996E-1   -7.079807422010416E-2
 6.501752630900000E9    -4.608697796342831E-1   -2.504175802728814E-1   -1.424571503570338E-2    4.657571928985502E-2   -1.200182912521615E-2    4.612282704976602E-2   -5.033525052541488E-1   -6.935839760208738E-2
 6.501764996800000E9    -4.613947282049163E-1   -2.493738825722683E-1   -1.423976680634105E-2    4.689778545096610E-2   -1.195729128745032E-2    4.651726017145733E-2   -5.034498011619043E-1   -6.781539447852018E-2
 6.501777362700000E9    -4.617409949709824E-1   -2.483528614832363E-1   -1.422626541829388E-2    4.729288123530499E-2   -1.184180345711814E-2    4.680776892677615E-2   -5.035670869897164E-1   -6.634540117679573E-2
 6.501789728600000E9    -4.621901558371180E-1   -2.474386846300461E-1   -1.425602804777792E-2    4.774795154322346E-2   -1.182059448512476E-2    4.712165309974491E-2   -5.036026568188327E-1   -6.472377406390131E-2
 6.501802094500000E9    -4.626773680156480E-1   -2.463723466882962E-1   -1.418903344241016E-2    4.789482965186860E-2   -1.173870949098020E-2    4.753423319183301E-2   -5.037524556107739E-1   -6.321345537831496E-2
 6.501814460400000E9    -4.631740433986584E-1   -2.454542890389313E-1   -1.410243803130790E-2    4.836412279643999E-2   -1.177456309353051E-2    4.781957012186737E-2   -5.037218691553721E-1   -6.170495631895360E-2
 6.501826826300000E9    -4.637374347274300E-1   -2.444017559584206E-1   -1.412553622934581E-2    4.866668846159153E-2   -1.168942193101067E-2    4.830149820305885E-2   -5.038049030553216E-1   -6.015765498696796E-2
 6.501839192200000E9    -4.642177622361033E-1   -2.434268859951823E-1   -1.394635325748587E-2    4.916692426783662E-2   -1.172235446141211E-2    4.874064216116291E-2   -5.040109495439650E-1   -5.852194410296114E-2
 6.501851558100000E9    -4.646451683171023E-1   -2.423405995029892E-1   -1.427376205593548E-2    4.960318673576432E-2   -1.157455729488508E-2    4.906740333640482E-2   -5.039432088357362E-1   -5.695143335647415E-2
 6.501863924000000E9    -4.651618658880060E-1   -2.412032485613997E-1   -1.404499086493757E-2    4.994312667685054E-2   -1.157542460312469E-2    4.944437352705287E-2   -5.039092489104926E-1   -5.532311251115578E-2
 6.501876289900000E9    -4.655340380312490E-1   -2.403352919717935E-1   -1.388366247347670E-2    5.038457499256602E-2   -1.150459804157471E-2    4.990190496563872E-2   -5.039625351423547E-1   -5.371294567912646E-2
 6.501888655800000E9    -4.660774981787685E-1   -2.392366837838733E-1   -1.393859968454757E-2    5.086771050024876E-2   -1.140953420579415E-2    5.032055519927130E-2   -5.039873530996328E-1   -5.231415039639163E-2
 6.501901021700000E9    -4.663884229759612E-1   -2.382132024138885E-1   -1.396588298854207E-2    5.115663239066937E-2   -1.140499622306594E-2    5.068362472209946E-2   -5.041744356006224E-1   -5.072136438584544E-2
 6.501913387600000E9    -4.669981620214655E-1   -2.371579999878447E-1   -1.390515398081076E-2    5.165321045126230E-2   -1.127731448979180E-2    5.103979825947207E-2   -5.040168905840561E-1   -4.901395790925609E-2
 6.501925753500000E9    -4.674640519330198E-1   -2.361417354759280E-1   -1.386595884084336E-2    5.217764563926534E-2   -1.122070282248339E-2    5.153632985697366E-2   -5.042367549343821E-1   -4.739252267542476E-2
 6.501938119400000E9    -4.678154951923882E-1   -2.350890819103097E-1   -1.371554704524476E-2    5.256965890022183E-2   -1.113335541529156E-2    5.193381967163077E-2   -5.040621340702389E-1   -4.591091329170818E-2
 6.501950485300000E9    -4.683114102078720E-1   -2.340168423770408E-1   -1.356413607218473E-2    5.304205146240425E-2   -1.109788028718239E-2    5.240836933452690E-2   -5.039533721558986E-1   -4.400018353219166E-2
 6.501962851200000E9    -4.687299463867843E-1   -2.329212317624345E-1   -1.358978360078571E-2    5.360050740278122E-2   -1.101924600701615E-2    5.286147937348123E-2   -5.039185735399591E-1   -4.237030545118472E-2
 6.501975217100000E9    -4.692529940424546E-1   -2.318386227268521E-1   -1.356336394467662E-2    5.390393238158071E-2   -1.099061211693810E-2    5.325521593687742E-2   -5.038762005578392E-1   -4.075271563250695E-2
 6.501987583000000E9    -4.696411266270732E-1   -2.307992831166339E-1   -1.355672064205888E-2    5.449932169617136E-2   -1.088833872805289E-2    5.373981109799226E-2   -5.038495726364507E-1   -3.913515598132427E-2
 6.501999948900000E9    -4.700840937172096E-1   -2.297297679060869E-1   -1.344490045057390E-2    5.485085264999349E-2   -1.075142695763236E-2    5.415843349815540E-2   -5.038508200369549E-1   -3.723713671073921E-2
 6.502012314800000E9    -4.704976501685132E-1   -2.286397788751418E-1   -1.334529309512436E-2    5.552000479268207E-2   -1.070667950166672E-2    5.472101542894223E-2   -5.037945227743749E-1   -3.558671915105617E-2
 6.502024680700000E9    -4.710373107804040E-1   -2.275545798961341E-1   -1.326998754477498E-2    5.589718033031226E-2   -1.062450425519488E-2    5.514076484758312E-2   -5.037950839266041E-1   -3.390695852256035E-2
 6.502037046600000E9    -4.714317926954960E-1   -2.264362904363135E-1   -1.323840472490141E-2    5.637279166664083E-2   -1.052458564734684E-2    5.584539195657885E-2   -5.036305030059532E-1   -3.215830589582075E-2
 6.502049412500000E9    -4.718117295535773E-1   -2.253666736028329E-1   -1.296180985788504E-2    5.686050490399965E-2   -1.058277285216877E-2    5.615883065474035E-2   -5.036825074163844E-1   -3.054337299955719E-2
 6.502061778400000E9    -4.722931136279644E-1   -2.242117209725169E-1   -1.304712011363243E-2    5.729309557632205E-2   -1.036776698069500E-2    5.665416802025133E-2   -5.035258565077000E-1   -2.870874707319469E-2
 6.502074144300000E9    -4.726258340948820E-1   -2.231403829640309E-1   -1.291733295414685E-2    5.797267016477511E-2   -1.037106771527637E-2    5.717426188344766E-2   -5.034749386105651E-1   -2.679632853225795E-2
 6.502086510200000E9    -4.731279408569599E-1   -2.221045843149806E-1   -1.294693616410113E-2    5.856262339343758E-2   -1.019384551020008E-2    5.763210552471317E-2   -5.033001410675190E-1   -2.508350660034820E-2
 6.502098876100000E9    -4.735001786564064E-1   -2.209503301035859E-1   -1.289556894554892E-2    5.908072176486325E-2   -1.008324919599895E-2    5.818025908922971E-2   -5.031654376818705E-1   -2.337559165395693E-2
 6.502111242000000E9    -4.740005193924996E-1   -2.198053310917115E-1   -1.287029174387035E-2    5.967131659429592E-2   -1.002073885538506E-2    5.876254169304644E-2   -5.030320656135375E-1   -2.139787913272506E-2
