#  HZ   S   RI   R     50.00 
! Rohde & Schwarz Vector Network Analyzer 
! Rohde-Schwarz,ZNB20-2Port,1311601062101988,3.16
! Created: UTC 3/20/2024, 11:43:13 AM
! freq[Hz]                re:S11                  im:S11                  re:S21                  im:S21                  re:S12                  im:S12                  re:S22                  im:S22
 6.501000417000000E9    -4.284660169091714E-1   -3.059385432156250E-1   -1.499437968236567E-2    3.076395530828205E-2   -1.311358619164855E-2    3.087650029083804E-2   -4.916615433698611E-1   -1.489923326718308E-1
 6.501012769350000E9    -4.291140165911462E-1   -3.052166449627663E-1   -1.486214408210565E-2    3.087558321848242E-2   -1.320593826191246E-2    3.103889387377385E-2   -4.919598828598609E-1   -1.479593954209430E-1
 6.501025121700000E9    -4.296340787013684E-1   -3.043529265473585E-1   -1.485760711746865E-2    3.118616991718511E-2   -1.320165822218510E-2    3.118635711720275E-2   -4.922367830212385E-1   -1.466967386272545E-1
 6.501037474050000E9    -4.301766470314726E-1   -3.032719393032501E-1   -1.495617196940682E-2    3.120754023281084E-2   -1.305323918264523E-2    3.130258291302457E-2   -4.923438433239951E-1   -1.455534724659548E-1
 6.501049826400000E9    -4.307727202201656E-1   -3.025117579043576E-1   -1.493876988628275E-2    3.144661988062780E-2   -1.315037734324124E-2    3.152137097752275E-2   -4.928006293022040E-1   -1.443179432484873E-1
 6.501062178750000E9    -4.312711701987991E-1   -3.016516680408949E-1   -1.495356604196672E-2    3.169050734363209E-2   -1.300018655530078E-2    3.165561202741152E-2   -4.930052531780822E-1   -1.429777805652763E-1
 6.501074531100000E9    -4.320310658270655E-1   -3.008605999397195E-1   -1.483287750239177E-2    3.192929996805561E-2   -1.311930032687125E-2    3.199510917023935E-2   -4.932460344104627E-1   -1.418978248998659E-1
 6.501086883450000E9    -4.324621755802673E-1   -3.000288788753244E-1   -1.490311260249402E-2    3.192646896073165E-2   -1.311090299805629E-2    3.199567959431057E-2   -4.935211790068641E-1   -1.407750117669156E-1
 6.501099235800000E9    -4.330510327963586E-1   -2.992322886014642E-1   -1.476644573558784E-2    3.239152573476549E-2   -1.309755412354947E-2    3.220190764585324E-2   -4.936960960460900E-1   -1.395357839311362E-1
 6.501111588150000E9    -4.336576253559564E-1   -2.982901242376667E-1   -1.480854556784372E-2    3.238709538695825E-2   -1.310875960724344E-2    3.251065307681669E-2   -4.941255307936835E-1   -1.383414613160348E-1
 6.501123940500000E9    -4.342037617012005E-1   -2.973738634163453E-1   -1.487063905487683E-2    3.256707671467578E-2   -1.304140348798748E-2    3.268064190103401E-2   -4.943483274264143E-1   -1.371467455670807E-1
 6.501136292850000E9    -4.347882234817154E-1   -2.965193832604244E-1   -1.486924125001322E-2    3.300732555295364E-2   -1.304864826562669E-2    3.284906819645186E-2   -4.945898046370343E-1   -1.359087797708177E-1
 6.501148645200000E9    -4.353172155233035E-1   -2.958000016416768E-1   -1.491032726717555E-2    3.312424409422375E-2   -1.307407701198681E-2    3.311677495726753E-2   -4.948617129456862E-1   -1.347529716677429E-1
 6.501160997550000E9    -4.358332075173021E-1   -2.948010568159367E-1   -1.496554736563072E-2    3.326193595376321E-2   -1.307455225479488E-2    3.327234284697766E-2   -4.949453502493857E-1   -1.335730083600360E-1
 6.501173349900000E9    -4.364603328495524E-1   -2.939411565706019E-1   -1.479951445460361E-2    3.354942892981159E-2   -1.311127648902972E-2    3.348051506077778E-2   -4.953212722379596E-1   -1.323702847077684E-1
 6.501185702250000E9    -4.369393748313553E-1   -2.929424884374662E-1   -1.503292306542204E-2    3.355997607275280E-2   -1.306023064972513E-2    3.369336713445416E-2   -4.956732526181886E-1   -1.311741045913810E-1
 6.501198054600000E9    -4.375161023765977E-1   -2.921296049421130E-1   -1.473132872907826E-2    3.402396506218264E-2   -1.300898165891770E-2    3.391301955056780E-2   -4.958003665473726E-1   -1.297676820521098E-1
 6.501210406950000E9    -4.380327065173631E-1   -2.912974656094270E-1   -1.480059112229749E-2    3.424022052136642E-2   -1.307004264846425E-2    3.411381333352638E-2   -4.960616026189773E-1   -1.284688845106884E-1
 6.501222759300000E9    -4.385991834736813E-1   -2.903786974676996E-1   -1.482099647545314E-2    3.433740396325548E-2   -1.300162972398925E-2    3.436435296824006E-2   -4.962787329231938E-1   -1.273591251762765E-1
 6.501235111650000E9    -4.391388185175886E-1   -2.894608160607262E-1   -1.481458991871138E-2    3.459007463691902E-2   -1.303269098670958E-2    3.461534679116320E-2   -4.965833488608785E-1   -1.261538507930256E-1
 6.501247464000000E9    -4.396875470309206E-1   -2.885660267910062E-1   -1.497979231924944E-2    3.483509177991875E-2   -1.300800177439612E-2    3.477723439859240E-2   -4.968473069020394E-1   -1.248419806179008E-1
 6.501259816350000E9    -4.402409516375289E-1   -2.878031646383583E-1   -1.488661135980279E-2    3.504983151933935E-2   -1.301710646695007E-2    3.491476602516648E-2   -4.971268879366705E-1   -1.235413878801918E-1
 6.501272168700000E9    -4.408263480786926E-1   -2.869359766752427E-1   -1.491825135755246E-2    3.524216493347355E-2   -1.290637738757361E-2    3.514025843263569E-2   -4.972728719806812E-1   -1.224587740080063E-1
 6.501284521050000E9    -4.412632854317083E-1   -2.859888504711139E-1   -1.491017701339135E-2    3.540385587662284E-2   -1.300696875911673E-2    3.551930544928702E-2   -4.974597685969251E-1   -1.210177519929544E-1
 6.501296873400000E9    -4.419639938645791E-1   -2.850596635044323E-1   -1.479750016951072E-2    3.559707529832432E-2   -1.283595506116368E-2    3.566016379243390E-2   -4.975833703429675E-1   -1.198291332784148E-1
 6.501309225750000E9    -4.424112686402483E-1   -2.842334986810660E-1   -1.475853884895838E-2    3.592439267131259E-2   -1.294389170747848E-2    3.589805862607707E-2   -4.978699592367692E-1   -1.186016474053614E-1
 6.501321578100000E9    -4.430198427356639E-1   -2.833488580306661E-1   -1.487706238482663E-2    3.618021840640730E-2   -1.295043933380499E-2    3.605553779422105E-2   -4.981145556355825E-1   -1.172442501662187E-1
 6.501333930450000E9    -4.434811817703307E-1   -2.824787026309091E-1   -1.493454701619954E-2    3.636052579256754E-2   -1.287760096335821E-2    3.631902422454221E-2   -4.984370306811464E-1   -1.161133630545512E-1
 6.501346282800000E9    -4.440235299895478E-1   -2.814882021424153E-1   -1.483911755876825E-2    3.650921515521837E-2   -1.282679098609465E-2    3.660047007152819E-2   -4.985802408531738E-1   -1.148441496398684E-1
 6.501358635150000E9    -4.446017554539395E-1   -2.805605871683658E-1   -1.478802893903477E-2    3.693068102401166E-2   -1.285776654991227E-2    3.682188458188602E-2   -4.987025509480917E-1   -1.133461552017465E-1
 6.501370987500000E9    -4.451383768327844E-1   -2.796245712256399E-1   -1.487047402956647E-2    3.718396865500055E-2   -1.285652352883851E-2    3.708472045976512E-2   -4.989439132543772E-1   -1.122444810224267E-1
 6.501383339850000E9    -4.456177497447821E-1   -2.788405663714617E-1   -1.479690408898394E-2    3.737875179094230E-2   -1.286424917045025E-2    3.734838437182054E-2   -4.990154217127430E-1   -1.110013378913687E-1
 6.501395692200000E9    -4.461926076969714E-1   -2.778616304830493E-1   -1.482771181232720E-2    3.760677658938061E-2   -1.279263717414689E-2    3.756507435688129E-2   -4.992491061520136E-1   -1.096333148548323E-1
 6.501408044550000E9    -4.467241755819177E-1   -2.770141638779891E-1   -1.485458087139136E-2    3.792547342281413E-2   -1.279713535344624E-2    3.780707143538685E-2   -4.995441874336148E-1   -1.083259674520881E-1
 6.501420396900000E9    -4.472087929145408E-1   -2.760127251464161E-1   -1.482816820049444E-2    3.811547678570516E-2   -1.283385180198767E-2    3.799152346741094E-2   -4.997458196086491E-1   -1.068253204425790E-1
 6.501432749250000E9    -4.477334487992363E-1   -2.751578026389848E-1   -1.481217182051507E-2    3.843620520699664E-2   -1.270639550610392E-2    3.829723979459588E-2   -5.000149634144888E-1   -1.058070472549646E-1
 6.501445101600000E9    -4.482638076607039E-1   -2.741530074015266E-1   -1.482027777275335E-2    3.874829194935719E-2   -1.270355089446593E-2    3.864173032781795E-2   -5.002145248288514E-1   -1.043979217732279E-1
 6.501457453950000E9    -4.488407536282306E-1   -2.733950258987234E-1   -1.468650144087403E-2    3.897692765095943E-2   -1.269142467216527E-2    3.879793037899285E-2   -5.002869541521749E-1   -1.029654031045228E-1
 6.501469806300000E9    -4.493217557893136E-1   -2.724233251019474E-1   -1.467323431355399E-2    3.933166334269945E-2   -1.268434082448295E-2    3.907598392286799E-2   -5.003174724397239E-1   -1.016595902160560E-1
 6.501482158650000E9    -4.498406382453489E-1   -2.713556703120154E-1   -1.476572806754299E-2    3.954554685742531E-2   -1.268730292838981E-2    3.939587166184436E-2   -5.007153953150983E-1   -1.001929485886291E-1
 6.501494511000000E9    -4.503213505208132E-1   -2.705376948976300E-1   -1.472083993923927E-2    3.979103082645990E-2   -1.261908068312318E-2    3.960462429541086E-2   -5.007111060248154E-1   -9.895101900517715E-2
 6.501506863350000E9    -4.508291906634749E-1   -2.695552189586626E-1   -1.468201662568022E-2    3.997703418234455E-2   -1.266710459846688E-2    3.984303522815280E-2   -5.008819571371798E-1   -9.768651758444390E-2
 6.501519215700000E9    -4.515152531501683E-1   -2.685191475280433E-1   -1.463981622599445E-2    4.034598674976998E-2   -1.265972126408789E-2    4.015669270654124E-2   -5.011527260735824E-1   -9.616074938984150E-2
 6.501531568050000E9    -4.519543772946182E-1   -2.676944395193770E-1   -1.483838824003591E-2    4.069387143062653E-2   -1.256980480173860E-2    4.039853025708657E-2   -5.013107811721864E-1   -9.488767757129199E-2
 6.501543920400000E9    -4.524114470878592E-1   -2.667571104162433E-1   -1.477743117202556E-2    4.098280062092555E-2   -1.256795370284389E-2    4.075787645399592E-2   -5.013786044144475E-1   -9.359951767505970E-2
 6.501556272750000E9    -4.529920186638443E-1   -2.658374719748727E-1   -1.462112718053345E-2    4.128683883591554E-2   -1.254834503580334E-2    4.104117114146590E-2   -5.015583362582882E-1   -9.211407961982009E-2
 6.501568625100000E9    -4.535375263029319E-1   -2.648522326971987E-1   -1.469685224320159E-2    4.150568679735321E-2   -1.245642677131652E-2    4.134837495156141E-2   -5.017265068582281E-1   -9.083065244785703E-2
 6.501580977450000E9    -4.539852955309038E-1   -2.639613975088209E-1   -1.460096733112569E-2    4.186643114127837E-2   -1.251234214416260E-2    4.158293307594548E-2   -5.019627393956844E-1   -8.937155066567992E-2
 6.501593329800000E9    -4.544191220590049E-1   -2.630950845193623E-1   -1.463115304309662E-2    4.216848049846182E-2   -1.242965889614344E-2    4.191839617876299E-2   -5.020552343302297E-1   -8.797001427972781E-2
 6.501605682150000E9    -4.549369407564479E-1   -2.619815800740211E-1   -1.454443171608281E-2    4.242398887116236E-2   -1.244715941022567E-2    4.221110392421228E-2   -5.021544502358400E-1   -8.653743256725450E-2
 6.501618034500000E9    -4.554546797420220E-1   -2.611146607258841E-1   -1.456062790906909E-2    4.282491500775196E-2   -1.233576261887278E-2    4.253749544248374E-2   -5.022190981262579E-1   -8.507547985888896E-2
 6.501630386850000E9    -4.558448912444108E-1   -2.600173618172578E-1   -1.462006306892015E-2    4.308525250260650E-2   -1.234369278591539E-2    4.281414362953645E-2   -5.025691216902947E-1   -8.383814351668278E-2
 6.501642739200000E9    -4.564660861355933E-1   -2.590181918793847E-1   -1.455536373448970E-2    4.348542468963344E-2   -1.230948590679759E-2    4.314706031869587E-2   -5.025392994083222E-1   -8.213733443473126E-2
 6.501655091550000E9    -4.569848090752903E-1   -2.582044073048093E-1   -1.451535557110793E-2    4.374080967518933E-2   -1.230827317032477E-2    4.345525242009642E-2   -5.027324953587181E-1   -8.086037372513154E-2
 6.501667443900000E9    -4.574904892839834E-1   -2.571377996834964E-1   -1.458905006459686E-2    4.400363207768052E-2   -1.220683668070444E-2    4.372743514162478E-2   -5.028649899633154E-1   -7.947081505951580E-2
 6.501679796250000E9    -4.580557027124796E-1   -2.561736586862398E-1   -1.452264051535285E-2    4.440392137633938E-2   -1.218319079003783E-2    4.409715871138269E-2   -5.029509221891982E-1   -7.793036558322479E-2
 6.501692148600000E9    -4.584166952994452E-1   -2.553055066142148E-1   -1.433921413255194E-2    4.471486374548402E-2   -1.226494585473436E-2    4.438128954147799E-2   -5.031912767957628E-1   -7.657063121564267E-2
 6.501704500950000E9    -4.588759698360095E-1   -2.543044554207856E-1   -1.451082323686814E-2    4.518519497275870E-2   -1.210689232785842E-2    4.471607860586525E-2   -5.032258292954024E-1   -7.499507505128522E-2
 6.501716853300000E9    -4.594118583236035E-1   -2.533475527073525E-1   -1.447089797122698E-2    4.536717225131370E-2   -1.209717205678736E-2    4.502031849741385E-2   -5.032920196658781E-1   -7.372038433507457E-2
 6.501729205650000E9    -4.599212659704006E-1   -2.523397044466034E-1   -1.436690830931403E-2    4.582624626534634E-2   -1.204176492576094E-2    4.543789979325667E-2   -5.033160414922668E-1   -7.205802629146685E-2
 6.501741558000000E9    -4.603523392255724E-1   -2.513191756743189E-1   -1.437110520905828E-2    4.614945978068075E-2   -1.196463065376330E-2    4.583323989854152E-2   -5.032809598046785E-1   -7.052133537073328E-2
 6.501753910350000E9    -4.609739127855029E-1   -2.502996747535279E-1   -1.423984881627504E-2    4.642189421803054E-2   -1.198746173071957E-2    4.613656470523626E-2   -5.033708085974975E-1   -6.913482989687049E-2
 6.501766262700000E9    -4.613327769499678E-1   -2.493257578481570E-1   -1.425266140978295E-2    4.696302658415713E-2   -1.199943944884093E-2    4.643036337689350E-2   -5.036110448153173E-1   -6.754749255128387E-2
 6.501778615050000E9    -4.618405050975573E-1   -2.482949523354880E-1   -1.429021897806752E-2    4.724366517005161E-2   -1.191913145718888E-2    4.678110371643816E-2   -5.036483795999891E-1   -6.602107663764874E-2
 6.501790967400000E9    -4.621591966741361E-1   -2.473426454831305E-1   -1.431021108324053E-2    4.766497627757200E-2   -1.180768396694560E-2    4.727384602987156E-2   -5.037125204923601E-1   -6.453244290986870E-2
 6.501803319750000E9    -4.627479517471684E-1   -2.462449242316763E-1   -1.426514909412922E-2    4.809564593010392E-2   -1.177540428778560E-2    4.765395720511305E-2   -5.036583349786273E-1   -6.293876096058650E-2
 6.501815672100000E9    -4.633204389090685E-1   -2.453256156157170E-1   -1.417617515105501E-2    4.843993793116846E-2   -1.173720150127873E-2    4.792928292306303E-2   -5.038249462457040E-1   -6.146840666437959E-2
 6.501828024450000E9    -4.638347651141027E-1   -2.443143307397364E-1   -1.410065253593426E-2    4.889341275505067E-2   -1.170138186320402E-2    4.825799820918482E-2   -5.038017032753122E-1   -5.988027204447997E-2
 6.501840376800000E9    -4.642562630156162E-1   -2.432248209487647E-1   -1.412619567332281E-2    4.923652564948879E-2   -1.166278256641116E-2    4.873687748937458E-2   -5.038013417798038E-1   -5.836786457701817E-2
 6.501852729150000E9    -4.647485647349985E-1   -2.423077989032090E-1   -1.419625416796138E-2    4.959560352882460E-2   -1.152748555098035E-2    4.913434884812778E-2   -5.039740257259249E-1   -5.687698757401580E-2
 6.501865081500000E9    -4.652142637533382E-1   -2.412243145419633E-1   -1.404441517412609E-2    5.003532754177073E-2   -1.151441889086846E-2    4.945997594248425E-2   -5.039633472272222E-1   -5.529989545014700E-2
 6.501877433850000E9    -4.656447663010079E-1   -2.402007086654334E-1   -1.406226767826123E-2    5.055632229632116E-2   -1.139193668888779E-2    4.991385536172282E-2   -5.040058266485483E-1   -5.366037588620274E-2
 6.501889786200000E9    -4.660702484369985E-1   -2.392012950346086E-1   -1.395871288020883E-2    5.083472710951246E-2   -1.142107042615489E-2    5.034611383487231E-2   -5.040318257507611E-1   -5.215557680048995E-2
 6.501902138550000E9    -4.664586599283118E-1   -2.380591776050233E-1   -1.378046834182851E-2    5.131287056200347E-2   -1.130774829661748E-2    5.071782107704382E-2   -5.040131089146804E-1   -5.044574499729545E-2
 6.501914490900000E9    -4.670358212141071E-1   -2.370525208727699E-1   -1.360912673047339E-2    5.172141027598130E-2   -1.123084567966856E-2    5.114470905269732E-2   -5.040720688664665E-1   -4.883124244381432E-2
 6.501926843250000E9    -4.674226173051402E-1   -2.359088107444937E-1   -1.383660442513209E-2    5.226046380060065E-2   -1.127521044024521E-2    5.152387854395420E-2   -5.039305288391234E-1   -4.728892410462625E-2
 6.501939195600000E9    -4.679435004278737E-1   -2.348643964166587E-1   -1.378001855451306E-2    5.263199023240805E-2   -1.103383885488801E-2    5.205946114882385E-2   -5.040426710560970E-1   -4.556276531667709E-2
 6.501951547950000E9    -4.684657149428113E-1   -2.338915926304222E-1   -1.368245260982965E-2    5.309692834673238E-2   -1.114362884213717E-2    5.245917887214191E-2   -5.039841543014189E-1   -4.390458408924887E-2
 6.501963900300000E9    -4.688271609428472E-1   -2.328139868918925E-1   -1.356069618949098E-2    5.352198908813929E-2   -1.095737724688564E-2    5.288622390324064E-2   -5.039550552210703E-1   -4.217727949260035E-2
 6.501976252650000E9    -4.692664413023245E-1   -2.317757685600660E-1   -1.351413606554147E-2    5.407670394477342E-2   -1.088143023934666E-2    5.331359806535108E-2   -5.037555011704040E-1   -4.075685792431780E-2
 6.501988605000000E9    -4.698573571145068E-1   -2.306751536319712E-1   -1.343093295696687E-2    5.447455292425574E-2   -1.089041589150828E-2    5.381932679426212E-2   -5.038842592394117E-1   -3.888509810913592E-2
 6.502000957350000E9    -4.701113310656669E-1   -2.296488674653661E-1   -1.354378948482472E-2    5.496696268581573E-2   -1.083228145764350E-2    5.430502487261992E-2   -5.038570662203616E-1   -3.709619195890290E-2
 6.502013309700000E9    -4.705633003506406E-1   -2.285526585051640E-1   -1.347835913948179E-2    5.541849393140832E-2   -1.062783271435209E-2    5.476328216096301E-2   -5.038697934491549E-1   -3.550528666678726E-2
 6.502025662050000E9    -4.710254639393345E-1   -2.275795221234017E-1   -1.340134669227263E-2    5.593600676708600E-2   -1.064118415805058E-2    5.521017191370275E-2   -5.037129145841041E-1   -3.375536059878294E-2
 6.502038014400000E9    -4.715690902278918E-1   -2.264808746201587E-1   -1.324330979489408E-2    5.644310815986812E-2   -1.056817485957647E-2    5.562631322847859E-2   -5.036410534087560E-1   -3.201936326718470E-2
 6.502050366750000E9    -4.719836430779239E-1   -2.251884455762559E-1   -1.311220175763484E-2    5.698015076517045E-2   -1.041843409020619E-2    5.619812684349784E-2   -5.036636232991100E-1   -3.034785694959426E-2
 6.502062719100000E9    -4.723037815757746E-1   -2.242629764474469E-1   -1.298893014190859E-2    5.753207499812737E-2   -1.039672125552909E-2    5.671596110812255E-2   -5.033938147382101E-1   -2.845650802316833E-2
 6.502075071450000E9    -4.728120875183084E-1   -2.230740538384434E-1   -1.289118732103428E-2    5.799323238966323E-2   -1.028437566580954E-2    5.722130841408050E-2   -5.034202537171582E-1   -2.667960548684161E-2
 6.502087423800000E9    -4.732132225228125E-1   -2.219915001789227E-1   -1.288903834992729E-2    5.867170758123335E-2   -1.015803087429273E-2    5.775532153837036E-2   -5.032669031472301E-1   -2.496551414090213E-2
 6.502099776150000E9    -4.735620691197395E-1   -2.209026990440205E-1   -1.289612563235120E-2    5.915925034545881E-2   -1.007561926351304E-2    5.838639590423417E-2   -5.031187973575003E-1   -2.311593616242317E-2
 6.502112128500000E9    -4.739901370218235E-1   -2.198105862109254E-1   -1.260515013796090E-2    5.970276922316065E-2   -9.952916870270915E-3    5.878802941630318E-2   -5.030359795091800E-1   -2.125551604310599E-2
