#  HZ   S   RI   R     50.00 
! Rohde & Schwarz Vector Network Analyzer 
! Rohde-Schwarz,ZNB20-2Port,1311601062101988,3.16
! Created: UTC 3/20/2024, 11:43:20 AM
! freq[Hz]                re:S11                  im:S11                  re:S21                  im:S21                  re:S12                  im:S12                  re:S22                  im:S22
 6.500995272000000E9    -4.282645485265716E-1   -3.061808644497375E-1   -1.488375100169262E-2    3.068518452613142E-2   -1.315264589629834E-2    3.077808290812150E-2   -4.915081774760678E-1   -1.493696058607857E-1
 6.501007645100000E9    -4.287995131812566E-1   -3.055166998952862E-1   -1.498156356340456E-2    3.091471619750882E-2   -1.324218642347424E-2    3.101187217748348E-2   -4.917663866308622E-1   -1.483110776752557E-1
 6.501020018200000E9    -4.293712744903462E-1   -3.045145788142634E-1   -1.493567465949204E-2    3.109648746686533E-2   -1.314625807874579E-2    3.110499752706985E-2   -4.921413359156481E-1   -1.470759109280996E-1
 6.501032391300000E9    -4.300533862777789E-1   -3.037755195220793E-1   -1.474768917845667E-2    3.122562121639959E-2   -1.306954817527107E-2    3.126462689100843E-2   -4.922828045796979E-1   -1.459716059522826E-1
 6.501044764400000E9    -4.305427843233227E-1   -3.028058700768045E-1   -1.491095121271299E-2    3.147620615000538E-2   -1.304992238455624E-2    3.146055393711377E-2   -4.926616571163267E-1   -1.447905781800807E-1
 6.501057137500000E9    -4.310755428801096E-1   -3.020634857927165E-1   -1.501097392173074E-2    3.162099253817738E-2   -1.312799622946223E-2    3.162975703239326E-2   -4.928957156255937E-1   -1.437418339418417E-1
 6.501069510600000E9    -4.317082948434491E-1   -3.012601382839459E-1   -1.481008953148827E-2    3.186752446557044E-2   -1.314956594623055E-2    3.184770320290357E-2   -4.932206633872825E-1   -1.424491139094399E-1
 6.501081883700000E9    -4.322604616692560E-1   -3.003057245321594E-1   -1.478509016754065E-2    3.208936182695448E-2   -1.309984302662364E-2    3.207470138650811E-2   -4.935335770595718E-1   -1.411665397095287E-1
 6.501094256800000E9    -4.328475585974128E-1   -2.994697554156258E-1   -1.489951741854136E-2    3.225655538288611E-2   -1.308969209885711E-2    3.224829772187164E-2   -4.937269636696694E-1   -1.399516187139712E-1
 6.501106629900000E9    -4.333464228440041E-1   -2.985703501649210E-1   -1.494453429565286E-2    3.251292410747237E-2   -1.300602884771396E-2    3.244335872154061E-2   -4.938887340187761E-1   -1.387271135643211E-1
 6.501119003000000E9    -4.339754530010286E-1   -2.977806871931497E-1   -1.488520047699127E-2    3.275528849343864E-2   -1.310784949713678E-2    3.257515374035343E-2   -4.941620305275722E-1   -1.376770927019449E-1
 6.501131376100000E9    -4.345253371133418E-1   -2.968744069643296E-1   -1.493439691029811E-2    3.275617428440877E-2   -1.312210634854571E-2    3.288539564790900E-2   -4.944655920029672E-1   -1.364160770494216E-1
 6.501143749200000E9    -4.350487886599417E-1   -2.959716988166858E-1   -1.494903519927966E-2    3.307727459964831E-2   -1.302569032879305E-2    3.295595878089728E-2   -4.947184293984092E-1   -1.350836691780715E-1
 6.501156122300000E9    -4.357074305516998E-1   -2.950837805450790E-1   -1.484636592515048E-2    3.313473210007180E-2   -1.299166133982030E-2    3.321143797807689E-2   -4.950099078987868E-1   -1.337971310272296E-1
 6.501168495400000E9    -4.362697854156985E-1   -2.942711241645449E-1   -1.486539717354342E-2    3.342225820716983E-2   -1.294672347450705E-2    3.335430914097483E-2   -4.951422920685504E-1   -1.327206793813042E-1
 6.501180868500000E9    -4.367377123308011E-1   -2.933837447118895E-1   -1.492341411173173E-2    3.357304056811426E-2   -1.301262597402207E-2    3.367853278396642E-2   -4.954893814591440E-1   -1.314751163782809E-1
 6.501193241600000E9    -4.372612294984793E-1   -2.924949017016616E-1   -1.484336650961281E-2    3.378389001059437E-2   -1.301847590308691E-2    3.378176241439088E-2   -4.956520676395126E-1   -1.302916835990910E-1
 6.501205614700000E9    -4.378032323882109E-1   -2.915501121369102E-1   -1.472674957072607E-2    3.409755477664161E-2   -1.294190314148036E-2    3.404688201247731E-2   -4.960109135273008E-1   -1.290413060193327E-1
 6.501217987800000E9    -4.383758013235378E-1   -2.907092739762449E-1   -1.484602170863792E-2    3.425994561240673E-2   -1.306153308197240E-2    3.427952087035362E-2   -4.962241147139596E-1   -1.276996566481122E-1
 6.501230360900000E9    -4.389105442294498E-1   -2.898290129667365E-1   -1.494218239032937E-2    3.454000556790201E-2   -1.300194060006978E-2    3.447475407372422E-2   -4.965681591133750E-1   -1.263602170265801E-1
 6.501242734000000E9    -4.394894990636491E-1   -2.890124685043504E-1   -1.496681544444894E-2    3.461928302366746E-2   -1.304835014802144E-2    3.470632662491905E-2   -4.967289703473677E-1   -1.252810060054988E-1
 6.501255107100000E9    -4.399334880552942E-1   -2.881213034335618E-1   -1.486065086417825E-2    3.490642194450744E-2   -1.302785696670008E-2    3.491467951234144E-2   -4.969150079390091E-1   -1.240654608825289E-1
 6.501267480200000E9    -4.406182238114212E-1   -2.872691301231547E-1   -1.492636760085905E-2    3.516382430241403E-2   -1.298733490656012E-2    3.516609460057629E-2   -4.970651222392302E-1   -1.227061221694161E-1
 6.501279853300000E9    -4.411856936062421E-1   -2.863250422160196E-1   -1.490830531659135E-2    3.545759773501890E-2   -1.290655228486856E-2    3.533808653669326E-2   -4.974089389242266E-1   -1.216172285632019E-1
 6.501292226400000E9    -4.416417559140934E-1   -2.854372534027703E-1   -1.469981410570306E-2    3.566611508407525E-2   -1.288359520130533E-2    3.554627910922895E-2   -4.975873067172638E-1   -1.203016449906242E-1
 6.501304599500000E9    -4.422829713411038E-1   -2.844418723520021E-1   -1.482790042909662E-2    3.595156828535266E-2   -1.286825649361668E-2    3.572132501779457E-2   -4.977633162936736E-1   -1.190749220337625E-1
 6.501316972600000E9    -4.428306494394273E-1   -2.836765801105764E-1   -1.493542371193785E-2    3.624373119329308E-2   -1.288852015789538E-2    3.601684890424217E-2   -4.980470746584196E-1   -1.177834145332144E-1
 6.501329345700000E9    -4.432100200970345E-1   -2.826832653057264E-1   -1.488465508033292E-2    3.639078206246721E-2   -1.296428398132944E-2    3.626786385799183E-2   -4.982122617936615E-1   -1.164054662663652E-1
 6.501341718800000E9    -4.438297100491844E-1   -2.819160949052352E-1   -1.483911201547798E-2    3.651693656879462E-2   -1.276753429148121E-2    3.653990995097144E-2   -4.985884372768611E-1   -1.151737657267204E-1
 6.501354091900000E9    -4.443909720005911E-1   -2.809572166831746E-1   -1.486371873951340E-2    3.677403381936441E-2   -1.283243045621491E-2    3.676061194338199E-2   -4.984935606773352E-1   -1.139089125104380E-1
 6.501366465000000E9    -4.449299440109480E-1   -2.800160527266711E-1   -1.499042321345378E-2    3.718347806940490E-2   -1.282036592093697E-2    3.703207920183095E-2   -4.988979662757698E-1   -1.126196827146888E-1
 6.501378838100000E9    -4.454314036524584E-1   -2.789997990733002E-1   -1.475630625178697E-2    3.725195537098284E-2   -1.284256845228629E-2    3.726526111186514E-2   -4.991274541595107E-1   -1.112590848543257E-1
 6.501391211200000E9    -4.458982009800544E-1   -2.781995258996383E-1   -1.485212605001995E-2    3.759234338218478E-2   -1.280970925265771E-2    3.749578000915504E-2   -4.993348855623155E-1   -1.099011897308150E-1
 6.501403584300000E9    -4.465814656489922E-1   -2.773458232274253E-1   -1.481133879445565E-2    3.805866152234671E-2   -1.278170716856358E-2    3.771520533248754E-2   -4.996065434426193E-1   -1.086829433238700E-1
 6.501415957400000E9    -4.469569661542439E-1   -2.763975244023109E-1   -1.490900411533926E-2    3.801421341417259E-2   -1.283835314911735E-2    3.794515899551825E-2   -4.995120961636099E-1   -1.072916014090824E-1
 6.501428330500000E9    -4.475671892440660E-1   -2.754637635508326E-1   -1.465052248178363E-2    3.837487714602793E-2   -1.269958683126882E-2    3.819312468525580E-2   -4.998587094291451E-1   -1.059832583489746E-1
 6.501440703600000E9    -4.480579311186562E-1   -2.745790899797438E-1   -1.469212131217831E-2    3.876815003442590E-2   -1.273905012762656E-2    3.852765289944211E-2   -5.000915415954350E-1   -1.047818242824269E-1
 6.501453076700000E9    -4.485861919818723E-1   -2.735512528046645E-1   -1.470194811688516E-2    3.885625867497942E-2   -1.264571304263304E-2    3.869598033775609E-2   -5.001375367420299E-1   -1.033900182332914E-1
 6.501465449800000E9    -4.491990348610899E-1   -2.726250158283373E-1   -1.475483766659188E-2    3.918382161723281E-2   -1.275785510851962E-2    3.902927788399781E-2   -5.003486362093860E-1   -1.020365720616284E-1
 6.501477822900000E9    -4.496798543105948E-1   -2.717248843568847E-1   -1.484714533311993E-2    3.951604574036317E-2   -1.272084793862929E-2    3.930841185643747E-2   -5.005932325708339E-1   -1.006183802740314E-1
 6.501490196000000E9    -4.501822197342747E-1   -2.707576197632094E-1   -1.477322545568968E-2    3.973136084426041E-2   -1.260750933649607E-2    3.954841957396431E-2   -5.006692410920035E-1   -9.925132795312237E-2
 6.501502569100000E9    -4.506768219078116E-1   -2.699505044733266E-1   -1.479915794253316E-2    4.006003371348880E-2   -1.265468075399653E-2    3.980429122755750E-2   -5.009631614462785E-1   -9.801718977076924E-2
 6.501514942200000E9    -4.512609428497521E-1   -2.689813631118526E-1   -1.474959962649344E-2    4.031021551448902E-2   -1.261059240619049E-2    4.002069128627533E-2   -5.011425305714737E-1   -9.663347490573088E-2
 6.501527315300000E9    -4.516576836032453E-1   -2.680849201054905E-1   -1.470874662912679E-2    4.065301670768899E-2   -1.267227949452445E-2    4.045179067676410E-2   -5.012019418231078E-1   -9.532600609497448E-2
 6.501539688400000E9    -4.522752400787009E-1   -2.671164697004212E-1   -1.480191229762503E-2    4.083395452479328E-2   -1.266254217424859E-2    4.074342608876141E-2   -5.014005867252491E-1   -9.383716780410699E-2
 6.501552061500000E9    -4.528071748995135E-1   -2.662447020642488E-1   -1.483074304099796E-2    4.114788354562719E-2   -1.249601574606522E-2    4.093325018804067E-2   -5.014742901212197E-1   -9.246218543573899E-2
 6.501564434600000E9    -4.532206007885348E-1   -2.651481433742557E-1   -1.460811151715620E-2    4.154855383523400E-2   -1.242144147612486E-2    4.133210179045200E-2   -5.016928413296963E-1   -9.117121414820094E-2
 6.501576807700000E9    -4.538238669635565E-1   -2.641626532320508E-1   -1.459637764454643E-2    4.176474420054658E-2   -1.243626497471957E-2    4.154852955805949E-2   -5.018316408796855E-1   -8.980808234462237E-2
 6.501589180800000E9    -4.543601656388659E-1   -2.632276926194894E-1   -1.469410477950563E-2    4.208950365005497E-2   -1.244894026509617E-2    4.189946582936063E-2   -5.020988985797887E-1   -8.840471231705466E-2
 6.501601553900000E9    -4.547535720155257E-1   -2.623638884383835E-1   -1.470924852349823E-2    4.253391191851845E-2   -1.244381720161738E-2    4.206973506825659E-2   -5.022097759268783E-1   -8.708097961121107E-2
 6.501613927000000E9    -4.551698858975545E-1   -2.613885314481708E-1   -1.451650424021190E-2    4.276733842150061E-2   -1.234558094705171E-2    4.247994886918395E-2   -5.021427366612128E-1   -8.550350656892483E-2
 6.501626300100000E9    -4.557361936769301E-1   -2.604958633149161E-1   -1.457730795702330E-2    4.305626321382684E-2   -1.242119065438468E-2    4.275428011659232E-2   -5.024935274921990E-1   -8.402334319505486E-2
 6.501638673200000E9    -4.564152236218719E-1   -2.594273937890905E-1   -1.467775755855788E-2    4.329096826174041E-2   -1.230598063612877E-2    4.296014747278502E-2   -5.025461425333857E-1   -8.264973505401772E-2
 6.501651046300000E9    -4.567585649930095E-1   -2.584205753909727E-1   -1.453666646481028E-2    4.379017714919624E-2   -1.224714696248462E-2    4.342675584419266E-2   -5.026328917722502E-1   -8.132310025903884E-2
 6.501663419400000E9    -4.572529846466237E-1   -2.574838832016358E-1   -1.438664884575334E-2    4.398201043661478E-2   -1.228566734980187E-2    4.371202358209880E-2   -5.026598590028603E-1   -7.975726061458829E-2
 6.501675792500000E9    -4.577068805391601E-1   -2.565405500564528E-1   -1.445615857427064E-2    4.437723585485444E-2   -1.222443728354457E-2    4.405127820476238E-2   -5.027513134215688E-1   -7.845653189742041E-2
 6.501688165600000E9    -4.581405178524314E-1   -2.555345307918170E-1   -1.446045838106405E-2    4.465704371179120E-2   -1.212243506469522E-2    4.438374651677816E-2   -5.028723695876065E-1   -7.690442875116536E-2
 6.501700538700000E9    -4.588036619422486E-1   -2.545805924004782E-1   -1.432429109080191E-2    4.497895534323294E-2   -1.212206011997314E-2    4.463964847560198E-2   -5.030607487658227E-1   -7.546046167698803E-2
 6.501712911800000E9    -4.592366389092218E-1   -2.535637201439229E-1   -1.450826253996830E-2    4.538976131172966E-2   -1.212011502948720E-2    4.507237857112843E-2   -5.030810964112836E-1   -7.393030016790106E-2
 6.501725284900000E9    -4.598112463638788E-1   -2.526142954334357E-1   -1.438359812587168E-2    4.557405527726130E-2   -1.212781041229400E-2    4.537746441035156E-2   -5.032316968516511E-1   -7.251109391364725E-2
 6.501737658000000E9    -4.603027554008084E-1   -2.515787807627921E-1   -1.439883425932325E-2    4.600608872204038E-2   -1.203828222281903E-2    4.573767336129969E-2   -5.032897255283701E-1   -7.108605532572752E-2
 6.501750031100000E9    -4.607452523519182E-1   -2.506748476670888E-1   -1.433670519438027E-2    4.645387701277687E-2   -1.202040534683085E-2    4.610751432091268E-2   -5.034933406791193E-1   -6.955716541362401E-2
 6.501762404200000E9    -4.612433989291546E-1   -2.496189264311544E-1   -1.438791046230773E-2    4.678766404877521E-2   -1.193623055610389E-2    4.631743758042325E-2   -5.035362545831270E-1   -6.797240712369840E-2
 6.501774777300000E9    -4.617490949450091E-1   -2.485658315277023E-1   -1.422557918207479E-2    4.714761832531492E-2   -1.190287396639747E-2    4.681360084008138E-2   -5.035804508911473E-1   -6.653786143181743E-2
 6.501787150400000E9    -4.621766166132603E-1   -2.475415246250070E-1   -1.415112491214082E-2    4.749763195893703E-2   -1.193423183139284E-2    4.713230739313136E-2   -5.036741589173299E-1   -6.500371928167881E-2
 6.501799523500000E9    -4.626531308382522E-1   -2.465946367893819E-1   -1.411060176968049E-2    4.781439081212547E-2   -1.180998587968478E-2    4.745081787806859E-2   -5.038400238067799E-1   -6.343778706563936E-2
 6.501811896600000E9    -4.631347617407651E-1   -2.455594604483103E-1   -1.416838024319384E-2    4.831554870713651E-2   -1.173539300072450E-2    4.785785421916675E-2   -5.037204601626102E-1   -6.181356969323911E-2
 6.501824269700000E9    -4.636451248389530E-1   -2.445798998653015E-1   -1.418696833782959E-2    4.877456309634922E-2   -1.171027962179618E-2    4.835716703995838E-2   -5.038609224412163E-1   -6.031723092945743E-2
 6.501836642800000E9    -4.641396393089108E-1   -2.435216793755671E-1   -1.400937725167927E-2    4.910532395815378E-2   -1.169481845570766E-2    4.861045792760810E-2   -5.039485792701013E-1   -5.880472793824135E-2
 6.501849015900000E9    -4.646024301997217E-1   -2.424901869491487E-1   -1.400729995785856E-2    4.947591809483318E-2   -1.156232036828786E-2    4.900054135975803E-2   -5.038607057046165E-1   -5.732706733055795E-2
 6.501861389000000E9    -4.648745911664477E-1   -2.414220512385424E-1   -1.407801356443396E-2    5.002618383965366E-2   -1.142916900849497E-2    4.942082292019051E-2   -5.039661975726137E-1   -5.571788189012176E-2
 6.501873762100000E9    -4.654130784946819E-1   -2.404929622174407E-1   -1.394840866481195E-2    5.029206063230180E-2   -1.149505803773375E-2    4.978824534601223E-2   -5.039831822897883E-1   -5.407220108269983E-2
 6.501886135200000E9    -4.658559733626914E-1   -2.394546447285068E-1   -1.392163024985453E-2    5.083846280726993E-2   -1.130908148619612E-2    5.029445535318198E-2   -5.039544575854528E-1   -5.247186536219511E-2
 6.501898508300000E9    -4.663407600614468E-1   -2.384099301184580E-1   -1.390591853935849E-2    5.111584438182414E-2   -1.136587599268657E-2    5.062153667413804E-2   -5.039286656471170E-1   -5.085970164354633E-2
 6.501910881400000E9    -4.669400229407311E-1   -2.373336727672405E-1   -1.376880797353501E-2    5.162677292033876E-2   -1.139612692277826E-2    5.103893249741171E-2   -5.039392301570823E-1   -4.927856696507521E-2
 6.501923254500000E9    -4.672177817423316E-1   -2.363479232537763E-1   -1.375496129686484E-2    5.209867140575951E-2   -1.123293371118209E-2    5.148894180742456E-2   -5.039791569713029E-1   -4.766033458029260E-2
 6.501935627600000E9    -4.678055940236798E-1   -2.353038261924101E-1   -1.375503565479942E-2    5.255818244632823E-2   -1.134832542392811E-2    5.198351025652606E-2   -5.039916901245924E-1   -4.613892808013421E-2
 6.501948000700000E9    -4.681406609278411E-1   -2.341608756478457E-1   -1.379861277920021E-2    5.295211718972220E-2   -1.104876662837953E-2    5.243621251452926E-2   -5.040270931553904E-1   -4.433058050406088E-2
 6.501960373800000E9    -4.686781215378991E-1   -2.330986207316529E-1   -1.359940290332524E-2    5.328449992560166E-2   -1.106748455224661E-2    5.283987328372251E-2   -5.039403051022676E-1   -4.273994973324538E-2
 6.501972746900000E9    -4.690072431607373E-1   -2.320710959594710E-1   -1.345896373301991E-2    5.383968446235127E-2   -1.095899736788221E-2    5.331682328692605E-2   -5.038197870385274E-1   -4.094661490483514E-2
 6.501985120000000E9    -4.695084096246355E-1   -2.310401090266949E-1   -1.339353447192986E-2    5.427176709853830E-2   -1.082739773948767E-2    5.368811725117265E-2   -5.037773784758460E-1   -3.936161739051419E-2
 6.501997493100000E9    -4.700686683109501E-1   -2.299642424125729E-1   -1.336421735081534E-2    5.481323760713195E-2   -1.074133655214725E-2    5.416666421610278E-2   -5.039019458051255E-1   -3.756062975480397E-2
 6.502009866200000E9    -4.704401558453948E-1   -2.289415121653460E-1   -1.334842819244494E-2    5.546409883945835E-2   -1.067358801356402E-2    5.464052623911372E-2   -5.037774861768620E-1   -3.589654234661003E-2
 6.502022239300000E9    -4.709120080342148E-1   -2.276637357175818E-1   -1.329964478319339E-2    5.575835458507249E-2   -1.066977721911502E-2    5.512658899992082E-2   -5.037614937176470E-1   -3.415919846756040E-2
 6.502034612400000E9    -4.712944846531908E-1   -2.265653132254805E-1   -1.331061242245574E-2    5.636651661080440E-2   -1.047692465598817E-2    5.566628798174158E-2   -5.037371786653908E-1   -3.255010115438844E-2
 6.502046985500000E9    -4.717542931904304E-1   -2.256541740430293E-1   -1.306059969571173E-2    5.690335125643998E-2   -1.049962519551340E-2    5.614131286101311E-2   -5.035827178008585E-1   -3.059982315918124E-2
 6.502059358600000E9    -4.722500255304169E-1   -2.244216899084084E-1   -1.297143246093741E-2    5.734635994382174E-2   -1.039999544956857E-2    5.653214318359348E-2   -5.034797205638223E-1   -2.899553626363079E-2
 6.502071731700000E9    -4.726340759456111E-1   -2.233442402080227E-1   -1.300145470625273E-2    5.806071183376035E-2   -1.030129150998618E-2    5.718148076727027E-2   -5.034836382103263E-1   -2.713313806756664E-2
 6.502084104800000E9    -4.730804386427939E-1   -2.223296456512021E-1   -1.284323449531043E-2    5.833836500695165E-2   -1.018177696219404E-2    5.758771355794970E-2   -5.032704017173093E-1   -2.529453088817455E-2
 6.502096477900000E9    -4.734246664972757E-1   -2.211346391221315E-1   -1.280223560765035E-2    5.899163689037287E-2   -1.008266215591802E-2    5.819729985803144E-2   -5.032323738445955E-1   -2.351725912768440E-2
 6.502108851000000E9    -4.739033539865958E-1   -2.200155908543897E-1   -1.278572053614008E-2    5.946591370283640E-2   -9.956613789810300E-3    5.872082550669680E-2   -5.030918424593808E-1   -2.172171497071308E-2
