#  HZ   S   RI   R     50.00 
! Rohde & Schwarz Vector Network Analyzer 
! Rohde-Schwarz,ZNB20-2Port,1311601062101988,3.16
! Created: UTC 3/20/2024, 11:43:53 AM
! freq[Hz]                re:S11                  im:S11                  re:S21                  im:S21                  re:S12                  im:S12                  re:S22                  im:S22
 6.500981932000000E9    -4.276740521277244E-1   -3.071464667537382E-1   -1.481603264245627E-2    3.057024283287245E-2   -1.309431045893134E-2    3.068500410667056E-2   -4.908378032064054E-1   -1.509132599111198E-1
 6.500994345375000E9    -4.283334212393191E-1   -3.061563745475228E-1   -1.478220271485443E-2    3.078861078964775E-2   -1.303567058855033E-2    3.080530935162965E-2   -4.911548471243385E-1   -1.498117847110011E-1
 6.501006758750000E9    -4.287948895391743E-1   -3.053935935687974E-1   -1.478839931249326E-2    3.091241534854404E-2   -1.313106719005854E-2    3.098358016528978E-2   -4.915274852100473E-1   -1.486362469710187E-1
 6.501019172125000E9    -4.294119573156350E-1   -3.045409446742163E-1   -1.480696467782265E-2    3.115735039379916E-2   -1.317910528481519E-2    3.121187478734158E-2   -4.918857588912606E-1   -1.473255663430892E-1
 6.501031585500000E9    -4.300331882470669E-1   -3.037162831671921E-1   -1.473763045038854E-2    3.122599737471777E-2   -1.309354607893748E-2    3.126146450600979E-2   -4.920959167481896E-1   -1.462363267516160E-1
 6.501043998875000E9    -4.306506191767226E-1   -3.028160577817275E-1   -1.484913634641657E-2    3.144345344303549E-2   -1.316552868708570E-2    3.153610965610678E-2   -4.922742928544126E-1   -1.451415222847318E-1
 6.501056412250000E9    -4.311306980473925E-1   -3.020498121830515E-1   -1.480537050303278E-2    3.167056310876743E-2   -1.308368093410771E-2    3.162242835822272E-2   -4.926228808643598E-1   -1.437707182782658E-1
 6.501068825625000E9    -4.317868511020651E-1   -3.010482413980862E-1   -1.485244300540853E-2    3.191313548517202E-2   -1.305839765832006E-2    3.192093767635128E-2   -4.929578874170815E-1   -1.427221239881096E-1
 6.501081239000000E9    -4.322728563563404E-1   -3.001276163616081E-1   -1.498928031655770E-2    3.197846717299490E-2   -1.311230775923454E-2    3.208737699371509E-2   -4.932543637005689E-1   -1.414332005076732E-1
 6.501093652375000E9    -4.327953392468779E-1   -2.994041872834183E-1   -1.482448237723996E-2    3.225369314119221E-2   -1.307351144664847E-2    3.226921572574123E-2   -4.933898403980765E-1   -1.402620328052913E-1
 6.501106065750000E9    -4.333673830774991E-1   -2.985882345877627E-1   -1.478793525226669E-2    3.238793484776219E-2   -1.311184345583561E-2    3.247297814183264E-2   -4.936375983826566E-1   -1.392341774415325E-1
 6.501118479125000E9    -4.339417940268042E-1   -2.975984752261902E-1   -1.494668752572721E-2    3.261781652436110E-2   -1.307827233045594E-2    3.256823767626162E-2   -4.938108697188221E-1   -1.379603222121513E-1
 6.501130892500000E9    -4.344920129047067E-1   -2.968749106593265E-1   -1.487441682431374E-2    3.293352730238570E-2   -1.304500204152544E-2    3.292778021917283E-2   -4.942740921605489E-1   -1.366443427559196E-1
 6.501143305875000E9    -4.350710307164102E-1   -2.959368885653761E-1   -1.500587800183487E-2    3.302075124846090E-2   -1.308958572654086E-2    3.307645967321065E-2   -4.944721629495457E-1   -1.353914024234904E-1
 6.501155719250000E9    -4.355832556189558E-1   -2.949975333131709E-1   -1.495828719340936E-2    3.322117244551245E-2   -1.300586216790249E-2    3.330618135787804E-2   -4.947627065068089E-1   -1.344376207965924E-1
 6.501168132625000E9    -4.361771504750551E-1   -2.942145431893378E-1   -1.488638758271026E-2    3.341968451765769E-2   -1.310539704353088E-2    3.349863724820900E-2   -4.948297169295208E-1   -1.330415588248258E-1
 6.501180546000000E9    -4.367070381871569E-1   -2.933626261342047E-1   -1.495279177054679E-2    3.371050902182487E-2   -1.309432120523551E-2    3.374136785190621E-2   -4.952887021635869E-1   -1.317773321221512E-1
 6.501192959375000E9    -4.373390893734353E-1   -2.924574673574063E-1   -1.488079573524441E-2    3.384771906350553E-2   -1.301087775903252E-2    3.383767390514695E-2   -4.954519513983172E-1   -1.305350632341397E-1
 6.501205372750000E9    -4.378631900048592E-1   -2.915790068199594E-1   -1.486678689536895E-2    3.420332780155899E-2   -1.296849683179305E-2    3.416362427654464E-2   -4.957112964788438E-1   -1.292875293815773E-1
 6.501217786125000E9    -4.384135726893432E-1   -2.906665897440539E-1   -1.485869479748564E-2    3.430012175891967E-2   -1.302286207481432E-2    3.430111278375024E-2   -4.959557293348030E-1   -1.280069067651465E-1
 6.501230199500000E9    -4.390485740477223E-1   -2.897981796974025E-1   -1.484604932441619E-2    3.473722823291856E-2   -1.302230628106968E-2    3.458293944308882E-2   -4.962798897595738E-1   -1.267369510089131E-1
 6.501242612875000E9    -4.395769682531449E-1   -2.888781171696413E-1   -1.489255117262051E-2    3.478083242471287E-2   -1.291662701052382E-2    3.477346076576146E-2   -4.964920973667736E-1   -1.254222302588115E-1
 6.501255026250000E9    -4.400692770681874E-1   -2.879829338786168E-1   -1.488910968864316E-2    3.496360877411931E-2   -1.299279852908167E-2    3.500080535834899E-2   -4.967292730774360E-1   -1.242631500385370E-1
 6.501267439625000E9    -4.405967341458862E-1   -2.870985043161957E-1   -1.487845939704242E-2    3.520438863884768E-2   -1.296341814016820E-2    3.525329847224671E-2   -4.968825986573396E-1   -1.229787616165262E-1
 6.501279853000000E9    -4.411889865212413E-1   -2.862642786421770E-1   -1.477832129945926E-2    3.557286752876368E-2   -1.293250712263619E-2    3.552265211363639E-2   -4.970898709704177E-1   -1.217426272334206E-1
 6.501292266375000E9    -4.416789459758726E-1   -2.852587363451731E-1   -1.480819711063960E-2    3.572170728384358E-2   -1.286724065373779E-2    3.563984437805122E-2   -4.973484990159887E-1   -1.203851885392083E-1
 6.501304679750000E9    -4.422539139119074E-1   -2.844393179048357E-1   -1.480992622168304E-2    3.598410640324088E-2   -1.292208368359283E-2    3.589991855386017E-2   -4.975004411281383E-1   -1.190778640638802E-1
 6.501317093125000E9    -4.428938296434706E-1   -2.835992657699107E-1   -1.490224030873965E-2    3.623490657938663E-2   -1.286980857702005E-2    3.617451735695681E-2   -4.977424149007617E-1   -1.178300673243192E-1
 6.501329506500000E9    -4.432758854805570E-1   -2.826645549220788E-1   -1.487508225625785E-2    3.641782905265870E-2   -1.294170535876126E-2    3.638984045447856E-2   -4.979260334072473E-1   -1.165383635201293E-1
 6.501341919875000E9    -4.438800131028159E-1   -2.817088862427921E-1   -1.483828309851696E-2    3.664328901133364E-2   -1.281975897717718E-2    3.661684480218486E-2   -4.982239789780482E-1   -1.153221899949069E-1
 6.501354333250000E9    -4.443686939634259E-1   -2.807132969475131E-1   -1.477511829630867E-2    3.693844511555619E-2   -1.280300612803318E-2    3.684929704386426E-2   -4.984564100457849E-1   -1.140424837234111E-1
 6.501366746625000E9    -4.450040977435680E-1   -2.798926527680644E-1   -1.486058222968389E-2    3.713735648368383E-2   -1.284285298823586E-2    3.701733592553180E-2   -4.986186431761573E-1   -1.128214566407082E-1
 6.501379160000000E9    -4.453500036784742E-1   -2.789046467787488E-1   -1.486047971442888E-2    3.744128704204092E-2   -1.282287549706034E-2    3.737400437743404E-2   -4.987380129990918E-1   -1.113971149558113E-1
 6.501391573375000E9    -4.460204296644998E-1   -2.779990568138803E-1   -1.491488860424530E-2    3.780421372588323E-2   -1.278602395118228E-2    3.755852197324547E-2   -4.989870085444650E-1   -1.101575921605497E-1
 6.501403986750000E9    -4.465087136427980E-1   -2.771347583925176E-1   -1.490049721604198E-2    3.792448705435002E-2   -1.281302661772475E-2    3.787873531682347E-2   -4.992254265422703E-1   -1.086581543294000E-1
 6.501416400125000E9    -4.470698200949037E-1   -2.762136915774819E-1   -1.477377297770876E-2    3.824305391920864E-2   -1.284694764942883E-2    3.802375369874872E-2   -4.995026253609876E-1   -1.075111599854569E-1
 6.501428813500000E9    -4.475677629336151E-1   -2.753354310497034E-1   -1.489698109518005E-2    3.848717584274547E-2   -1.276678894202308E-2    3.829162434371018E-2   -4.995666855170324E-1   -1.061743500198107E-1
 6.501441226875000E9    -4.482707406726938E-1   -2.744100977387134E-1   -1.478114825379783E-2    3.873989078132405E-2   -1.269097684176049E-2    3.865303752414134E-2   -4.998387702155848E-1   -1.047599927109781E-1
 6.501453640250000E9    -4.486462676164942E-1   -2.734621879143990E-1   -1.470477830373681E-2    3.910443286821420E-2   -1.265823597966482E-2    3.878587087393306E-2   -5.000031012889857E-1   -1.034686616920360E-1
 6.501466053625000E9    -4.491193659295337E-1   -2.725216613023290E-1   -1.483445695632352E-2    3.917628749487419E-2   -1.261203139182106E-2    3.902968688363897E-2   -5.001462716897715E-1   -1.021203960434476E-1
 6.501478467000000E9    -4.497367160466101E-1   -2.716091633883217E-1   -1.472441410173674E-2    3.952495343151484E-2   -1.269082475153617E-2    3.931442333209421E-2   -5.003947399281161E-1   -1.009309321850426E-1
 6.501490880375000E9    -4.502680807991277E-1   -2.706700125281772E-1   -1.473444744212471E-2    3.982227591199184E-2   -1.262356536398391E-2    3.976591043405850E-2   -5.005657738370223E-1   -9.936209166341137E-2
 6.501503293750000E9    -4.507994460657737E-1   -2.697994666418967E-1   -1.474077834065303E-2    4.015227990565437E-2   -1.262037766697418E-2    3.997649299470941E-2   -5.004022233262472E-1   -9.831052721728832E-2
 6.501515707125000E9    -4.512094795096689E-1   -2.687475626265261E-1   -1.460942762148738E-2    4.043325034136191E-2   -1.250635095782718E-2    4.011664768159986E-2   -5.008844185879882E-1   -9.680897827787185E-2
 6.501528120500000E9    -4.517878867628727E-1   -2.678732208905700E-1   -1.482307075235320E-2    4.069903466936738E-2   -1.250799330719509E-2    4.041965814226466E-2   -5.009735976221448E-1   -9.531709334050323E-2
 6.501540533875000E9    -4.522544435244945E-1   -2.668970068149435E-1   -1.454861185961749E-2    4.092155428737940E-2   -1.251144321415788E-2    4.084307049205512E-2   -5.011813553734440E-1   -9.404400815967612E-2
 6.501552947250000E9    -4.528043044765659E-1   -2.659178096997323E-1   -1.476012364257912E-2    4.137393938522714E-2   -1.249630226597886E-2    4.114470295204001E-2   -5.013134419432592E-1   -9.262333411440435E-2
 6.501565360625000E9    -4.533368494393839E-1   -2.650077290340818E-1   -1.461745040131610E-2    4.159700988552836E-2   -1.247463568827122E-2    4.136735421736055E-2   -5.014003959321554E-1   -9.119388705992819E-2
 6.501577774000000E9    -4.538812368300484E-1   -2.640628208407278E-1   -1.466613989573563E-2    4.182268250863727E-2   -1.243111629120406E-2    4.163127103022737E-2   -5.015583774313958E-1   -8.984228938021428E-2
 6.501590187375000E9    -4.543013821927701E-1   -2.629661481028597E-1   -1.470301359128354E-2    4.226618050351406E-2   -1.242453499168550E-2    4.199146580164059E-2   -5.017152371117631E-1   -8.858758056637353E-2
 6.501602600750000E9    -4.547978840321806E-1   -2.621096667429920E-1   -1.467034937036308E-2    4.252980087071215E-2   -1.246371161533693E-2    4.222503675696007E-2   -5.016887065707326E-1   -8.714594742405302E-2
 6.501615014125000E9    -4.551978367007396E-1   -2.612558353352040E-1   -1.453002081574403E-2    4.282127272562746E-2   -1.241064996614735E-2    4.248840895665029E-2   -5.018779821036107E-1   -8.565370714147115E-2
 6.501627427500000E9    -4.558681483010421E-1   -2.601459334106148E-1   -1.469635622004261E-2    4.327479073175552E-2   -1.230154838246279E-2    4.285196826939765E-2   -5.022138575445642E-1   -8.427985969784207E-2
 6.501639840875000E9    -4.563689792897558E-1   -2.591744434417622E-1   -1.472056849815986E-2    4.342321094696316E-2   -1.234692265270939E-2    4.308480432987605E-2   -5.022757487190741E-1   -8.274587607398542E-2
 6.501652254250000E9    -4.568441249028353E-1   -2.582146036308203E-1   -1.457679475451956E-2    4.385940545290922E-2   -1.231081816642812E-2    4.341665466256132E-2   -5.023859528734209E-1   -8.137440130895753E-2
 6.501664667625000E9    -4.573958313079838E-1   -2.572235217078779E-1   -1.449318349773143E-2    4.413454761128074E-2   -1.222779942853300E-2    4.386787035065159E-2   -5.024546686161291E-1   -7.978487187525908E-2
 6.501677081000000E9    -4.578065739586114E-1   -2.563672666831749E-1   -1.441641932430749E-2    4.447417029946945E-2   -1.217515690415883E-2    4.409285064281668E-2   -5.027395081934349E-1   -7.843957538676607E-2
 6.501689494375000E9    -4.582963073360974E-1   -2.552565893870882E-1   -1.449198549287602E-2    4.488167736715901E-2   -1.218658456696324E-2    4.437496709580620E-2   -5.026863283094779E-1   -7.680717589043702E-2
 6.501701907750000E9    -4.588336198767045E-1   -2.543251859782812E-1   -1.448475996512909E-2    4.518509441046995E-2   -1.219746398014777E-2    4.475994634062370E-2   -5.028246089937439E-1   -7.540754106457789E-2
 6.501714321125000E9    -4.592869957590142E-1   -2.533607688157535E-1   -1.432711899561452E-2    4.555429989814961E-2   -1.209185177624245E-2    4.514259549024636E-2   -5.030047932343307E-1   -7.394032596628511E-2
 6.501726734500000E9    -4.598587608923616E-1   -2.522746228867892E-1   -1.428126152088279E-2    4.590281946346628E-2   -1.206618958814520E-2    4.548094146875750E-2   -5.029608897047801E-1   -7.253457684825985E-2
 6.501739147875000E9    -4.603678618152179E-1   -2.513788041081531E-1   -1.441439578447631E-2    4.631412465458351E-2   -1.192980060482486E-2    4.579173057766001E-2   -5.030342709565419E-1   -7.109594307501126E-2
 6.501751561250000E9    -4.607766239397266E-1   -2.503030049960031E-1   -1.435423300937593E-2    4.652928919136713E-2   -1.193679505926725E-2    4.623963692065555E-2   -5.032206300176262E-1   -6.939184728225564E-2
 6.501763974625000E9    -4.612131085259668E-1   -2.493038751388509E-1   -1.427846666043088E-2    4.700221438998801E-2   -1.191216909721058E-2    4.660370639614696E-2   -5.032050601496747E-1   -6.799290142984944E-2
 6.501776388000000E9    -4.617441460092964E-1   -2.482547015864131E-1   -1.428211946528538E-2    4.727957504779969E-2   -1.195003598183387E-2    4.698321019928994E-2   -5.033626974466459E-1   -6.641628590368938E-2
 6.501788801375000E9    -4.622653517814387E-1   -2.472324307819268E-1   -1.422960563715257E-2    4.780774429419660E-2   -1.180532008876572E-2    4.727719688710253E-2   -5.034703883303009E-1   -6.491267121787724E-2
 6.501801214750000E9    -4.627491179587342E-1   -2.463569713180834E-1   -1.418137765070654E-2    4.808679860352542E-2   -1.166582134353447E-2    4.772027756019516E-2   -5.034070963820167E-1   -6.338493292060890E-2
 6.501813628125000E9    -4.632138457766029E-1   -2.453573650198711E-1   -1.427671479196146E-2    4.857413208462753E-2   -1.178960162935449E-2    4.807533647674515E-2   -5.034254878782179E-1   -6.190029328291475E-2
 6.501826041500000E9    -4.635808748976483E-1   -2.442106099977811E-1   -1.419755673752624E-2    4.893695783649980E-2   -1.175114553189422E-2    4.844121383679588E-2   -5.035999508976238E-1   -6.017794449425626E-2
 6.501838454875000E9    -4.641556741377374E-1   -2.432912499821339E-1   -1.409207752783286E-2    4.920449648436543E-2   -1.165379394464986E-2    4.879029503306212E-2   -5.035519647215070E-1   -5.864204018142809E-2
 6.501850868250000E9    -4.645585137755690E-1   -2.422037595375129E-1   -1.392890984691560E-2    4.973620695328763E-2   -1.151204379259185E-2    4.918029126846380E-2   -5.036118791039654E-1   -5.720770554405084E-2
 6.501863281625000E9    -4.651090296046604E-1   -2.412021729121127E-1   -1.394866062998220E-2    5.010037663765139E-2   -1.146131327565371E-2    4.964817880005943E-2   -5.036128377685430E-1   -5.548012880739431E-2
 6.501875695000000E9    -4.655089536972911E-1   -2.400666503712073E-1   -1.394301769890011E-2    5.058881061680832E-2   -1.152056438795771E-2    5.000399394153993E-2   -5.036503091255891E-1   -5.390128478303269E-2
 6.501888108375000E9    -4.660895118889983E-1   -2.391316865358316E-1   -1.385368647228902E-2    5.102649121735967E-2   -1.126647405092578E-2    5.049487440515517E-2   -5.036851365940763E-1   -5.243869663250861E-2
 6.501900521750000E9    -4.665126447504683E-1   -2.381386508565974E-1   -1.391958690676738E-2    5.141697264154448E-2   -1.132748444112500E-2    5.084822368607898E-2   -5.036248322491892E-1   -5.075284100598355E-2
 6.501912935125000E9    -4.669647106570187E-1   -2.369923103012769E-1   -1.379455182569904E-2    5.187166022934366E-2   -1.128564436955451E-2    5.121859804882043E-2   -5.036400120785439E-1   -4.908428082534722E-2
 6.501925348500000E9    -4.674541557818632E-1   -2.359202870896184E-1   -1.382210825624744E-2    5.236806795102762E-2   -1.120642098904885E-2    5.173850264682580E-2   -5.037359862612130E-1   -4.749705039453848E-2
 6.501937761875000E9    -4.678769687313917E-1   -2.349529282225051E-1   -1.375820186002086E-2    5.284814259883340E-2   -1.109788551538352E-2    5.217318370036730E-2   -5.037183280718286E-1   -4.583141575077113E-2
 6.501950175250000E9    -4.682300243332957E-1   -2.338353916818614E-1   -1.361762847987181E-2    5.322039537264133E-2   -1.103941084143151E-2    5.259342258707762E-2   -5.036257055669852E-1   -4.414547048296793E-2
 6.501962588625000E9    -4.688074723355028E-1   -2.326738947635947E-1   -1.363139236976554E-2    5.363496654914593E-2   -1.092061549745588E-2    5.310036451045678E-2   -5.035192844872196E-1   -4.241477990288466E-2
 6.501975002000000E9    -4.691739327166983E-1   -2.316822552147657E-1   -1.349305335218449E-2    5.421321796083739E-2   -1.090951087059614E-2    5.348518878361139E-2   -5.036404676860006E-1   -4.076135283368105E-2
 6.501987415375000E9    -4.696246500999088E-1   -2.306086115687853E-1   -1.354405695845419E-2    5.464160276589167E-2   -1.081540905599624E-2    5.387935568261788E-2   -5.036018883205290E-1   -3.913806307483612E-2
 6.501999828750000E9    -4.701525493585230E-1   -2.296081492882432E-1   -1.350729188928555E-2    5.510313082449890E-2   -1.074585425124321E-2    5.447289718831260E-2   -5.036118840812878E-1   -3.729850598623507E-2
 6.502012242125000E9    -4.705579560200062E-1   -2.285287415050281E-1   -1.342953305486266E-2    5.548064019128375E-2   -1.063790839145913E-2    5.490404806369900E-2   -5.034453528460285E-1   -3.570897887454449E-2
 6.502024655500000E9    -4.709021215709119E-1   -2.273284405881834E-1   -1.322997436668579E-2    5.602938052482628E-2   -1.055791727844390E-2    5.532784991137090E-2   -5.033193919974301E-1   -3.382754606775077E-2
 6.502037068875000E9    -4.713879647086276E-1   -2.262984543078299E-1   -1.317158713944627E-2    5.679546167475363E-2   -1.051028417901127E-2    5.587124461430772E-2   -5.034023903579510E-1   -3.219900918145751E-2
 6.502049482250000E9    -4.718239828290628E-1   -2.251625739381451E-1   -1.308776783791216E-2    5.714191606751465E-2   -1.042446160382707E-2    5.635532985291489E-2   -5.032666921029132E-1   -3.016934258609266E-2
 6.502061895625000E9    -4.722973410256347E-1   -2.240768897061634E-1   -1.299671337752112E-2    5.781088035093850E-2   -1.039099400276453E-2    5.699461131805812E-2   -5.031561926858704E-1   -2.857154557039269E-2
 6.502074309000000E9    -4.726523829737318E-1   -2.229702819693217E-1   -1.291171423416551E-2    5.817992743547089E-2   -1.022188355362639E-2    5.743928862307491E-2   -5.031594448279257E-1   -2.675760612357543E-2
 6.502086722375000E9    -4.730238991007535E-1   -2.217964831461594E-1   -1.295591375641694E-2    5.875683057416250E-2   -1.017156144243798E-2    5.793637538229675E-2   -5.029109941352974E-1   -2.499859063507957E-2
 6.502099135750000E9    -4.735596805618604E-1   -2.207271348725438E-1   -1.285934437053786E-2    5.935613828654401E-2   -1.002216159828132E-2    5.858382399719275E-2   -5.028292356550446E-1   -2.321142302232276E-2
