#  HZ   S   RI   R     50.00 
! Rohde & Schwarz Vector Network Analyzer 
! Rohde-Schwarz,ZNB20-2Port,1311601062101988,3.16
! Created: UTC 3/20/2024, 11:44:15 AM
! freq[Hz]                re:S11                  im:S11                  re:S21                  im:S21                  re:S12                  im:S12                  re:S22                  im:S22
 6.500973168000000E9    -4.272181738190882E-1   -3.076899590246326E-1   -1.491012765324234E-2    3.035780737760358E-2   -1.309729238844574E-2    3.050670177114031E-2   -4.906994473326620E-1   -1.519917326851482E-1
 6.500985609475000E9    -4.278461855257938E-1   -3.069071768472615E-1   -1.485157818497266E-2    3.067601214978817E-2   -1.323126348741607E-2    3.073021959992661E-2   -4.908843744520083E-1   -1.507248744877829E-1
 6.500998050950000E9    -4.283989687887442E-1   -3.059389619333454E-1   -1.491442978496604E-2    3.088934033477037E-2   -1.315114044075896E-2    3.088907064477521E-2   -4.910223155163249E-1   -1.495717598905852E-1
 6.501010492425000E9    -4.289623497591094E-1   -3.051685214084017E-1   -1.492429835928669E-2    3.099932911223788E-2   -1.323326051149397E-2    3.107400279166244E-2   -4.914385602784258E-1   -1.483507244258232E-1
 6.501022933900000E9    -4.295625824724191E-1   -3.042611298347898E-1   -1.474343823281589E-2    3.142895835306596E-2   -1.307652763878966E-2    3.128090862132479E-2   -4.917397517721082E-1   -1.470308923913977E-1
 6.501035375375000E9    -4.301377485391785E-1   -3.033832218626821E-1   -1.505753048626833E-2    3.128729091395711E-2   -1.313636106908184E-2    3.140367801091007E-2   -4.920830593970690E-1   -1.459703242439708E-1
 6.501047816850000E9    -4.307939896649148E-1   -3.025878152767210E-1   -1.495723680784484E-2    3.137504884642399E-2   -1.311663952742548E-2    3.162382884420396E-2   -4.923186829350220E-1   -1.448356038005573E-1
 6.501060258325000E9    -4.312102349783189E-1   -3.017365738005190E-1   -1.482737119180826E-2    3.179591450321977E-2   -1.323849590092349E-2    3.174637987933539E-2   -4.926669154741311E-1   -1.435897809683457E-1
 6.501072699800000E9    -4.319491113466655E-1   -3.008309772341926E-1   -1.482385671495650E-2    3.194436678046922E-2   -1.306654800073032E-2    3.201613779068995E-2   -4.929307393908269E-1   -1.424030371565824E-1
 6.501085141275000E9    -4.324929787198608E-1   -3.000802071401359E-1   -1.499430854461466E-2    3.219959144348940E-2   -1.313835530830264E-2    3.211476000707284E-2   -4.932486438073063E-1   -1.412193499613879E-1
 6.501097582750000E9    -4.330835438708876E-1   -2.991257340577037E-1   -1.494971808489350E-2    3.248686471383805E-2   -1.313798754012254E-2    3.242410389194337E-2   -4.933998605184147E-1   -1.398164878230849E-1
 6.501110024225000E9    -4.335011878410981E-1   -2.982986286379774E-1   -1.496319802148357E-2    3.257953316839466E-2   -1.310564702584880E-2    3.259596820086028E-2   -4.937436759967798E-1   -1.388085481581377E-1
 6.501122465700000E9    -4.341227162033020E-1   -2.973648468030205E-1   -1.499879220327443E-2    3.270776664301810E-2   -1.308043237346889E-2    3.277910873881287E-2   -4.940231525867471E-1   -1.374959320409088E-1
 6.501134907175000E9    -4.347112893755076E-1   -2.964981586684195E-1   -1.481177499465914E-2    3.301682251074223E-2   -1.307713731643127E-2    3.308917129191318E-2   -4.941355378023535E-1   -1.363566877574386E-1
 6.501147348650000E9    -4.352108379420568E-1   -2.956753451777327E-1   -1.493321614821044E-2    3.323170522784152E-2   -1.310375648287969E-2    3.325081273282405E-2   -4.945070250144902E-1   -1.349980427045469E-1
 6.501159790125000E9    -4.358374066970645E-1   -2.947964515467159E-1   -1.495646758785157E-2    3.341512662974148E-2   -1.307467680056876E-2    3.339522463385357E-2   -4.947597144782691E-1   -1.338455520142056E-1
 6.501172231600000E9    -4.364862567809392E-1   -2.938595359014610E-1   -1.483074336036935E-2    3.369390612177344E-2   -1.307127334713524E-2    3.363922471134324E-2   -4.949840276312354E-1   -1.326850537623335E-1
 6.501184673075000E9    -4.369381438037018E-1   -2.929961594404417E-1   -1.489583424675849E-2    3.373674665087929E-2   -1.299500218488409E-2    3.375987002522614E-2   -4.951386318395016E-1   -1.312247022293362E-1
 6.501197114550000E9    -4.374910770138388E-1   -2.921809818528313E-1   -1.485895223293924E-2    3.407120505981857E-2   -1.305854564146835E-2    3.406650796460738E-2   -4.954191309959023E-1   -1.300911696883185E-1
 6.501209556025000E9    -4.379453623754985E-1   -2.912957697722400E-1   -1.485359484863967E-2    3.423996985258865E-2   -1.305683707355906E-2    3.422287428750129E-2   -4.956743765774501E-1   -1.289116077025927E-1
 6.501221997500000E9    -4.385657517129540E-1   -2.903690190900186E-1   -1.483104976683312E-2    3.442246344470182E-2   -1.314319488988221E-2    3.442249958500620E-2   -4.959742158503478E-1   -1.276196247991111E-1
 6.501234438975000E9    -4.391915598729849E-1   -2.894089262929218E-1   -1.489042830789828E-2    3.470976345867580E-2   -1.307386840063066E-2    3.465732872088231E-2   -4.962082690476386E-1   -1.264378077261444E-1
 6.501246880450000E9    -4.396879318387804E-1   -2.885844669390749E-1   -1.490762041925485E-2    3.481775779515661E-2   -1.300595028017728E-2    3.488836626875033E-2   -4.963593858775468E-1   -1.252716307037447E-1
 6.501259321925000E9    -4.402264985539277E-1   -2.877219867876242E-1   -1.482812224586984E-2    3.521494595228526E-2   -1.287256642304963E-2    3.509268468122360E-2   -4.965310850680160E-1   -1.239977520990406E-1
 6.501271763400000E9    -4.408631840236987E-1   -2.868339511705912E-1   -1.491170798199928E-2    3.545494633212574E-2   -1.297786693353533E-2    3.537777607651837E-2   -4.967842261070630E-1   -1.227072988247434E-1
 6.501284204875000E9    -4.414501674561801E-1   -2.858963541517182E-1   -1.487875667119059E-2    3.565523871871334E-2   -1.287392813126316E-2    3.559037410201006E-2   -4.970221019246914E-1   -1.213210103784049E-1
 6.501296646350000E9    -4.418286182204292E-1   -2.850304257997532E-1   -1.480168374115738E-2    3.578965396024044E-2   -1.291761792927420E-2    3.585274588232308E-2   -4.974195518827287E-1   -1.200546690655591E-1
 6.501309087825000E9    -4.423361499421033E-1   -2.840362355466219E-1   -1.490042318958825E-2    3.606570492895570E-2   -1.291797684333118E-2    3.601240536019950E-2   -4.975981179187492E-1   -1.189619538938537E-1
 6.501321529300000E9    -4.429825234971290E-1   -2.832244234456809E-1   -1.482339624753104E-2    3.629300454161497E-2   -1.282116918460888E-2    3.619242246619531E-2   -4.977422533689643E-1   -1.174991731412636E-1
 6.501333970775000E9    -4.435552149113515E-1   -2.823118603652218E-1   -1.484318692089724E-2    3.652553791793541E-2   -1.280139682552869E-2    3.655916228676408E-2   -4.980349992208425E-1   -1.161609246820744E-1
 6.501346412250000E9    -4.439746181070264E-1   -2.814508972626854E-1   -1.474333002179302E-2    3.682452051937337E-2   -1.285555329545200E-2    3.670210330535542E-2   -4.982008131556736E-1   -1.149539649927169E-1
 6.501358853725000E9    -4.445118872231558E-1   -2.804162625471618E-1   -1.486638435002342E-2    3.706833276503226E-2   -1.291979391430783E-2    3.690757537639700E-2   -4.985135279640121E-1   -1.136347098369391E-1
 6.501371295200000E9    -4.451656908627020E-1   -2.795231632024038E-1   -1.487894851481676E-2    3.734569768707836E-2   -1.273426640792833E-2    3.722744546127036E-2   -4.985047843619986E-1   -1.122700306244397E-1
 6.501383736675000E9    -4.456697600687710E-1   -2.785894302580976E-1   -1.494385121122621E-2    3.759374396450545E-2   -1.284625743067611E-2    3.737405749978844E-2   -4.987071144715440E-1   -1.109447095375215E-1
 6.501396178150000E9    -4.461754613131278E-1   -2.778664373768037E-1   -1.499152364345874E-2    3.792435354809876E-2   -1.280898568375270E-2    3.781370042804859E-2   -4.989629646392608E-1   -1.096875387344073E-1
 6.501408619625000E9    -4.467654276555346E-1   -2.767113135917219E-1   -1.484241908475721E-2    3.816690558814216E-2   -1.281039966113210E-2    3.793021879862744E-2   -4.991992866801493E-1   -1.085826890170970E-1
 6.501421061100000E9    -4.473039760303026E-1   -2.758806349043632E-1   -1.491059766482951E-2    3.839451421079292E-2   -1.282243222607486E-2    3.820990669823356E-2   -4.993803119335482E-1   -1.069913136761438E-1
 6.501433502575000E9    -4.478512820068802E-1   -2.749893336100289E-1   -1.490816072079135E-2    3.850138595971775E-2   -1.277438951495185E-2    3.857518619400310E-2   -4.995164974976223E-1   -1.058080296746157E-1
 6.501445944050000E9    -4.483651248556096E-1   -2.741302540997748E-1   -1.487924551418906E-2    3.886375343562930E-2   -1.278777802912329E-2    3.878520738047386E-2   -4.997611878963846E-1   -1.043590343411479E-1
 6.501458385525000E9    -4.489771449984921E-1   -2.730412975444159E-1   -1.484474267276199E-2    3.912062617983043E-2   -1.268097115829409E-2    3.894661470636707E-2   -4.998029536104093E-1   -1.030226708145261E-1
 6.501470827000000E9    -4.493355476024934E-1   -2.721939572368128E-1   -1.484835789753074E-2    3.946174346736575E-2   -1.269058818704499E-2    3.937595111582138E-2   -5.001324611353121E-1   -1.017767989563152E-1
 6.501483268475000E9    -4.499517682299203E-1   -2.711065074191257E-1   -1.471924517137381E-2    3.972213270807219E-2   -1.266975340701798E-2    3.950546287797784E-2   -5.004156851308296E-1   -1.003483429735115E-1
 6.501495709950000E9    -4.504508675577887E-1   -2.702514565332621E-1   -1.473594574405379E-2    4.003429545704714E-2   -1.275601355945029E-2    3.983087775790137E-2   -5.005030515684101E-1   -9.897703094549809E-2
 6.501508151425000E9    -4.509496803432477E-1   -2.694017920731646E-1   -1.472574261187072E-2    4.036727183119378E-2   -1.269693758023318E-2    4.016444413497668E-2   -5.006581770523205E-1   -9.766113397720276E-2
 6.501520592900000E9    -4.514199747794211E-1   -2.684325693697156E-1   -1.472794830160601E-2    4.058879234497273E-2   -1.260866640331683E-2    4.038211739950234E-2   -5.007087252343509E-1   -9.627291051770620E-2
 6.501533034375000E9    -4.520099432703960E-1   -2.673864735909561E-1   -1.473368455746521E-2    4.089717567372469E-2   -1.256041739254538E-2    4.072242047698413E-2   -5.009854611208621E-1   -9.467532652044000E-2
 6.501545475850000E9    -4.524212504390641E-1   -2.664566848071636E-1   -1.455987454543542E-2    4.131212729055355E-2   -1.249832129935809E-2    4.088582902381432E-2   -5.012307428925342E-1   -9.357084659999834E-2
 6.501557917325000E9    -4.529940933754675E-1   -2.656234346503035E-1   -1.476571195093366E-2    4.154323266691565E-2   -1.252112192896788E-2    4.118264665862648E-2   -5.011860821188384E-1   -9.202439461851752E-2
 6.501570358800000E9    -4.534494633995992E-1   -2.645459207356580E-1   -1.478526563002307E-2    4.179881820913104E-2   -1.251370404050594E-2    4.153535691361245E-2   -5.012668136170569E-1   -9.061128898812908E-2
 6.501582800275000E9    -4.540872108827205E-1   -2.635380861915891E-1   -1.458793615226927E-2    4.213563738385519E-2   -1.248363227499862E-2    4.178821039142323E-2   -5.015602986761452E-1   -8.935116869631134E-2
 6.501595241750000E9    -4.544325241458588E-1   -2.626020751855623E-1   -1.468224526911579E-2    4.229917885170530E-2   -1.240806763598631E-2    4.218795452087398E-2   -5.016946745813355E-1   -8.787163501139993E-2
 6.501607683225000E9    -4.549931470062036E-1   -2.617983287979702E-1   -1.461970598680096E-2    4.276276907782363E-2   -1.235414681835686E-2    4.240503583857423E-2   -5.018392434445714E-1   -8.653796053863506E-2
 6.501620124700000E9    -4.555905601244518E-1   -2.608462291004818E-1   -1.455171306307655E-2    4.298934796763026E-2   -1.237836059633761E-2    4.286407131613273E-2   -5.018465308864389E-1   -8.501510106965163E-2
 6.501632566175000E9    -4.560673114966084E-1   -2.597234877245446E-1   -1.457445529611723E-2    4.356925984306933E-2   -1.234713315267990E-2    4.305668045208253E-2   -5.019899228332195E-1   -8.359412223704195E-2
 6.501645007650000E9    -4.566145175035969E-1   -2.587778221157896E-1   -1.458685070682490E-2    4.362212156192110E-2   -1.225486334459361E-2    4.339542811406291E-2   -5.021280757073363E-1   -8.201533946841533E-2
 6.501657449125000E9    -4.570698580835574E-1   -2.578820142671549E-1   -1.455018070478237E-2    4.419842613342363E-2   -1.235993102892971E-2    4.368525127721275E-2   -5.022178011614581E-1   -8.062936536416637E-2
 6.501669890600000E9    -4.575945032792728E-1   -2.569864093351295E-1   -1.449233465744335E-2    4.438096009948590E-2   -1.214327294549308E-2    4.404032506693570E-2   -5.025067426187712E-1   -7.924753396162773E-2
 6.501682332075000E9    -4.580832955449188E-1   -2.557960429064026E-1   -1.446024422923444E-2    4.481891042672212E-2   -1.223598106629056E-2    4.442464919825850E-2   -5.023738927178654E-1   -7.773860652970566E-2
 6.501694773550000E9    -4.586279458021573E-1   -2.549301207260921E-1   -1.442575495092989E-2    4.503630669308151E-2   -1.218694643233939E-2    4.466552811839379E-2   -5.025561274231801E-1   -7.642381199991670E-2
 6.501707215025000E9    -4.590681293243003E-1   -2.538837590244566E-1   -1.456621264508767E-2    4.546416882594573E-2   -1.205385543254706E-2    4.506155330065843E-2   -5.027178275976264E-1   -7.486988224624015E-2
 6.501719656500000E9    -4.595340253946754E-1   -2.528949523113583E-1   -1.441125306712820E-2    4.559259230986516E-2   -1.204953999271688E-2    4.542165211715301E-2   -5.028807298673780E-1   -7.341173682799355E-2
 6.501732097975000E9    -4.601241564799791E-1   -2.519651311035431E-1   -1.441089791875475E-2    4.613494141620567E-2   -1.210717881306820E-2    4.576678132058438E-2   -5.029030929235682E-1   -7.191830173626979E-2
 6.501744539450000E9    -4.605343274350551E-1   -2.509245921541672E-1   -1.427666164143195E-2    4.647480223881933E-2   -1.196567198827157E-2    4.606464504441949E-2   -5.030156505703817E-1   -7.034333102041990E-2
 6.501756980925000E9    -4.609851891113116E-1   -2.499534185297948E-1   -1.430575516527275E-2    4.685199034035327E-2   -1.202265606406305E-2    4.645249592369449E-2   -5.030447882164460E-1   -6.882958675381194E-2
 6.501769422400000E9    -4.614386235400091E-1   -2.489867051405936E-1   -1.429713228093035E-2    4.720993043974702E-2   -1.187102103972456E-2    4.681747052958672E-2   -5.031872000538866E-1   -6.737486815117008E-2
 6.501781863875000E9    -4.620046094095447E-1   -2.479649536026899E-1   -1.429988548020068E-2    4.760313485385777E-2   -1.191689740903584E-2    4.718160113402779E-2   -5.032184948192477E-1   -6.580212150643508E-2
 6.501794305350000E9    -4.624635901839642E-1   -2.468692279772564E-1   -1.416209179410046E-2    4.781000416461306E-2   -1.181413595827400E-2    4.749703608506736E-2   -5.033666492217338E-1   -6.422263634419939E-2
 6.501806746825000E9    -4.628743418604737E-1   -2.458245540240629E-1   -1.418128916804700E-2    4.846289208333075E-2   -1.162057561236533E-2    4.792875293430656E-2   -5.031938791990272E-1   -6.268848410632909E-2
 6.501819188300000E9    -4.634137008412890E-1   -2.447822824705071E-1   -1.419892523189651E-2    4.875260514751953E-2   -1.169998486034083E-2    4.831199823519067E-2   -5.033660843545762E-1   -6.120173217816135E-2
 6.501831629775000E9    -4.639082173500278E-1   -2.437983362506974E-1   -1.404591002895356E-2    4.931270221292231E-2   -1.174087589103355E-2    4.869444948292070E-2   -5.034808443887353E-1   -5.948574754696066E-2
 6.501844071250000E9    -4.642993251708263E-1   -2.427883399159714E-1   -1.407664480311648E-2    4.963747296550480E-2   -1.158734817822409E-2    4.909917353125353E-2   -5.034902154924378E-1   -5.805709599408995E-2
 6.501856512725000E9    -4.648205560258859E-1   -2.417182038293545E-1   -1.389677753658205E-2    5.005129238068283E-2   -1.159175233169288E-2    4.958127282121365E-2   -5.035874824388579E-1   -5.644351772368251E-2
 6.501868954200000E9    -4.652457173281740E-1   -2.406445751570834E-1   -1.391664279297084E-2    5.041961131788935E-2   -1.154242540672558E-2    4.994581929353889E-2   -5.035810074517761E-1   -5.480721322801768E-2
 6.501881395675000E9    -4.656982118105419E-1   -2.396885824701523E-1   -1.396311501872070E-2    5.085132486894856E-2   -1.142013552118099E-2    5.039155303702172E-2   -5.033877010845735E-1   -5.324337859860555E-2
 6.501893837150000E9    -4.662562556151676E-1   -2.385625222232411E-1   -1.384148815411771E-2    5.118178451943297E-2   -1.143436078598258E-2    5.070503316605932E-2   -5.035387102670422E-1   -5.166084357910723E-2
 6.501906278625000E9    -4.666144006182008E-1   -2.374877721017083E-1   -1.386128231382537E-2    5.166984059017157E-2   -1.129338187008859E-2    5.114625394887356E-2   -5.034924304378683E-1   -4.991614801414875E-2
 6.501918720100000E9    -4.670845705646213E-1   -2.364954742027581E-1   -1.376354869924906E-2    5.214821827386444E-2   -1.124825965636271E-2    5.160102877183570E-2   -5.036330994961574E-1   -4.832644663687709E-2
 6.501931161575000E9    -4.675446200760412E-1   -2.355322978701574E-1   -1.380563612411084E-2    5.264520876429182E-2   -1.120762894544272E-2    5.201145213260584E-2   -5.035879165166409E-1   -4.673957895754539E-2
 6.501943603050000E9    -4.680825564584616E-1   -2.342982013599837E-1   -1.357854095322092E-2    5.319351696107408E-2   -1.107099485847412E-2    5.241446450594920E-2   -5.035643670206388E-1   -4.508996104792585E-2
 6.501956044525000E9    -4.685027374308798E-1   -2.333659580726029E-1   -1.357100531169263E-2    5.353991994449295E-2   -1.101656818513932E-2    5.288308907169260E-2   -5.035870342197195E-1   -4.335198813170676E-2
 6.501968486000000E9    -4.690601183838360E-1   -2.322142410107621E-1   -1.360685237902054E-2    5.409305132084454E-2   -1.101902389628312E-2    5.331984998360462E-2   -5.035282082099246E-1   -4.156630815531270E-2
 6.501980927475000E9    -4.694521560725466E-1   -2.311514229207658E-1   -1.340796617259515E-2    5.458672902268359E-2   -1.081525514117440E-2    5.381978672714043E-2   -5.034706990292898E-1   -3.994484616218478E-2
 6.501993368950000E9    -4.698685783613626E-1   -2.301574123088031E-1   -1.340425046271942E-2    5.498891872093008E-2   -1.078330927445227E-2    5.424588752590970E-2   -5.033336290109737E-1   -3.822332748139345E-2
 6.502005810425000E9    -4.702067783728028E-1   -2.290567624124424E-1   -1.337513380656810E-2    5.542777104963321E-2   -1.066610845643574E-2    5.470338317862920E-2   -5.034569288165007E-1   -3.647652022410932E-2
 6.502018251900000E9    -4.707412812992944E-1   -2.278755388811802E-1   -1.334689644438717E-2    5.597026236360129E-2   -1.057268968073430E-2    5.526185872791686E-2   -5.032491639371026E-1   -3.468673355142973E-2
 6.502030693375000E9    -4.711751788351559E-1   -2.266569576267316E-1   -1.319404358683050E-2    5.644365597247823E-2   -1.046772154300575E-2    5.586198253656871E-2   -5.032079837625376E-1   -3.296236945581740E-2
 6.502043134850000E9    -4.716477620492641E-1   -2.256319414969653E-1   -1.311623898401600E-2    5.708767146121922E-2   -1.047721097729911E-2    5.623790787073350E-2   -5.030728179575057E-1   -3.133082983129520E-2
 6.502055576325000E9    -4.720947802553163E-1   -2.246081914623289E-1   -1.305471548147305E-2    5.764147303610578E-2   -1.044998293618843E-2    5.670416368934128E-2   -5.031876660236284E-1   -2.943883839144491E-2
 6.502068017800000E9    -4.724282910421283E-1   -2.235385523489545E-1   -1.302594064942117E-2    5.800911475872998E-2   -1.026287125222006E-2    5.737380288457851E-2   -5.028327265100774E-1   -2.765600376278499E-2
 6.502080459275000E9    -4.729098632181604E-1   -2.223956174222050E-1   -1.282810646504708E-2    5.845423676809594E-2   -1.011970996419945E-2    5.779236562130584E-2   -5.028274608320298E-1   -2.577709092078224E-2
 6.502092900750000E9    -4.733214857843850E-1   -2.211644211312694E-1   -1.263284526236571E-2    5.919475508933287E-2   -1.003742649468726E-2    5.836526947011806E-2   -5.028187080685412E-1   -2.406407041490119E-2
