#  HZ   S   RI   R     50.00 
! Rohde & Schwarz Vector Network Analyzer 
! Rohde-Schwarz,ZNB20-2Port,1311601062101988,3.16
! Created: UTC 3/20/2024, 11:44:20 AM
! freq[Hz]                re:S11                  im:S11                  re:S21                  im:S21                  re:S12                  im:S12                  re:S22                  im:S22
 6.500971454000000E9    -4.272981687062020E-1   -3.077841268292293E-1   -1.485861214765800E-2    3.040995089378082E-2   -1.313780895509755E-2    3.051409869816545E-2   -4.906135226548579E-1   -1.519950009778137E-1
 6.500983900150000E9    -4.279074934017617E-1   -3.069587695019677E-1   -1.481797215012081E-2    3.059122462801946E-2   -1.320613322485724E-2    3.064499587773135E-2   -4.908121140602832E-1   -1.508787682660351E-1
 6.500996346300000E9    -4.283022593378258E-1   -3.060416646254784E-1   -1.480687372897259E-2    3.083154905548631E-2   -1.318309438908713E-2    3.087130985919557E-2   -4.912033645012587E-1   -1.496678751817049E-1
 6.501008792450000E9    -4.289534810998299E-1   -3.052634179714135E-1   -1.485316949643198E-2    3.105259002318073E-2   -1.311057107166567E-2    3.111880114083628E-2   -4.914503844186714E-1   -1.485038597012673E-1
 6.501021238600000E9    -4.294953399853825E-1   -3.043748342592187E-1   -1.490934347471815E-2    3.116864319688592E-2   -1.315955164708825E-2    3.125510924950598E-2   -4.916933471456948E-1   -1.473280600843908E-1
 6.501033684750000E9    -4.301187914453570E-1   -3.035482689366226E-1   -1.484424534654844E-2    3.141176040715946E-2   -1.314916800261026E-2    3.145079430977653E-2   -4.920050671333080E-1   -1.461764564816542E-1
 6.501046130900000E9    -4.307257086569345E-1   -3.026299802698875E-1   -1.478054093028099E-2    3.150455481046491E-2   -1.314917794812212E-2    3.163793520711970E-2   -4.921980108804986E-1   -1.449615248130288E-1
 6.501058577050000E9    -4.311775932897177E-1   -3.017633307770326E-1   -1.500300256923750E-2    3.183641714751953E-2   -1.313481526316299E-2    3.178480405336104E-2   -4.923786302061004E-1   -1.436731963661886E-1
 6.501071023200000E9    -4.317645519985555E-1   -3.009903588596935E-1   -1.491665434746318E-2    3.195641229970503E-2   -1.317854892324965E-2    3.192054879106783E-2   -4.927081203028427E-1   -1.424956499862040E-1
 6.501083469350000E9    -4.323984419133934E-1   -3.000627079230807E-1   -1.486019847723097E-2    3.207989066493218E-2   -1.320537904071507E-2    3.213603163346185E-2   -4.932487138864466E-1   -1.412529248027494E-1
 6.501095915500000E9    -4.329761751262629E-1   -2.992099750845446E-1   -1.488349660891521E-2    3.244311600225643E-2   -1.312174049652426E-2    3.246730510453805E-2   -4.934339877179655E-1   -1.402644678314167E-1
 6.501108361650000E9    -4.335608280350738E-1   -2.983423049116987E-1   -1.487335784911452E-2    3.258340982739318E-2   -1.308190993562365E-2    3.260211656987225E-2   -4.936022921492405E-1   -1.390482633123437E-1
 6.501120807800000E9    -4.340175421899624E-1   -2.974333400195991E-1   -1.488453508229920E-2    3.268252178470392E-2   -1.307997857877668E-2    3.275263469162611E-2   -4.939397462415225E-1   -1.377617290653726E-1
 6.501133253950000E9    -4.345817121099282E-1   -2.966251068186802E-1   -1.489048041292580E-2    3.287976900278030E-2   -1.318392992323680E-2    3.288503006743515E-2   -4.940697793481260E-1   -1.364319597683625E-1
 6.501145700100000E9    -4.351901972638814E-1   -2.958230671488153E-1   -1.504546556633389E-2    3.316997597140428E-2   -1.311105728105417E-2    3.322142156825748E-2   -4.943131906978094E-1   -1.352264139976938E-1
 6.501158146250000E9    -4.358035437823518E-1   -2.948837576136507E-1   -1.491546395019609E-2    3.336606385189601E-2   -1.305690884489007E-2    3.337556663582450E-2   -4.946161751361268E-1   -1.339410950790829E-1
 6.501170592400000E9    -4.363297157445877E-1   -2.939545535520411E-1   -1.491192095116572E-2    3.364811930721337E-2   -1.308851161296939E-2    3.353481986753024E-2   -4.949681602277408E-1   -1.328368280672495E-1
 6.501183038550000E9    -4.369073310833681E-1   -2.930708687438111E-1   -1.492342442848292E-2    3.380343461533225E-2   -1.312078245262321E-2    3.379503622077568E-2   -4.949632717848162E-1   -1.315755878009485E-1
 6.501195484700000E9    -4.373712828655337E-1   -2.922251954387864E-1   -1.473884547261713E-2    3.405860658899936E-2   -1.297170019127642E-2    3.402849879148561E-2   -4.954150949413103E-1   -1.303986243408113E-1
 6.501207930850000E9    -4.379115116601804E-1   -2.912930435131072E-1   -1.493048268722256E-2    3.438784478663658E-2   -1.298014020472890E-2    3.423381244962601E-2   -4.956101536541695E-1   -1.289716029312831E-1
 6.501220377000000E9    -4.385738832350154E-1   -2.903636959407169E-1   -1.483612626617002E-2    3.452736836095613E-2   -1.299331500390529E-2    3.446546632260539E-2   -4.958532997116195E-1   -1.279598166396328E-1
 6.501232823150000E9    -4.390504305945969E-1   -2.895385525141438E-1   -1.481543917196727E-2    3.467393016132764E-2   -1.295758441379249E-2    3.465026484094703E-2   -4.961891097692631E-1   -1.264907549214875E-1
 6.501245269300000E9    -4.397174000073948E-1   -2.886769253569309E-1   -1.494177239524189E-2    3.484294132168920E-2   -1.293860638876064E-2    3.488516633047460E-2   -4.964662835903270E-1   -1.251813205324714E-1
 6.501257715450000E9    -4.401576641027771E-1   -2.878202672199451E-1   -1.491323293935184E-2    3.527256861623088E-2   -1.305029446460921E-2    3.514436904812432E-2   -4.965956006337492E-1   -1.239426049079545E-1
 6.501270161600000E9    -4.407666235547128E-1   -2.869419559362013E-1   -1.500570462412903E-2    3.546878156968568E-2   -1.299682861084219E-2    3.529599891853706E-2   -4.967198309402681E-1   -1.228391178100861E-1
 6.501282607750000E9    -4.412078690554227E-1   -2.860168873907459E-1   -1.487195633895274E-2    3.556513874997330E-2   -1.295612596675013E-2    3.553284530262475E-2   -4.971303388261282E-1   -1.214871677736052E-1
 6.501295053900000E9    -4.418336594764834E-1   -2.851859765713643E-1   -1.491878070705547E-2    3.588231778099383E-2   -1.289931762917113E-2    3.576759617669881E-2   -4.973468923060557E-1   -1.201466128963557E-1
 6.501307500050000E9    -4.423060206654466E-1   -2.841784831817318E-1   -1.491038201903689E-2    3.607516957544793E-2   -1.297410659363020E-2    3.597711891775216E-2   -4.975484392546077E-1   -1.190570182258835E-1
 6.501319946200000E9    -4.428358101972186E-1   -2.833739070801540E-1   -1.498082553735940E-2    3.624537335676115E-2   -1.301273782194400E-2    3.628912981949399E-2   -4.976397447759110E-1   -1.176726003026333E-1
 6.501332392350000E9    -4.433944717357601E-1   -2.824411352930437E-1   -1.476897134508220E-2    3.658661995877846E-2   -1.290423888962841E-2    3.651767934665543E-2   -4.979536284380022E-1   -1.163937690589640E-1
 6.501344838500000E9    -4.439898429575750E-1   -2.814934847094511E-1   -1.478170501682754E-2    3.686003942707826E-2   -1.298910116788618E-2    3.673067247019233E-2   -4.981407082492247E-1   -1.150599016356214E-1
 6.501357284650000E9    -4.444373431829038E-1   -2.806316132221659E-1   -1.489535849199971E-2    3.712320992023609E-2   -1.292144858381044E-2    3.688759784729657E-2   -4.983961188003894E-1   -1.138399617686492E-1
 6.501369730800000E9    -4.451084487001020E-1   -2.796549496576311E-1   -1.488391830127088E-2    3.740257099447723E-2   -1.290658690245666E-2    3.713065900180482E-2   -4.985777796448325E-1   -1.125988507556266E-1
 6.501382176950000E9    -4.455540613636793E-1   -2.787563065377681E-1   -1.481258338953180E-2    3.760997429970368E-2   -1.280769945740680E-2    3.742418657735518E-2   -4.986188556274953E-1   -1.112931437835990E-1
 6.501394623100000E9    -4.461079352828652E-1   -2.778654035566048E-1   -1.477907988202967E-2    3.776563094798972E-2   -1.288346355038589E-2    3.775154940686319E-2   -4.990068784696927E-1   -1.098899934851491E-1
 6.501407069250000E9    -4.468254604442436E-1   -2.769190648273147E-1   -1.468827851407445E-2    3.805713458873740E-2   -1.281888343021721E-2    3.795203266444151E-2   -4.992231143005720E-1   -1.085247255758763E-1
 6.501419515400000E9    -4.471179798233040E-1   -2.760187759971815E-1   -1.472423922849755E-2    3.816278866504431E-2   -1.271483726893941E-2    3.819869089597461E-2   -4.994929779382259E-1   -1.072598287646104E-1
 6.501431961550000E9    -4.478003288191097E-1   -2.750760483592016E-1   -1.484889418660008E-2    3.863450292200907E-2   -1.276619878473760E-2    3.850857624778272E-2   -4.995817814461330E-1   -1.058905131965137E-1
 6.501444407700000E9    -4.482186845973086E-1   -2.741596246558186E-1   -1.488256213922504E-2    3.878328894453373E-2   -1.276412257121720E-2    3.882798710448408E-2   -4.997519538209512E-1   -1.045122647512861E-1
 6.501456853850000E9    -4.488826791902766E-1   -2.732094769499695E-1   -1.491922636146784E-2    3.920417310538445E-2   -1.266851810412187E-2    3.909228039821278E-2   -4.999916439991742E-1   -1.032467756056275E-1
 6.501469300000000E9    -4.492937764004483E-1   -2.722929975061190E-1   -1.462728148674127E-2    3.936563713186503E-2   -1.259261244756568E-2    3.926402320087554E-2   -5.000749625703249E-1   -1.018698986200378E-1
 6.501481746150000E9    -4.498940030328009E-1   -2.712880996621396E-1   -1.468314439110555E-2    3.969472672197111E-2   -1.274229494566761E-2    3.953548265306751E-2   -5.002431514035384E-1   -1.004871606491572E-1
 6.501494192300000E9    -4.502873291433729E-1   -2.705279381996134E-1   -1.473273925772259E-2    4.003186882444363E-2   -1.263512451013114E-2    3.985688520826809E-2   -5.004126391843727E-1   -9.909919213610234E-2
 6.501506638450000E9    -4.509322569688590E-1   -2.694066284635981E-1   -1.461760014390561E-2    4.040293825816855E-2   -1.257597750447600E-2    4.007016188318552E-2   -5.006134158807191E-1   -9.775446778759381E-2
 6.501519084600000E9    -4.513919832009774E-1   -2.683685856810805E-1   -1.469930837212735E-2    4.063581313374886E-2   -1.263199309773572E-2    4.038544327407727E-2   -5.007960531481175E-1   -9.638344384312872E-2
 6.501531530750000E9    -4.519319445758822E-1   -2.675444837821617E-1   -1.482933726411349E-2    4.081340725838889E-2   -1.261990960922803E-2    4.073365244456744E-2   -5.008063489166666E-1   -9.507593559612727E-2
 6.501543976900000E9    -4.524012411492021E-1   -2.666710777806239E-1   -1.472835190897867E-2    4.111464300635373E-2   -1.254732261590821E-2    4.078927296219754E-2   -5.010979694315599E-1   -9.372806327305645E-2
 6.501556423050000E9    -4.530281706862802E-1   -2.656030794457196E-1   -1.473659228567106E-2    4.163598134248492E-2   -1.246431017391141E-2    4.120600026794072E-2   -5.011204662682133E-1   -9.222936173256054E-2
 6.501568869200000E9    -4.535058180444472E-1   -2.646609846195991E-1   -1.465604586450000E-2    4.189173184185508E-2   -1.251547060362393E-2    4.155067134239418E-2   -5.012747255059095E-1   -9.085694341565642E-2
 6.501581315350000E9    -4.539412173835025E-1   -2.637473617478475E-1   -1.448892893574629E-2    4.212754430716804E-2   -1.246867137109805E-2    4.173045797035597E-2   -5.016036610766151E-1   -8.943553137567796E-2
 6.501593761500000E9    -4.544689203368856E-1   -2.627875199654990E-1   -1.447706483871982E-2    4.239292516292418E-2   -1.248752524877350E-2    4.213636245124018E-2   -5.015397662747614E-1   -8.798600345048008E-2
 6.501606207650000E9    -4.549975524171724E-1   -2.618311722942203E-1   -1.450605620923694E-2    4.275639548173104E-2   -1.236876656168465E-2    4.238666519593400E-2   -5.017649284070035E-1   -8.661636158920429E-2
 6.501618653800000E9    -4.554527960769606E-1   -2.607265925158995E-1   -1.454596729753857E-2    4.296182917091258E-2   -1.239422326547440E-2    4.274370243053915E-2   -5.018507749088349E-1   -8.506244928051442E-2
 6.501631099950000E9    -4.560780108629452E-1   -2.599163093036874E-1   -1.461247748779635E-2    4.330759402140143E-2   -1.231523965551538E-2    4.314057704161087E-2   -5.020878848296635E-1   -8.379953280444841E-2
 6.501643546100000E9    -4.565762198945434E-1   -2.589252416853570E-1   -1.463035586211655E-2    4.360969547664620E-2   -1.230480562695086E-2    4.338493248713924E-2   -5.020844114499974E-1   -8.240659452468943E-2
 6.501655992250000E9    -4.570552015131282E-1   -2.579654069309765E-1   -1.443268042801042E-2    4.401148472563801E-2   -1.224437106932478E-2    4.354086327630749E-2   -5.022112984707752E-1   -8.095155603812942E-2
 6.501668438400000E9    -4.574741557618197E-1   -2.569123398231570E-1   -1.451686871174469E-2    4.429056814270196E-2   -1.230195464094404E-2    4.397200308645190E-2   -5.024282449553433E-1   -7.945148571772354E-2
 6.501680884550000E9    -4.579882833332254E-1   -2.560123179109046E-1   -1.441675259262532E-2    4.473100491648654E-2   -1.211804137909432E-2    4.441928058335651E-2   -5.025590378033674E-1   -7.795318644932801E-2
 6.501693330700000E9    -4.585560329753133E-1   -2.548981941376107E-1   -1.441393732911076E-2    4.514159948482890E-2   -1.222725971122117E-2    4.467155378683445E-2   -5.026205764754719E-1   -7.638056846135124E-2
 6.501705776850000E9    -4.590754212423211E-1   -2.539019121992484E-1   -1.446324531613199E-2    4.535949436561579E-2   -1.211183164673551E-2    4.502944206455567E-2   -5.026469558563005E-1   -7.496961052336031E-2
 6.501718223000000E9    -4.594209112065994E-1   -2.529706571644779E-1   -1.453866476574903E-2    4.584749183530586E-2   -1.207716494928985E-2    4.536082168539526E-2   -5.027451707342412E-1   -7.345654206709644E-2
 6.501730669150000E9    -4.599615222063281E-1   -2.520995326519853E-1   -1.445728047828615E-2    4.617850375615899E-2   -1.197589385918442E-2    4.570593722595941E-2   -5.029454827510359E-1   -7.206881997834207E-2
 6.501743115300000E9    -4.604502624801308E-1   -2.509889816207747E-1   -1.427679476698512E-2    4.656424493816844E-2   -1.196722405513742E-2    4.603003915603349E-2   -5.029946607052387E-1   -7.055433473296183E-2
 6.501755561450000E9    -4.609352975972675E-1   -2.499886981729780E-1   -1.421961958809064E-2    4.691355019004443E-2   -1.197803245972488E-2    4.652517695235346E-2   -5.031740814589648E-1   -6.907117395720906E-2
 6.501768007600000E9    -4.614936130045393E-1   -2.489919255460515E-1   -1.416725855851454E-2    4.714681853774683E-2   -1.184384475424759E-2    4.676476399106892E-2   -5.030471305053988E-1   -6.765896124453681E-2
 6.501780453750000E9    -4.619264017107239E-1   -2.479111961295330E-1   -1.433598991753392E-2    4.759941129840261E-2   -1.180404418301490E-2    4.719247306754738E-2   -5.031510584181289E-1   -6.587603586314207E-2
 6.501792899900000E9    -4.623334977401957E-1   -2.469492859842736E-1   -1.417091267849219E-2    4.798854947873168E-2   -1.187010380314723E-2    4.752633815886555E-2   -5.031557816083180E-1   -6.449508855934870E-2
 6.501805346050000E9    -4.629286863413452E-1   -2.460170653629128E-1   -1.433181676248545E-2    4.832487219342285E-2   -1.175540673025616E-2    4.789923207178366E-2   -5.033731016576497E-1   -6.292489864951105E-2
 6.501817792200000E9    -4.632928654489633E-1   -2.449307533712358E-1   -1.409084017123756E-2    4.884226147678401E-2   -1.180469842461671E-2    4.835010088158437E-2   -5.033394507778475E-1   -6.124811041192144E-2
 6.501830238350000E9    -4.638342762064774E-1   -2.438921121367100E-1   -1.416801148533656E-2    4.927758238611481E-2   -1.169220157355194E-2    4.862974120737010E-2   -5.034839173833465E-1   -5.982707339987696E-2
 6.501842684500000E9    -4.642876646779922E-1   -2.428336047806335E-1   -1.395131553737520E-2    4.948662655133930E-2   -1.162129969696626E-2    4.904920814724359E-2   -5.034032383785753E-1   -5.827792952159207E-2
 6.501855130650000E9    -4.647603509731004E-1   -2.418304782621452E-1   -1.398478738330847E-2    5.003646586296714E-2   -1.152615036016438E-2    4.952359827390366E-2   -5.035823528804582E-1   -5.658993721019525E-2
 6.501867576800000E9    -4.651406390251233E-1   -2.408173385892239E-1   -1.402337028220349E-2    5.036821337490872E-2   -1.150344272271948E-2    4.981514022977605E-2   -5.034825189821804E-1   -5.486598984357843E-2
 6.501880022950000E9    -4.656489835150289E-1   -2.397805068934419E-1   -1.402132945923502E-2    5.084785084777955E-2   -1.140449401608963E-2    5.030710396378098E-2   -5.035870720960417E-1   -5.335917575042668E-2
 6.501892469100000E9    -4.662191792346199E-1   -2.386991538478116E-1   -1.389273471470440E-2    5.118457406326205E-2   -1.145315706962613E-2    5.081835173519540E-2   -5.035382928573179E-1   -5.177194444723125E-2
 6.501904915250000E9    -4.664740025419051E-1   -2.377281182708262E-1   -1.382512803481054E-2    5.175733421879602E-2   -1.133206735325161E-2    5.113516328669458E-2   -5.035019552794081E-1   -5.011053678430021E-2
 6.501917361400000E9    -4.671191514697078E-1   -2.366086525187678E-1   -1.382659848658810E-2    5.224110289250076E-2   -1.119189053828122E-2    5.150917969494159E-2   -5.035462725727475E-1   -4.846902733391515E-2
 6.501929807550000E9    -4.675647143524637E-1   -2.355886288257960E-1   -1.367700145232319E-2    5.259295938179166E-2   -1.114235045290472E-2    5.196092285761603E-2   -5.035866559018788E-1   -4.678531847780620E-2
 6.501942253700000E9    -4.680748746639098E-1   -2.344961554464245E-1   -1.369569463122343E-2    5.303026013786717E-2   -1.107661485956912E-2    5.239652278307873E-2   -5.035787784429230E-1   -4.520053967836957E-2
 6.501954699850000E9    -4.683564200153620E-1   -2.333398817924243E-1   -1.377118996139248E-2    5.349522363993639E-2   -1.099439161120425E-2    5.295360575289784E-2   -5.033935083489923E-1   -4.349831242101025E-2
 6.501967146000000E9    -4.689742872533454E-1   -2.323722291312595E-1   -1.360438041497872E-2    5.398620595781856E-2   -1.099309030607877E-2    5.332674809054097E-2   -5.033640306112256E-1   -4.177132686310091E-2
 6.501979592150000E9    -4.693838006519166E-1   -2.312574431514866E-1   -1.347339179107016E-2    5.439913808491137E-2   -1.087955804923699E-2    5.383134968031360E-2   -5.035658437301854E-1   -4.006550883833331E-2
 6.501992038300000E9    -4.698469924509872E-1   -2.301693433411582E-1   -1.342833901241224E-2    5.495759311216392E-2   -1.087351847465303E-2    5.427436898242732E-2   -5.033756605110928E-1   -3.851074782022297E-2
 6.502004484450000E9    -4.701778241570306E-1   -2.290436157592034E-1   -1.334833714657221E-2    5.554085761312951E-2   -1.066844321980671E-2    5.474930481209248E-2   -5.033884814334135E-1   -3.667864721405609E-2
 6.502016930600000E9    -4.706911814579129E-1   -2.279480412198746E-1   -1.323503208957125E-2    5.588337245841339E-2   -1.062753047936182E-2    5.520398006058674E-2   -5.032980950855358E-1   -3.490221200327696E-2
 6.502029376750000E9    -4.712955849044126E-1   -2.268953431538695E-1   -1.325475708880792E-2    5.639219005524306E-2   -1.045892922174033E-2    5.583146352269401E-2   -5.032868290172473E-1   -3.324397034579833E-2
 6.502041822900000E9    -4.715556843620470E-1   -2.257080461966727E-1   -1.305763671872346E-2    5.710018656166399E-2   -1.045650569181837E-2    5.627246337682234E-2   -5.031199170608031E-1   -3.133639096998202E-2
 6.502054269050000E9    -4.719219444785470E-1   -2.246483797889150E-1   -1.303656377699247E-2    5.749925726832039E-2   -1.043439572852867E-2    5.680069361968554E-2   -5.030135038370342E-1   -2.966701765493991E-2
 6.502066715200000E9    -4.724876473461795E-1   -2.235375735999016E-1   -1.285862793496616E-2    5.802754469610341E-2   -1.026229089007328E-2    5.729540427174511E-2   -5.029166157352289E-1   -2.777116879553867E-2
 6.502079161350000E9    -4.728623096057086E-1   -2.224454474612894E-1   -1.287184613553748E-2    5.856298132088525E-2   -1.018855982972501E-2    5.779497383003277E-2   -5.027762963340773E-1   -2.604250405196927E-2
 6.502091607500000E9    -4.732638877339739E-1   -2.214012315931036E-1   -1.288277249007453E-2    5.917663284796524E-2   -1.002743437237326E-2    5.836166269699191E-2   -5.027938712423228E-1   -2.433600728358731E-2
