#  HZ   S   RI   R     50.00 
! Rohde & Schwarz Vector Network Analyzer 
! Rohde-Schwarz,ZNB20-2Port,1311601062101988,3.16
! Created: UTC 3/20/2024, 11:44:42 AM
! freq[Hz]                re:S11                  im:S11                  re:S21                  im:S21                  re:S12                  im:S12                  re:S22                  im:S22
 6.500960030000000E9    -4.268065766651038E-1   -3.084644292608000E-1   -1.485024413021265E-2    3.030338040110126E-2   -1.323482494202945E-2    3.048806196358013E-2   -4.900863303574157E-1   -1.530880744909766E-1
 6.500972514450000E9    -4.272073132897312E-1   -3.076061561472237E-1   -1.502174686070473E-2    3.046718748155314E-2   -1.323520192186801E-2    3.058906408000959E-2   -4.905738716172775E-1   -1.519841400940146E-1
 6.500984998900000E9    -4.278936520687977E-1   -3.065971540713439E-1   -1.482216529602729E-2    3.072839864120187E-2   -1.316558198854739E-2    3.071781086103965E-2   -4.907726243851009E-1   -1.508531429540076E-1
 6.500997483350000E9    -4.283776836845701E-1   -3.059518090085203E-1   -1.484524112806436E-2    3.081409490115237E-2   -1.314700108743602E-2    3.100750933782668E-2   -4.909922954085842E-1   -1.496156306901271E-1
 6.501009967800000E9    -4.290117673453796E-1   -3.050177752599345E-1   -1.497310167238576E-2    3.109837410116663E-2   -1.309147102223157E-2    3.111522945222690E-2   -4.913985130395420E-1   -1.483239962104319E-1
 6.501022452250000E9    -4.295719579007616E-1   -3.042363222832011E-1   -1.486234414185548E-2    3.120658417743589E-2   -1.308311885706808E-2    3.123357598560386E-2   -4.917406143546563E-1   -1.471185049802034E-1
 6.501034936700000E9    -4.302111939059146E-1   -3.033880834704087E-1   -1.503191899708791E-2    3.163267992487503E-2   -1.312379856376101E-2    3.155503020749212E-2   -4.918629311328934E-1   -1.460354267834978E-1
 6.501047421150000E9    -4.307131365664579E-1   -3.024809272587872E-1   -1.488109807982577E-2    3.158897501827210E-2   -1.312314450736138E-2    3.152027305890169E-2   -4.923630317191133E-1   -1.448464077257218E-1
 6.501059905600000E9    -4.312953071781050E-1   -3.016466167816924E-1   -1.486311902217036E-2    3.188236925413514E-2   -1.310884347843950E-2    3.186955885646261E-2   -4.925433299746568E-1   -1.435427488790856E-1
 6.501072390050000E9    -4.319860398253652E-1   -3.007406329234352E-1   -1.488380436885370E-2    3.204254670803505E-2   -1.311191581315273E-2    3.209647109828190E-2   -4.928959296010531E-1   -1.423992429388119E-1
 6.501084874500000E9    -4.325454141551324E-1   -2.998102359040963E-1   -1.490324247105671E-2    3.219193020691528E-2   -1.302215830409364E-2    3.222946877082992E-2   -4.929979047028658E-1   -1.412647501548964E-1
 6.501097358950000E9    -4.330898882613932E-1   -2.989942277582829E-1   -1.484552744841603E-2    3.242817570777794E-2   -1.310401626102338E-2    3.246878735020775E-2   -4.932428492028255E-1   -1.399338991844453E-1
 6.501109843400000E9    -4.337154724241025E-1   -2.980704418046979E-1   -1.493298172937233E-2    3.275085713397178E-2   -1.313607356318854E-2    3.263638331604531E-2   -4.936767941263387E-1   -1.387752200741360E-1
 6.501122327850000E9    -4.342122827750151E-1   -2.971376301443290E-1   -1.487077898975701E-2    3.277736516264568E-2   -1.310425216047402E-2    3.286422421277457E-2   -4.939094759588705E-1   -1.376666885716679E-1
 6.501134812300000E9    -4.347056587293754E-1   -2.964555598773410E-1   -1.478020212132820E-2    3.298816752600109E-2   -1.306679663418990E-2    3.306486901203318E-2   -4.940002301022481E-1   -1.363430799617023E-1
 6.501147296750000E9    -4.352788395696513E-1   -2.955632407710153E-1   -1.503828903175648E-2    3.328406918932500E-2   -1.311841036459172E-2    3.337693935058003E-2   -4.943422717077628E-1   -1.351898784536356E-1
 6.501159781200000E9    -4.357716482322936E-1   -2.946274062154588E-1   -1.492812703963851E-2    3.351419582034234E-2   -1.305242311607822E-2    3.347558382392878E-2   -4.946588278621555E-1   -1.339829093428436E-1
 6.501172265650000E9    -4.364805558110341E-1   -2.937681822494007E-1   -1.479074722671508E-2    3.375219839040031E-2   -1.310807227069036E-2    3.361107315723735E-2   -4.948203545323405E-1   -1.326183555128108E-1
 6.501184750100000E9    -4.369733606896145E-1   -2.928504347954081E-1   -1.506249122218501E-2    3.392302403328463E-2   -1.301683143922649E-2    3.383870669458564E-2   -4.950446036623138E-1   -1.313620379501864E-1
 6.501197234550000E9    -4.375792074687436E-1   -2.920650274559876E-1   -1.479634942869940E-2    3.405850199156030E-2   -1.300330511210521E-2    3.409384107288528E-2   -4.953508632135629E-1   -1.301637519771423E-1
 6.501209719000000E9    -4.381250690377375E-1   -2.910807795059678E-1   -1.494119242913926E-2    3.428702208450531E-2   -1.290748253642937E-2    3.434257008296154E-2   -4.955530905629964E-1   -1.290388218799290E-1
 6.501222203450000E9    -4.386865589286446E-1   -2.902457311574627E-1   -1.499418569398739E-2    3.463636463217163E-2   -1.304829368354953E-2    3.454053639016331E-2   -4.959087554274588E-1   -1.275922681272697E-1
 6.501234687900000E9    -4.392061809073148E-1   -2.892215276969903E-1   -1.489152054806512E-2    3.482041257389464E-2   -1.306098664887520E-2    3.472761422633006E-2   -4.961841765127271E-1   -1.264364060759047E-1
 6.501247172350000E9    -4.397701026511689E-1   -2.884968729035426E-1   -1.500965792207020E-2    3.497663549400114E-2   -1.304162471247533E-2    3.486384904529834E-2   -4.963651146057851E-1   -1.250947664448036E-1
 6.501259656800000E9    -4.403037086936967E-1   -2.875263560544210E-1   -1.502686249048409E-2    3.528656112871337E-2   -1.295689901482231E-2    3.510141833778969E-2   -4.966054148143742E-1   -1.238163564484401E-1
 6.501272141250000E9    -4.408420303114604E-1   -2.866841063462320E-1   -1.484216631983242E-2    3.547443330778010E-2   -1.296071803012669E-2    3.543266180035890E-2   -4.967405496097471E-1   -1.225740082593550E-1
 6.501284625700000E9    -4.413087038904362E-1   -2.857977642894301E-1   -1.493605684632757E-2    3.557974083637362E-2   -1.304091085152612E-2    3.566354805368111E-2   -4.969912272601916E-1   -1.214301174513302E-1
 6.501297110150000E9    -4.420917517176625E-1   -2.847670669358665E-1   -1.499309777009779E-2    3.587892815240079E-2   -1.288990444236332E-2    3.598390267292959E-2   -4.972899660508666E-1   -1.200196960983352E-1
 6.501309594600000E9    -4.425495228279707E-1   -2.839265009149187E-1   -1.489748021004859E-2    3.618201706771240E-2   -1.291559453879035E-2    3.613354280974625E-2   -4.975277733008741E-1   -1.186310574407254E-1
 6.501322079050000E9    -4.431407151203777E-1   -2.829969708264162E-1   -1.499457296681965E-2    3.636114460292889E-2   -1.289561068660018E-2    3.626560960468363E-2   -4.976496731096267E-1   -1.174121058262832E-1
 6.501334563500000E9    -4.437482718296629E-1   -2.821294246482549E-1   -1.471618954406694E-2    3.674784205700388E-2   -1.290493243738688E-2    3.658692876333504E-2   -4.979273396310522E-1   -1.162064430557933E-1
 6.501347047950000E9    -4.442420329621423E-1   -2.811080138115289E-1   -1.483616207777586E-2    3.687720903701723E-2   -1.282654996028834E-2    3.675656241426466E-2   -4.982648158852329E-1   -1.147503600275918E-1
 6.501359532400000E9    -4.446478674473496E-1   -2.802626192873687E-1   -1.483339457515126E-2    3.716500557174084E-2   -1.284545678105337E-2    3.711393709269951E-2   -4.984193298364269E-1   -1.135702488319838E-1
 6.501372016850000E9    -4.452235065919666E-1   -2.793697907145810E-1   -1.478978495537667E-2    3.735235436250094E-2   -1.283833748728139E-2    3.735143900014335E-2   -4.985864427902116E-1   -1.123335254362004E-1
 6.501384501300000E9    -4.457337708292237E-1   -2.783740321120908E-1   -1.494269204717581E-2    3.765010919228420E-2   -1.284114625866210E-2    3.753052570047366E-2   -4.987888212432804E-1   -1.109469955164998E-1
 6.501396985750000E9    -4.463151949667455E-1   -2.775474247650680E-1   -1.478202592902522E-2    3.790534511281878E-2   -1.275991882261385E-2    3.779825953230465E-2   -4.990791059673660E-1   -1.096098616857329E-1
 6.501409470200000E9    -4.468779098528891E-1   -2.767360447918125E-1   -1.476859579452014E-2    3.813891540204355E-2   -1.273055992909210E-2    3.809417790115419E-2   -4.991510541435961E-1   -1.084158633869065E-1
 6.501421954650000E9    -4.474916389951888E-1   -2.756208317612539E-1   -1.475006337791473E-2    3.842094752621785E-2   -1.280635105819672E-2    3.833546137992291E-2   -4.992420897539263E-1   -1.068594117760720E-1
 6.501434439100000E9    -4.478820340303957E-1   -2.747543787737967E-1   -1.482451750049412E-2    3.883339010407619E-2   -1.272069601459084E-2    3.855735874551983E-2   -4.994542420533412E-1   -1.057590903677317E-1
 6.501446923550000E9    -4.483864653514070E-1   -2.737885095017083E-1   -1.485191861780919E-2    3.893755748629672E-2   -1.273661610255468E-2    3.882186713148243E-2   -4.997776762009727E-1   -1.042381835484254E-1
 6.501459408000000E9    -4.489343616360681E-1   -2.727834180971215E-1   -1.475367300173516E-2    3.924478860551052E-2   -1.270947693600819E-2    3.910310513459184E-2   -4.999097137447131E-1   -1.030616786363236E-1
 6.501471892450000E9    -4.494291342186562E-1   -2.719415268506332E-1   -1.471773056790334E-2    3.967396657347607E-2   -1.263982378638959E-2    3.926796964636303E-2   -5.000341307145015E-1   -1.016642874357629E-1
 6.501484376900000E9    -4.500577686610441E-1   -2.709813985595800E-1   -1.485499434096785E-2    3.990116046288203E-2   -1.267437356084646E-2    3.968232088724721E-2   -5.003098646030651E-1   -1.002794069936587E-1
 6.501496861350000E9    -4.504683372049560E-1   -2.701020319305127E-1   -1.467505358924233E-2    4.021909305051274E-2   -1.269439993805935E-2    3.996005012267340E-2   -5.002993550171392E-1   -9.879709301080593E-2
 6.501509345800000E9    -4.509114087203043E-1   -2.690711299649544E-1   -1.473072120969930E-2    4.048840524581296E-2   -1.258614281356524E-2    4.028321250366023E-2   -5.007264420345220E-1   -9.740185953621047E-2
 6.501521830250000E9    -4.515374445993307E-1   -2.681959602019973E-1   -1.473001105377702E-2    4.073808577517655E-2   -1.258604417296189E-2    4.052147628484409E-2   -5.007068876655071E-1   -9.621442869489825E-2
 6.501534314700000E9    -4.520153680253677E-1   -2.672541456494676E-1   -1.473270389636205E-2    4.098504905347228E-2   -1.254194394416923E-2    4.079456032979360E-2   -5.008547060116662E-1   -9.450594659270906E-2
 6.501546799150000E9    -4.525963285439384E-1   -2.661527899743490E-1   -1.473749531794729E-2    4.133663207123944E-2   -1.259029835059582E-2    4.101648387488611E-2   -5.010790133072304E-1   -9.315387739035891E-2
 6.501559283600000E9    -4.530797837105064E-1   -2.653463669304253E-1   -1.470688170722048E-2    4.167885263160513E-2   -1.250133806139932E-2    4.131506064312178E-2   -5.011644783510559E-1   -9.177824192518151E-2
 6.501571768050000E9    -4.535811216675536E-1   -2.643046027372939E-1   -1.473850682442042E-2    4.192145131271457E-2   -1.239462137590812E-2    4.164783393104464E-2   -5.013927136564418E-1   -9.056635635871334E-2
 6.501584252500000E9    -4.541512580720119E-1   -2.633821904724362E-1   -1.454935392920297E-2    4.218110397256591E-2   -1.243869133560458E-2    4.190484038410200E-2   -5.014645133885385E-1   -8.900631719848517E-2
 6.501596736950000E9    -4.546266070143432E-1   -2.624071458896671E-1   -1.458899350588527E-2    4.249545439057461E-2   -1.243720175112919E-2    4.228060602367789E-2   -5.016782675345278E-1   -8.774311977104278E-2
 6.501609221400000E9    -4.551822129057971E-1   -2.613496087404762E-1   -1.466421230961824E-2    4.285183283127298E-2   -1.243259818860005E-2    4.259614896146999E-2   -5.018370361570610E-1   -8.626542951118601E-2
 6.501621705850000E9    -4.556680377446808E-1   -2.604906227414369E-1   -1.468605567398610E-2    4.310843382007690E-2   -1.235109667170382E-2    4.285655990613604E-2   -5.018314347148017E-1   -8.491128577723775E-2
 6.501634190300000E9    -4.562031433510049E-1   -2.593972856126738E-1   -1.458472490856250E-2    4.342841117592593E-2   -1.236200199312166E-2    4.328492650921596E-2   -5.020932081001249E-1   -8.330211219474891E-2
 6.501646674750000E9    -4.566980388745215E-1   -2.585134696704482E-1   -1.456041482237186E-2    4.389970908366064E-2   -1.226424532023210E-2    4.353007191051159E-2   -5.022120094644740E-1   -8.190786029805490E-2
 6.501659159200000E9    -4.572236597264221E-1   -2.574884692962969E-1   -1.450899688194368E-2    4.409991732087434E-2   -1.234613521138945E-2    4.388055789838299E-2   -5.022426806175944E-1   -8.039219292697410E-2
 6.501671643650000E9    -4.576176801357665E-1   -2.565682272987959E-1   -1.450308561057199E-2    4.453063525546971E-2   -1.227501741707918E-2    4.419686031802497E-2   -5.023288637387860E-1   -7.919862211807131E-2
 6.501684128100000E9    -4.582049071695370E-1   -2.555787620479588E-1   -1.440067753295298E-2    4.488495181356432E-2   -1.220485046609647E-2    4.453804384788981E-2   -5.024031817143966E-1   -7.754918816635797E-2
 6.501696612550000E9    -4.586923227161057E-1   -2.546611631181617E-1   -1.442967660700697E-2    4.512927240646582E-2   -1.213686987886088E-2    4.484905451146475E-2   -5.025166126534201E-1   -7.612998753770606E-2
 6.501709097000000E9    -4.592273887681342E-1   -2.536279819190110E-1   -1.432277010374027E-2    4.567232114499838E-2   -1.214422712457366E-2    4.521858035751319E-2   -5.026087976747795E-1   -7.456555233326664E-2
 6.501721581450000E9    -4.595788719126557E-1   -2.526146852301284E-1   -1.438925302611130E-2    4.600289598573100E-2   -1.205794605175009E-2    4.557013256448407E-2   -5.026644493281052E-1   -7.313503955313772E-2
 6.501734065900000E9    -4.600510889752942E-1   -2.516929616159235E-1   -1.433340877206696E-2    4.637499760260931E-2   -1.211714886726961E-2    4.585028102539749E-2   -5.027701504740957E-1   -7.169568871412950E-2
 6.501746550350000E9    -4.606419806880963E-1   -2.505604454747175E-1   -1.440481037636275E-2    4.669167017577486E-2   -1.205848761520031E-2    4.625985327781797E-2   -5.029604803120870E-1   -7.023516184684778E-2
 6.501759034800000E9    -4.611767143572621E-1   -2.495483187560716E-1   -1.422464674429228E-2    4.709034274067454E-2   -1.197899855048678E-2    4.665172962236899E-2   -5.029733477038463E-1   -6.851850557174143E-2
 6.501771519250000E9    -4.615723456568114E-1   -2.485056960804663E-1   -1.425284656463652E-2    4.734469403667053E-2   -1.186077188813378E-2    4.699752161853257E-2   -5.030233811181383E-1   -6.709017680397023E-2
 6.501784003700000E9    -4.619788336072144E-1   -2.476154513331009E-1   -1.416171441917654E-2    4.783094047878134E-2   -1.179845445960483E-2    4.739823838057462E-2   -5.030573100365728E-1   -6.543314959774248E-2
 6.501796488150000E9    -4.624910979703676E-1   -2.463941692798069E-1   -1.428061802466496E-2    4.821142956580256E-2   -1.177377199860524E-2    4.769446531825072E-2   -5.032413002276345E-1   -6.397748397303399E-2
 6.501808972600000E9    -4.629984713701303E-1   -2.454749355002060E-1   -1.417153456655314E-2    4.858282144214146E-2   -1.171301234495039E-2    4.813900942814281E-2   -5.032846700916691E-1   -6.237126385450681E-2
 6.501821457050000E9    -4.634829954586996E-1   -2.443922005623856E-1   -1.423818815543758E-2    4.890434777845016E-2   -1.166111819181382E-2    4.845750319867432E-2   -5.032574250809440E-1   -6.077556167948562E-2
 6.501833941500000E9    -4.639783085514198E-1   -2.434443561863732E-1   -1.417659377390698E-2    4.934532362534036E-2   -1.163968307329759E-2    4.883502192636630E-2   -5.033212868200666E-1   -5.930201648705056E-2
 6.501846425950000E9    -4.645309465607228E-1   -2.423556185024919E-1   -1.400572927514217E-2    4.999046888817401E-2   -1.149865074159546E-2    4.923384122646090E-2   -5.033928430223414E-1   -5.761680871119889E-2
 6.501858910400000E9    -4.648870397900755E-1   -2.413369235646045E-1   -1.402318631539606E-2    5.023483635518575E-2   -1.146588561904424E-2    4.972088860634103E-2   -5.033309295820366E-1   -5.608281181682133E-2
 6.501871394850000E9    -4.654320723229118E-1   -2.402518969643439E-1   -1.405973344928114E-2    5.061871793088674E-2   -1.147548451704112E-2    5.015433412963378E-2   -5.033866479405745E-1   -5.443192143983755E-2
 6.501883879300000E9    -4.659345267249153E-1   -2.392094450095972E-1   -1.388993530481873E-2    5.097499833702870E-2   -1.139223189954718E-2    5.049930103440595E-2   -5.033426163880879E-1   -5.278628254693393E-2
 6.501896363750000E9    -4.662864720968470E-1   -2.381866019840433E-1   -1.377906151254329E-2    5.159575900421376E-2   -1.131236494247140E-2    5.102348654692181E-2   -5.034627764254908E-1   -5.130979761707779E-2
 6.501908848200000E9    -4.667103210277523E-1   -2.370745899471600E-1   -1.369954155831356E-2    5.197080085171675E-2   -1.131130490213435E-2    5.133891083096755E-2   -5.034281822643266E-1   -4.955221832950615E-2
 6.501921332650000E9    -4.672566507020807E-1   -2.361197498001598E-1   -1.393056143134013E-2    5.255795352900055E-2   -1.117773188820603E-2    5.178964446066458E-2   -5.035126278198850E-1   -4.794289430614016E-2
 6.501933817100000E9    -4.677076446426764E-1   -2.349549275898169E-1   -1.368204003667798E-2    5.286337259979700E-2   -1.110286488630337E-2    5.230315567478015E-2   -5.034509184264092E-1   -4.619244683581099E-2
 6.501946301550000E9    -4.681817522877517E-1   -2.338620748135530E-1   -1.361456943746210E-2    5.336961621993584E-2   -1.107547848195189E-2    5.264125464999813E-2   -5.033229397243211E-1   -4.464250456918775E-2
 6.501958786000000E9    -4.686851660588657E-1   -2.328810351889302E-1   -1.360007626003988E-2    5.369132827537666E-2   -1.103669346318359E-2    5.325618957029710E-2   -5.034799858154434E-1   -4.286869500172561E-2
 6.501971270450000E9    -4.691163541249127E-1   -2.318609976947842E-1   -1.352046977698133E-2    5.423569051709837E-2   -1.099244091726933E-2    5.361442627306754E-2   -5.033545819248537E-1   -4.114746595525301E-2
 6.501983754900000E9    -4.694684712862767E-1   -2.307684223602018E-1   -1.351794613618358E-2    5.473494319890017E-2   -1.079676794998027E-2    5.413444457732480E-2   -5.033992559196199E-1   -3.955825697297721E-2
 6.501996239350000E9    -4.700068306929552E-1   -2.295483635878617E-1   -1.336184693158607E-2    5.525910100317453E-2   -1.065927540999761E-2    5.460274812872080E-2   -5.032852723636746E-1   -3.769504824190845E-2
 6.502008723800000E9    -4.703417594780673E-1   -2.285981584060388E-1   -1.316430730509713E-2    5.574549221950994E-2   -1.060900192069564E-2    5.513327195456447E-2   -5.030966001252144E-1   -3.586745660045842E-2
 6.502021208250000E9    -4.708330370851206E-1   -2.273354905130451E-1   -1.326645153080983E-2    5.626037690263126E-2   -1.060944139097351E-2    5.559082744972935E-2   -5.031624626477653E-1   -3.426401874606864E-2
 6.502033692700000E9    -4.712774502283490E-1   -2.262588751347269E-1   -1.321949081274860E-2    5.676439023956580E-2   -1.049825111368961E-2    5.601785134512666E-2   -5.031433966028718E-1   -3.249084827041721E-2
 6.502046177150000E9    -4.717416768009863E-1   -2.251712265638400E-1   -1.310276262986092E-2    5.730942560826122E-2   -1.038532222343896E-2    5.660582092002816E-2   -5.029217712912998E-1   -3.063679511832449E-2
 6.502058661600000E9    -4.722674839526504E-1   -2.241119141510940E-1   -1.288922628524694E-2    5.788999685518311E-2   -1.025528315386255E-2    5.711058601810253E-2   -5.029787447227759E-1   -2.887340959533697E-2
 6.502071146050000E9    -4.726752782731328E-1   -2.230052215664910E-1   -1.296391309115466E-2    5.843767258871794E-2   -1.019200103598779E-2    5.767031864245128E-2   -5.027840120540085E-1   -2.706691931118797E-2
 6.502083630500000E9    -4.729679327498175E-1   -2.219156539861214E-1   -1.279272204633683E-2    5.901353108847568E-2   -1.008303581031242E-2    5.817667222139572E-2   -5.025812770366267E-1   -2.521630979116598E-2
