#  HZ   S   RI   R     50.00 
! Rohde & Schwarz Vector Network Analyzer 
! Rohde-Schwarz,ZNB20-2Port,1311601062101988,3.16
! Created: UTC 3/20/2024, 11:44:54 AM
! freq[Hz]                re:S11                  im:S11                  re:S21                  im:S21                  re:S12                  im:S12                  re:S22                  im:S22
 6.500954271000000E9    -4.265321274027550E-1   -3.087525873999002E-1   -1.495027932472970E-2    3.028619966370480E-2   -1.320983016363115E-2    3.034827363464421E-2   -4.900221046030646E-1   -1.537556831031630E-1
 6.500966775050000E9    -4.271399256394224E-1   -3.079666549880332E-1   -1.501754091169694E-2    3.043817656460956E-2   -1.317019551633864E-2    3.048288849623140E-2   -4.902848885039436E-1   -1.524683564099875E-1
 6.500979279100000E9    -4.276950818406715E-1   -3.070411258005780E-1   -1.487699299693651E-2    3.058903466410608E-2   -1.306673216144982E-2    3.067471113234088E-2   -4.905925617721016E-1   -1.514458699717349E-1
 6.500991783150000E9    -4.283391754072786E-1   -3.060911420064739E-1   -1.493316795663190E-2    3.077518506547045E-2   -1.317880272282920E-2    3.083868325277829E-2   -4.909475694954524E-1   -1.501824733539411E-1
 6.501004287200000E9    -4.288094591945140E-1   -3.053971309555824E-1   -1.488557798191286E-2    3.096038458014575E-2   -1.313194773149426E-2    3.109082091198307E-2   -4.911955906043996E-1   -1.489709781502262E-1
 6.501016791250000E9    -4.295188366459870E-1   -3.045254011362201E-1   -1.494472367466192E-2    3.124437769799621E-2   -1.318180150439257E-2    3.125367621597189E-2   -4.914837940644943E-1   -1.478511675941791E-1
 6.501029295300000E9    -4.300002239776273E-1   -3.036114080102708E-1   -1.482744751609941E-2    3.131271934042720E-2   -1.307828906183235E-2    3.138683123050755E-2   -4.917236524370779E-1   -1.465229361376481E-1
 6.501041799350000E9    -4.305040757567796E-1   -3.028280654310448E-1   -1.481047299987678E-2    3.158025371576818E-2   -1.319471320670604E-2    3.169173833026730E-2   -4.922148934548415E-1   -1.453839197343256E-1
 6.501054303400000E9    -4.311095629092945E-1   -3.018267948661236E-1   -1.491724053560437E-2    3.165147346023111E-2   -1.304545316912434E-2    3.179962898567791E-2   -4.923492399902450E-1   -1.442764691815291E-1
 6.501066807450000E9    -4.316603541554562E-1   -3.010758638461050E-1   -1.484820761233210E-2    3.206800408506110E-2   -1.318190064271535E-2    3.198607105526177E-2   -4.925785365666165E-1   -1.430336986071020E-1
 6.501079311500000E9    -4.323160040319432E-1   -3.003077020496375E-1   -1.493744948612920E-2    3.207009291187200E-2   -1.307203610205699E-2    3.221745023149893E-2   -4.929245070871845E-1   -1.416941184611038E-1
 6.501091815550000E9    -4.329200366590565E-1   -2.993152579226812E-1   -1.498174156988057E-2    3.235358344133955E-2   -1.310072911476077E-2    3.243384388838375E-2   -4.931426146836958E-1   -1.405190524696956E-1
 6.501104319600000E9    -4.334453132688117E-1   -2.984960555400117E-1   -1.493085364356611E-2    3.261140786299375E-2   -1.303447698193376E-2    3.260799088806116E-2   -4.935394483886260E-1   -1.393339157626553E-1
 6.501116823650000E9    -4.340029274179693E-1   -2.976033877887863E-1   -1.491207866533106E-2    3.280607298194183E-2   -1.297447121868666E-2    3.274478586137735E-2   -4.936995345524398E-1   -1.380067321212335E-1
 6.501129327700000E9    -4.345372640439248E-1   -2.966552250145861E-1   -1.494447521266545E-2    3.288471978821345E-2   -1.315705243099950E-2    3.298020274797079E-2   -4.939963172034027E-1   -1.368670792126023E-1
 6.501141831750000E9    -4.350921842280602E-1   -2.958159815516700E-1   -1.487725018009159E-2    3.321144981334433E-2   -1.313014785881473E-2    3.321707290244697E-2   -4.942118888441106E-1   -1.355676997153027E-1
 6.501154335800000E9    -4.357083187828147E-1   -2.948784550697541E-1   -1.480001609001104E-2    3.345698877282496E-2   -1.301704709791876E-2    3.337417218682357E-2   -4.944413338044136E-1   -1.343095362074974E-1
 6.501166839850000E9    -4.362901138040557E-1   -2.940173187733375E-1   -1.500437812535305E-2    3.364340890022282E-2   -1.309323051670730E-2    3.367963224160003E-2   -4.947572863218364E-1   -1.333196009671896E-1
 6.501179343900000E9    -4.368666603126295E-1   -2.931397259170017E-1   -1.484416705273650E-2    3.379310499714159E-2   -1.301928718426675E-2    3.385881635128041E-2   -4.949906008118816E-1   -1.318241856596792E-1
 6.501191847950000E9    -4.374222755310330E-1   -2.922400633831675E-1   -1.504603264539322E-2    3.399322164836834E-2   -1.305543421308404E-2    3.394265443041439E-2   -4.952406425598131E-1   -1.305896141574986E-1
 6.501204352000000E9    -4.378929877271668E-1   -2.914383624932950E-1   -1.500615399261228E-2    3.422363284638248E-2   -1.296367005319719E-2    3.422073210293630E-2   -4.954544491223923E-1   -1.294549114808046E-1
 6.501216856050000E9    -4.386548867542537E-1   -2.905429485446001E-1   -1.498914398660610E-2    3.450776320147208E-2   -1.304491153893955E-2    3.449835182991941E-2   -4.957007043728375E-1   -1.282991844399118E-1
 6.501229360100000E9    -4.390062504644951E-1   -2.896260851633290E-1   -1.498582265086860E-2    3.466969461215226E-2   -1.298559752283668E-2    3.469274501411693E-2   -4.959877601360547E-1   -1.269158077306960E-1
 6.501241864150000E9    -4.396599656729861E-1   -2.887519487998617E-1   -1.490182067837829E-2    3.507454384399227E-2   -1.301924199298105E-2    3.489920199207200E-2   -4.962562643432021E-1   -1.257297183434988E-1
 6.501254368200000E9    -4.402304239412556E-1   -2.878492198910008E-1   -1.494465857163386E-2    3.520964017356162E-2   -1.302179957185776E-2    3.513116721335867E-2   -4.964455533288523E-1   -1.244379408665592E-1
 6.501266872250000E9    -4.406498398786102E-1   -2.869714992557565E-1   -1.493308414279823E-2    3.535578658069043E-2   -1.294941992118536E-2    3.534824535487164E-2   -4.966198712659249E-1   -1.231512215145247E-1
 6.501279376300000E9    -4.413823618241481E-1   -2.859526865190548E-1   -1.479325180447511E-2    3.576007602246493E-2   -1.287922872407073E-2    3.558796867222081E-2   -4.968843374169459E-1   -1.217143594715242E-1
 6.501291880350000E9    -4.417676728168687E-1   -2.851409732818965E-1   -1.493781846587719E-2    3.584564913587531E-2   -1.297987523488964E-2    3.572180711270868E-2   -4.971335231187783E-1   -1.206640623255602E-1
 6.501304384400000E9    -4.423123472690279E-1   -2.841865416701626E-1   -1.498369819560285E-2    3.612594352652276E-2   -1.289557114112752E-2    3.607529266732349E-2   -4.973720275353947E-1   -1.192249742731222E-1
 6.501316888450000E9    -4.429675131153523E-1   -2.832871528159834E-1   -1.476526039131789E-2    3.641286819969090E-2   -1.286978104857124E-2    3.624381053617681E-2   -4.975010097618426E-1   -1.180799882700785E-1
 6.501329392500000E9    -4.433210963902939E-1   -2.823771436935089E-1   -1.484283075142635E-2    3.662481165446179E-2   -1.287156058921115E-2    3.656634970846370E-2   -4.977841875562878E-1   -1.166952865719186E-1
 6.501341896550000E9    -4.439764042899766E-1   -2.815410149383259E-1   -1.492026432091748E-2    3.690007669080309E-2   -1.289201502010917E-2    3.674147965019172E-2   -4.979917314336964E-1   -1.153224549718948E-1
 6.501354400600000E9    -4.444881482056055E-1   -2.805408676577458E-1   -1.494347961974045E-2    3.719619564336334E-2   -1.287162000790287E-2    3.695396824381616E-2   -4.982392970782893E-1   -1.141737927041668E-1
 6.501366904650000E9    -4.450086612817923E-1   -2.795683695082318E-1   -1.478184227195234E-2    3.742526997515129E-2   -1.285126558289981E-2    3.729486970482753E-2   -4.983695831219372E-1   -1.128440856014500E-1
 6.501379408700000E9    -4.455535315674307E-1   -2.787175710944116E-1   -1.479649177938144E-2    3.758437960679566E-2   -1.280258890574036E-2    3.743395205555610E-2   -4.986757130175110E-1   -1.114783521923442E-1
 6.501391912750000E9    -4.461432043259594E-1   -2.777333757292682E-1   -1.479456108933000E-2    3.788578939481425E-2   -1.288585726331996E-2    3.784063067799260E-2   -4.988695000388953E-1   -1.101679532405687E-1
 6.501404416800000E9    -4.466583089913322E-1   -2.768924955602677E-1   -1.483703436618558E-2    3.817512854348092E-2   -1.292102036607328E-2    3.803485253352850E-2   -4.989610019124106E-1   -1.087846156648527E-1
 6.501416920850000E9    -4.471039645652651E-1   -2.759058752761781E-1   -1.480949930182066E-2    3.838043321779023E-2   -1.276237924874190E-2    3.825932412805299E-2   -4.992381266519790E-1   -1.075199752838016E-1
 6.501429424900000E9    -4.476738514638555E-1   -2.749538182385026E-1   -1.482367926045291E-2    3.862208942576058E-2   -1.278538656598960E-2    3.844226323861597E-2   -4.994196602773295E-1   -1.061155890529466E-1
 6.501441928950000E9    -4.482419469195442E-1   -2.740777928350523E-1   -1.483124211217245E-2    3.879810028769974E-2   -1.271557317308611E-2    3.879135649596772E-2   -4.996126297626770E-1   -1.047644772409499E-1
 6.501454433000000E9    -4.487603076067680E-1   -2.730738917015458E-1   -1.474382959063569E-2    3.923152202774547E-2   -1.270285635688494E-2    3.907623239328594E-2   -4.997981888678446E-1   -1.034882550752141E-1
 6.501466937050000E9    -4.492548894970608E-1   -2.722464041747418E-1   -1.473505373732964E-2    3.953624532475131E-2   -1.270514931305547E-2    3.932930144383747E-2   -4.999330445250703E-1   -1.020820392291696E-1
 6.501479441100000E9    -4.498190629037497E-1   -2.712155265660082E-1   -1.475384103811250E-2    3.968568620591311E-2   -1.259992213565617E-2    3.955942794966514E-2   -5.000524912662148E-1   -1.007161759650433E-1
 6.501491945150000E9    -4.502852624058845E-1   -2.703867736915017E-1   -1.475618598503700E-2    4.004213547470442E-2   -1.268308167436860E-2    3.985263350441071E-2   -5.003157069870913E-1   -9.930732529483859E-2
 6.501504449200000E9    -4.507997124866282E-1   -2.693341582499567E-1   -1.479227449697374E-2    4.037309326858572E-2   -1.258538616257737E-2    4.018057326197021E-2   -5.004165858234542E-1   -9.791045374172903E-2
 6.501516953250000E9    -4.514456496418686E-1   -2.683661235996493E-1   -1.475572186274117E-2    4.050408141231627E-2   -1.262086023419539E-2    4.056568902368896E-2   -5.006337468273252E-1   -9.671594232801392E-2
 6.501529457300000E9    -4.519975805468762E-1   -2.675528742166747E-1   -1.477704291345898E-2    4.105136469828889E-2   -1.262310913712724E-2    4.077683284247290E-2   -5.008197895092645E-1   -9.521580875135618E-2
 6.501541961350000E9    -4.524632456174338E-1   -2.664928043132123E-1   -1.483167719280350E-2    4.102445368230637E-2   -1.255700130614965E-2    4.102626498296279E-2   -5.009786012809494E-1   -9.379515035451094E-2
 6.501554465400000E9    -4.528569222179213E-1   -2.655279253160397E-1   -1.465287403193772E-2    4.146676401198079E-2   -1.250365813444896E-2    4.129073206362600E-2   -5.010279363170583E-1   -9.241249378193341E-2
 6.501566969450000E9    -4.534939328361285E-1   -2.645073381150809E-1   -1.462412201985779E-2    4.186427794166732E-2   -1.255790571371233E-2    4.170280478805619E-2   -5.012212977459901E-1   -9.101904118532324E-2
 6.501579473500000E9    -4.539672938846366E-1   -2.636121349839797E-1   -1.474829461572205E-2    4.215970289837382E-2   -1.252172903079852E-2    4.184024133012348E-2   -5.013112499132808E-1   -8.947163614202489E-2
 6.501591977550000E9    -4.545294858293986E-1   -2.627022571443118E-1   -1.475359839680545E-2    4.241129105173817E-2   -1.241300206574535E-2    4.219744804115012E-2   -5.015634799177653E-1   -8.810230741010228E-2
 6.501604481600000E9    -4.549786603124586E-1   -2.616279233046179E-1   -1.459845398890335E-2    4.287877656721682E-2   -1.250203186039397E-2    4.254940394565881E-2   -5.015439006303980E-1   -8.690100135564614E-2
 6.501616985650000E9    -4.555150232202056E-1   -2.608241515098392E-1   -1.461631334906392E-2    4.312253414960362E-2   -1.238669650746052E-2    4.288254028680921E-2   -5.019341336999465E-1   -8.522733135789246E-2
 6.501629489700000E9    -4.559707885660884E-1   -2.597489178914734E-1   -1.453798737813915E-2    4.341675950805380E-2   -1.232349339386253E-2    4.311183401505467E-2   -5.018408831800872E-1   -8.380454529006776E-2
 6.501641993750000E9    -4.565511575035242E-1   -2.587891290657148E-1   -1.457542701281478E-2    4.385411125328120E-2   -1.221984087447881E-2    4.344242445537150E-2   -5.019573598635290E-1   -8.243437643119209E-2
 6.501654497800000E9    -4.570962889934724E-1   -2.577141742078432E-1   -1.459478183401409E-2    4.401741550917246E-2   -1.221033713674135E-2    4.381274076466762E-2   -5.021399168601921E-1   -8.104865213231865E-2
 6.501667001850000E9    -4.575803225944349E-1   -2.567493341356085E-1   -1.444937545319597E-2    4.444195226938252E-2   -1.228996321452382E-2    4.413800906643178E-2   -5.022607335539767E-1   -7.945905555412977E-2
 6.501679505900000E9    -4.580226210256781E-1   -2.559690783485959E-1   -1.451662886483879E-2    4.473304739297759E-2   -1.216054551346728E-2    4.456645770317674E-2   -5.022914208379249E-1   -7.804529633465937E-2
 6.501692009950000E9    -4.585335737349800E-1   -2.547636269597964E-1   -1.445023079871867E-2    4.527144225702388E-2   -1.211933444347531E-2    4.472741894127605E-2   -5.024366930216320E-1   -7.660148161046038E-2
 6.501704514000000E9    -4.589513595296357E-1   -2.538003965564475E-1   -1.446099870848003E-2    4.542677735462137E-2   -1.219007088830673E-2    4.513696252450876E-2   -5.026827650275418E-1   -7.515588338470836E-2
 6.501717018050000E9    -4.595742325832649E-1   -2.528030040213967E-1   -1.441565615834188E-2    4.573430201426085E-2   -1.205869520210003E-2    4.554999472039029E-2   -5.026236960251389E-1   -7.359212759044095E-2
 6.501729522100000E9    -4.600966088915801E-1   -2.517965748894779E-1   -1.441161127353272E-2    4.619727174079066E-2   -1.201810969124048E-2    4.578212625785531E-2   -5.025828053621357E-1   -7.200322488919650E-2
 6.501742026150000E9    -4.604573856995002E-1   -2.508064412169660E-1   -1.437611802937962E-2    4.643150935388691E-2   -1.193622109490422E-2    4.617661887697623E-2   -5.028132924063180E-1   -7.052369554618032E-2
 6.501754530200000E9    -4.609064529992629E-1   -2.497203193232408E-1   -1.423914446066350E-2    4.690774305582989E-2   -1.196054693290680E-2    4.655538817738260E-2   -5.029015467443557E-1   -6.897425999393142E-2
 6.501767034250000E9    -4.614254248972035E-1   -2.487251370705328E-1   -1.434851988564777E-2    4.737730464234578E-2   -1.187627621503248E-2    4.690810175686064E-2   -5.031028121869399E-1   -6.740560809977546E-2
 6.501779538300000E9    -4.619154226133751E-1   -2.477648505930627E-1   -1.416028863176809E-2    4.759801936040674E-2   -1.184517974350760E-2    4.717596995127446E-2   -5.030932274996794E-1   -6.600096281711466E-2
 6.501792042350000E9    -4.625747584158425E-1   -2.468154518133395E-1   -1.424226671106465E-2    4.802656726567446E-2   -1.175453719219570E-2    4.771265403756329E-2   -5.030864132777507E-1   -6.456864041289440E-2
 6.501804546400000E9    -4.629290509309581E-1   -2.457129806634436E-1   -1.431834152242783E-2    4.854249087425784E-2   -1.173187674460855E-2    4.805992872726558E-2   -5.031365607818250E-1   -6.285240090113521E-2
 6.501817050450000E9    -4.633683734653498E-1   -2.446237497858996E-1   -1.421432110779727E-2    4.891233221044877E-2   -1.171777041579555E-2    4.832942042876770E-2   -5.032799460295542E-1   -6.132352832925817E-2
 6.501829554500000E9    -4.639162118376569E-1   -2.437025873224716E-1   -1.408137651304828E-2    4.921948973146503E-2   -1.163518550052232E-2    4.881811423595534E-2   -5.033710315806846E-1   -5.978398663828677E-2
 6.501842058550000E9    -4.644680707671621E-1   -2.425631746237801E-1   -1.403630023208521E-2    4.967140586337863E-2   -1.154964990554232E-2    4.927871484952357E-2   -5.032473447163334E-1   -5.814831873454565E-2
 6.501854562600000E9    -4.648901099115275E-1   -2.416515014774331E-1   -1.415576490580315E-2    4.999668282908688E-2   -1.149760673598443E-2    4.960601315828824E-2   -5.033335787987938E-1   -5.655747025241611E-2
 6.501867066650000E9    -4.653688768982537E-1   -2.405425043858702E-1   -1.401999997055004E-2    5.063093304665334E-2   -1.140909421459141E-2    4.994710084472862E-2   -5.033162253763589E-1   -5.499508266507626E-2
 6.501879570700000E9    -4.657384444774026E-1   -2.394963271203637E-1   -1.390824048744977E-2    5.097979222417118E-2   -1.133713571586983E-2    5.043001853372718E-2   -5.033919116282199E-1   -5.335138819991263E-2
 6.501892074750000E9    -4.662334685137206E-1   -2.385041594328828E-1   -1.385307533164401E-2    5.132991854084015E-2   -1.134250741249775E-2    5.085935430083631E-2   -5.035820135226151E-1   -5.185741663146672E-2
 6.501904578800000E9    -4.666306455560096E-1   -2.373510119509138E-1   -1.388594219835553E-2    5.192969670631375E-2   -1.127062760562835E-2    5.135987961144858E-2   -5.032937328339004E-1   -5.002699299706907E-2
 6.501917082850000E9    -4.670882932905225E-1   -2.363451767442264E-1   -1.373933955019922E-2    5.230626982648449E-2   -1.118658061409138E-2    5.173995781815442E-2   -5.034576146469838E-1   -4.841950389365495E-2
 6.501929586900000E9    -4.675972246872946E-1   -2.354123137898366E-1   -1.369772328716355E-2    5.278198528925750E-2   -1.114521997150404E-2    5.217884013882611E-2   -5.034128934520595E-1   -4.673783652115748E-2
 6.501942090950000E9    -4.680890381070286E-1   -2.342392190905423E-1   -1.360544404871688E-2    5.333083266763165E-2   -1.105457965336019E-2    5.268764770086255E-2   -5.032969819636927E-1   -4.498860347923642E-2
 6.501954595000000E9    -4.686696628189361E-1   -2.331922937520784E-1   -1.354364297185957E-2    5.374849528634734E-2   -1.097636038371158E-2    5.308692687175329E-2   -5.033912853302496E-1   -4.340116656165968E-2
 6.501967099050000E9    -4.689613579876122E-1   -2.320407986434015E-1   -1.353222624316728E-2    5.425724996315073E-2   -1.095069020009403E-2    5.353911193436127E-2   -5.032197041724373E-1   -4.154826830110360E-2
 6.501979603100000E9    -4.693745756750590E-1   -2.309373920755210E-1   -1.350362215926808E-2    5.473708495362808E-2   -1.074671467438903E-2    5.396097323583948E-2   -5.032957905793476E-1   -3.995796302672880E-2
 6.501992107150000E9    -4.698883434780591E-1   -2.298418230477323E-1   -1.332169253203538E-2    5.508998830267385E-2   -1.073106759909430E-2    5.454598392736888E-2   -5.031112054426659E-1   -3.828672168017331E-2
 6.502004611200000E9    -4.703107981291249E-1   -2.287750530992378E-1   -1.346241829302712E-2    5.574675068581655E-2   -1.064497241914260E-2    5.499132462338276E-2   -5.031801509511697E-1   -3.654059436270506E-2
 6.502017115250000E9    -4.707464472640691E-1   -2.276829578021981E-1   -1.325271049300478E-2    5.629484008134938E-2   -1.060614541162471E-2    5.552394619150102E-2   -5.030544294803899E-1   -3.468196141143124E-2
 6.502029619300000E9    -4.711822099922764E-1   -2.265094109030966E-1   -1.330780850767292E-2    5.667872338245004E-2   -1.047600617603378E-2    5.602407936835929E-2   -5.030729284214372E-1   -3.297193917829590E-2
 6.502042123350000E9    -4.716245084775863E-1   -2.253559560544985E-1   -1.312765514498320E-2    5.720912778432692E-2   -1.041978974777446E-2    5.648074928278825E-2   -5.029903873916657E-1   -3.116295845198301E-2
 6.502054627400000E9    -4.720396519384417E-1   -2.242556833032436E-1   -1.302274452704091E-2    5.779919812109025E-2   -1.021727571464766E-2    5.698307521198432E-2   -5.029418899847751E-1   -2.940285125056734E-2
 6.502067131450000E9    -4.725093867629247E-1   -2.231705425235748E-1   -1.291115848415193E-2    5.832355047740952E-2   -1.016926394463324E-2    5.752709057021054E-2   -5.027547860027559E-1   -2.772080553119652E-2
 6.502079635500000E9    -4.729604970915220E-1   -2.220457877789062E-1   -1.288456886277744E-2    5.890302333760438E-2   -1.009957760474888E-2    5.803459195615585E-2   -5.026416244440715E-1   -2.570041210327306E-2
