#  HZ   S   RI   R     50.00 
! Rohde & Schwarz Vector Network Analyzer 
! Rohde-Schwarz,ZNB20-2Port,1311601062101988,3.16
! Created: UTC 3/20/2024, 11:45:09 AM
! freq[Hz]                re:S11                  im:S11                  re:S21                  im:S21                  re:S12                  im:S12                  re:S22                  im:S22
 6.500949539000000E9    -4.262908464914927E-1   -3.091211308567057E-1   -1.480205481177942E-2    3.016769923036805E-2   -1.330104849890521E-2    3.028389529908123E-2   -4.899572910437268E-1   -1.540216039221245E-1
 6.500962056350000E9    -4.267389913052351E-1   -3.082964447157085E-1   -1.491057841213662E-2    3.041752459805229E-2   -1.320573118150927E-2    3.047136946495766E-2   -4.902260271220816E-1   -1.529574714553768E-1
 6.500974573700000E9    -4.274178554114869E-1   -3.073532487170336E-1   -1.470147119327403E-2    3.054691089507655E-2   -1.318242667571448E-2    3.064484953293837E-2   -4.905592777802445E-1   -1.518466416508004E-1
 6.500987091050000E9    -4.280228397794412E-1   -3.065051919153741E-1   -1.495062733790762E-2    3.077898792135805E-2   -1.320893224939950E-2    3.083757441804250E-2   -4.906930728294762E-1   -1.507671918667702E-1
 6.500999608400000E9    -4.286216674523245E-1   -3.057383510049705E-1   -1.493497050547839E-2    3.093945786716176E-2   -1.326172370483266E-2    3.103940538835823E-2   -4.911476150404078E-1   -1.494666690133460E-1
 6.501012125750000E9    -4.290986483486910E-1   -3.048603292683700E-1   -1.489893351585573E-2    3.118856867769103E-2   -1.316185231838530E-2    3.124393769545577E-2   -4.913092510767814E-1   -1.482338922925152E-1
 6.501024643100000E9    -4.298447744210331E-1   -3.040903893981141E-1   -1.496011319139233E-2    3.140843722571547E-2   -1.317659342403069E-2    3.131838493091957E-2   -4.917023027059562E-1   -1.470811060433098E-1
 6.501037160450000E9    -4.304127967994991E-1   -3.031802321270926E-1   -1.498975414366339E-2    3.162432213433333E-2   -1.310961075358969E-2    3.161258346987689E-2   -4.919794052186711E-1   -1.458547068311337E-1
 6.501049677800000E9    -4.308980406560571E-1   -3.021654869460442E-1   -1.488197978537041E-2    3.173836295823455E-2   -1.326365622044454E-2    3.176073357795374E-2   -4.922099603336984E-1   -1.444748343757260E-1
 6.501062195150000E9    -4.315685298755458E-1   -3.013536764809218E-1   -1.489860301515199E-2    3.195191330638632E-2   -1.313012332454140E-2    3.199822737561984E-2   -4.924691118059944E-1   -1.433177903398770E-1
 6.501074712500000E9    -4.320147209309751E-1   -3.004184551111367E-1   -1.483175495156511E-2    3.213549578811015E-2   -1.313116255460180E-2    3.215876500085672E-2   -4.929306776648619E-1   -1.421668120495824E-1
 6.501087229850000E9    -4.326384529330563E-1   -2.996045053979096E-1   -1.492626978331352E-2    3.237395793058775E-2   -1.308356597929682E-2    3.232422432009507E-2   -4.929159056338540E-1   -1.410958555540894E-1
 6.501099747200000E9    -4.331717321948133E-1   -2.987381699930062E-1   -1.495438411271888E-2    3.256409615554929E-2   -1.311694085055668E-2    3.254387965115266E-2   -4.933731604267895E-1   -1.398499174789288E-1
 6.501112264550000E9    -4.337285232699570E-1   -2.980525791906600E-1   -1.489868223006855E-2    3.273946732080676E-2   -1.309075535559529E-2    3.280725857510604E-2   -4.934719678930281E-1   -1.385905752291209E-1
 6.501124781900000E9    -4.343292813706669E-1   -2.970809261612475E-1   -1.486921777856465E-2    3.293192806207315E-2   -1.305820337174185E-2    3.298842313904207E-2   -4.937630330810122E-1   -1.373587157389836E-1
 6.501137299250000E9    -4.348407322920634E-1   -2.962514859912665E-1   -1.483418396655664E-2    3.309650460451520E-2   -1.314485840314252E-2    3.320955452284460E-2   -4.941650717905224E-1   -1.361563182983164E-1
 6.501149816600000E9    -4.355554204158503E-1   -2.953336525224548E-1   -1.501224139868641E-2    3.338505296561103E-2   -1.303073438370915E-2    3.335398056546107E-2   -4.943594409062248E-1   -1.348806108978720E-1
 6.501162333950000E9    -4.361252449111125E-1   -2.944742862696303E-1   -1.494862561833519E-2    3.351124774897762E-2   -1.304596597183794E-2    3.353682106796083E-2   -4.945528155307721E-1   -1.337049407461646E-1
 6.501174851300000E9    -4.366648990213927E-1   -2.935835822732144E-1   -1.494999085477197E-2    3.376904137119015E-2   -1.310828319847176E-2    3.381526704941477E-2   -4.947673826760310E-1   -1.324605719294383E-1
 6.501187368650000E9    -4.372040772944299E-1   -2.927044141105620E-1   -1.492983564172914E-2    3.414228931468778E-2   -1.296445060486029E-2    3.395190654955504E-2   -4.951059930290996E-1   -1.311519371757124E-1
 6.501199886000000E9    -4.377390789260167E-1   -2.917394246681480E-1   -1.491238966113883E-2    3.415559597427653E-2   -1.303850539368120E-2    3.424184775872202E-2   -4.954860999308798E-1   -1.300309019857871E-1
 6.501212403350000E9    -4.383084093954822E-1   -2.907805924211020E-1   -1.497486262161513E-2    3.439239648158429E-2   -1.301643093978189E-2    3.440537556757060E-2   -4.957202401121344E-1   -1.286528056751608E-1
 6.501224920700000E9    -4.388217590463420E-1   -2.899752815528768E-1   -1.493304207055308E-2    3.467254031518213E-2   -1.302384931308817E-2    3.459153433536100E-2   -4.956683533738532E-1   -1.274536699363460E-1
 6.501237438050000E9    -4.393507310098846E-1   -2.890689853613818E-1   -1.491393121728054E-2    3.489199161424029E-2   -1.297763856288293E-2    3.493947728598319E-2   -4.959708979170616E-1   -1.261649431980155E-1
 6.501249955400000E9    -4.400478691152517E-1   -2.881849284128701E-1   -1.494652319959665E-2    3.506925696502063E-2   -1.298973607259819E-2    3.512536657549308E-2   -4.961689448450443E-1   -1.248447772434146E-1
 6.501262472750000E9    -4.404579728519083E-1   -2.871310852083673E-1   -1.494928750300382E-2    3.527230413080930E-2   -1.294798268805212E-2    3.533252144615240E-2   -4.964369831003910E-1   -1.234716649896111E-1
 6.501274990100000E9    -4.410085283539393E-1   -2.863224276106022E-1   -1.502733147484466E-2    3.559331689142971E-2   -1.290458440739136E-2    3.553297903639406E-2   -4.968179969469430E-1   -1.222585088977877E-1
 6.501287507450000E9    -4.416373042303431E-1   -2.854190252947085E-1   -1.502300421338255E-2    3.582676383153128E-2   -1.291564162794283E-2    3.577200376521451E-2   -4.969330421971574E-1   -1.210797091908406E-1
 6.501300024800000E9    -4.420824248871754E-1   -2.845265800207888E-1   -1.491031736251265E-2    3.596285218445965E-2   -1.300011988726605E-2    3.607529606639021E-2   -4.971267935649333E-1   -1.196725746012487E-1
 6.501312542150000E9    -4.427546464896855E-1   -2.836076189863818E-1   -1.488019736809419E-2    3.634106487049842E-2   -1.291197544558397E-2    3.620256260172818E-2   -4.972913997948707E-1   -1.185414329818565E-1
 6.501325059500000E9    -4.432687321871096E-1   -2.826846274381199E-1   -1.489409200132832E-2    3.651806397993177E-2   -1.285000265115415E-2    3.646764242145193E-2   -4.977317665151469E-1   -1.170654575053136E-1
 6.501337576850000E9    -4.438383934170013E-1   -2.818110434633770E-1   -1.493109501910943E-2    3.686536974518361E-2   -1.291961334086668E-2    3.674531976630924E-2   -4.979468229474328E-1   -1.159532747656418E-1
 6.501350094200000E9    -4.443837646147988E-1   -2.809248770779865E-1   -1.488454707853016E-2    3.710377612425051E-2   -1.287767216032897E-2    3.694905657055590E-2   -4.980320699045686E-1   -1.143497561385482E-1
 6.501362611550000E9    -4.448045510395605E-1   -2.799431197624353E-1   -1.478257071230047E-2    3.738233562325539E-2   -1.287018040701468E-2    3.716917845166036E-2   -4.981886740954053E-1   -1.133097369788807E-1
 6.501375128900000E9    -4.455142350642721E-1   -2.790496645689957E-1   -1.492896442519569E-2    3.752719371443201E-2   -1.285095084344365E-2    3.738978188619677E-2   -4.985003990358279E-1   -1.121167793153537E-1
 6.501387646250000E9    -4.459808038405113E-1   -2.781318101128795E-1   -1.480551912328495E-2    3.776147894019869E-2   -1.283700095351234E-2    3.785529910356972E-2   -4.987098150132422E-1   -1.105932721331092E-1
 6.501400163600000E9    -4.464897377297898E-1   -2.772734996881517E-1   -1.475003509126151E-2    3.810203784517798E-2   -1.285140134501804E-2    3.797470500014550E-2   -4.989036729298665E-1   -1.092060575182967E-1
 6.501412680950000E9    -4.470271769346847E-1   -2.762867196774166E-1   -1.498795083899968E-2    3.822059124613614E-2   -1.277925399669057E-2    3.821978128098328E-2   -4.992170221289024E-1   -1.078201725208379E-1
 6.501425198300000E9    -4.475435665107053E-1   -2.752557998366776E-1   -1.481242943321804E-2    3.862303044716676E-2   -1.283824650119379E-2    3.846072021993036E-2   -4.992753058285294E-1   -1.066935362735326E-1
 6.501437715650000E9    -4.481390837486288E-1   -2.745008730885292E-1   -1.477436977396544E-2    3.882642834372162E-2   -1.279386770342058E-2    3.876493904296931E-2   -4.994307098688889E-1   -1.053054066025372E-1
 6.501450233000000E9    -4.486706105738326E-1   -2.734465872084569E-1   -1.490405059977686E-2    3.923919263721592E-2   -1.272101974292269E-2    3.905396435251156E-2   -4.995983032133966E-1   -1.039775890321009E-1
 6.501462750350000E9    -4.491831049593987E-1   -2.725650816082329E-1   -1.482685193131009E-2    3.943356632973178E-2   -1.268782660487832E-2    3.925279959849100E-2   -4.999041965384634E-1   -1.026284132890712E-1
 6.501475267700000E9    -4.497017262652657E-1   -2.716535773021679E-1   -1.482073649692224E-2    3.973023196770423E-2   -1.265893221492486E-2    3.952875600637057E-2   -4.998942707508976E-1   -1.010846091930741E-1
 6.501487785050000E9    -4.503228260306140E-1   -2.706751773979953E-1   -1.460995384084388E-2    4.003130014076005E-2   -1.271470856872148E-2    3.982455456642757E-2   -5.001387706180228E-1   -9.982970328063745E-2
 6.501500302400000E9    -4.507864933878722E-1   -2.697478289566131E-1   -1.477653711747391E-2    4.032978651190502E-2   -1.262095410126985E-2    4.005951464778840E-2   -5.003297935088606E-1   -9.849750973761835E-2
 6.501512819750000E9    -4.512962131208706E-1   -2.687416671918330E-1   -1.477066742238125E-2    4.051361334834527E-2   -1.260576283993153E-2    4.044718925595121E-2   -5.004642449040322E-1   -9.706503720340647E-2
 6.501525337100000E9    -4.517745422115754E-1   -2.677672305275614E-1   -1.476476782139164E-2    4.089462792761332E-2   -1.260701809296533E-2    4.059997319887287E-2   -5.007791684082427E-1   -9.561131838849476E-2
 6.501537854450000E9    -4.523027371814204E-1   -2.669335896708809E-1   -1.474840588369388E-2    4.107765389087806E-2   -1.250138311773139E-2    4.097613312886794E-2   -5.008432501953017E-1   -9.419262121329998E-2
 6.501550371800000E9    -4.528895329466290E-1   -2.657967950691570E-1   -1.481129104256274E-2    4.143516656889074E-2   -1.242758509768686E-2    4.117453153834845E-2   -5.009789960019511E-1   -9.284829824985652E-2
 6.501562889150000E9    -4.533949025827892E-1   -2.649903055625520E-1   -1.468782761438604E-2    4.178680343878491E-2   -1.248704276299386E-2    4.157201262695571E-2   -5.012053265161116E-1   -9.159893534952024E-2
 6.501575406500000E9    -4.538233032615523E-1   -2.639249118062880E-1   -1.472213513379923E-2    4.209634123740809E-2   -1.242363145314641E-2    4.187648251806641E-2   -5.013299703476396E-1   -9.013377891765734E-2
 6.501587923850000E9    -4.543623840059660E-1   -2.630485268172169E-1   -1.456337934491773E-2    4.244666954080367E-2   -1.238739089072735E-2    4.216551691147353E-2   -5.013927831357646E-1   -8.868271482597236E-2
 6.501600441200000E9    -4.548552553758440E-1   -2.619199139854121E-1   -1.471443615361677E-2    4.283787800634127E-2   -1.234365036698765E-2    4.250000580548478E-2   -5.015181472600811E-1   -8.725633173399487E-2
 6.501612958550000E9    -4.552919464896888E-1   -2.609942056028167E-1   -1.450449271981888E-2    4.310770892890625E-2   -1.229765797743875E-2    4.280296082392292E-2   -5.016626642488493E-1   -8.592871544377305E-2
 6.501625475900000E9    -4.559219825642832E-1   -2.600616212395030E-1   -1.461996278003291E-2    4.344069136482298E-2   -1.235021596074718E-2    4.311488119238532E-2   -5.018584991651158E-1   -8.452511946014278E-2
 6.501637993250000E9    -4.564632699294128E-1   -2.589638358066012E-1   -1.457382213109703E-2    4.376319223667925E-2   -1.228979975176466E-2    4.340627279135933E-2   -5.018243923541874E-1   -8.291464965455994E-2
 6.501650510600000E9    -4.569208649373062E-1   -2.581676252153680E-1   -1.449629090693934E-2    4.402264663932481E-2   -1.233261038113103E-2    4.372828905249181E-2   -5.020963411156348E-1   -8.145254152737856E-2
 6.501663027950000E9    -4.573672499860525E-1   -2.571628613819967E-1   -1.458828044288026E-2    4.444246838554149E-2   -1.223208285879454E-2    4.400522245081276E-2   -5.020932685032689E-1   -8.002895348137368E-2
 6.501675545300000E9    -4.578647212748249E-1   -2.561292933901841E-1   -1.459552880346210E-2    4.472695343784678E-2   -1.226835171564817E-2    4.442694041355840E-2   -5.022534393972234E-1   -7.846208526831704E-2
 6.501688062650000E9    -4.583983403545883E-1   -2.550865444138928E-1   -1.457913933050580E-2    4.514957219081859E-2   -1.216165114643371E-2    4.474265737539356E-2   -5.023161072362828E-1   -7.702303543770468E-2
 6.501700580000000E9    -4.588580216234198E-1   -2.541696286167559E-1   -1.444005023025673E-2    4.538090722363349E-2   -1.205043739351590E-2    4.510044218239908E-2   -5.025807819508992E-1   -7.545527762818714E-2
 6.501713097350000E9    -4.594535464511108E-1   -2.531438865066263E-1   -1.443646261933042E-2    4.579804452171158E-2   -1.209876841193353E-2    4.544045749866452E-2   -5.025214842189176E-1   -7.407258710553111E-2
 6.501725614700000E9    -4.598872472962890E-1   -2.520727143470544E-1   -1.444304002816185E-2    4.624369273334282E-2   -1.199235084004106E-2    4.582836941086225E-2   -5.026819334483283E-1   -7.260522566957932E-2
 6.501738132050000E9    -4.605209027075396E-1   -2.510115673363225E-1   -1.437234041022416E-2    4.656144482908745E-2   -1.201270575069826E-2    4.611737978734225E-2   -5.026353164616664E-1   -7.111799335526170E-2
 6.501750649400000E9    -4.609034864539700E-1   -2.501041404270630E-1   -1.423778069153989E-2    4.683638233596202E-2   -1.196384842737893E-2    4.649466414069715E-2   -5.026825092154591E-1   -6.953250340192256E-2
 6.501763166750000E9    -4.613194309451117E-1   -2.491039786291302E-1   -1.421789506562758E-2    4.722938940851622E-2   -1.187687394984786E-2    4.694529107238389E-2   -5.029724551058457E-1   -6.798323018791246E-2
 6.501775684100000E9    -4.618218059036569E-1   -2.480483578070683E-1   -1.428972738474079E-2    4.763075109988002E-2   -1.183863543665284E-2    4.730992260043160E-2   -5.028933265766232E-1   -6.643191752318181E-2
 6.501788201450000E9    -4.623810253591010E-1   -2.470643115524411E-1   -1.427664536827816E-2    4.802186532936891E-2   -1.187898602114965E-2    4.761853555061484E-2   -5.030054660060654E-1   -6.487982235969329E-2
 6.501800718800000E9    -4.627835363483932E-1   -2.461632605833230E-1   -1.410525541494227E-2    4.843245361404649E-2   -1.177468354892459E-2    4.787577337102666E-2   -5.029767914064803E-1   -6.330506677518248E-2
 6.501813236150000E9    -4.632957337809712E-1   -2.451053221175081E-1   -1.411121004090781E-2    4.889843162544989E-2   -1.161454614615352E-2    4.844125489741009E-2   -5.031847271649428E-1   -6.169535540366503E-2
 6.501825753500000E9    -4.636829685992349E-1   -2.440327969152412E-1   -1.424436346080496E-2    4.914893793988726E-2   -1.167109280743352E-2    4.876441384472589E-2   -5.033652887892089E-1   -6.019891475042137E-2
 6.501838270850000E9    -4.641276106912466E-1   -2.429478416875828E-1   -1.400043762631424E-2    4.969326774629839E-2   -1.156787101242782E-2    4.919649813056615E-2   -5.033130092190268E-1   -5.870299917526367E-2
 6.501850788200000E9    -4.647077894961878E-1   -2.418359280607219E-1   -1.404555313234147E-2    4.992561852033840E-2   -1.156929849036254E-2    4.951915685241458E-2   -5.032148774980547E-1   -5.701097228218077E-2
 6.501863305550000E9    -4.651732490944924E-1   -2.408256357178294E-1   -1.399932488774660E-2    5.048226570754403E-2   -1.155472018673625E-2    4.995617812144296E-2   -5.032963716415627E-1   -5.547149007509047E-2
 6.501875822900000E9    -4.656013636638928E-1   -2.398073918443937E-1   -1.393966466201224E-2    5.095599865100852E-2   -1.142855569963372E-2    5.029710585962121E-2   -5.033223504179479E-1   -5.392039877612424E-2
 6.501888340250000E9    -4.660824879477550E-1   -2.386846364873868E-1   -1.389584747078545E-2    5.133088894138668E-2   -1.131259359283463E-2    5.082615929965791E-2   -5.033360025202059E-1   -5.217197158242744E-2
 6.501900857600000E9    -4.666477920168339E-1   -2.377336039603180E-1   -1.375984729615834E-2    5.187214334294055E-2   -1.135022849615460E-2    5.129062531636412E-2   -5.032546603956713E-1   -5.044898256017874E-2
 6.501913374950000E9    -4.669521679847032E-1   -2.367633709889312E-1   -1.383440276677932E-2    5.222831731282800E-2   -1.122007261185875E-2    5.167790914214106E-2   -5.032724637125370E-1   -4.887165890766711E-2
 6.501925892300000E9    -4.675546421896640E-1   -2.356247442796294E-1   -1.379943798394669E-2    5.266958755786604E-2   -1.107990540836943E-2    5.217368170542531E-2   -5.035024369404391E-1   -4.716528133902256E-2
 6.501938409650000E9    -4.679947849943141E-1   -2.345198082467098E-1   -1.372236807952657E-2    5.301603150562027E-2   -1.108388397860142E-2    5.262980925260123E-2   -5.033797296165590E-1   -4.556935985531597E-2
 6.501950927000000E9    -4.684527382118938E-1   -2.334378371379142E-1   -1.376934351249743E-2    5.368448627818413E-2   -1.101270493913306E-2    5.300982662356269E-2   -5.034395789456881E-1   -4.378291676558661E-2
 6.501963444350000E9    -4.687977450627400E-1   -2.324857249649177E-1   -1.355250648680584E-2    5.418160863224880E-2   -1.093082403993287E-2    5.353229966331287E-2   -5.032212653106773E-1   -4.212403528677938E-2
 6.501975961700000E9    -4.692358505097265E-1   -2.312991150209726E-1   -1.336344027710446E-2    5.453938915864025E-2   -1.081937017707927E-2    5.391716908941532E-2   -5.032241612819184E-1   -4.047558656191474E-2
 6.501988479050000E9    -4.697297616534326E-1   -2.301797254910049E-1   -1.330717921199364E-2    5.509311211383672E-2   -1.078376870642582E-2    5.438322470623132E-2   -5.031736673802094E-1   -3.871783663172202E-2
 6.502000996400000E9    -4.702204627587287E-1   -2.290611353515778E-1   -1.327988991869535E-2    5.557811957379205E-2   -1.071122852403655E-2    5.486794381902767E-2   -5.031474961756621E-1   -3.688766230481453E-2
 6.502013513750000E9    -4.706873645819005E-1   -2.280413921065538E-1   -1.324949746950912E-2    5.611827817766294E-2   -1.059051049489773E-2    5.538673591978366E-2   -5.030067291979909E-1   -3.520134943844026E-2
 6.502026031100000E9    -4.711234792767186E-1   -2.268823789991671E-1   -1.324501555785507E-2    5.653446998837749E-2   -1.049556609047535E-2    5.582085152924862E-2   -5.028938116404525E-1   -3.347863553817315E-2
 6.502038548450000E9    -4.715799344050580E-1   -2.257836103765527E-1   -1.300362702853125E-2    5.716366717400945E-2   -1.038829875574746E-2    5.643702744118990E-2   -5.029165604388176E-1   -3.175477357491218E-2
 6.502051065800000E9    -4.720257194616281E-1   -2.245861594558075E-1   -1.296310315427207E-2    5.764135032594180E-2   -1.022314409235414E-2    5.690396782852478E-2   -5.028128221404617E-1   -2.982341712615404E-2
 6.502063583150000E9    -4.723788090583949E-1   -2.235465754580634E-1   -1.293420195808810E-2    5.828591036267394E-2   -1.019403660651232E-2    5.743874427221426E-2   -5.026903142394116E-1   -2.793507452353955E-2
 6.502076100500000E9    -4.727446284962809E-1   -2.223645423500517E-1   -1.289363542515689E-2    5.880220861272895E-2   -1.003198542044677E-2    5.793613207231749E-2   -5.024894228081402E-1   -2.618514776346800E-2
