#  HZ   S   RI   R     50.00 
! Rohde & Schwarz Vector Network Analyzer 
! Rohde-Schwarz,ZNB20-2Port,1311601062101988,3.16
! Created: UTC 3/20/2024, 11:45:14 AM
! freq[Hz]                re:S11                  im:S11                  re:S21                  im:S21                  re:S12                  im:S12                  re:S22                  im:S22
 6.500943320000000E9    -4.260469268055534E-1   -3.094550529860932E-1   -1.482495739419928E-2    3.014723850792339E-2   -1.319548233767601E-2    3.027185761832524E-2   -4.897993092467051E-1   -1.547707563955636E-1
 6.500955865000000E9    -4.265584691813155E-1   -3.085469760084170E-1   -1.493867065687772E-2    3.015721604583159E-2   -1.319454499082519E-2    3.043349181175307E-2   -4.899936150227285E-1   -1.535222094340654E-1
 6.500968410000000E9    -4.271335006374499E-1   -3.077190489038389E-1   -1.493054030435897E-2    3.045812727647387E-2   -1.315907924386846E-2    3.062066958943114E-2   -4.901410450188403E-1   -1.523216088769927E-1
 6.500980955000000E9    -4.278403306378774E-1   -3.069095014097608E-1   -1.484351098036291E-2    3.073972888905762E-2   -1.316344822559045E-2    3.073788600347570E-2   -4.908615192704947E-1   -1.512612778432533E-1
 6.500993500000000E9    -4.283763478868151E-1   -3.060752668063625E-1   -1.485080845730581E-2    3.078490408235777E-2   -1.310963910065223E-2    3.092372098620478E-2   -4.909369552085948E-1   -1.500249077059279E-1
 6.501006045000000E9    -4.289586965021837E-1   -3.051440238510758E-1   -1.489111413728563E-2    3.103022587730230E-2   -1.315921690698849E-2    3.119537246866930E-2   -4.912473494923755E-1   -1.488448015530677E-1
 6.501018590000000E9    -4.295952301170809E-1   -3.042928229580454E-1   -1.489907920866723E-2    3.126009817131512E-2   -1.320456972021981E-2    3.127216974256564E-2   -4.914516294346462E-1   -1.476824123604612E-1
 6.501031135000000E9    -4.301064641362463E-1   -3.034148861775590E-1   -1.496915887862505E-2    3.140061547456271E-2   -1.314002221442398E-2    3.153165623000218E-2   -4.916693683410469E-1   -1.464577567791530E-1
 6.501043680000000E9    -4.306853006987546E-1   -3.026443128137447E-1   -1.490101045252528E-2    3.161404146478798E-2   -1.309322609814842E-2    3.165863077416594E-2   -4.921363836682882E-1   -1.451607662287350E-1
 6.501056225000000E9    -4.313655451935264E-1   -3.017649328411071E-1   -1.496734535401127E-2    3.174216976215564E-2   -1.322909956694701E-2    3.189267535609304E-2   -4.922349445856665E-1   -1.440105199596403E-1
 6.501068770000000E9    -4.317788997505371E-1   -3.008900125364263E-1   -1.492167130586698E-2    3.194654394451069E-2   -1.314642599707762E-2    3.210722040311417E-2   -4.925507916847577E-1   -1.427305602802200E-1
 6.501081315000000E9    -4.324853482441660E-1   -3.000423699785652E-1   -1.484952012850887E-2    3.220369774813187E-2   -1.310254997236354E-2    3.235912706335071E-2   -4.929194977859070E-1   -1.415326239036368E-1
 6.501093860000000E9    -4.329260698253464E-1   -2.990841138700699E-1   -1.487442806873289E-2    3.240549925759273E-2   -1.317090367435030E-2    3.248954168529278E-2   -4.931630627655662E-1   -1.404051140180848E-1
 6.501106405000000E9    -4.336028003676261E-1   -2.981896669804244E-1   -1.493046007126694E-2    3.260957505224880E-2   -1.303489763986716E-2    3.263999615319747E-2   -4.933278164904148E-1   -1.391609196748534E-1
 6.501118950000000E9    -4.342206696199745E-1   -2.973667142730791E-1   -1.489406480105552E-2    3.263865132222012E-2   -1.302289675798411E-2    3.282816884827127E-2   -4.937581742296683E-1   -1.379557287318662E-1
 6.501131495000000E9    -4.347077630510495E-1   -2.965122364774562E-1   -1.509183047233133E-2    3.296025065721546E-2   -1.319922339577151E-2    3.304676305948663E-2   -4.938950211902539E-1   -1.365875703760279E-1
 6.501144040000000E9    -4.352175745380802E-1   -2.955352437545280E-1   -1.500328478449803E-2    3.329117252320649E-2   -1.311954592292445E-2    3.328847921976804E-2   -4.941891332531504E-1   -1.354280980569215E-1
 6.501156585000000E9    -4.358907054044689E-1   -2.946861240502575E-1   -1.499475490773531E-2    3.338125688138450E-2   -1.307949699748952E-2    3.347888747416435E-2   -4.945174503765477E-1   -1.341669313476013E-1
 6.501169130000000E9    -4.364343224008240E-1   -2.938245396546670E-1   -1.494326538790623E-2    3.360912812348469E-2   -1.301152826360445E-2    3.376003313649253E-2   -4.948596454807832E-1   -1.330005455907345E-1
 6.501181675000000E9    -4.370461944138650E-1   -2.929598509755270E-1   -1.484344408297992E-2    3.389663560919449E-2   -1.307691864895741E-2    3.391223247166529E-2   -4.950180695641057E-1   -1.316700192694178E-1
 6.501194220000000E9    -4.375274428938000E-1   -2.921754282024431E-1   -1.498063652799528E-2    3.420138664220494E-2   -1.299601140622909E-2    3.415683993730704E-2   -4.952755540097650E-1   -1.304343977290430E-1
 6.501206765000000E9    -4.380666502799838E-1   -2.912075406549572E-1   -1.500916808128644E-2    3.426375894340642E-2   -1.303592237948784E-2    3.431924948191607E-2   -4.955161814191182E-1   -1.292858145845983E-1
 6.501219310000000E9    -4.387298369693605E-1   -2.903362129271071E-1   -1.490562621222529E-2    3.464070201489700E-2   -1.303675730199459E-2    3.461868076444664E-2   -4.956959681401835E-1   -1.280453025918221E-1
 6.501231855000000E9    -4.392878980919562E-1   -2.893623157380172E-1   -1.491346158516655E-2    3.500095418063029E-2   -1.304575413022263E-2    3.473340609633016E-2   -4.960297030875695E-1   -1.268145228326315E-1
 6.501244400000000E9    -4.398183146326922E-1   -2.884153646994927E-1   -1.487419506999687E-2    3.508327417240800E-2   -1.299570662084032E-2    3.507975877962610E-2   -4.961711530431051E-1   -1.254010364236628E-1
 6.501256945000000E9    -4.403397620246802E-1   -2.875116696139099E-1   -1.498690417629996E-2    3.520068427973352E-2   -1.295659686006038E-2    3.534674585249853E-2   -4.963783642235722E-1   -1.240724967383908E-1
 6.501269490000000E9    -4.409009272499990E-1   -2.866419950560394E-1   -1.487187432146752E-2    3.540228623381855E-2   -1.298744373218223E-2    3.540304381643205E-2   -4.966597615334654E-1   -1.229597447797826E-1
 6.501282035000000E9    -4.414191393625841E-1   -2.857498898295570E-1   -1.484879169971270E-2    3.565594962850358E-2   -1.300402117757939E-2    3.566689890038627E-2   -4.968739770291143E-1   -1.216501627900984E-1
 6.501294580000000E9    -4.419787512564413E-1   -2.848358971037684E-1   -1.473083792986085E-2    3.595531737396743E-2   -1.295353491271862E-2    3.588855043946056E-2   -4.971265027137953E-1   -1.204070309113544E-1
 6.501307125000000E9    -4.426158867191922E-1   -2.838917683771628E-1   -1.490286777917183E-2    3.619619350263872E-2   -1.289729630396124E-2    3.610752463230409E-2   -4.973309928472479E-1   -1.190511521027955E-1
 6.501319670000000E9    -4.431366872848195E-1   -2.830159762383847E-1   -1.498371318639848E-2    3.651299176694218E-2   -1.287550139398829E-2    3.642185574922618E-2   -4.975662892194550E-1   -1.176825763092803E-1
 6.501332215000000E9    -4.436852248268351E-1   -2.821178630706135E-1   -1.499037070010491E-2    3.679157325603459E-2   -1.285673954848392E-2    3.667969506406495E-2   -4.977485037604757E-1   -1.163020487606099E-1
 6.501344760000000E9    -4.441910898050695E-1   -2.811472158949519E-1   -1.483536825983633E-2    3.691622683245849E-2   -1.286393143374239E-2    3.689058318821188E-2   -4.981249701841748E-1   -1.151623745818041E-1
 6.501357305000000E9    -4.447190308106982E-1   -2.802974249562586E-1   -1.483113092071516E-2    3.733366173092788E-2   -1.283304248956648E-2    3.713894221883850E-2   -4.981936544806342E-1   -1.138016011217383E-1
 6.501369850000000E9    -4.452505881751453E-1   -2.793961074204122E-1   -1.487432182068412E-2    3.762838486855771E-2   -1.290406144823991E-2    3.726115811507341E-2   -4.983886090735730E-1   -1.124809666397284E-1
 6.501382395000000E9    -4.458391386240025E-1   -2.783126783253701E-1   -1.480167981297156E-2    3.775712373841674E-2   -1.292977111789692E-2    3.762805463281114E-2   -4.985001144509822E-1   -1.111511814840601E-1
 6.501394940000000E9    -4.462634233800308E-1   -2.775059967361698E-1   -1.492125700636326E-2    3.796316162679626E-2   -1.279767681583603E-2    3.785113128941797E-2   -4.989154197721529E-1   -1.097789644491635E-1
 6.501407485000000E9    -4.468340516482081E-1   -2.766723066195480E-1   -1.482782286096801E-2    3.820557754605610E-2   -1.279234033996356E-2    3.820864885217863E-2   -4.990079857911252E-1   -1.083975981035715E-1
 6.501420030000000E9    -4.474061446269301E-1   -2.757076134548111E-1   -1.493528276284293E-2    3.851867597209770E-2   -1.281219689916436E-2    3.841953666598287E-2   -4.991901802023537E-1   -1.072845133328239E-1
 6.501432575000000E9    -4.479449728276960E-1   -2.746062116052641E-1   -1.485083155165076E-2    3.880122221946267E-2   -1.269860017876683E-2    3.867443021027536E-2   -4.993010805234765E-1   -1.058363394315539E-1
 6.501445120000000E9    -4.484506029947536E-1   -2.738125291604272E-1   -1.479524072600032E-2    3.910343953514907E-2   -1.266985863319467E-2    3.899453009994425E-2   -4.996230017541115E-1   -1.044308683815594E-1
 6.501457665000000E9    -4.490041232087566E-1   -2.728493285700199E-1   -1.480643729636896E-2    3.929654094754580E-2   -1.277772354116651E-2    3.912663652737316E-2   -4.996391438891365E-1   -1.031605129132091E-1
 6.501470210000000E9    -4.495934048987942E-1   -2.718581634004981E-1   -1.482509109906576E-2    3.964812217936129E-2   -1.264220010188029E-2    3.951045580108024E-2   -4.998901843638013E-1   -1.017408107260819E-1
 6.501482755000000E9    -4.500538647369625E-1   -2.709504754120562E-1   -1.466313820485673E-2    3.991802933810252E-2   -1.264832835385251E-2    3.972242571237462E-2   -5.001671338759051E-1   -1.004515895326990E-1
 6.501495300000000E9    -4.506341730431728E-1   -2.699919038921689E-1   -1.463376694928097E-2    4.010402684110855E-2   -1.259975090270485E-2    4.003267053376887E-2   -5.003209943307381E-1   -9.888158555264347E-2
 6.501507845000000E9    -4.511294649071010E-1   -2.690601099474392E-1   -1.479742037556028E-2    4.064687103354018E-2   -1.255386068159715E-2    4.028729717965431E-2   -5.005154470452099E-1   -9.771283259340983E-2
 6.501520390000000E9    -4.516073558149082E-1   -2.681682414347918E-1   -1.480457658611866E-2    4.074428516455999E-2   -1.258492261456856E-2    4.057334502927168E-2   -5.005362794129472E-1   -9.629685920577430E-2
 6.501532935000000E9    -4.521228514675696E-1   -2.672016256978343E-1   -1.469457226342462E-2    4.111459835778922E-2   -1.250047666559104E-2    4.081740657772408E-2   -5.007875563235031E-1   -9.472869800143974E-2
 6.501545480000000E9    -4.525907259413366E-1   -2.661329260946269E-1   -1.474046704813004E-2    4.139476696850052E-2   -1.253247572874982E-2    4.121893741588522E-2   -5.007716857987980E-1   -9.343838909421359E-2
 6.501558025000000E9    -4.530962060840907E-1   -2.652579974900694E-1   -1.472031244925483E-2    4.168242382726271E-2   -1.246602652934204E-2    4.152209590259306E-2   -5.009422706167407E-1   -9.201636273023511E-2
 6.501570570000000E9    -4.535190769934559E-1   -2.642426941002294E-1   -1.465729402557501E-2    4.196495859280495E-2   -1.260670089874639E-2    4.179403556775242E-2   -5.011782538007447E-1   -9.073578985835920E-2
 6.501583115000000E9    -4.542383489524342E-1   -2.631703985475765E-1   -1.461781013992245E-2    4.234493858877340E-2   -1.247379651812897E-2    4.213404706034130E-2   -5.012819374570751E-1   -8.920849232180833E-2
 6.501595660000000E9    -4.546935991123484E-1   -2.623465490295669E-1   -1.467483452105078E-2    4.246674104720401E-2   -1.237612019189808E-2    4.234825622694215E-2   -5.015617631035622E-1   -8.772893746476523E-2
 6.501608205000000E9    -4.552528968964042E-1   -2.612871670380065E-1   -1.468854006861159E-2    4.296325935708227E-2   -1.238950149587517E-2    4.273924704542034E-2   -5.015989795154160E-1   -8.626162211217529E-2
 6.501620750000000E9    -4.557674266430254E-1   -2.603597927113013E-1   -1.459010126636060E-2    4.339200914512971E-2   -1.233151095918953E-2    4.302569921863753E-2   -5.017319167331296E-1   -8.481298581387112E-2
 6.501633295000000E9    -4.561361583168730E-1   -2.593689976701858E-1   -1.468353515627238E-2    4.353949218813129E-2   -1.228290787183253E-2    4.327982295007220E-2   -5.019218522214116E-1   -8.363791250146517E-2
 6.501645840000000E9    -4.567945301404491E-1   -2.583702807404655E-1   -1.457924678398612E-2    4.394179369839975E-2   -1.232324901927337E-2    4.367264377670570E-2   -5.020514704457728E-1   -8.188703382217254E-2
 6.501658385000000E9    -4.572207868793457E-1   -2.574015386569093E-1   -1.458410063046301E-2    4.431464250712133E-2   -1.223133247592642E-2    4.403943981749705E-2   -5.020827100096746E-1   -8.059478392286258E-2
 6.501670930000000E9    -4.577615242524092E-1   -2.564600146743542E-1   -1.459833105307880E-2    4.460039773527614E-2   -1.222312723774292E-2    4.430250487465977E-2   -5.023274684581583E-1   -7.907480551098159E-2
 6.501683475000000E9    -4.582487497333038E-1   -2.554505687272142E-1   -1.455240826374909E-2    4.494436857864049E-2   -1.206180973988253E-2    4.461535718184578E-2   -5.023829195993412E-1   -7.758262450424262E-2
 6.501696020000000E9    -4.586586994787623E-1   -2.544162964709656E-1   -1.444973427350824E-2    4.529334121905288E-2   -1.223111457351547E-2    4.500736498273872E-2   -5.025927332779132E-1   -7.619298501350098E-2
 6.501708565000000E9    -4.592383679216480E-1   -2.535467413534936E-1   -1.454882557733138E-2    4.559830509333880E-2   -1.205136372422000E-2    4.531830676374492E-2   -5.026426329548389E-1   -7.468997754820235E-2
 6.501721110000000E9    -4.597215722633371E-1   -2.523738770149028E-1   -1.440562679550220E-2    4.595922827631677E-2   -1.206754999827500E-2    4.558214412171445E-2   -5.026237347988216E-1   -7.298868731355915E-2
 6.501733655000000E9    -4.601794712226925E-1   -2.514987863512407E-1   -1.427454602090551E-2    4.636083575815809E-2   -1.202554706630594E-2    4.601438190356791E-2   -5.027645261255712E-1   -7.164947802373019E-2
 6.501746200000000E9    -4.606896054695213E-1   -2.503094978569955E-1   -1.431102298456735E-2    4.684884305022152E-2   -1.190653615786637E-2    4.646977514234889E-2   -5.028446125358265E-1   -7.010913636690813E-2
 6.501758745000000E9    -4.612131175844928E-1   -2.493514786180726E-1   -1.428137345544349E-2    4.712306351932250E-2   -1.189560134686418E-2    4.680784330821471E-2   -5.028254546906678E-1   -6.844773133284908E-2
 6.501771290000000E9    -4.617216003621574E-1   -2.482894062498543E-1   -1.424194480127413E-2    4.749686907866554E-2   -1.186762203700048E-2    4.712150689262438E-2   -5.029005028625616E-1   -6.695149669108653E-2
 6.501783835000000E9    -4.622209165093811E-1   -2.473361278177844E-1   -1.416006508624361E-2    4.793517045231853E-2   -1.182568443660743E-2    4.742379259750460E-2   -5.029448909282258E-1   -6.535467779911008E-2
 6.501796380000000E9    -4.626066564633680E-1   -2.462133580436964E-1   -1.418382089702832E-2    4.834659653395883E-2   -1.179648242210835E-2    4.793131364502552E-2   -5.032600323998411E-1   -6.375038626425601E-2
 6.501808925000000E9    -4.630619302361916E-1   -2.453648564752827E-1   -1.412824041331891E-2    4.869320756243581E-2   -1.172165381873388E-2    4.826240262826477E-2   -5.029937469946879E-1   -6.233814627805282E-2
 6.501821470000000E9    -4.636397717266960E-1   -2.442447883113186E-1   -1.404976911294732E-2    4.913947706879149E-2   -1.163488904074733E-2    4.863304458550821E-2   -5.031132977007043E-1   -6.067082575520037E-2
 6.501834015000000E9    -4.640500745058023E-1   -2.432479333898721E-1   -1.399886932419283E-2    4.949197854123536E-2   -1.157967120423172E-2    4.902928284383123E-2   -5.032438833428845E-1   -5.911054470121217E-2
 6.501846560000000E9    -4.645900613258521E-1   -2.421415243063247E-1   -1.397068502600782E-2    4.995556431063704E-2   -1.156474760623693E-2    4.940025693278593E-2   -5.032708543200932E-1   -5.744989804146384E-2
 6.501859105000000E9    -4.649924039532591E-1   -2.411924262396236E-1   -1.394192887444239E-2    5.048311153181413E-2   -1.144676316690072E-2    4.987048992814207E-2   -5.032352029669966E-1   -5.577545456927074E-2
 6.501871650000000E9    -4.654897020382763E-1   -2.400828763583446E-1   -1.400167931571208E-2    5.083746333118544E-2   -1.145303951057159E-2    5.025409911708897E-2   -5.032714081365357E-1   -5.436380174822555E-2
 6.501884195000000E9    -4.658506808084862E-1   -2.390723573386997E-1   -1.384156515120226E-2    5.138359842682638E-2   -1.143865472695341E-2    5.071940258283952E-2   -5.032728821773876E-1   -5.265402704776283E-2
 6.501896740000000E9    -4.665454701575645E-1   -2.380634260242585E-1   -1.377518997982148E-2    5.167101131419365E-2   -1.144004877530553E-2    5.118325208461087E-2   -5.035054689876831E-1   -5.094804033352386E-2
 6.501909285000000E9    -4.670221925251627E-1   -2.368710899103858E-1   -1.386735434025158E-2    5.215670250123979E-2   -1.124003355019100E-2    5.147380676561380E-2   -5.034164727987712E-1   -4.949204074356419E-2
 6.501921830000000E9    -4.674246570404290E-1   -2.359044072301139E-1   -1.375213469493568E-2    5.247720266259604E-2   -1.104606830519876E-2    5.202179625787067E-2   -5.032829444301867E-1   -4.772687611185036E-2
 6.501934375000000E9    -4.679090822320116E-1   -2.347926565238190E-1   -1.374468518769320E-2    5.310034499780130E-2   -1.110068952195615E-2    5.244157840685435E-2   -5.033731807926597E-1   -4.599454789059363E-2
 6.501946920000000E9    -4.683306913676675E-1   -2.336374202358010E-1   -1.364675075032143E-2    5.344628115423566E-2   -1.086220898963343E-2    5.287061329063192E-2   -5.032304861024937E-1   -4.431408305257284E-2
 6.501959465000000E9    -4.687795706264977E-1   -2.327096968879425E-1   -1.351450434898506E-2    5.388277590175698E-2   -1.091897958341577E-2    5.344323931397482E-2   -5.032286755637487E-1   -4.263559609467864E-2
 6.501972010000000E9    -4.690844426215766E-1   -2.315366004117720E-1   -1.356062367708892E-2    5.447682672075597E-2   -1.086158508742385E-2    5.388310299024692E-2   -5.031787335605120E-1   -4.093692086040104E-2
 6.501984555000000E9    -4.696726248215715E-1   -2.303798581399955E-1   -1.341265613656332E-2    5.505032276340932E-2   -1.075667596338463E-2    5.438349915744160E-2   -5.031991690972253E-1   -3.922417904455753E-2
 6.501997100000000E9    -4.701994714478162E-1   -2.293730797490853E-1   -1.324485623245203E-2    5.547464691233665E-2   -1.067904791011308E-2    5.474920844690234E-2   -5.031964025943174E-1   -3.743866808713740E-2
 6.502009645000000E9    -4.705062875687026E-1   -2.281611324212935E-1   -1.322134425370194E-2    5.595751215306475E-2   -1.051252790522775E-2    5.531678316459802E-2   -5.031158976961430E-1   -3.566295555113793E-2
 6.502022190000000E9    -4.709432711223186E-1   -2.272347231055918E-1   -1.317826684112284E-2    5.660285858243812E-2   -1.052588889406244E-2    5.571800081039025E-2   -5.029841113122701E-1   -3.391368205024844E-2
 6.502034735000000E9    -4.714561626740353E-1   -2.259533767425982E-1   -1.313459706829294E-2    5.699001719526012E-2   -1.046458438453404E-2    5.618560636438376E-2   -5.029647675325710E-1   -3.212565072993136E-2
 6.502047280000000E9    -4.718943514029658E-1   -2.247984579854858E-1   -1.311387115651637E-2    5.761512952206733E-2   -1.037405103731673E-2    5.679829544908298E-2   -5.026617816556346E-1   -3.018433083929903E-2
 6.502059825000000E9    -4.723189960049319E-1   -2.236935759308348E-1   -1.298521922926323E-2    5.818163604901524E-2   -1.015668876287625E-2    5.741320377270193E-2   -5.026101385370556E-1   -2.841991083377048E-2
 6.502072370000000E9    -4.728366348113959E-1   -2.226863072633669E-1   -1.273756730282530E-2    5.862751192613165E-2   -1.015933891051218E-2    5.792570376143006E-2   -5.026370150545821E-1   -2.671857092747507E-2
