#  HZ   S   RI   R     50.00 
! Rohde & Schwarz Vector Network Analyzer 
! Rohde-Schwarz,ZNB20-2Port,1311601062101988,3.16
! Created: UTC 3/20/2024, 11:45:34 AM
! freq[Hz]                re:S11                  im:S11                  re:S21                  im:S21                  re:S12                  im:S12                  re:S22                  im:S22
 6.500940820000000E9    -4.258607745103268E-1   -3.094708635353443E-1   -1.476559164154690E-2    2.995873949236499E-2   -1.319948487323459E-2    3.024257723388499E-2   -4.896378421012103E-1   -1.549661118614933E-1
 6.500953359150000E9    -4.265453006220342E-1   -3.086992701797480E-1   -1.476321367425019E-2    3.027396275541332E-2   -1.315973717671064E-2    3.049250456888192E-2   -4.899467301511652E-1   -1.537399409498414E-1
 6.500965898300000E9    -4.271496032995696E-1   -3.078791964781294E-1   -1.497673650008671E-2    3.047778205576466E-2   -1.317081025555758E-2    3.061169360405182E-2   -4.902330605880225E-1   -1.526699130453403E-1
 6.500978437450000E9    -4.277526665828059E-1   -3.069283383984509E-1   -1.485826280908514E-2    3.069534621248024E-2   -1.324682107897387E-2    3.085216710657956E-2   -4.906596712722240E-1   -1.514763827377726E-1
 6.500990976600000E9    -4.282722805062224E-1   -3.061139763447236E-1   -1.495116063869360E-2    3.090200207957136E-2   -1.308184414552794E-2    3.089598100771377E-2   -4.907881424438753E-1   -1.502389090969683E-1
 6.501003515750000E9    -4.288490579452443E-1   -3.052411372236714E-1   -1.487599812742836E-2    3.103813578146149E-2   -1.313758268006806E-2    3.116485447717084E-2   -4.911867758450645E-1   -1.489331645891401E-1
 6.501016054900000E9    -4.293603255569945E-1   -3.044407689615445E-1   -1.492559211939764E-2    3.119533543565794E-2   -1.317505062062896E-2    3.128578377710600E-2   -4.914477046208123E-1   -1.478168260046053E-1
 6.501028594050000E9    -4.300223154375531E-1   -3.035892075751391E-1   -1.498371673488013E-2    3.144497041296604E-2   -1.312672846480607E-2    3.153120193967889E-2   -4.917142296001077E-1   -1.466947215518135E-1
 6.501041133200000E9    -4.305525498661343E-1   -3.026397829199720E-1   -1.489166476752216E-2    3.165333705685550E-2   -1.302899751244845E-2    3.180301676125724E-2   -4.918866740894973E-1   -1.454929248762554E-1
 6.501053672350000E9    -4.311271814572723E-1   -3.018456476944966E-1   -1.499097883808718E-2    3.182176172429699E-2   -1.316737563741537E-2    3.192082642869268E-2   -4.923011101229051E-1   -1.442840252195719E-1
 6.501066211500000E9    -4.317715629437698E-1   -3.009386047190244E-1   -1.494147628256552E-2    3.193817205116520E-2   -1.310981309991495E-2    3.213137261493761E-2   -4.924870031699397E-1   -1.430103387843505E-1
 6.501078750650000E9    -4.323815368582065E-1   -3.001655971401908E-1   -1.481333572124817E-2    3.227075197549762E-2   -1.318188097781168E-2    3.227132400531598E-2   -4.928269597594592E-1   -1.418870225202463E-1
 6.501091289800000E9    -4.328561033045790E-1   -2.991685203403676E-1   -1.497866434225099E-2    3.248123091187252E-2   -1.310012956116679E-2    3.242815168272024E-2   -4.931008182396120E-1   -1.406402940512360E-1
 6.501103828950000E9    -4.334183975935637E-1   -2.982976446557820E-1   -1.480093924507254E-2    3.259650915251855E-2   -1.308934403479062E-2    3.265040562769423E-2   -4.932107769148082E-1   -1.394430796390904E-1
 6.501116368100000E9    -4.339920928983305E-1   -2.974487505598231E-1   -1.488939106473369E-2    3.292359666861654E-2   -1.311146088694861E-2    3.281392790487974E-2   -4.936496249476064E-1   -1.381333522086971E-1
 6.501128907250000E9    -4.345579401752788E-1   -2.967032385467263E-1   -1.495798658208376E-2    3.308422454281416E-2   -1.302677157362443E-2    3.314475669738665E-2   -4.938766512367066E-1   -1.369314493230192E-1
 6.501141446400000E9    -4.352586795159044E-1   -2.956799549822620E-1   -1.500375965951809E-2    3.332364529195637E-2   -1.318334070871732E-2    3.320490684146656E-2   -4.941870596435965E-1   -1.357226407433193E-1
 6.501153985550000E9    -4.356880514908942E-1   -2.948804920584757E-1   -1.501362306857656E-2    3.349614460372141E-2   -1.303340105971294E-2    3.348570505628626E-2   -4.944056352453563E-1   -1.344719146971929E-1
 6.501166524700000E9    -4.361971904413685E-1   -2.939588358031372E-1   -1.485139381904795E-2    3.377654359695121E-2   -1.311773886779776E-2    3.376719706429699E-2   -4.947418940129394E-1   -1.332601776496721E-1
 6.501179063850000E9    -4.369130140435572E-1   -2.930924890134342E-1   -1.501364865608353E-2    3.391052138132938E-2   -1.304607529187020E-2    3.395283366581852E-2   -4.948745304123542E-1   -1.319832581230086E-1
 6.501191603000000E9    -4.374769362102415E-1   -2.921036079903632E-1   -1.491199527969762E-2    3.420411763494995E-2   -1.306350876698548E-2    3.409299362175362E-2   -4.950605633803631E-1   -1.307449162153077E-1
 6.501204142150000E9    -4.379638997560175E-1   -2.912312163777470E-1   -1.481089795469292E-2    3.435745964146057E-2   -1.298295595194575E-2    3.431403879977473E-2   -4.954097775990781E-1   -1.294888596418290E-1
 6.501216681300000E9    -4.384963212551343E-1   -2.904202489431147E-1   -1.491850913097269E-2    3.453427481799892E-2   -1.297668628693944E-2    3.456993342018119E-2   -4.956895892096176E-1   -1.281849564531712E-1
 6.501229220450000E9    -4.391454835307309E-1   -2.894071225647700E-1   -1.488725946998393E-2    3.469284047785413E-2   -1.308975969464132E-2    3.481215056470070E-2   -4.959538300408943E-1   -1.269323434138417E-1
 6.501241759600000E9    -4.396658252234038E-1   -2.885977855140218E-1   -1.489928734799768E-2    3.499355785422101E-2   -1.289454373175757E-2    3.502875798829980E-2   -4.961669992781865E-1   -1.256509158554546E-1
 6.501254298750000E9    -4.403159875209031E-1   -2.877157845468252E-1   -1.486717672507605E-2    3.528951268654738E-2   -1.297698586206700E-2    3.524314671260548E-2   -4.963825076216672E-1   -1.244547091758514E-1
 6.501266837900000E9    -4.407203484127049E-1   -2.867563275021270E-1   -1.492963508408460E-2    3.547760199957270E-2   -1.297831026221402E-2    3.541875335949050E-2   -4.965863398849654E-1   -1.230902848896236E-1
 6.501279377050000E9    -4.413313074012077E-1   -2.858741966847924E-1   -1.478668609736162E-2    3.567751033452723E-2   -1.299556786393335E-2    3.561459625736461E-2   -4.968067684335354E-1   -1.218960052363649E-1
 6.501291916200000E9    -4.417795609608087E-1   -2.849713744019402E-1   -1.496816658731868E-2    3.589351061972772E-2   -1.290472518475190E-2    3.588614069205819E-2   -4.969543102933561E-1   -1.205373919521698E-1
 6.501304455350000E9    -4.424294300518627E-1   -2.840470106666145E-1   -1.492923466920584E-2    3.631092556188661E-2   -1.289540519921105E-2    3.614931443584573E-2   -4.973209912236296E-1   -1.192965774585625E-1
 6.501316994500000E9    -4.429618909450552E-1   -2.831656147001594E-1   -1.498662825213706E-2    3.648764557388047E-2   -1.280332229282880E-2    3.642746368681915E-2   -4.973580532550603E-1   -1.179446639115879E-1
 6.501329533650000E9    -4.434591637821105E-1   -2.823008209170069E-1   -1.477622295939353E-2    3.675571573389561E-2   -1.286241053274397E-2    3.670161809477206E-2   -4.977368364938264E-1   -1.166801782428863E-1
 6.501342072800000E9    -4.440129229470172E-1   -2.813008048565911E-1   -1.492236074973596E-2    3.689315241640062E-2   -1.290038846754693E-2    3.689951119054510E-2   -4.978927539991961E-1   -1.153358955336993E-1
 6.501354611950000E9    -4.444557693129688E-1   -2.804141403980724E-1   -1.491244779152659E-2    3.727038632356929E-2   -1.285587546040996E-2    3.712183840291858E-2   -4.981076918028600E-1   -1.141317257915962E-1
 6.501367151100000E9    -4.450421214250593E-1   -2.793600325079741E-1   -1.496479944836467E-2    3.742149934761267E-2   -1.283437928915473E-2    3.741948044040880E-2   -4.983061191614718E-1   -1.127149195187581E-1
 6.501379690250000E9    -4.457251093533180E-1   -2.786560490685441E-1   -1.475340300590147E-2    3.779353762025757E-2   -1.275001024114126E-2    3.768406565202132E-2   -4.983966206470550E-1   -1.114200797926768E-1
 6.501392229400000E9    -4.462028116622964E-1   -2.775687893054141E-1   -1.489719401008956E-2    3.797933387415903E-2   -1.277884424845118E-2    3.784035290931289E-2   -4.986105576968107E-1   -1.100476619375934E-1
 6.501404768550000E9    -4.467060899058344E-1   -2.766546639125092E-1   -1.470843872044297E-2    3.808132149344578E-2   -1.275681455572556E-2    3.811999323789399E-2   -4.989752869649697E-1   -1.088128478016025E-1
 6.501417307700000E9    -4.472969830181818E-1   -2.757541831652876E-1   -1.473878058102496E-2    3.847215912339068E-2   -1.277890369627952E-2    3.837733659209573E-2   -4.990302952908826E-1   -1.075655156216812E-1
 6.501429846850000E9    -4.478170260736735E-1   -2.748054102136164E-1   -1.481849221948298E-2    3.873037665967505E-2   -1.267706612393960E-2    3.861446605629423E-2   -4.993117017086697E-1   -1.062478982272841E-1
 6.501442386000000E9    -4.483298509975534E-1   -2.738034563692580E-1   -1.465358518003393E-2    3.911889079065033E-2   -1.277345339355634E-2    3.898475373999711E-2   -4.995518326971781E-1   -1.046797521241304E-1
 6.501454925150000E9    -4.487887489898994E-1   -2.728659394352373E-1   -1.465705564384203E-2    3.937604927589597E-2   -1.267991097545743E-2    3.912601771324062E-2   -4.997670591942287E-1   -1.033570124046757E-1
 6.501467464300000E9    -4.494312643773717E-1   -2.720890138121033E-1   -1.481394982077579E-2    3.962858589684077E-2   -1.267694976143247E-2    3.942205075077707E-2   -4.998481773780038E-1   -1.020798468707121E-1
 6.501480003450000E9    -4.499705629398169E-1   -2.710723820948481E-1   -1.476744799801035E-2    3.989273308274741E-2   -1.265027903729629E-2    3.975453075543993E-2   -5.000970873399770E-1   -1.006010456245144E-1
 6.501492542600000E9    -4.504329203030599E-1   -2.700903558624086E-1   -1.477018239223369E-2    4.020955197188232E-2   -1.260820364016142E-2    4.007953060791965E-2   -5.000694949393363E-1   -9.920611678513007E-2
 6.501505081750000E9    -4.509815806167821E-1   -2.692129488777822E-1   -1.476975177377608E-2    4.056655624050191E-2   -1.264128842571144E-2    4.031348945247749E-2   -5.003765364170241E-1   -9.782561368174104E-2
 6.501517620900000E9    -4.515560113071277E-1   -2.682896730987288E-1   -1.487921248536991E-2    4.080057828128430E-2   -1.261639331546192E-2    4.071373257277840E-2   -5.004738145440398E-1   -9.645767254533320E-2
 6.501530160050000E9    -4.520329819184161E-1   -2.673952717358587E-1   -1.459649186776848E-2    4.119812089561797E-2   -1.249593965736457E-2    4.083810795825610E-2   -5.007732825395133E-1   -9.506003902146457E-2
 6.501542699200000E9    -4.525552502300125E-1   -2.662505756601921E-1   -1.451569486219076E-2    4.125012103900054E-2   -1.250215580764637E-2    4.121609637555907E-2   -5.008113858083800E-1   -9.365992651946324E-2
 6.501555238350000E9    -4.530740704333601E-1   -2.653782683775279E-1   -1.476735403686477E-2    4.164952468500462E-2   -1.254377481665339E-2    4.148157463613287E-2   -5.010689259552273E-1   -9.229781848963919E-2
 6.501567777500000E9    -4.535003032780179E-1   -2.644326629146151E-1   -1.471102047660846E-2    4.200913390395410E-2   -1.242269877885891E-2    4.182416062347644E-2   -5.012020881865207E-1   -9.082925155405916E-2
 6.501580316650000E9    -4.540884793210493E-1   -2.633709736241897E-1   -1.465504930830198E-2    4.231719606654222E-2   -1.250327631013281E-2    4.212190160981895E-2   -5.012741282308562E-1   -8.942814849728808E-2
 6.501592855800000E9    -4.545821938505591E-1   -2.624240577685796E-1   -1.462743038898666E-2    4.275311588356372E-2   -1.236515852182873E-2    4.235357954978920E-2   -5.015566782410180E-1   -8.800217241914450E-2
 6.501605394950000E9    -4.550967698348973E-1   -2.614419300847649E-1   -1.460394214352911E-2    4.303868563374363E-2   -1.236953446421538E-2    4.263174728900018E-2   -5.015627233299987E-1   -8.659451355202576E-2
 6.501617934100000E9    -4.556539947749888E-1   -2.605379347521153E-1   -1.459674569935372E-2    4.323648815727151E-2   -1.239310033156336E-2    4.306438001896409E-2   -5.016977495793506E-1   -8.511947423891539E-2
 6.501630473250000E9    -4.561434237830727E-1   -2.595108629287461E-1   -1.464719446325940E-2    4.349716372537996E-2   -1.235400327037571E-2    4.333784301365078E-2   -5.018141747567859E-1   -8.379554196715137E-2
 6.501643012400000E9    -4.567066278429465E-1   -2.584872624751895E-1   -1.449265673070349E-2    4.386221369436152E-2   -1.226260647697521E-2    4.369275227373165E-2   -5.018977137645526E-1   -8.231321283010415E-2
 6.501655551550000E9    -4.571028658438019E-1   -2.574402836114001E-1   -1.445214180644212E-2    4.433667961548886E-2   -1.223842739877239E-2    4.396176251223224E-2   -5.020135769904176E-1   -8.079304974770704E-2
 6.501668090700000E9    -4.576565555742007E-1   -2.565889072449598E-1   -1.451877100957785E-2    4.462734137695310E-2   -1.231392636350029E-2    4.427980591240321E-2   -5.022165263848415E-1   -7.936756273306457E-2
 6.501680629850000E9    -4.582993450973862E-1   -2.555791527992235E-1   -1.451731667887939E-2    4.512112037447934E-2   -1.223679331446156E-2    4.466668648104167E-2   -5.021847526360187E-1   -7.782805907070030E-2
 6.501693169000000E9    -4.586805814120996E-1   -2.546413048230625E-1   -1.452353476640197E-2    4.532868128291411E-2   -1.215775804180354E-2    4.496502707464359E-2   -5.024803852130192E-1   -7.632962125932446E-2
 6.501705708150000E9    -4.590663192096849E-1   -2.536287995952826E-1   -1.447663204558918E-2    4.575945281203853E-2   -1.207585709158243E-2    4.529508186354998E-2   -5.024677903855214E-1   -7.476974859055868E-2
 6.501718247300000E9    -4.596180553578724E-1   -2.524932466758241E-1   -1.447097169093570E-2    4.602580392060857E-2   -1.209498768130127E-2    4.573742297477619E-2   -5.024851913431874E-1   -7.345886424898045E-2
 6.501730786450000E9    -4.600550235623783E-1   -2.515821246246648E-1   -1.437314299729694E-2    4.651323640984764E-2   -1.197712762090739E-2    4.603514570754982E-2   -5.026132372814304E-1   -7.194890009685348E-2
 6.501743325600000E9    -4.606462094954911E-1   -2.504748519881274E-1   -1.426509861004596E-2    4.670208515872375E-2   -1.200200009339058E-2    4.633258077868169E-2   -5.026936519779481E-1   -7.033017283038664E-2
 6.501755864750000E9    -4.611930608609155E-1   -2.494544781650255E-1   -1.421035977980273E-2    4.716695973643922E-2   -1.200124650507593E-2    4.675787268054676E-2   -5.028921487061012E-1   -6.887647062188661E-2
 6.501768403900000E9    -4.614773240055851E-1   -2.484583406794872E-1   -1.418547750481290E-2    4.757687107352745E-2   -1.180467526355723E-2    4.719517962334294E-2   -5.028302767316351E-1   -6.725842183364744E-2
 6.501780943050000E9    -4.620732597514071E-1   -2.474200927805858E-1   -1.422430548843657E-2    4.800513774687102E-2   -1.175677108490037E-2    4.749449136780069E-2   -5.029681458273880E-1   -6.568213652322397E-2
 6.501793482200000E9    -4.626023809526926E-1   -2.464989069133243E-1   -1.412538289667271E-2    4.837757698834627E-2   -1.172240911178052E-2    4.790624794187522E-2   -5.031180436788939E-1   -6.419275201565611E-2
 6.501806021350000E9    -4.630635474494110E-1   -2.453976960281357E-1   -1.420796267901275E-2    4.881818695508553E-2   -1.171215188440465E-2    4.832407945651100E-2   -5.031396044260044E-1   -6.251763873550256E-2
 6.501818560500000E9    -4.636033218408079E-1   -2.444237118000687E-1   -1.418879104946835E-2    4.906939498442583E-2   -1.168640326335780E-2    4.864109339475696E-2   -5.031054485802887E-1   -6.091888931112218E-2
 6.501831099650000E9    -4.639836029420119E-1   -2.434330272763765E-1   -1.411053568296195E-2    4.952449499867654E-2   -1.151422577230035E-2    4.911465765400833E-2   -5.031584957874889E-1   -5.932896708570790E-2
 6.501843638800000E9    -4.644024072323572E-1   -2.422802991812735E-1   -1.404883922118273E-2    4.991250117030924E-2   -1.158900078821117E-2    4.946102610103485E-2   -5.033203479912449E-1   -5.771741778681796E-2
 6.501856177950000E9    -4.650037643890618E-1   -2.412350752210622E-1   -1.400104968766084E-2    5.039662591315754E-2   -1.140106488668502E-2    4.984251828560651E-2   -5.032409412348018E-1   -5.615422630634084E-2
 6.501868717100000E9    -4.653562582263562E-1   -2.403165978181846E-1   -1.395417715690363E-2    5.087154207457562E-2   -1.150685507622543E-2    5.031035304134002E-2   -5.032932846872025E-1   -5.448763247884643E-2
 6.501881256250000E9    -4.658583435711083E-1   -2.391797816935812E-1   -1.383992924277902E-2    5.140518985383421E-2   -1.132409040249150E-2    5.069948244782319E-2   -5.031782798435208E-1   -5.295411584924389E-2
 6.501893795400000E9    -4.663288969028518E-1   -2.380745510100790E-1   -1.392535764216333E-2    5.164704116869905E-2   -1.131602110334731E-2    5.117035689945053E-2   -5.031172693863162E-1   -5.127227027366985E-2
 6.501906334550000E9    -4.668366781300701E-1   -2.369693687962292E-1   -1.375991282063270E-2    5.216090968329620E-2   -1.118878400204163E-2    5.157622573983450E-2   -5.034252553423748E-1   -4.963256880209905E-2
 6.501918873700000E9    -4.673060351526100E-1   -2.360083208316756E-1   -1.374646412891114E-2    5.253109339222680E-2   -1.118691283319446E-2    5.193286913259847E-2   -5.033696605306477E-1   -4.800764994256718E-2
 6.501931412850000E9    -4.677369695966380E-1   -2.349227145028614E-1   -1.363579293879754E-2    5.313795197811533E-2   -1.107201019684128E-2    5.250007171427255E-2   -5.032395041019090E-1   -4.627042139221321E-2
 6.501943952000000E9    -4.682030653112590E-1   -2.338655251795348E-1   -1.369859811067500E-2    5.348893791574362E-2   -1.099704670639805E-2    5.286869213515493E-2   -5.032586729092388E-1   -4.466656470829752E-2
 6.501956491150000E9    -4.686540522162007E-1   -2.327897539382648E-1   -1.350585205166750E-2    5.410454229918232E-2   -1.093348393687603E-2    5.343678745910567E-2   -5.031562138080767E-1   -4.283328097737130E-2
 6.501969030300000E9    -4.690698047675662E-1   -2.317404010021761E-1   -1.345454631099395E-2    5.444418909154820E-2   -1.080791896190742E-2    5.388932282971055E-2   -5.032151040371436E-1   -4.121900668939828E-2
 6.501981569450000E9    -4.695281730308798E-1   -2.306601660327691E-1   -1.336600647860108E-2    5.497220732415689E-2   -1.087921115157985E-2    5.432559126538948E-2   -5.030778035954764E-1   -3.949572499901987E-2
 6.501994108600000E9    -4.700247206095839E-1   -2.295227003761459E-1   -1.333804541219756E-2    5.554005468417710E-2   -1.069601321636867E-2    5.487151199237472E-2   -5.029638743341932E-1   -3.768809913096276E-2
 6.502006647750000E9    -4.703676687479593E-1   -2.283963430520064E-1   -1.327942156985697E-2    5.593702469007358E-2   -1.060786249115069E-2    5.528228815348193E-2   -5.029895689195069E-1   -3.606484314423403E-2
 6.502019186900000E9    -4.709109828403856E-1   -2.273208660193972E-1   -1.337992302590601E-2    5.657100990036860E-2   -1.052238807278909E-2    5.586751874501104E-2   -5.029474914512059E-1   -3.425400526194391E-2
 6.502031726050000E9    -4.712402106686673E-1   -2.261931728329104E-1   -1.334098620977536E-2    5.714396069313472E-2   -1.037627649039440E-2    5.635722521370287E-2   -5.027956938656333E-1   -3.245744451593673E-2
 6.502044265200000E9    -4.718488590401751E-1   -2.250699079072601E-1   -1.312630925513138E-2    5.749711523464006E-2   -1.038321552666734E-2    5.683861571455132E-2   -5.027649620792818E-1   -3.058035094146410E-2
 6.502056804350000E9    -4.722578173897670E-1   -2.239604794292177E-1   -1.304437346239046E-2    5.816179833006940E-2   -1.022105879994869E-2    5.735831857441957E-2   -5.026958727534135E-1   -2.879250312528751E-2
 6.502069343500000E9    -4.725933920587238E-1   -2.228309088865624E-1   -1.291288412870164E-2    5.873780512112505E-2   -1.011709686225523E-2    5.781894869198594E-2   -5.024987232705002E-1   -2.702900067507145E-2
