#  HZ   S   RI   R     50.00 
! Rohde & Schwarz Vector Network Analyzer 
! Rohde-Schwarz,ZNB20-2Port,1311601062101988,3.16
! Created: UTC 3/20/2024, 11:36:59 AM
! freq[Hz]                re:S11                  im:S11                  re:S21                  im:S21                  re:S12                  im:S12                  re:S22                  im:S22
 6.501173430000000E9    -4.362039527774760E-1   -2.946998628572976E-1   -1.466427370842315E-2    3.271816714304877E-2   -1.295360891156148E-2    3.265093173094007E-2   -4.954062677839658E-1   -1.326741480970816E-1
 6.501185200675000E9    -4.367876326636839E-1   -2.938295920894781E-1   -1.464396945813763E-2    3.288403695913174E-2   -1.294517668986304E-2    3.287742473122184E-2   -4.956567168572218E-1   -1.314201106885470E-1
 6.501196971350000E9    -4.373242134153120E-1   -2.930386164795976E-1   -1.472566833378815E-2    3.294146173205088E-2   -1.286598651991399E-2    3.302119903010532E-2   -4.958593378310580E-1   -1.303955060182947E-1
 6.501208742025000E9    -4.378865855214885E-1   -2.921890253685944E-1   -1.470638524229016E-2    3.344058295972018E-2   -1.288928019090997E-2    3.317791379906227E-2   -4.959594084525217E-1   -1.291539757092771E-1
 6.501220512700000E9    -4.383132525543366E-1   -2.913098570031552E-1   -1.472361894155738E-2    3.339470353336636E-2   -1.286044963615919E-2    3.342339539417419E-2   -4.961789419886041E-1   -1.279925141003069E-1
 6.501232283375000E9    -4.389390058193673E-1   -2.905193714741734E-1   -1.468418376871478E-2    3.356204893173034E-2   -1.282558707563432E-2    3.351258942674812E-2   -4.965299090753027E-1   -1.269534986648318E-1
 6.501244054050000E9    -4.393536320176455E-1   -2.896990432076918E-1   -1.470816604120022E-2    3.390737632912619E-2   -1.301281021247355E-2    3.383626771839864E-2   -4.966867634202378E-1   -1.257644930169259E-1
 6.501255824725000E9    -4.399165509121201E-1   -2.888149064038300E-1   -1.476681525179590E-2    3.400836323521558E-2   -1.277028436467897E-2    3.404415893831445E-2   -4.969528018399970E-1   -1.244700462055807E-1
 6.501267595400000E9    -4.404755023457127E-1   -2.878454017240262E-1   -1.475921820632524E-2    3.417362611830672E-2   -1.288208220232073E-2    3.420669264440979E-2   -4.973836407552978E-1   -1.233324358475892E-1
 6.501279366075000E9    -4.409832437611542E-1   -2.872538010676164E-1   -1.482309909712789E-2    3.448332907236058E-2   -1.277635479761226E-2    3.430462060143883E-2   -4.974201599021069E-1   -1.221552929956433E-1
 6.501291136750000E9    -4.415521142497484E-1   -2.862487179778293E-1   -1.472241651147573E-2    3.461515674136162E-2   -1.289865344304804E-2    3.466039153592237E-2   -4.975350726502890E-1   -1.209971176298763E-1
 6.501302907425000E9    -4.420532322211133E-1   -2.854584900075124E-1   -1.470784629920222E-2    3.476178536295611E-2   -1.280283564468723E-2    3.471416997807322E-2   -4.978877506533206E-1   -1.198070519591240E-1
 6.501314678100000E9    -4.425491973100343E-1   -2.846368852860220E-1   -1.486799261843604E-2    3.509398256686887E-2   -1.278564522611408E-2    3.501517831841695E-2   -4.980703886020395E-1   -1.187328813899174E-1
 6.501326448775000E9    -4.430905668051106E-1   -2.837357816627534E-1   -1.471274499985229E-2    3.529115294691974E-2   -1.276243724844297E-2    3.521261090963373E-2   -4.982954300191588E-1   -1.173855000555378E-1
 6.501338219450000E9    -4.434974715439910E-1   -2.828881816619696E-1   -1.468647201067331E-2    3.559631884261896E-2   -1.284902597163284E-2    3.548550102521825E-2   -4.985578520959868E-1   -1.161659509930524E-1
 6.501349990125000E9    -4.441022288987945E-1   -2.820321417830637E-1   -1.463754674050310E-2    3.566826469801600E-2   -1.278427623483450E-2    3.566899306776957E-2   -4.987291723659387E-1   -1.150516233716244E-1
 6.501361760800000E9    -4.445703139599618E-1   -2.812718017237801E-1   -1.475482644086419E-2    3.595035195998162E-2   -1.275120661706022E-2    3.589467014207264E-2   -4.988748739104743E-1   -1.136662622520468E-1
 6.501373531475000E9    -4.451058374499943E-1   -2.804262268527302E-1   -1.467805089780725E-2    3.615566244637234E-2   -1.271478149660382E-2    3.599390205788996E-2   -4.991319007945139E-1   -1.126736706152711E-1
 6.501385302150000E9    -4.455806544406313E-1   -2.795348863068136E-1   -1.473812754864212E-2    3.641781729770951E-2   -1.274013956825584E-2    3.628874714399012E-2   -4.993727530238060E-1   -1.114234734894794E-1
 6.501397072825000E9    -4.460560437467725E-1   -2.786798814923665E-1   -1.467205791136036E-2    3.658844407720379E-2   -1.273783197759487E-2    3.657039484274871E-2   -4.994878496806647E-1   -1.101237454730746E-1
 6.501408843500000E9    -4.465492182661033E-1   -2.778597011801645E-1   -1.451383370232529E-2    3.686503937935273E-2   -1.269795878549671E-2    3.680150948517802E-2   -4.996694404746857E-1   -1.088794207056885E-1
 6.501420614175000E9    -4.470103670270708E-1   -2.768486208164056E-1   -1.464113248569770E-2    3.717364903233690E-2   -1.272096837077630E-2    3.702584268909823E-2   -4.997922413061540E-1   -1.077072015931179E-1
 6.501432384850000E9    -4.475189400947528E-1   -2.760388573043379E-1   -1.470493994668158E-2    3.729394384444974E-2   -1.266060025010604E-2    3.724423071549113E-2   -4.999477538196315E-1   -1.065226976694340E-1
 6.501444155525000E9    -4.481136606438926E-1   -2.750993583925625E-1   -1.456696962757946E-2    3.748865253160115E-2   -1.258670464921911E-2    3.737695423288043E-2   -5.002772396881469E-1   -1.051287807462323E-1
 6.501455926200000E9    -4.486371344768578E-1   -2.742090445114106E-1   -1.469683880011098E-2    3.792456773798074E-2   -1.263433059960400E-2    3.767111785631624E-2   -5.003783215252208E-1   -1.039459136210284E-1
 6.501467696875000E9    -4.489938633967300E-1   -2.734839504100235E-1   -1.468728562381477E-2    3.814483968019983E-2   -1.261347567931771E-2    3.793593316082285E-2   -5.004888345436382E-1   -1.027899961591752E-1
 6.501479467550000E9    -4.496452902448319E-1   -2.725693095899827E-1   -1.475814286149088E-2    3.830147730322973E-2   -1.260951890009748E-2    3.807987649646925E-2   -5.007502393187997E-1   -1.016130302376954E-1
 6.501491238225000E9    -4.501815399177389E-1   -2.716698039375447E-1   -1.462615365504872E-2    3.858179083732249E-2   -1.255229036285754E-2    3.841159657619264E-2   -5.009751168279951E-1   -1.001945778813450E-1
 6.501503008900000E9    -4.505851330001818E-1   -2.707009092827344E-1   -1.457529167724922E-2    3.873071750551371E-2   -1.254459662747038E-2    3.869152224041617E-2   -5.011080889235218E-1   -9.912016245613760E-2
 6.501514779575000E9    -4.510461278198916E-1   -2.698802438348992E-1   -1.461751049795841E-2    3.909612419929506E-2   -1.251023418014789E-2    3.890356176295828E-2   -5.013799508379603E-1   -9.767997000032672E-2
 6.501526550250000E9    -4.515507505279712E-1   -2.689966045378738E-1   -1.458222207089932E-2    3.941472997408232E-2   -1.258488654262993E-2    3.913334073975265E-2   -5.013391855580099E-1   -9.638260787856080E-2
 6.501538320925000E9    -4.520618443366191E-1   -2.680967271261584E-1   -1.469253374198779E-2    3.956043594137483E-2   -1.250784357082490E-2    3.947389692386012E-2   -5.015083765198105E-1   -9.515934715971815E-2
 6.501550091600000E9    -4.526316589499583E-1   -2.672359733606388E-1   -1.458111020966854E-2    3.996103054849777E-2   -1.247634619223465E-2    3.977307033076224E-2   -5.016056488807642E-1   -9.383308712173283E-2
 6.501561862275000E9    -4.530628753029471E-1   -2.664265276965609E-1   -1.461378931177786E-2    4.020838717088463E-2   -1.254650972739447E-2    3.983189007331351E-2   -5.017432704460181E-1   -9.243559754478917E-2
 6.501573632950000E9    -4.534805220268701E-1   -2.653731020230131E-1   -1.456842793158523E-2    4.028654049517901E-2   -1.241894449848214E-2    4.024554141518735E-2   -5.020375650261034E-1   -9.127642237899339E-2
 6.501585403625000E9    -4.541127109706737E-1   -2.645463243387406E-1   -1.457778641262225E-2    4.076751600867229E-2   -1.248484607595205E-2    4.037675971032650E-2   -5.020391383319537E-1   -8.996355987754114E-2
 6.501597174300000E9    -4.544543747958615E-1   -2.636888897522247E-1   -1.452044544913288E-2    4.079167996849020E-2   -1.242132045302742E-2    4.064341166311115E-2   -5.022781219310039E-1   -8.875536078475299E-2
 6.501608944975000E9    -4.550279743120049E-1   -2.627676251508089E-1   -1.456225244654539E-2    4.117968973160479E-2   -1.235897914179365E-2    4.098388950831896E-2   -5.023005388248706E-1   -8.733001687673242E-2
 6.501620715650000E9    -4.555800148076425E-1   -2.617989681761390E-1   -1.452690387069454E-2    4.150685488392714E-2   -1.237261500332387E-2    4.126674230574850E-2   -5.025157503154597E-1   -8.590744344329408E-2
 6.501632486325000E9    -4.558939256818241E-1   -2.609139059648782E-1   -1.455921169553953E-2    4.184979073302463E-2   -1.229562689641093E-2    4.152948569271561E-2   -5.027864201570875E-1   -8.458408706277376E-2
 6.501644257000000E9    -4.563663836124257E-1   -2.601976630176763E-1   -1.456965109733204E-2    4.203563685781612E-2   -1.225999314296786E-2    4.185359632114741E-2   -5.028238730707103E-1   -8.326039904492903E-2
 6.501656027675000E9    -4.569258767676968E-1   -2.591020674014088E-1   -1.446096790974724E-2    4.239336627356024E-2   -1.228809174102084E-2    4.213314419113046E-2   -5.028253751105382E-1   -8.204376130754598E-2
 6.501667798350000E9    -4.573655816552317E-1   -2.581544711446818E-1   -1.453662116086789E-2    4.269464690991060E-2   -1.233169136765404E-2    4.246306562156121E-2   -5.030951687835713E-1   -8.066461228358951E-2
 6.501679569025000E9    -4.579173674757636E-1   -2.572449111948468E-1   -1.446277842779943E-2    4.306598006172357E-2   -1.219630152632110E-2    4.266556861593183E-2   -5.030553440846108E-1   -7.929369479884102E-2
 6.501691339700000E9    -4.582227137852026E-1   -2.562930632469799E-1   -1.444428620790401E-2    4.326919251928479E-2   -1.218699265870642E-2    4.306890055990392E-2   -5.031717068461621E-1   -7.795597196117821E-2
 6.501703110375000E9    -4.588533817043416E-1   -2.554501980847683E-1   -1.442923809040500E-2    4.360871294340948E-2   -1.220788582466557E-2    4.325265261092257E-2   -5.032920334342306E-1   -7.664392468141215E-2
 6.501714881050000E9    -4.593485088216877E-1   -2.545039398051653E-1   -1.452851781262965E-2    4.392247432342573E-2   -1.217531960713670E-2    4.365655553174021E-2   -5.034538672506589E-1   -7.531654879019326E-2
 6.501726651725000E9    -4.597625505024362E-1   -2.535552419377819E-1   -1.434670206587253E-2    4.414011675976549E-2   -1.210191516969050E-2    4.388488407352849E-2   -5.035164073559950E-1   -7.400628164740454E-2
 6.501738422400000E9    -4.602305314718342E-1   -2.526750318804986E-1   -1.439860887265390E-2    4.451760703512317E-2   -1.210383521246193E-2    4.422647448222673E-2   -5.037010483350955E-1   -7.241633141219980E-2
 6.501750193075000E9    -4.607062271932057E-1   -2.516491895208672E-1   -1.440113870990619E-2    4.487696437067185E-2   -1.204420496017610E-2    4.449514934875898E-2   -5.037831047303375E-1   -7.096852143382816E-2
 6.501761963750000E9    -4.611020391981140E-1   -2.507850960858636E-1   -1.434600878085992E-2    4.516025417763792E-2   -1.201120002036929E-2    4.493147753975531E-2   -5.038220335813848E-1   -6.974571917474717E-2
 6.501773734425000E9    -4.616149138763875E-1   -2.498486904266972E-1   -1.430696743812170E-2    4.546765510743429E-2   -1.197284122372566E-2    4.512193634598639E-2   -5.038657716572091E-1   -6.834173726094044E-2
 6.501785505100000E9    -4.620907167357572E-1   -2.488018090868378E-1   -1.428677336755867E-2    4.580217489061985E-2   -1.191640280225703E-2    4.542636392378560E-2   -5.039868914187475E-1   -6.691722297759295E-2
 6.501797275775000E9    -4.624696530768601E-1   -2.479297808086531E-1   -1.432146569880018E-2    4.622880023976423E-2   -1.189907226639811E-2    4.582268829387613E-2   -5.041247902579706E-1   -6.559162383067073E-2
 6.501809046450000E9    -4.630071226190675E-1   -2.470069928917976E-1   -1.430735219205235E-2    4.652721027094595E-2   -1.189290227566505E-2    4.619249249115904E-2   -5.041642905834883E-1   -6.405679325130251E-2
 6.501820817125000E9    -4.633914315677889E-1   -2.460827094793613E-1   -1.425664493717659E-2    4.695819551960289E-2   -1.174186848510575E-2    4.646740694706483E-2   -5.042511762271092E-1   -6.270431166787410E-2
 6.501832587800000E9    -4.637706576886979E-1   -2.449910273688391E-1   -1.404108538489296E-2    4.728427635951691E-2   -1.180532704909201E-2    4.690274047230928E-2   -5.043068293232719E-1   -6.117524917199244E-2
 6.501844358475000E9    -4.643503063687521E-1   -2.441637992177971E-1   -1.411424271936801E-2    4.762857750328815E-2   -1.168177259685664E-2    4.716319552641215E-2   -5.043308982721123E-1   -5.981313081731238E-2
 6.501856129150000E9    -4.646577422729942E-1   -2.430942881704395E-1   -1.409378429045786E-2    4.792997833745679E-2   -1.170324269162501E-2    4.751446786974461E-2   -5.042996871370422E-1   -5.840080087079194E-2
 6.501867899825000E9    -4.652079028631360E-1   -2.422211837487510E-1   -1.396135257173895E-2    4.835900898164504E-2   -1.170003148529336E-2    4.789056981879584E-2   -5.044154819012825E-1   -5.683042943733321E-2
 6.501879670500000E9    -4.656371551828726E-1   -2.411770101116504E-1   -1.393188703562971E-2    4.862300589123456E-2   -1.157394288594092E-2    4.819944771706874E-2   -5.043011909866179E-1   -5.532055321843492E-2
 6.501891441175000E9    -4.662592446827442E-1   -2.401721756186194E-1   -1.393297993475166E-2    4.908006194575205E-2   -1.150745203930146E-2    4.864930444217146E-2   -5.045592946906517E-1   -5.376381176072503E-2
 6.501903211850000E9    -4.665648720070290E-1   -2.392995290666915E-1   -1.397745390607396E-2    4.948229346176432E-2   -1.148153302397610E-2    4.905141440857449E-2   -5.043343987254619E-1   -5.229180013009946E-2
 6.501914982525000E9    -4.669893550970487E-1   -2.383146678435188E-1   -1.397312466592649E-2    4.997557293093364E-2   -1.149518205249872E-2    4.939168727545748E-2   -5.045272580943061E-1   -5.091908776752322E-2
 6.501926753200000E9    -4.674256291463055E-1   -2.373290681298044E-1   -1.380759827672178E-2    5.031482474847900E-2   -1.133738946653562E-2    4.967530341169361E-2   -5.046582961691466E-1   -4.937818179016428E-2
 6.501938523875000E9    -4.677893988105816E-1   -2.363865494087555E-1   -1.385194028030952E-2    5.070138048419746E-2   -1.128271291323061E-2    5.013577668672785E-2   -5.046323416931774E-1   -4.778847022694348E-2
 6.501950294550000E9    -4.682999112662012E-1   -2.352821228895602E-1   -1.370709439050469E-2    5.112268616243842E-2   -1.122944993833652E-2    5.047430280866652E-2   -5.044888614444938E-1   -4.625786537143452E-2
 6.501962065225000E9    -4.686941666972027E-1   -2.343118431422946E-1   -1.372798021070951E-2    5.156428518957331E-2   -1.123894692832878E-2    5.090263489561640E-2   -5.044730132072254E-1   -4.467549175211771E-2
 6.501973835900000E9    -4.692407387684628E-1   -2.333705889673643E-1   -1.363679537250286E-2    5.197890894187538E-2   -1.112392542441756E-2    5.131154026132290E-2   -5.046148625775719E-1   -4.328471255690621E-2
 6.501985606575000E9    -4.696456188713705E-1   -2.323316517209946E-1   -1.376547985372605E-2    5.232174148317632E-2   -1.106484802866612E-2    5.176940432176626E-2   -5.045072816789464E-1   -4.169283497522856E-2
 6.501997377250000E9    -4.699702666240438E-1   -2.312922738870233E-1   -1.365386098318538E-2    5.280870450511668E-2   -1.099826876444121E-2    5.207980233172731E-2   -5.046232176479895E-1   -4.013990451966874E-2
 6.502009147925000E9    -4.704079718013979E-1   -2.303887462425610E-1   -1.353266143647477E-2    5.307576209574628E-2   -1.099050639668573E-2    5.255858734350185E-2   -5.045142694034593E-1   -3.853435239762538E-2
 6.502020918600000E9    -4.708973027543003E-1   -2.293463385726101E-1   -1.345616921797434E-2    5.350412548336068E-2   -1.095619262274298E-2    5.286536451778842E-2   -5.045137123270852E-1   -3.694836852212001E-2
 6.502032689275000E9    -4.712277793484217E-1   -2.282153439910329E-1   -1.339532310276756E-2    5.410572287122976E-2   -1.087304615703397E-2    5.343970074565138E-2   -5.044763884137374E-1   -3.537175189493275E-2
 6.502044459950000E9    -4.717221163823514E-1   -2.272182387468833E-1   -1.344972037108321E-2    5.450885808376406E-2   -1.074113364810563E-2    5.384315578285028E-2   -5.044304874947189E-1   -3.369699833719467E-2
 6.502056230625000E9    -4.721424546967787E-1   -2.262029426201141E-1   -1.334531403467223E-2    5.502256790006943E-2   -1.068146088288386E-2    5.428626790570273E-2   -5.044637625846041E-1   -3.212159097314304E-2
 6.502068001300000E9    -4.726210466569323E-1   -2.251885305003659E-1   -1.326498255988861E-2    5.545102648552030E-2   -1.061469927665740E-2    5.472792701453771E-2   -5.043877480317454E-1   -3.057272597770179E-2
 6.502079771975000E9    -4.729404146704378E-1   -2.242231404274637E-1   -1.313774881256629E-2    5.591676532453171E-2   -1.058046137360948E-2    5.519724227330282E-2   -5.042140770239957E-1   -2.910489275749475E-2
 6.502091542650000E9    -4.734175074143389E-1   -2.231294149151019E-1   -1.310745214828542E-2    5.637206227199787E-2   -1.037097917056364E-2    5.563954763029156E-2   -5.041669703774596E-1   -2.725302011509128E-2
 6.502103313325000E9    -4.737420611418852E-1   -2.220162874303275E-1   -1.304469465704930E-2    5.695161062674071E-2   -1.041253741858255E-2    5.608438986899830E-2   -5.039760100551676E-1   -2.553213781266307E-2
 6.502115084000000E9    -4.741495284652037E-1   -2.209925188314726E-1   -1.300129591494003E-2    5.746161548393290E-2   -1.025464019667744E-2    5.663786561451817E-2   -5.040657366339301E-1   -2.389744142034499E-2
 6.502126854675000E9    -4.745395926974283E-1   -2.200423357572647E-1   -1.296266802018002E-2    5.795678799399015E-2   -1.011089893456078E-2    5.705827147695515E-2   -5.039750662664150E-1   -2.209481158014392E-2
 6.502138625350000E9    -4.750585234030306E-1   -2.189173857532153E-1   -1.280602427804716E-2    5.837626349296616E-2   -1.016061683243106E-2    5.759660409106816E-2   -5.038082077951684E-1   -2.051731075076439E-2
 6.502150396025000E9    -4.753372694047782E-1   -2.179297132908853E-1   -1.285033713583142E-2    5.891052507938128E-2   -9.964891439992763E-3    5.812786138873876E-2   -5.037240040685642E-1   -1.882952820047270E-2
 6.502162166700000E9    -4.757788969444275E-1   -2.168177632634657E-1   -1.266594448473960E-2    5.943592943282541E-2   -9.892021110158798E-3    5.863996187313580E-2   -5.036682648952253E-1   -1.705011214245442E-2
 6.502173937375000E9    -4.761288911448750E-1   -2.157226946346508E-1   -1.252119794566105E-2    5.988195290016365E-2   -9.803992959397352E-3    5.912885307779514E-2   -5.033452670973509E-1   -1.519247425651316E-2
 6.502185708050000E9    -4.766466593502988E-1   -2.146416764305621E-1   -1.264053286173958E-2    6.055020877037853E-2   -9.726257125319356E-3    5.967091751373105E-2   -5.033350392660805E-1   -1.332449391817013E-2
 6.502197478725000E9    -4.768822396647627E-1   -2.134930421838359E-1   -1.232849643545728E-2    6.102269730761480E-2   -9.629083050836429E-3    6.030557343108559E-2   -5.032520699025401E-1   -1.167073403087986E-2
 6.502209249400000E9    -4.773091518691279E-1   -2.123658180803188E-1   -1.224090333670950E-2    6.163171058835615E-2   -9.465789749550171E-3    6.077843294675368E-2   -5.030272109307135E-1   -9.981928461536659E-3
 6.502221020075000E9    -4.777693039369498E-1   -2.113188799824921E-1   -1.223840943133415E-2    6.227541320189029E-2   -9.379988343482677E-3    6.122896876616692E-2   -5.027892997725039E-1   -8.082407715440972E-3
 6.502232790750000E9    -4.781677848026244E-1   -2.101181908746605E-1   -1.213451539976820E-2    6.284296464113408E-2   -9.274760571746605E-3    6.187872531201551E-2   -5.027574499787654E-1   -6.259495491013746E-3
