#  HZ   S   RI   R     50.00 
! Rohde & Schwarz Vector Network Analyzer 
! Rohde-Schwarz,ZNB20-2Port,1311601062101988,3.16
! Created: UTC 3/20/2024, 11:46:31 AM
! freq[Hz]                re:S11                  im:S11                  re:S21                  im:S21                  re:S12                  im:S12                  re:S22                  im:S22
 6.500913979000000E9    -4.245999306622897E-1   -3.113103394926012E-1   -1.484904269504795E-2    2.998878730522977E-2   -1.326921304571920E-2    2.995130013818677E-2   -4.890005566940235E-1   -1.573253694115405E-1
 6.500926609675000E9    -4.252073290037335E-1   -3.105767710156407E-1   -1.482337112156669E-2    3.000439076133702E-2   -1.321865718869837E-2    3.017680083795332E-2   -4.892666544793786E-1   -1.561155340319760E-1
 6.500939240350000E9    -4.259163283267048E-1   -3.095362117685695E-1   -1.495181702715234E-2    3.017998382302552E-2   -1.320778603174593E-2    3.021456798690755E-2   -4.895645611340921E-1   -1.550079307993837E-1
 6.500951871025000E9    -4.264275298007469E-1   -3.087519562814998E-1   -1.503183864751496E-2    3.044948945976492E-2   -1.320995154086990E-2    3.065960867941584E-2   -4.899637336650158E-1   -1.537205816780379E-1
 6.500964501700000E9    -4.271357541973295E-1   -3.078806630266306E-1   -1.495761012225728E-2    3.068959507099361E-2   -1.315947023713892E-2    3.066421328582196E-2   -4.901954428339378E-1   -1.524611818303307E-1
 6.500977132375000E9    -4.277081251958513E-1   -3.070897278955156E-1   -1.494605616696987E-2    3.079199673358316E-2   -1.323222829127002E-2    3.095373047237059E-2   -4.904975251202521E-1   -1.513921380578788E-1
 6.500989763050000E9    -4.281731210755455E-1   -3.061941794479510E-1   -1.483454729244631E-2    3.088191545902863E-2   -1.318924498156977E-2    3.104000897648492E-2   -4.908431530224983E-1   -1.501150915232111E-1
 6.501002393725000E9    -4.287979760734933E-1   -3.052940057026874E-1   -1.484771849392446E-2    3.119054632603207E-2   -1.317806170798397E-2    3.121285301248052E-2   -4.910957446333717E-1   -1.490326688868171E-1
 6.501015024400000E9    -4.293539771093759E-1   -3.044966654784825E-1   -1.498960082976056E-2    3.129282007087005E-2   -1.323392437559606E-2    3.138217788574441E-2   -4.913651827452216E-1   -1.477280055282705E-1
 6.501027655075000E9    -4.300144959139799E-1   -3.036174862540201E-1   -1.494065616820749E-2    3.151740245552143E-2   -1.322664106678488E-2    3.153569669548959E-2   -4.916347074959855E-1   -1.466246404807502E-1
 6.501040285750000E9    -4.305493244062958E-1   -3.026892880497185E-1   -1.501664128123347E-2    3.173821980243969E-2   -1.311951923205767E-2    3.176792587288854E-2   -4.919687996368253E-1   -1.453706048306523E-1
 6.501052916425000E9    -4.310750760807709E-1   -3.018286562200876E-1   -1.502319763473531E-2    3.193775404732167E-2   -1.311509238341782E-2    3.197529576020783E-2   -4.922376927231329E-1   -1.440724448761628E-1
 6.501065547100000E9    -4.317083144591035E-1   -3.009175932741067E-1   -1.487244642890132E-2    3.210557324402170E-2   -1.316759826260973E-2    3.220160499895063E-2   -4.925414839652395E-1   -1.429600589336179E-1
 6.501078177775000E9    -4.323189569811861E-1   -3.001396410901017E-1   -1.487141886474526E-2    3.238949275507904E-2   -1.317203295091713E-2    3.238736593637525E-2   -4.928374893646159E-1   -1.416607527583845E-1
 6.501090808450000E9    -4.328714069466318E-1   -2.992630199169223E-1   -1.490976885320067E-2    3.251373373449289E-2   -1.315035362901378E-2    3.263877351276612E-2   -4.931031536836661E-1   -1.404205024037384E-1
 6.501103439125000E9    -4.334280906577349E-1   -2.982709656492259E-1   -1.483606160687878E-2    3.274064269064741E-2   -1.321518008372103E-2    3.273200991208960E-2   -4.932542754755634E-1   -1.392356807314658E-1
 6.501116069800000E9    -4.339389102422682E-1   -2.974379830026600E-1   -1.502524669524039E-2    3.294441289153347E-2   -1.311045135855268E-2    3.301182542630389E-2   -4.936611072909784E-1   -1.380154061628408E-1
 6.501128700475000E9    -4.345207334696131E-1   -2.966039403804488E-1   -1.492473800173532E-2    3.326656913147257E-2   -1.315400609514455E-2    3.315036337469283E-2   -4.939478335250354E-1   -1.367197467331135E-1
 6.501141331150000E9    -4.352811815797809E-1   -2.956549586228884E-1   -1.491063442322248E-2    3.352367811474213E-2   -1.295178292579055E-2    3.339392726144851E-2   -4.941696503002149E-1   -1.354242018812843E-1
 6.501153961825000E9    -4.357788334821747E-1   -2.947873414895474E-1   -1.484951178573947E-2    3.375439259535520E-2   -1.313341543006032E-2    3.365871218747807E-2   -4.943771288911424E-1   -1.342827865002837E-1
 6.501166592500000E9    -4.362860447092927E-1   -2.939344361514762E-1   -1.494399069171959E-2    3.377441743909912E-2   -1.309195928753355E-2    3.376065752846701E-2   -4.946223491032607E-1   -1.329023859336350E-1
 6.501179223175000E9    -4.368296087028709E-1   -2.930869481503124E-1   -1.500627785167934E-2    3.394358826694015E-2   -1.315114032518690E-2    3.418602249752197E-2   -4.948975598078267E-1   -1.316852627437807E-1
 6.501191853850000E9    -4.373903889160209E-1   -2.921664461560720E-1   -1.503696187396236E-2    3.424325183337624E-2   -1.315662876486753E-2    3.431473117882398E-2   -4.951572069787913E-1   -1.305290773900813E-1
 6.501204484525000E9    -4.379751570872358E-1   -2.912780644675503E-1   -1.491468382128517E-2    3.445690065665738E-2   -1.302676549241076E-2    3.446863067296196E-2   -4.953486466714394E-1   -1.292262219009937E-1
 6.501217115200000E9    -4.386627763569829E-1   -2.903860133392694E-1   -1.490159777002432E-2    3.461946191762208E-2   -1.312249417932830E-2    3.475622704249549E-2   -4.955786898798908E-1   -1.278645998099167E-1
 6.501229745875000E9    -4.391468714920017E-1   -2.893408949849859E-1   -1.500428318089248E-2    3.500706632083090E-2   -1.310443130271687E-2    3.498791056874656E-2   -4.959032075962347E-1   -1.267556692243644E-1
 6.501242376550000E9    -4.396665600401677E-1   -2.884973394663206E-1   -1.488654303055387E-2    3.513950938764029E-2   -1.310278328248605E-2    3.509739701249045E-2   -4.961427816287893E-1   -1.253578309762142E-1
 6.501255007225000E9    -4.402846599962851E-1   -2.875788244688087E-1   -1.494364228750183E-2    3.548070076822787E-2   -1.311191099676093E-2    3.551259045835783E-2   -4.964616217529441E-1   -1.240817869391417E-1
 6.501267637900000E9    -4.406676987780166E-1   -2.867270425940583E-1   -1.498251943329749E-2    3.569608005903541E-2   -1.300359106312160E-2    3.564722214439228E-2   -4.966332735148041E-1   -1.227346477448322E-1
 6.501280268575000E9    -4.413138959847659E-1   -2.858669558175158E-1   -1.502667014257584E-2    3.592295053636507E-2   -1.295027580572589E-2    3.591849091506527E-2   -4.967023323312276E-1   -1.215417519448500E-1
 6.501292899250000E9    -4.419150346450461E-1   -2.849137470572090E-1   -1.491916410683552E-2    3.614298658356366E-2   -1.292044584219703E-2    3.608302108513615E-2   -4.970796405917705E-1   -1.201318926972270E-1
 6.501305529925000E9    -4.424754208363863E-1   -2.839234655650975E-1   -1.491671410396804E-2    3.635189450363274E-2   -1.292811249757538E-2    3.636297492174875E-2   -4.973285806012334E-1   -1.189244246373122E-1
 6.501318160600000E9    -4.430789951282105E-1   -2.829957137480100E-1   -1.482649356485162E-2    3.664237691434840E-2   -1.298031886600906E-2    3.663087862008575E-2   -4.974650576009466E-1   -1.177762032805348E-1
 6.501330791275000E9    -4.434868086078165E-1   -2.820760797101670E-1   -1.494022535010715E-2    3.688244034404811E-2   -1.293290608991314E-2    3.683443093369831E-2   -4.976233268554840E-1   -1.163400351614112E-1
 6.501343421950000E9    -4.440880900004012E-1   -2.812000258864583E-1   -1.484589208269915E-2    3.722189889765620E-2   -1.283708389516376E-2    3.707812290432645E-2   -4.979487429214938E-1   -1.149700950132201E-1
 6.501356052625000E9    -4.446234995894915E-1   -2.802098227401634E-1   -1.487208984234218E-2    3.736639571063057E-2   -1.283705353432609E-2    3.732861523725645E-2   -4.980944185336912E-1   -1.136179242209274E-1
 6.501368683300000E9    -4.453525734901487E-1   -2.793103187892180E-1   -1.499639866985961E-2    3.760800322802275E-2   -1.280503922879026E-2    3.750414377862604E-2   -4.981850815326496E-1   -1.122210213696287E-1
 6.501381313975000E9    -4.456767563565238E-1   -2.783891490380669E-1   -1.487218773833957E-2    3.798547190082297E-2   -1.285631828335165E-2    3.776106555840032E-2   -4.987065447407970E-1   -1.109391485674312E-1
 6.501393944650000E9    -4.462967750548291E-1   -2.774304420557406E-1   -1.482862029081782E-2    3.823768766635711E-2   -1.283263421177957E-2    3.811585220428456E-2   -4.987121883850388E-1   -1.095729436769940E-1
 6.501406575325000E9    -4.468309351266394E-1   -2.765805806582265E-1   -1.501626168988568E-2    3.848400258552308E-2   -1.280960745192904E-2    3.829227138140504E-2   -4.988434412182612E-1   -1.081151498660384E-1
 6.501419206000000E9    -4.474272358127704E-1   -2.756466465523166E-1   -1.477704833673841E-2    3.876186111045356E-2   -1.275454370698086E-2    3.859105337520175E-2   -4.990911359218160E-1   -1.069368254347956E-1
 6.501431836675000E9    -4.478218788175646E-1   -2.746634746602128E-1   -1.478511664551855E-2    3.895517442624347E-2   -1.279775093599230E-2    3.888745394129019E-2   -4.994788140618125E-1   -1.055098840133911E-1
 6.501444467350000E9    -4.484239325216671E-1   -2.736682377075150E-1   -1.471077657273001E-2    3.933178372467182E-2   -1.272130428082584E-2    3.917213900773978E-2   -4.994729727173567E-1   -1.042095297131929E-1
 6.501457098025000E9    -4.490275778376622E-1   -2.727493403300222E-1   -1.480316285059892E-2    3.970821471180676E-2   -1.271116228507133E-2    3.946447935368873E-2   -4.996515066843945E-1   -1.027661613537719E-1
 6.501469728700000E9    -4.495275363744728E-1   -2.718954695484598E-1   -1.480237482368920E-2    3.989577789766488E-2   -1.269015817496659E-2    3.967186852883257E-2   -4.998903705722499E-1   -1.013872545482003E-1
 6.501482359375000E9    -4.500397997010721E-1   -2.708312387053349E-1   -1.468222882058392E-2    4.010628494912152E-2   -1.273897337121008E-2    3.996161861617197E-2   -5.000490769007581E-1   -1.001730447429563E-1
 6.501494990050000E9    -4.505073763482038E-1   -2.698996168886227E-1   -1.473168144032865E-2    4.043594985410782E-2   -1.263375990881929E-2    4.025536965720027E-2   -5.002629758231586E-1   -9.864635379557329E-2
 6.501507620725000E9    -4.511192403449474E-1   -2.689631551810400E-1   -1.475597850471639E-2    4.072940463051781E-2   -1.270134164655723E-2    4.056253949856425E-2   -5.002716648536776E-1   -9.719383090101769E-2
 6.501520251400000E9    -4.515538799173595E-1   -2.681251360858143E-1   -1.472324242294494E-2    4.106528656372511E-2   -1.260239326533554E-2    4.082093891223451E-2   -5.004900632506725E-1   -9.576419443271335E-2
 6.501532882075000E9    -4.520676759846480E-1   -2.670565251734247E-1   -1.484864994476420E-2    4.143301707323879E-2   -1.261279705392895E-2    4.119565054171842E-2   -5.006702423903029E-1   -9.454714871682419E-2
 6.501545512750000E9    -4.525668802119995E-1   -2.659474440246986E-1   -1.464286114811347E-2    4.172222201165927E-2   -1.249242304568564E-2    4.148452652240447E-2   -5.009333238358802E-1   -9.306750262480569E-2
 6.501558143425000E9    -4.532382778173927E-1   -2.651289010345648E-1   -1.464704025190466E-2    4.200045864333066E-2   -1.250660850992150E-2    4.174628209548125E-2   -5.011022276414724E-1   -9.161484998893503E-2
 6.501570774100000E9    -4.535449201184318E-1   -2.640804819983993E-1   -1.468308054881543E-2    4.221659284311198E-2   -1.263345813672504E-2    4.202342984433290E-2   -5.012173648169433E-1   -9.023120228367099E-2
 6.501583404775000E9    -4.543139135129527E-1   -2.631750347934105E-1   -1.459818366930467E-2    4.253203701390865E-2   -1.246238424628040E-2    4.233978155229758E-2   -5.012381978095314E-1   -8.885890187831171E-2
 6.501596035450000E9    -4.547262998964379E-1   -2.620246016955919E-1   -1.466866391268643E-2    4.288522057377626E-2   -1.247102459541222E-2    4.268027045700952E-2   -5.014266389065092E-1   -8.727706515353306E-2
 6.501608666125000E9    -4.551621765378338E-1   -2.612250222121222E-1   -1.465672998253612E-2    4.332375254208137E-2   -1.239723156253294E-2    4.300128310657426E-2   -5.015447991058615E-1   -8.596492180913103E-2
 6.501621296800000E9    -4.557301403049072E-1   -2.601650560138178E-1   -1.462446771247990E-2    4.358487059944967E-2   -1.242245065126278E-2    4.338456822557370E-2   -5.017347445304695E-1   -8.436710715412231E-2
 6.501633927475000E9    -4.562173433352775E-1   -2.592271426651531E-1   -1.453675581909247E-2    4.392576779510650E-2   -1.236010155448510E-2    4.367142037132375E-2   -5.017817679899684E-1   -8.295312841745497E-2
 6.501646558150000E9    -4.567344181109819E-1   -2.581773690175269E-1   -1.461514789164880E-2    4.416797828443608E-2   -1.229181257626408E-2    4.398942946435649E-2   -5.019780686315053E-1   -8.155428709956257E-2
 6.501659188825000E9    -4.572510855741522E-1   -2.571646699804565E-1   -1.454253523857324E-2    4.472342307011511E-2   -1.229098726841100E-2    4.426271544094326E-2   -5.019037228827158E-1   -8.004989909746410E-2
 6.501671819500000E9    -4.578955552204165E-1   -2.561792727112089E-1   -1.441572439102036E-2    4.489303112005059E-2   -1.220445864160772E-2    4.457823832108618E-2   -5.022281227562185E-1   -7.854025696736047E-2
 6.501684450175000E9    -4.582969331558609E-1   -2.551222108059384E-1   -1.439808025776806E-2    4.545443111027201E-2   -1.214329891496965E-2    4.492905816595217E-2   -5.022540537831831E-1   -7.709479680281366E-2
 6.501697080850000E9    -4.587873686592672E-1   -2.542438565861568E-1   -1.429035807947865E-2    4.583700366439102E-2   -1.210543764068225E-2    4.530557038050757E-2   -5.023046822078973E-1   -7.544732452969072E-2
 6.501709711525000E9    -4.593234356512894E-1   -2.531241837190729E-1   -1.442712502984352E-2    4.596287860674340E-2   -1.210218563593515E-2    4.569509902995698E-2   -5.024894617644587E-1   -7.401689433295848E-2
 6.501722342200000E9    -4.597279230541811E-1   -2.522352913400682E-1   -1.445883921437149E-2    4.646721025867952E-2   -1.202412881434659E-2    4.604621967170036E-2   -5.024753731098557E-1   -7.246488502045902E-2
 6.501734972875000E9    -4.602537780386695E-1   -2.511187219455518E-1   -1.437229845149131E-2    4.673157585757779E-2   -1.202349195029591E-2    4.632564880651249E-2   -5.025380711737741E-1   -7.084397570067541E-2
 6.501747603550000E9    -4.607645280952138E-1   -2.500314552778133E-1   -1.431592959804050E-2    4.721839392064462E-2   -1.197386524319786E-2    4.673498525375614E-2   -5.026659176388836E-1   -6.924293743396920E-2
 6.501760234225000E9    -4.612045275861408E-1   -2.490627396241717E-1   -1.437954585399161E-2    4.754824366199508E-2   -1.188453413627506E-2    4.713318220128342E-2   -5.027824105444118E-1   -6.782846723575114E-2
 6.501772864900000E9    -4.617925790404924E-1   -2.480745951216870E-1   -1.438828824000277E-2    4.781799887000559E-2   -1.179052205368603E-2    4.753972358705751E-2   -5.027217630309598E-1   -6.622910881400867E-2
 6.501785495575000E9    -4.622380764520872E-1   -2.471069620416950E-1   -1.422905698470302E-2    4.833099857742092E-2   -1.192369010224684E-2    4.795932372681780E-2   -5.029446833456762E-1   -6.472533312447330E-2
 6.501798126250000E9    -4.627972583458205E-1   -2.460317787992073E-1   -1.420231378571306E-2    4.880571362899640E-2   -1.183950531575134E-2    4.829012904010100E-2   -5.029256021529038E-1   -6.315382709812963E-2
 6.501810756925000E9    -4.631857794779059E-1   -2.449288430925674E-1   -1.408726640720922E-2    4.915224421421405E-2   -1.167308010543366E-2    4.870852676766991E-2   -5.029810687247652E-1   -6.144562921881139E-2
 6.501823387600000E9    -4.637074542267655E-1   -2.439282571219533E-1   -1.421171355178614E-2    4.949588024206681E-2   -1.166473381597821E-2    4.902588842023653E-2   -5.030641120948625E-1   -5.995808854276560E-2
 6.501836018275000E9    -4.641949173881256E-1   -2.428951385009286E-1   -1.396692257058864E-2    5.012871492671866E-2   -1.155254269439907E-2    4.953947569324394E-2   -5.030651484631172E-1   -5.834259599382340E-2
 6.501848648950000E9    -4.646251965286516E-1   -2.418103137169240E-1   -1.409372839965762E-2    5.036433243460221E-2   -1.155201267860353E-2    4.993483382236782E-2   -5.031203221156466E-1   -5.659445510278931E-2
 6.501861279625000E9    -4.651349400972479E-1   -2.407406909311775E-1   -1.395550230403797E-2    5.074114283684660E-2   -1.152076978875691E-2    5.038160508522127E-2   -5.030358292065304E-1   -5.502091243823446E-2
 6.501873910300000E9    -4.656078576893564E-1   -2.396560068725045E-1   -1.388131415336246E-2    5.126440796244193E-2   -1.138346171356143E-2    5.062851835362672E-2   -5.031264664662585E-1   -5.338765164619272E-2
 6.501886540975000E9    -4.659411880247635E-1   -2.386429105583733E-1   -1.379440894350407E-2    5.171378995369018E-2   -1.128374490808494E-2    5.112111655533852E-2   -5.030268900420658E-1   -5.179039076493640E-2
 6.501899171650000E9    -4.665135049521362E-1   -2.375749048064976E-1   -1.380207264216560E-2    5.203670010082432E-2   -1.128704036923125E-2    5.160070413637453E-2   -5.031519387692699E-1   -5.004927384192817E-2
 6.501911802325000E9    -4.670169504144336E-1   -2.364855193517945E-1   -1.373657846117020E-2    5.251279560117428E-2   -1.111318149621102E-2    5.212795634295815E-2   -5.031278687826964E-1   -4.835148827794575E-2
 6.501924433000000E9    -4.674434899790235E-1   -2.355427421807268E-1   -1.360600699122483E-2    5.308093868058267E-2   -1.111650392188680E-2    5.244059258007513E-2   -5.031883627613880E-1   -4.663772426902796E-2
 6.501937063675000E9    -4.678530657360487E-1   -2.342154509961770E-1   -1.364050766117401E-2    5.345283882304903E-2   -1.091218774636459E-2    5.293333866454059E-2   -5.031364041407079E-1   -4.497857104409549E-2
 6.501949694350000E9    -4.683550625831941E-1   -2.333280099551337E-1   -1.347092610087713E-2    5.412312393570799E-2   -1.086046998668974E-2    5.340556979568348E-2   -5.030736348712151E-1   -4.324747962956687E-2
 6.501962325025000E9    -4.688014163487496E-1   -2.321174447292804E-1   -1.349483883102926E-2    5.462519479924725E-2   -1.092255613472362E-2    5.388351707464814E-2   -5.029530638148821E-1   -4.170415184956248E-2
 6.501974955700000E9    -4.693336811181312E-1   -2.311061477273839E-1   -1.336990574973497E-2    5.499489904947875E-2   -1.085716955624955E-2    5.441694402942657E-2   -5.028788691114984E-1   -3.988198357241456E-2
 6.501987586375000E9    -4.697641597440411E-1   -2.299881023035050E-1   -1.349561393925439E-2    5.559890126017605E-2   -1.071926686565703E-2    5.490697137392833E-2   -5.028681911026146E-1   -3.813044245502672E-2
 6.502000217050000E9    -4.702032998398988E-1   -2.288181739309594E-1   -1.339466329493310E-2    5.599097697233053E-2   -1.058585400002603E-2    5.548218167947674E-2   -5.028834241556547E-1   -3.643911854030041E-2
 6.502012847725000E9    -4.705740889930596E-1   -2.277731813972440E-1   -1.319641681828684E-2    5.656164686509883E-2   -1.054296965085523E-2    5.588382491548918E-2   -5.027810760763441E-1   -3.448153885920194E-2
 6.502025478400000E9    -4.710612114773218E-1   -2.266735319091782E-1   -1.316438994358876E-2    5.716316738979428E-2   -1.046618593526923E-2    5.645373078821643E-2   -5.027528274075513E-1   -3.277368996963313E-2
 6.502038109075000E9    -4.715179810083323E-1   -2.254970873447250E-1   -1.298547626919003E-2    5.764216415527498E-2   -1.040029881460061E-2    5.691259082826824E-2   -5.026194083591375E-1   -3.085147943407174E-2
 6.502050739750000E9    -4.719633501031786E-1   -2.242926285917224E-1   -1.300834278449616E-2    5.823127162180296E-2   -1.034422028681842E-2    5.743020028695252E-2   -5.024592487190801E-1   -2.904909069832884E-2
