#  HZ   S   RI   R     50.00 
! Rohde & Schwarz Vector Network Analyzer 
! Rohde-Schwarz,ZNB20-2Port,1311601062101988,3.16
! Created: UTC 3/20/2024, 11:46:44 AM
! freq[Hz]                re:S11                  im:S11                  re:S21                  im:S21                  re:S12                  im:S12                  re:S22                  im:S22
 6.500908676000000E9    -4.244386057502588E-1   -3.117524839760102E-1   -1.503430960193926E-2    2.975193594278825E-2   -1.325639599130287E-2    2.993308948912538E-2   -4.889139873411358E-1   -1.578464110461818E-1
 6.500921324575000E9    -4.249596929102418E-1   -3.110002315795036E-1   -1.493392727014866E-2    3.004233384315791E-2   -1.335428458359268E-2    3.013048014911612E-2   -4.892045951100467E-1   -1.566218500334532E-1
 6.500933973150000E9    -4.257305719430384E-1   -3.101402124554644E-1   -1.486320792482207E-2    3.019390409130304E-2   -1.324918349083648E-2    3.029363482296656E-2   -4.893926317861045E-1   -1.553787930757305E-1
 6.500946621725000E9    -4.261797102866254E-1   -3.093113671340293E-1   -1.496878741898891E-2    3.027945550543424E-2   -1.328093286633522E-2    3.046249831880609E-2   -4.898682844898437E-1   -1.541451714984136E-1
 6.500959270300000E9    -4.267660303676651E-1   -3.083833783011783E-1   -1.491852380502750E-2    3.057216965790665E-2   -1.315403876752183E-2    3.067252794664105E-2   -4.901236292158133E-1   -1.530764130903996E-1
 6.500971918875000E9    -4.274078950586043E-1   -3.074567947548169E-1   -1.503929403823456E-2    3.080903014186333E-2   -1.318655449366743E-2    3.081852146736678E-2   -4.904437500964240E-1   -1.519328296150125E-1
 6.500984567450000E9    -4.279181922475213E-1   -3.067060031134290E-1   -1.495341027513836E-2    3.083314784262762E-2   -1.312693952450915E-2    3.105307087670263E-2   -4.907844294960153E-1   -1.505476111366166E-1
 6.500997216025000E9    -4.284791210378044E-1   -3.058064284619140E-1   -1.494937553017142E-2    3.117502044410666E-2   -1.326669903546365E-2    3.116490711153408E-2   -4.908301287716656E-1   -1.494228556783350E-1
 6.501009864600000E9    -4.291672245322783E-1   -3.049512612617717E-1   -1.493271721239991E-2    3.123402143423389E-2   -1.325116425939265E-2    3.141455892556998E-2   -4.911990325336140E-1   -1.481931058466955E-1
 6.501022513175000E9    -4.296729007572385E-1   -3.040322369897022E-1   -1.492230571888261E-2    3.152178747325891E-2   -1.321307459067917E-2    3.156812849270552E-2   -4.913876435881073E-1   -1.469951021960239E-1
 6.501035161750000E9    -4.302870238151031E-1   -3.032052499667486E-1   -1.499750167623250E-2    3.157978340456574E-2   -1.316642657521319E-2    3.171294177866316E-2   -4.917309455714115E-1   -1.458228170936529E-1
 6.501047810325000E9    -4.309152254067410E-1   -3.022615161844446E-1   -1.488789847726617E-2    3.191914921036106E-2   -1.316555383443115E-2    3.196053185744509E-2   -4.919672604197333E-1   -1.447083780256071E-1
 6.501060458900000E9    -4.315228966266411E-1   -3.014482761275565E-1   -1.497464858898787E-2    3.217790111023208E-2   -1.317339655535617E-2    3.203773138556885E-2   -4.924561456597392E-1   -1.433425868812587E-1
 6.501073107475000E9    -4.320396768693420E-1   -3.006131986044798E-1   -1.495631406563543E-2    3.237351553392821E-2   -1.318559819845519E-2    3.236755827830630E-2   -4.926188764981679E-1   -1.420557239543026E-1
 6.501085756050000E9    -4.325807950641042E-1   -2.996582067571131E-1   -1.485179116736113E-2    3.242251017109118E-2   -1.309339964078745E-2    3.255935748791263E-2   -4.929118752591632E-1   -1.410034363543461E-1
 6.501098404625000E9    -4.332781790360504E-1   -2.987605873580813E-1   -1.497069926368118E-2    3.281750254124648E-2   -1.315839850285087E-2    3.275620040987486E-2   -4.931664974955282E-1   -1.396673832774497E-1
 6.501111053200000E9    -4.337360528333671E-1   -2.979322385764945E-1   -1.504529452983998E-2    3.293423478627952E-2   -1.308343019420055E-2    3.289087406081907E-2   -4.935827023375371E-1   -1.384032886835894E-1
 6.501123701775000E9    -4.343882346046853E-1   -2.970461049149836E-1   -1.502472467530787E-2    3.315922792813367E-2   -1.319548019429503E-2    3.318409211523866E-2   -4.937616482618457E-1   -1.371005036832555E-1
 6.501136350350000E9    -4.348448107971757E-1   -2.960882561967614E-1   -1.497905019682431E-2    3.346739166703778E-2   -1.318653069449521E-2    3.337021767953407E-2   -4.940512098772459E-1   -1.360739998863965E-1
 6.501148998925000E9    -4.354243560240684E-1   -2.952770842982405E-1   -1.492738713391918E-2    3.358880960933746E-2   -1.317168648534644E-2    3.352065410364365E-2   -4.942156944058715E-1   -1.346485593796535E-1
 6.501161647500000E9    -4.360841100141984E-1   -2.943589485100562E-1   -1.494659283978741E-2    3.392085282296400E-2   -1.299515847109526E-2    3.376349213546740E-2   -4.944813890840613E-1   -1.334746518387419E-1
 6.501174296075000E9    -4.365662078208178E-1   -2.934859261309212E-1   -1.497471832800621E-2    3.396981104084672E-2   -1.314809135229978E-2    3.384013017971210E-2   -4.946729097580182E-1   -1.323113289983931E-1
 6.501186944650000E9    -4.371763185969894E-1   -2.925649777197333E-1   -1.493901138441910E-2    3.418668288795935E-2   -1.302431225163633E-2    3.414666404002667E-2   -4.949915872753695E-1   -1.309849546085532E-1
 6.501199593225000E9    -4.376829570343803E-1   -2.916365996109105E-1   -1.490164429326661E-2    3.432077126892834E-2   -1.296657513871956E-2    3.449447926381483E-2   -4.952721794149535E-1   -1.298202823916662E-1
 6.501212241800000E9    -4.384869479442072E-1   -2.907749605759612E-1   -1.487271583745720E-2    3.462606445897533E-2   -1.313574933721847E-2    3.457231154588258E-2   -4.955677662234043E-1   -1.284155050708957E-1
 6.501224890375000E9    -4.388783871115460E-1   -2.899028178069757E-1   -1.488184396415714E-2    3.493840249347979E-2   -1.304115637019896E-2    3.488919889786092E-2   -4.957068421041608E-1   -1.271112655695503E-1
 6.501237538950000E9    -4.394505149732886E-1   -2.889233128369928E-1   -1.501947984637794E-2    3.524217646585204E-2   -1.300656752492826E-2    3.508820152890808E-2   -4.960293057003087E-1   -1.257426414557899E-1
 6.501250187525000E9    -4.400682682618381E-1   -2.880130570029442E-1   -1.502038043123330E-2    3.546392959766693E-2   -1.290860373254297E-2    3.534534172033207E-2   -4.962472978737534E-1   -1.245027873511960E-1
 6.501262836100000E9    -4.405822848274947E-1   -2.871448984461414E-1   -1.497441845744465E-2    3.558400018908669E-2   -1.303074342055014E-2    3.555862349985300E-2   -4.965089118946781E-1   -1.232271916215845E-1
 6.501275484675000E9    -4.410620959845847E-1   -2.863809459185949E-1   -1.495631986439206E-2    3.585787372599682E-2   -1.305561196702235E-2    3.579377626352031E-2   -4.967744758254556E-1   -1.220412977339672E-1
 6.501288133250000E9    -4.417546580178399E-1   -2.853301769295946E-1   -1.490685118518414E-2    3.605013390431688E-2   -1.303899795890326E-2    3.602999226270000E-2   -4.969366835163782E-1   -1.206887878141219E-1
 6.501300781825000E9    -4.422669029271165E-1   -2.844220407894040E-1   -1.501034504742839E-2    3.638536365565716E-2   -1.295988713104415E-2    3.628131059161797E-2   -4.972190854622675E-1   -1.193428430692392E-1
 6.501313430400000E9    -4.428469365013131E-1   -2.834872365589677E-1   -1.484991111165331E-2    3.650914754785765E-2   -1.296725671690745E-2    3.652329494329232E-2   -4.972506822790454E-1   -1.180337480055539E-1
 6.501326078975000E9    -4.432948397745972E-1   -2.826006151851302E-1   -1.496986949585602E-2    3.683145115971018E-2   -1.296948643274376E-2    3.682887354605084E-2   -4.975479630203669E-1   -1.166487652710409E-1
 6.501338727550000E9    -4.438486650008175E-1   -2.815341750447651E-1   -1.493009705818968E-2    3.718741909811504E-2   -1.293626992542983E-2    3.707072902934400E-2   -4.977767759524019E-1   -1.153992052270249E-1
 6.501351376125000E9    -4.444755160204961E-1   -2.807057459358757E-1   -1.481489809449564E-2    3.734141923518167E-2   -1.292718565173941E-2    3.719047791736976E-2   -4.979515688870396E-1   -1.140665471839147E-1
 6.501364024700000E9    -4.449644762557960E-1   -2.797409250503494E-1   -1.502400409188374E-2    3.765799556101008E-2   -1.300466050539122E-2    3.747934653093016E-2   -4.983292636318329E-1   -1.126288047919541E-1
 6.501376673275000E9    -4.454436420193356E-1   -2.788389282169201E-1   -1.486854157675704E-2    3.790554513634060E-2   -1.281364754624633E-2    3.768937207528163E-2   -4.982979662899329E-1   -1.114277324630355E-1
 6.501389321850000E9    -4.459877182418751E-1   -2.778549450279236E-1   -1.491120820694312E-2    3.822478193793603E-2   -1.286866594163572E-2    3.796043728634289E-2   -4.986494342660144E-1   -1.100189755405251E-1
 6.501401970425000E9    -4.465911705491175E-1   -2.769700306193405E-1   -1.495054738574063E-2    3.831414126218918E-2   -1.289330814430752E-2    3.834169277112463E-2   -4.988704623393959E-1   -1.087976977976880E-1
 6.501414619000000E9    -4.472153866844809E-1   -2.760107981208866E-1   -1.483737470139446E-2    3.882218152515701E-2   -1.278598171882817E-2    3.846914864295047E-2   -4.989812077443853E-1   -1.073403930826537E-1
 6.501427267575000E9    -4.476823984833588E-1   -2.749971878895937E-1   -1.483260413163911E-2    3.906032551109626E-2   -1.283493362159163E-2    3.882997096012392E-2   -4.992139648584228E-1   -1.060314067509185E-1
 6.501439916150000E9    -4.482881541483174E-1   -2.740083497114378E-1   -1.482487165536010E-2    3.934259159542543E-2   -1.273243177019939E-2    3.914904035474387E-2   -4.995113341760038E-1   -1.046007957069445E-1
 6.501452564725000E9    -4.487215664331873E-1   -2.731602280274781E-1   -1.485938969338534E-2    3.946608191292524E-2   -1.279463632114083E-2    3.934622866725831E-2   -4.995557519097871E-1   -1.031737788986900E-1
 6.501465213300000E9    -4.492287434928431E-1   -2.722561413669299E-1   -1.475804093254999E-2    3.983291834836149E-2   -1.269422179724360E-2    3.957183634469206E-2   -4.996007192617324E-1   -1.020102245099177E-1
 6.501477861875000E9    -4.497957055061153E-1   -2.713315755918828E-1   -1.482868176137328E-2    4.003556012659468E-2   -1.266904498778423E-2    3.986016567574452E-2   -5.000089479335856E-1   -1.004213630106799E-1
 6.501490510450000E9    -4.503250111970454E-1   -2.704334461296865E-1   -1.477164918029472E-2    4.042325238016644E-2   -1.270228986536486E-2    4.027986743982579E-2   -5.000643948690834E-1   -9.902070814976206E-2
 6.501503159025000E9    -4.509020712536000E-1   -2.693903457096640E-1   -1.483923695262438E-2    4.072994989963633E-2   -1.268219549923555E-2    4.048696433770478E-2   -5.003681347506655E-1   -9.770837912326730E-2
 6.501515807600000E9    -4.514477775893800E-1   -2.683948582716228E-1   -1.481073554738289E-2    4.096673756386902E-2   -1.258656395089306E-2    4.086659513225430E-2   -5.005236174574549E-1   -9.643825241799145E-2
 6.501528456175000E9    -4.520393389318043E-1   -2.673501963184257E-1   -1.480376089143871E-2    4.125900087165801E-2   -1.258798013468334E-2    4.099013161516793E-2   -5.005257878127379E-1   -9.492898184003576E-2
 6.501541104750000E9    -4.524104754694782E-1   -2.664487563913642E-1   -1.467305861099285E-2    4.160597221210639E-2   -1.258556609779019E-2    4.140871531250379E-2   -5.006600963950466E-1   -9.346452482865093E-2
 6.501553753325000E9    -4.529657399230211E-1   -2.654876172683664E-1   -1.470781234598255E-2    4.195177294764368E-2   -1.254956334555782E-2    4.174288989240571E-2   -5.008301059463732E-1   -9.205693190725191E-2
 6.501566401900000E9    -4.535075111115971E-1   -2.644329846626836E-1   -1.471665477474362E-2    4.214045160523557E-2   -1.246203394768059E-2    4.195106622752762E-2   -5.011030680354479E-1   -9.063145368341408E-2
 6.501579050475000E9    -4.540328427294487E-1   -2.634594926726292E-1   -1.472564965050902E-2    4.262757865914339E-2   -1.245034315219205E-2    4.229857808857681E-2   -5.012422418076729E-1   -8.917932477683926E-2
 6.501591699050000E9    -4.545301171754642E-1   -2.625572491249913E-1   -1.473885220366602E-2    4.282602449576690E-2   -1.243083248804762E-2    4.264424664788508E-2   -5.013503389398196E-1   -8.775559564007737E-2
 6.501604347625000E9    -4.549726023675578E-1   -2.616029956158114E-1   -1.462844310544450E-2    4.320901602837753E-2   -1.235965652915779E-2    4.290349430226212E-2   -5.014543887183787E-1   -8.632133497510550E-2
 6.501616996200000E9    -4.556331294996058E-1   -2.606660349033020E-1   -1.457742384029651E-2    4.355720169565179E-2   -1.233198384085048E-2    4.322820526675741E-2   -5.015572919224558E-1   -8.487439714357783E-2
 6.501629644775000E9    -4.560997316386136E-1   -2.596856344036014E-1   -1.448849218648679E-2    4.379908585095522E-2   -1.230372753005375E-2    4.361233018431874E-2   -5.017267602987484E-1   -8.324835584824324E-2
 6.501642293350000E9    -4.565965832241919E-1   -2.585992523327718E-1   -1.458524655958550E-2    4.421913565410320E-2   -1.229656414391981E-2    4.388880624252429E-2   -5.019345680521480E-1   -8.192589996699137E-2
 6.501654941925000E9    -4.570152603544655E-1   -2.576327913212563E-1   -1.456457097051713E-2    4.456659985041379E-2   -1.228573806969934E-2    4.417231313804659E-2   -5.019654186308899E-1   -8.038122052016716E-2
 6.501667590500000E9    -4.576034912068445E-1   -2.566886377646225E-1   -1.463423082063533E-2    4.488217771007399E-2   -1.223974048506779E-2    4.450105732109552E-2   -5.020998540932180E-1   -7.891482057015681E-2
 6.501680239075000E9    -4.581642310399102E-1   -2.556282181912715E-1   -1.448851689473504E-2    4.526425461744291E-2   -1.223164339934886E-2    4.488829312568687E-2   -5.022046452689615E-1   -7.750990859508722E-2
 6.501692887650000E9    -4.586067906900527E-1   -2.546481920258730E-1   -1.445422719085902E-2    4.552436001511051E-2   -1.216410466587972E-2    4.524383327587841E-2   -5.023542456984618E-1   -7.598197713880951E-2
 6.501705536225000E9    -4.590396515332262E-1   -2.535369004775186E-1   -1.433054738711640E-2    4.584420940626893E-2   -1.208167272778454E-2    4.564238705255298E-2   -5.022991273719756E-1   -7.437471457922223E-2
 6.501718184800000E9    -4.595638327394492E-1   -2.525660457045877E-1   -1.441596235862400E-2    4.633152778488350E-2   -1.209460383096027E-2    4.592961431886518E-2   -5.025741703452699E-1   -7.276036135752974E-2
 6.501730833375000E9    -4.600746573430011E-1   -2.515673753058457E-1   -1.434909344768564E-2    4.681246617333102E-2   -1.205366714355572E-2    4.642613808961168E-2   -5.026274775257674E-1   -7.131307309997220E-2
 6.501743481950000E9    -4.605261049418046E-1   -2.506240974668360E-1   -1.433246601548985E-2    4.706069778550190E-2   -1.202178129252489E-2    4.677088616846925E-2   -5.026058456569613E-1   -6.980007083154521E-2
 6.501756130525000E9    -4.610048958129609E-1   -2.495091253597755E-1   -1.428824276489193E-2    4.740453754108059E-2   -1.191267170477782E-2    4.711552497816843E-2   -5.026285115254794E-1   -6.824673606361659E-2
 6.501768779100000E9    -4.615892099261579E-1   -2.484285516553972E-1   -1.425265798167302E-2    4.787164687667101E-2   -1.193288302298931E-2    4.747857016612885E-2   -5.028277842640415E-1   -6.664232974202573E-2
 6.501781427675000E9    -4.620252653053296E-1   -2.474514840841478E-1   -1.430057447985247E-2    4.834880751239525E-2   -1.183186334030971E-2    4.781995359350192E-2   -5.029091391015411E-1   -6.499933453097646E-2
 6.501794076250000E9    -4.625839087270725E-1   -2.463429320399403E-1   -1.427550454106083E-2    4.856171484073236E-2   -1.177985401308553E-2    4.825036560943625E-2   -5.028322552918510E-1   -6.352765952454494E-2
 6.501806724825000E9    -4.630849524473322E-1   -2.454593511694854E-1   -1.421649666460689E-2    4.921219756673616E-2   -1.169026967144691E-2    4.867427031924491E-2   -5.029907132319698E-1   -6.189780991359948E-2
 6.501819373400000E9    -4.636342724698917E-1   -2.442569819177721E-1   -1.406974133570622E-2    4.948822877496461E-2   -1.177696928874885E-2    4.899589547746573E-2   -5.028715630326572E-1   -6.019488077331950E-2
 6.501832021975000E9    -4.639902250502110E-1   -2.431907990956702E-1   -1.417054550947928E-2    4.987349982486492E-2   -1.159006246747139E-2    4.937353853307237E-2   -5.031236556024454E-1   -5.885093229030575E-2
 6.501844670550000E9    -4.645010328756366E-1   -2.421877768041922E-1   -1.415949722238416E-2    5.031425046955249E-2   -1.155753987485781E-2    4.983354202092549E-2   -5.030142142638615E-1   -5.701964651030272E-2
 6.501857319125000E9    -4.649712745749282E-1   -2.412486633223704E-1   -1.387559570533117E-2    5.071006808257784E-2   -1.151858886238552E-2    5.026874044247662E-2   -5.030765718303930E-1   -5.542702740087723E-2
 6.501869967700000E9    -4.654354288639413E-1   -2.401019321209464E-1   -1.387857943313859E-2    5.122016585984128E-2   -1.142248846326678E-2    5.069436394971579E-2   -5.031266257328563E-1   -5.382571234405176E-2
 6.501882616275000E9    -4.658912260174901E-1   -2.390517414225150E-1   -1.388342538056978E-2    5.165954780219346E-2   -1.125773729612607E-2    5.108541434661246E-2   -5.030070119734993E-1   -5.208523038901590E-2
 6.501895264850000E9    -4.663106824144171E-1   -2.380192996358529E-1   -1.389615753634466E-2    5.205816510242331E-2   -1.129546828215732E-2    5.159219392955516E-2   -5.030244315819898E-1   -5.050833588043673E-2
 6.501907913425000E9    -4.668420468945220E-1   -2.368960932664873E-1   -1.367854507871390E-2    5.256645685462308E-2   -1.118828509870836E-2    5.191933901680381E-2   -5.030035145494534E-1   -4.882795619031916E-2
 6.501920562000000E9    -4.673186239327058E-1   -2.358632329678957E-1   -1.372565978418801E-2    5.304537182621215E-2   -1.103034814492061E-2    5.244875585695239E-2   -5.030469999779950E-1   -4.710036380789437E-2
 6.501933210575000E9    -4.677821134128483E-1   -2.346679845575941E-1   -1.370796146855293E-2    5.355276415402620E-2   -1.105171997653496E-2    5.286095268838131E-2   -5.030752676601018E-1   -4.541856669688030E-2
 6.501945859150000E9    -4.683331121360448E-1   -2.336713655730273E-1   -1.356204519403194E-2    5.389905678576164E-2   -1.091906983152028E-2    5.330804490209223E-2   -5.030164719302396E-1   -4.366650038172759E-2
 6.501958507725000E9    -4.686154612688818E-1   -2.324498318548489E-1   -1.355221219550764E-2    5.451153980047105E-2   -1.095420648172502E-2    5.385320999853945E-2   -5.029548539092040E-1   -4.197693722055283E-2
 6.501971156300000E9    -4.690694091649726E-1   -2.313977621829304E-1   -1.347653286294217E-2    5.489931503341783E-2   -1.079287448789823E-2    5.432456736003682E-2   -5.029509087150283E-1   -4.025780664060500E-2
 6.501983804875000E9    -4.695592625563910E-1   -2.302846439730140E-1   -1.347668760933668E-2    5.540190416821806E-2   -1.069009525289542E-2    5.486617610157512E-2   -5.028932584807314E-1   -3.845589229988067E-2
 6.501996453450000E9    -4.700247621462073E-1   -2.292178578705305E-1   -1.321196119681420E-2    5.595769324264840E-2   -1.069260984323301E-2    5.527818694657182E-2   -5.027042109879378E-1   -3.664908650348130E-2
 6.502009102025000E9    -4.705536694618012E-1   -2.281256346695756E-1   -1.315621281505573E-2    5.649975243363615E-2   -1.059343559118884E-2    5.582579371808281E-2   -5.028425113600299E-1   -3.490893710049501E-2
 6.502021750600000E9    -4.709710502685923E-1   -2.269956228082457E-1   -1.317602444175411E-2    5.704088661013227E-2   -1.049256596972308E-2    5.634181975293771E-2   -5.027972699526775E-1   -3.317596442527856E-2
 6.502034399175000E9    -4.713143906069517E-1   -2.259974426595087E-1   -1.295783643643711E-2    5.767097514010961E-2   -1.031930144257685E-2    5.675716353807355E-2   -5.026809429846282E-1   -3.146101358880517E-2
 6.502047047750000E9    -4.717570556580923E-1   -2.247708069469612E-1   -1.306217615941314E-2    5.812916496006407E-2   -1.029691269224338E-2    5.734916253152327E-2   -5.024363687247188E-1   -2.955086410827366E-2
