#  HZ   S   RI   R     50.00 
! Rohde & Schwarz Vector Network Analyzer 
! Rohde-Schwarz,ZNB20-2Port,1311601062101988,3.16
! Created: UTC 3/20/2024, 11:46:51 AM
! freq[Hz]                re:S11                  im:S11                  re:S21                  im:S21                  re:S12                  im:S12                  re:S22                  im:S22
 6.500907867000000E9    -4.243288058899169E-1   -3.118078296506082E-1   -1.489024409003105E-2    2.986760398474761E-2   -1.329397533576953E-2    2.997281243125766E-2   -4.886819882263241E-1   -1.579265543941010E-1
 6.500920513750000E9    -4.248868755283741E-1   -3.109908052969014E-1   -1.486742942075285E-2    2.996796102481679E-2   -1.319814839649545E-2    3.011065751695162E-2   -4.890437826809865E-1   -1.565818294212409E-1
 6.500933160500000E9    -4.254367313677458E-1   -3.100446269018146E-1   -1.486429957974962E-2    3.024696015686538E-2   -1.320803264675759E-2    3.023016443108139E-2   -4.894812696867903E-1   -1.554924892255580E-1
 6.500945807250000E9    -4.260572215179199E-1   -3.092574624034297E-1   -1.489866640513477E-2    3.038765803810486E-2   -1.327701390506364E-2    3.052221804259412E-2   -4.897384465774531E-1   -1.543184129223673E-1
 6.500958454000000E9    -4.268358171611396E-1   -3.084455426788200E-1   -1.493744352085809E-2    3.041581592800653E-2   -1.324937050882241E-2    3.066339465804416E-2   -4.900725200119363E-1   -1.531984766242975E-1
 6.500971100750000E9    -4.272531288097416E-1   -3.076328220459703E-1   -1.495899997954182E-2    3.075183164222208E-2   -1.327457127672929E-2    3.078856574623983E-2   -4.903389844825569E-1   -1.519086324802482E-1
 6.500983747500000E9    -4.278530356218027E-1   -3.066561695879314E-1   -1.489788630603782E-2    3.091007986487211E-2   -1.318089669459621E-2    3.099204952172691E-2   -4.905301977350608E-1   -1.506892790838255E-1
 6.500996394250000E9    -4.284280434438512E-1   -3.057900803333490E-1   -1.505109717814593E-2    3.113509654677979E-2   -1.328803023559246E-2    3.120559857006907E-2   -4.908029426840194E-1   -1.494637016114177E-1
 6.501009041000000E9    -4.291118666997138E-1   -3.050833402503103E-1   -1.488843033346858E-2    3.129683272633827E-2   -1.317592642722527E-2    3.136634283442623E-2   -4.912374797178383E-1   -1.482873912811541E-1
 6.501021687750000E9    -4.295763165592745E-1   -3.042253351983023E-1   -1.499720189405356E-2    3.154292911838122E-2   -1.324892483020258E-2    3.154815598798737E-2   -4.913883933010883E-1   -1.469762687564780E-1
 6.501034334500000E9    -4.301765825415742E-1   -3.032321492018257E-1   -1.488674140290488E-2    3.177563637148044E-2   -1.318748899238657E-2    3.175377600303685E-2   -4.918280701213593E-1   -1.457661271853875E-1
 6.501046981250000E9    -4.308716387365228E-1   -3.023765153943260E-1   -1.491234248339299E-2    3.189705312210399E-2   -1.318019791221937E-2    3.198598750793302E-2   -4.920534933562364E-1   -1.446510888408928E-1
 6.501059628000000E9    -4.314294160977594E-1   -3.015540617896086E-1   -1.500565000016754E-2    3.218437081676586E-2   -1.313164019886034E-2    3.215512770654583E-2   -4.923755005411403E-1   -1.434517361303987E-1
 6.501072274750000E9    -4.319224944918361E-1   -3.006797282137759E-1   -1.499766676734848E-2    3.225917088601569E-2   -1.311237016788561E-2    3.236542204130328E-2   -4.927315712534923E-1   -1.422202927337481E-1
 6.501084921500000E9    -4.326188063647867E-1   -2.997336235367802E-1   -1.503403839014507E-2    3.247063785009520E-2   -1.316743655495736E-2    3.254278708368082E-2   -4.928599079567755E-1   -1.410115819566906E-1
 6.501097568250000E9    -4.331456460327358E-1   -2.989665442861082E-1   -1.497991014304498E-2    3.271490445524589E-2   -1.319512341254627E-2    3.275263417287983E-2   -4.932120953458069E-1   -1.397366086383915E-1
 6.501110215000000E9    -4.337393482498331E-1   -2.980227647653658E-1   -1.497267628964446E-2    3.300390510389573E-2   -1.313149941525891E-2    3.293187701264111E-2   -4.933284626477740E-1   -1.385260004871162E-1
 6.501122861750000E9    -4.342098459320042E-1   -2.970484107735449E-1   -1.501748156520264E-2    3.308710860476993E-2   -1.317309933894848E-2    3.315933683921714E-2   -4.937631452071760E-1   -1.371998104773234E-1
 6.501135508500000E9    -4.349023495822378E-1   -2.961386389508586E-1   -1.488370415116568E-2    3.330404794477456E-2   -1.319903326705348E-2    3.337505223695081E-2   -4.940995535894721E-1   -1.360460930016941E-1
 6.501148155250000E9    -4.353741771759916E-1   -2.953833350690412E-1   -1.506299863075051E-2    3.363743092434079E-2   -1.307890549059573E-2    3.355639324741398E-2   -4.942005140035684E-1   -1.347919992349541E-1
 6.501160802000000E9    -4.359758640406405E-1   -2.943376458308063E-1   -1.502712119229507E-2    3.380120852547264E-2   -1.318405230091043E-2    3.375887812072397E-2   -4.945398162541468E-1   -1.335403121953174E-1
 6.501173448750000E9    -4.365324323719959E-1   -2.935642616450908E-1   -1.493017663726714E-2    3.421754611688265E-2   -1.308269679258065E-2    3.401458121986747E-2   -4.947184758357251E-1   -1.321654846505688E-1
 6.501186095500000E9    -4.371785518698738E-1   -2.926217336909653E-1   -1.495274138766840E-2    3.427337360358515E-2   -1.309084894827478E-2    3.423829320504067E-2   -4.950042694614614E-1   -1.309757857577622E-1
 6.501198742250000E9    -4.376657388849255E-1   -2.917725646166242E-1   -1.490244329025024E-2    3.443947153410797E-2   -1.319533197856907E-2    3.454342578896608E-2   -4.952766231544755E-1   -1.298152361802849E-1
 6.501211389000000E9    -4.382882428261876E-1   -2.907985445898069E-1   -1.501183592018582E-2    3.470693643138491E-2   -1.312630989525135E-2    3.464371915932828E-2   -4.954747035345588E-1   -1.283886599118332E-1
 6.501224035750000E9    -4.389822847570407E-1   -2.898735003099720E-1   -1.498352354066024E-2    3.484919875679288E-2   -1.306468443262423E-2    3.493638714062514E-2   -4.957210776289855E-1   -1.271199085979964E-1
 6.501236682500000E9    -4.394609275398145E-1   -2.889599271474113E-1   -1.496494156275819E-2    3.522261343497684E-2   -1.297620427144876E-2    3.510570046912660E-2   -4.959844302447577E-1   -1.259439538390603E-1
 6.501249329250000E9    -4.399188918500314E-1   -2.880327518351215E-1   -1.493877433078220E-2    3.534182644087640E-2   -1.304077512113251E-2    3.540832434229674E-2   -4.962749640578311E-1   -1.246631888134025E-1
 6.501261976000000E9    -4.405600837785694E-1   -2.871096985640837E-1   -1.494041547993672E-2    3.564581502231171E-2   -1.304666177740383E-2    3.558700876204878E-2   -4.963303104261072E-1   -1.233856771910274E-1
 6.501274622750000E9    -4.410596003618508E-1   -2.862383554617145E-1   -1.491394321744962E-2    3.581886860027219E-2   -1.301438894961991E-2    3.583802694105687E-2   -4.966160360629541E-1   -1.219732632918609E-1
 6.501287269500000E9    -4.416478828353901E-1   -2.854274127068258E-1   -1.490199748845618E-2    3.602435193465784E-2   -1.296674265612499E-2    3.600512864923675E-2   -4.968901294974399E-1   -1.208896292206217E-1
 6.501299916250000E9    -4.421187260824154E-1   -2.843641527001442E-1   -1.498290638810179E-2    3.643708077509639E-2   -1.295719290999373E-2    3.631374860221192E-2   -4.972454560440993E-1   -1.194795971056193E-1
 6.501312563000000E9    -4.427102899201201E-1   -2.834522097364835E-1   -1.486946856168735E-2    3.658540651528442E-2   -1.305391478621077E-2    3.663442891067637E-2   -4.974843363342016E-1   -1.180991057261764E-1
 6.501325209750000E9    -4.433346720974725E-1   -2.825095578760110E-1   -1.493900927061656E-2    3.680929644837633E-2   -1.298732474107105E-2    3.678205503937798E-2   -4.975079664053025E-1   -1.167979957003158E-1
 6.501337856500000E9    -4.439320360691178E-1   -2.816784461255564E-1   -1.489315126563640E-2    3.717261213660852E-2   -1.288441525079841E-2    3.707329716264952E-2   -4.977814269600910E-1   -1.155536856892544E-1
 6.501350503250000E9    -4.443757930021872E-1   -2.806772382461284E-1   -1.487851353677132E-2    3.734021668762551E-2   -1.282759519959552E-2    3.726896325398481E-2   -4.979714290394973E-1   -1.142490000769847E-1
 6.501363150000000E9    -4.448164985417412E-1   -2.798874571678375E-1   -1.477380077866131E-2    3.765438635867845E-2   -1.289227583888296E-2    3.756206457129040E-2   -4.982137557869801E-1   -1.129000097028140E-1
 6.501375796750000E9    -4.453478524154672E-1   -2.788768694850722E-1   -1.484801307219511E-2    3.782893396426745E-2   -1.287857921129199E-2    3.783157185334945E-2   -4.983798906269891E-1   -1.114377543011889E-1
 6.501388443500000E9    -4.461080013881770E-1   -2.779268056768938E-1   -1.477638307576240E-2    3.821222362018720E-2   -1.292706440747059E-2    3.797171591939191E-2   -4.985123281697259E-1   -1.102304500999542E-1
 6.501401090250000E9    -4.466359885700801E-1   -2.769959808544282E-1   -1.491840780541581E-2    3.854844239010660E-2   -1.288957955628903E-2    3.830027467511030E-2   -4.987388373889269E-1   -1.086344491604608E-1
 6.501413737000000E9    -4.471087957463633E-1   -2.760661527786539E-1   -1.487257065184174E-2    3.869563906892160E-2   -1.282081286313707E-2    3.858276005111595E-2   -4.989160532679240E-1   -1.074014959736988E-1
 6.501426383750000E9    -4.475176734157599E-1   -2.751328360968009E-1   -1.478153206443607E-2    3.896359697346213E-2   -1.273133869318056E-2    3.872089524634272E-2   -4.991969970012496E-1   -1.061032720990722E-1
 6.501439030500000E9    -4.482706366324269E-1   -2.741847191400055E-1   -1.473492471817597E-2    3.925060751642485E-2   -1.275303279349628E-2    3.898324228616888E-2   -4.993574201984956E-1   -1.046940163319505E-1
 6.501451677250000E9    -4.486686231715716E-1   -2.732538487387391E-1   -1.488227016199916E-2    3.949985832030328E-2   -1.275246807718833E-2    3.937408237590975E-2   -4.995621038984909E-1   -1.032520414705098E-1
 6.501464324000000E9    -4.492634677814559E-1   -2.723298435874456E-1   -1.478259351949754E-2    3.982873243071868E-2   -1.272703512924937E-2    3.959770678936154E-2   -4.996525334027726E-1   -1.020649483673099E-1
 6.501476970750000E9    -4.497473142720047E-1   -2.712794977258587E-1   -1.491395472593861E-2    4.010239377052992E-2   -1.267541471311239E-2    3.982882443778844E-2   -4.998750333225483E-1   -1.007684002836656E-1
 6.501489617500000E9    -4.502606918033341E-1   -2.704182986960277E-1   -1.482135541456729E-2    4.040774372169229E-2   -1.272232171963632E-2    4.022228316263322E-2   -5.001329721697608E-1   -9.920971209178779E-2
 6.501502264250000E9    -4.509126196164410E-1   -2.694053040525835E-1   -1.472234586228513E-2    4.070301753270371E-2   -1.274213689382340E-2    4.048274234531692E-2   -5.003259980605479E-1   -9.784305501591378E-2
 6.501514911000000E9    -4.513732652215612E-1   -2.683668464245367E-1   -1.471950874385166E-2    4.094897110583418E-2   -1.262836411237102E-2    4.085706433950392E-2   -5.004786789839215E-1   -9.642395481203288E-2
 6.501527557750000E9    -4.518703490394637E-1   -2.675103179431761E-1   -1.470688315377594E-2    4.136591345113118E-2   -1.263506318110940E-2    4.110157067238428E-2   -5.006202604494759E-1   -9.495489095781959E-2
 6.501540204500000E9    -4.523869843871468E-1   -2.665750116796066E-1   -1.464468702523604E-2    4.148570841069281E-2   -1.264805423629667E-2    4.138266701014200E-2   -5.007158233563445E-1   -9.354331871497569E-2
 6.501552851250000E9    -4.528499674303829E-1   -2.655625346293014E-1   -1.474229549478459E-2    4.196109015985727E-2   -1.250813979391240E-2    4.168836324876314E-2   -5.009282616488512E-1   -9.218122258533769E-2
 6.501565498000000E9    -4.534619189171977E-1   -2.646219418200461E-1   -1.477254023804092E-2    4.208121504597270E-2   -1.245174745755885E-2    4.188403465973004E-2   -5.010138149856050E-1   -9.082324436241741E-2
 6.501578144750000E9    -4.539692296419413E-1   -2.636269204946097E-1   -1.464632689967601E-2    4.253110328770318E-2   -1.248979689473631E-2    4.230644637234888E-2   -5.012639848985146E-1   -8.931254788172686E-2
 6.501590791500000E9    -4.543894443258388E-1   -2.626161055736118E-1   -1.471509431024430E-2    4.280548444193427E-2   -1.243075183327215E-2    4.262424395630578E-2   -5.013355310102031E-1   -8.775600573330185E-2
 6.501603438250000E9    -4.550835379362559E-1   -2.616089672349773E-1   -1.468695699281811E-2    4.323148169995462E-2   -1.247960559348026E-2    4.293748021123647E-2   -5.014716920792741E-1   -8.645475854812765E-2
 6.501616085000000E9    -4.555029123837432E-1   -2.606908246311165E-1   -1.473623534271271E-2    4.349357507440963E-2   -1.234134827835962E-2    4.320622917168758E-2   -5.015172465353229E-1   -8.487381627266168E-2
 6.501628731750000E9    -4.559064695938311E-1   -2.597126305514532E-1   -1.462622479110382E-2    4.389628795224538E-2   -1.228874059429921E-2    4.357520880252784E-2   -5.016239667021001E-1   -8.347062555431091E-2
 6.501641378500000E9    -4.565163788844790E-1   -2.586943222646241E-1   -1.460506718301054E-2    4.419684066308821E-2   -1.233799332485728E-2    4.393036947621606E-2   -5.017726862048076E-1   -8.202736504431037E-2
 6.501654025250000E9    -4.569876619636327E-1   -2.575863718321148E-1   -1.458203569002486E-2    4.459018221908811E-2   -1.225764228939154E-2    4.423076319403705E-2   -5.019085824011483E-1   -8.050616709928102E-2
 6.501666672000000E9    -4.576038563213989E-1   -2.566832903568382E-1   -1.458018346573071E-2    4.491989237704756E-2   -1.222067690047829E-2    4.460198853396807E-2   -5.020276542151249E-1   -7.926385614074308E-2
 6.501679318750000E9    -4.580398718244125E-1   -2.557030893148803E-1   -1.460381483782834E-2    4.539378353946556E-2   -1.221259441936541E-2    4.484687905764834E-2   -5.021307699795222E-1   -7.750268598641867E-2
 6.501691965500000E9    -4.585774919145940E-1   -2.545663992419123E-1   -1.443028777375839E-2    4.558286836800923E-2   -1.216484474057906E-2    4.528028709947185E-2   -5.022923514713756E-1   -7.596493528840542E-2
 6.501704612250000E9    -4.590972089398375E-1   -2.536694218891759E-1   -1.452731166427610E-2    4.591673411366416E-2   -1.215177085155580E-2    4.559729310814914E-2   -5.022174209982936E-1   -7.453700854453267E-2
 6.501717259000000E9    -4.595522087303978E-1   -2.525778193860292E-1   -1.434299766495343E-2    4.629439699314298E-2   -1.209984912957583E-2    4.597603882211407E-2   -5.023753912522421E-1   -7.297106128909041E-2
 6.501729905750000E9    -4.600220116982172E-1   -2.516160134234058E-1   -1.449553897181427E-2    4.668967239270962E-2   -1.199093882657980E-2    4.633298154906920E-2   -5.026103356052518E-1   -7.142564534091124E-2
 6.501742552500000E9    -4.605290782556073E-1   -2.505917983030326E-1   -1.427265349682309E-2    4.712343428370144E-2   -1.199089420344448E-2    4.668455746499763E-2   -5.025721938123339E-1   -6.986166729403549E-2
 6.501755199250000E9    -4.609824468602918E-1   -2.496574720993970E-1   -1.433017850554931E-2    4.744796898527941E-2   -1.189725737521512E-2    4.708555338819306E-2   -5.027010366651511E-1   -6.826395521717069E-2
 6.501767846000000E9    -4.615749510864626E-1   -2.485324801799237E-1   -1.432936974392488E-2    4.786707427511351E-2   -1.190686997795740E-2    4.748600981103541E-2   -5.027097113596360E-1   -6.684911029733534E-2
 6.501780492750000E9    -4.619546156281960E-1   -2.475085159293428E-1   -1.420918729658046E-2    4.832559695372467E-2   -1.183002953933267E-2    4.781321989038759E-2   -5.026381242608672E-1   -6.507360087284410E-2
 6.501793139500000E9    -4.624963715530695E-1   -2.464150941722538E-1   -1.436176583511064E-2    4.874383911979838E-2   -1.183305279123563E-2    4.825115028105587E-2   -5.028963266030567E-1   -6.364996798418274E-2
 6.501805786250000E9    -4.630017112324701E-1   -2.453712801497472E-1   -1.406936566068617E-2    4.904100568955325E-2   -1.177848678374318E-2    4.859594711487255E-2   -5.029502867970764E-1   -6.207592537828315E-2
 6.501818433000000E9    -4.635050506479977E-1   -2.443128620529597E-1   -1.409407513837885E-2    4.942180765149663E-2   -1.169994807300978E-2    4.900255794534557E-2   -5.029455174390702E-1   -6.042032713148510E-2
 6.501831079750000E9    -4.639713738541570E-1   -2.433266078454178E-1   -1.404318865662746E-2    4.991496663704871E-2   -1.163195318434933E-2    4.938906552487043E-2   -5.030553333093553E-1   -5.891031597618396E-2
 6.501843726500000E9    -4.644596066253417E-1   -2.422564331557274E-1   -1.406364236574075E-2    5.033938455541409E-2   -1.159089871975070E-2    4.985032923633812E-2   -5.030058687265794E-1   -5.721832692143881E-2
 6.501856373250000E9    -4.649480517802085E-1   -2.412462229094702E-1   -1.393142495445439E-2    5.081075583983664E-2   -1.139268188489949E-2    5.032142111149564E-2   -5.031625977800704E-1   -5.568498115932154E-2
 6.501869020000000E9    -4.654092165791193E-1   -2.401337940222199E-1   -1.393511840327443E-2    5.107498693983070E-2   -1.147191268515625E-2    5.057485366921916E-2   -5.029708466865974E-1   -5.388544179800629E-2
 6.501881666750000E9    -4.658373964173286E-1   -2.390660379383737E-1   -1.385785687946008E-2    5.156081634078900E-2   -1.127971802226465E-2    5.104979703143484E-2   -5.031370927235670E-1   -5.220661228992506E-2
 6.501894313500000E9    -4.662916228690340E-1   -2.380638731227888E-1   -1.378312202978604E-2    5.208483849903372E-2   -1.128031606913283E-2    5.153712623639250E-2   -5.030117054452523E-1   -5.061330543488268E-2
 6.501906960250000E9    -4.667770142516490E-1   -2.369426654377267E-1   -1.380381749209842E-2    5.263524899611405E-2   -1.121803637953069E-2    5.209691231055955E-2   -5.029593698589616E-1   -4.899355280061621E-2
 6.501919607000000E9    -4.672192055014580E-1   -2.357848072099682E-1   -1.382583754685426E-2    5.310655240191189E-2   -1.117170285719534E-2    5.245114137898080E-2   -5.030542559028724E-1   -4.733959279572920E-2
 6.501932253750000E9    -4.677107877022120E-1   -2.347694612524553E-1   -1.367483789735711E-2    5.337882179409606E-2   -1.105706176842502E-2    5.283901211699405E-2   -5.029579638993805E-1   -4.543858313393236E-2
 6.501944900500000E9    -4.681189371874995E-1   -2.336598389957930E-1   -1.354914728780061E-2    5.406478167623480E-2   -1.098532252597668E-2    5.343583030464165E-2   -5.028493031102932E-1   -4.389473086515659E-2
 6.501957547250000E9    -4.686501179639243E-1   -2.325844854582006E-1   -1.365935287085273E-2    5.459317695578342E-2   -1.085767591476690E-2    5.381010415162953E-2   -5.030377710029476E-1   -4.205762471453678E-2
 6.501970194000000E9    -4.690866087416188E-1   -2.314877958945314E-1   -1.347611679458645E-2    5.496623453849961E-2   -1.086474140631863E-2    5.436603327705345E-2   -5.028451278923740E-1   -4.032694547877509E-2
 6.501982840750000E9    -4.695622641799237E-1   -2.303121928219992E-1   -1.349271513154711E-2    5.553022162195493E-2   -1.078429625860070E-2    5.479555852661688E-2   -5.027897802380072E-1   -3.871645387064256E-2
 6.501995487500000E9    -4.698394516848108E-1   -2.293042460588358E-1   -1.332773639003140E-2    5.596243962448505E-2   -1.065456635837621E-2    5.526355231492102E-2   -5.029336227520259E-1   -3.687535642301939E-2
 6.502008134250000E9    -4.704925332840245E-1   -2.282230653750119E-1   -1.324049188029245E-2    5.648628994501600E-2   -1.061396489904750E-2    5.578782196821117E-2   -5.027241887764351E-1   -3.505697766300401E-2
 6.502020781000000E9    -4.709304762211987E-1   -2.270659259953073E-1   -1.315930569805407E-2    5.701729866048436E-2   -1.041311225426160E-2    5.624714855747371E-2   -5.027100028019083E-1   -3.325747904470777E-2
 6.502033427750000E9    -4.713305314752700E-1   -2.259116383260255E-1   -1.315721283108305E-2    5.765237840015459E-2   -1.041242792513852E-2    5.687140071746878E-2   -5.025712020178719E-1   -3.148370915711426E-2
 6.502046074500000E9    -4.718025266890844E-1   -2.248503925794936E-1   -1.309419898476189E-2    5.801116365016156E-2   -1.025390139898178E-2    5.740607434348468E-2   -5.024220324612027E-1   -2.975721885496410E-2
