#  HZ   S   RI   R     50.00 
! Rohde & Schwarz Vector Network Analyzer 
! Rohde-Schwarz,ZNB20-2Port,1311601062101988,3.16
! Created: UTC 3/20/2024, 11:47:03 AM
! freq[Hz]                re:S11                  im:S11                  re:S21                  im:S21                  re:S12                  im:S12                  re:S22                  im:S22
 6.500903069000000E9    -4.240251117863276E-1   -3.122224737271466E-1   -1.487586406560930E-2    2.977664068773613E-2   -1.326125518457612E-2    2.984141084299519E-2   -4.887073942824522E-1   -1.584145763924228E-1
 6.500915731400000E9    -4.245797643272320E-1   -3.114489069822027E-1   -1.489453647166820E-2    2.990857475998194E-2   -1.327120178148006E-2    3.004877338440230E-2   -4.890052543759862E-1   -1.569939917155578E-1
 6.500928393800000E9    -4.251986662678235E-1   -3.106522640274613E-1   -1.485978305251661E-2    3.000490390754724E-2   -1.318439059703033E-2    3.024970297049394E-2   -4.892459428073711E-1   -1.560678529179158E-1
 6.500941056200000E9    -4.258795024599894E-1   -3.096938866747411E-1   -1.502159449732163E-2    3.019977082790738E-2   -1.329022661897838E-2    3.045597262468748E-2   -4.895537032705455E-1   -1.546900366698584E-1
 6.500953718600000E9    -4.264188036282320E-1   -3.087955114285415E-1   -1.488087356077631E-2    3.050591535186744E-2   -1.323152594126535E-2    3.058497826245134E-2   -4.898739459212500E-1   -1.536547928894317E-1
 6.500966381000000E9    -4.270087994949372E-1   -3.079274436891382E-1   -1.495129973096216E-2    3.071204655262603E-2   -1.327343012304259E-2    3.077811357732091E-2   -4.900087512665901E-1   -1.523185525861220E-1
 6.500979043400000E9    -4.276795385343476E-1   -3.070855931334974E-1   -1.505951567977384E-2    3.073841044479601E-2   -1.319267591270420E-2    3.090267556003189E-2   -4.904973065014553E-1   -1.512800587113979E-1
 6.500991705800000E9    -4.282989916102060E-1   -3.061604053354419E-1   -1.497274850285112E-2    3.113420007644199E-2   -1.325214818391419E-2    3.107194783909151E-2   -4.906989429568818E-1   -1.498914357698030E-1
 6.501004368200000E9    -4.288654100711556E-1   -3.054474547833658E-1   -1.501387001101894E-2    3.118411049928623E-2   -1.316329087865853E-2    3.131283324066529E-2   -4.909766796985475E-1   -1.487287240490515E-1
 6.501017030600000E9    -4.294410054097571E-1   -3.044756128653250E-1   -1.497726166354459E-2    3.142577301370506E-2   -1.324001852146005E-2    3.150175229892074E-2   -4.912932137557272E-1   -1.475515112977071E-1
 6.501029693000000E9    -4.300153926841106E-1   -3.035753891995120E-1   -1.495366179770027E-2    3.165185066909544E-2   -1.323270832729197E-2    3.163909307857930E-2   -4.917883451368928E-1   -1.464477842430170E-1
 6.501042355400000E9    -4.305221499997064E-1   -3.027212668039431E-1   -1.485453857572366E-2    3.195533254087631E-2   -1.320194665075336E-2    3.194884662187591E-2   -4.919976073348737E-1   -1.451816179819793E-1
 6.501055017800000E9    -4.311399199084098E-1   -3.018631194389862E-1   -1.501263020859102E-2    3.200376889603531E-2   -1.320644199386998E-2    3.211044350193301E-2   -4.921103181522700E-1   -1.438406340359292E-1
 6.501067680200000E9    -4.317859984614498E-1   -3.009338428116917E-1   -1.494857118881716E-2    3.227204889629790E-2   -1.310343828854707E-2    3.231478576616019E-2   -4.924675143687770E-1   -1.426808085873391E-1
 6.501080342600000E9    -4.322775298893424E-1   -3.001531065826502E-1   -1.486634101608276E-2    3.243624064884044E-2   -1.315586875739364E-2    3.249294093062671E-2   -4.928375495445392E-1   -1.414499267564679E-1
 6.501093005000000E9    -4.329431272284975E-1   -2.991911851605364E-1   -1.496804948009114E-2    3.259189395189846E-2   -1.311621150641883E-2    3.276073233891494E-2   -4.928476605508018E-1   -1.404528755358578E-1
 6.501105667400000E9    -4.335085351814463E-1   -2.983647291641889E-1   -1.489706158407235E-2    3.272252283068328E-2   -1.314550873770409E-2    3.285022969925740E-2   -4.932675399380476E-1   -1.389685130317268E-1
 6.501118329800000E9    -4.340624051050994E-1   -2.974357821730070E-1   -1.492888142197648E-2    3.293805203202964E-2   -1.320231903092100E-2    3.305358445866327E-2   -4.934907058302609E-1   -1.377420617324637E-1
 6.501130992200000E9    -4.346436079380436E-1   -2.965509034647426E-1   -1.499483526991650E-2    3.333060864893214E-2   -1.307224516494763E-2    3.331741391486022E-2   -4.938178060747832E-1   -1.364638497438387E-1
 6.501143654600000E9    -4.351249837524372E-1   -2.957057241621657E-1   -1.488420370624596E-2    3.354170135944270E-2   -1.309623866326625E-2    3.354085852761406E-2   -4.941411165862435E-1   -1.352507240889696E-1
 6.501156317000000E9    -4.357943526277011E-1   -2.947523745950809E-1   -1.494083884925083E-2    3.390600748133205E-2   -1.310204634675840E-2    3.373474253517289E-2   -4.943042147120802E-1   -1.340310633494171E-1
 6.501168979400000E9    -4.363205707784719E-1   -2.939120428483794E-1   -1.502797216144053E-2    3.390466075648049E-2   -1.309001026914315E-2    3.399297941017611E-2   -4.945875477550844E-1   -1.327060226269230E-1
 6.501181641800000E9    -4.369263703899149E-1   -2.930541220375750E-1   -1.498969481549946E-2    3.411299413415529E-2   -1.303255816478145E-2    3.406859796108518E-2   -4.948590613128412E-1   -1.315371025182798E-1
 6.501194304200000E9    -4.375522869067261E-1   -2.922019771283108E-1   -1.487856115029145E-2    3.436898649527424E-2   -1.306886786821088E-2    3.436668305971730E-2   -4.950795267918180E-1   -1.301625972047383E-1
 6.501206966600000E9    -4.380757194687019E-1   -2.912660992809097E-1   -1.497180202424397E-2    3.461544875741549E-2   -1.302817282399725E-2    3.460382914410232E-2   -4.954212535704586E-1   -1.289228625423068E-1
 6.501219629000000E9    -4.385731543192821E-1   -2.903507113398638E-1   -1.496573539339575E-2    3.494570876001778E-2   -1.305678003130127E-2    3.485287116922629E-2   -4.954794419429862E-1   -1.277629366915240E-1
 6.501232291400000E9    -4.392083518606806E-1   -2.895205376538012E-1   -1.504957007596345E-2    3.500769639416141E-2   -1.303059574842077E-2    3.509385165671013E-2   -4.958981075678555E-1   -1.264254231359886E-1
 6.501244953800000E9    -4.397744970368197E-1   -2.884151396822202E-1   -1.496578103531878E-2    3.531972168646471E-2   -1.311422830673636E-2    3.534924867654460E-2   -4.960268767337278E-1   -1.251066786988562E-1
 6.501257616200000E9    -4.402428291764327E-1   -2.874679393867040E-1   -1.479072546012327E-2    3.550419385237176E-2   -1.307480953360994E-2    3.559761695678323E-2   -4.961972461218419E-1   -1.237695423092643E-1
 6.501270278600000E9    -4.408283073201831E-1   -2.866303148327096E-1   -1.492452396938005E-2    3.574979412598019E-2   -1.297221548650079E-2    3.565251677001732E-2   -4.965024968743596E-1   -1.224994988006648E-1
 6.501282941000000E9    -4.414218685741831E-1   -2.857175077202238E-1   -1.487634097698422E-2    3.607708327591512E-2   -1.302219039182316E-2    3.608826218980737E-2   -4.967900106575793E-1   -1.212667442202952E-1
 6.501295603400000E9    -4.419080414108238E-1   -2.847454583366181E-1   -1.493472234505557E-2    3.622352349561356E-2   -1.296717908868898E-2    3.617504305107584E-2   -4.968420893834425E-1   -1.199461520768592E-1
 6.501308265800000E9    -4.425603071763903E-1   -2.839153338908882E-1   -1.489850886641171E-2    3.653151817788897E-2   -1.298624366288737E-2    3.640453026161140E-2   -4.973464125361062E-1   -1.185880261605249E-1
 6.501320928200000E9    -4.430299354667298E-1   -2.829522082781670E-1   -1.489308590615123E-2    3.679470795328383E-2   -1.297604894928014E-2    3.670113066244361E-2   -4.975222827309724E-1   -1.173147100844073E-1
 6.501333590600000E9    -4.436217057285264E-1   -2.820421874764686E-1   -1.490159680014228E-2    3.708574523508340E-2   -1.294740983492669E-2    3.694185343421542E-2   -4.976077102572306E-1   -1.159397171549132E-1
 6.501346253000000E9    -4.441310812573199E-1   -2.811546954277802E-1   -1.503707771979161E-2    3.733700102162606E-2   -1.296296814536288E-2    3.721395695503025E-2   -4.978115703119033E-1   -1.146784721228601E-1
 6.501358915400000E9    -4.446355880477765E-1   -2.801749166306595E-1   -1.488090009180258E-2    3.757952854057712E-2   -1.291100470502723E-2    3.740246932550229E-2   -4.981377746167938E-1   -1.130894362226297E-1
 6.501371577800000E9    -4.452508287153750E-1   -2.792729383513882E-1   -1.481765120546005E-2    3.794101188909196E-2   -1.286520444628630E-2    3.769868147287805E-2   -4.983050478660463E-1   -1.119543043412025E-1
 6.501384240200000E9    -4.458293241249704E-1   -2.783639309037323E-1   -1.491460952174396E-2    3.802893630645270E-2   -1.281899985889965E-2    3.799701902208426E-2   -4.985741839275420E-1   -1.106264370866265E-1
 6.501396902600000E9    -4.462283219243673E-1   -2.772956273992443E-1   -1.489035675921377E-2    3.837258693116821E-2   -1.293364077842197E-2    3.815633736498482E-2   -4.987484730333188E-1   -1.093767991925471E-1
 6.501409565000000E9    -4.468648224849845E-1   -2.764259341684152E-1   -1.494919245224838E-2    3.856950051942972E-2   -1.279389986921422E-2    3.842757648559694E-2   -4.988438920252860E-1   -1.078871847100171E-1
 6.501422227400000E9    -4.473170763617982E-1   -2.755787466747281E-1   -1.475380806008679E-2    3.888923346976865E-2   -1.279550062784501E-2    3.879539283827502E-2   -4.990954087068585E-1   -1.065870018603113E-1
 6.501434889800000E9    -4.479404276973813E-1   -2.745903925112393E-1   -1.481534480090471E-2    3.905399286151678E-2   -1.277226305235149E-2    3.908795854388596E-2   -4.993392692743224E-1   -1.053271862458177E-1
 6.501447552200000E9    -4.485377343148944E-1   -2.735750138973923E-1   -1.480638579398542E-2    3.938466284968332E-2   -1.272860366277241E-2    3.930548953778552E-2   -4.994070272981185E-1   -1.037236848374498E-1
 6.501460214600000E9    -4.490832315760989E-1   -2.726086577524198E-1   -1.479598312766290E-2    3.982001108126734E-2   -1.276610064049571E-2    3.958346939836532E-2   -4.996047124517949E-1   -1.025099439246181E-1
 6.501472877000000E9    -4.495709669499010E-1   -2.717442832005785E-1   -1.493003415641253E-2    3.999806835858454E-2   -1.275060494113865E-2    3.988252038372184E-2   -4.997776827688538E-1   -1.011165409710154E-1
 6.501485539400000E9    -4.500917375209506E-1   -2.707230436093961E-1   -1.468539129318022E-2    4.034647429693596E-2   -1.274769751021881E-2    4.005880443939997E-2   -4.998915377841538E-1   -9.961061275429881E-2
 6.501498201800000E9    -4.506177340924222E-1   -2.698505272825752E-1   -1.483223585208910E-2    4.060921442684509E-2   -1.258664164433449E-2    4.037390010830638E-2   -5.002347752007243E-1   -9.827522749297024E-2
 6.501510864200000E9    -4.511531807100979E-1   -2.688006310986930E-1   -1.474037716487525E-2    4.097538600055355E-2   -1.261773860509758E-2    4.065467585976464E-2   -5.003192607858551E-1   -9.689114466494464E-2
 6.501523526600000E9    -4.516325205958393E-1   -2.677767012388942E-1   -1.481534029095251E-2    4.112758534355838E-2   -1.262239365113381E-2    4.106556462535783E-2   -5.004008833055875E-1   -9.547279130735202E-2
 6.501536189000000E9    -4.522202017814462E-1   -2.669055631519944E-1   -1.465108588319155E-2    4.158201515618030E-2   -1.261355169550901E-2    4.126362567110380E-2   -5.006806263850128E-1   -9.411145084549978E-2
 6.501548851400000E9    -4.527189624253502E-1   -2.659314821707229E-1   -1.462813196949125E-2    4.190192843608156E-2   -1.253892918159938E-2    4.170620874844987E-2   -5.007142059202067E-1   -9.259695992215909E-2
 6.501561513800000E9    -4.532127673193814E-1   -2.649538197742856E-1   -1.469433553593808E-2    4.209056958699080E-2   -1.248392963974267E-2    4.188553995894754E-2   -5.009695772752695E-1   -9.124706515872474E-2
 6.501574176200000E9    -4.537202174614900E-1   -2.640301370574958E-1   -1.468777098092857E-2    4.235575379055004E-2   -1.245935320973110E-2    4.227532878022512E-2   -5.010903711160404E-1   -8.986309303368623E-2
 6.501586838600000E9    -4.543036618460558E-1   -2.628865554037717E-1   -1.479619921774407E-2    4.277931741782975E-2   -1.251653206329867E-2    4.256932933165587E-2   -5.012006908037676E-1   -8.830956654025079E-2
 6.501599501000000E9    -4.547726793604437E-1   -2.619458447371179E-1   -1.471282016187320E-2    4.318963759489085E-2   -1.247397130187239E-2    4.289983578510304E-2   -5.013175222473628E-1   -8.686180580264478E-2
 6.501612163400000E9    -4.552237216720320E-1   -2.609938495482990E-1   -1.469391862348231E-2    4.342592151072359E-2   -1.238242407173008E-2    4.319293066474240E-2   -5.013947290258627E-1   -8.540442006603328E-2
 6.501624825800000E9    -4.558572198082988E-1   -2.600322557633857E-1   -1.460178454478936E-2    4.384856467074151E-2   -1.239928600649858E-2    4.354637297749819E-2   -5.016975038070695E-1   -8.403546108079327E-2
 6.501637488200000E9    -4.563576352513059E-1   -2.591237735264035E-1   -1.450074218515333E-2    4.403852187394539E-2   -1.228851155260790E-2    4.381756860101724E-2   -5.016907606129517E-1   -8.246811530694149E-2
 6.501650150600000E9    -4.568286545970998E-1   -2.580326815350579E-1   -1.462856259761815E-2    4.451641142903483E-2   -1.241608831922901E-2    4.422001632326985E-2   -5.019022667606838E-1   -8.087204180075178E-2
 6.501662813000000E9    -4.573640190129023E-1   -2.569807843643029E-1   -1.445332059633288E-2    4.488399014931077E-2   -1.227460317628392E-2    4.461987363377786E-2   -5.018302981785324E-1   -7.942391707127963E-2
 6.501675475400000E9    -4.578468916708179E-1   -2.559762959262948E-1   -1.443307016286604E-2    4.523328197865140E-2   -1.215884600498213E-2    4.486861690305419E-2   -5.019472269633117E-1   -7.795844581236488E-2
 6.501688137800000E9    -4.583807065735682E-1   -2.549661473722173E-1   -1.449233434308485E-2    4.555926556846427E-2   -1.214555544817742E-2    4.519087653087295E-2   -5.020806981334828E-1   -7.641507657292224E-2
 6.501700800200000E9    -4.588788386542906E-1   -2.540026998019672E-1   -1.448673936884669E-2    4.585832553004223E-2   -1.212814608972907E-2    4.552399190318455E-2   -5.021624015000102E-1   -7.514488879780125E-2
 6.501713462600000E9    -4.593046754698720E-1   -2.530052388678172E-1   -1.444893428158334E-2    4.628755596912939E-2   -1.199393306382177E-2    4.585529159212296E-2   -5.023607641388295E-1   -7.340676016738078E-2
 6.501726125000000E9    -4.598224954856912E-1   -2.520136430009438E-1   -1.435097764531247E-2    4.658466113638474E-2   -1.207650499669419E-2    4.630112192933133E-2   -5.024288388801766E-1   -7.185631694432384E-2
 6.501738787400000E9    -4.603400364018300E-1   -2.509380223155641E-1   -1.430408461566086E-2    4.702354352291713E-2   -1.200994457622150E-2    4.661563619714024E-2   -5.025909582871294E-1   -7.035474866214095E-2
 6.501751449800000E9    -4.608677532583206E-1   -2.499953372593320E-1   -1.419729696257383E-2    4.740590899399180E-2   -1.201261136727582E-2    4.699479246606813E-2   -5.025004220598430E-1   -6.868415534023699E-2
 6.501764112200000E9    -4.612077609405035E-1   -2.489389472372594E-1   -1.427878388595652E-2    4.779553001681544E-2   -1.195322156970867E-2    4.735678133721052E-2   -5.026158206309406E-1   -6.733974881879137E-2
 6.501776774600000E9    -4.617947132291625E-1   -2.479220804104409E-1   -1.421640513958219E-2    4.825472591816677E-2   -1.185659742191432E-2    4.779090047957318E-2   -5.026769031057577E-1   -6.567959392563708E-2
 6.501789437000000E9    -4.623269463961514E-1   -2.467865951605704E-1   -1.411832320193277E-2    4.869770147582742E-2   -1.178109344421116E-2    4.814681491050679E-2   -5.027265687909542E-1   -6.413425939752052E-2
 6.501802099400000E9    -4.627726640769980E-1   -2.457396759402298E-1   -1.417854291111574E-2    4.895305231921109E-2   -1.171544822423269E-2    4.849258800117918E-2   -5.027420512907093E-1   -6.261847820923129E-2
 6.501814761800000E9    -4.633004150247658E-1   -2.447332145640534E-1   -1.415474558311023E-2    4.943519429752079E-2   -1.168064897146592E-2    4.893244757560128E-2   -5.029252111293920E-1   -6.094679059586230E-2
 6.501827424200000E9    -4.637669251077048E-1   -2.436830242159150E-1   -1.394112108224724E-2    4.997753499798646E-2   -1.160828430866129E-2    4.933022428229113E-2   -5.028814707086374E-1   -5.933360212493111E-2
 6.501840086600000E9    -4.643396790574453E-1   -2.426269975477324E-1   -1.404988106431565E-2    5.014849290348026E-2   -1.151496268159130E-2    4.973302127139361E-2   -5.028505843150209E-1   -5.758735380901229E-2
 6.501852749000000E9    -4.647371112078665E-1   -2.415216223854778E-1   -1.411921392387150E-2    5.055589960049617E-2   -1.142714241796693E-2    5.020996860742284E-2   -5.029514560455486E-1   -5.602379149530290E-2
 6.501865411400000E9    -4.651189850761847E-1   -2.404200600559717E-1   -1.393719538916211E-2    5.110668762473072E-2   -1.147042958524144E-2    5.062371123827052E-2   -5.030428992558964E-1   -5.441848288455682E-2
 6.501878073800000E9    -4.657074732766653E-1   -2.393786041792355E-1   -1.397419202996984E-2    5.162676219181063E-2   -1.140183370034313E-2    5.100060066982626E-2   -5.029166882622048E-1   -5.271297681799737E-2
 6.501890736200000E9    -4.661348021128128E-1   -2.382868178662015E-1   -1.391966407175249E-2    5.209154836502582E-2   -1.127909677409095E-2    5.154302637468530E-2   -5.030070227652975E-1   -5.115654670045786E-2
 6.501903398600000E9    -4.665983549900601E-1   -2.372966756772333E-1   -1.376971157731445E-2    5.247943064535196E-2   -1.123806753809760E-2    5.192317514311608E-2   -5.030551862684308E-1   -4.947072356992219E-2
 6.501916061000000E9    -4.670713119846772E-1   -2.362924474594358E-1   -1.381668419494698E-2    5.298364473144702E-2   -1.120903324058881E-2    5.238079286597734E-2   -5.028774449044544E-1   -4.767390713405228E-2
 6.501928723400000E9    -4.674461807704799E-1   -2.352767431398372E-1   -1.367918449220830E-2    5.333171330416876E-2   -1.109527481850076E-2    5.281687680509071E-2   -5.029996208011441E-1   -4.596798116517566E-2
 6.501941385800000E9    -4.680217303449171E-1   -2.341010453283653E-1   -1.351634200264252E-2    5.392605217775003E-2   -1.105315061216587E-2    5.329561024251569E-2   -5.029440918719228E-1   -4.424092781696282E-2
 6.501954048200000E9    -4.684693367440737E-1   -2.329526647941156E-1   -1.359690033976225E-2    5.440706393669026E-2   -1.096086694041703E-2    5.377386420227991E-2   -5.028342080883381E-1   -4.263870295817238E-2
 6.501966710600000E9    -4.688934700769230E-1   -2.319623810080968E-1   -1.348899124377931E-2    5.495495742158206E-2   -1.090787495733329E-2    5.424400976909102E-2   -5.027854346233159E-1   -4.074829084968248E-2
 6.501979373000000E9    -4.693496852259646E-1   -2.308035393260171E-1   -1.342879013351764E-2    5.546141230874278E-2   -1.075591868206904E-2    5.470062932926286E-2   -5.026947330852721E-1   -3.905859394963209E-2
 6.501992035400000E9    -4.698206083107573E-1   -2.296026367110878E-1   -1.336778792889354E-2    5.588634699238599E-2   -1.062920661973155E-2    5.520171163423859E-2   -5.027854340821359E-1   -3.718147020301418E-2
 6.502004697800000E9    -4.702561229871211E-1   -2.285507529096018E-1   -1.324374721010939E-2    5.642388325997350E-2   -1.058317304920494E-2    5.575336607342835E-2   -5.026593662888533E-1   -3.554597621316238E-2
 6.502017360200000E9    -4.707046747226395E-1   -2.274390803999847E-1   -1.319802486308446E-2    5.705554795368041E-2   -1.053872613886195E-2    5.625542727674907E-2   -5.028110502809009E-1   -3.379160392609107E-2
 6.502030022600000E9    -4.712672308709116E-1   -2.263318661939588E-1   -1.302120844995650E-2    5.756851094532710E-2   -1.029912273238506E-2    5.681015302219022E-2   -5.024736757031977E-1   -3.196021761211736E-2
 6.502042685000000E9    -4.715882888104247E-1   -2.251890809853885E-1   -1.304187156321303E-2    5.811166588864659E-2   -1.025506525514975E-2    5.731664394878381E-2   -5.024471097040090E-1   -2.992419560565145E-2
