#  HZ   S   RI   R     50.00 
! Rohde & Schwarz Vector Network Analyzer 
! Rohde-Schwarz,ZNB20-2Port,1311601062101988,3.16
! Created: UTC 3/20/2024, 11:47:18 AM
! freq[Hz]                re:S11                  im:S11                  re:S21                  im:S21                  re:S12                  im:S12                  re:S22                  im:S22
 6.500893447000000E9    -4.235795740928874E-1   -3.128635612729094E-1   -1.500263168288564E-2    2.969123540349713E-2   -1.342766811659845E-2    2.972648775856012E-2   -4.883909572036341E-1   -1.590217369975299E-1
 6.500906145825000E9    -4.242164938081426E-1   -3.120049143540877E-1   -1.490926127512649E-2    2.975261896377888E-2   -1.331191241563446E-2    2.989080551515782E-2   -4.886115889787832E-1   -1.581248341090669E-1
 6.500918844650000E9    -4.247841761617305E-1   -3.110321638468807E-1   -1.503426823840662E-2    2.990718122026673E-2   -1.324759330096295E-2    3.015439225759860E-2   -4.891048761191066E-1   -1.568770492292250E-1
 6.500931543475000E9    -4.254381132229705E-1   -3.102797078952215E-1   -1.502564425045500E-2    3.026530370998705E-2   -1.318320651685746E-2    3.035603235109114E-2   -4.892869292148927E-1   -1.556356545377956E-1
 6.500944242300000E9    -4.260141777872675E-1   -3.093291415407280E-1   -1.496895160900006E-2    3.033069541362911E-2   -1.320351137454452E-2    3.037162382896916E-2   -4.895473521188166E-1   -1.544982286933641E-1
 6.500956941125000E9    -4.265663991970599E-1   -3.086043470181131E-1   -1.498198717236864E-2    3.065686712317885E-2   -1.318833455809487E-2    3.065396935388391E-2   -4.899506049660961E-1   -1.532309254737426E-1
 6.500969639950000E9    -4.272449207515155E-1   -3.076854905094346E-1   -1.497205828690498E-2    3.074500716672647E-2   -1.321411294526858E-2    3.085560905429303E-2   -4.900900777306482E-1   -1.520440100383588E-1
 6.500982338775000E9    -4.277753877689783E-1   -3.067580232505273E-1   -1.495587784342678E-2    3.090793351715955E-2   -1.317041732494133E-2    3.101078170442611E-2   -4.905247226682836E-1   -1.508101985465917E-1
 6.500995037600000E9    -4.284313391330159E-1   -3.058681324413427E-1   -1.503599772724553E-2    3.119078794777140E-2   -1.325780466590021E-2    3.115178196967962E-2   -4.908453860099401E-1   -1.496510150513016E-1
 6.501007736425000E9    -4.289754608656244E-1   -3.049464481872204E-1   -1.495436440108777E-2    3.128399437048337E-2   -1.329028386210500E-2    3.142110050442248E-2   -4.911721511941533E-1   -1.485319640080547E-1
 6.501020435250000E9    -4.295017962357069E-1   -3.042487933044651E-1   -1.502282329628199E-2    3.150225424482701E-2   -1.320975290887434E-2    3.161538387133427E-2   -4.913446813374069E-1   -1.473658201742200E-1
 6.501033134075000E9    -4.301222001591324E-1   -3.032821551397398E-1   -1.494586866392714E-2    3.170857311298590E-2   -1.312864478889585E-2    3.182398414714667E-2   -4.916555566511874E-1   -1.460150782817600E-1
 6.501045832900000E9    -4.308027042624844E-1   -3.024674402426395E-1   -1.499127747770474E-2    3.183310665555550E-2   -1.321557282226480E-2    3.197466953905465E-2   -4.918544719691799E-1   -1.448029463907989E-1
 6.501058531725000E9    -4.313953765878558E-1   -3.015896256249305E-1   -1.503507361825463E-2    3.207068675998728E-2   -1.320849949765333E-2    3.223376889451848E-2   -4.922379128340985E-1   -1.434560477787844E-1
 6.501071230550000E9    -4.318980629158096E-1   -3.007026989292052E-1   -1.485255259121628E-2    3.221430326721629E-2   -1.317409994284482E-2    3.241983598434719E-2   -4.925885330537425E-1   -1.424146098749762E-1
 6.501083929375000E9    -4.325081578780274E-1   -2.998725522891294E-1   -1.500374036011420E-2    3.255562493857802E-2   -1.322496053021304E-2    3.254864884371820E-2   -4.928531433073063E-1   -1.410190417291366E-1
 6.501096628200000E9    -4.331123066824383E-1   -2.990085876663453E-1   -1.487095732169929E-2    3.269978470074926E-2   -1.312172358991217E-2    3.289681246875870E-2   -4.930170660774594E-1   -1.398074664659245E-1
 6.501109327025000E9    -4.336490516985443E-1   -2.979490785352353E-1   -1.490983530984966E-2    3.300742213423231E-2   -1.304929929761847E-2    3.300543170957401E-2   -4.933592001363679E-1   -1.385626896293701E-1
 6.501122025850000E9    -4.342664905593502E-1   -2.971391555060562E-1   -1.496825037673108E-2    3.309264974061040E-2   -1.321501907352506E-2    3.315540418595318E-2   -4.935113684609664E-1   -1.373512056126902E-1
 6.501134724675000E9    -4.347082868709826E-1   -2.961917459327138E-1   -1.490870162317539E-2    3.346152050239491E-2   -1.311693954164085E-2    3.344012837310854E-2   -4.938640930911252E-1   -1.361391388289935E-1
 6.501147423500000E9    -4.354042059253636E-1   -2.953885678437382E-1   -1.500851761127677E-2    3.354759593816729E-2   -1.316982887206495E-2    3.366409688063861E-2   -4.941321036976938E-1   -1.348826414308404E-1
 6.501160122325000E9    -4.359296048769509E-1   -2.944657163729740E-1   -1.498116576793690E-2    3.383856835789489E-2   -1.303413745341729E-2    3.377669028596704E-2   -4.943382761122771E-1   -1.334874423305204E-1
 6.501172821150000E9    -4.365141554825562E-1   -2.934919101938119E-1   -1.496673372576794E-2    3.409002666579358E-2   -1.312807542819052E-2    3.406300492789263E-2   -4.945889723888334E-1   -1.323512429626605E-1
 6.501185519975000E9    -4.371142657777863E-1   -2.927256183166218E-1   -1.498682059305457E-2    3.422190625020093E-2   -1.316396895343672E-2    3.430665818894375E-2   -4.947642460507980E-1   -1.310986919850974E-1
 6.501198218800000E9    -4.376907042216083E-1   -2.916948226412466E-1   -1.485173486756516E-2    3.456183274149234E-2   -1.299171334815300E-2    3.452767511893474E-2   -4.951190455043917E-1   -1.297559243545550E-1
 6.501210917625000E9    -4.382004352089297E-1   -2.907749422937005E-1   -1.491658489109945E-2    3.468854222521701E-2   -1.310958926528057E-2    3.470187900062172E-2   -4.951556017954580E-1   -1.285489973875060E-1
 6.501223616450000E9    -4.387585440923055E-1   -2.898899820527183E-1   -1.495681285219606E-2    3.487962678173180E-2   -1.299374897684139E-2    3.487677368432429E-2   -4.956873437242966E-1   -1.271762565609751E-1
 6.501236315275000E9    -4.393970847303528E-1   -2.890945703074261E-1   -1.498973782063043E-2    3.518913572574806E-2   -1.306360140045337E-2    3.515695496488864E-2   -4.958495714665999E-1   -1.259237639419372E-1
 6.501249014100000E9    -4.399544565549318E-1   -2.881307280729682E-1   -1.471984909710811E-2    3.547312131574287E-2   -1.306944878033739E-2    3.545987027996530E-2   -4.959995701927778E-1   -1.246857632527695E-1
 6.501261712925000E9    -4.404231773094679E-1   -2.871690139634079E-1   -1.490808144747837E-2    3.568884400276050E-2   -1.302175981268812E-2    3.563915809244864E-2   -4.963159853207759E-1   -1.233822512245488E-1
 6.501274411750000E9    -4.411038379077974E-1   -2.862951824399022E-1   -1.497764427733559E-2    3.603077651506923E-2   -1.302081780185397E-2    3.590585908983313E-2   -4.965996186299856E-1   -1.220165160325125E-1
 6.501287110575000E9    -4.415673376591244E-1   -2.854241228168073E-1   -1.496465184815677E-2    3.624156626008412E-2   -1.303218989736369E-2    3.606876229990400E-2   -4.967995571283979E-1   -1.207813582864951E-1
 6.501299809400000E9    -4.421407675793195E-1   -2.844463177555832E-1   -1.494385721587394E-2    3.632664625730167E-2   -1.292976316290544E-2    3.634764457152088E-2   -4.969666440036236E-1   -1.194861699132884E-1
 6.501312508225000E9    -4.427565820740825E-1   -2.835106069285629E-1   -1.499863930417469E-2    3.673999960480314E-2   -1.294943326628940E-2    3.666755273676729E-2   -4.972667503207881E-1   -1.180713307496552E-1
 6.501325207050000E9    -4.433207457110017E-1   -2.824926084631366E-1   -1.497885829685370E-2    3.676169481734642E-2   -1.300049426822386E-2    3.677751609655470E-2   -4.974062586874319E-1   -1.168608951171870E-1
 6.501337905875000E9    -4.438133015485231E-1   -2.816890260284130E-1   -1.485854711542211E-2    3.715922132951999E-2   -1.292149736309674E-2    3.710735800266422E-2   -4.977220227716749E-1   -1.154897625320930E-1
 6.501350604700000E9    -4.443375438447777E-1   -2.807405814421515E-1   -1.489335083486143E-2    3.747668578137422E-2   -1.294667808909420E-2    3.730813177383652E-2   -4.978845133018907E-1   -1.141663628528628E-1
 6.501363303525000E9    -4.449392912629432E-1   -2.797693795146318E-1   -1.484855046718585E-2    3.767367555487825E-2   -1.293864821757906E-2    3.754574715139258E-2   -4.982387977103129E-1   -1.128537700226310E-1
 6.501376002350000E9    -4.455513964187199E-1   -2.787841460455477E-1   -1.487380910904765E-2    3.802355154537192E-2   -1.289755431696690E-2    3.784716665768982E-2   -4.982476708675581E-1   -1.115189314629605E-1
 6.501388701175000E9    -4.459342169616776E-1   -2.778852131142401E-1   -1.490580148241495E-2    3.812307051321772E-2   -1.278998841211894E-2    3.813013578568899E-2   -4.985357768626885E-1   -1.101276202254839E-1
 6.501401400000000E9    -4.465129240899385E-1   -2.768549251648039E-1   -1.492798330379134E-2    3.850034696294680E-2   -1.293133640376469E-2    3.836824797416405E-2   -4.986908157622724E-1   -1.087337359359876E-1
 6.501414098825000E9    -4.470595413909156E-1   -2.759882507074900E-1   -1.494226947143515E-2    3.878591669383513E-2   -1.284617616902013E-2    3.866097919294142E-2   -4.989562184915748E-1   -1.076151807602138E-1
 6.501426797650000E9    -4.475393110047207E-1   -2.751082846042217E-1   -1.481472758610937E-2    3.907460868880562E-2   -1.280169739213582E-2    3.889461031300961E-2   -4.990627328227186E-1   -1.060900926692660E-1
 6.501439496475000E9    -4.481830543349826E-1   -2.742228340543441E-1   -1.490210492172350E-2    3.928173444688591E-2   -1.275642795046321E-2    3.919012985825058E-2   -4.993137157697652E-1   -1.046600360539747E-1
 6.501452195300000E9    -4.486821227794245E-1   -2.731837443570951E-1   -1.497863566407619E-2    3.971796492740292E-2   -1.275855280042539E-2    3.950337645853626E-2   -4.994613364534612E-1   -1.033737525308643E-1
 6.501464894125000E9    -4.492253338244215E-1   -2.720843860907632E-1   -1.479436926687708E-2    3.994097821546277E-2   -1.279545174814528E-2    3.966177579080729E-2   -4.996209977097515E-1   -1.019590739582023E-1
 6.501477592950000E9    -4.497505068242130E-1   -2.712660010397838E-1   -1.480913604604434E-2    4.025648599177774E-2   -1.270720914698415E-2    3.993717887390060E-2   -4.997459194818943E-1   -1.004971476202541E-1
 6.501490291775000E9    -4.502563616991254E-1   -2.702773672474883E-1   -1.474768585057105E-2    4.050818791353009E-2   -1.276314284440773E-2    4.027437426201640E-2   -5.000870954991782E-1   -9.911791110935690E-2
 6.501502990600000E9    -4.508135234960506E-1   -2.693178358743843E-1   -1.478261033686519E-2    4.080678889845257E-2   -1.273304775872211E-2    4.061872827429398E-2   -5.000391620058428E-1   -9.768163043423207E-2
 6.501515689425000E9    -4.514010989873454E-1   -2.683756719137051E-1   -1.470455349522835E-2    4.099520974891262E-2   -1.258668004626679E-2    4.088107998650095E-2   -5.002415531171925E-1   -9.631451346744738E-2
 6.501528388250000E9    -4.520017849833567E-1   -2.673380149812126E-1   -1.484281135349284E-2    4.126803194610899E-2   -1.257872865771006E-2    4.107153176561404E-2   -5.004085907925447E-1   -9.484177970139092E-2
 6.501541087075000E9    -4.524774755158671E-1   -2.663856756215535E-1   -1.469697598631176E-2    4.161325650942097E-2   -1.253168532949049E-2    4.139986143867996E-2   -5.006695396088078E-1   -9.341178840255208E-2
 6.501553785900000E9    -4.529463967717730E-1   -2.653257278913682E-1   -1.474543648736246E-2    4.197964584862816E-2   -1.260779158884373E-2    4.179292762472606E-2   -5.008148466718617E-1   -9.206855478133073E-2
 6.501566484725000E9    -4.533760105920880E-1   -2.643923044028918E-1   -1.464279206259582E-2    4.238298555728622E-2   -1.254336424575265E-2    4.214765275621687E-2   -5.007916960402827E-1   -9.058417336762842E-2
 6.501579183550000E9    -4.539673340350605E-1   -2.634318883498370E-1   -1.474543987014777E-2    4.271619101734848E-2   -1.251524958162454E-2    4.234038305750559E-2   -5.010252416150184E-1   -8.919378247337571E-2
 6.501591882375000E9    -4.544212406596816E-1   -2.623980550329946E-1   -1.461420519691327E-2    4.306524790180255E-2   -1.241867640350921E-2    4.279299254141601E-2   -5.012062300438391E-1   -8.763511236510849E-2
 6.501604581200000E9    -4.550358620633939E-1   -2.614772173598455E-1   -1.465757323062989E-2    4.330396843208149E-2   -1.235194153547998E-2    4.303816612003917E-2   -5.014348806027176E-1   -8.617525356524637E-2
 6.501617280025000E9    -4.556019089763153E-1   -2.604731858211759E-1   -1.473745046265603E-2    4.372509498802972E-2   -1.236911332782969E-2    4.343753060251624E-2   -5.014580296505289E-1   -8.463341301568171E-2
 6.501629978850000E9    -4.560445063279858E-1   -2.595826185254000E-1   -1.458260748115219E-2    4.407126407314532E-2   -1.239410173098694E-2    4.369782467139547E-2   -5.016581657192111E-1   -8.327687058817058E-2
 6.501642677675000E9    -4.565275268548832E-1   -2.585218972837272E-1   -1.449444818156644E-2    4.428518288952522E-2   -1.226321097274848E-2    4.413841595755950E-2   -5.018074570311775E-1   -8.173176474733554E-2
 6.501655376500000E9    -4.570391499474112E-1   -2.575184871509114E-1   -1.455641474623292E-2    4.458684530626334E-2   -1.239273666985799E-2    4.433891439917115E-2   -5.018118356877960E-1   -8.041905050635854E-2
 6.501668075325000E9    -4.575787951847647E-1   -2.564662960368651E-1   -1.449132603312574E-2    4.493841914782375E-2   -1.221708234612410E-2    4.478311383833462E-2   -5.020574877345904E-1   -7.880947626749621E-2
 6.501680774150000E9    -4.580698122775184E-1   -2.554955908940843E-1   -1.452583509571935E-2    4.543155119501018E-2   -1.228671964554563E-2    4.499647814890446E-2   -5.020102476847842E-1   -7.729721848226487E-2
 6.501693472975000E9    -4.584924569813215E-1   -2.544018736810406E-1   -1.455324457431122E-2    4.571951758685940E-2   -1.218910558270893E-2    4.540125780854865E-2   -5.020988578034227E-1   -7.578373060999759E-2
 6.501706171800000E9    -4.591359222387999E-1   -2.535642127532264E-1   -1.439632832793842E-2    4.612840875091034E-2   -1.220361045626822E-2    4.572800479485727E-2   -5.022753116726340E-1   -7.434368032570147E-2
 6.501718870625000E9    -4.595589180919754E-1   -2.524957469820097E-1   -1.451864011946933E-2    4.652839447984572E-2   -1.197592776606078E-2    4.608434224092331E-2   -5.024878501063099E-1   -7.266094354937072E-2
 6.501731569450000E9    -4.600563077779891E-1   -2.513543045388528E-1   -1.438985487440654E-2    4.692894652891515E-2   -1.200344217152066E-2    4.643683081036640E-2   -5.024899868250937E-1   -7.110920730998993E-2
 6.501744268275000E9    -4.604946301801566E-1   -2.504626097262961E-1   -1.439179133295564E-2    4.713338006396126E-2   -1.198982931419769E-2    4.685401849661078E-2   -5.023958839179942E-1   -6.959002088713589E-2
 6.501756967100000E9    -4.609999309850856E-1   -2.494250785854716E-1   -1.428239269997395E-2    4.761006110250196E-2   -1.196636945140031E-2    4.725654440038270E-2   -5.026985043272680E-1   -6.801284976572715E-2
 6.501769665925000E9    -4.615054406148357E-1   -2.483596372533840E-1   -1.434137841211449E-2    4.807529366709754E-2   -1.181628052508775E-2    4.758516984596010E-2   -5.025979653471691E-1   -6.648248250807540E-2
 6.501782364750000E9    -4.620607008365186E-1   -2.473058057733668E-1   -1.425126334975079E-2    4.856147588645830E-2   -1.188427819003778E-2    4.800751934915847E-2   -5.026676523966379E-1   -6.499336813038750E-2
 6.501795063575000E9    -4.625644579556369E-1   -2.463198297263666E-1   -1.423524538089887E-2    4.888744981878716E-2   -1.184513988458441E-2    4.839298962555279E-2   -5.026437125751538E-1   -6.333801752780557E-2
 6.501807762400000E9    -4.630742030636544E-1   -2.451941313121958E-1   -1.411088814701226E-2    4.920031505062648E-2   -1.166351796241971E-2    4.885527883800059E-2   -5.027019694432695E-1   -6.176066867285956E-2
 6.501820461225000E9    -4.635180522141912E-1   -2.441738165223664E-1   -1.412953593795066E-2    4.971359885707633E-2   -1.167531337795874E-2    4.930938908359457E-2   -5.027782545026942E-1   -6.008415053494292E-2
 6.501833160050000E9    -4.640713946013778E-1   -2.431556400101994E-1   -1.403290126617240E-2    5.000815713231667E-2   -1.157519545199327E-2    4.957563306725464E-2   -5.027080563926808E-1   -5.854133367723018E-2
 6.501845858875000E9    -4.644454115099695E-1   -2.421430808665677E-1   -1.404151866083973E-2    5.055920824098269E-2   -1.146086937023469E-2    4.997243457822834E-2   -5.028835616874898E-1   -5.691613260437818E-2
 6.501858557700000E9    -4.649459378897637E-1   -2.409406786964475E-1   -1.391258759398931E-2    5.099688972618850E-2   -1.150421332546365E-2    5.053343418942964E-2   -5.028858307035116E-1   -5.524829496052508E-2
 6.501871256525000E9    -4.654392533649250E-1   -2.398685912262061E-1   -1.387948946426598E-2    5.131394046550109E-2   -1.145281735322426E-2    5.085011097600097E-2   -5.029250756130316E-1   -5.363359552217094E-2
 6.501883955350000E9    -4.659382920361798E-1   -2.388448360149568E-1   -1.382978038125421E-2    5.189881387355995E-2   -1.133968224516541E-2    5.136997265096675E-2   -5.029184022779801E-1   -5.201833171005388E-2
 6.501896654175000E9    -4.663591148779873E-1   -2.378400788711005E-1   -1.389893817418836E-2    5.229326611412335E-2   -1.122223860211978E-2    5.169888263777586E-2   -5.029146127764942E-1   -5.022305900269539E-2
 6.501909353000000E9    -4.667750335823029E-1   -2.366703346158879E-1   -1.361108225856172E-2    5.266465181329490E-2   -1.114098223562589E-2    5.223469216441927E-2   -5.029277570442107E-1   -4.862147690799311E-2
 6.501922051825000E9    -4.673589046692394E-1   -2.355878218320324E-1   -1.365657725495373E-2    5.316867333385827E-2   -1.114997615439232E-2    5.265799173583590E-2   -5.030673118319976E-1   -4.690239806587831E-2
 6.501934750650000E9    -4.677681656822894E-1   -2.344929934264107E-1   -1.360056545545917E-2    5.374556631706534E-2   -1.100774392292075E-2    5.320993756304385E-2   -5.028695421106365E-1   -4.506990396697376E-2
 6.501947449475000E9    -4.682859394606603E-1   -2.333783073398566E-1   -1.362154520158559E-2    5.421035514669722E-2   -1.102701913619489E-2    5.359323665263348E-2   -5.029134914468582E-1   -4.344028593594031E-2
 6.501960148300000E9    -4.686865190721344E-1   -2.323521633946778E-1   -1.355911374336801E-2    5.467422570299914E-2   -1.090589613287889E-2    5.409652415211019E-2   -5.027959456210110E-1   -4.160652407865501E-2
 6.501972847125000E9    -4.690714004140885E-1   -2.312285509674176E-1   -1.345910902374092E-2    5.526075189115732E-2   -1.092432842312753E-2    5.454320132493762E-2   -5.028788288634644E-1   -3.984659530345685E-2
 6.501985545950000E9    -4.696393647750557E-1   -2.301551388777449E-1   -1.327233384160651E-2    5.574186589980448E-2   -1.072587706750398E-2    5.501225252020795E-2   -5.027673325821234E-1   -3.823410917726817E-2
 6.501998244775000E9    -4.700842097087717E-1   -2.290441006852827E-1   -1.327678557101619E-2    5.608288538776081E-2   -1.072402161405663E-2    5.551805010738246E-2   -5.026598520968943E-1   -3.641926874982723E-2
 6.502010943600000E9    -4.704382841547293E-1   -2.278532391301436E-1   -1.332695308309445E-2    5.681044038611339E-2   -1.048104875443553E-2    5.604854019803856E-2   -5.025897257270576E-1   -3.451976917312127E-2
 6.502023642425000E9    -4.709022610199215E-1   -2.267258640695914E-1   -1.306237285277002E-2    5.730404814038700E-2   -1.041420706830112E-2    5.664955090743166E-2   -5.024514471655536E-1   -3.291686767598698E-2
 6.502036341250000E9    -4.714033923099989E-1   -2.255674766390591E-1   -1.303424324664760E-2    5.789068593848881E-2   -1.027831170023422E-2    5.706304071370769E-2   -5.024377675679901E-1   -3.095022864161784E-2
