#  HZ   S   RI   R     50.00 
! Rohde & Schwarz Vector Network Analyzer 
! Rohde-Schwarz,ZNB20-2Port,1311601062101988,3.16
! Created: UTC 3/20/2024, 11:47:23 AM
! freq[Hz]                re:S11                  im:S11                  re:S21                  im:S21                  re:S12                  im:S12                  re:S22                  im:S22
 6.500895777000000E9    -4.237842815918310E-1   -3.126056250394202E-1   -1.494700153132285E-2    2.972156524968700E-2   -1.331725529268443E-2    2.988319951786857E-2   -4.884270112070387E-1   -1.589849468798169E-1
 6.500908459650000E9    -4.243281607751519E-1   -3.118445524018212E-1   -1.484540780615501E-2    2.976601388558692E-2   -1.321933744840756E-2    2.993650066490977E-2   -4.887385130216753E-1   -1.579106699019130E-1
 6.500921142300000E9    -4.249860087701622E-1   -3.109810868911563E-1   -1.493696443850436E-2    3.012253864428737E-2   -1.321556479566249E-2    3.019455974051306E-2   -4.888778224057557E-1   -1.567484369810901E-1
 6.500933824950000E9    -4.255823056265797E-1   -3.100739633410540E-1   -1.495073549602295E-2    3.025897008709989E-2   -1.326497375967692E-2    3.041190345238817E-2   -4.892652094570861E-1   -1.552773756264788E-1
 6.500946507600000E9    -4.261530035060378E-1   -3.092132905523145E-1   -1.490851566938434E-2    3.050352585797727E-2   -1.320503988172310E-2    3.057131681207553E-2   -4.895807965227549E-1   -1.542573503544950E-1
 6.500959190250000E9    -4.267721958888475E-1   -3.083577694559204E-1   -1.502590919172988E-2    3.061142497542232E-2   -1.332526664607942E-2    3.063490664540507E-2   -4.900490649564206E-1   -1.530666319991836E-1
 6.500971872900000E9    -4.273280322868245E-1   -3.074355628379571E-1   -1.511506236402164E-2    3.072094576930881E-2   -1.316608144007056E-2    3.089605501553131E-2   -4.902038849735282E-1   -1.518103296648683E-1
 6.500984555550000E9    -4.279229535597067E-1   -3.066041436293021E-1   -1.487404381325236E-2    3.105420170616836E-2   -1.326499240688542E-2    3.105329429174590E-2   -4.905860983917727E-1   -1.506672287152724E-1
 6.500997238200000E9    -4.284561225248637E-1   -3.056745256065380E-1   -1.495558349905494E-2    3.119911407115678E-2   -1.319442433273398E-2    3.123842614487529E-2   -4.907953953569235E-1   -1.494475996814644E-1
 6.501009920850000E9    -4.291381926747714E-1   -3.047476939690688E-1   -1.508042346523435E-2    3.142860282607064E-2   -1.311976999912647E-2    3.142256703283462E-2   -4.912242467883561E-1   -1.482309337266945E-1
 6.501022603500000E9    -4.297187017240331E-1   -3.040245364225185E-1   -1.504977089255823E-2    3.155403432081370E-2   -1.318970368707895E-2    3.163557757349358E-2   -4.914492982657836E-1   -1.470886607004182E-1
 6.501035286150000E9    -4.302378444652032E-1   -3.031380502755289E-1   -1.503521817308749E-2    3.187248660858515E-2   -1.305535214360180E-2    3.182294695539279E-2   -4.916607716469835E-1   -1.458626937662011E-1
 6.501047968800000E9    -4.308556055987652E-1   -3.022187803611527E-1   -1.496572527859936E-2    3.193511876422796E-2   -1.323848771436942E-2    3.206262728273295E-2   -4.920888485326567E-1   -1.446193904224785E-1
 6.501060651450000E9    -4.313631475285452E-1   -3.014011078425045E-1   -1.489628734978406E-2    3.229473973958911E-2   -1.320022091154623E-2    3.222024272965585E-2   -4.923093538487878E-1   -1.433036646899580E-1
 6.501073334100000E9    -4.320550460369545E-1   -3.003893533494235E-1   -1.487182735498019E-2    3.242457984070846E-2   -1.321205282918154E-2    3.235249175160692E-2   -4.925974047073257E-1   -1.420473663127662E-1
 6.501086016750000E9    -4.324957164644530E-1   -2.995391292199314E-1   -1.505552517682598E-2    3.261238957646494E-2   -1.318815855850355E-2    3.262786716743446E-2   -4.929151893868165E-1   -1.410137675249618E-1
 6.501098699400000E9    -4.331239792748887E-1   -2.987268665403190E-1   -1.485985152852079E-2    3.272974481148145E-2   -1.319636011470834E-2    3.288868072150339E-2   -4.932083509440506E-1   -1.395355219292441E-1
 6.501111382050000E9    -4.337866816575584E-1   -2.977891906836244E-1   -1.489901921175683E-2    3.305739696130213E-2   -1.316747276758995E-2    3.299830721479475E-2   -4.933874423025753E-1   -1.383050762065663E-1
 6.501124064700000E9    -4.343027664383423E-1   -2.970359559176691E-1   -1.504688904673019E-2    3.324942681413245E-2   -1.308876503830555E-2    3.330576299894814E-2   -4.935842284009324E-1   -1.371243854322432E-1
 6.501136747350000E9    -4.349116033347029E-1   -2.958657569730205E-1   -1.486799213213648E-2    3.339562761535795E-2   -1.309726647157870E-2    3.347348414841380E-2   -4.938263662237013E-1   -1.359743114721468E-1
 6.501149430000000E9    -4.354625036100396E-1   -2.950275744045857E-1   -1.501800820912696E-2    3.381791827137849E-2   -1.317452346881093E-2    3.367540533400545E-2   -4.942499721084721E-1   -1.346412759615484E-1
 6.501162112650000E9    -4.360085080221903E-1   -2.942745355174075E-1   -1.503126168178912E-2    3.380445096013727E-2   -1.318261472788421E-2    3.381239012129923E-2   -4.943301682324181E-1   -1.334423996109398E-1
 6.501174795300000E9    -4.366439362648380E-1   -2.932516255074122E-1   -1.488541976544805E-2    3.406748615254525E-2   -1.317972974472140E-2    3.407488030763113E-2   -4.946843297212418E-1   -1.321368917197670E-1
 6.501187477950000E9    -4.372470959692365E-1   -2.924407559647362E-1   -1.502882338976276E-2    3.418756854713417E-2   -1.316490188404960E-2    3.427103585381742E-2   -4.948623212654795E-1   -1.308316826537705E-1
 6.501200160600000E9    -4.378133737655568E-1   -2.915327285774458E-1   -1.489718316887060E-2    3.456372312441839E-2   -1.309196848319345E-2    3.455895078082172E-2   -4.951305340703950E-1   -1.294558338957786E-1
 6.501212843250000E9    -4.383679055067549E-1   -2.906767958032362E-1   -1.499602737208427E-2    3.485849708691942E-2   -1.300475550012712E-2    3.474932472219945E-2   -4.955202551367844E-1   -1.284397707549450E-1
 6.501225525900000E9    -4.388997668196483E-1   -2.897511787544204E-1   -1.495240888598336E-2    3.496301685173227E-2   -1.304251627623689E-2    3.501618296756039E-2   -4.956729453224731E-1   -1.272074746649508E-1
 6.501238208550000E9    -4.394846096996469E-1   -2.888714744588111E-1   -1.485163418745537E-2    3.537245719376268E-2   -1.301699979406006E-2    3.517882873876682E-2   -4.958719529491903E-1   -1.258081858067835E-1
 6.501250891200000E9    -4.399698139709005E-1   -2.878188275003234E-1   -1.495327697274464E-2    3.551307173910856E-2   -1.306754113081196E-2    3.545370138366287E-2   -4.960792127367041E-1   -1.244379356176522E-1
 6.501263573850000E9    -4.405373414425655E-1   -2.869477606493297E-1   -1.493576991036554E-2    3.571753831305954E-2   -1.302081607756013E-2    3.572791972828696E-2   -4.963405186586317E-1   -1.232505123395686E-1
 6.501276256500000E9    -4.410613461464981E-1   -2.861166479152711E-1   -1.498369303372438E-2    3.603733809046562E-2   -1.300230959051403E-2    3.590544878652306E-2   -4.965618204861946E-1   -1.218623029238441E-1
 6.501288939150000E9    -4.417086672843777E-1   -2.851651528432678E-1   -1.490033808413369E-2    3.624075876559428E-2   -1.304971713010365E-2    3.612522460986586E-2   -4.968318580176786E-1   -1.205314843855978E-1
 6.501301621800000E9    -4.423137575426658E-1   -2.842817552311305E-1   -1.497599399505611E-2    3.646302960041640E-2   -1.296631507296861E-2    3.648309067797752E-2   -4.970431228730911E-1   -1.193037115195741E-1
 6.501314304450000E9    -4.428192364337781E-1   -2.833252139039196E-1   -1.498489897389655E-2    3.671685133920475E-2   -1.292538982066222E-2    3.662837870227319E-2   -4.973231294996769E-1   -1.180073902834078E-1
 6.501326987100000E9    -4.434218787735437E-1   -2.824040297001051E-1   -1.491400828314060E-2    3.687399759960971E-2   -1.298099336657306E-2    3.686763635041310E-2   -4.975232683754668E-1   -1.166402370934555E-1
 6.501339669750000E9    -4.437778127571986E-1   -2.813954792178614E-1   -1.484302990880489E-2    3.717642313297172E-2   -1.293814346690681E-2    3.717990252953586E-2   -4.976179815510338E-1   -1.153086152586893E-1
 6.501352352400000E9    -4.443707568291689E-1   -2.805901865747187E-1   -1.481307571707867E-2    3.756541714427015E-2   -1.292976321994063E-2    3.726001518652929E-2   -4.978849150527235E-1   -1.140077906136267E-1
 6.501365035050000E9    -4.450621047022637E-1   -2.796072481834970E-1   -1.503065120402704E-2    3.770455179271290E-2   -1.293328264202446E-2    3.760886381818564E-2   -4.981197516125473E-1   -1.126211755409865E-1
 6.501377717700000E9    -4.455692438975877E-1   -2.786915601041034E-1   -1.481218194158069E-2    3.814209582587553E-2   -1.286146009404212E-2    3.786852918397912E-2   -4.982491148013812E-1   -1.113039173125145E-1
 6.501390400350000E9    -4.460614060290488E-1   -2.776913122070869E-1   -1.500763387573128E-2    3.831464299258184E-2   -1.286718744372329E-2    3.821986060191643E-2   -4.984315048389486E-1   -1.099919333882389E-1
 6.501403083000000E9    -4.466529253342038E-1   -2.766937633003003E-1   -1.486451645615742E-2    3.864575374424511E-2   -1.290115743675340E-2    3.846039422050580E-2   -4.986260853309025E-1   -1.086157667620616E-1
 6.501415765650000E9    -4.470605409725653E-1   -2.757546760083903E-1   -1.497787766250796E-2    3.892074001688060E-2   -1.287205199673765E-2    3.863298322183020E-2   -4.988881231806261E-1   -1.072087923871105E-1
 6.501428448300000E9    -4.476910509251603E-1   -2.749076190052817E-1   -1.486728916645919E-2    3.897531336600631E-2   -1.282917906093886E-2    3.893386786271209E-2   -4.991488307587084E-1   -1.058743908235669E-1
 6.501441130950000E9    -4.482521165050573E-1   -2.739801859325354E-1   -1.486266591597343E-2    3.935301284476912E-2   -1.268715725715897E-2    3.931645497258342E-2   -4.993287462081257E-1   -1.045716133905152E-1
 6.501453813600000E9    -4.488776334885105E-1   -2.730648093796696E-1   -1.484093452072282E-2    3.968143397265991E-2   -1.274307575957893E-2    3.951911490096948E-2   -4.993352521474390E-1   -1.030399647124658E-1
 6.501466496250000E9    -4.493680079853415E-1   -2.720209079768979E-1   -1.497297829729938E-2    3.994328009656251E-2   -1.271420789125497E-2    3.979343282984816E-2   -4.995969988170508E-1   -1.017038726967281E-1
 6.501479178900000E9    -4.497701935491408E-1   -2.710200623422953E-1   -1.477839784065627E-2    4.025483683008881E-2   -1.267550421734386E-2    4.000360153205251E-2   -4.998002048009487E-1   -1.002581970548483E-1
 6.501491861550000E9    -4.502655000956799E-1   -2.701375648527440E-1   -1.471088099798621E-2    4.060598232477509E-2   -1.276915518004659E-2    4.033231588662730E-2   -4.999756705890787E-1   -9.893156617689333E-2
 6.501504544200000E9    -4.509423694638386E-1   -2.691057068320109E-1   -1.484279103347633E-2    4.077417958912619E-2   -1.264772910333049E-2    4.060147162401825E-2   -5.001857352202874E-1   -9.758801881192701E-2
 6.501517226850000E9    -4.514061646842883E-1   -2.680571475538733E-1   -1.486886164174757E-2    4.107356546530569E-2   -1.265905512171929E-2    4.098636718021338E-2   -5.003616027927057E-1   -9.609874703457089E-2
 6.501529909500000E9    -4.520374475267285E-1   -2.671892517654302E-1   -1.476626997185886E-2    4.143825882846314E-2   -1.259907207833822E-2    4.120263881418285E-2   -5.005452819865820E-1   -9.469467808828355E-2
 6.501542592150000E9    -4.523945950468320E-1   -2.662766778852618E-1   -1.468013161709397E-2    4.170704347969992E-2   -1.255702662060252E-2    4.151237268292397E-2   -5.006558598106867E-1   -9.325737797049724E-2
 6.501555274800000E9    -4.529945519286912E-1   -2.652059022126192E-1   -1.469273183776710E-2    4.216424860890471E-2   -1.251990290505867E-2    4.185883102767242E-2   -5.008710258835628E-1   -9.193871727886110E-2
 6.501567957450000E9    -4.534058562908996E-1   -2.643346884324386E-1   -1.469429231685608E-2    4.240076898873048E-2   -1.250900999897420E-2    4.208206179566604E-2   -5.010178843623967E-1   -9.047834799598625E-2
 6.501580640100000E9    -4.540151642349786E-1   -2.633154369523010E-1   -1.467993674684026E-2    4.273561711684723E-2   -1.243033186749160E-2    4.245323285071372E-2   -5.012143888257448E-1   -8.896190376210403E-2
 6.501593322750000E9    -4.546163750899185E-1   -2.622454258527989E-1   -1.460790446571030E-2    4.310261811993153E-2   -1.242596714557858E-2    4.280040200717274E-2   -5.012261090892822E-1   -8.762600492033966E-2
 6.501606005400000E9    -4.550387865700194E-1   -2.613150876249425E-1   -1.468686542578429E-2    4.356063829077526E-2   -1.238394464925519E-2    4.314164685592543E-2   -5.013786904746202E-1   -8.610511789463558E-2
 6.501618688050000E9    -4.555010160540596E-1   -2.604284040537270E-1   -1.456153334277871E-2    4.369497675249370E-2   -1.220050673131217E-2    4.343551159900658E-2   -5.014557051044594E-1   -8.461539962360619E-2
 6.501631370700000E9    -4.560466202955255E-1   -2.593322738828746E-1   -1.461707224451435E-2    4.406879027050280E-2   -1.225299385219920E-2    4.372370213124683E-2   -5.016179089860316E-1   -8.315159591853227E-2
 6.501644053350000E9    -4.565941401490160E-1   -2.583733055760881E-1   -1.471922533171436E-2    4.438781250474891E-2   -1.230503307556239E-2    4.409088290024545E-2   -5.017866698456270E-1   -8.169908927621555E-2
 6.501656736000000E9    -4.571029564599163E-1   -2.573597642453861E-1   -1.450137837471842E-2    4.475022890704489E-2   -1.234879825234106E-2    4.444031918509341E-2   -5.018339220123108E-1   -8.005500367321831E-2
 6.501669418650000E9    -4.575853944043616E-1   -2.564702385198265E-1   -1.447723049033926E-2    4.509193254540764E-2   -1.219458391587650E-2    4.478542562725712E-2   -5.019197831709643E-1   -7.871881837197159E-2
 6.501682101300000E9    -4.582019348501822E-1   -2.553169701627289E-1   -1.437218048845759E-2    4.554221730692979E-2   -1.215722310764920E-2    4.508880103340631E-2   -5.020386268364436E-1   -7.704019626465518E-2
 6.501694783950000E9    -4.586909836344957E-1   -2.544289515522940E-1   -1.444184486684766E-2    4.571905281705465E-2   -1.209156142236769E-2    4.544884147054553E-2   -5.021529696815398E-1   -7.564789358551682E-2
 6.501707466600000E9    -4.590664373530907E-1   -2.533200877659691E-1   -1.447298850038272E-2    4.611517950163796E-2   -1.206756362284304E-2    4.571668266516767E-2   -5.021890680516614E-1   -7.401276906484984E-2
 6.501720149250000E9    -4.596733958105053E-1   -2.522967752656110E-1   -1.455288479207767E-2    4.659268218316721E-2   -1.207020105385676E-2    4.624008768437365E-2   -5.022705183474900E-1   -7.247960208308740E-2
 6.501732831900000E9    -4.600561812392446E-1   -2.512637291075759E-1   -1.439274729214301E-2    4.695506556209612E-2   -1.202814149540990E-2    4.654084912091031E-2   -5.023138823459725E-1   -7.104450957918569E-2
 6.501745514550000E9    -4.605772999275392E-1   -2.503110877820789E-1   -1.428846345463012E-2    4.740644835063847E-2   -1.188352692093503E-2    4.691229992065275E-2   -5.023550907445780E-1   -6.939959904803072E-2
 6.501758197200000E9    -4.610993194003086E-1   -2.491853282520975E-1   -1.438827745997781E-2    4.775184644771091E-2   -1.188509023767371E-2    4.726418387827497E-2   -5.024615229943626E-1   -6.796359012105783E-2
 6.501770879850000E9    -4.616115746273036E-1   -2.482091746092745E-1   -1.416511010389118E-2    4.798116096200820E-2   -1.183194956414657E-2    4.770676261948924E-2   -5.026310854718928E-1   -6.634802502230053E-2
 6.501783562500000E9    -4.621541898912947E-1   -2.471948720574532E-1   -1.429409404320110E-2    4.853283753794349E-2   -1.177657678758364E-2    4.807287290636383E-2   -5.025921907293389E-1   -6.474849117621834E-2
 6.501796245150000E9    -4.626363985884643E-1   -2.461042917533096E-1   -1.414136335393599E-2    4.888476183101886E-2   -1.170771160887322E-2    4.847602408722330E-2   -5.026862701665304E-1   -6.320969459784380E-2
 6.501808927800000E9    -4.630674286623696E-1   -2.450628362234849E-1   -1.408182851272496E-2    4.942644647818371E-2   -1.166022503760496E-2    4.889643864677392E-2   -5.027603475343375E-1   -6.147561422848725E-2
 6.501821610450000E9    -4.635626964379903E-1   -2.440099078214555E-1   -1.410819736653192E-2    4.970555858269172E-2   -1.161430866101198E-2    4.920054152286991E-2   -5.028274165027238E-1   -6.001248216572421E-2
 6.501834293100000E9    -4.640331674189371E-1   -2.429138575129752E-1   -1.407624301439129E-2    5.020616073559752E-2   -1.159326738522893E-2    4.948703277953407E-2   -5.028938611741159E-1   -5.849976080596944E-2
 6.501846975750000E9    -4.645442494927622E-1   -2.418580061997669E-1   -1.413973936054956E-2    5.059673176776779E-2   -1.151848205459853E-2    5.013641385693037E-2   -5.029759831639138E-1   -5.662813287440786E-2
 6.501859658400000E9    -4.650319699402235E-1   -2.408054131720297E-1   -1.410384816742166E-2    5.102121491747762E-2   -1.146003613330982E-2    5.044602959088763E-2   -5.029004743189036E-1   -5.510351033068476E-2
 6.501872341050000E9    -4.654620414596368E-1   -2.397117405527074E-1   -1.395406082514608E-2    5.158961207361756E-2   -1.136310897937892E-2    5.096144905426052E-2   -5.028293504061694E-1   -5.334248480575664E-2
 6.501885023700000E9    -4.659303900798017E-1   -2.387138035956673E-1   -1.384475504935074E-2    5.193780851439175E-2   -1.127021836145246E-2    5.136089234964030E-2   -5.030062785291549E-1   -5.175233007306643E-2
 6.501897706350000E9    -4.664223817291949E-1   -2.376579968392889E-1   -1.383399854394949E-2    5.240737233034612E-2   -1.129786559793099E-2    5.180777615981407E-2   -5.027719751820616E-1   -5.000731193533797E-2
 6.501910389000000E9    -4.668159440342598E-1   -2.365930315220630E-1   -1.378832446429391E-2    5.276033953431180E-2   -1.111581758285259E-2    5.225958080291120E-2   -5.029288312905074E-1   -4.840061417763306E-2
 6.501923071650000E9    -4.674071099259596E-1   -2.354889299485020E-1   -1.377130269336710E-2    5.337484064236607E-2   -1.107123135637412E-2    5.274198414971903E-2   -5.028693032463769E-1   -4.666909726243745E-2
 6.501935754300000E9    -4.678152778388406E-1   -2.343717220491228E-1   -1.365471029768533E-2    5.374470677408857E-2   -1.098662492401834E-2    5.330274022634042E-2   -5.028741290851477E-1   -4.498108211943706E-2
 6.501948436950000E9    -4.682637906513473E-1   -2.332586587553449E-1   -1.353962167602687E-2    5.434030000163835E-2   -1.098106207501001E-2    5.367467742989934E-2   -5.028537414731941E-1   -4.321482846732407E-2
 6.501961119600000E9    -4.686899038642688E-1   -2.321519038975007E-1   -1.343457953195996E-2    5.483312280028935E-2   -1.090439980623914E-2    5.410117828032756E-2   -5.027871650269115E-1   -4.158704388730503E-2
 6.501973802250000E9    -4.691701348762040E-1   -2.310496041588668E-1   -1.352830639756046E-2    5.521063731640836E-2   -1.082845597929962E-2    5.457244036551254E-2   -5.025535081275749E-1   -3.966498611996688E-2
 6.501986484900000E9    -4.696436031600677E-1   -2.300590108282467E-1   -1.329266833475632E-2    5.571448962564688E-2   -1.071948499059397E-2    5.504265681429641E-2   -5.027107256285495E-1   -3.791733891645671E-2
 6.501999167550000E9    -4.701313096574755E-1   -2.288347592022928E-1   -1.331992222915944E-2    5.640243203407946E-2   -1.058913834455626E-2    5.563522693933166E-2   -5.026234957542094E-1   -3.611424686338840E-2
 6.502011850200000E9    -4.705310406606000E-1   -2.276687181326156E-1   -1.316722535987385E-2    5.684458327849583E-2   -1.047008929872899E-2    5.608554575638115E-2   -5.026167830238680E-1   -3.431960264844441E-2
 6.502024532850000E9    -4.709791018641071E-1   -2.266082859863138E-1   -1.309341284274028E-2    5.739524952351763E-2   -1.043747301209744E-2    5.658672056062963E-2   -5.024435787924397E-1   -3.249510859747105E-2
 6.502037215500000E9    -4.714227079072513E-1   -2.253772000109806E-1   -1.309779691081839E-2    5.785899040831440E-2   -1.024317462163290E-2    5.718652827738618E-2   -5.023763809277659E-1   -3.073086446176860E-2
