#  HZ   S   RI   R     50.00 
! Rohde & Schwarz Vector Network Analyzer 
! Rohde-Schwarz,ZNB20-2Port,1311601062101988,3.16
! Created: UTC 3/20/2024, 11:47:36 AM
! freq[Hz]                re:S11                  im:S11                  re:S21                  im:S21                  re:S12                  im:S12                  re:S22                  im:S22
 6.500886924000000E9    -4.233362836557727E-1   -3.131098438477835E-1   -1.498166282915383E-2    2.967558384488390E-2   -1.325918264420948E-2    2.967951406152521E-2   -4.883216285087957E-1   -1.598650394922847E-1
 6.500899640250000E9    -4.239191020077054E-1   -3.122670523370065E-1   -1.496668278172156E-2    2.985936903099777E-2   -1.328816922215786E-2    2.987933789063809E-2   -4.885528131091948E-1   -1.585474097893581E-1
 6.500912356500000E9    -4.245462650265438E-1   -3.114837104190656E-1   -1.494181493181023E-2    2.983540673721086E-2   -1.326918643525361E-2    3.005532001955747E-2   -4.888058453577211E-1   -1.575560126733402E-1
 6.500925072750000E9    -4.250968786781263E-1   -3.106666987477695E-1   -1.489007763021742E-2    3.014376931277996E-2   -1.315922997771419E-2    3.020060337160915E-2   -4.891114239977211E-1   -1.562823899611930E-1
 6.500937789000000E9    -4.257296460174640E-1   -3.097626803652083E-1   -1.502223605967742E-2    3.029459862632453E-2   -1.327206832299668E-2    3.042221771684706E-2   -4.895527014215534E-1   -1.550724082154946E-1
 6.500950505250000E9    -4.263516627057850E-1   -3.088377611222798E-1   -1.471362735270557E-2    3.053619711799430E-2   -1.316263156701378E-2    3.065974754587061E-2   -4.897237557231154E-1   -1.538423653399108E-1
 6.500963221500000E9    -4.268795712561058E-1   -3.080485087000010E-1   -1.484318697200375E-2    3.079728060410139E-2   -1.327887537297089E-2    3.077152364447971E-2   -4.900155455135100E-1   -1.526152883019758E-1
 6.500975937750000E9    -4.274401272721904E-1   -3.071716921986473E-1   -1.510155783953491E-2    3.089153333196459E-2   -1.322208259115036E-2    3.093602302927862E-2   -4.904186884320187E-1   -1.515332850998087E-1
 6.500988654000000E9    -4.280350558140620E-1   -3.063308523482359E-1   -1.492282309358920E-2    3.100937669825800E-2   -1.329984367394275E-2    3.117445417225794E-2   -4.905641567696398E-1   -1.501753911325589E-1
 6.501001370250000E9    -4.286106417455161E-1   -3.053681367757821E-1   -1.513826048407740E-2    3.117209411420193E-2   -1.316025745894800E-2    3.132220081544446E-2   -4.908129276244266E-1   -1.491171744308372E-1
 6.501014086500000E9    -4.292997594485297E-1   -3.045636393177322E-1   -1.499347015385666E-2    3.147450651465709E-2   -1.320943440968003E-2    3.159677160434209E-2   -4.911021955039199E-1   -1.478150452469818E-1
 6.501026802750000E9    -4.298631600376776E-1   -3.037024921949512E-1   -1.501056197002194E-2    3.169311899565948E-2   -1.315870554344067E-2    3.178275289446718E-2   -4.916585201566293E-1   -1.466168570768147E-1
 6.501039519000000E9    -4.304428952544516E-1   -3.028020877519279E-1   -1.501960823379514E-2    3.188681905072480E-2   -1.319583336556477E-2    3.195500963784275E-2   -4.917159907108414E-1   -1.454637209766574E-1
 6.501052235250000E9    -4.310697809333551E-1   -3.019196911228633E-1   -1.489803668607874E-2    3.208102553538718E-2   -1.313976702483106E-2    3.210437611449383E-2   -4.920108417298615E-1   -1.442452595087713E-1
 6.501064951500000E9    -4.315817089420029E-1   -3.010308284030925E-1   -1.499763258369767E-2    3.240170085757668E-2   -1.329790042526196E-2    3.234433682398046E-2   -4.923897998351389E-1   -1.429429474779446E-1
 6.501077667750000E9    -4.321611134021484E-1   -3.002144893185966E-1   -1.510677874385337E-2    3.240883669215050E-2   -1.314684488595638E-2    3.248961593541745E-2   -4.924625584837045E-1   -1.416923622458524E-1
 6.501090384000000E9    -4.327011225976056E-1   -2.993304210562381E-1   -1.490141740078656E-2    3.246627735553872E-2   -1.319296051596346E-2    3.276776355851731E-2   -4.929015619275696E-1   -1.405666475959881E-1
 6.501103100250000E9    -4.334060821791599E-1   -2.983519655076586E-1   -1.493257922995803E-2    3.285349154219786E-2   -1.318381934330579E-2    3.296191181615159E-2   -4.931783355659472E-1   -1.393205386763205E-1
 6.501115816500000E9    -4.340148879650476E-1   -2.974478587876900E-1   -1.512792276250819E-2    3.310343406735846E-2   -1.314963168359093E-2    3.313305214360771E-2   -4.934399600632746E-1   -1.378896270130153E-1
 6.501128532750000E9    -4.345214944540942E-1   -2.966295811848031E-1   -1.501150159137943E-2    3.322448766106521E-2   -1.312018403694198E-2    3.318532090160978E-2   -4.937681985003125E-1   -1.367983683291673E-1
 6.501141249000000E9    -4.351277543543561E-1   -2.956674521070546E-1   -1.498450778996457E-2    3.353649603343377E-2   -1.309017565914515E-2    3.355236177197939E-2   -4.940447513379818E-1   -1.356116290051900E-1
 6.501153965250000E9    -4.357254538831348E-1   -2.948016396760826E-1   -1.489750614808735E-2    3.384950673747547E-2   -1.317958904407037E-2    3.376182788533973E-2   -4.941983270875578E-1   -1.343344737536314E-1
 6.501166681500000E9    -4.362482911962404E-1   -2.938227943550150E-1   -1.502733951927107E-2    3.403185000949698E-2   -1.313837542351209E-2    3.401563353423603E-2   -4.943909114604972E-1   -1.328306074533617E-1
 6.501179397750000E9    -4.368024518485477E-1   -2.930044849691559E-1   -1.505050016834824E-2    3.422112596238551E-2   -1.310732415387433E-2    3.419488424334469E-2   -4.947591259172073E-1   -1.317712962157981E-1
 6.501192114000000E9    -4.373030755569602E-1   -2.919708494499404E-1   -1.514413630721122E-2    3.438073596641002E-2   -1.310646572749797E-2    3.437690941965743E-2   -4.950065412068058E-1   -1.305004303081711E-1
 6.501204830250000E9    -4.380090334720959E-1   -2.911505077602275E-1   -1.495409121180649E-2    3.467175705962817E-2   -1.317964183060188E-2    3.469425950259730E-2   -4.952018931938240E-1   -1.290655671456876E-1
 6.501217546500000E9    -4.384911957153950E-1   -2.903380447001753E-1   -1.501367100754683E-2    3.495530381390786E-2   -1.309061258284725E-2    3.490868875488345E-2   -4.955355876620485E-1   -1.279775641200909E-1
 6.501230262750000E9    -4.390345785348894E-1   -2.894177310893249E-1   -1.488426539934939E-2    3.517154802725060E-2   -1.311010733556254E-2    3.509502467576896E-2   -4.957768552103415E-1   -1.264960255309052E-1
 6.501242979000000E9    -4.395944171011253E-1   -2.885349468795982E-1   -1.494074011811496E-2    3.543558479122422E-2   -1.301135373008582E-2    3.530112958241204E-2   -4.959581636067084E-1   -1.253031612053984E-1
 6.501255695250000E9    -4.402615626506657E-1   -2.876486353729478E-1   -1.492920029081090E-2    3.564220025031510E-2   -1.295350416041814E-2    3.550914952746368E-2   -4.961033601857597E-1   -1.238721290159915E-1
 6.501268411500000E9    -4.407846646434292E-1   -2.866754045653321E-1   -1.507512729278306E-2    3.591784351000584E-2   -1.295727099790598E-2    3.591868108392114E-2   -4.963524003740769E-1   -1.226639313095576E-1
 6.501281127750000E9    -4.412971346978116E-1   -2.857209856873764E-1   -1.502386288594156E-2    3.610192722015145E-2   -1.301798598677409E-2    3.603819434031364E-2   -4.966928099661433E-1   -1.213585000841228E-1
 6.501293844000000E9    -4.419620714818092E-1   -2.847540604728487E-1   -1.495232936366520E-2    3.629718883686077E-2   -1.299212452563505E-2    3.621948289127232E-2   -4.968854058098264E-1   -1.201197355489342E-1
 6.501306560250000E9    -4.424130283143071E-1   -2.838772443292221E-1   -1.492743941579731E-2    3.645983353089950E-2   -1.303896858749521E-2    3.657214105717318E-2   -4.970673257241613E-1   -1.187200623492569E-1
 6.501319276500000E9    -4.430695597799133E-1   -2.829847274809527E-1   -1.498119351990372E-2    3.696762327371567E-2   -1.308583533740848E-2    3.667571259932179E-2   -4.973934166614282E-1   -1.175440707148115E-1
 6.501331992750000E9    -4.435325771459844E-1   -2.819828609069401E-1   -1.498765475625776E-2    3.699212484457631E-2   -1.293203554183513E-2    3.702490541714250E-2   -4.973378280462328E-1   -1.160884756712839E-1
 6.501344709000000E9    -4.441698165005564E-1   -2.810995114735388E-1   -1.498454639531197E-2    3.746011526757977E-2   -1.292697545100253E-2    3.729396836694420E-2   -4.976771012500977E-1   -1.147009346903114E-1
 6.501357425250000E9    -4.445992564417592E-1   -2.800949457777392E-1   -1.495476816747213E-2    3.758376361355092E-2   -1.290003413923833E-2    3.755165684757079E-2   -4.980246378283372E-1   -1.134461672025484E-1
 6.501370141500000E9    -4.451346318657154E-1   -2.791999920548617E-1   -1.485295656336474E-2    3.783862216465662E-2   -1.288240596013235E-2    3.772362541968256E-2   -4.980865696430831E-1   -1.119903360614849E-1
 6.501382857750000E9    -4.456494160706116E-1   -2.781953022960765E-1   -1.492396570340067E-2    3.807808471373104E-2   -1.288100641332816E-2    3.806530293660848E-2   -4.983880803307527E-1   -1.108571079940778E-1
 6.501395574000000E9    -4.463128909056788E-1   -2.773904750698298E-1   -1.489835922559203E-2    3.852180024051859E-2   -1.282454132079379E-2    3.827242004118782E-2   -4.985479722410346E-1   -1.093783744385249E-1
 6.501408290250000E9    -4.468565300505281E-1   -2.763971110046868E-1   -1.481678220794772E-2    3.865144672456838E-2   -1.273897142574745E-2    3.853009863096090E-2   -4.986888835186303E-1   -1.080487316819127E-1
 6.501421006500000E9    -4.473884492368163E-1   -2.753696312580864E-1   -1.492500448042321E-2    3.903006124686795E-2   -1.272802804560526E-2    3.878824786744744E-2   -4.990622916869886E-1   -1.067270850491627E-1
 6.501433722750000E9    -4.478828564122496E-1   -2.744520881283237E-1   -1.486521916875881E-2    3.936470716223388E-2   -1.284053580923059E-2    3.907805228599989E-2   -4.991854061239183E-1   -1.052456770030318E-1
 6.501446439000000E9    -4.484310502341758E-1   -2.735640579395422E-1   -1.474841942533173E-2    3.962657201765718E-2   -1.272305751602578E-2    3.944878074239067E-2   -4.992926159186484E-1   -1.038772684835699E-1
 6.501459155250000E9    -4.489511863366847E-1   -2.725628397992375E-1   -1.485517682498164E-2    3.980649259400446E-2   -1.264174819965639E-2    3.973912604498493E-2   -4.995836353850738E-1   -1.025096228439465E-1
 6.501471871500000E9    -4.495134754295252E-1   -2.716268178888506E-1   -1.479600837254271E-2    4.015950183568557E-2   -1.274998842190508E-2    3.984423379986103E-2   -4.996123386344395E-1   -1.011413650375027E-1
 6.501484587750000E9    -4.500119738407299E-1   -2.707922251247166E-1   -1.480955236868318E-2    4.043338818306583E-2   -1.272161446932056E-2    4.027924716553041E-2   -4.999350997992233E-1   -9.973296784975899E-2
 6.501497304000000E9    -4.505854107365148E-1   -2.697468260542176E-1   -1.478420697561441E-2    4.073783165212859E-2   -1.263909925914090E-2    4.046292202327509E-2   -5.000507684886021E-1   -9.830447851075542E-2
 6.501510020250000E9    -4.510976318460055E-1   -2.686128226628486E-1   -1.487774931924792E-2    4.108267094844643E-2   -1.265133900751771E-2    4.081053491397806E-2   -5.000811091592433E-1   -9.687641075800521E-2
 6.501522736500000E9    -4.515196654590601E-1   -2.677782078097291E-1   -1.474442549618567E-2    4.133144457353204E-2   -1.267612274874013E-2    4.113374920961493E-2   -5.003784215882805E-1   -9.545809279427400E-2
 6.501535452750000E9    -4.520691555613451E-1   -2.668200293652984E-1   -1.471262970292081E-2    4.148531311263568E-2   -1.263563646869537E-2    4.139692685666523E-2   -5.004830702205204E-1   -9.392198656975652E-2
 6.501548169000000E9    -4.527292918909444E-1   -2.657881199809486E-1   -1.470667289678773E-2    4.187497537290205E-2   -1.257876418711198E-2    4.177145890724557E-2   -5.006747825792162E-1   -9.251384887414590E-2
 6.501560885250000E9    -4.531769404660562E-1   -2.648581247478355E-1   -1.457988453378129E-2    4.226408857525201E-2   -1.249575167938350E-2    4.203169002274538E-2   -5.007937557376798E-1   -9.116181086928775E-2
 6.501573601500000E9    -4.537745580516205E-1   -2.639210780897748E-1   -1.477911254641312E-2    4.253736596363564E-2   -1.244760886927087E-2    4.235917433231800E-2   -5.008848855813219E-1   -8.973031392019301E-2
 6.501586317750000E9    -4.542698244803365E-1   -2.627639051866733E-1   -1.460212164690323E-2    4.289969991546158E-2   -1.247342306985035E-2    4.257391868916281E-2   -5.010615418976279E-1   -8.824357070434022E-2
 6.501599034000000E9    -4.546870105256655E-1   -2.618639654921951E-1   -1.466650682807531E-2    4.320502868665663E-2   -1.240758911879431E-2    4.297856213730733E-2   -5.012171676031405E-1   -8.678279363803978E-2
 6.501611750250000E9    -4.552763663576664E-1   -2.608338692137063E-1   -1.460975838409859E-2    4.346050155876056E-2   -1.243258084144906E-2    4.330261978668013E-2   -5.013683780062228E-1   -8.521592831276055E-2
 6.501624466500000E9    -4.558649687384518E-1   -2.598473047653877E-1   -1.460279087342491E-2    4.390895142819849E-2   -1.233712575373631E-2    4.356449522308856E-2   -5.014209891367405E-1   -8.386955981245489E-2
 6.501637182750000E9    -4.562893354739970E-1   -2.588559803097707E-1   -1.462324101280626E-2    4.437894966754361E-2   -1.230390622481827E-2    4.394034887125457E-2   -5.016854730382995E-1   -8.232713908411654E-2
 6.501649899000000E9    -4.567460403561918E-1   -2.578882442443904E-1   -1.462172688466743E-2    4.467871815937806E-2   -1.229055331363161E-2    4.438319089950675E-2   -5.016820844302261E-1   -8.098453315167299E-2
 6.501662615250000E9    -4.573879942515820E-1   -2.567964869180169E-1   -1.453758368867457E-2    4.496045866316652E-2   -1.217394743663531E-2    4.458166949100828E-2   -5.018522215064940E-1   -7.945683719133116E-2
 6.501675331500000E9    -4.578649999975491E-1   -2.559219988563371E-1   -1.457480468944374E-2    4.537756684976731E-2   -1.221410130633124E-2    4.493488974288312E-2   -5.018931971900219E-1   -7.795400925898922E-2
 6.501688047750000E9    -4.583302822321125E-1   -2.548497534026443E-1   -1.455362814380675E-2    4.573747289330665E-2   -1.217272023568668E-2    4.539490758410136E-2   -5.020664800263794E-1   -7.635757727702655E-2
 6.501700764000000E9    -4.589139438176455E-1   -2.538804247327934E-1   -1.456388120958821E-2    4.602574597278627E-2   -1.218481025839090E-2    4.565799289995986E-2   -5.022443699727719E-1   -7.487135907327080E-2
 6.501713480250000E9    -4.593106205062152E-1   -2.527755980244148E-1   -1.447733198180936E-2    4.646162902878270E-2   -1.202871289632348E-2    4.602006614498103E-2   -5.022215361587751E-1   -7.333580774449656E-2
 6.501726196500000E9    -4.599339724869931E-1   -2.517852274729510E-1   -1.437639375255473E-2    4.681247099057995E-2   -1.210653183885635E-2    4.644294661307451E-2   -5.023656377387163E-1   -7.175996252771827E-2
 6.501738912750000E9    -4.603498728078493E-1   -2.507574937198085E-1   -1.442976947768256E-2    4.711250780691316E-2   -1.197501190322061E-2    4.681797964269416E-2   -5.024078046906220E-1   -7.020359317413019E-2
 6.501751629000000E9    -4.607688611260893E-1   -2.496853229534415E-1   -1.434415123321994E-2    4.760783055651713E-2   -1.194857168683799E-2    4.719739819210934E-2   -5.024559309915784E-1   -6.855837711678707E-2
 6.501764345250000E9    -4.613952840265240E-1   -2.486453617187701E-1   -1.415082886952444E-2    4.790987847259762E-2   -1.190407923513748E-2    4.764055729550267E-2   -5.024909744339882E-1   -6.711492174719928E-2
 6.501777061500000E9    -4.617634412569168E-1   -2.477512314757748E-1   -1.423808216717051E-2    4.837028683772883E-2   -1.180703325452176E-2    4.791924732151959E-2   -5.025898072518449E-1   -6.537104346367072E-2
 6.501789777750000E9    -4.623130633633936E-1   -2.466356779433455E-1   -1.420592712124045E-2    4.888032137574035E-2   -1.174466727427372E-2    4.829785624310321E-2   -5.026182896783378E-1   -6.388247823854011E-2
 6.501802494000000E9    -4.627763656826497E-1   -2.455256888038286E-1   -1.421207036567651E-2    4.918822186257994E-2   -1.172507396261465E-2    4.878009274187548E-2   -5.027104157112198E-1   -6.226111847212489E-2
 6.501815210250000E9    -4.632078511810226E-1   -2.444536489442090E-1   -1.410736498763129E-2    4.957322801266341E-2   -1.168744841724000E-2    4.919836233468140E-2   -5.027145598718663E-1   -6.071259261925224E-2
 6.501827926500000E9    -4.637520634811944E-1   -2.434706418070241E-1   -1.410969059965269E-2    5.003819490326289E-2   -1.167337807771780E-2    4.953779941836609E-2   -5.027549698547948E-1   -5.924385054969688E-2
 6.501840642750000E9    -4.642166446647338E-1   -2.424475913802290E-1   -1.417519938458773E-2    5.051112615358987E-2   -1.147755866471216E-2    5.004218397718132E-2   -5.027713203853112E-1   -5.747137293720005E-2
 6.501853359000000E9    -4.646647007901393E-1   -2.412808477396705E-1   -1.409702905998707E-2    5.079979113811427E-2   -1.153368203832848E-2    5.042192206772503E-2   -5.028928351625881E-1   -5.579279781346815E-2
 6.501866075250000E9    -4.651829867096529E-1   -2.402394713004480E-1   -1.394236401149264E-2    5.122657842217421E-2   -1.148038698693054E-2    5.083944995690323E-2   -5.028356849450251E-1   -5.411554488780940E-2
 6.501878791500000E9    -4.657058726341258E-1   -2.392305239605513E-1   -1.380558865822821E-2    5.183444396648921E-2   -1.128053907552414E-2    5.127776293032436E-2   -5.028720651373906E-1   -5.248402389910645E-2
 6.501891507750000E9    -4.661349828227232E-1   -2.381388324071179E-1   -1.382939353950558E-2    5.232322727212374E-2   -1.122404575095003E-2    5.169295118679131E-2   -5.029149988360967E-1   -5.076868920922242E-2
 6.501904224000000E9    -4.665572960355213E-1   -2.370388789463835E-1   -1.388332696578721E-2    5.266064041892916E-2   -1.123200365333722E-2    5.213313995338809E-2   -5.029161023572087E-1   -4.908938654325272E-2
 6.501916940250000E9    -4.671628748590306E-1   -2.360064256528480E-1   -1.368113270016737E-2    5.310877994724020E-2   -1.113056736598306E-2    5.267759225525299E-2   -5.028797354642250E-1   -4.731456587430554E-2
 6.501929656500000E9    -4.676203535389272E-1   -2.347858934231837E-1   -1.353460949294659E-2    5.361640602838718E-2   -1.099133755581218E-2    5.301404968280991E-2   -5.027801784995154E-1   -4.566960391680586E-2
 6.501942372750000E9    -4.681141234128635E-1   -2.337194655075650E-1   -1.361972299641193E-2    5.415238299777161E-2   -1.098719027860486E-2    5.342457844704444E-2   -5.027705526185624E-1   -4.389161619480809E-2
 6.501955089000000E9    -4.685583886706903E-1   -2.326634273735421E-1   -1.355783126431445E-2    5.468808340384362E-2   -1.096289840166480E-2    5.397615853937527E-2   -5.027192762000712E-1   -4.226283889383113E-2
 6.501967805250000E9    -4.689304566994851E-1   -2.314909293156580E-1   -1.344734385860034E-2    5.512184854436301E-2   -1.084061703703846E-2    5.450242438750006E-2   -5.026477762002990E-1   -4.042902980697716E-2
 6.501980521500000E9    -4.694417400319410E-1   -2.303899762278326E-1   -1.333346088142847E-2    5.555260504552915E-2   -1.079727373873354E-2    5.499450431095534E-2   -5.026783776166434E-1   -3.870159872702750E-2
 6.501993237750000E9    -4.699026843879262E-1   -2.293916614431142E-1   -1.320441141109968E-2    5.622296877496411E-2   -1.061513589125870E-2    5.551929979879048E-2   -5.025867009122648E-1   -3.701133473100549E-2
 6.502005954000000E9    -4.702888530386751E-1   -2.282370962026929E-1   -1.314820194964947E-2    5.673723002735441E-2   -1.057113407132547E-2    5.595198775290416E-2   -5.025036919049535E-1   -3.517910143593955E-2
 6.502018670250000E9    -4.708417243798595E-1   -2.270744785390055E-1   -1.316844919825050E-2    5.725918478637866E-2   -1.047063356949325E-2    5.637795751833095E-2   -5.023843768158647E-1   -3.332068951673062E-2
 6.502031386500000E9    -4.712476083228559E-1   -2.259963443032391E-1   -1.305198224075746E-2    5.773135644030818E-2   -1.029116874134505E-2    5.703403131331682E-2   -5.023476163942242E-1   -3.141358382931668E-2
