#  HZ   S   RI   R     50.00 
! Rohde & Schwarz Vector Network Analyzer 
! Rohde-Schwarz,ZNB20-2Port,1311601062101988,3.16
! Created: UTC 3/20/2024, 11:47:40 AM
! freq[Hz]                re:S11                  im:S11                  re:S21                  im:S21                  re:S12                  im:S12                  re:S22                  im:S22
 6.500886749000000E9    -4.233079349570761E-1   -3.131599692069869E-1   -1.484844333962742E-2    2.962079845181402E-2   -1.335405168678889E-2    2.981402500839358E-2   -4.881046869956762E-1   -1.599805834030804E-1
 6.500899462450000E9    -4.239441433367786E-1   -3.123972481688480E-1   -1.500864682735045E-2    2.979274818210793E-2   -1.325417563670422E-2    2.998985081548618E-2   -4.884118173748489E-1   -1.586798856414710E-1
 6.500912175900000E9    -4.244866449925035E-1   -3.115419724869100E-1   -1.501954839256077E-2    3.008254050905182E-2   -1.331000599412350E-2    3.005019257677817E-2   -4.888087521474340E-1   -1.574848314445249E-1
 6.500924889350000E9    -4.251073343575898E-1   -3.107006141713997E-1   -1.487492329039602E-2    3.023291327315094E-2   -1.322993404296634E-2    3.023649384936427E-2   -4.890984479272769E-1   -1.562675449305302E-1
 6.500937602800000E9    -4.257654553120649E-1   -3.096581205118789E-1   -1.486160677370720E-2    3.043154420594458E-2   -1.325924227865033E-2    3.041053193612245E-2   -4.894414623024289E-1   -1.551074498509187E-1
 6.500950316250000E9    -4.263268524306892E-1   -3.089115464196446E-1   -1.505005145300822E-2    3.054666492882778E-2   -1.327501577932141E-2    3.060366753182686E-2   -4.897053458920074E-1   -1.538749525225565E-1
 6.500963029700000E9    -4.268939659571296E-1   -3.080405308114211E-1   -1.488253373169081E-2    3.072968417252545E-2   -1.324008484626825E-2    3.069912939872194E-2   -4.899289108979263E-1   -1.526526863969694E-1
 6.500975743150000E9    -4.274190031231739E-1   -3.071010187471397E-1   -1.504165734843850E-2    3.096945205312279E-2   -1.325977588629271E-2    3.097750404962352E-2   -4.904227237710102E-1   -1.515906691752672E-1
 6.500988456600000E9    -4.280752002685810E-1   -3.063665506400691E-1   -1.496366212959853E-2    3.101101481676158E-2   -1.326990391265982E-2    3.108950664590521E-2   -4.905371402242493E-1   -1.503069645522440E-1
 6.501001170050000E9    -4.287031667190517E-1   -3.054733351306986E-1   -1.491340413974589E-2    3.131001339730756E-2   -1.323498323744884E-2    3.143372253901987E-2   -4.908715157890608E-1   -1.491215422695749E-1
 6.501013883500000E9    -4.293366372064414E-1   -3.045484213212151E-1   -1.505203273130105E-2    3.154977858574522E-2   -1.322870612564261E-2    3.147031019256300E-2   -4.911405097455250E-1   -1.478774078144234E-1
 6.501026596950000E9    -4.299567826334261E-1   -3.037602585074868E-1   -1.496939005431895E-2    3.172447758999734E-2   -1.325718991005908E-2    3.176587858987761E-2   -4.914400976586537E-1   -1.466642905267257E-1
 6.501039310400000E9    -4.304356134503129E-1   -3.028309809253149E-1   -1.498201448065532E-2    3.181987755421799E-2   -1.325830481442008E-2    3.188252759295402E-2   -4.917071190728493E-1   -1.453533702710701E-1
 6.501052023850000E9    -4.309889036501259E-1   -3.019366225860948E-1   -1.503620633054298E-2    3.203102253496978E-2   -1.328148954904971E-2    3.218972667686484E-2   -4.920652840677298E-1   -1.443009921824735E-1
 6.501064737300000E9    -4.315968694917888E-1   -3.011551530492183E-1   -1.502972869915008E-2    3.218422136478093E-2   -1.321626198499831E-2    3.226976417671710E-2   -4.922685877731951E-1   -1.428829711295646E-1
 6.501077450750000E9    -4.322623868815734E-1   -3.001589562328634E-1   -1.506293642950737E-2    3.254781609822585E-2   -1.324108012690929E-2    3.240495053851999E-2   -4.925590763707736E-1   -1.418145087403560E-1
 6.501090164200000E9    -4.328110593589448E-1   -2.993184057321300E-1   -1.492960079267690E-2    3.257562698275589E-2   -1.310898193301002E-2    3.276127001179606E-2   -4.929310868418977E-1   -1.405963562239813E-1
 6.501102877650000E9    -4.333948319326549E-1   -2.984429051464658E-1   -1.492415172107309E-2    3.296071114225766E-2   -1.314541661069617E-2    3.304687335789015E-2   -4.932204936160229E-1   -1.392942602277774E-1
 6.501115591100000E9    -4.339830520419009E-1   -2.975259974920959E-1   -1.494328763193212E-2    3.315880403744191E-2   -1.317618523017950E-2    3.317412347527902E-2   -4.933660125461362E-1   -1.380108945229672E-1
 6.501128304550000E9    -4.345716449165991E-1   -2.965869630630544E-1   -1.499774580009426E-2    3.345971598173086E-2   -1.307693993991233E-2    3.336058124938319E-2   -4.936660662193531E-1   -1.368477033978431E-1
 6.501141018000000E9    -4.351994790937662E-1   -2.957816257747139E-1   -1.503556808288908E-2    3.353548325157857E-2   -1.302135661095723E-2    3.353215401325915E-2   -4.937928344205926E-1   -1.355411540635815E-1
 6.501153731450000E9    -4.357224387512752E-1   -2.948821660759905E-1   -1.504652174627485E-2    3.380166899133072E-2   -1.312035944600457E-2    3.367885683365811E-2   -4.944296502199338E-1   -1.343302026115190E-1
 6.501166444900000E9    -4.362086502915926E-1   -2.938338109084879E-1   -1.494906543032265E-2    3.400592965435728E-2   -1.315107997830939E-2    3.398305349983508E-2   -4.944492056076737E-1   -1.329778365472249E-1
 6.501179158350000E9    -4.368707258135207E-1   -2.931529273088320E-1   -1.497004856056453E-2    3.430209449981632E-2   -1.309908286450981E-2    3.423415251440297E-2   -4.947294485396896E-1   -1.315228847755359E-1
 6.501191871800000E9    -4.373311758439453E-1   -2.921099328026647E-1   -1.497241460214442E-2    3.452345170037568E-2   -1.309070975687193E-2    3.445850272962052E-2   -4.948849150571758E-1   -1.304999429900701E-1
 6.501204585250000E9    -4.380179307328310E-1   -2.912409162315512E-1   -1.476370599278315E-2    3.471609785037805E-2   -1.312993797302426E-2    3.475593920787233E-2   -4.952476664958729E-1   -1.292328893863797E-1
 6.501217298700000E9    -4.384897363177093E-1   -2.903117133535359E-1   -1.488664486930843E-2    3.492747206966836E-2   -1.301249837418679E-2    3.490726000669792E-2   -4.954691483081340E-1   -1.278383028436144E-1
 6.501230012150000E9    -4.390880300768199E-1   -2.894571535685658E-1   -1.491884618622530E-2    3.517577046793406E-2   -1.313592192886368E-2    3.511244040461096E-2   -4.956878539361040E-1   -1.265959437590967E-1
 6.501242725600000E9    -4.396108069053075E-1   -2.884615352314225E-1   -1.486917273427871E-2    3.548833425521773E-2   -1.306952558526987E-2    3.531152708849562E-2   -4.960330197375429E-1   -1.252824717027298E-1
 6.501255439050000E9    -4.401542273201844E-1   -2.875857856309569E-1   -1.504798666769389E-2    3.573636699291952E-2   -1.299451763412463E-2    3.556902484910187E-2   -4.961972837747405E-1   -1.239339768249111E-1
 6.501268152500000E9    -4.407942516286124E-1   -2.866315706264797E-1   -1.499537415988146E-2    3.591265329222360E-2   -1.298353148939556E-2    3.581978958257861E-2   -4.962944532772021E-1   -1.226744903636821E-1
 6.501280865950000E9    -4.412964500867936E-1   -2.857658661682435E-1   -1.501885123449619E-2    3.622546233082690E-2   -1.299673785522690E-2    3.608225685251755E-2   -4.965706826068908E-1   -1.212599093894941E-1
 6.501293579400000E9    -4.419200024131727E-1   -2.848257282140650E-1   -1.486949352105092E-2    3.638044756294570E-2   -1.301067118806367E-2    3.632543814453450E-2   -4.968914675512808E-1   -1.201086727174515E-1
 6.501306292850000E9    -4.424521561689739E-1   -2.838727482837691E-1   -1.490467477063413E-2    3.664841396672650E-2   -1.282539890600127E-2    3.652401303374464E-2   -4.970641264391273E-1   -1.188092274407560E-1
 6.501319006300000E9    -4.429741317041902E-1   -2.829513119502078E-1   -1.500592898590879E-2    3.684632190793458E-2   -1.289351394348232E-2    3.665077837701261E-2   -4.971852900078257E-1   -1.174117415116988E-1
 6.501331719750000E9    -4.436119441594637E-1   -2.819924363567307E-1   -1.493497060313450E-2    3.712253455686615E-2   -1.303427308935099E-2    3.706127511864426E-2   -4.975436462193036E-1   -1.160760688641073E-1
 6.501344433200000E9    -4.441467609097619E-1   -2.811017757188147E-1   -1.507347504789562E-2    3.739240856434802E-2   -1.300442601259889E-2    3.723862140709575E-2   -4.977506895027268E-1   -1.148945083507103E-1
 6.501357146650000E9    -4.446852878157194E-1   -2.801172053339920E-1   -1.487280822251890E-2    3.759059576129258E-2   -1.291383205047346E-2    3.750559470837050E-2   -4.977685050459972E-1   -1.134403957596209E-1
 6.501369860100000E9    -4.452534989320739E-1   -2.791995962130393E-1   -1.499148573177986E-2    3.794874153933257E-2   -1.291214180168158E-2    3.784128119246933E-2   -4.981196525661234E-1   -1.121074998881613E-1
 6.501382573550000E9    -4.457706123232524E-1   -2.783075639199477E-1   -1.490394050769128E-2    3.811133937387391E-2   -1.282364344950677E-2    3.801256353608422E-2   -4.983520672769099E-1   -1.108905254405792E-1
 6.501395287000000E9    -4.463170594837556E-1   -2.773387257344196E-1   -1.497732518960861E-2    3.842711005500776E-2   -1.282140425346946E-2    3.827503052769712E-2   -4.984847794544950E-1   -1.092580238089714E-1
 6.501408000450000E9    -4.468615805210257E-1   -2.764801787755427E-1   -1.485264382316444E-2    3.872445316509979E-2   -1.285274076073460E-2    3.862149041663171E-2   -4.988823306021970E-1   -1.081926213704363E-1
 6.501420713900000E9    -4.471848691475839E-1   -2.754461161268040E-1   -1.499754593030512E-2    3.920258065913287E-2   -1.280522730862858E-2    3.879937881865213E-2   -4.990292577576079E-1   -1.066354849615762E-1
 6.501433427350000E9    -4.479997574289009E-1   -2.744882299177281E-1   -1.491803844232828E-2    3.925340730327113E-2   -1.283484110142192E-2    3.920337584178173E-2   -4.991142506783360E-1   -1.052734747975446E-1
 6.501446140800000E9    -4.484248150651745E-1   -2.735824588603122E-1   -1.486422101644790E-2    3.970007899194117E-2   -1.269480120732421E-2    3.932653610642416E-2   -4.993165859526387E-1   -1.038258371241536E-1
 6.501458854250000E9    -4.489398301726573E-1   -2.726554183334902E-1   -1.481835355983856E-2    3.983894013722349E-2   -1.281937439793730E-2    3.977109033677532E-2   -4.996552693613088E-1   -1.025131386786716E-1
 6.501471567700000E9    -4.495182072238174E-1   -2.716495271839038E-1   -1.478274911794826E-2    4.013211339141012E-2   -1.275007833226772E-2    4.000904787091639E-2   -4.997212992966213E-1   -1.012958653810300E-1
 6.501484281150000E9    -4.500660819976303E-1   -2.707149451904791E-1   -1.471625136964257E-2    4.036320358373329E-2   -1.277658023231109E-2    4.028446141354738E-2   -4.998349117122797E-1   -9.976141607996154E-2
 6.501496994600000E9    -4.506923126334617E-1   -2.697238970330667E-1   -1.479902102862179E-2    4.066371073696650E-2   -1.269425535900379E-2    4.050979134062059E-2   -5.000362314094783E-1   -9.837194134905826E-2
 6.501509708050000E9    -4.511231931179237E-1   -2.687402289878927E-1   -1.480308872187365E-2    4.102008410282907E-2   -1.253612426084594E-2    4.079420827168671E-2   -5.001633289937754E-1   -9.688244575987240E-2
 6.501522421500000E9    -4.516761877236377E-1   -2.678680137760828E-1   -1.478348411038699E-2    4.131848946589359E-2   -1.260869323955543E-2    4.115893216422205E-2   -5.002722636007371E-1   -9.548385227993356E-2
 6.501535134950000E9    -4.521461335974396E-1   -2.668334303550314E-1   -1.481434189642693E-2    4.157340500920950E-2   -1.252146359851174E-2    4.130922421450398E-2   -5.005144296635370E-1   -9.411968004931265E-2
 6.501547848400000E9    -4.527020416049263E-1   -2.659256512576232E-1   -1.471413313542328E-2    4.197494025050366E-2   -1.250072745241234E-2    4.174221551301760E-2   -5.007368940658596E-1   -9.276074703169040E-2
 6.501560561850000E9    -4.532533887062071E-1   -2.648134896093282E-1   -1.457523622634582E-2    4.226077579762233E-2   -1.253747360241438E-2    4.198459271154788E-2   -5.007542809957664E-1   -9.127070325765949E-2
 6.501573275300000E9    -4.537898123796713E-1   -2.638312150662575E-1   -1.462743488793848E-2    4.265744500558474E-2   -1.251937082784688E-2    4.233052333573021E-2   -5.009663921114892E-1   -8.974183428669681E-2
 6.501585988750000E9    -4.542804725408448E-1   -2.629338089311994E-1   -1.466581661053960E-2    4.292336530602234E-2   -1.256252367680435E-2    4.274439721921650E-2   -5.011671291379354E-1   -8.828303914244273E-2
 6.501598702200000E9    -4.548253141665682E-1   -2.618537617181106E-1   -1.470437656640971E-2    4.326788436563674E-2   -1.237573667808962E-2    4.295639122083283E-2   -5.012950828171768E-1   -8.678164171779851E-2
 6.501611415650000E9    -4.553055189808463E-1   -2.609189740762481E-1   -1.472732062321089E-2    4.354185998544362E-2   -1.243624507849935E-2    4.326029855581537E-2   -5.013313254635846E-1   -8.529927834891418E-2
 6.501624129100000E9    -4.558503191989317E-1   -2.599993004967869E-1   -1.466368191905065E-2    4.399406023225463E-2   -1.238637834290922E-2    4.363495169368491E-2   -5.014671674471395E-1   -8.385993974256446E-2
 6.501636842550000E9    -4.563947722320766E-1   -2.589265508243574E-1   -1.463263626079306E-2    4.427555714451380E-2   -1.227592279069609E-2    4.399225084183753E-2   -5.014529352931719E-1   -8.240303553379268E-2
 6.501649556000000E9    -4.568442114014705E-1   -2.578678204010683E-1   -1.460781251267434E-2    4.461759327372319E-2   -1.226311550836222E-2    4.435672982009800E-2   -5.016754180092795E-1   -8.088328792330550E-2
 6.501662269450000E9    -4.572627174520680E-1   -2.569611721288373E-1   -1.446967236931114E-2    4.505693446730523E-2   -1.227613430457751E-2    4.464800429614520E-2   -5.018079475480797E-1   -7.941348679107753E-2
 6.501674982900000E9    -4.577791434723432E-1   -2.558637524413450E-1   -1.450828567838063E-2    4.534505293813273E-2   -1.220308045186378E-2    4.494862221011077E-2   -5.019597418667512E-1   -7.784521811419030E-2
 6.501687696350000E9    -4.582730094582421E-1   -2.549388806357343E-1   -1.450140629554533E-2    4.575811109360832E-2   -1.224144709369415E-2    4.537035840191559E-2   -5.018979868363308E-1   -7.645320897691581E-2
 6.501700409800000E9    -4.589046893083729E-1   -2.538839174180228E-1   -1.447283313880069E-2    4.615111533644103E-2   -1.204272105929247E-2    4.562557593780195E-2   -5.021314186355884E-1   -7.477937959673583E-2
 6.501713123250000E9    -4.593743463448984E-1   -2.528474839608716E-1   -1.443697671801057E-2    4.633660616910962E-2   -1.206738034926091E-2    4.602737064584021E-2   -5.022033044330434E-1   -7.339949304667391E-2
 6.501725836700000E9    -4.599030434775973E-1   -2.517511256678697E-1   -1.442379910035230E-2    4.683023171920304E-2   -1.199032675288155E-2    4.640030824342470E-2   -5.022958761624285E-1   -7.179675140111168E-2
 6.501738550150000E9    -4.603950447206814E-1   -2.507942104209500E-1   -1.435339280816348E-2    4.727702816693691E-2   -1.200135871078008E-2    4.678925499069968E-2   -5.023950432960578E-1   -7.016889082514835E-2
 6.501751263600000E9    -4.609329672130100E-1   -2.497960439228319E-1   -1.434800273533107E-2    4.765750196539044E-2   -1.194226465802179E-2    4.723767467136469E-2   -5.025229535922465E-1   -6.864693358368303E-2
 6.501763977050000E9    -4.614044217155515E-1   -2.488506070759181E-1   -1.443454719729325E-2    4.787043136077915E-2   -1.186531525387990E-2    4.762428832924143E-2   -5.025398894333899E-1   -6.712023384876752E-2
 6.501776690500000E9    -4.617924161220118E-1   -2.476657245073238E-1   -1.425011948649539E-2    4.835895714789241E-2   -1.185085954490056E-2    4.796231178338566E-2   -5.025678907057406E-1   -6.550151123277197E-2
 6.501789403950000E9    -4.622870913774017E-1   -2.466745424477975E-1   -1.422656385145665E-2    4.879015640826174E-2   -1.179965516164583E-2    4.842155344498893E-2   -5.026237841484551E-1   -6.378277242022946E-2
 6.501802117400000E9    -4.627189955591796E-1   -2.456782283696071E-1   -1.420601079064278E-2    4.921324732963336E-2   -1.167432365710836E-2    4.870446336879911E-2   -5.027231394162025E-1   -6.243704519115778E-2
 6.501814830850000E9    -4.633350883030815E-1   -2.445653675320331E-1   -1.424277971181643E-2    4.964215515703854E-2   -1.171034025066334E-2    4.917278656311812E-2   -5.026542862956102E-1   -6.078443529539439E-2
 6.501827544300000E9    -4.638037708214867E-1   -2.435203978259738E-1   -1.409307066009730E-2    4.994704965924750E-2   -1.168662032885734E-2    4.945866011349930E-2   -5.028261283396797E-1   -5.909380416691377E-2
 6.501840257750000E9    -4.642008642988589E-1   -2.424989016971980E-1   -1.408828004953946E-2    5.050880516197598E-2   -1.153142726332517E-2    5.003378728202365E-2   -5.026806151311657E-1   -5.749729625989596E-2
 6.501852971200000E9    -4.647314329093423E-1   -2.414835424764553E-1   -1.402300953361731E-2    5.088942847218230E-2   -1.149561355554836E-2    5.030728281993985E-2   -5.027723897935444E-1   -5.575196369995791E-2
 6.501865684650000E9    -4.651631689215341E-1   -2.403238546279134E-1   -1.412830228574059E-2    5.145678664659829E-2   -1.139731084269487E-2    5.087449546766249E-2   -5.028308382251250E-1   -5.421709155289792E-2
 6.501878398100000E9    -4.657283493507564E-1   -2.392385851250841E-1   -1.396706115180706E-2    5.172216395436303E-2   -1.134357220165279E-2    5.125404647797571E-2   -5.027660655706075E-1   -5.256288542002685E-2
 6.501891111550000E9    -4.661466813418077E-1   -2.382371915007007E-1   -1.383546562450667E-2    5.220958003710410E-2   -1.129123963195504E-2    5.170897082081942E-2   -5.027715402593684E-1   -5.081329230258919E-2
 6.501903825000000E9    -4.666008995010841E-1   -2.370714363027223E-1   -1.376540349979644E-2    5.263628346565576E-2   -1.118125283869466E-2    5.214965744609029E-2   -5.027627415323609E-1   -4.893847824166901E-2
 6.501916538450000E9    -4.670433055998272E-1   -2.361102431569497E-1   -1.375003334886634E-2    5.302373047883308E-2   -1.101498270081130E-2    5.256634853277631E-2   -5.028533088358526E-1   -4.741801112345348E-2
 6.501929251900000E9    -4.676067737711797E-1   -2.347499729302888E-1   -1.359758969866281E-2    5.380340985664007E-2   -1.105726470911577E-2    5.303875904869108E-2   -5.026971124919211E-1   -4.560368688812023E-2
 6.501941965350000E9    -4.679316044335270E-1   -2.339075869991171E-1   -1.351671252965084E-2    5.415203366932022E-2   -1.099500785607605E-2    5.351067474237402E-2   -5.027689165731486E-1   -4.392693624853786E-2
 6.501954678800000E9    -4.684020302673238E-1   -2.327755215783269E-1   -1.357506749600622E-2    5.475690579792198E-2   -1.100513575333536E-2    5.392850804217952E-2   -5.027669317769443E-1   -4.226808845414502E-2
 6.501967392250000E9    -4.689941950205780E-1   -2.315957862927279E-1   -1.351854285822491E-2    5.518694318399398E-2   -1.088274301353204E-2    5.452192308827877E-2   -5.026343898192570E-1   -4.040661797240586E-2
 6.501980105700000E9    -4.694611396721288E-1   -2.304697478744339E-1   -1.348575601899127E-2    5.557637454009025E-2   -1.072579624750291E-2    5.492853910650308E-2   -5.026345473503149E-1   -3.866459869651340E-2
 6.501992819150000E9    -4.698217698166417E-1   -2.293499778360160E-1   -1.327796415842238E-2    5.624916949801963E-2   -1.067294886745522E-2    5.541533530700734E-2   -5.026989057518489E-1   -3.701908118390113E-2
 6.502005532600000E9    -4.703084195099181E-1   -2.282292711019269E-1   -1.317073511336641E-2    5.672730097328257E-2   -1.048643222314073E-2    5.596936432552325E-2   -5.025108160720340E-1   -3.509615776102695E-2
 6.502018246050000E9    -4.707884246780749E-1   -2.271171659652180E-1   -1.308852272260522E-2    5.730273404622348E-2   -1.042491757326196E-2    5.644764782864246E-2   -5.023803461581088E-1   -3.317375455946705E-2
 6.502030959500000E9    -4.711607460300646E-1   -2.260904722444578E-1   -1.292816323563280E-2    5.779844662683554E-2   -1.035622393526351E-2    5.695065926476291E-2   -5.022721817541217E-1   -3.147039725775745E-2
