#  HZ   S   RI   R     50.00 
! Rohde & Schwarz Vector Network Analyzer 
! Rohde-Schwarz,ZNB20-2Port,1311601062101988,3.16
! Created: UTC 3/20/2024, 11:37:07 AM
! freq[Hz]                re:S11                  im:S11                  re:S21                  im:S21                  re:S12                  im:S12                  re:S22                  im:S22
 6.501172266000000E9    -4.362586590644474E-1   -2.947156039155805E-1   -1.492198643236577E-2    3.265198644317619E-2   -1.293767424831458E-2    3.255837408142466E-2   -4.954017757844613E-1   -1.328012353010395E-1
 6.501184041050000E9    -4.366778886227793E-1   -2.939004831015830E-1   -1.462424882695950E-2    3.276398079715037E-2   -1.298823342863456E-2    3.284747594390575E-2   -4.956072878931999E-1   -1.317652389046766E-1
 6.501195816100000E9    -4.372776002062227E-1   -2.930545316459802E-1   -1.466186853243042E-2    3.294336744440184E-2   -1.288278975877799E-2    3.305804293654455E-2   -4.958685093587763E-1   -1.303923976124613E-1
 6.501207591150000E9    -4.378458861294514E-1   -2.922850885984695E-1   -1.468966308177213E-2    3.324720384553399E-2   -1.293304597557414E-2    3.326653892727612E-2   -4.960868320646684E-1   -1.292890641327649E-1
 6.501219366200000E9    -4.383543951733944E-1   -2.914326521674385E-1   -1.467355431378972E-2    3.337685272299658E-2   -1.295127095491592E-2    3.335462768995546E-2   -4.962799348054102E-1   -1.281413324062809E-1
 6.501231141250000E9    -4.388667576920662E-1   -2.906289715404768E-1   -1.475912808174349E-2    3.352681070465478E-2   -1.289694775465735E-2    3.362426969940779E-2   -4.963995232888533E-1   -1.270525432177563E-1
 6.501242916300000E9    -4.393504098719953E-1   -2.897153667916456E-1   -1.471094810356685E-2    3.387832310789194E-2   -1.297643302437564E-2    3.375957604913744E-2   -4.967241944404968E-1   -1.258656733045012E-1
 6.501254691350000E9    -4.398685347300507E-1   -2.889475622874462E-1   -1.475962675294397E-2    3.391484478369837E-2   -1.288270085808235E-2    3.396811776109690E-2   -4.970460021213888E-1   -1.247454403807406E-1
 6.501266466400000E9    -4.404287274308553E-1   -2.881448248459160E-1   -1.477373445264822E-2    3.427593894756616E-2   -1.285926167892823E-2    3.411209083303850E-2   -4.971832814229451E-1   -1.234675638938707E-1
 6.501278241450000E9    -4.410002094492846E-1   -2.872373939403901E-1   -1.465193392730776E-2    3.437543096023576E-2   -1.286112292325754E-2    3.446553736503463E-2   -4.973054424154901E-1   -1.223481957353744E-1
 6.501290016500000E9    -4.414641320399960E-1   -2.864109395883141E-1   -1.478574961102212E-2    3.459731538572715E-2   -1.287218679896601E-2    3.462230440574884E-2   -4.976631847892536E-1   -1.209989745728544E-1
 6.501301791550000E9    -4.419632827533318E-1   -2.854797242276406E-1   -1.478426677890985E-2    3.482745246389964E-2   -1.282198516184078E-2    3.477453331919185E-2   -4.977864714663943E-1   -1.199329966470070E-1
 6.501313566600000E9    -4.424814471030276E-1   -2.847012609265585E-1   -1.476396197676041E-2    3.510704327488792E-2   -1.280595791023912E-2    3.500893700507796E-2   -4.979567251271345E-1   -1.186423215742081E-1
 6.501325341650000E9    -4.429784894229624E-1   -2.838913341008315E-1   -1.462674729290221E-2    3.525215102113538E-2   -1.285453337455118E-2    3.528240644789923E-2   -4.981644493351228E-1   -1.175615752599941E-1
 6.501337116700000E9    -4.436118021687799E-1   -2.830800090746334E-1   -1.457348211572510E-2    3.551575989570606E-2   -1.289877026414759E-2    3.539938421079924E-2   -4.983624970523806E-1   -1.163441731861488E-1
 6.501348891750000E9    -4.440424252772557E-1   -2.821529902832864E-1   -1.461609156026176E-2    3.565486244443081E-2   -1.281526980717207E-2    3.567705239400608E-2   -4.985831363900862E-1   -1.150873439823474E-1
 6.501360666800000E9    -4.445501473859657E-1   -2.813743133448749E-1   -1.462700247593584E-2    3.600120088393430E-2   -1.281475465701397E-2    3.582928493928168E-2   -4.988675625718227E-1   -1.139048013424425E-1
 6.501372441850000E9    -4.450186995167195E-1   -2.804448949938506E-1   -1.476313538457648E-2    3.617988024012713E-2   -1.276531607595535E-2    3.606662847023674E-2   -4.991439892592051E-1   -1.127530579438043E-1
 6.501384216900000E9    -4.455881468046161E-1   -2.794507482402248E-1   -1.461822007432904E-2    3.628909100927389E-2   -1.277470753644671E-2    3.634134315955673E-2   -4.992377766257189E-1   -1.115262507576749E-1
 6.501395991950000E9    -4.460921025926307E-1   -2.786344965227803E-1   -1.476819051267170E-2    3.658604144245099E-2   -1.270789987041340E-2    3.651289536641539E-2   -4.994536054030231E-1   -1.102723095222283E-1
 6.501407767000000E9    -4.465697784386480E-1   -2.777736106333660E-1   -1.459199549093423E-2    3.689527813756478E-2   -1.275570323765702E-2    3.680145782740523E-2   -4.996655303092357E-1   -1.090931672395612E-1
 6.501419542050000E9    -4.470433381756665E-1   -2.769815356900547E-1   -1.479220210172849E-2    3.715596000098965E-2   -1.267081565881650E-2    3.701460667905765E-2   -4.997399578665141E-1   -1.076832758345611E-1
 6.501431317100000E9    -4.475660114526032E-1   -2.761467846615895E-1   -1.463538826843261E-2    3.724867361811637E-2   -1.268835803881120E-2    3.710590871457812E-2   -5.000320766715175E-1   -1.065612516902282E-1
 6.501443092150000E9    -4.480981123223182E-1   -2.751076817206135E-1   -1.466255754862232E-2    3.768553488505434E-2   -1.272077212636964E-2    3.743046025614362E-2   -5.001365316037895E-1   -1.053663662599815E-1
 6.501454867200000E9    -4.485585187793057E-1   -2.744207051746307E-1   -1.477049008753252E-2    3.773027740606811E-2   -1.254037258576471E-2    3.772999024392085E-2   -5.002625628597096E-1   -1.041386414842832E-1
 6.501466642250000E9    -4.489748722674092E-1   -2.735044662184365E-1   -1.468707245144382E-2    3.816607113588896E-2   -1.268300698610373E-2    3.798315470375516E-2   -5.005305120793239E-1   -1.029302932145797E-1
 6.501478417300000E9    -4.495781751990967E-1   -2.726530634109757E-1   -1.450959186432054E-2    3.822740182840369E-2   -1.260843135551741E-2    3.813846671502848E-2   -5.006579993090119E-1   -1.015948703453129E-1
 6.501490192350000E9    -4.501363875789391E-1   -2.718208346352590E-1   -1.460699503293899E-2    3.855205407822208E-2   -1.261902120737968E-2    3.840907864156767E-2   -5.010241552879886E-1   -1.002907282818881E-1
 6.501501967400000E9    -4.506441392708977E-1   -2.708524476460709E-1   -1.466301660684430E-2    3.882393092237849E-2   -1.252326615431700E-2    3.868815423838579E-2   -5.011246774156809E-1   -9.898711428455532E-2
 6.501513742450000E9    -4.510552484078418E-1   -2.699869865190419E-1   -1.456533979767520E-2    3.900538518735572E-2   -1.253326185966095E-2    3.883367039308296E-2   -5.012068746623469E-1   -9.771545937352362E-2
 6.501525517500000E9    -4.515413772031518E-1   -2.690616749441247E-1   -1.464305764221755E-2    3.940027037556073E-2   -1.267344454298971E-2    3.907683055015725E-2   -5.012647553855294E-1   -9.636213848112166E-2
 6.501537292550000E9    -4.520531392120438E-1   -2.682114978562359E-1   -1.457308699231596E-2    3.950470017990412E-2   -1.247884164919721E-2    3.937327271428317E-2   -5.015206095230331E-1   -9.520134054956951E-2
 6.501549067600000E9    -4.525900783081755E-1   -2.671628562839554E-1   -1.454381757392352E-2    3.995560672188911E-2   -1.242012075608005E-2    3.958260607915012E-2   -5.016784856730985E-1   -9.398225972766287E-2
 6.501560842650000E9    -4.531036989989519E-1   -2.663722621079299E-1   -1.446930102580754E-2    4.010838675621183E-2   -1.248210411641639E-2    3.991175243654183E-2   -5.018043303252709E-1   -9.265359119156741E-2
 6.501572617700000E9    -4.535745595882935E-1   -2.654923089847464E-1   -1.467944438001841E-2    4.028537021386247E-2   -1.251133562181975E-2    4.015745760561819E-2   -5.020035908352330E-1   -9.121648947390280E-2
 6.501584392750000E9    -4.540449659705623E-1   -2.645357704364289E-1   -1.444877870079993E-2    4.053270771778283E-2   -1.237925896177156E-2    4.043850680881265E-2   -5.021307912163230E-1   -9.003204590300155E-2
 6.501596167800000E9    -4.544739606603874E-1   -2.637236134868192E-1   -1.450839460836030E-2    4.095157187706071E-2   -1.253205809613141E-2    4.078364075747424E-2   -5.022671862940178E-1   -8.869402886798160E-2
 6.501607942850000E9    -4.549469086668449E-1   -2.626600297713120E-1   -1.448701276696198E-2    4.123492171100494E-2   -1.247411773551356E-2    4.104346667966231E-2   -5.024628572761989E-1   -8.734793488096898E-2
 6.501619717900000E9    -4.553480583653298E-1   -2.619511626813744E-1   -1.450391829294780E-2    4.153622182315013E-2   -1.232081564773794E-2    4.119793393893564E-2   -5.025587327132964E-1   -8.608482336655209E-2
 6.501631492950000E9    -4.559571556484305E-1   -2.608939027893112E-1   -1.450410073366928E-2    4.169984685821464E-2   -1.232697960697321E-2    4.150849968564273E-2   -5.027143446397140E-1   -8.488172820692678E-2
 6.501643268000000E9    -4.564035813344210E-1   -2.601179826326585E-1   -1.441200231681176E-2    4.219068213976818E-2   -1.227022299480485E-2    4.189804764953161E-2   -5.027509313742806E-1   -8.353926562095915E-2
 6.501655043050000E9    -4.568927604529467E-1   -2.591998764653609E-1   -1.436239148221599E-2    4.247488422486279E-2   -1.226419214457099E-2    4.213686882400645E-2   -5.029645283635374E-1   -8.202206535416379E-2
 6.501666818100000E9    -4.573011495558436E-1   -2.583175870509632E-1   -1.453602027256147E-2    4.272062695290796E-2   -1.220720532915674E-2    4.241986930516146E-2   -5.030644481386615E-1   -8.082202268050252E-2
 6.501678593150000E9    -4.578272017225963E-1   -2.573315528741620E-1   -1.447746476894306E-2    4.302807811987140E-2   -1.224841896323960E-2    4.267071221780270E-2   -5.030387004926132E-1   -7.941091117279338E-2
 6.501690368200000E9    -4.582739873245069E-1   -2.564618690995193E-1   -1.445577104410351E-2    4.339611717701940E-2   -1.221906953979297E-2    4.296801094883108E-2   -5.031878689000414E-1   -7.798869654406410E-2
 6.501702143250000E9    -4.587341945351433E-1   -2.554373598238053E-1   -1.432954942316435E-2    4.381147020443518E-2   -1.213905666672760E-2    4.328888811196144E-2   -5.033556166320591E-1   -7.664520787816577E-2
 6.501713918300000E9    -4.592818620859158E-1   -2.545290733200383E-1   -1.448635698881091E-2    4.401187781304983E-2   -1.220268081128975E-2    4.363271618842605E-2   -5.034512705981488E-1   -7.533892635180174E-2
 6.501725693350000E9    -4.596296426781667E-1   -2.536225602350812E-1   -1.441071615493410E-2    4.421728664752986E-2   -1.212315902164042E-2    4.378052395875283E-2   -5.036389749251330E-1   -7.410783744153802E-2
 6.501737468400000E9    -4.602163117237179E-1   -2.526630347771790E-1   -1.438810608778112E-2    4.457693135751272E-2   -1.204970216871682E-2    4.418714791531214E-2   -5.035584023537907E-1   -7.255477766482854E-2
 6.501749243450000E9    -4.605639820303353E-1   -2.517142313387483E-1   -1.437300274669510E-2    4.474728526308115E-2   -1.202489992960776E-2    4.452097323161197E-2   -5.037622431567197E-1   -7.118952502301598E-2
 6.501761018500000E9    -4.610543731045831E-1   -2.508554280535514E-1   -1.406353015758261E-2    4.512771785352469E-2   -1.210784772884790E-2    4.477067813880797E-2   -5.038111454020993E-1   -6.984323328595098E-2
 6.501772793550000E9    -4.615438773319446E-1   -2.499767119043359E-1   -1.432680873195697E-2    4.553355682022596E-2   -1.200666335924065E-2    4.511597272685186E-2   -5.039489979043618E-1   -6.857230968637300E-2
 6.501784568600000E9    -4.620140044953427E-1   -2.489479097542069E-1   -1.436519056736038E-2    4.584629405138296E-2   -1.197239123574685E-2    4.554455082387287E-2   -5.039469824654640E-1   -6.695391481338972E-2
 6.501796343650000E9    -4.624896626102376E-1   -2.479493987916250E-1   -1.438650744893889E-2    4.624075878662028E-2   -1.183309350987579E-2    4.582659162398299E-2   -5.040836731634353E-1   -6.553551530887904E-2
 6.501808118700000E9    -4.629020613101828E-1   -2.470200504258223E-1   -1.424215564043919E-2    4.659084740937133E-2   -1.181056618519742E-2    4.608929270113327E-2   -5.041377082742114E-1   -6.401964516172010E-2
 6.501819893750000E9    -4.634057946080359E-1   -2.460391427972119E-1   -1.411703599177147E-2    4.688888106396930E-2   -1.175599658988492E-2    4.648870482561313E-2   -5.041756588924170E-1   -6.269803760716605E-2
 6.501831668800000E9    -4.638903388982705E-1   -2.450787373445817E-1   -1.424844269116450E-2    4.719988740686776E-2   -1.177788294258500E-2    4.689926168795975E-2   -5.042600650649467E-1   -6.120321188250760E-2
 6.501843443850000E9    -4.642831670296887E-1   -2.440972235158780E-1   -1.405489816822030E-2    4.763287703357367E-2   -1.166739497804196E-2    4.719479013251279E-2   -5.042883674432294E-1   -5.987028483968116E-2
 6.501855218900000E9    -4.648477937078160E-1   -2.432092890423697E-1   -1.404303670604715E-2    4.800957010453596E-2   -1.168687869683978E-2    4.749555214549409E-2   -5.043368101260280E-1   -5.838623096004788E-2
 6.501866993950000E9    -4.652179869739869E-1   -2.422516251547351E-1   -1.393096197574661E-2    4.840663725874422E-2   -1.166432466546178E-2    4.780481320592116E-2   -5.045073635761624E-1   -5.687423469978053E-2
 6.501878769000000E9    -4.656439356752369E-1   -2.412658965505728E-1   -1.405548539777087E-2    4.866131552065138E-2   -1.162981638220326E-2    4.834983628797821E-2   -5.045323205488930E-1   -5.545128205300436E-2
 6.501890544050000E9    -4.661458876703959E-1   -2.403472149051821E-1   -1.402020893274519E-2    4.924318690781290E-2   -1.151712589851228E-2    4.852786461517131E-2   -5.045445535735064E-1   -5.394638906325956E-2
 6.501902319100000E9    -4.664494705453673E-1   -2.392990675021560E-1   -1.394812144492267E-2    4.955564348291058E-2   -1.149959635772201E-2    4.894229618771828E-2   -5.045623409372735E-1   -5.248752840700215E-2
 6.501914094150000E9    -4.668659280230704E-1   -2.383384307957919E-1   -1.390745534082214E-2    4.987846487321206E-2   -1.146150171158443E-2    4.936185778828189E-2   -5.045344862886292E-1   -5.087414321565024E-2
 6.501925869200000E9    -4.672846782658542E-1   -2.373093163012204E-1   -1.385228835936730E-2    5.025362284160403E-2   -1.144725185139931E-2    4.968357792550893E-2   -5.044526199055848E-1   -4.957828908620561E-2
 6.501937644250000E9    -4.677116331843231E-1   -2.363995702239807E-1   -1.389106721144963E-2    5.063034853145486E-2   -1.131420993294326E-2    5.004737943820912E-2   -5.045894903705418E-1   -4.791788193406225E-2
 6.501949419300000E9    -4.683264370857301E-1   -2.353594255005160E-1   -1.377719122006238E-2    5.115126221952553E-2   -1.126113734948489E-2    5.043756996198760E-2   -5.045716196677197E-1   -4.635140988982005E-2
 6.501961194350000E9    -4.686654075855697E-1   -2.344233493258613E-1   -1.380095730677210E-2    5.145297035313506E-2   -1.114395288440901E-2    5.089968678025475E-2   -5.045590911887025E-1   -4.487855576385379E-2
 6.501972969400000E9    -4.690695077779269E-1   -2.333457943270832E-1   -1.369935994837281E-2    5.191667836888985E-2   -1.117747506861885E-2    5.127901951037326E-2   -5.045134899512705E-1   -4.337385508403936E-2
 6.501984744450000E9    -4.695233071250887E-1   -2.323197025320775E-1   -1.371565020931839E-2    5.232487167665086E-2   -1.113629160347972E-2    5.173904385656358E-2   -5.046688783252588E-1   -4.165673383854155E-2
 6.501996519500000E9    -4.699237275742124E-1   -2.313849815450794E-1   -1.349287606697388E-2    5.263164189248348E-2   -1.104938062024539E-2    5.209618065714041E-2   -5.046260102990654E-1   -4.023039515045828E-2
 6.502008294550000E9    -4.704743768370995E-1   -2.304219099351712E-1   -1.353837375226035E-2    5.315676418911361E-2   -1.096140997758637E-2    5.247352460871747E-2   -5.044100305876729E-1   -3.873143310345244E-2
 6.502020069600000E9    -4.708646338188607E-1   -2.293432407646288E-1   -1.348451979319751E-2    5.368519573825620E-2   -1.085509481827613E-2    5.297562343006816E-2   -5.045304655164251E-1   -3.709986129189841E-2
 6.502031844650000E9    -4.712500980947356E-1   -2.282584131427423E-1   -1.346002743446224E-2    5.401318568519953E-2   -1.092800516388020E-2    5.340131232289440E-2   -5.043900411855089E-1   -3.542159206750741E-2
 6.502043619700000E9    -4.716744563461003E-1   -2.273034649572306E-1   -1.347465767177953E-2    5.450373632433203E-2   -1.079844306279555E-2    5.386588421546657E-2   -5.044574631371556E-1   -3.382444483440639E-2
 6.502055394750000E9    -4.719987801461810E-1   -2.262685343625015E-1   -1.334513119182931E-2    5.498301546086286E-2   -1.075288462676950E-2    5.434564888628237E-2   -5.044079173346202E-1   -3.224087289857379E-2
 6.502067169800000E9    -4.726600716757327E-1   -2.253010446570458E-1   -1.329349148502386E-2    5.529451493830109E-2   -1.067621964351104E-2    5.471862736530417E-2   -5.043141562326718E-1   -3.053877318599578E-2
 6.502078944850000E9    -4.729348589527103E-1   -2.242352139920929E-1   -1.331783565527723E-2    5.589451691710209E-2   -1.049145988440890E-2    5.520306690628508E-2   -5.042730095598069E-1   -2.904809242862691E-2
 6.502090719900000E9    -4.733618560556731E-1   -2.231484234573684E-1   -1.315707448816719E-2    5.639706862134849E-2   -1.038160706527760E-2    5.564742345604996E-2   -5.041487477164164E-1   -2.722869267807900E-2
 6.502102494950000E9    -4.738210328340189E-1   -2.222444624996469E-1   -1.303414705484923E-2    5.676980578676506E-2   -1.042667280181206E-2    5.606877467570385E-2   -5.040499972747540E-1   -2.566629086407256E-2
 6.502114270000000E9    -4.742227316920484E-1   -2.211046639554806E-1   -1.306534516509617E-2    5.751112332138820E-2   -1.024576531825772E-2    5.657642890922088E-2   -5.040715995465487E-1   -2.397744383905313E-2
 6.502126045050000E9    -4.746707093088077E-1   -2.200236567258802E-1   -1.299705142550656E-2    5.801266419728416E-2   -1.025575635738092E-2    5.712713512300414E-2   -5.038746238582607E-1   -2.221217373384815E-2
 6.502137820100000E9    -4.749637232299518E-1   -2.189979416018349E-1   -1.292221923155355E-2    5.840926854807462E-2   -1.002613738987379E-2    5.758519968049759E-2   -5.040055265332495E-1   -2.053973310456767E-2
 6.502149595150000E9    -4.754817459659595E-1   -2.179239094972060E-1   -1.290050270142600E-2    5.894681426429704E-2   -9.988577759060193E-3    5.809681954933378E-2   -5.036300127017705E-1   -1.881751947105762E-2
 6.502161370200000E9    -4.757906326716587E-1   -2.168157996677747E-1   -1.274405459235394E-2    5.945305010372783E-2   -9.903750518204290E-3    5.858531528612773E-2   -5.035965865456885E-1   -1.704844684663180E-2
 6.502173145250000E9    -4.762024758931786E-1   -2.156387862083369E-1   -1.270617413896428E-2    6.001852283129518E-2   -9.796205387880669E-3    5.906037768864735E-2   -5.035650083557869E-1   -1.530867258763100E-2
 6.502184920300000E9    -4.765622969919321E-1   -2.146718851747120E-1   -1.244273797534092E-2    6.038555006662382E-2   -9.810731385068305E-3    5.955950361437189E-2   -5.033465373594481E-1   -1.343401941429002E-2
 6.502196695350000E9    -4.768996728328934E-1   -2.135696419548762E-1   -1.249036276814064E-2    6.119441080607915E-2   -9.518059630256195E-3    6.021435225652512E-2   -5.032804299454425E-1   -1.187500275154181E-2
 6.502208470400000E9    -4.774571520553526E-1   -2.125020546983031E-1   -1.229909597510568E-2    6.162334187220214E-2   -9.588191841177022E-3    6.066599128376261E-2   -5.029860802272899E-1   -9.982592047635684E-3
 6.502220245450000E9    -4.777932232018968E-1   -2.113314418967942E-1   -1.231264291663724E-2    6.221146645041263E-2   -9.457231902520435E-3    6.130447886737683E-2   -5.028700982761104E-1   -8.118590493092315E-3
 6.502232020500000E9    -4.781300495641615E-1   -2.102395442579842E-1   -1.221864138562557E-2    6.279395808234266E-2   -9.228165367581182E-3    6.194003036052568E-2   -5.027837198478478E-1   -6.404760356026324E-3
