#  HZ   S   RI   R     50.00 
! Rohde & Schwarz Vector Network Analyzer 
! Rohde-Schwarz,ZNB20-2Port,1311601062101988,3.16
! Created: UTC 3/20/2024, 11:47:45 AM
! freq[Hz]                re:S11                  im:S11                  re:S21                  im:S21                  re:S12                  im:S12                  re:S22                  im:S22
 6.500883568000000E9    -4.230703056672042E-1   -3.133903626681478E-1   -1.484384332057769E-2    2.967289362002894E-2   -1.322029442689380E-2    2.967668903711145E-2   -4.880903260722928E-1   -1.601438267962449E-1
 6.500896293350000E9    -4.238351058046718E-1   -3.124580407914280E-1   -1.488369498837074E-2    2.966031445560739E-2   -1.328556026824080E-2    2.988160150167964E-2   -4.882136473933051E-1   -1.589355429049603E-1
 6.500909018700000E9    -4.242873635030877E-1   -3.116912657830915E-1   -1.496230256700890E-2    2.998362535606721E-2   -1.321043326544219E-2    2.997675218052763E-2   -4.885994439406117E-1   -1.577534045126061E-1
 6.500921744050000E9    -4.249100600278335E-1   -3.108390988749881E-1   -1.475651357052460E-2    3.029909058290718E-2   -1.326851040868740E-2    3.017191185010115E-2   -4.889039088603224E-1   -1.566698877138829E-1
 6.500934469400000E9    -4.257080089325339E-1   -3.099192548102457E-1   -1.486007024160163E-2    3.017187672488430E-2   -1.321498103669668E-2    3.043103829109866E-2   -4.892636448093605E-1   -1.554408314367758E-1
 6.500947194750000E9    -4.261792474496474E-1   -3.090419579862450E-1   -1.502820029940359E-2    3.058522986315618E-2   -1.321578459983472E-2    3.064615756381628E-2   -4.895200669551760E-1   -1.541165724488590E-1
 6.500959920100000E9    -4.268446425040474E-1   -3.081487121392332E-1   -1.490561065893339E-2    3.070597779851657E-2   -1.321638325112864E-2    3.072074064600776E-2   -4.899249717474666E-1   -1.530069777785696E-1
 6.500972645450000E9    -4.273489838270592E-1   -3.073810023527563E-1   -1.497497910615434E-2    3.100559229418507E-2   -1.325865630862834E-2    3.097595131900290E-2   -4.902042693236113E-1   -1.518245532932463E-1
 6.500985370800000E9    -4.280002690118676E-1   -3.065140223154035E-1   -1.511169585650489E-2    3.110554458072680E-2   -1.323978457512989E-2    3.109285953076609E-2   -4.903548491480800E-1   -1.506667558112906E-1
 6.500998096150000E9    -4.285538684149021E-1   -3.056298039341684E-1   -1.504267896646254E-2    3.126656034310756E-2   -1.330062729893062E-2    3.134564601686696E-2   -4.908720581456662E-1   -1.492925907154073E-1
 6.501010821500000E9    -4.291961989827338E-1   -3.047244248567717E-1   -1.495795848179233E-2    3.139365283388270E-2   -1.322542089276952E-2    3.147526147946825E-2   -4.911909241910990E-1   -1.481588733089144E-1
 6.501023546850000E9    -4.297538517494094E-1   -3.038599803680034E-1   -1.494832993092546E-2    3.170209922711947E-2   -1.323320635034205E-2    3.173249922521811E-2   -4.912418543669556E-1   -1.469458776870705E-1
 6.501036272200000E9    -4.302881403656227E-1   -3.029871669197474E-1   -1.500520557156405E-2    3.178683976533331E-2   -1.320169854160483E-2    3.188002910052639E-2   -4.915792782505812E-1   -1.457935030053346E-1
 6.501048997550000E9    -4.308557558817999E-1   -3.020694168608514E-1   -1.501418500153504E-2    3.197136355697573E-2   -1.315794320790980E-2    3.218509072687260E-2   -4.919421600960231E-1   -1.446044132652366E-1
 6.501061722900000E9    -4.314705755159354E-1   -3.011529612669317E-1   -1.500231623993175E-2    3.219684040692510E-2   -1.321999486349891E-2    3.231761837092936E-2   -4.921067841642598E-1   -1.433257443463588E-1
 6.501074448250000E9    -4.320860043759046E-1   -3.003477898901067E-1   -1.489561021578779E-2    3.244981572611907E-2   -1.320034620777723E-2    3.255258067974325E-2   -4.924688129929494E-1   -1.419755396715524E-1
 6.501087173600000E9    -4.326197041288437E-1   -2.993207836937916E-1   -1.505451390891928E-2    3.272157293186662E-2   -1.314324481048141E-2    3.276365049722793E-2   -4.927087524682444E-1   -1.407486029702816E-1
 6.501099898950000E9    -4.331725118076544E-1   -2.986041031509609E-1   -1.502134124404134E-2    3.288824571227569E-2   -1.326790665657254E-2    3.298200502881941E-2   -4.930096465868526E-1   -1.395067326604305E-1
 6.501112624300000E9    -4.337291733269848E-1   -2.976916959839066E-1   -1.506985197214227E-2    3.300026244446498E-2   -1.306949031313441E-2    3.308365543405644E-2   -4.934140699641897E-1   -1.383085005225002E-1
 6.501125349650000E9    -4.344278118141670E-1   -2.967636874510120E-1   -1.504210675634493E-2    3.331959289738855E-2   -1.312837664386169E-2    3.335351379889083E-2   -4.937088326624256E-1   -1.371471695709797E-1
 6.501138075000000E9    -4.349310754328564E-1   -2.958113951686305E-1   -1.496813873238801E-2    3.351722357185866E-2   -1.312865772781378E-2    3.354909124483309E-2   -4.937754310968995E-1   -1.359035967050713E-1
 6.501150800350000E9    -4.355467387541656E-1   -2.949692418299861E-1   -1.502244448953069E-2    3.366183042822637E-2   -1.314784802721475E-2    3.379356126510342E-2   -4.940687694530665E-1   -1.346627939008041E-1
 6.501163525700000E9    -4.360439288564909E-1   -2.940854388423032E-1   -1.500957349081375E-2    3.390621080164175E-2   -1.302238479514635E-2    3.403489737441323E-2   -4.944311412789083E-1   -1.333367528166053E-1
 6.501176251050000E9    -4.367170928654528E-1   -2.932134628727486E-1   -1.493100457627222E-2    3.406474142779221E-2   -1.312367030157901E-2    3.417933434072298E-2   -4.945473202162025E-1   -1.320608961547133E-1
 6.501188976400000E9    -4.373177474091662E-1   -2.922801023869639E-1   -1.496722578225990E-2    3.440994080531445E-2   -1.306098300434108E-2    3.435300313902284E-2   -4.948687952266604E-1   -1.307585616003374E-1
 6.501201701750000E9    -4.377804236516200E-1   -2.912951214253801E-1   -1.501376157296551E-2    3.459931343940900E-2   -1.317876625480421E-2    3.465244710201439E-2   -4.948746480607525E-1   -1.294840062199550E-1
 6.501214427100000E9    -4.384149205337190E-1   -2.904330463123885E-1   -1.488973270588331E-2    3.493666611629184E-2   -1.308879229953580E-2    3.487846372536907E-2   -4.953803409934055E-1   -1.280832076245000E-1
 6.501227152450000E9    -4.390246309051262E-1   -2.895569139422032E-1   -1.495892999159111E-2    3.514025391396192E-2   -1.298745078423721E-2    3.507439891710928E-2   -4.954885896066079E-1   -1.269350628833623E-1
 6.501239877800000E9    -4.395389597174462E-1   -2.886484140536837E-1   -1.487237734095795E-2    3.537682228087241E-2   -1.307607115264663E-2    3.538057420915262E-2   -4.959419871708947E-1   -1.256624062570524E-1
 6.501252603150000E9    -4.400665918547524E-1   -2.876491531509816E-1   -1.503542914745776E-2    3.558055817475700E-2   -1.299953259923329E-2    3.557630505925702E-2   -4.961405004039224E-1   -1.242984364582735E-1
 6.501265328500000E9    -4.406231608475455E-1   -2.868652566819001E-1   -1.496324689663761E-2    3.567818883798576E-2   -1.300488287562592E-2    3.572962927624546E-2   -4.962143984562523E-1   -1.229459327635986E-1
 6.501278053850000E9    -4.411797981039123E-1   -2.859364796113568E-1   -1.500150422419004E-2    3.601573222705144E-2   -1.297952768726183E-2    3.606753672191007E-2   -4.965704597766010E-1   -1.215878469834829E-1
 6.501290779200000E9    -4.417664590612991E-1   -2.849724069407423E-1   -1.498117018962846E-2    3.640056150258157E-2   -1.300142748433727E-2    3.622298965268408E-2   -4.967220176764400E-1   -1.204454026200565E-1
 6.501303504550000E9    -4.422746796119720E-1   -2.840643158278278E-1   -1.493426595065294E-2    3.652837785764021E-2   -1.284945844619037E-2    3.643202376005319E-2   -4.968286525688807E-1   -1.190755881181196E-1
 6.501316229900000E9    -4.428778172197333E-1   -2.831802363511367E-1   -1.495418580295512E-2    3.674620131182395E-2   -1.293366284387984E-2    3.670628366493797E-2   -4.972894200832953E-1   -1.178076029412636E-1
 6.501328955250000E9    -4.434288145944453E-1   -2.821325002601087E-1   -1.495677504292999E-2    3.688670111175685E-2   -1.296711155135123E-2    3.694017017631309E-2   -4.974880051009061E-1   -1.164398366649891E-1
 6.501341680600000E9    -4.439105522750167E-1   -2.813324915647180E-1   -1.490922579397093E-2    3.733322474719718E-2   -1.298100829599455E-2    3.733843061133793E-2   -4.976776441314053E-1   -1.151621581005244E-1
 6.501354405950000E9    -4.444532484680748E-1   -2.803806754717215E-1   -1.501370347003389E-2    3.759772866274030E-2   -1.287274826993374E-2    3.750705651265619E-2   -4.978241481348130E-1   -1.137027334077316E-1
 6.501367131300000E9    -4.450806881422567E-1   -2.793973573709254E-1   -1.497964374497987E-2    3.784583260738160E-2   -1.298341576519332E-2    3.779490908824518E-2   -4.982005307842831E-1   -1.123681555472985E-1
 6.501379856650000E9    -4.456434699144911E-1   -2.784830798175013E-1   -1.501121161293781E-2    3.820000291909656E-2   -1.294641026007379E-2    3.802131798736982E-2   -4.982804479898398E-1   -1.109288551480974E-1
 6.501392582000000E9    -4.461392254571155E-1   -2.775496167745748E-1   -1.481812954023392E-2    3.836401028905954E-2   -1.283905975779339E-2    3.823254211710199E-2   -4.984091765884924E-1   -1.098030331711968E-1
 6.501405307350000E9    -4.467109016631056E-1   -2.765556594690654E-1   -1.490437298760774E-2    3.855457216328621E-2   -1.285354572859185E-2    3.854084811790616E-2   -4.986437330812404E-1   -1.084410908869393E-1
 6.501418032700000E9    -4.473114217257910E-1   -2.755750696043281E-1   -1.490053995731834E-2    3.892373855663230E-2   -1.279937961729942E-2    3.878764670951803E-2   -4.988236258741568E-1   -1.069577489489034E-1
 6.501430758050000E9    -4.478796168923010E-1   -2.746514833234275E-1   -1.478242322528831E-2    3.916615228880851E-2   -1.277045978791265E-2    3.913510308440277E-2   -4.990309459465778E-1   -1.055861291023771E-1
 6.501443483400000E9    -4.483678488555302E-1   -2.737055249996548E-1   -1.470126717576221E-2    3.957219373362297E-2   -1.277206648707471E-2    3.937768725075677E-2   -4.993701558625106E-1   -1.041894804867914E-1
 6.501456208750000E9    -4.488013774568554E-1   -2.727311772295098E-1   -1.471881598496593E-2    3.980039069199935E-2   -1.271747620492414E-2    3.962411956349575E-2   -4.993742669831535E-1   -1.027163206048104E-1
 6.501468934100000E9    -4.494674004410237E-1   -2.717834674826176E-1   -1.479928354300283E-2    4.011788794909284E-2   -1.265750814262585E-2    3.989210126935736E-2   -4.995813715561975E-1   -1.013063010829534E-1
 6.501481659450000E9    -4.498999849355306E-1   -2.706866549802548E-1   -1.495151370310705E-2    4.040985883099661E-2   -1.266944747561645E-2    4.021078589882569E-2   -4.998402891039720E-1   -1.000928337450386E-1
 6.501494384800000E9    -4.504741914384942E-1   -2.699575981970537E-1   -1.496989908523117E-2    4.072952917373287E-2   -1.263752729957768E-2    4.059267569925578E-2   -4.999260821002058E-1   -9.876112973213010E-2
 6.501507110150000E9    -4.510024846379531E-1   -2.689450610008454E-1   -1.477690812594396E-2    4.098473411127131E-2   -1.252472766712324E-2    4.086702181813741E-2   -5.000920179595901E-1   -9.720607436295717E-2
 6.501519835500000E9    -4.515586304704570E-1   -2.679147811271427E-1   -1.475509458672985E-2    4.124772431475902E-2   -1.257424438678418E-2    4.104109283015896E-2   -5.003756356227802E-1   -9.589897133255698E-2
 6.501532560850000E9    -4.521703970953536E-1   -2.670499416078441E-1   -1.481856573560792E-2    4.174588268120414E-2   -1.248179568051635E-2    4.134668591255215E-2   -5.003662357181486E-1   -9.437220735276661E-2
 6.501545286200000E9    -4.526621054564393E-1   -2.658927863606085E-1   -1.470976268893360E-2    4.196985142366112E-2   -1.252198563646395E-2    4.164092967349593E-2   -5.005976411499687E-1   -9.293842676690794E-2
 6.501558011550000E9    -4.531159331291721E-1   -2.649906304341280E-1   -1.475675464516247E-2    4.227653735556334E-2   -1.253086238588627E-2    4.202223798753935E-2   -5.006971604815291E-1   -9.149390397132189E-2
 6.501570736900000E9    -4.535532849226714E-1   -2.639558440371713E-1   -1.485569884131302E-2    4.257909289771777E-2   -1.249400625244720E-2    4.235424458972465E-2   -5.008190710214117E-1   -9.010348211071953E-2
 6.501583462250000E9    -4.541534672602531E-1   -2.630106729284134E-1   -1.457787076051314E-2    4.273719038907287E-2   -1.246421818866924E-2    4.257891091045547E-2   -5.008629725944673E-1   -8.859010279971809E-2
 6.501596187600000E9    -4.547213079500538E-1   -2.620962147473407E-1   -1.465071386387038E-2    4.306616015089364E-2   -1.242810961989678E-2    4.292635141540887E-2   -5.012067591756493E-1   -8.704626653081518E-2
 6.501608912950000E9    -4.551889236584512E-1   -2.609723982484806E-1   -1.464659530317770E-2    4.349537886371363E-2   -1.243796667287630E-2    4.331779990156415E-2   -5.012645896124750E-1   -8.568465618502145E-2
 6.501621638300000E9    -4.557475894746671E-1   -2.600454191636200E-1   -1.471702203586689E-2    4.383044670899358E-2   -1.236398089273474E-2    4.364703303131345E-2   -5.014682674678862E-1   -8.412285844141690E-2
 6.501634363650000E9    -4.561902802102301E-1   -2.589820407973729E-1   -1.469087036553210E-2    4.414824683868105E-2   -1.234083799629222E-2    4.396597307343224E-2   -5.014577305732172E-1   -8.274922452201833E-2
 6.501647089000000E9    -4.566885826685425E-1   -2.580602312148813E-1   -1.462659119728545E-2    4.454159475885005E-2   -1.226460485419583E-2    4.427736664155124E-2   -5.016883131910399E-1   -8.119841074173587E-2
 6.501659814350000E9    -4.573111287323871E-1   -2.569614297896023E-1   -1.449772305049347E-2    4.488376280177449E-2   -1.225486371292467E-2    4.464224380582725E-2   -5.016422620528408E-1   -7.968273004543076E-2
 6.501672539700000E9    -4.577483677081253E-1   -2.560022130721715E-1   -1.446356416162646E-2    4.531306886678074E-2   -1.226915231609541E-2    4.501717501800002E-2   -5.018539803797293E-1   -7.826110715035509E-2
 6.501685265050000E9    -4.582796315117135E-1   -2.549468910326816E-1   -1.449528035791376E-2    4.555382323197651E-2   -1.209296573071409E-2    4.532848130061996E-2   -5.020440889336212E-1   -7.662644748361751E-2
 6.501697990400000E9    -4.587521931941044E-1   -2.540174510689450E-1   -1.449875482656267E-2    4.601371645863914E-2   -1.205582548495815E-2    4.563257457495565E-2   -5.020933720476828E-1   -7.514713266876583E-2
 6.501710715750000E9    -4.592775871963374E-1   -2.530047769221232E-1   -1.446047997329579E-2    4.635223233853960E-2   -1.204379794390173E-2    4.606829122790111E-2   -5.021627697254580E-1   -7.363405600427933E-2
 6.501723441100000E9    -4.598081444869671E-1   -2.519668258567587E-1   -1.442508919071826E-2    4.672960249023696E-2   -1.208257526658800E-2    4.632945055602303E-2   -5.022321673837183E-1   -7.207243525698352E-2
 6.501736166450000E9    -4.602892733168253E-1   -2.509710532593374E-1   -1.428547959496113E-2    4.722541979930947E-2   -1.193241644785285E-2    4.677388922939675E-2   -5.022091834357227E-1   -7.053203988217945E-2
 6.501748891800000E9    -4.607418780003703E-1   -2.498479333373880E-1   -1.430847148326828E-2    4.753941669798900E-2   -1.192435806680847E-2    4.716891827291813E-2   -5.024288528377260E-1   -6.898731892561687E-2
 6.501761617150000E9    -4.612772740643158E-1   -2.488519030554582E-1   -1.439495519970824E-2    4.799403473667491E-2   -1.190638554441175E-2    4.760200693213189E-2   -5.025211652496145E-1   -6.736514942743328E-2
 6.501774342500000E9    -4.616933819259214E-1   -2.478409207123015E-1   -1.432342103963769E-2    4.827684606022079E-2   -1.186383561084482E-2    4.781986608700629E-2   -5.024864968809979E-1   -6.578256719710421E-2
 6.501787067850000E9    -4.621499015206226E-1   -2.468844215170815E-1   -1.428024597005961E-2    4.877001958827585E-2   -1.175137347257510E-2    4.829968100741212E-2   -5.025471054959836E-1   -6.410277203970448E-2
 6.501799793200000E9    -4.627128011125142E-1   -2.457611389555145E-1   -1.420597364743373E-2    4.922461431190104E-2   -1.169962048826619E-2    4.870144880352001E-2   -5.025811962010116E-1   -6.263439910228502E-2
 6.501812518550000E9    -4.630973428333920E-1   -2.447188344966940E-1   -1.408763798952386E-2    4.964547516637704E-2   -1.167096227886889E-2    4.908109496564893E-2   -5.027323660221775E-1   -6.101344971804010E-2
 6.501825243900000E9    -4.636917216307915E-1   -2.437295598744789E-1   -1.405237111814102E-2    5.003914404595083E-2   -1.163964788494054E-2    4.952108487754989E-2   -5.026758937624648E-1   -5.936798080504004E-2
 6.501837969250000E9    -4.642608538593245E-1   -2.425174743172635E-1   -1.401523417049725E-2    5.040882987349164E-2   -1.152389313632212E-2    4.989974413479606E-2   -5.027643526530602E-1   -5.788589230669279E-2
 6.501850694600000E9    -4.646772754572970E-1   -2.414643698465374E-1   -1.395763830575287E-2    5.073113931221791E-2   -1.157352055136686E-2    5.027070438815662E-2   -5.026867060607066E-1   -5.602728394788078E-2
 6.501863419950000E9    -4.650598592459010E-1   -2.403822984193804E-1   -1.395507766555793E-2    5.128591104045214E-2   -1.148314191742574E-2    5.076599997853594E-2   -5.027517639096150E-1   -5.449282046246532E-2
 6.501876145300000E9    -4.655848366470924E-1   -2.393991461729911E-1   -1.399256743030142E-2    5.179735888446220E-2   -1.136022344243106E-2    5.122305809222683E-2   -5.027475031934064E-1   -5.283851269168672E-2
 6.501888870650000E9    -4.660396694799597E-1   -2.382664417161374E-1   -1.372247483474439E-2    5.220822189632116E-2   -1.135713943969109E-2    5.160041025356372E-2   -5.028169371074112E-1   -5.102060416339734E-2
 6.501901596000000E9    -4.665785323793926E-1   -2.371317393727573E-1   -1.383462209768189E-2    5.252907883166542E-2   -1.116641458720341E-2    5.203898085699182E-2   -5.028825107540121E-1   -4.967223374658473E-2
 6.501914321350000E9    -4.670200870984473E-1   -2.361382842101110E-1   -1.372901996312576E-2    5.318351603755111E-2   -1.115033029588228E-2    5.257459325216182E-2   -5.027629491258347E-1   -4.762014392680385E-2
 6.501927046700000E9    -4.673994015347477E-1   -2.349790405216812E-1   -1.362868137150269E-2    5.359774186546867E-2   -1.101624357412865E-2    5.290368207497451E-2   -5.027426951094214E-1   -4.602971175517987E-2
 6.501939772050000E9    -4.678641685859519E-1   -2.339465160273106E-1   -1.368090004097923E-2    5.407333755454122E-2   -1.108599905994469E-2    5.352648283392918E-2   -5.026879271636436E-1   -4.428474829401445E-2
 6.501952497400000E9    -4.683865614705934E-1   -2.328136533493179E-1   -1.355443572409035E-2    5.455423676359061E-2   -1.089025248724724E-2    5.392854990841145E-2   -5.027075960025954E-1   -4.252544691315690E-2
 6.501965222750000E9    -4.689731009698191E-1   -2.316889260767531E-1   -1.346814055430497E-2    5.503810696639248E-2   -1.078769256082933E-2    5.451848599875729E-2   -5.026763972710306E-1   -4.077122600276797E-2
 6.501977948100000E9    -4.693693625431926E-1   -2.305680907395719E-1   -1.347054829687637E-2    5.561362856296681E-2   -1.066323689294238E-2    5.487006717105578E-2   -5.026260502331318E-1   -3.904693171387810E-2
 6.501990673450000E9    -4.697665605022620E-1   -2.294726311309405E-1   -1.339875789850832E-2    5.611601383345403E-2   -1.069192564030440E-2    5.533310664113232E-2   -5.025606797429585E-1   -3.743606430565568E-2
 6.502003398800000E9    -4.701624267899461E-1   -2.283856436669406E-1   -1.328139890610675E-2    5.664598432787583E-2   -1.052577552419489E-2    5.589496408254335E-2   -5.025982693329936E-1   -3.537513785725899E-2
 6.502016124150000E9    -4.706948162508106E-1   -2.272481523591468E-1   -1.315761118274162E-2    5.714859772286608E-2   -1.044074894769124E-2    5.638902484618234E-2   -5.024447509065899E-1   -3.360617899135502E-2
 6.502028849500000E9    -4.711223202879825E-1   -2.260918045912088E-1   -1.324036321562123E-2    5.770304310768087E-2   -1.030272466861522E-2    5.693958745008744E-2   -5.023273819171707E-1   -3.171550527267375E-2
