#  HZ   S   RI   R     50.00 
! Rohde & Schwarz Vector Network Analyzer 
! Rohde-Schwarz,ZNB20-2Port,1311601062101988,3.16
! Created: UTC 3/20/2024, 11:47:57 AM
! freq[Hz]                re:S11                  im:S11                  re:S21                  im:S21                  re:S12                  im:S12                  re:S22                  im:S22
 6.500880511000000E9    -4.229976137533247E-1   -3.135494490801504E-1   -1.501778149901127E-2    2.948698895986001E-2   -1.326081411690187E-2    2.973083095822013E-2   -4.878956779920007E-1   -1.604854670010283E-1
 6.500893241800000E9    -4.235770782941931E-1   -3.126380607357475E-1   -1.503931520676418E-2    2.976872360413790E-2   -1.319916834700316E-2    2.980116495935937E-2   -4.881496407261085E-1   -1.594899973409190E-1
 6.500905972600000E9    -4.241270195614515E-1   -3.117120594228011E-1   -1.490833053147542E-2    2.988670959150157E-2   -1.330429527357240E-2    2.998432776246413E-2   -4.885093996072651E-1   -1.579707259555665E-1
 6.500918703400000E9    -4.246952407763425E-1   -3.110508633697425E-1   -1.505776291585629E-2    3.006880951091390E-2   -1.321233819708952E-2    3.022771090274625E-2   -4.887858634349089E-1   -1.569310583912346E-1
 6.500931434200000E9    -4.253969935013037E-1   -3.101258927195150E-1   -1.500621350407744E-2    3.020558155228905E-2   -1.321832498650194E-2    3.045892446764512E-2   -4.890916812293788E-1   -1.558159775596224E-1
 6.500944165000000E9    -4.260383059508903E-1   -3.094504695873485E-1   -1.495943798732362E-2    3.042980855061017E-2   -1.324311212504782E-2    3.045982058612849E-2   -4.894201414346117E-1   -1.545840081223969E-1
 6.500956895800000E9    -4.266911098077423E-1   -3.085001254734253E-1   -1.496440441040781E-2    3.069969911268830E-2   -1.323228746194679E-2    3.073085977220934E-2   -4.897908850344660E-1   -1.533936646843299E-1
 6.500969626600000E9    -4.271883037534639E-1   -3.075233957482086E-1   -1.482042090780331E-2    3.078677858652868E-2   -1.319117674050741E-2    3.093789395261553E-2   -4.899770364818843E-1   -1.519657795146005E-1
 6.500982357400000E9    -4.277669257892105E-1   -3.066541052481495E-1   -1.496377958658650E-2    3.103866112117331E-2   -1.334302303344379E-2    3.112870186555224E-2   -4.902423584767103E-1   -1.508588960790169E-1
 6.500995088200000E9    -4.283216113643338E-1   -3.057666586555443E-1   -1.497946649721001E-2    3.128266157751478E-2   -1.331178551428171E-2    3.135094490937552E-2   -4.906343659508988E-1   -1.496506560089268E-1
 6.501007819000000E9    -4.290306827833218E-1   -3.049821049543795E-1   -1.504997000533560E-2    3.142879305730797E-2   -1.331899070411406E-2    3.155912825397089E-2   -4.909382368322865E-1   -1.483879220326432E-1
 6.501020549800000E9    -4.295956274225108E-1   -3.040390564166325E-1   -1.491654046172667E-2    3.153657307804203E-2   -1.321639912877444E-2    3.172483659526672E-2   -4.912570642774339E-1   -1.474659965010873E-1
 6.501033280600000E9    -4.301528112741383E-1   -3.032214864879254E-1   -1.492809379151185E-2    3.176705026813260E-2   -1.316315704407304E-2    3.187974165140874E-2   -4.915389647743535E-1   -1.460003052135731E-1
 6.501046011400000E9    -4.307269654061817E-1   -3.022821956478833E-1   -1.500147986814421E-2    3.206124500161080E-2   -1.313389861844227E-2    3.203001664428524E-2   -4.918321467332292E-1   -1.447462129584403E-1
 6.501058742200000E9    -4.313727575630235E-1   -3.014802139714207E-1   -1.494049212333300E-2    3.225440276061243E-2   -1.321500533570957E-2    3.231576928186004E-2   -4.921736712400732E-1   -1.436065487782996E-1
 6.501071473000000E9    -4.319459574943946E-1   -3.005757269765443E-1   -1.490487368217256E-2    3.249523579190985E-2   -1.313761464722487E-2    3.243834562237446E-2   -4.922425272311429E-1   -1.422593057082248E-1
 6.501084203800000E9    -4.324712788569565E-1   -2.996652246259276E-1   -1.498183830880429E-2    3.265815358476697E-2   -1.311995139462255E-2    3.271849418129309E-2   -4.925975586357583E-1   -1.409987859086431E-1
 6.501096934600000E9    -4.330910448991330E-1   -2.987357034108370E-1   -1.510031464146793E-2    3.290269292044271E-2   -1.322253541803996E-2    3.293194278580021E-2   -4.929447710669315E-1   -1.399592291591631E-1
 6.501109665400000E9    -4.336552975693584E-1   -2.978754507518037E-1   -1.498346507205686E-2    3.314099404965833E-2   -1.319474020327237E-2    3.308383498360856E-2   -4.929414653294120E-1   -1.386051312438366E-1
 6.501122396200000E9    -4.342667290794748E-1   -2.969438284681183E-1   -1.505206613427834E-2    3.316008854995010E-2   -1.322095627483739E-2    3.333334218928758E-2   -4.934465440192688E-1   -1.374038324641356E-1
 6.501135127000000E9    -4.349223069646213E-1   -2.961019470092980E-1   -1.499253200552982E-2    3.345917824292575E-2   -1.313692642821500E-2    3.354042072341955E-2   -4.937581024894115E-1   -1.362064129387711E-1
 6.501147857800000E9    -4.354500811875034E-1   -2.950857740061391E-1   -1.490551832641416E-2    3.376603971421834E-2   -1.309584549799604E-2    3.363114889845699E-2   -4.940042279325669E-1   -1.347516085289444E-1
 6.501160588600000E9    -4.359656349058723E-1   -2.942791284243001E-1   -1.502030117854530E-2    3.376326182746834E-2   -1.307985198434195E-2    3.398300445061004E-2   -4.940960039465223E-1   -1.335317750489883E-1
 6.501173319400000E9    -4.365861982293713E-1   -2.933961495131660E-1   -1.502979438660527E-2    3.413974237704925E-2   -1.310005987835581E-2    3.408713111889729E-2   -4.944887697846254E-1   -1.324188920947898E-1
 6.501186050200000E9    -4.371865007406372E-1   -2.925589686315652E-1   -1.494342062396788E-2    3.439289839731197E-2   -1.308761637532680E-2    3.441004020213497E-2   -4.945693471705941E-1   -1.310845809991105E-1
 6.501198781000000E9    -4.377147100800193E-1   -2.915509068069227E-1   -1.494169722939462E-2    3.455870372181894E-2   -1.310311560210967E-2    3.458223938031579E-2   -4.948578804054916E-1   -1.298094592913626E-1
 6.501211511800000E9    -4.382960084173389E-1   -2.906511030952819E-1   -1.495612877702051E-2    3.487922336729791E-2   -1.308084995779840E-2    3.478603247398611E-2   -4.951988347218402E-1   -1.283503091830806E-1
 6.501224242600000E9    -4.387911539366940E-1   -2.897958409992245E-1   -1.498734296324443E-2    3.511643388478876E-2   -1.310275207780992E-2    3.512590231062130E-2   -4.953089385953713E-1   -1.272882959115615E-1
 6.501236973400000E9    -4.393988554728530E-1   -2.888054597941579E-1   -1.492988661156773E-2    3.529860330879789E-2   -1.312989737128100E-2    3.530847301170893E-2   -4.957524732060479E-1   -1.259462770968582E-1
 6.501249704200000E9    -4.399447140420262E-1   -2.878578838261591E-1   -1.499415305778361E-2    3.546704261689817E-2   -1.306687836267224E-2    3.547820642744921E-2   -4.958527019449178E-1   -1.246195942000668E-1
 6.501262435000000E9    -4.404737497454884E-1   -2.870629359702717E-1   -1.505175991888272E-2    3.571652474345113E-2   -1.298758943077469E-2    3.572745336454208E-2   -4.960726451941756E-1   -1.233179823097954E-1
 6.501275165800000E9    -4.410196413435798E-1   -2.860431840748690E-1   -1.513080522037335E-2    3.589707296368782E-2   -1.300203230384344E-2    3.600890706137784E-2   -4.964177018999129E-1   -1.220839594962263E-1
 6.501287896600000E9    -4.415568215190252E-1   -2.851978101489676E-1   -1.488070666587419E-2    3.633142786343748E-2   -1.299768663560565E-2    3.620049277318706E-2   -4.966634514296013E-1   -1.206368004654417E-1
 6.501300627400000E9    -4.422543442369514E-1   -2.841630222008287E-1   -1.499674716491874E-2    3.661746012669821E-2   -1.304409492107494E-2    3.644695418118771E-2   -4.970021540786879E-1   -1.193478416909188E-1
 6.501313358200000E9    -4.426146410608882E-1   -2.833810188656875E-1   -1.501668686945598E-2    3.683824853116589E-2   -1.298493264523896E-2    3.679123009666752E-2   -4.969753224164288E-1   -1.181257218580505E-1
 6.501326089000000E9    -4.433222144439936E-1   -2.824937250102230E-1   -1.490135401753930E-2    3.701991882575312E-2   -1.307370929265755E-2    3.689019588553599E-2   -4.974351527048437E-1   -1.165928473481170E-1
 6.501338819800000E9    -4.438225089520528E-1   -2.814435641775577E-1   -1.497004927186104E-2    3.733454111491168E-2   -1.294503448878892E-2    3.722145923242744E-2   -4.974312709725838E-1   -1.153344100163909E-1
 6.501351550600000E9    -4.445231659033704E-1   -2.805296370515292E-1   -1.494895096362809E-2    3.755674575712861E-2   -1.282652687370162E-2    3.749528897959739E-2   -4.976971598731500E-1   -1.139920635799389E-1
 6.501364281400000E9    -4.449957291283499E-1   -2.795682271254844E-1   -1.491277543611024E-2    3.780867307277171E-2   -1.283734642212382E-2    3.765881641268605E-2   -4.979748345374844E-1   -1.128122337831746E-1
 6.501377012200000E9    -4.455155466687700E-1   -2.787078840580852E-1   -1.496827494678212E-2    3.817531799582026E-2   -1.284545481589725E-2    3.794234386027225E-2   -4.982036928981942E-1   -1.113951649393886E-1
 6.501389743000000E9    -4.458959115193441E-1   -2.776122016792636E-1   -1.489284867302421E-2    3.817588830716748E-2   -1.287373293506234E-2    3.834019408751679E-2   -4.982828357998528E-1   -1.100163129313940E-1
 6.501402473800000E9    -4.465609124448343E-1   -2.767869373157507E-1   -1.485374954319115E-2    3.857387929444231E-2   -1.280355654560535E-2    3.852895417689139E-2   -4.985069496525979E-1   -1.087233856102678E-1
 6.501415204600000E9    -4.471603850707259E-1   -2.758131612942567E-1   -1.476557103283573E-2    3.884406095773581E-2   -1.278983278236792E-2    3.872555471998816E-2   -4.986900463349733E-1   -1.073235201970558E-1
 6.501427935400000E9    -4.476302315190149E-1   -2.748467798671360E-1   -1.487869436550041E-2    3.919512513190218E-2   -1.271811238785736E-2    3.906475001258341E-2   -4.989889153465054E-1   -1.058649195118141E-1
 6.501440666200000E9    -4.482150372456095E-1   -2.739448926419175E-1   -1.489756183330536E-2    3.958123295090364E-2   -1.276244111766448E-2    3.935982291509917E-2   -4.990380914550690E-1   -1.045442176058950E-1
 6.501453397000000E9    -4.486958582520299E-1   -2.729909273914237E-1   -1.475797849815303E-2    3.973242321666662E-2   -1.268992365753381E-2    3.964587485164884E-2   -4.994250437701918E-1   -1.031168400357660E-1
 6.501466127800000E9    -4.492856914264767E-1   -2.719542482769841E-1   -1.496401406570220E-2    4.016456796255723E-2   -1.265833471774175E-2    3.985323390508607E-2   -4.994105851000912E-1   -1.016631335633430E-1
 6.501478858600000E9    -4.497634493632382E-1   -2.710426521328804E-1   -1.488742058521167E-2    4.032203673989143E-2   -1.275444687470668E-2    4.017269538421461E-2   -4.995725981363541E-1   -1.003602967655378E-1
 6.501491589400000E9    -4.503798750793400E-1   -2.701092181435448E-1   -1.486019058710598E-2    4.076249387895298E-2   -1.267560828031629E-2    4.050431331098505E-2   -4.998992008709071E-1   -9.897275939097025E-2
 6.501504320200000E9    -4.509092974580141E-1   -2.690656791628905E-1   -1.479495902845652E-2    4.093864045403303E-2   -1.266021725028549E-2    4.082913559262607E-2   -5.000303533010245E-1   -9.754955433890143E-2
 6.501517051000000E9    -4.514390167914030E-1   -2.681581457931730E-1   -1.474803417596557E-2    4.130657904622785E-2   -1.251890675564185E-2    4.107702398400000E-2   -5.002052238997388E-1   -9.613237628881584E-2
 6.501529781800000E9    -4.518235984208064E-1   -2.671194579022727E-1   -1.471514997353615E-2    4.166022881790871E-2   -1.257075802210449E-2    4.135373069354196E-2   -5.004085274327842E-1   -9.477740603167074E-2
 6.501542512600000E9    -4.524425077365128E-1   -2.662449223573003E-1   -1.472578589127089E-2    4.193562530762064E-2   -1.260517481467642E-2    4.156301387005263E-2   -5.004720641675505E-1   -9.332495345195624E-2
 6.501555243400000E9    -4.530661144728712E-1   -2.650996811675274E-1   -1.469913061095124E-2    4.217715982068197E-2   -1.260711274425290E-2    4.200945652365314E-2   -5.005724555016806E-1   -9.185970992482904E-2
 6.501567974200000E9    -4.535263159876777E-1   -2.641717353760367E-1   -1.467723400064595E-2    4.244960307620250E-2   -1.250112082564221E-2    4.220340139474694E-2   -5.008746403933181E-1   -9.032309050338561E-2
 6.501580705000000E9    -4.540277746057249E-1   -2.632663203374034E-1   -1.464770656219360E-2    4.273239735579246E-2   -1.242470207278281E-2    4.264969039350765E-2   -5.009158953036984E-1   -8.880865329038160E-2
 6.501593435800000E9    -4.545272465939182E-1   -2.622610646877568E-1   -1.463443938773828E-2    4.317923395347312E-2   -1.244992293029833E-2    4.287663816297436E-2   -5.009630818535393E-1   -8.739266278234997E-2
 6.501606166600000E9    -4.551239995133929E-1   -2.611360250210477E-1   -1.458812642563893E-2    4.354071713158476E-2   -1.242797271712809E-2    4.320677806495866E-2   -5.011644470746781E-1   -8.602231290670370E-2
 6.501618897400000E9    -4.555601456194822E-1   -2.601984234527646E-1   -1.458654664239669E-2    4.377914537065582E-2   -1.232401174352690E-2    4.354714288035802E-2   -5.013626244528303E-1   -8.440808755749696E-2
 6.501631628200000E9    -4.561716972611120E-1   -2.592010160456094E-1   -1.459950240438851E-2    4.418830522942735E-2   -1.232098934910826E-2    4.390977688851140E-2   -5.014580532542708E-1   -8.303132496868265E-2
 6.501644359000000E9    -4.566661759695633E-1   -2.582294044009749E-1   -1.460792905650488E-2    4.453773853844524E-2   -1.228263840871601E-2    4.429502796839872E-2   -5.015404092782587E-1   -8.153361765271219E-2
 6.501657089800000E9    -4.571022047107628E-1   -2.572624857381399E-1   -1.453380464852072E-2    4.496407399559485E-2   -1.227524869849007E-2    4.453391245459712E-2   -5.015159303590168E-1   -8.008142533952910E-2
 6.501669820600000E9    -4.575869591310378E-1   -2.562365132921325E-1   -1.462022520155182E-2    4.528182354491764E-2   -1.219970734459552E-2    4.488051136546542E-2   -5.018392382137420E-1   -7.844841502723497E-2
 6.501682551400000E9    -4.581358971864755E-1   -2.551648575477680E-1   -1.435577157033591E-2    4.553993405869195E-2   -1.213821831925734E-2    4.523174494797495E-2   -5.018564657290934E-1   -7.706525172233919E-2
 6.501695282200000E9    -4.585669572300504E-1   -2.541656708039377E-1   -1.441798010663365E-2    4.601113854793375E-2   -1.213339739017450E-2    4.566739945475343E-2   -5.020163090018434E-1   -7.551565303918610E-2
 6.501708013000000E9    -4.590889751152342E-1   -2.531725272111348E-1   -1.438502141762154E-2    4.642286271949685E-2   -1.206370144986697E-2    4.597575455617030E-2   -5.019876639685125E-1   -7.393599352278686E-2
 6.501720743800000E9    -4.595623450943022E-1   -2.520882945689516E-1   -1.452818953979930E-2    4.666380260293509E-2   -1.194657129684302E-2    4.637959498398293E-2   -5.021519236468556E-1   -7.251417001499028E-2
 6.501733474600000E9    -4.601571737719213E-1   -2.511192247674255E-1   -1.441162541776705E-2    4.682738844573522E-2   -1.197815041649145E-2    4.668917247284664E-2   -5.021132127561029E-1   -7.089022263983852E-2
 6.501746205400000E9    -4.605559156196315E-1   -2.501719648883303E-1   -1.438243352660171E-2    4.758152992591719E-2   -1.188276991664445E-2    4.708499456421278E-2   -5.022452894166475E-1   -6.927784761331189E-2
 6.501758936200000E9    -4.612271269758313E-1   -2.490107911860455E-1   -1.431052722643642E-2    4.794486721370503E-2   -1.185576568883703E-2    4.745223245544597E-2   -5.023138296812941E-1   -6.773382368897851E-2
 6.501771667000000E9    -4.615968059279392E-1   -2.479389524443076E-1   -1.417041250697216E-2    4.819242882858434E-2   -1.188958890037025E-2    4.792097199297615E-2   -5.024763170750235E-1   -6.607954547685797E-2
 6.501784397800000E9    -4.621181706490802E-1   -2.468391378186840E-1   -1.424840484205852E-2    4.877610245837975E-2   -1.180810784530962E-2    4.826667076075347E-2   -5.024986004444689E-1   -6.451452839797560E-2
 6.501797128600000E9    -4.626117025833092E-1   -2.460441177135649E-1   -1.416227563455342E-2    4.912837976509412E-2   -1.174264539179900E-2    4.862027176577860E-2   -5.024056241585095E-1   -6.301100773734036E-2
 6.501809859400000E9    -4.631088470086346E-1   -2.448993361075480E-1   -1.411123916234331E-2    4.950093345411925E-2   -1.168964793808917E-2    4.913616660668921E-2   -5.025533817879128E-1   -6.131684461111784E-2
 6.501822590200000E9    -4.636370114299353E-1   -2.438333661864935E-1   -1.415125604086381E-2    4.992402029303834E-2   -1.160251676470853E-2    4.939330911838895E-2   -5.026466178466189E-1   -5.969433183723590E-2
 6.501835321000000E9    -4.641337543633368E-1   -2.427583526909415E-1   -1.406192993830771E-2    5.033318566269362E-2   -1.147585510396342E-2    4.990168293458567E-2   -5.026597750183909E-1   -5.814163909172994E-2
 6.501848051800000E9    -4.644830418337593E-1   -2.416675286597732E-1   -1.391128123456992E-2    5.071571616778658E-2   -1.147415571077783E-2    5.034853000202955E-2   -5.027187686044385E-1   -5.639467494118518E-2
 6.501860782600000E9    -4.650718100232629E-1   -2.406147922142679E-1   -1.403790520079292E-2    5.118201828830960E-2   -1.142617498876451E-2    5.077144851210291E-2   -5.027269330968004E-1   -5.478456053700800E-2
 6.501873513400000E9    -4.655199265640903E-1   -2.395461894038252E-1   -1.396590418946190E-2    5.168557289803418E-2   -1.135254343976007E-2    5.121291837665990E-2   -5.026472423463451E-1   -5.308695781356854E-2
 6.501886244200000E9    -4.659826248064888E-1   -2.384768408748479E-1   -1.379162926845412E-2    5.220111151563335E-2   -1.132092026667015E-2    5.160542645553524E-2   -5.026854000606427E-1   -5.136324851256131E-2
 6.501898975000000E9    -4.664956128800608E-1   -2.374233840276323E-1   -1.379316426991621E-2    5.278085879238885E-2   -1.121394915358714E-2    5.210505489890310E-2   -5.028593780980067E-1   -4.981512836569372E-2
 6.501911705800000E9    -4.668448181397264E-1   -2.363507832344886E-1   -1.369267892790610E-2    5.322810562201537E-2   -1.119529434343987E-2    5.246125524788531E-2   -5.026245640421292E-1   -4.808113484219494E-2
 6.501924436600000E9    -4.673953839975976E-1   -2.351730745401321E-1   -1.374209192066872E-2    5.357654251432222E-2   -1.117326277302521E-2    5.291065602925434E-2   -5.027350346515471E-1   -4.628131586478942E-2
 6.501937167400000E9    -4.678928563092630E-1   -2.340896463835703E-1   -1.371633758527802E-2    5.397864909760511E-2   -1.097775650996582E-2    5.330933039563524E-2   -5.025908287145593E-1   -4.463130539937571E-2
 6.501949898200000E9    -4.683448065592992E-1   -2.329541424130065E-1   -1.357459467007168E-2    5.473389485864071E-2   -1.089001620078423E-2    5.388667412888552E-2   -5.026081127739800E-1   -4.295025536901112E-2
 6.501962629000000E9    -4.688357024807635E-1   -2.319673846112039E-1   -1.347421973488988E-2    5.497327848278141E-2   -1.077323303217063E-2    5.431399809512213E-2   -5.026104973523978E-1   -4.102808613973134E-2
 6.501975359800000E9    -4.692127494889151E-1   -2.307860436689668E-1   -1.347438903971265E-2    5.563657461486229E-2   -1.072166619328952E-2    5.488183546934812E-2   -5.023637269737314E-1   -3.933896047571100E-2
 6.501988090600000E9    -4.695989174264394E-1   -2.296724165543674E-1   -1.333934409114267E-2    5.612418266447303E-2   -1.069512507836908E-2    5.535044749818744E-2   -5.023317097600262E-1   -3.763456450425865E-2
 6.502000821400000E9    -4.701648261894850E-1   -2.284528103569419E-1   -1.330209896909968E-2    5.659853943649890E-2   -1.053248051202721E-2    5.595750456307302E-2   -5.023932300313509E-1   -3.578597083841339E-2
 6.502013552200000E9    -4.706052238373237E-1   -2.274498953684990E-1   -1.320652588677125E-2    5.716153263474909E-2   -1.031903226735637E-2    5.636448503033285E-2   -5.021704378718752E-1   -3.402194571262645E-2
 6.502026283000000E9    -4.709226719991473E-1   -2.263281914778648E-1   -1.311960667973426E-2    5.779592113502514E-2   -1.031344324002753E-2    5.695994566805437E-2   -5.021798179122688E-1   -3.207292058490446E-2
