#  HZ   S   RI   R     50.00 
! Rohde & Schwarz Vector Network Analyzer 
! Rohde-Schwarz,ZNB20-2Port,1311601062101988,3.16
! Created: UTC 3/20/2024, 11:48:07 AM
! freq[Hz]                re:S11                  im:S11                  re:S21                  im:S21                  re:S12                  im:S12                  re:S22                  im:S22
 6.500872217000000E9    -4.226618925751056E-1   -3.141454238560094E-1   -1.498644040718803E-2    2.943218813289354E-2   -1.329818433408167E-2    2.950620378349281E-2   -4.876890821238343E-1   -1.612225454775579E-1
 6.500884980100000E9    -4.232720864389140E-1   -3.132881140888208E-1   -1.495063555347715E-2    2.972273017135535E-2   -1.325904600243069E-2    2.966571427724493E-2   -4.879697472720606E-1   -1.601000488568416E-1
 6.500897743200000E9    -4.238174634959605E-1   -3.124495788354157E-1   -1.500837044586047E-2    2.977625409202061E-2   -1.324157494801518E-2    2.995180570366963E-2   -4.882303831141038E-1   -1.587445502057340E-1
 6.500910506300000E9    -4.245026418013288E-1   -3.115141338367532E-1   -1.496449652925703E-2    3.003002511757193E-2   -1.323885010200868E-2    3.009619580798922E-2   -4.884754565658737E-1   -1.576702711790664E-1
 6.500923269400000E9    -4.250060481064661E-1   -3.108174445296055E-1   -1.486390465549674E-2    3.024321247407075E-2   -1.327817764791999E-2    3.029244920149985E-2   -4.890168601646733E-1   -1.565042803995570E-1
 6.500936032500000E9    -4.256180195810202E-1   -3.098678773765005E-1   -1.495531451937672E-2    3.022068841461326E-2   -1.323019249321930E-2    3.044142343807682E-2   -4.892660059584504E-1   -1.551455388824393E-1
 6.500948795600000E9    -4.263559983077496E-1   -3.089224376306171E-1   -1.488080876147288E-2    3.043273721977529E-2   -1.329839205000877E-2    3.059413239913210E-2   -4.893080573679763E-1   -1.541151843573598E-1
 6.500961558700000E9    -4.268296939902803E-1   -3.081523040182911E-1   -1.496063675522711E-2    3.079239694781637E-2   -1.329255752751045E-2    3.085505418903770E-2   -4.897513841314274E-1   -1.528897785722758E-1
 6.500974321800000E9    -4.274187901664029E-1   -3.072588567660447E-1   -1.489820149215482E-2    3.096667758484255E-2   -1.321971211216315E-2    3.098545519480581E-2   -4.901750242406764E-1   -1.515615168052405E-1
 6.500987084900000E9    -4.279744679667019E-1   -3.062022601424197E-1   -1.491732098674313E-2    3.124568645328413E-2   -1.315447779604764E-2    3.120497745086708E-2   -4.902803799158864E-1   -1.504517372874947E-1
 6.500999848000000E9    -4.287044403625532E-1   -3.054726570249792E-1   -1.490938871393102E-2    3.143834927958306E-2   -1.317764598076142E-2    3.140510776763016E-2   -4.907254747643471E-1   -1.490588047094920E-1
 6.501012611100000E9    -4.292504257760085E-1   -3.046247405651882E-1   -1.484123337106679E-2    3.148803313661802E-2   -1.327686044439820E-2    3.156021073947031E-2   -4.910187400361634E-1   -1.479784023084735E-1
 6.501025374200000E9    -4.298737404656035E-1   -3.036778949106633E-1   -1.490011150880929E-2    3.173540224122570E-2   -1.321831063853942E-2    3.185816983907233E-2   -4.913369531732326E-1   -1.467489193536075E-1
 6.501038137300000E9    -4.304241250304133E-1   -3.028507137057017E-1   -1.488690369984092E-2    3.186090457324022E-2   -1.320291745731603E-2    3.210094809141869E-2   -4.916337294796571E-1   -1.453749662699587E-1
 6.501050900400000E9    -4.309909870145212E-1   -3.019681828887324E-1   -1.504110388841035E-2    3.209829976947496E-2   -1.317871517806921E-2    3.221056566806133E-2   -4.918785557660051E-1   -1.442288102270947E-1
 6.501063663500000E9    -4.315608559092712E-1   -3.011046090866332E-1   -1.495240539277289E-2    3.232226059537564E-2   -1.314605885035419E-2    3.238759995385764E-2   -4.921709349253724E-1   -1.431302056226300E-1
 6.501076426600000E9    -4.321924556331163E-1   -3.002138270699974E-1   -1.505369739206267E-2    3.270048017734414E-2   -1.318473761369619E-2    3.243295513062560E-2   -4.924995097222775E-1   -1.418886915916706E-1
 6.501089189700000E9    -4.327652601644926E-1   -2.993781121206521E-1   -1.506356009389554E-2    3.270990889196330E-2   -1.313637704303408E-2    3.277864421721421E-2   -4.926431292163612E-1   -1.404362096261146E-1
 6.501101952800000E9    -4.332699512177048E-1   -2.983855420436945E-1   -1.498690273678918E-2    3.299622995605430E-2   -1.314791572245036E-2    3.300533396671385E-2   -4.929278489751592E-1   -1.393406509967246E-1
 6.501114715900000E9    -4.339232446494754E-1   -2.974955069628424E-1   -1.503392951502159E-2    3.318947993827102E-2   -1.310594633161246E-2    3.327082600766858E-2   -4.932458378850422E-1   -1.380310190662010E-1
 6.501127479000000E9    -4.345639357353249E-1   -2.966814695825814E-1   -1.492112021559170E-2    3.337833388699104E-2   -1.322600215741781E-2    3.343632369338444E-2   -4.935855284134547E-1   -1.368602856523161E-1
 6.501140242100000E9    -4.350199415705670E-1   -2.956664184149739E-1   -1.510631436211475E-2    3.356812561480115E-2   -1.301435109447345E-2    3.355874832061177E-2   -4.937816909155787E-1   -1.355663144270917E-1
 6.501153005200000E9    -4.355788440389066E-1   -2.946595782638649E-1   -1.494275931394992E-2    3.376397666746749E-2   -1.317842209037528E-2    3.387372629015301E-2   -4.939829125701193E-1   -1.343860909542939E-1
 6.501165768300000E9    -4.361945992495715E-1   -2.938789901834872E-1   -1.501668180462276E-2    3.407382624620955E-2   -1.315229212757146E-2    3.408019705535260E-2   -4.942873482434486E-1   -1.330241538347431E-1
 6.501178531400000E9    -4.368088610557393E-1   -2.930085376613984E-1   -1.491887270984648E-2    3.423349017028068E-2   -1.311850357954891E-2    3.425118106523906E-2   -4.945664869088698E-1   -1.317273986684846E-1
 6.501191294500000E9    -4.373737651203151E-1   -2.920961481087180E-1   -1.492290990763659E-2    3.447457468866977E-2   -1.302737594602224E-2    3.452701373994511E-2   -4.947487175066626E-1   -1.304617116490579E-1
 6.501204057600000E9    -4.378874410315621E-1   -2.911781684893024E-1   -1.504009389155626E-2    3.474068933266854E-2   -1.311694733424439E-2    3.476634038842127E-2   -4.951383362486220E-1   -1.291635075155403E-1
 6.501216820700000E9    -4.384513724291403E-1   -2.902965550650122E-1   -1.496501429100386E-2    3.493835010140206E-2   -1.307969853169460E-2    3.493077596377685E-2   -4.953162827429817E-1   -1.279347482064656E-1
 6.501229583800000E9    -4.390105078070757E-1   -2.892996284858292E-1   -1.494615801688487E-2    3.511324518233012E-2   -1.312311637598097E-2    3.514930319605158E-2   -4.954551746762729E-1   -1.265895403773243E-1
 6.501242346900000E9    -4.397169240220262E-1   -2.884608371326939E-1   -1.497306705348873E-2    3.539147594225505E-2   -1.302524628291407E-2    3.536285869065875E-2   -4.957515358252340E-1   -1.252228654596029E-1
 6.501255110000000E9    -4.401839898703349E-1   -2.876342169736932E-1   -1.495655163404004E-2    3.565008548487994E-2   -1.301153979017460E-2    3.573748981911546E-2   -4.960035532739519E-1   -1.238045370715598E-1
 6.501267873100000E9    -4.408150200269048E-1   -2.866784285253440E-1   -1.497061889583805E-2    3.588230951321134E-2   -1.298220443415097E-2    3.590522434134454E-2   -4.961906173839029E-1   -1.227037856458131E-1
 6.501280636200000E9    -4.412794375298342E-1   -2.856848187417214E-1   -1.504372032330338E-2    3.621349799422238E-2   -1.300307193325576E-2    3.614115902369526E-2   -4.964980410493782E-1   -1.212596825220866E-1
 6.501293399300000E9    -4.418768189538086E-1   -2.847825884844475E-1   -1.496279129942706E-2    3.636699840949467E-2   -1.295578644283859E-2    3.638555636634851E-2   -4.967609715554041E-1   -1.200846224629430E-1
 6.501306162400000E9    -4.424459972920992E-1   -2.838335720911902E-1   -1.496440405398066E-2    3.661861545471850E-2   -1.300347640100084E-2    3.655690998168256E-2   -4.969788166821469E-1   -1.187493019976165E-1
 6.501318925500000E9    -4.429819579059540E-1   -2.828221622129001E-1   -1.491598761901424E-2    3.691903986828549E-2   -1.292448659350560E-2    3.695551389064399E-2   -4.971532497180954E-1   -1.174801714262074E-1
 6.501331688600000E9    -4.435045800800821E-1   -2.820008561480567E-1   -1.490999300082963E-2    3.735273513376951E-2   -1.299793417234789E-2    3.713779553496271E-2   -4.974508851241009E-1   -1.160402387698499E-1
 6.501344451700000E9    -4.440200252404156E-1   -2.810092587819008E-1   -1.483432719508943E-2    3.740725076767220E-2   -1.296164078457307E-2    3.734487476172377E-2   -4.974749855471378E-1   -1.148212487149106E-1
 6.501357214800000E9    -4.445700669962549E-1   -2.799494848475413E-1   -1.502646114893407E-2    3.770023586695107E-2   -1.300293113734891E-2    3.758190793298152E-2   -4.976620698558999E-1   -1.134397463479248E-1
 6.501369977900000E9    -4.451496879496888E-1   -2.791221235874872E-1   -1.489105387689573E-2    3.792217189649131E-2   -1.291279389489153E-2    3.787832425203239E-2   -4.980211154958119E-1   -1.119065270858973E-1
 6.501382741000000E9    -4.456935870033729E-1   -2.781890201680977E-1   -1.495324499862660E-2    3.834687455567661E-2   -1.287672374534546E-2    3.819136237592961E-2   -4.981500996536982E-1   -1.106576953968771E-1
 6.501395504100000E9    -4.463480702104363E-1   -2.772385742229117E-1   -1.486084515631435E-2    3.853414515856376E-2   -1.283717464223268E-2    3.850221770132080E-2   -4.983417651866858E-1   -1.093957631032316E-1
 6.501408267200000E9    -4.469078651888221E-1   -2.762267647156985E-1   -1.493564363469272E-2    3.880328885052446E-2   -1.283776713118963E-2    3.860031795938653E-2   -4.985259329035122E-1   -1.080367670894273E-1
 6.501421030300000E9    -4.473912328742709E-1   -2.752232281395090E-1   -1.490412028669842E-2    3.919644129662778E-2   -1.277244958206181E-2    3.899227287170254E-2   -4.988965799892674E-1   -1.066154702332979E-1
 6.501433793400000E9    -4.479730202881050E-1   -2.744643786045275E-1   -1.489949200689038E-2    3.944272728616051E-2   -1.276860746531411E-2    3.924136034917242E-2   -4.989664824436306E-1   -1.051630926799627E-1
 6.501446556500000E9    -4.483556599715059E-1   -2.734428118242979E-1   -1.484649812995721E-2    3.958056948101806E-2   -1.277590356049260E-2    3.944344666872987E-2   -4.991109063819564E-1   -1.037756684601557E-1
 6.501459319600000E9    -4.490301840031967E-1   -2.725128667096363E-1   -1.490160865834802E-2    3.997083382026629E-2   -1.272125894049858E-2    3.977739849583890E-2   -4.994050288001249E-1   -1.023912674302063E-1
 6.501472082700000E9    -4.495813767244340E-1   -2.714742274070256E-1   -1.473461468650929E-2    4.018428785469128E-2   -1.269540243013043E-2    4.011956189279133E-2   -4.995982708653460E-1   -1.011651798319640E-1
 6.501484845800000E9    -4.500487384854061E-1   -2.705156018297567E-1   -1.487919824815822E-2    4.067602246268082E-2   -1.258841858058564E-2    4.034637042014662E-2   -4.997080223586253E-1   -9.952744026100868E-2
 6.501497608900000E9    -4.506222618093319E-1   -2.695411852976475E-1   -1.479608073495523E-2    4.073554075971524E-2   -1.279906141253451E-2    4.076492147850709E-2   -4.998132111031341E-1   -9.823767109427818E-2
 6.501510372000000E9    -4.512437167032876E-1   -2.684938843313811E-1   -1.468073771569357E-2    4.118961875490504E-2   -1.254714431639214E-2    4.086038596162179E-2   -4.999575058421806E-1   -9.666435026867388E-2
 6.501523135100000E9    -4.516005546467737E-1   -2.676448190487323E-1   -1.465505390373117E-2    4.141190447151661E-2   -1.259210946885642E-2    4.114357774695546E-2   -5.001959406132123E-1   -9.531282710147627E-2
 6.501535898200000E9    -4.521757107884786E-1   -2.666969673123354E-1   -1.458176907863483E-2    4.168443333217449E-2   -1.264513748209893E-2    4.147104498092526E-2   -5.003288026786046E-1   -9.407899613689504E-2
 6.501548661300000E9    -4.527474164718665E-1   -2.657378117357451E-1   -1.476285812890277E-2    4.213959555068023E-2   -1.246971153113346E-2    4.185769600086914E-2   -5.003958117122348E-1   -9.252831108607697E-2
 6.501561424400000E9    -4.532543486209535E-1   -2.646279654650008E-1   -1.471812076065872E-2    4.229451490005626E-2   -1.252743950963195E-2    4.214021884893374E-2   -5.005855632029670E-1   -9.107579296158935E-2
 6.501574187500000E9    -4.537797667987142E-1   -2.637790988716992E-1   -1.481110380603044E-2    4.287728627731181E-2   -1.245264967230927E-2    4.244029727840030E-2   -5.006921868025624E-1   -8.959229834625868E-2
 6.501586950600000E9    -4.542113399925327E-1   -2.627601494619513E-1   -1.476727613153914E-2    4.321419518373928E-2   -1.249082910890922E-2    4.276867196211903E-2   -5.008399782838103E-1   -8.824448766555139E-2
 6.501599713700000E9    -4.548259136235335E-1   -2.617834615082898E-1   -1.458471192158301E-2    4.339172053964594E-2   -1.237538002272347E-2    4.311845207391185E-2   -5.010624424629599E-1   -8.652889350756249E-2
 6.501612476800000E9    -4.551729427802458E-1   -2.607471118622977E-1   -1.463243777107340E-2    4.369008501563508E-2   -1.239345694990213E-2    4.337676046849490E-2   -5.010760249122490E-1   -8.508331684074719E-2
 6.501625239900000E9    -4.559219359742236E-1   -2.596446230553200E-1   -1.461398578929161E-2    4.410190548104284E-2   -1.230347217745041E-2    4.379954764834904E-2   -5.011743284682770E-1   -8.363724464509513E-2
 6.501638003000000E9    -4.563922533815879E-1   -2.587252502117165E-1   -1.467945380979467E-2    4.437214277940990E-2   -1.227505228593089E-2    4.413649616684158E-2   -5.013694077502656E-1   -8.221693676845623E-2
 6.501650766100000E9    -4.569276481259619E-1   -2.577149399239954E-1   -1.452316701526230E-2    4.476250913986966E-2   -1.219067660788002E-2    4.448482362799970E-2   -5.015067633025978E-1   -8.065677380462913E-2
 6.501663529200000E9    -4.573472989337106E-1   -2.567178185228726E-1   -1.451101619670648E-2    4.514284288524840E-2   -1.232708762090053E-2    4.473443889983703E-2   -5.016640478610074E-1   -7.911648113216700E-2
 6.501676292300000E9    -4.579122445590962E-1   -2.557812470113277E-1   -1.445372647008968E-2    4.548567124774594E-2   -1.218724402803405E-2    4.507802978510717E-2   -5.017654912072811E-1   -7.765788200570904E-2
 6.501689055400000E9    -4.583979936587459E-1   -2.546416129926051E-1   -1.455788066787487E-2    4.589802905699381E-2   -1.209712897002034E-2    4.553577447955671E-2   -5.017735224147556E-1   -7.615605745318252E-2
 6.501701818500000E9    -4.590093438936763E-1   -2.536606645535102E-1   -1.444356814779279E-2    4.632805799516798E-2   -1.214598821826850E-2    4.581480433995248E-2   -5.019072731916074E-1   -7.471303468598860E-2
 6.501714581600000E9    -4.594912160321949E-1   -2.526420449310142E-1   -1.439197210461629E-2    4.652489841701310E-2   -1.208433617229275E-2    4.612084987571428E-2   -5.020571999841463E-1   -7.305119113481669E-2
 6.501727344700000E9    -4.598835097292614E-1   -2.516093257674674E-1   -1.442117436815308E-2    4.698282323679617E-2   -1.204049806370806E-2    4.650668820349534E-2   -5.019903484000883E-1   -7.156198113499346E-2
 6.501740107800000E9    -4.605318859005013E-1   -2.506019662095712E-1   -1.436444427194394E-2    4.735415281733847E-2   -1.196295566030890E-2    4.693488530447331E-2   -5.021119178889256E-1   -6.995556952339906E-2
 6.501752870900000E9    -4.608134917453237E-1   -2.495642494158033E-1   -1.431198727473447E-2    4.779173077518838E-2   -1.200931444201940E-2    4.733736849666657E-2   -5.023515145738161E-1   -6.831969645705820E-2
 6.501765634000000E9    -4.615192926434982E-1   -2.485850200198303E-1   -1.430712745948771E-2    4.826779646189067E-2   -1.184223857028312E-2    4.780928122083601E-2   -5.022514195153800E-1   -6.686242793357100E-2
 6.501778397100000E9    -4.619346369649459E-1   -2.473817861001054E-1   -1.424007276722021E-2    4.854816795062963E-2   -1.178260810892979E-2    4.810121744078800E-2   -5.024113175610327E-1   -6.526496833659880E-2
 6.501791160200000E9    -4.623977621107933E-1   -2.463743014843414E-1   -1.423124486593516E-2    4.901706269755740E-2   -1.181167311843885E-2    4.849990748897106E-2   -5.023210360112248E-1   -6.350561437025222E-2
 6.501803923300000E9    -4.629509585344407E-1   -2.453857799958916E-1   -1.420017834313327E-2    4.934199755440046E-2   -1.168105140119482E-2    4.891616965817670E-2   -5.024753884264312E-1   -6.196820922778313E-2
 6.501816686400000E9    -4.633643683446294E-1   -2.443118881028765E-1   -1.411346052390217E-2    4.970574242084584E-2   -1.162648612597210E-2    4.941559506123191E-2   -5.024539683137419E-1   -6.044375379609491E-2
 6.501829449500000E9    -4.638697296616655E-1   -2.432307755910723E-1   -1.396219188324573E-2    5.018739728104735E-2   -1.152231150023526E-2    4.977033816701696E-2   -5.025616738819101E-1   -5.872750236538858E-2
 6.501842212600000E9    -4.643247950670377E-1   -2.419731721313716E-1   -1.407280136153187E-2    5.061896703978968E-2   -1.149745225605182E-2    5.020393953543888E-2   -5.025874534319704E-1   -5.704549104891642E-2
 6.501854975700000E9    -4.648410630318067E-1   -2.410054164928206E-1   -1.389094376214726E-2    5.106915671888455E-2   -1.148418192991006E-2    5.059863047175574E-2   -5.026342682107886E-1   -5.550086147571776E-2
 6.501867738800000E9    -4.652848286474753E-1   -2.399767307320151E-1   -1.391320633264454E-2    5.158862231137436E-2   -1.136155328775137E-2    5.099433358030495E-2   -5.025840425796002E-1   -5.377081149021229E-2
 6.501880501900000E9    -4.657493447347075E-1   -2.389294145208841E-1   -1.390313068499769E-2    5.192216133814160E-2   -1.142203466844158E-2    5.138886089311995E-2   -5.025535815324634E-1   -5.196848909944366E-2
 6.501893265000000E9    -4.662576920446227E-1   -2.378810766154638E-1   -1.368317511426386E-2    5.254684836553296E-2   -1.118158157794019E-2    5.202184384262674E-2   -5.025767442684449E-1   -5.028150785957563E-2
 6.501906028100000E9    -4.667286671625824E-1   -2.366901404018379E-1   -1.376882458060638E-2    5.292095742745031E-2   -1.128255470278805E-2    5.234652129199277E-2   -5.025770676348822E-1   -4.872722627675742E-2
 6.501918791200000E9    -4.671737202120896E-1   -2.355903400642513E-1   -1.368573750546724E-2    5.330736025488703E-2   -1.110704068008841E-2    5.273882250301645E-2   -5.026218910419671E-1   -4.705951112010865E-2
 6.501931554300000E9    -4.676402287531721E-1   -2.346339006589406E-1   -1.366560925204574E-2    5.394424761089962E-2   -1.098492467651516E-2    5.327539714782568E-2   -5.024698605619045E-1   -4.527350946643686E-2
 6.501944317400000E9    -4.681499011551911E-1   -2.334285935670385E-1   -1.361950319380818E-2    5.433086146836980E-2   -1.089827152552437E-2    5.375847966626614E-2   -5.025481173440116E-1   -4.360110626810311E-2
 6.501957080500000E9    -4.685442604576703E-1   -2.323241952742176E-1   -1.339010094353895E-2    5.498860038240196E-2   -1.086698008817131E-2    5.424391500910151E-2   -5.024265318867356E-1   -4.168040673976486E-2
 6.501969843600000E9    -4.690965855008312E-1   -2.313109653683889E-1   -1.352172166177110E-2    5.540834631635740E-2   -1.078578788316170E-2    5.478514881261601E-2   -5.025182705542678E-1   -3.997669414605157E-2
 6.501982606700000E9    -4.695050633787243E-1   -2.300669723129170E-1   -1.337705435733108E-2    5.590936544740423E-2   -1.064098878235941E-2    5.526149347207737E-2   -5.023346803006986E-1   -3.823970235709714E-2
 6.501995369800000E9    -4.699127544975685E-1   -2.289973803814735E-1   -1.319865417578143E-2    5.633804394533765E-2   -1.065179842620068E-2    5.577233555322954E-2   -5.021975171374129E-1   -3.633525508845572E-2
 6.502008132900000E9    -4.704965015259611E-1   -2.278530982945884E-1   -1.312031467080216E-2    5.708975763463928E-2   -1.052068411757161E-2    5.616992147792769E-2   -5.022208994580017E-1   -3.449694304383656E-2
 6.502020896000000E9    -4.708428197281396E-1   -2.266814754685111E-1   -1.321764792085230E-2    5.766306837140692E-2   -1.043686357438081E-2    5.676780416378967E-2   -5.021524207032722E-1   -3.284525771232321E-2
