#  HZ   S   RI   R     50.00 
! Rohde & Schwarz Vector Network Analyzer 
! Rohde-Schwarz,ZNB20-2Port,1311601062101988,3.16
! Created: UTC 3/20/2024, 11:48:12 AM
! freq[Hz]                re:S11                  im:S11                  re:S21                  im:S21                  re:S12                  im:S12                  re:S22                  im:S22
 6.500873771000000E9    -4.226902714585863E-1   -3.140646039493917E-1   -1.494740910283613E-2    2.949161716946762E-2   -1.327479265983873E-2    2.963857214676193E-2   -4.876971078496568E-1   -1.610925842923559E-1
 6.500886522850000E9    -4.232813724148361E-1   -3.131744863778511E-1   -1.486717022808412E-2    2.957290730791023E-2   -1.316193635372152E-2    2.977003171114827E-2   -4.880048093041789E-1   -1.598431834514627E-1
 6.500899274700000E9    -4.238294696237135E-1   -3.123011840359655E-1   -1.499455117705529E-2    2.998299949873227E-2   -1.316085969163509E-2    2.998427418194644E-2   -4.882606481210074E-1   -1.586744909703124E-1
 6.500912026550000E9    -4.245452666256852E-1   -3.113435914424864E-1   -1.488329122968085E-2    3.010118120219468E-2   -1.324164995177514E-2    3.015521453831117E-2   -4.885861912839082E-1   -1.574424038250336E-1
 6.500924778400000E9    -4.251357436512766E-1   -3.105573190841989E-1   -1.504417296261518E-2    3.028419161307927E-2   -1.324157720212917E-2    3.024159238314117E-2   -4.888480184704428E-1   -1.563148658308929E-1
 6.500937530250000E9    -4.258047072609664E-1   -3.096778014808149E-1   -1.499986969057988E-2    3.037564575780870E-2   -1.331254806828590E-2    3.048540218724589E-2   -4.891750856893821E-1   -1.552279952744245E-1
 6.500950282100000E9    -4.263685387155046E-1   -3.088726606159481E-1   -1.501004268633141E-2    3.054725325686363E-2   -1.324119369594211E-2    3.073416437831542E-2   -4.892593794336003E-1   -1.538283451130067E-1
 6.500963033950000E9    -4.268758339402181E-1   -3.079984711042170E-1   -1.485001026590555E-2    3.069603834338145E-2   -1.321684926682802E-2    3.091163575495671E-2   -4.899067761991207E-1   -1.525667553880523E-1
 6.500975785800000E9    -4.274422610996376E-1   -3.071481002602608E-1   -1.492544040894927E-2    3.102786158336176E-2   -1.326819123080596E-2    3.096339619439494E-2   -4.901310668947171E-1   -1.514695923405421E-1
 6.500988537650000E9    -4.280897539631011E-1   -3.061224248922301E-1   -1.483854305356443E-2    3.128623323295650E-2   -1.320955948105577E-2    3.122369655999437E-2   -4.903697258615790E-1   -1.501538805459332E-1
 6.501001289500000E9    -4.286699239173385E-1   -3.053098759188964E-1   -1.513044539785367E-2    3.145975323773782E-2   -1.319396250289135E-2    3.143398074504394E-2   -4.905596316242044E-1   -1.491066766580813E-1
 6.501014041350000E9    -4.293312425612851E-1   -3.044591090041560E-1   -1.509729036802618E-2    3.157492115384079E-2   -1.337277210433159E-2    3.161418723577777E-2   -4.911633160684151E-1   -1.477868324758182E-1
 6.501026793200000E9    -4.298648414343862E-1   -3.037068011015756E-1   -1.490627299588188E-2    3.167032622159974E-2   -1.324081529274117E-2    3.179204231707820E-2   -4.913776621053533E-1   -1.467302104914601E-1
 6.501039545050000E9    -4.305375614535351E-1   -3.026387340147057E-1   -1.489536826831002E-2    3.188237430340526E-2   -1.324104293933489E-2    3.208730279690272E-2   -4.915602581904219E-1   -1.454063149532221E-1
 6.501052296900000E9    -4.310716817996791E-1   -3.018395530997721E-1   -1.502851925031657E-2    3.220663938180476E-2   -1.323285969909262E-2    3.220577046634526E-2   -4.919060418546923E-1   -1.441140621939752E-1
 6.501065048750000E9    -4.318173412295384E-1   -3.008517568574086E-1   -1.496986466322858E-2    3.220405149060020E-2   -1.321670942921403E-2    3.245206155543007E-2   -4.920228590098355E-1   -1.427879705384653E-1
 6.501077800600000E9    -4.322565161949493E-1   -3.000715773668629E-1   -1.494383522392054E-2    3.254823860065417E-2   -1.320104474464608E-2    3.263816195496896E-2   -4.925931411299643E-1   -1.414400793859728E-1
 6.501090552450000E9    -4.327395512518499E-1   -2.990404976083754E-1   -1.512544032651801E-2    3.274093248256003E-2   -1.322996876075739E-2    3.281717610803701E-2   -4.928055701874732E-1   -1.403849942680838E-1
 6.501103304300000E9    -4.333408381164025E-1   -2.982773263020689E-1   -1.499946768083940E-2    3.294530838576191E-2   -1.322730789785525E-2    3.311233432308092E-2   -4.928713187671157E-1   -1.391881382294090E-1
 6.501116056150000E9    -4.339651590593366E-1   -2.973475441090081E-1   -1.499655040235287E-2    3.315710301515266E-2   -1.312951637514590E-2    3.326502809549781E-2   -4.932831946974771E-1   -1.378637856552597E-1
 6.501128808000000E9    -4.345655440029573E-1   -2.963817639055806E-1   -1.491512613100448E-2    3.338422293750105E-2   -1.320045374965940E-2    3.351073808764152E-2   -4.935569646051113E-1   -1.366441866298201E-1
 6.501141559850000E9    -4.351141894928716E-1   -2.955308866714420E-1   -1.492449092477161E-2    3.365774437647805E-2   -1.313987086781253E-2    3.369628864253544E-2   -4.936773281855049E-1   -1.354503344948794E-1
 6.501154311700000E9    -4.357010213426088E-1   -2.946244700583927E-1   -1.497660443057032E-2    3.384612922385211E-2   -1.319107470829901E-2    3.382965774493472E-2   -4.939773979916123E-1   -1.342295509490693E-1
 6.501167063550000E9    -4.362960954100057E-1   -2.937539057629933E-1   -1.496005346551847E-2    3.401241171563442E-2   -1.312683997209079E-2    3.402589834710788E-2   -4.942705831457456E-1   -1.329843996285388E-1
 6.501179815400000E9    -4.368229048242793E-1   -2.929680838592691E-1   -1.490773525301567E-2    3.428213358100587E-2   -1.308200374741821E-2    3.419050612839295E-2   -4.946570017059482E-1   -1.315394241112152E-1
 6.501192567250000E9    -4.374431551898676E-1   -2.918491629774034E-1   -1.501352420262989E-2    3.447234388797789E-2   -1.314355283380925E-2    3.446841502384210E-2   -4.947674485049970E-1   -1.303575342893667E-1
 6.501205319100000E9    -4.380387211978112E-1   -2.911024328082472E-1   -1.492942014552153E-2    3.478248236366179E-2   -1.315948855827477E-2    3.486167544544293E-2   -4.949810258344631E-1   -1.289264791381567E-1
 6.501218070950000E9    -4.384891022134405E-1   -2.901840413026074E-1   -1.492914072290664E-2    3.504155822496609E-2   -1.311930098604250E-2    3.496167664652092E-2   -4.953567477600817E-1   -1.277428643610556E-1
 6.501230822800000E9    -4.391137131885708E-1   -2.891742397694109E-1   -1.496184567745312E-2    3.522340180871692E-2   -1.300106484506872E-2    3.516570073665499E-2   -4.955959290363668E-1   -1.264301363550420E-1
 6.501243574650000E9    -4.397204523714474E-1   -2.883242631358469E-1   -1.485234079699307E-2    3.550144489321327E-2   -1.303805578313845E-2    3.539978923002232E-2   -4.958964644274380E-1   -1.252711952843105E-1
 6.501256326500000E9    -4.402849159308959E-1   -2.874092698529501E-1   -1.499734615513978E-2    3.570502414257636E-2   -1.304463540040613E-2    3.571032066818055E-2   -4.959643504961392E-1   -1.237546061148819E-1
 6.501269078350000E9    -4.408167368712514E-1   -2.864758489309409E-1   -1.500462090930059E-2    3.592059881719425E-2   -1.305969849765215E-2    3.589254024689918E-2   -4.962588468867963E-1   -1.225701588159908E-1
 6.501281830200000E9    -4.413918213730285E-1   -2.856203356779513E-1   -1.484331883407346E-2    3.627731996140341E-2   -1.307006306946565E-2    3.616966897179750E-2   -4.963133513221825E-1   -1.212826551770299E-1
 6.501294582050000E9    -4.419552924422150E-1   -2.845822773760305E-1   -1.504525112340429E-2    3.646878160743393E-2   -1.306080704857269E-2    3.640430264961691E-2   -4.966730153729261E-1   -1.199039096838962E-1
 6.501307333900000E9    -4.424737027758049E-1   -2.837153028751516E-1   -1.506838318001756E-2    3.659371203995648E-2   -1.296171327433415E-2    3.668817369032090E-2   -4.968821841451878E-1   -1.186812774495580E-1
 6.501320085750000E9    -4.430066226680384E-1   -2.828188934480280E-1   -1.490520468791801E-2    3.697448068154771E-2   -1.285316285688999E-2    3.690521188210625E-2   -4.972128121673258E-1   -1.173336525705944E-1
 6.501332837600000E9    -4.436743934433744E-1   -2.820094186957690E-1   -1.493585425198236E-2    3.724191211954728E-2   -1.289979471433495E-2    3.720198427425699E-2   -4.973803584162153E-1   -1.160914235697137E-1
 6.501345589450000E9    -4.441732377767965E-1   -2.809541914927157E-1   -1.495443663417798E-2    3.751200728161896E-2   -1.295210065938355E-2    3.741162276705290E-2   -4.975268785120207E-1   -1.146285740103741E-1
 6.501358341300000E9    -4.448626095443058E-1   -2.798830816855285E-1   -1.498610401222113E-2    3.779102126962829E-2   -1.286558953802948E-2    3.760329749784837E-2   -4.977813075386423E-1   -1.131568133000652E-1
 6.501371093150000E9    -4.452399815013158E-1   -2.790936119517618E-1   -1.493340870663221E-2    3.791168687646658E-2   -1.280415643575459E-2    3.790732584646749E-2   -4.978754089831330E-1   -1.118240906052384E-1
 6.501383845000000E9    -4.458302133431718E-1   -2.780616952790548E-1   -1.491130753682079E-2    3.837713227949913E-2   -1.284779158133458E-2    3.814766199151221E-2   -4.981027116923438E-1   -1.105205025038088E-1
 6.501396596850000E9    -4.463570853393596E-1   -2.771526806822898E-1   -1.495480605395330E-2    3.849129619151722E-2   -1.286289603823528E-2    3.846269431281731E-2   -4.983674551999405E-1   -1.092213618518916E-1
 6.501409348700000E9    -4.468315174052968E-1   -2.761797893789846E-1   -1.493633771999346E-2    3.883110526501749E-2   -1.282383750713162E-2    3.869340392842023E-2   -4.986327180832676E-1   -1.078254803115657E-1
 6.501422100550000E9    -4.474571307721608E-1   -2.752310023940508E-1   -1.492278539224507E-2    3.915157750796317E-2   -1.287554970880781E-2    3.899215141140151E-2   -4.987627999291993E-1   -1.064021921914987E-1
 6.501434852400000E9    -4.479108891952892E-1   -2.742105716562513E-1   -1.485256999185511E-2    3.938623545985440E-2   -1.279819484957632E-2    3.929114525642319E-2   -4.990271008204598E-1   -1.050514983635528E-1
 6.501447604250000E9    -4.485353249534596E-1   -2.733014939303048E-1   -1.481763389743256E-2    3.966135458095823E-2   -1.272422691723937E-2    3.946047282118300E-2   -4.990568861766488E-1   -1.035048595915691E-1
 6.501460356100000E9    -4.491148768927551E-1   -2.723429366512134E-1   -1.477722386927766E-2    3.994623726357084E-2   -1.278974077762258E-2    3.979927628585901E-2   -4.991466083923995E-1   -1.020796815637815E-1
 6.501473107950000E9    -4.496132734305489E-1   -2.713952907714747E-1   -1.479907620025184E-2    4.024685990243795E-2   -1.265328506779084E-2    4.008705859005041E-2   -4.994374204253728E-1   -1.009697969313098E-1
 6.501485859800000E9    -4.501699521336047E-1   -2.704769462102387E-1   -1.481061822861386E-2    4.064154647987542E-2   -1.268000842217391E-2    4.036554904612738E-2   -4.995624067394951E-1   -9.937566812018712E-2
 6.501498611650000E9    -4.507281559591300E-1   -2.695044957402648E-1   -1.478845744593740E-2    4.078516596774968E-2   -1.265614486439730E-2    4.057985244995648E-2   -4.998967535564953E-1   -9.792782830994459E-2
 6.501511363500000E9    -4.511399787832856E-1   -2.684734309369998E-1   -1.477505483437747E-2    4.121748397192589E-2   -1.264306518199789E-2    4.100210327604581E-2   -5.001163685042036E-1   -9.671330956955332E-2
 6.501524115350000E9    -4.517490334158896E-1   -2.675139331963292E-1   -1.476999123174558E-2    4.158823611648719E-2   -1.256554857981938E-2    4.138248530974096E-2   -5.001781861622405E-1   -9.532358874965331E-2
 6.501536867200000E9    -4.521855548347117E-1   -2.664670235150353E-1   -1.473344271630583E-2    4.185784887754689E-2   -1.248927783114785E-2    4.150254623635943E-2   -5.002558333368587E-1   -9.387719055202935E-2
 6.501549619050000E9    -4.527313703540762E-1   -2.656750262671616E-1   -1.470707556477965E-2    4.227255461571375E-2   -1.259103616467151E-2    4.193504782225344E-2   -5.004528711621676E-1   -9.231191347003445E-2
 6.501562370900000E9    -4.533465907590627E-1   -2.645080367834546E-1   -1.463258483263604E-2    4.248678935750210E-2   -1.252180083085427E-2    4.218451430643558E-2   -5.005904762874971E-1   -9.079850789976965E-2
 6.501575122750000E9    -4.538959729666627E-1   -2.636423731220950E-1   -1.468263622511907E-2    4.270656999609666E-2   -1.246452184143972E-2    4.247224170750894E-2   -5.007942073481269E-1   -8.942430722700455E-2
 6.501587874600000E9    -4.543351326206573E-1   -2.625583880197121E-1   -1.464184354368268E-2    4.315994815431492E-2   -1.249301329118233E-2    4.286914202023555E-2   -5.008170442456028E-1   -8.799814916589975E-2
 6.501600626450000E9    -4.548593335696912E-1   -2.615763575163236E-1   -1.455490914488581E-2    4.340975595663196E-2   -1.236329538931871E-2    4.313257947568553E-2   -5.011165829157594E-1   -8.649950353867057E-2
 6.501613378300000E9    -4.554366357948880E-1   -2.606260840642100E-1   -1.464284095069070E-2    4.384586122631715E-2   -1.231896959768436E-2    4.340989944718791E-2   -5.011384480704227E-1   -8.513172525919820E-2
 6.501626130150000E9    -4.558748317977855E-1   -2.596345609006384E-1   -1.464576323533482E-2    4.407200012433328E-2   -1.236579774024239E-2    4.385723023071340E-2   -5.013001711190073E-1   -8.370827975430666E-2
 6.501638882000000E9    -4.564811205610929E-1   -2.585721858254162E-1   -1.462349358271609E-2    4.457426157697932E-2   -1.233165529906085E-2    4.419552403429657E-2   -5.013458197938162E-1   -8.204534607647290E-2
 6.501651633850000E9    -4.569943848470823E-1   -2.575594337810578E-1   -1.453422165422562E-2    4.482918964731955E-2   -1.226767159291336E-2    4.440645073057992E-2   -5.015255919991795E-1   -8.063643505155790E-2
 6.501664385700000E9    -4.573783533133842E-1   -2.566251568621907E-1   -1.451337069388505E-2    4.522318563156594E-2   -1.224123652573259E-2    4.486271846195806E-2   -5.015361395723952E-1   -7.906146330963633E-2
 6.501677137550000E9    -4.579156999557059E-1   -2.555431608440838E-1   -1.448491121721168E-2    4.551321343775419E-2   -1.220625959792040E-2    4.516324219803101E-2   -5.017562076822901E-1   -7.754305163354046E-2
 6.501689889400000E9    -4.584535990356108E-1   -2.545510963676040E-1   -1.447866921779661E-2    4.600107891556048E-2   -1.215343562625873E-2    4.568596103685231E-2   -5.019204668684665E-1   -7.594039508968978E-2
 6.501702641250000E9    -4.589416531214942E-1   -2.536569506619130E-1   -1.447117159463378E-2    4.623082975586975E-2   -1.210948663600081E-2    4.584464165825010E-2   -5.018305797562245E-1   -7.441115540614203E-2
 6.501715393100000E9    -4.594107764991160E-1   -2.525700679226552E-1   -1.447037179844499E-2    4.662853832245371E-2   -1.204201339172671E-2    4.626619819998872E-2   -5.021223046889070E-1   -7.291317431032873E-2
 6.501728144950000E9    -4.600010595318034E-1   -2.515562765193455E-1   -1.427807745896335E-2    4.700634649754865E-2   -1.198243791823368E-2    4.660452148395458E-2   -5.021160470523340E-1   -7.148039738395157E-2
 6.501740896800000E9    -4.604451774849823E-1   -2.504636282475090E-1   -1.433134884863115E-2    4.736176108708827E-2   -1.186187094134614E-2    4.698971608882534E-2   -5.021671636130196E-1   -6.983365604406083E-2
 6.501753648650000E9    -4.609009567870533E-1   -2.495051945639370E-1   -1.426021446877377E-2    4.788668205481223E-2   -1.193049883172892E-2    4.739032695418892E-2   -5.022228666823898E-1   -6.820966399767237E-2
 6.501766400500000E9    -4.614828748644842E-1   -2.483684368807944E-1   -1.429966625662921E-2    4.819209475010084E-2   -1.177438146988982E-2    4.777369726404016E-2   -5.023113226043663E-1   -6.664395232962946E-2
 6.501779152350000E9    -4.618943144433534E-1   -2.473531840651362E-1   -1.421175767783513E-2    4.867976966910938E-2   -1.174700576086508E-2    4.827037357842872E-2   -5.023227516105726E-1   -6.510633000352008E-2
 6.501791904200000E9    -4.624531215862194E-1   -2.463125946516781E-1   -1.424452575453753E-2    4.904928464153158E-2   -1.181922750132106E-2    4.859908408026254E-2   -5.023388409258689E-1   -6.347356768204590E-2
 6.501804656050000E9    -4.629321158305078E-1   -2.451708698151849E-1   -1.411420848465412E-2    4.946576296524423E-2   -1.172501273815084E-2    4.887796204704999E-2   -5.024916571243979E-1   -6.178083658907928E-2
 6.501817407900000E9    -4.633652442835753E-1   -2.442024175499420E-1   -1.410767470639051E-2    4.977239622792912E-2   -1.163643934772628E-2    4.932763370984935E-2   -5.024995791531502E-1   -6.011825015360707E-2
 6.501830159750000E9    -4.639985534623852E-1   -2.430940503003451E-1   -1.409109996723088E-2    5.033196736336029E-2   -1.153157053193961E-2    4.977235317213363E-2   -5.025688511117030E-1   -5.862101824387511E-2
 6.501842911600000E9    -4.643428252659061E-1   -2.420420790808099E-1   -1.396708672783990E-2    5.063714275145825E-2   -1.151502703662309E-2    5.016706453069885E-2   -5.024697629264334E-1   -5.699341756713699E-2
 6.501855663450000E9    -4.648334495695484E-1   -2.409913824774363E-1   -1.393750937902882E-2    5.114098289645724E-2   -1.148777452944225E-2    5.059620686024952E-2   -5.025691443553190E-1   -5.535972277328586E-2
 6.501868415300000E9    -4.653514742133585E-1   -2.398994875189715E-1   -1.403213805478755E-2    5.167310487817650E-2   -1.137100288793822E-2    5.109585126800044E-2   -5.025806270252954E-1   -5.365186929003768E-2
 6.501881167150000E9    -4.658102010693166E-1   -2.388246397006628E-1   -1.386732982283461E-2    5.210865525448032E-2   -1.132234995499782E-2    5.155103881478005E-2   -5.025666726404877E-1   -5.195255355623112E-2
 6.501893919000000E9    -4.662341159110245E-1   -2.376354719204489E-1   -1.371517087345547E-2    5.251249357977069E-2   -1.132619319516886E-2    5.206296968482201E-2   -5.026510560958390E-1   -5.023867623425422E-2
 6.501906670850000E9    -4.667593340058634E-1   -2.366228189523590E-1   -1.382898901771023E-2    5.305308965824918E-2   -1.112649481454834E-2    5.241419882752733E-2   -5.025646728720068E-1   -4.853562704199971E-2
 6.501919422700000E9    -4.672524487942084E-1   -2.355361702679681E-1   -1.369961807827771E-2    5.352889543016405E-2   -1.097930425446872E-2    5.285463719147159E-2   -5.025864920734294E-1   -4.694531942375051E-2
 6.501932174550000E9    -4.676511945210093E-1   -2.345004895725886E-1   -1.363813743877982E-2    5.397838179911434E-2   -1.100759290902096E-2    5.336219161856706E-2   -5.024974521510690E-1   -4.512560042454331E-2
 6.501944926400000E9    -4.681486373424251E-1   -2.334462574180726E-1   -1.353869406656636E-2    5.455094401344036E-2   -1.087456377778355E-2    5.384223223133812E-2   -5.024522959635069E-1   -4.335881710911169E-2
 6.501957678250000E9    -4.685864542682050E-1   -2.322745102540060E-1   -1.351124100604602E-2    5.489361901218570E-2   -1.087719463996687E-2    5.424650729469186E-2   -5.023441621836107E-1   -4.154867210539483E-2
 6.501970430100000E9    -4.690737958855690E-1   -2.311099333594926E-1   -1.331944476317519E-2    5.544862287921448E-2   -1.074794456310038E-2    5.483412641864185E-2   -5.024900980237071E-1   -3.980981707229337E-2
 6.501983181950000E9    -4.695615180336608E-1   -2.301508050505675E-1   -1.330021135838473E-2    5.596752208240725E-2   -1.062886369047656E-2    5.539097458292992E-2   -5.022980733800247E-1   -3.802869913251113E-2
 6.501995933800000E9    -4.700827087239085E-1   -2.289772801430085E-1   -1.329973513619740E-2    5.644364373694024E-2   -1.061600804414241E-2    5.585109594709371E-2   -5.023554685972317E-1   -3.627610502943386E-2
 6.502008685650000E9    -4.705063288901466E-1   -2.277796740321655E-1   -1.301610375750151E-2    5.720837089978956E-2   -1.046988857589132E-2    5.630802487771990E-2   -5.021548522019211E-1   -3.461046316119120E-2
 6.502021437500000E9    -4.708762330206160E-1   -2.266458608099604E-1   -1.316122834596505E-2    5.764479608533525E-2   -1.040287703354711E-2    5.690203367853291E-2   -5.021722902149497E-1   -3.261722452586008E-2
