#  HZ   S   RI   R     50.00 
! Rohde & Schwarz Vector Network Analyzer 
! Rohde-Schwarz,ZNB20-2Port,1311601062101988,3.16
! Created: UTC 3/20/2024, 11:48:35 AM
! freq[Hz]                re:S11                  im:S11                  re:S21                  im:S21                  re:S12                  im:S12                  re:S22                  im:S22
 6.500863270000000E9    -4.222297673856542E-1   -3.146766525305073E-1   -1.485121520310833E-2    2.937495741619942E-2   -1.333277162076021E-2    2.949347079851738E-2   -4.872965192553672E-1   -1.619912628162423E-1
 6.500876054525000E9    -4.230134122347017E-1   -3.138486307162652E-1   -1.487303844104581E-2    2.950800825201979E-2   -1.335106322301982E-2    2.971648056161805E-2   -4.877439252638609E-1   -1.606642157051367E-1
 6.500888839050000E9    -4.234169375630070E-1   -3.128709112922578E-1   -1.485699755028607E-2    2.976777901903212E-2   -1.326989255036176E-2    2.994261310540990E-2   -4.881707551909302E-1   -1.596344969559743E-1
 6.500901623575000E9    -4.240559707323945E-1   -3.121960361914352E-1   -1.504534624734824E-2    2.990375840572532E-2   -1.332905606178820E-2    3.003336294757580E-2   -4.883946638976106E-1   -1.582633565008265E-1
 6.500914408100000E9    -4.246221658929531E-1   -3.112288566703037E-1   -1.493801135719505E-2    3.021001579823966E-2   -1.332226750416008E-2    3.028551466669564E-2   -4.886201242995514E-1   -1.571210408408080E-1
 6.500927192625000E9    -4.252545667252195E-1   -3.102782462112292E-1   -1.515650961534999E-2    3.031830498791982E-2   -1.319703766829922E-2    3.034700543710574E-2   -4.889379955435647E-1   -1.559976868971118E-1
 6.500939977150000E9    -4.258415461245875E-1   -3.094940431798339E-1   -1.498369747833861E-2    3.041768897646220E-2   -1.331848311562845E-2    3.052381827894331E-2   -4.892460559152582E-1   -1.547070464187340E-1
 6.500952761675000E9    -4.264494718427610E-1   -3.085611843670481E-1   -1.509472766443736E-2    3.084849145281613E-2   -1.337735579011923E-2    3.071756854065705E-2   -4.895110169324001E-1   -1.535986314727723E-1
 6.500965546200000E9    -4.270508853711525E-1   -3.078040734929096E-1   -1.495968788352503E-2    3.090600492301422E-2   -1.324183606110582E-2    3.098038406326476E-2   -4.898153045284030E-1   -1.523038379071106E-1
 6.500978330725000E9    -4.276146166193965E-1   -3.068256373940003E-1   -1.490810407090732E-2    3.112804871347315E-2   -1.328084899826824E-2    3.121126908316578E-2   -4.903459532504486E-1   -1.511868452144707E-1
 6.500991115250000E9    -4.282927320394386E-1   -3.060242908881843E-1   -1.500943191530607E-2    3.128048219907988E-2   -1.331823131225644E-2    3.138906307209006E-2   -4.904850544033481E-1   -1.498545104700587E-1
 6.501003899775000E9    -4.287835206070699E-1   -3.050801361912265E-1   -1.490826351801661E-2    3.141328562167463E-2   -1.327124329322780E-2    3.150999323290676E-2   -4.908423268263797E-1   -1.486789161240783E-1
 6.501016684300000E9    -4.294279782943425E-1   -3.041674639844489E-1   -1.497729888679095E-2    3.173174074996062E-2   -1.315296978045334E-2    3.166413305209256E-2   -4.910730178477836E-1   -1.475099374612464E-1
 6.501029468825000E9    -4.300966185340991E-1   -3.033373431977596E-1   -1.504705228022171E-2    3.175419175440847E-2   -1.321836228781408E-2    3.191628081442638E-2   -4.913834925084061E-1   -1.462326565782227E-1
 6.501042253350000E9    -4.305879762635698E-1   -3.025192141739261E-1   -1.507607418553643E-2    3.212284337561742E-2   -1.311126250655096E-2    3.209174509478906E-2   -4.916422766845923E-1   -1.450971842988980E-1
 6.501055037875000E9    -4.312299852959708E-1   -3.014879887673657E-1   -1.498107833463551E-2    3.233236733719762E-2   -1.326583691204807E-2    3.231407876331501E-2   -4.918839426326824E-1   -1.438538188867029E-1
 6.501067822400000E9    -4.317376670346383E-1   -3.006505194164382E-1   -1.503164360831058E-2    3.237232918741088E-2   -1.326122618441534E-2    3.243009695875965E-2   -4.921737223013484E-1   -1.425838444393141E-1
 6.501080606925000E9    -4.323350253148968E-1   -2.998169888494576E-1   -1.510047308491446E-2    3.256781824032493E-2   -1.320171518441969E-2    3.272083224761792E-2   -4.923390085295792E-1   -1.412648983574262E-1
 6.501093391450000E9    -4.329266076944951E-1   -2.989680000911495E-1   -1.488367479847440E-2    3.285409612732791E-2   -1.314542585829440E-2    3.289983662157657E-2   -4.927129675010705E-1   -1.401044735110475E-1
 6.501106175975000E9    -4.335442893995009E-1   -2.980394176620641E-1   -1.504071482943739E-2    3.310327420366817E-2   -1.313448260768707E-2    3.306758221423713E-2   -4.930175557460911E-1   -1.386794563409131E-1
 6.501118960500000E9    -4.341482359023056E-1   -2.970401384278961E-1   -1.504074411526422E-2    3.324906307293880E-2   -1.322615162967412E-2    3.339385311497087E-2   -4.932084292480662E-1   -1.374952678475150E-1
 6.501131745025000E9    -4.346930369761218E-1   -2.962563081446625E-1   -1.504031464463423E-2    3.352386335826774E-2   -1.308486005841832E-2    3.356230454296452E-2   -4.934447064878966E-1   -1.362674250070397E-1
 6.501144529550000E9    -4.351748724750015E-1   -2.952850656552843E-1   -1.500645601090747E-2    3.375144568731969E-2   -1.318079587796613E-2    3.375140221941452E-2   -4.938256165145981E-1   -1.350556412999038E-1
 6.501157314075000E9    -4.358576895651358E-1   -2.944213789158774E-1   -1.500390061451825E-2    3.403324832629002E-2   -1.315056719330102E-2    3.393950912593632E-2   -4.940441363237758E-1   -1.336915393784026E-1
 6.501170098600000E9    -4.363818250156485E-1   -2.934563962553947E-1   -1.498944010322861E-2    3.418079241853446E-2   -1.307693174536930E-2    3.423392769562261E-2   -4.942748039569414E-1   -1.325015426697460E-1
 6.501182883125000E9    -4.370361885684665E-1   -2.925430407840426E-1   -1.476788373261419E-2    3.451885793569041E-2   -1.317022305898159E-2    3.444101977012707E-2   -4.945885020326221E-1   -1.310620369031500E-1
 6.501195667650000E9    -4.376260238927029E-1   -2.916318467516001E-1   -1.498161708562273E-2    3.459949340136831E-2   -1.311873657906957E-2    3.470604767974190E-2   -4.947948752791317E-1   -1.300018056429057E-1
 6.501208452175000E9    -4.381689438739146E-1   -2.907786441605427E-1   -1.500126143587004E-2    3.494212259618219E-2   -1.311443706127941E-2    3.485888720314228E-2   -4.950269647370659E-1   -1.286196397404260E-1
 6.501221236700000E9    -4.387877487819403E-1   -2.898330409634984E-1   -1.491051128448411E-2    3.511241187647826E-2   -1.310550787012278E-2    3.512367061468047E-2   -4.953686921711217E-1   -1.273104274715624E-1
 6.501234021225000E9    -4.392451499665553E-1   -2.888313476772629E-1   -1.492951537270170E-2    3.546601742919962E-2   -1.308441121095128E-2    3.537706516780504E-2   -4.954414427775094E-1   -1.260819296504920E-1
 6.501246805750000E9    -4.398614074914096E-1   -2.880161445830974E-1   -1.503097787253667E-2    3.552174181666299E-2   -1.303986266414488E-2    3.555312592471826E-2   -4.957544593251870E-1   -1.246947825185910E-1
 6.501259590275000E9    -4.404626948690176E-1   -2.871151131808968E-1   -1.502585311313180E-2    3.582913537563071E-2   -1.308919376013068E-2    3.579430017258926E-2   -4.960949218685921E-1   -1.233931396277213E-1
 6.501272374800000E9    -4.409963105270404E-1   -2.861158014070799E-1   -1.501888425390298E-2    3.614624876884873E-2   -1.301143869965802E-2    3.608473259438685E-2   -4.961052136445954E-1   -1.220668496140302E-1
 6.501285159325000E9    -4.416498967037228E-1   -2.852625778802614E-1   -1.506844506678632E-2    3.642943018298245E-2   -1.313855359762283E-2    3.635054446729537E-2   -4.965068637349017E-1   -1.206942792556094E-1
 6.501297943850000E9    -4.421274037840227E-1   -2.842959498028315E-1   -1.483262626520725E-2    3.673440217051908E-2   -1.309128569654541E-2    3.653719949648423E-2   -4.966189430303597E-1   -1.195920157394501E-1
 6.501310728375000E9    -4.426567265049217E-1   -2.833307872719846E-1   -1.491855237248865E-2    3.692065293893352E-2   -1.296941367482094E-2    3.671584743209531E-2   -4.969519505224086E-1   -1.181871751569957E-1
 6.501323512900000E9    -4.432511902323249E-1   -2.824020069625496E-1   -1.480609921339999E-2    3.704998769326615E-2   -1.294578567387918E-2    3.697571747652167E-2   -4.970913602366047E-1   -1.168326427313137E-1
 6.501336297425000E9    -4.437160384451510E-1   -2.814368929047414E-1   -1.491681756273783E-2    3.746038078452092E-2   -1.303221667513828E-2    3.729835296231699E-2   -4.973981035408796E-1   -1.153913504342853E-1
 6.501349081950000E9    -4.444771699496146E-1   -2.806005931427657E-1   -1.481680293813785E-2    3.771373477812590E-2   -1.301523920546694E-2    3.761100493980324E-2   -4.975102373450065E-1   -1.140164075364521E-1
 6.501361866475000E9    -4.449355447579140E-1   -2.794966850232080E-1   -1.486145309252270E-2    3.788093912063031E-2   -1.291903871099672E-2    3.779433908911739E-2   -4.977599487291748E-1   -1.126428436732427E-1
 6.501374651000000E9    -4.453093171586150E-1   -2.787371343994106E-1   -1.497579164304430E-2    3.817985664537879E-2   -1.287742664977710E-2    3.810313560227130E-2   -4.980059233996688E-1   -1.114380143356375E-1
 6.501387435525000E9    -4.459867480062164E-1   -2.777286676823282E-1   -1.488539400947447E-2    3.843395990524435E-2   -1.290010618128841E-2    3.835193849123018E-2   -4.981957911313973E-1   -1.099850469673490E-1
 6.501400220050000E9    -4.465207310332348E-1   -2.767935786986443E-1   -1.491700594936169E-2    3.869214959462487E-2   -1.276214032571765E-2    3.850337075414099E-2   -4.984002071925394E-1   -1.086122856212795E-1
 6.501413004575000E9    -4.470885016075257E-1   -2.758201419142330E-1   -1.490717451835872E-2    3.912103474320588E-2   -1.280323555230117E-2    3.889728787995824E-2   -4.986016736085838E-1   -1.073734048768579E-1
 6.501425789100000E9    -4.475952959834165E-1   -2.749264421433776E-1   -1.484704122216421E-2    3.922059326390463E-2   -1.283664059622107E-2    3.910357644169467E-2   -4.986401747592681E-1   -1.058877502619318E-1
 6.501438573625000E9    -4.481314546287495E-1   -2.738962771071757E-1   -1.490936269444115E-2    3.963645253924370E-2   -1.277099975918564E-2    3.943347814649940E-2   -4.988914062344819E-1   -1.045661231518024E-1
 6.501451358150000E9    -4.487197377518869E-1   -2.729372833967437E-1   -1.483895465418518E-2    3.983758653915639E-2   -1.278799743805252E-2    3.977980892110724E-2   -4.991543977045498E-1   -1.031656091846157E-1
 6.501464142675000E9    -4.492100554828257E-1   -2.720085190980289E-1   -1.484685270365729E-2    4.019249924973903E-2   -1.267533915461644E-2    4.004433708701903E-2   -4.993136818652687E-1   -1.018203736059254E-1
 6.501476927200000E9    -4.498107901395441E-1   -2.709296272651713E-1   -1.494236091134751E-2    4.034275877672111E-2   -1.265313982030257E-2    4.023695879061647E-2   -4.994918789677312E-1   -1.003801384973678E-1
 6.501489711725000E9    -4.502443183288861E-1   -2.700495449851580E-1   -1.488351184827135E-2    4.070574838935417E-2   -1.262864291287354E-2    4.052523276791210E-2   -4.996801916172042E-1   -9.890261111871279E-2
 6.501502496250000E9    -4.508038350716884E-1   -2.690900697586513E-1   -1.481804694111875E-2    4.105394937727065E-2   -1.263837357539586E-2    4.083650615930188E-2   -4.997544227361231E-1   -9.764865236537472E-2
 6.501515280775000E9    -4.513427431149223E-1   -2.680606934082188E-1   -1.481788990216340E-2    4.141462048157175E-2   -1.265437484223727E-2    4.107351119020241E-2   -4.999333567288136E-1   -9.599124362266077E-2
 6.501528065300000E9    -4.519838546932929E-1   -2.671277713423487E-1   -1.463697088632845E-2    4.167936830136218E-2   -1.262943958940359E-2    4.146940724433309E-2   -5.001839685988052E-1   -9.461656066547343E-2
 6.501540849825000E9    -4.525295202831270E-1   -2.661275051302191E-1   -1.482150392648080E-2    4.199784519003035E-2   -1.256577351441103E-2    4.180678855233320E-2   -5.004314773122592E-1   -9.333661893735566E-2
 6.501553634350000E9    -4.529381873178244E-1   -2.651972022157968E-1   -1.477685450658023E-2    4.237787058548746E-2   -1.260021451788615E-2    4.212423106955054E-2   -5.004911319215883E-1   -9.168052083542252E-2
 6.501566418875000E9    -4.535169763585185E-1   -2.641535811182661E-1   -1.465732627823275E-2    4.270556369442320E-2   -1.248211989987233E-2    4.244393631676926E-2   -5.006250653666767E-1   -9.021228965965945E-2
 6.501579203400000E9    -4.539582275305821E-1   -2.631625275764906E-1   -1.466184850965939E-2    4.301367644476856E-2   -1.246247150253419E-2    4.264494269060476E-2   -5.006602185030889E-1   -8.882124991245607E-2
 6.501591987925000E9    -4.545088593965233E-1   -2.621658927138210E-1   -1.472202422763332E-2    4.335408032008350E-2   -1.250046274218350E-2    4.297367769493513E-2   -5.007764611754728E-1   -8.742193375520163E-2
 6.501604772450000E9    -4.550276192090791E-1   -2.611026197446153E-1   -1.463483228758942E-2    4.360494983071415E-2   -1.241681417968231E-2    4.338461542847963E-2   -5.010546523014243E-1   -8.585394065140464E-2
 6.501617556975000E9    -4.555357853104161E-1   -2.602148713221126E-1   -1.457951092438086E-2    4.406738743189325E-2   -1.231683971904617E-2    4.364202378661012E-2   -5.010990856921567E-1   -8.447635284993936E-2
 6.501630341500000E9    -4.560453506409175E-1   -2.591409711022992E-1   -1.457911880811522E-2    4.423128279362572E-2   -1.241000781309724E-2    4.405146231728720E-2   -5.012704689344113E-1   -8.282823312899273E-2
 6.501643126025000E9    -4.565260223857197E-1   -2.581192777506698E-1   -1.464604912490516E-2    4.462637738949304E-2   -1.228844642115424E-2    4.437138365028126E-2   -5.012638530265783E-1   -8.142063160280381E-2
 6.501655910550000E9    -4.570237927353240E-1   -2.571937389021900E-1   -1.450771921976748E-2    4.496905409200550E-2   -1.231566734669750E-2    4.469422474832723E-2   -5.013460256886861E-1   -7.993548705948883E-2
 6.501668695075000E9    -4.576483377757454E-1   -2.561872221490160E-1   -1.448368448901801E-2    4.545989584309971E-2   -1.220650019219581E-2    4.512384029696238E-2   -5.016694688327327E-1   -7.837250273963194E-2
 6.501681479600000E9    -4.581603953066303E-1   -2.552090927093559E-1   -1.444449020500763E-2    4.579047690189197E-2   -1.217418474099577E-2    4.549648940217284E-2   -5.016999016763585E-1   -7.686752086701361E-2
 6.501694264125000E9    -4.586363638617458E-1   -2.540913022819086E-1   -1.447817569540925E-2    4.630305385216087E-2   -1.214211509328531E-2    4.579084902658629E-2   -5.017610131537106E-1   -7.534376128250932E-2
 6.501707048650000E9    -4.591966855890836E-1   -2.532162092851661E-1   -1.447722488350213E-2    4.649989134346929E-2   -1.207129435634527E-2    4.615329162158485E-2   -5.020150654539041E-1   -7.374994158969886E-2
 6.501719833175000E9    -4.596704703349652E-1   -2.520469070798230E-1   -1.434971824344577E-2    4.684727210846884E-2   -1.211290802525987E-2    4.645500214153105E-2   -5.018655713849052E-1   -7.222967624483551E-2
 6.501732617700000E9    -4.601237991472255E-1   -2.510223795138341E-1   -1.423845163068124E-2    4.714503501478449E-2   -1.204571945021806E-2    4.684414980702591E-2   -5.020947331585903E-1   -7.085302412077711E-2
 6.501745402225000E9    -4.606329491460388E-1   -2.499403502339981E-1   -1.436047865768977E-2    4.773966539884927E-2   -1.193338191536587E-2    4.733353659297301E-2   -5.020017408488667E-1   -6.916062208579313E-2
 6.501758186750000E9    -4.611856820236434E-1   -2.489829135545684E-1   -1.433965082423400E-2    4.807338909808397E-2   -1.188534703442071E-2    4.759050279712761E-2   -5.022678884755026E-1   -6.759032502870900E-2
 6.501770971275000E9    -4.615952780347380E-1   -2.478553686064677E-1   -1.419228639226317E-2    4.855617751051306E-2   -1.190259640195413E-2    4.802006486907198E-2   -5.022473306194850E-1   -6.582856486782844E-2
 6.501783755800000E9    -4.621190064185255E-1   -2.468747507883519E-1   -1.428452644977520E-2    4.888049618942827E-2   -1.183074594239943E-2    4.845758778942601E-2   -5.023419083955858E-1   -6.432560303620602E-2
 6.501796540325000E9    -4.626067251094786E-1   -2.458504505452839E-1   -1.417919083424531E-2    4.928117466309591E-2   -1.178213123480756E-2    4.885919837464106E-2   -5.023618325522360E-1   -6.271290475830843E-2
 6.501809324850000E9    -4.632546550021452E-1   -2.448965957725302E-1   -1.414971846595675E-2    4.964667075617994E-2   -1.163826352702229E-2    4.928849926179598E-2   -5.024393786062102E-1   -6.110228177115449E-2
 6.501822109375000E9    -4.635545975887222E-1   -2.436644707465771E-1   -1.416850565967246E-2    5.024672875142630E-2   -1.160975152144487E-2    4.961391985794803E-2   -5.024250048654859E-1   -5.935410225528071E-2
 6.501834893900000E9    -4.640855041792936E-1   -2.426126058842066E-1   -1.415403673515116E-2    5.058344239760797E-2   -1.157223769531920E-2    5.003086092659055E-2   -5.023284739487509E-1   -5.779357159986602E-2
 6.501847678425000E9    -4.645227435725182E-1   -2.415507669020892E-1   -1.405022302352579E-2    5.094989739581712E-2   -1.149269014653858E-2    5.048842008944726E-2   -5.025223526916396E-1   -5.612664213521481E-2
 6.501860462950000E9    -4.650170923705786E-1   -2.403907662497651E-1   -1.386133743499538E-2    5.152647359241119E-2   -1.140149271684420E-2    5.098596353301372E-2   -5.025588725740571E-1   -5.448932834271698E-2
 6.501873247475000E9    -4.655127705457838E-1   -2.393296746201688E-1   -1.395350621014667E-2    5.198030630833069E-2   -1.126783347301052E-2    5.135261236943207E-2   -5.024633486396333E-1   -5.283035789312540E-2
 6.501886032000000E9    -4.659183287430936E-1   -2.382358516043668E-1   -1.370007954781233E-2    5.245001502007839E-2   -1.126245949256003E-2    5.179626579676062E-2   -5.025578911820661E-1   -5.116519864338207E-2
 6.501898816525000E9    -4.663847579609686E-1   -2.371843299630416E-1   -1.365625329649170E-2    5.295764364411708E-2   -1.117761569893328E-2    5.222206997421616E-2   -5.025215035456558E-1   -4.940559950772463E-2
 6.501911601050000E9    -4.669602083250497E-1   -2.362048012067383E-1   -1.372538643619743E-2    5.346833370383180E-2   -1.114280308668917E-2    5.277263813582588E-2   -5.023628303763223E-1   -4.764630133759984E-2
 6.501924385575000E9    -4.673400121888920E-1   -2.350293106094049E-1   -1.358837706524837E-2    5.381879085211967E-2   -1.098361852752657E-2    5.319263792586065E-2   -5.024898663633302E-1   -4.605509418691649E-2
 6.501937170100000E9    -4.679437885957880E-1   -2.339309941121501E-1   -1.352813705278325E-2    5.450295958389879E-2   -1.102744553202854E-2    5.367085580797585E-2   -5.024780762826129E-1   -4.422991649350132E-2
 6.501949954625000E9    -4.682991348167482E-1   -2.328111961172446E-1   -1.353716201252369E-2    5.484991007647477E-2   -1.083831555740998E-2    5.419323325708025E-2   -5.023906727836602E-1   -4.239085005074847E-2
 6.501962739150000E9    -4.688772195821455E-1   -2.316902358680145E-1   -1.346225272859772E-2    5.529235255085349E-2   -1.087393127583125E-2    5.457656611742797E-2   -5.020863949041461E-1   -4.080532024559481E-2
 6.501975523675000E9    -4.692844588511386E-1   -2.306007606138697E-1   -1.352427541873575E-2    5.577504383532698E-2   -1.066120461654280E-2    5.521652429785088E-2   -5.022128175940554E-1   -3.891619241282454E-2
 6.501988308200000E9    -4.698314953932901E-1   -2.294362213551101E-1   -1.330964119087978E-2    5.634781991252373E-2   -1.064909902778193E-2    5.562013560932126E-2   -5.021621665945439E-1   -3.702857222748817E-2
 6.502001092725000E9    -4.700918968766851E-1   -2.283602491507672E-1   -1.321695112142505E-2    5.686778722305374E-2   -1.051696781970759E-2    5.610615305112878E-2   -5.021398467443203E-1   -3.522488473748341E-2
 6.502013877250000E9    -4.706552443268828E-1   -2.271864488671116E-1   -1.304415515444319E-2    5.752609536670798E-2   -1.037578600387654E-2    5.668987114265069E-2   -5.021922973109884E-1   -3.347468497590917E-2
