#  HZ   S   RI   R     50.00 
! Rohde & Schwarz Vector Network Analyzer 
! Rohde-Schwarz,ZNB20-2Port,1311601062101988,3.16
! Created: UTC 3/20/2024, 11:37:11 AM
! freq[Hz]                re:S11                  im:S11                  re:S21                  im:S21                  re:S12                  im:S12                  re:S22                  im:S22
 6.501171788000000E9    -4.362270412898119E-1   -2.945693647186438E-1   -1.460771832588176E-2    3.256507712306238E-2   -1.296414994235118E-2    3.271118936852756E-2   -4.954307224443841E-1   -1.327748064383036E-1
 6.501183559700000E9    -4.367787209988608E-1   -2.938607372032160E-1   -1.474828800643702E-2    3.272119937856051E-2   -1.302160014783002E-2    3.284584644255837E-2   -4.953339406448352E-1   -1.315463449723178E-1
 6.501195331400000E9    -4.372105936064603E-1   -2.930865875544602E-1   -1.473841456303602E-2    3.294841967998354E-2   -1.290334691096883E-2    3.298325081537846E-2   -4.957675938314122E-1   -1.305292415413602E-1
 6.501207103100000E9    -4.378919075056369E-1   -2.921328266503802E-1   -1.467172411601744E-2    3.325015017914842E-2   -1.292680046018455E-2    3.316482700364611E-2   -4.961658662861740E-1   -1.293413438422682E-1
 6.501218874800000E9    -4.383195204465968E-1   -2.914493336510267E-1   -1.464406727659284E-2    3.343346591938449E-2   -1.282757467436326E-2    3.345408349432251E-2   -4.963295471395885E-1   -1.281731787730743E-1
 6.501230646500000E9    -4.388627374882965E-1   -2.905244359045629E-1   -1.467608020488704E-2    3.367511349961406E-2   -1.298265391396965E-2    3.361382918314478E-2   -4.966539052982729E-1   -1.270002916263600E-1
 6.501242418200000E9    -4.393853322656647E-1   -2.897353526960876E-1   -1.473395835184551E-2    3.389843295128438E-2   -1.291811784386287E-2    3.375133374713006E-2   -4.966489370033081E-1   -1.258037406441848E-1
 6.501254189900000E9    -4.398609347444721E-1   -2.889028631101533E-1   -1.475909772134902E-2    3.416043690601143E-2   -1.285314431081531E-2    3.402720219968335E-2   -4.969251151230534E-1   -1.246432968512465E-1
 6.501265961600000E9    -4.404446643672753E-1   -2.881208820741039E-1   -1.473308790218615E-2    3.429683808568818E-2   -1.292795512241014E-2    3.414788217902558E-2   -4.971826298981362E-1   -1.234927686190016E-1
 6.501277733300000E9    -4.408805095276406E-1   -2.871164901132122E-1   -1.475915835441459E-2    3.439781688807085E-2   -1.288502133043116E-2    3.445010749666097E-2   -4.974079686654762E-1   -1.222801476948539E-1
 6.501289505000000E9    -4.414853838625067E-1   -2.862680304730628E-1   -1.473804962211683E-2    3.475927744690120E-2   -1.288608149065266E-2    3.461163082119007E-2   -4.977063767483789E-1   -1.211230470235938E-1
 6.501301276700000E9    -4.419935930610442E-1   -2.855689607335018E-1   -1.467076046979590E-2    3.493088912474172E-2   -1.280535783010088E-2    3.474612870311188E-2   -4.978504906503740E-1   -1.198643356023414E-1
 6.501313048400000E9    -4.424662678274907E-1   -2.845824197113941E-1   -1.473630687056962E-2    3.509322066329333E-2   -1.280150130656513E-2    3.501245515347340E-2   -4.981097516552038E-1   -1.186109431187789E-1
 6.501324820100000E9    -4.430884525942055E-1   -2.838605363509162E-1   -1.479136130576177E-2    3.527896871945509E-2   -1.274806678285820E-2    3.530501314923525E-2   -4.983492644378889E-1   -1.175318493123508E-1
 6.501336591800000E9    -4.434726383491654E-1   -2.828992613599828E-1   -1.462516449165616E-2    3.554686882206877E-2   -1.287789331587592E-2    3.536865541705670E-2   -4.985021556096702E-1   -1.164096215535365E-1
 6.501348363500000E9    -4.439807894790863E-1   -2.821059487923073E-1   -1.463662029101362E-2    3.569821804160454E-2   -1.276338200892139E-2    3.564834416611043E-2   -4.986951431151604E-1   -1.152288800156313E-1
 6.501360135200000E9    -4.445794190523920E-1   -2.812481280228388E-1   -1.463713287381792E-2    3.603753066516039E-2   -1.274932640117800E-2    3.587934818337601E-2   -4.987290058686811E-1   -1.138079751259831E-1
 6.501371906900000E9    -4.449952786648794E-1   -2.803916892873401E-1   -1.467391062609107E-2    3.616366692569492E-2   -1.278937597111188E-2    3.597969904803271E-2   -4.990343637645260E-1   -1.127455836829069E-1
 6.501383678600000E9    -4.456191483173781E-1   -2.795836009548463E-1   -1.482326222721989E-2    3.635318697527436E-2   -1.278726139129028E-2    3.626168625624752E-2   -4.993376324606845E-1   -1.115315364944787E-1
 6.501395450300000E9    -4.459916352435288E-1   -2.786343308275256E-1   -1.468044428246851E-2    3.668384341874532E-2   -1.277359616030455E-2    3.648323488914920E-2   -4.994079163592496E-1   -1.102634440926964E-1
 6.501407222000000E9    -4.464690312771761E-1   -2.777919945801131E-1   -1.465834064769629E-2    3.674791318685249E-2   -1.282213475796903E-2    3.668526780466336E-2   -4.996574378187870E-1   -1.091050580906222E-1
 6.501418993700000E9    -4.470409964190636E-1   -2.768926056829461E-1   -1.465016024394517E-2    3.701777481690849E-2   -1.266805356052520E-2    3.700518898194090E-2   -4.998272951473197E-1   -1.079394548045948E-1
 6.501430765400000E9    -4.476509980325639E-1   -2.761058057252566E-1   -1.469147124397724E-2    3.754669179574732E-2   -1.267674222560099E-2    3.715075079358059E-2   -4.999799770188539E-1   -1.065522238259637E-1
 6.501442537100000E9    -4.481329839079715E-1   -2.752935640660013E-1   -1.467648115319149E-2    3.754711250607875E-2   -1.264951650488566E-2    3.747535208606775E-2   -5.001710733597318E-1   -1.053393392278073E-1
 6.501454308800000E9    -4.485294143688885E-1   -2.744349600045461E-1   -1.461594442287398E-2    3.781113700645290E-2   -1.266906799113532E-2    3.761388497513410E-2   -5.003100515461016E-1   -1.041116728049655E-1
 6.501466080500000E9    -4.490272182390166E-1   -2.734587049569177E-1   -1.455648835582120E-2    3.809998350001866E-2   -1.258767987264294E-2    3.794594307626944E-2   -5.005664455206983E-1   -1.028720736034793E-1
 6.501477852200000E9    -4.496431444134152E-1   -2.725507596696234E-1   -1.469832672591851E-2    3.825775407775507E-2   -1.259547832634800E-2    3.818325535899430E-2   -5.006528545604368E-1   -1.015405864482916E-1
 6.501489623900000E9    -4.501000098659988E-1   -2.717263746381532E-1   -1.459285487132708E-2    3.857056292528954E-2   -1.260909211881720E-2    3.840517230606075E-2   -5.008866356865046E-1   -1.003048265355777E-1
 6.501501395600000E9    -4.505488933345125E-1   -2.708728081735921E-1   -1.459375965083983E-2    3.889801293640804E-2   -1.255100556079944E-2    3.861720530879119E-2   -5.010480417409524E-1   -9.901969211299363E-2
 6.501513167300000E9    -4.510835972376646E-1   -2.698424131794372E-1   -1.455467939704981E-2    3.905169951942997E-2   -1.259318462797409E-2    3.892813648831503E-2   -5.012573954148335E-1   -9.783750150916831E-2
 6.501524939000000E9    -4.515700338004788E-1   -2.690575774389832E-1   -1.462322772908221E-2    3.936324130242651E-2   -1.252308089365655E-2    3.917084066958657E-2   -5.013599590199693E-1   -9.652831942313865E-2
 6.501536710700000E9    -4.519436954813807E-1   -2.681702534768277E-1   -1.461302863105399E-2    3.962879885938704E-2   -1.242840159410517E-2    3.933081937363352E-2   -5.014792855333454E-1   -9.526510815214852E-2
 6.501548482400000E9    -4.524750682113949E-1   -2.673110175224782E-1   -1.457702706843658E-2    3.977706392176077E-2   -1.252722198465345E-2    3.959077316328129E-2   -5.016621731767953E-1   -9.399301292771274E-2
 6.501560254100000E9    -4.529414326698074E-1   -2.663416185110968E-1   -1.459638008841665E-2    4.019040257281746E-2   -1.248937035836332E-2    3.998571660151554E-2   -5.019446115720755E-1   -9.267484320245485E-2
 6.501572025800000E9    -4.535156754733841E-1   -2.654659214166566E-1   -1.453350408219131E-2    4.039553326472919E-2   -1.246415129493281E-2    4.018212398065860E-2   -5.020152542062547E-1   -9.140377974742368E-2
 6.501583797500000E9    -4.539520229756253E-1   -2.646361102446089E-1   -1.458383890572898E-2    4.057006287773174E-2   -1.244513096884857E-2    4.054045790601551E-2   -5.021665852519410E-1   -9.003987015631273E-2
 6.501595569200000E9    -4.545319939751692E-1   -2.637064051643346E-1   -1.462861592857015E-2    4.103033698210073E-2   -1.247634402062407E-2    4.070124018912994E-2   -5.023050888282496E-1   -8.872086352015364E-2
 6.501607340900000E9    -4.549233255516957E-1   -2.627772514129300E-1   -1.447610234143142E-2    4.126502562134962E-2   -1.242846663128124E-2    4.093377930479122E-2   -5.023952570184936E-1   -8.759860731126289E-2
 6.501619112600000E9    -4.553980707124471E-1   -2.619140878045141E-1   -1.443576799693551E-2    4.158200867337071E-2   -1.227509204024076E-2    4.124704620854720E-2   -5.025871771928510E-1   -8.608009277605204E-2
 6.501630884300000E9    -4.559522850907098E-1   -2.608667455451024E-1   -1.459559172570235E-2    4.171056939459519E-2   -1.227588204997523E-2    4.158025674212322E-2   -5.025880112385994E-1   -8.469439385619469E-2
 6.501642656000000E9    -4.563685266018289E-1   -2.600560424458034E-1   -1.450469710701821E-2    4.203345294685001E-2   -1.232822382936361E-2    4.177806257187156E-2   -5.027527933306228E-1   -8.345746313399265E-2
 6.501654427700000E9    -4.567859992942569E-1   -2.591576650709664E-1   -1.454903407641418E-2    4.229099536948899E-2   -1.229548677672969E-2    4.212187870256819E-2   -5.030533282321251E-1   -8.215700581209850E-2
 6.501666199400000E9    -4.573640330721604E-1   -2.582900937548955E-1   -1.453154396005572E-2    4.268034664912224E-2   -1.228406599163830E-2    4.241092084874690E-2   -5.029658625642723E-1   -8.081125235586953E-2
 6.501677971100000E9    -4.577078040824715E-1   -2.573319812066932E-1   -1.444261668576329E-2    4.299877293833294E-2   -1.226516261589824E-2    4.272791881715048E-2   -5.030774826931668E-1   -7.948046970224183E-2
 6.501689742800000E9    -4.582876164741100E-1   -2.564391675792749E-1   -1.444524571357124E-2    4.334221680315622E-2   -1.220441864074538E-2    4.297367470053003E-2   -5.032611855853236E-1   -7.799061643211909E-2
 6.501701514500000E9    -4.587273929185958E-1   -2.554382924915454E-1   -1.434801086967686E-2    4.362879117586872E-2   -1.215461642509113E-2    4.324510050938261E-2   -5.033578164565861E-1   -7.687376153460095E-2
 6.501713286200000E9    -4.591077024871211E-1   -2.546009729177546E-1   -1.424113587162738E-2    4.387354525272614E-2   -1.213511405527634E-2    4.342675143086381E-2   -5.032864127047084E-1   -7.542291834917803E-2
 6.501725057900000E9    -4.597854051892230E-1   -2.537059582601686E-1   -1.435781883590286E-2    4.424721870698804E-2   -1.219627987134456E-2    4.391304949643036E-2   -5.034691160253015E-1   -7.409889226613804E-2
 6.501736829600000E9    -4.601039522152716E-1   -2.526341789420035E-1   -1.438975553631766E-2    4.447770885588936E-2   -1.215226168653195E-2    4.421056416139783E-2   -5.036953290106529E-1   -7.261627784040162E-2
 6.501748601300000E9    -4.605950485071758E-1   -2.516372886089537E-1   -1.435517370361963E-2    4.486678825725948E-2   -1.203616767975959E-2    4.448370819821781E-2   -5.038121124668881E-1   -7.121347740357235E-2
 6.501760373000000E9    -4.611629322860958E-1   -2.509089320719088E-1   -1.429384357221289E-2    4.524933435146337E-2   -1.197736735674070E-2    4.482128706013959E-2   -5.037873985739963E-1   -6.987539189784638E-2
 6.501772144700000E9    -4.615500356185552E-1   -2.498756096762457E-1   -1.431139154381184E-2    4.550519263158296E-2   -1.196292037222660E-2    4.512695225227800E-2   -5.040216226931530E-1   -6.834949927246207E-2
 6.501783916400000E9    -4.619554356977096E-1   -2.489093113130695E-1   -1.423131892784785E-2    4.590757090516225E-2   -1.195566413338542E-2    4.551879146638332E-2   -5.039806759563745E-1   -6.705561088152180E-2
 6.501795688100000E9    -4.624935226694839E-1   -2.479351222953732E-1   -1.427744332980913E-2    4.622864417832578E-2   -1.185350332463224E-2    4.581789880918098E-2   -5.040791045046684E-1   -6.563609172949625E-2
 6.501807459800000E9    -4.628504622902359E-1   -2.470144170627867E-1   -1.425979925049611E-2    4.638999476693437E-2   -1.182197953218417E-2    4.610940996748156E-2   -5.042728710462112E-1   -6.419103156206832E-2
 6.501819231500000E9    -4.633817265203161E-1   -2.459881389601381E-1   -1.423013640158541E-2    4.687866196517601E-2   -1.188060490992057E-2    4.648992435604189E-2   -5.042007106816053E-1   -6.280357485569893E-2
 6.501831003200000E9    -4.638138790951799E-1   -2.450751400131086E-1   -1.420332407356539E-2    4.740320089100337E-2   -1.183936403766363E-2    4.684889055989482E-2   -5.043793795212562E-1   -6.143566326895585E-2
 6.501842774900000E9    -4.642768280430926E-1   -2.443056248661622E-1   -1.416587672619678E-2    4.757700315769978E-2   -1.174350395915978E-2    4.723950745874150E-2   -5.043187193104663E-1   -5.989594018295463E-2
 6.501854546600000E9    -4.647326417518246E-1   -2.432768258909433E-1   -1.403867094966114E-2    4.793895917763191E-2   -1.173205873951383E-2    4.757771682617157E-2   -5.043487110243401E-1   -5.843980678259091E-2
 6.501866318300000E9    -4.651687410459177E-1   -2.422138792006707E-1   -1.408314923994347E-2    4.836570282160076E-2   -1.167143090969742E-2    4.783675097979360E-2   -5.044280579994532E-1   -5.701950428687814E-2
 6.501878090000000E9    -4.655642391032264E-1   -2.412390360480293E-1   -1.400364910821188E-2    4.872852617604366E-2   -1.152815029156431E-2    4.827701721586589E-2   -5.044109877680688E-1   -5.550971044142793E-2
 6.501889861700000E9    -4.660283264220330E-1   -2.402520758340886E-1   -1.403709588956857E-2    4.908430952797062E-2   -1.158149251758188E-2    4.864064348190055E-2   -5.044896779503689E-1   -5.408860211358496E-2
 6.501901633400000E9    -4.665568884976974E-1   -2.393859499863814E-1   -1.391220029919430E-2    4.944824464997764E-2   -1.153283282287320E-2    4.899049088844977E-2   -5.044565149026997E-1   -5.241097449996950E-2
 6.501913405100000E9    -4.669308477472508E-1   -2.384698245138729E-1   -1.406698606352029E-2    4.985859991551225E-2   -1.146824734573217E-2    4.929173036028956E-2   -5.045277612638801E-1   -5.101334336824126E-2
 6.501925176800000E9    -4.673005923805366E-1   -2.373028208383837E-1   -1.379342085840218E-2    5.035128863192181E-2   -1.139417267240848E-2    4.968599901398698E-2   -5.046415991573016E-1   -4.934711216964815E-2
 6.501936948500000E9    -4.678206491805799E-1   -2.363345442405770E-1   -1.377009174319320E-2    5.052464272004024E-2   -1.138756812774863E-2    5.009355523161010E-2   -5.045794001117403E-1   -4.794759471750624E-2
 6.501948720200000E9    -4.683375506950160E-1   -2.354211360420106E-1   -1.366989347422106E-2    5.094810795530175E-2   -1.129629714032366E-2    5.049530133905788E-2   -5.046193195499924E-1   -4.657908232131720E-2
 6.501960491900000E9    -4.685915542648686E-1   -2.343862829063217E-1   -1.369050311435848E-2    5.151373780667889E-2   -1.120010079622800E-2    5.077358152519432E-2   -5.045705540444434E-1   -4.477620045039293E-2
 6.501972263600000E9    -4.691146016994193E-1   -2.334359605782198E-1   -1.368717946413018E-2    5.184431942439310E-2   -1.114837104667887E-2    5.129426414687180E-2   -5.047177661134096E-1   -4.342164140352871E-2
 6.501984035300000E9    -4.695185288812643E-1   -2.324251896926529E-1   -1.365026307617661E-2    5.220414560108588E-2   -1.115999678966135E-2    5.179201873185676E-2   -5.046624187550350E-1   -4.183273433832139E-2
 6.501995807000000E9    -4.699687626810472E-1   -2.314233167736690E-1   -1.357678389372792E-2    5.272041109157347E-2   -1.104856587451358E-2    5.209242946778157E-2   -5.045389161848565E-1   -4.017314237799111E-2
 6.502007578700000E9    -4.703681549133130E-1   -2.303511355065584E-1   -1.349146614774829E-2    5.316214681659039E-2   -1.098425774676925E-2    5.250571068726573E-2   -5.045877553445607E-1   -3.866407260039915E-2
 6.502019350400000E9    -4.708061021146807E-1   -2.292851579075837E-1   -1.364420822499360E-2    5.365904081616411E-2   -1.085060540531374E-2    5.299213560856640E-2   -5.045234632220096E-1   -3.704347424407874E-2
 6.502031122100000E9    -4.712618127212997E-1   -2.283893483456988E-1   -1.348140889286663E-2    5.415704352694840E-2   -1.081443760649166E-2    5.343718234143167E-2   -5.045746375434378E-1   -3.547252670306837E-2
 6.502042893800000E9    -4.716247733027400E-1   -2.273096103076728E-1   -1.357094642490841E-2    5.448670675675805E-2   -1.080062984206150E-2    5.384936098489724E-2   -5.043923298318096E-1   -3.374691555936646E-2
 6.502054665500000E9    -4.720797415767601E-1   -2.263127009901105E-1   -1.326501762631843E-2    5.503740886059754E-2   -1.073674941122236E-2    5.428090509652553E-2   -5.043279104176488E-1   -3.217215977939004E-2
 6.502066437200000E9    -4.724501129363199E-1   -2.253804523745264E-1   -1.329180067512476E-2    5.553877377614217E-2   -1.066161146691089E-2    5.468084034751353E-2   -5.043741644810570E-1   -3.062332956046623E-2
 6.502078208900000E9    -4.729082176159388E-1   -2.242747277945525E-1   -1.333450058935500E-2    5.598604034550717E-2   -1.058733761726596E-2    5.524130333973296E-2   -5.043335974188177E-1   -2.891444337380095E-2
 6.502089980600000E9    -4.732820047195858E-1   -2.231344558073560E-1   -1.312365002167129E-2    5.640195314447038E-2   -1.047296040440739E-2    5.568776354496056E-2   -5.043588672382725E-1   -2.720797865661511E-2
 6.502101752300000E9    -4.739344681721210E-1   -2.222524802574998E-1   -1.317358040531111E-2    5.691809815301326E-2   -1.037657123087513E-2    5.613563821701933E-2   -5.041332710598528E-1   -2.559319863629712E-2
 6.502113524000000E9    -4.741972713470475E-1   -2.209573586725897E-1   -1.313221707121409E-2    5.741851067722367E-2   -1.031289412638952E-2    5.658440517173352E-2   -5.040581552871510E-1   -2.398300824077269E-2
 6.502125295700000E9    -4.746307426485504E-1   -2.199218974558602E-1   -1.290483238278301E-2    5.791784715798688E-2   -1.026665203191057E-2    5.712195740396698E-2   -5.037911584521623E-1   -2.221072089390085E-2
 6.502137067400000E9    -4.749638422696374E-1   -2.189682029874933E-1   -1.293766012855250E-2    5.846255591669480E-2   -1.016575753708688E-2    5.754578046472746E-2   -5.039389052263141E-1   -2.062377066094865E-2
 6.502148839100000E9    -4.753222816750587E-1   -2.178642863184984E-1   -1.274457101882235E-2    5.894876893795702E-2   -1.000780685204322E-2    5.813196211611391E-2   -5.037860942132386E-1   -1.884349209568965E-2
 6.502160610800000E9    -4.757129773375713E-1   -2.167767951314123E-1   -1.271148744038372E-2    5.949077865479882E-2   -9.927122094239070E-3    5.870703159541037E-2   -5.034380898003133E-1   -1.703083253884671E-2
 6.502172382500000E9    -4.761000734683111E-1   -2.157817253484862E-1   -1.253501699059566E-2    5.989030498884976E-2   -9.816080546514274E-3    5.913172369411445E-2   -5.035666500759525E-1   -1.526448771699655E-2
 6.502184154200000E9    -4.765348091317548E-1   -2.147844339447675E-1   -1.263694653263944E-2    6.064229124094584E-2   -9.747657523630278E-3    5.954470707164197E-2   -5.034803452747135E-1   -1.361873159468132E-2
 6.502195925900000E9    -4.770659999382528E-1   -2.136389686795731E-1   -1.248809298531477E-2    6.112500551210274E-2   -9.685589812624558E-3    6.025532837696370E-2   -5.032685316926192E-1   -1.183235958443927E-2
 6.502207697600000E9    -4.772679767334181E-1   -2.125513096369701E-1   -1.234361564586167E-2    6.170975989674300E-2   -9.586153957124061E-3    6.071703869277070E-2   -5.030298202001871E-1   -1.005313078834959E-2
 6.502219469300000E9    -4.777740127953937E-1   -2.114037374568129E-1   -1.227029759885011E-2    6.222668124183620E-2   -9.482301498765826E-3    6.119027480882069E-2   -5.028337222553709E-1   -8.157310650012272E-3
 6.502231241000000E9    -4.781476542190734E-1   -2.103219881831931E-1   -1.226162027662646E-2    6.277084656391221E-2   -9.276234429751421E-3    6.184955616269093E-2   -5.026395067286020E-1   -6.459664650336924E-3
