#  HZ   S   RI   R     50.00 
! Rohde & Schwarz Vector Network Analyzer 
! Rohde-Schwarz,ZNB20-2Port,1311601062101988,3.16
! Created: UTC 3/20/2024, 11:48:37 AM
! freq[Hz]                re:S11                  im:S11                  re:S21                  im:S21                  re:S12                  im:S12                  re:S22                  im:S22
 6.500860638000000E9    -4.220975509317024E-1   -3.147384786670286E-1   -1.492111838867512E-2    2.938050140210816E-2   -1.315318603279298E-2    2.952888445971799E-2   -4.872788393144606E-1   -1.622388867581601E-1
 6.500873432550000E9    -4.227364574609750E-1   -3.139258299419431E-1   -1.502031024604810E-2    2.943810258722073E-2   -1.322806211530409E-2    2.961947751443109E-2   -4.875902275313026E-1   -1.609024511236521E-1
 6.500886227100000E9    -4.233925385948532E-1   -3.130277387122331E-1   -1.495683654246078E-2    2.976936185063617E-2   -1.327673108846405E-2    2.987360880702846E-2   -4.879632029498878E-1   -1.598192419802421E-1
 6.500899021650000E9    -4.238817388284930E-1   -3.122357387079911E-1   -1.499344644808207E-2    2.989784459236909E-2   -1.325257263101342E-2    3.002723095999240E-2   -4.884035407926237E-1   -1.586719857932717E-1
 6.500911816200000E9    -4.245330645284716E-1   -3.113997382184102E-1   -1.506536064171438E-2    3.018926035885757E-2   -1.332708241886547E-2    3.017755058198757E-2   -4.885312569656771E-1   -1.574767104627516E-1
 6.500924610750000E9    -4.251913037659361E-1   -3.104416923612703E-1   -1.495440992877886E-2    3.031628786440010E-2   -1.326242047833912E-2    3.038218426598440E-2   -4.888115980707872E-1   -1.561324562898189E-1
 6.500937405300000E9    -4.256112198560165E-1   -3.096086573826558E-1   -1.494856021904528E-2    3.045138503948767E-2   -1.323044119416176E-2    3.060285290159979E-2   -4.891252159504703E-1   -1.549308688200011E-1
 6.500950199850000E9    -4.264794370717228E-1   -3.087226219271479E-1   -1.501750527063111E-2    3.067755894291048E-2   -1.328753075123480E-2    3.070050303808077E-2   -4.895069242776409E-1   -1.538376309502380E-1
 6.500962994400000E9    -4.268400231243559E-1   -3.078117603943328E-1   -1.507451487059742E-2    3.081153125540171E-2   -1.329225416676023E-2    3.094046157546465E-2   -4.898498805393940E-1   -1.526365035612072E-1
 6.500975788950000E9    -4.275765237249653E-1   -3.069991494884939E-1   -1.487682376288752E-2    3.113070465882311E-2   -1.318999690772480E-2    3.111176561935575E-2   -4.901079080656100E-1   -1.513683386517808E-1
 6.500988583500000E9    -4.280791851542328E-1   -3.061452585329462E-1   -1.497139934242416E-2    3.119747402572236E-2   -1.327929543316234E-2    3.135288834629869E-2   -4.902872843124650E-1   -1.502093932011530E-1
 6.501001378050000E9    -4.287375956673528E-1   -3.052526416804653E-1   -1.496774664433964E-2    3.134807233096325E-2   -1.317538299184864E-2    3.155873078222116E-2   -4.906455679456803E-1   -1.488322362376260E-1
 6.501014172600000E9    -4.292978736366438E-1   -3.043011407751711E-1   -1.488384442770279E-2    3.172355414642188E-2   -1.319767128197112E-2    3.167217919302799E-2   -4.908679844872559E-1   -1.477647007880230E-1
 6.501026967150000E9    -4.298965508720415E-1   -3.035337351797823E-1   -1.490664856744844E-2    3.185267020331706E-2   -1.318808246974485E-2    3.189020843373306E-2   -4.910931453952266E-1   -1.465555742351926E-1
 6.501039761700000E9    -4.304073588693749E-1   -3.026234616649030E-1   -1.504264734341694E-2    3.211894039436943E-2   -1.322524570124275E-2    3.211420197561950E-2   -4.916301814754890E-1   -1.453193568102924E-1
 6.501052556250000E9    -4.310891630785773E-1   -3.016672311319047E-1   -1.505126647270025E-2    3.227166132385043E-2   -1.319068427708548E-2    3.236145406726697E-2   -4.918622196942360E-1   -1.441642731203809E-1
 6.501065350800000E9    -4.316173053286464E-1   -3.007594019967968E-1   -1.496746720554511E-2    3.241204433327203E-2   -1.318487552397691E-2    3.248797823612196E-2   -4.920709409325071E-1   -1.426487009977733E-1
 6.501078145350000E9    -4.323422868355600E-1   -2.998789112314645E-1   -1.508558861055883E-2    3.263807242059358E-2   -1.317171454911262E-2    3.263820167487212E-2   -4.924164232839247E-1   -1.414755442643460E-1
 6.501090939900000E9    -4.328702258593395E-1   -2.991105773619289E-1   -1.501262174203025E-2    3.288589504187037E-2   -1.319835626811640E-2    3.291973053476312E-2   -4.926634499795645E-1   -1.404557801748355E-1
 6.501103734450000E9    -4.333581035482216E-1   -2.981504839201901E-1   -1.501405101574687E-2    3.298045571807173E-2   -1.318931019597413E-2    3.314817669530676E-2   -4.929184832115983E-1   -1.389541352236101E-1
 6.501116529000000E9    -4.339765668345105E-1   -2.972171075560287E-1   -1.514904252984676E-2    3.316328118642000E-2   -1.322510258018316E-2    3.333039266358835E-2   -4.932169982658340E-1   -1.376117394471476E-1
 6.501129323550000E9    -4.345845930849238E-1   -2.964359267800780E-1   -1.517346315343477E-2    3.341597235463393E-2   -1.318817599541266E-2    3.346260423138946E-2   -4.934939970499013E-1   -1.364749821410260E-1
 6.501142118100000E9    -4.351607640656737E-1   -2.953968611559394E-1   -1.502424567367036E-2    3.380455825210775E-2   -1.310288463110705E-2    3.371635665584284E-2   -4.937356824735485E-1   -1.351999200216082E-1
 6.501154912650000E9    -4.357263912658204E-1   -2.946102558812561E-1   -1.493666954489564E-2    3.390043831071804E-2   -1.323685049031329E-2    3.384967790180297E-2   -4.939446745350766E-1   -1.340096844957846E-1
 6.501167707200000E9    -4.362495250845094E-1   -2.936569528193412E-1   -1.495512565985807E-2    3.424422923874004E-2   -1.309724198201815E-2    3.418240870596884E-2   -4.943935141057784E-1   -1.327276936962190E-1
 6.501180501750000E9    -4.368861499060195E-1   -2.927013233637164E-1   -1.499958654442441E-2    3.438888545039002E-2   -1.309277897955501E-2    3.447699342366625E-2   -4.944714390363190E-1   -1.312776332460195E-1
 6.501193296300000E9    -4.374817751780309E-1   -2.917303454152561E-1   -1.505611696514314E-2    3.472706299619180E-2   -1.310459016549077E-2    3.456570906109788E-2   -4.946827468427886E-1   -1.301726356255359E-1
 6.501206090850000E9    -4.380791881276570E-1   -2.909195811055466E-1   -1.484316864692492E-2    3.479170177506184E-2   -1.302623833746316E-2    3.495252164277194E-2   -4.950611892076083E-1   -1.287542789437338E-1
 6.501218885400000E9    -4.386125652664895E-1   -2.899532613040494E-1   -1.488229274483624E-2    3.514606573199584E-2   -1.304863558566581E-2    3.509097418773945E-2   -4.952130715114480E-1   -1.274833208121879E-1
 6.501231679950000E9    -4.391356073182877E-1   -2.891966869279958E-1   -1.495389246802562E-2    3.516923309477091E-2   -1.301866455535223E-2    3.529167639242200E-2   -4.954175682296215E-1   -1.262121014075318E-1
 6.501244474500000E9    -4.396517557233906E-1   -2.881736022418156E-1   -1.499261354531377E-2    3.561214699926234E-2   -1.300852344700390E-2    3.560535558598323E-2   -4.957708399933073E-1   -1.249454585681238E-1
 6.501257269050000E9    -4.402852722088987E-1   -2.872904436855760E-1   -1.501402085361975E-2    3.590688382280371E-2   -1.302272154090986E-2    3.576986624073971E-2   -4.957899736612089E-1   -1.236631136695110E-1
 6.501270063600000E9    -4.408642073307204E-1   -2.862640753124763E-1   -1.500874990682654E-2    3.598923637067197E-2   -1.303888668172550E-2    3.601459861702838E-2   -4.961444614282909E-1   -1.223420166570385E-1
 6.501282858150000E9    -4.413814365349498E-1   -2.853845729307712E-1   -1.483545045967089E-2    3.632928801922100E-2   -1.300311372277582E-2    3.622597721610865E-2   -4.964681542116435E-1   -1.209595904172404E-1
 6.501295652700000E9    -4.419623632758623E-1   -2.844771297102608E-1   -1.500863540763513E-2    3.659196272380425E-2   -1.304634289588576E-2    3.650524162229146E-2   -4.967835064303276E-1   -1.195696579889985E-1
 6.501308447250000E9    -4.424968235603761E-1   -2.835462371163006E-1   -1.495480114628707E-2    3.687551006495626E-2   -1.287861414278976E-2    3.681938345782589E-2   -4.968901618772725E-1   -1.183234321893988E-1
 6.501321241800000E9    -4.431735002059820E-1   -2.825624255791322E-1   -1.491227510828490E-2    3.705065737319328E-2   -1.305786163587031E-2    3.696758484442567E-2   -4.970486987885951E-1   -1.170946873978694E-1
 6.501334036350000E9    -4.436484024776386E-1   -2.818290094161241E-1   -1.499490843209374E-2    3.728002364963760E-2   -1.296810526110418E-2    3.736082366779563E-2   -4.973542313615641E-1   -1.157637115355618E-1
 6.501346830900000E9    -4.442956772187502E-1   -2.806934818038067E-1   -1.497062591847443E-2    3.765736455092577E-2   -1.293103673892317E-2    3.754316512687746E-2   -4.975682094550226E-1   -1.144814796943881E-1
 6.501359625450000E9    -4.448643668058049E-1   -2.798426799335156E-1   -1.502309647783939E-2    3.797213960220201E-2   -1.287482630559438E-2    3.772470614855746E-2   -4.977200313921416E-1   -1.129887656345881E-1
 6.501372420000000E9    -4.453789269683484E-1   -2.788027959700354E-1   -1.491420767465157E-2    3.813395823261864E-2   -1.289429085439301E-2    3.799836629899563E-2   -4.979545068717138E-1   -1.116457837488851E-1
 6.501385214550000E9    -4.458494364328431E-1   -2.779417848237462E-1   -1.499154308518903E-2    3.847956867811786E-2   -1.287365991070709E-2    3.832600901695204E-2   -4.982011193319270E-1   -1.101577881549949E-1
 6.501398009100000E9    -4.464766970638870E-1   -2.768917866750190E-1   -1.493899075839512E-2    3.865403481250783E-2   -1.288267046737981E-2    3.861025480029798E-2   -4.984684077306312E-1   -1.089488923708997E-1
 6.501410803650000E9    -4.470243155597030E-1   -2.759294033930065E-1   -1.484780608185824E-2    3.896504743603509E-2   -1.287028747096669E-2    3.880695544601194E-2   -4.985209523748643E-1   -1.075405735320670E-1
 6.501423598200000E9    -4.475221134797777E-1   -2.750769355325108E-1   -1.477520922843275E-2    3.922017261017970E-2   -1.284321528825119E-2    3.916028537232974E-2   -4.986621022841318E-1   -1.060359216706610E-1
 6.501436392750000E9    -4.480612145175684E-1   -2.740625790706654E-1   -1.485745838688129E-2    3.964560207224024E-2   -1.285662440053384E-2    3.943739203797417E-2   -4.988807870609597E-1   -1.047786908431825E-1
 6.501449187300000E9    -4.484932528686855E-1   -2.731001567022093E-1   -1.494046320188737E-2    3.979353695548565E-2   -1.276486680348424E-2    3.966367671642751E-2   -4.991081670300712E-1   -1.033238454755495E-1
 6.501461981850000E9    -4.490965378072030E-1   -2.721179823606852E-1   -1.480712620311028E-2    4.010731414610934E-2   -1.274951109116698E-2    3.988196096212767E-2   -4.992625499346346E-1   -1.020143409677094E-1
 6.501474776400000E9    -4.497020052116707E-1   -2.712036804658153E-1   -1.487612095295832E-2    4.044036670932885E-2   -1.278420554016190E-2    4.023486468772305E-2   -4.995383560455264E-1   -1.006405107220536E-1
 6.501487570950000E9    -4.502664881211765E-1   -2.701231757405681E-1   -1.496105269730117E-2    4.055640527716937E-2   -1.275627981186494E-2    4.050096002853948E-2   -4.996716526807606E-1   -9.907675351493904E-2
 6.501500365500000E9    -4.508043667156348E-1   -2.691811063962123E-1   -1.485003122429138E-2    4.098972717230855E-2   -1.274536281184576E-2    4.090270820451511E-2   -4.998199032625144E-1   -9.776139087545420E-2
 6.501513160050000E9    -4.512721727854418E-1   -2.682284249206315E-1   -1.486734773003209E-2    4.136462946501882E-2   -1.268784422799502E-2    4.105225883028455E-2   -4.998956220651095E-1   -9.632978184471647E-2
 6.501525954600000E9    -4.518091675238606E-1   -2.672772698465437E-1   -1.473138744088952E-2    4.159291877232801E-2   -1.262248311094039E-2    4.137334079402117E-2   -5.002296294340171E-1   -9.485658726521093E-2
 6.501538749150000E9    -4.524023665843201E-1   -2.662539802379728E-1   -1.484090480719905E-2    4.197458127318927E-2   -1.257031562318500E-2    4.165361812269443E-2   -5.001825007126375E-1   -9.348692219783437E-2
 6.501551543700000E9    -4.528489505922669E-1   -2.652903592654488E-1   -1.471335366773537E-2    4.213779815716305E-2   -1.255576767333173E-2    4.200126531617931E-2   -5.004250686442026E-1   -9.186106183784089E-2
 6.501564338250000E9    -4.533482799904502E-1   -2.642852985903996E-1   -1.479243383313920E-2    4.253784236405648E-2   -1.245990235601793E-2    4.236459502684688E-2   -5.005832592109296E-1   -9.043759962367741E-2
 6.501577132800000E9    -4.539389422748920E-1   -2.633643039905695E-1   -1.473037445714866E-2    4.295978006420185E-2   -1.246836081647961E-2    4.268314188576498E-2   -5.007310416639662E-1   -8.920024511938437E-2
 6.501589927350000E9    -4.544999463024531E-1   -2.623289371360966E-1   -1.463538788046099E-2    4.340500118318929E-2   -1.244485267731403E-2    4.298738703425597E-2   -5.008870496497093E-1   -8.764784332773713E-2
 6.501602721900000E9    -4.549370327429544E-1   -2.613017895631128E-1   -1.468808599658961E-2    4.353021403108713E-2   -1.235267571538225E-2    4.331683043872313E-2   -5.008465226299420E-1   -8.612769173845411E-2
 6.501615516450000E9    -4.554795815531445E-1   -2.604082527553428E-1   -1.460983540494877E-2    4.395617084618657E-2   -1.238729548650101E-2    4.366801209152785E-2   -5.010890750022661E-1   -8.461290337275396E-2
 6.501628311000000E9    -4.559991628735627E-1   -2.593222265249098E-1   -1.456970612481083E-2    4.425650399696616E-2   -1.243071893714393E-2    4.394244819000147E-2   -5.012215932940801E-1   -8.309217112204934E-2
 6.501641105550000E9    -4.564340218448023E-1   -2.583764436492018E-1   -1.460646519144175E-2    4.469943082066936E-2   -1.230929151040300E-2    4.427261084958091E-2   -5.013631590220409E-1   -8.166786581884956E-2
 6.501653900100000E9    -4.570513911256864E-1   -2.574345131095662E-1   -1.445066055476433E-2    4.503531952189862E-2   -1.224630131747994E-2    4.460340424679584E-2   -5.014820735066923E-1   -8.002646355816380E-2
 6.501666694650000E9    -4.574831282373783E-1   -2.564115820900005E-1   -1.455596441195543E-2    4.522120609853596E-2   -1.226196011855393E-2    4.508001829111472E-2   -5.016593895618141E-1   -7.845069001938927E-2
 6.501679489200000E9    -4.579272275425182E-1   -2.553337092115730E-1   -1.460117721516943E-2    4.568339724574127E-2   -1.219602759506408E-2    4.531045468173344E-2   -5.015654025751908E-1   -7.701359874675132E-2
 6.501692283750000E9    -4.584982903295991E-1   -2.541408710668502E-1   -1.453050641811490E-2    4.612491946797306E-2   -1.211211668955481E-2    4.575916940200105E-2   -5.018182235344449E-1   -7.564075797072195E-2
 6.501705078300000E9    -4.589878465427356E-1   -2.532715022346352E-1   -1.448399234796429E-2    4.632394130075404E-2   -1.209769745395413E-2    4.606644156111927E-2   -5.017068852620312E-1   -7.399029782774663E-2
 6.501717872850000E9    -4.595603549082349E-1   -2.522956750512033E-1   -1.441806012507448E-2    4.687889059560220E-2   -1.204331103971697E-2    4.652707354065704E-2   -5.018466810982051E-1   -7.242677329599842E-2
 6.501730667400000E9    -4.600674076033846E-1   -2.511667509419106E-1   -1.445189920909284E-2    4.723928893959112E-2   -1.206877211316555E-2    4.683524342732058E-2   -5.019572155790822E-1   -7.075939937018670E-2
 6.501743461950000E9    -4.605727772318194E-1   -2.501006257519379E-1   -1.436060914860048E-2    4.772340588430708E-2   -1.198766637556896E-2    4.714157611453713E-2   -5.021254778038013E-1   -6.922644214658541E-2
 6.501756256500000E9    -4.611277017300099E-1   -2.491624645146372E-1   -1.427830248618612E-2    4.791135735863495E-2   -1.193297613058300E-2    4.754722980542404E-2   -5.021883073514695E-1   -6.769096026432339E-2
 6.501769051050000E9    -4.615188138804671E-1   -2.480767579049994E-1   -1.423315871329990E-2    4.845119792416412E-2   -1.182610255827352E-2    4.800835720365597E-2   -5.022938280490840E-1   -6.604268577209660E-2
 6.501781845600000E9    -4.620127839869315E-1   -2.469882306033088E-1   -1.426168468177485E-2    4.882743888979776E-2   -1.177060830041978E-2    4.834358170173274E-2   -5.022092456816181E-1   -6.458354852671397E-2
 6.501794640150000E9    -4.625552539508516E-1   -2.459732324584263E-1   -1.420021128981458E-2    4.926116083008364E-2   -1.180942931728529E-2    4.881574047474322E-2   -5.023579344170818E-1   -6.279583833850122E-2
 6.501807434700000E9    -4.629983768359912E-1   -2.449935438702031E-1   -1.421774483870870E-2    4.964386250092843E-2   -1.169040197195870E-2    4.925249291009620E-2   -5.023375051459660E-1   -6.130517833015411E-2
 6.501820229250000E9    -4.634685255567004E-1   -2.437139419375818E-1   -1.399999853003622E-2    5.002820288378571E-2   -1.151095464465453E-2    4.968869247561525E-2   -5.023745085408716E-1   -5.963786516310351E-2
 6.501833023800000E9    -4.641045812902741E-1   -2.427549094763201E-1   -1.410933424861984E-2    5.056464561718946E-2   -1.159341263007237E-2    5.008122517727547E-2   -5.025937439358888E-1   -5.806891267141052E-2
 6.501845818350000E9    -4.643930340253374E-1   -2.415985385569044E-1   -1.398457918901629E-2    5.110805289581823E-2   -1.145794046105282E-2    5.044791647589566E-2   -5.023988591355149E-1   -5.636598346579631E-2
 6.501858612900000E9    -4.649123118557605E-1   -2.405066725905627E-1   -1.382890491252627E-2    5.146189105835140E-2   -1.142834849503453E-2    5.075820000522363E-2   -5.024269679910215E-1   -5.466925118202756E-2
 6.501871407450000E9    -4.654252493260206E-1   -2.395252907941448E-1   -1.396660263239007E-2    5.191859254929294E-2   -1.139077937594260E-2    5.128459184900101E-2   -5.025045392895195E-1   -5.305411677948303E-2
 6.501884202000000E9    -4.659079921048290E-1   -2.385031803930227E-1   -1.382983235888498E-2    5.246135219862037E-2   -1.124980022906474E-2    5.181283208331964E-2   -5.024980638174317E-1   -5.136100502281191E-2
 6.501896996550000E9    -4.663093049130146E-1   -2.374076838391201E-1   -1.373320242607641E-2    5.290738466831714E-2   -1.118509768287131E-2    5.229463201463348E-2   -5.025436488368031E-1   -4.961481636847433E-2
 6.501909791100000E9    -4.667645891450030E-1   -2.362327167427011E-1   -1.380265231466554E-2    5.330058049268974E-2   -1.120030617571561E-2    5.270795208201136E-2   -5.023592099382300E-1   -4.778213033622062E-2
 6.501922585650000E9    -4.673865962035391E-1   -2.350954921154342E-1   -1.358783767494589E-2    5.364747437364043E-2   -1.101384294861916E-2    5.317253876282147E-2   -5.024604589902533E-1   -4.611300467401656E-2
 6.501935380200000E9    -4.677296657785894E-1   -2.340821143579586E-1   -1.358053392029522E-2    5.425404044774856E-2   -1.098056829271427E-2    5.366033781087011E-2   -5.024973353060879E-1   -4.434251161484194E-2
 6.501948174750000E9    -4.682446547123174E-1   -2.329612278714203E-1   -1.348771883214183E-2    5.492953895710058E-2   -1.082419365853159E-2    5.411443382692828E-2   -5.023303881129808E-1   -4.281951817264876E-2
 6.501960969300000E9    -4.686996848878323E-1   -2.317959809452056E-1   -1.357735574407743E-2    5.534481534401652E-2   -1.083642984177425E-2    5.459900862728414E-2   -5.022770351749530E-1   -4.087070045756907E-2
 6.501973763850000E9    -4.691339339513295E-1   -2.306755800942490E-1   -1.326681174698595E-2    5.575716586373559E-2   -1.069494726270642E-2    5.509406409577768E-2   -5.023886026373038E-1   -3.906584842576123E-2
 6.501986558400000E9    -4.695566630038919E-1   -2.296171314307614E-1   -1.323832608363680E-2    5.626618370282491E-2   -1.063646908187276E-2    5.558572744932797E-2   -5.022214667544440E-1   -3.729018922257783E-2
 6.501999352950000E9    -4.700566266161492E-1   -2.285048961876348E-1   -1.316765508767529E-2    5.670036381852384E-2   -1.055574295511687E-2    5.614281788660264E-2   -5.021897923512263E-1   -3.551167573739269E-2
 6.502012147500000E9    -4.704871561500505E-1   -2.273378276741569E-1   -1.314957314913103E-2    5.719944046866014E-2   -1.038652159855325E-2    5.664449940054497E-2   -5.019490337359935E-1   -3.373846803992545E-2
