#  HZ   S   RI   R     50.00 
! Rohde & Schwarz Vector Network Analyzer 
! Rohde-Schwarz,ZNB20-2Port,1311601062101988,3.16
! Created: UTC 3/20/2024, 11:48:42 AM
! freq[Hz]                re:S11                  im:S11                  re:S21                  im:S21                  re:S12                  im:S12                  re:S22                  im:S22
 6.500862964000000E9    -4.221909006123062E-1   -3.146465920601600E-1   -1.495321229175234E-2    2.947025569913964E-2   -1.322923190726202E-2    2.951571872117055E-2   -4.873674479208683E-1   -1.619539481538078E-1
 6.500875742100000E9    -4.227707231708383E-1   -3.138319274648723E-1   -1.486692004674727E-2    2.959176960925522E-2   -1.330370613998887E-2    2.961918725433762E-2   -4.877334661999713E-1   -1.607655375607314E-1
 6.500888520200000E9    -4.233762924562722E-1   -3.129173287568764E-1   -1.500821686731129E-2    2.984324298284894E-2   -1.330506863230651E-2    2.982297935890008E-2   -4.880163994839316E-1   -1.595565330566824E-1
 6.500901298300000E9    -4.240747012444627E-1   -3.119867333184200E-1   -1.498956366051251E-2    2.999921429425309E-2   -1.331748251025715E-2    2.998761358006366E-2   -4.884763048506153E-1   -1.584476547973172E-1
 6.500914076400000E9    -4.246441399634064E-1   -3.112372098260863E-1   -1.500609195584356E-2    3.014231051006361E-2   -1.336123489335713E-2    3.018315871555940E-2   -4.885532384626039E-1   -1.570845906427467E-1
 6.500926854500000E9    -4.253020598657201E-1   -3.104467099850023E-1   -1.498551111426320E-2    3.020843810513628E-2   -1.332094683226880E-2    3.045368892914542E-2   -4.889402413259093E-1   -1.560445683234887E-1
 6.500939632600000E9    -4.258690418621870E-1   -3.094328099107322E-1   -1.493453572233353E-2    3.047877244772533E-2   -1.328011943267500E-2    3.062488815451777E-2   -4.892426341619984E-1   -1.547090278526049E-1
 6.500952410700000E9    -4.263715053162505E-1   -3.085782455051392E-1   -1.500695906249768E-2    3.070131007191992E-2   -1.323820242901334E-2    3.077256405331892E-2   -4.895031601266906E-1   -1.535776900037870E-1
 6.500965188800000E9    -4.270477584650741E-1   -3.077944465183145E-1   -1.491489514694568E-2    3.088188734985286E-2   -1.329223699894760E-2    3.095391172344683E-2   -4.898229962496789E-1   -1.524950332874276E-1
 6.500977966900000E9    -4.276597930032505E-1   -3.070173448242230E-1   -1.506941655299239E-2    3.112759414126356E-2   -1.323310996392913E-2    3.108999443643872E-2   -4.901463705114689E-1   -1.511264327215818E-1
 6.500990745000000E9    -4.281571893321283E-1   -3.060214577162485E-1   -1.511281969766188E-2    3.139394371136014E-2   -1.317465222475554E-2    3.137789408871078E-2   -4.903361529366381E-1   -1.497980623223953E-1
 6.501003523100000E9    -4.288801651777923E-1   -3.050839192561933E-1   -1.500480420894199E-2    3.155034288995318E-2   -1.320191699423431E-2    3.157897199019568E-2   -4.906369109252330E-1   -1.486561189818479E-1
 6.501016301200000E9    -4.294080216602430E-1   -3.043049788584957E-1   -1.499521031964463E-2    3.163745800789996E-2   -1.319110211493579E-2    3.166933013266537E-2   -4.909385744407193E-1   -1.474207884599456E-1
 6.501029079300000E9    -4.300461242054906E-1   -3.034039467653657E-1   -1.500139357572769E-2    3.187007546223040E-2   -1.321387988919985E-2    3.188793385923452E-2   -4.913014923816783E-1   -1.461706298245853E-1
 6.501041857400000E9    -4.306029959047459E-1   -3.024770135742688E-1   -1.501798957985442E-2    3.203021825276939E-2   -1.323311829537042E-2    3.207434363792682E-2   -4.914931349094757E-1   -1.450362026791410E-1
 6.501054635500000E9    -4.311947617220611E-1   -3.016936854985838E-1   -1.514560168388488E-2    3.239978300083832E-2   -1.326938038142813E-2    3.231205228764259E-2   -4.919590884683898E-1   -1.438518083727123E-1
 6.501067413600000E9    -4.317803430082320E-1   -3.007103356955976E-1   -1.493432987642730E-2    3.246036374235654E-2   -1.325130052432822E-2    3.247848876961609E-2   -4.922217440933208E-1   -1.425995967116666E-1
 6.501080191700000E9    -4.322616649411385E-1   -2.997314468455523E-1   -1.490822504759357E-2    3.271316397540287E-2   -1.317026752258899E-2    3.269038436177223E-2   -4.924064541701731E-1   -1.413836636079411E-1
 6.501092969800000E9    -4.330282239379393E-1   -2.989895825726075E-1   -1.503918485046345E-2    3.290891554986018E-2   -1.317478834124383E-2    3.294852815424058E-2   -4.928091468511469E-1   -1.401758635266017E-1
 6.501105747900000E9    -4.335853735997253E-1   -2.980644133839268E-1   -1.496006812967069E-2    3.302303428268809E-2   -1.316097913475257E-2    3.322308674704533E-2   -4.929166410982306E-1   -1.387911858769249E-1
 6.501118526000000E9    -4.341689596720700E-1   -2.972725092250578E-1   -1.499493011219615E-2    3.326093385648034E-2   -1.317321400448681E-2    3.330559677630547E-2   -4.932339702126634E-1   -1.376991161802401E-1
 6.501131304100000E9    -4.346783548044931E-1   -2.963038031521596E-1   -1.501484033818109E-2    3.347690789350921E-2   -1.321540036897692E-2    3.356061266788492E-2   -4.934951828034918E-1   -1.363368798152785E-1
 6.501144082200000E9    -4.352408832770699E-1   -2.952879432472117E-1   -1.492766623556987E-2    3.376221703019941E-2   -1.319832866668736E-2    3.372875582563876E-2   -4.937697150938250E-1   -1.350342080102708E-1
 6.501156860300000E9    -4.357903430251080E-1   -2.945018718775688E-1   -1.507117328140486E-2    3.398593768504914E-2   -1.314281688858483E-2    3.402956725684163E-2   -4.939654072957439E-1   -1.335927194225512E-1
 6.501169638400000E9    -4.364670178616202E-1   -2.935982914745412E-1   -1.504121444468995E-2    3.423113285297444E-2   -1.314376932094665E-2    3.432273375961443E-2   -4.941975147254021E-1   -1.323963951422856E-1
 6.501182416500000E9    -4.369574881646063E-1   -2.925854058126682E-1   -1.493910920766326E-2    3.444525358553863E-2   -1.310745738756894E-2    3.456210641232034E-2   -4.944862638276039E-1   -1.310971562372560E-1
 6.501195194600000E9    -4.375589643621224E-1   -2.917952242471045E-1   -1.503040975690553E-2    3.475063326204884E-2   -1.308785211719667E-2    3.478242326406897E-2   -4.948046505614137E-1   -1.299415594254623E-1
 6.501207972700000E9    -4.381164090271299E-1   -2.908438179272193E-1   -1.510902588782607E-2    3.480315029132885E-2   -1.308233593298503E-2    3.491671364884619E-2   -4.949834464641109E-1   -1.285593822998747E-1
 6.501220750800000E9    -4.386789379378124E-1   -2.899831696811865E-1   -1.497221506058090E-2    3.507230117233807E-2   -1.302133422316166E-2    3.510904447804564E-2   -4.953868668117566E-1   -1.273818410363014E-1
 6.501233528900000E9    -4.392078359393561E-1   -2.890550900057697E-1   -1.505074458023193E-2    3.540578505142168E-2   -1.299397151205173E-2    3.536655119014073E-2   -4.956000545137366E-1   -1.259284576542863E-1
 6.501246307000000E9    -4.398569512775562E-1   -2.880060145875924E-1   -1.488431967961135E-2    3.559030008885831E-2   -1.301684967312849E-2    3.563426151618156E-2   -4.957179983238410E-1   -1.246688385920565E-1
 6.501259085100000E9    -4.404192366436709E-1   -2.871562431693697E-1   -1.494791968002768E-2    3.588464018195923E-2   -1.295457685021655E-2    3.581679663055677E-2   -4.958967581827587E-1   -1.234194108705528E-1
 6.501271863200000E9    -4.408450001419828E-1   -2.862136424241168E-1   -1.494373974478552E-2    3.621192806293919E-2   -1.300688116522417E-2    3.613087432986242E-2   -4.962789065168839E-1   -1.221059314870377E-1
 6.501284641300000E9    -4.416091581310286E-1   -2.852900703544949E-1   -1.495501158192086E-2    3.638609400026022E-2   -1.303458936277445E-2    3.627159080363329E-2   -4.963899965043586E-1   -1.209062253612557E-1
 6.501297419400000E9    -4.420170236143897E-1   -2.843553218991730E-1   -1.502670917507870E-2    3.658999272668466E-2   -1.300256377927598E-2    3.662966927033574E-2   -4.966250144715593E-1   -1.194518065538497E-1
 6.501310197500000E9    -4.425718568531925E-1   -2.834415092777730E-1   -1.498850866722258E-2    3.687131663852378E-2   -1.297927878807300E-2    3.689135962208620E-2   -4.968339720603923E-1   -1.182359526494705E-1
 6.501322975600000E9    -4.433080353754711E-1   -2.824037000206592E-1   -1.493380592128631E-2    3.702226684430807E-2   -1.288571883122539E-2    3.709996374626674E-2   -4.971926329178150E-1   -1.168343906044703E-1
 6.501335753700000E9    -4.437435355041839E-1   -2.815657274766857E-1   -1.497746786705134E-2    3.736688820857868E-2   -1.292760998812599E-2    3.736492181392620E-2   -4.972165527568867E-1   -1.154665622950882E-1
 6.501348531800000E9    -4.443373259598434E-1   -2.806310350309897E-1   -1.499465561086638E-2    3.784362298567713E-2   -1.286394779410728E-2    3.759329421087639E-2   -4.974454237088020E-1   -1.142623039676861E-1
 6.501361309900000E9    -4.447516732627391E-1   -2.796541349618081E-1   -1.488010737784357E-2    3.788655498271942E-2   -1.291238020278485E-2    3.774855972510548E-2   -4.976589120283107E-1   -1.128767838042483E-1
 6.501374088000000E9    -4.453343724801715E-1   -2.786427660772040E-1   -1.486453061337479E-2    3.824685037173721E-2   -1.293055375462552E-2    3.803852011685660E-2   -4.978709377882038E-1   -1.114988638108676E-1
 6.501386866100000E9    -4.459398554417495E-1   -2.777824857860663E-1   -1.491741218447056E-2    3.845897632330701E-2   -1.281953876308852E-2    3.829113954794459E-2   -4.980979333903099E-1   -1.100346388638069E-1
 6.501399644200000E9    -4.465163876628765E-1   -2.769456746492376E-1   -1.488340871166301E-2    3.875820657309932E-2   -1.286692141100714E-2    3.864567528948244E-2   -4.983275625754231E-1   -1.086301548713617E-1
 6.501412422300000E9    -4.470868308137069E-1   -2.758827821545776E-1   -1.482655129213700E-2    3.901562585799811E-2   -1.284058063582461E-2    3.882954085759852E-2   -4.985585570768264E-1   -1.071917953292436E-1
 6.501425200400000E9    -4.475860186714701E-1   -2.749346276368710E-1   -1.482671080784773E-2    3.936653536616899E-2   -1.276577566816342E-2    3.908631908169991E-2   -4.987729755917368E-1   -1.058418957706569E-1
 6.501437978500000E9    -4.481450683809524E-1   -2.739163844340645E-1   -1.491384663490803E-2    3.952430249419331E-2   -1.273436819065864E-2    3.945880892497457E-2   -4.989106145946688E-1   -1.044854873664627E-1
 6.501450756600000E9    -4.486039132312682E-1   -2.729985990843186E-1   -1.481212243910990E-2    3.988585070241429E-2   -1.271367571345516E-2    3.971522469319734E-2   -4.991080083164594E-1   -1.030915967433035E-1
 6.501463534700000E9    -4.492702104097730E-1   -2.720752720007628E-1   -1.483437828675078E-2    4.025273066117915E-2   -1.272004017119334E-2    3.999625067429208E-2   -4.992432302856475E-1   -1.017699155455251E-1
 6.501476312800000E9    -4.497334779046829E-1   -2.711437104952289E-1   -1.491267137646153E-2    4.059289779756307E-2   -1.268515695156582E-2    4.028768244091999E-2   -4.994258387011738E-1   -1.002443036784200E-1
 6.501489090900000E9    -4.502852866602581E-1   -2.701459972960571E-1   -1.488712296414792E-2    4.067791990432411E-2   -1.266196392310101E-2    4.060309601686232E-2   -4.997767325106620E-1   -9.894035419791450E-2
 6.501501869000000E9    -4.508386652637357E-1   -2.691826049555149E-1   -1.478828246011493E-2    4.115403652286156E-2   -1.269762981615739E-2    4.089557353686091E-2   -4.997993857227209E-1   -9.758594928621470E-2
 6.501514647100000E9    -4.513304857119346E-1   -2.682017547174717E-1   -1.482340434267249E-2    4.136859203366944E-2   -1.266839136941412E-2    4.119827762079007E-2   -4.998967413890418E-1   -9.605531772018687E-2
 6.501527425200000E9    -4.518600083689042E-1   -2.671450038176547E-1   -1.486498667941901E-2    4.182730107140956E-2   -1.264337271243221E-2    4.153679800035404E-2   -5.001072381084567E-1   -9.469662527205881E-2
 6.501540203300000E9    -4.523390495123496E-1   -2.661887371661505E-1   -1.474797975594871E-2    4.193715048698756E-2   -1.258528309537602E-2    4.175351626195173E-2   -5.002525416580540E-1   -9.321645152229324E-2
 6.501552981400000E9    -4.528405276566642E-1   -2.653441698935946E-1   -1.468534748183420E-2    4.235437014698046E-2   -1.256263561462329E-2    4.207376522032760E-2   -5.003925437857729E-1   -9.179821563265997E-2
 6.501565759500000E9    -4.533759829919380E-1   -2.642402225069743E-1   -1.472204371739226E-2    4.263653022327395E-2   -1.250476572546232E-2    4.238324757594888E-2   -5.004984189373455E-1   -9.032117730819238E-2
 6.501578537600000E9    -4.539104223191187E-1   -2.632439636023566E-1   -1.462144556097944E-2    4.295129607369710E-2   -1.232715438955189E-2    4.279459136628710E-2   -5.006018549623428E-1   -8.878662473963475E-2
 6.501591315700000E9    -4.544385613603272E-1   -2.621475304226429E-1   -1.464385177159078E-2    4.329523264652618E-2   -1.237561803725258E-2    4.306296604310222E-2   -5.008139881826654E-1   -8.741640478522852E-2
 6.501604093800000E9    -4.549874847343325E-1   -2.611818474504489E-1   -1.460832300375493E-2    4.352202328869142E-2   -1.242676988990738E-2    4.330948247048658E-2   -5.009633146105675E-1   -8.590532297538556E-2
 6.501616871900000E9    -4.555371000778776E-1   -2.603245351282358E-1   -1.463858069231129E-2    4.390949148322222E-2   -1.236184733252789E-2    4.366985615825802E-2   -5.010364990456589E-1   -8.438369610406912E-2
 6.501629650000000E9    -4.561064897519244E-1   -2.592529430623883E-1   -1.451211368454399E-2    4.421141794300670E-2   -1.235509794052632E-2    4.401929292448939E-2   -5.012719242424213E-1   -8.299630607986141E-2
 6.501642428100000E9    -4.566040423102305E-1   -2.582485957529297E-1   -1.461751684134732E-2    4.463743483259661E-2   -1.241840587672313E-2    4.435380368689387E-2   -5.013863127733310E-1   -8.152692007988716E-2
 6.501655206200000E9    -4.570666364657514E-1   -2.572245437055254E-1   -1.459081767416039E-2    4.508335436254692E-2   -1.226563956495718E-2    4.473032815230113E-2   -5.015882122963363E-1   -7.989348680913812E-2
 6.501667984300000E9    -4.575386195036134E-1   -2.562135222917155E-1   -1.445686547038965E-2    4.541854378977445E-2   -1.217709279608722E-2    4.502512520604750E-2   -5.014418871759527E-1   -7.841277692774340E-2
 6.501680762400000E9    -4.580892993796559E-1   -2.552678668727474E-1   -1.456717955475491E-2    4.574830148492763E-2   -1.221156231398310E-2    4.540258247575369E-2   -5.016456993413791E-1   -7.696269779396595E-2
 6.501693540500000E9    -4.586464482637138E-1   -2.541156454498618E-1   -1.454760697561244E-2    4.617641629255466E-2   -1.219491534277859E-2    4.586534193955424E-2   -5.017447760947046E-1   -7.528056326225682E-2
 6.501706318600000E9    -4.591504960456914E-1   -2.532384096491088E-1   -1.450915201137355E-2    4.648039642046191E-2   -1.216417323686990E-2    4.623377271255398E-2   -5.019070832287053E-1   -7.381265805838416E-2
 6.501719096700000E9    -4.596023203875544E-1   -2.521785786952546E-1   -1.443578888249639E-2    4.677427353171428E-2   -1.208860401885270E-2    4.649888105060819E-2   -5.020105196058925E-1   -7.210496004046114E-2
 6.501731874800000E9    -4.600645126184402E-1   -2.510619913344700E-1   -1.446722331368526E-2    4.729766582945743E-2   -1.193654766532563E-2    4.693311250394264E-2   -5.019654603403213E-1   -7.068626232479336E-2
 6.501744652900000E9    -4.605267089954859E-1   -2.500671482390563E-1   -1.438772809018139E-2    4.757847136655341E-2   -1.203118075241740E-2    4.729813908583602E-2   -5.021200239711477E-1   -6.908382817874187E-2
 6.501757431000000E9    -4.610652039521649E-1   -2.489723949863374E-1   -1.429746128449389E-2    4.803993658380001E-2   -1.184668113883223E-2    4.763133289750733E-2   -5.022493072495399E-1   -6.753001260571988E-2
 6.501770209100000E9    -4.614577853732094E-1   -2.479803282445072E-1   -1.431559692463352E-2    4.849462148822098E-2   -1.181713683192435E-2    4.809468086141126E-2   -5.022834384592874E-1   -6.601861793722588E-2
 6.501782987200000E9    -4.620058901482753E-1   -2.468247427251971E-1   -1.407978747730289E-2    4.891371729218041E-2   -1.173379003147947E-2    4.847488929815889E-2   -5.021719145165119E-1   -6.449554782913651E-2
 6.501795765300000E9    -4.625944880226869E-1   -2.458805281697378E-1   -1.411033977810019E-2    4.934751745534042E-2   -1.174703117391695E-2    4.885669642571461E-2   -5.023741296402777E-1   -6.274886322131405E-2
 6.501808543400000E9    -4.630865807387045E-1   -2.448870477020761E-1   -1.409826868552197E-2    4.977216292632174E-2   -1.165170879963691E-2    4.919615367213163E-2   -5.024076228937270E-1   -6.114843260393679E-2
 6.501821321500000E9    -4.635563914210266E-1   -2.437491220138960E-1   -1.419712968486950E-2    5.022059466540258E-2   -1.167555817277214E-2    4.965026756797709E-2   -5.023818929245786E-1   -5.945797477666073E-2
 6.501834099600000E9    -4.640651370228767E-1   -2.427828648159033E-1   -1.407895767443862E-2    5.070212634410634E-2   -1.153890505842108E-2    5.009420883092967E-2   -5.024685350706207E-1   -5.776150607827148E-2
 6.501846877700000E9    -4.644183428011623E-1   -2.415011072764249E-1   -1.386616206127130E-2    5.106760374110702E-2   -1.143034119451876E-2    5.038707420720154E-2   -5.024157424220893E-1   -5.621652959217379E-2
 6.501859655800000E9    -4.650780846538778E-1   -2.405680955883102E-1   -1.386957565234623E-2    5.149752631583745E-2   -1.151348570083708E-2    5.104887324134409E-2   -5.023339766960887E-1   -5.449353636109816E-2
 6.501872433900000E9    -4.655473245458510E-1   -2.394553144958473E-1   -1.395169178424990E-2    5.185008942997995E-2   -1.129851171871121E-2    5.145222579054316E-2   -5.025162558597043E-1   -5.284267388747202E-2
 6.501885212000000E9    -4.660347014168240E-1   -2.383901417316677E-1   -1.370048029686446E-2    5.242054840513518E-2   -1.132101143748649E-2    5.178266222298081E-2   -5.025041579264249E-1   -5.114868538342551E-2
 6.501897990100000E9    -4.664368311636110E-1   -2.373359807272936E-1   -1.368572734795904E-2    5.293753316713450E-2   -1.122175238215362E-2    5.234570086372044E-2   -5.023277688019443E-1   -4.953136884924318E-2
 6.501910768200000E9    -4.669211905686144E-1   -2.362127079242703E-1   -1.370099942230778E-2    5.333701798117067E-2   -1.107059999075831E-2    5.275454186758990E-2   -5.025451970488920E-1   -4.760510632736870E-2
 6.501923546300000E9    -4.673771511614067E-1   -2.350282918155642E-1   -1.369018292768046E-2    5.388908871431459E-2   -1.098987084426987E-2    5.328261286235032E-2   -5.023051274986445E-1   -4.593297321238975E-2
 6.501936324400000E9    -4.679374844402107E-1   -2.339281861084662E-1   -1.358681465365722E-2    5.446277337506241E-2   -1.099636264067679E-2    5.359220576066102E-2   -5.022834323548305E-1   -4.424651122679435E-2
 6.501949102500000E9    -4.682288897050877E-1   -2.328956037976920E-1   -1.357901131110767E-2    5.488589457967085E-2   -1.089736992876277E-2    5.423388744568053E-2   -5.022546348958292E-1   -4.250626712305863E-2
 6.501961880600000E9    -4.686633206190557E-1   -2.317244495587471E-1   -1.341873151625388E-2    5.528977885766509E-2   -1.084717154759798E-2    5.470967556495417E-2   -5.022093090239780E-1   -4.083015681039825E-2
 6.501974658700000E9    -4.692819865947128E-1   -2.306556647800602E-1   -1.337882715536045E-2    5.591198802814530E-2   -1.069852150057710E-2    5.509604622065372E-2   -5.022786369844047E-1   -3.900191805796491E-2
 6.501987436800000E9    -4.696886549343477E-1   -2.294753725985391E-1   -1.329342037192521E-2    5.627937159174058E-2   -1.067458148282380E-2    5.565340625268997E-2   -5.021379393041835E-1   -3.707579189844248E-2
 6.502000214900000E9    -4.701482899866349E-1   -2.284552060790457E-1   -1.319435394291948E-2    5.697296307693038E-2   -1.053044950528367E-2    5.614372058369055E-2   -5.019525704471417E-1   -3.532299308776287E-2
 6.502012993000000E9    -4.705627010213999E-1   -2.272218380918130E-1   -1.309579024661526E-2    5.737994119915380E-2   -1.039684092904680E-2    5.669759795430935E-2   -5.018749773370578E-1   -3.344656192533364E-2
