#  HZ   S   RI   R     50.00 
! Rohde & Schwarz Vector Network Analyzer 
! Rohde-Schwarz,ZNB20-2Port,1311601062101988,3.16
! Created: UTC 3/20/2024, 11:49:02 AM
! freq[Hz]                re:S11                  im:S11                  re:S21                  im:S21                  re:S12                  im:S12                  re:S22                  im:S22
 6.500850190000000E9    -4.216552729780257E-1   -3.154771748900303E-1   -1.499275598620811E-2    2.923998555376606E-2   -1.331307096468651E-2    2.953418971648604E-2   -4.870184684237955E-1   -1.630064387640940E-1
 6.500863014825000E9    -4.222154694790896E-1   -3.145811023482973E-1   -1.491990007181754E-2    2.943907491903195E-2   -1.318484916472959E-2    2.963114749914882E-2   -4.872892979268271E-1   -1.619702440614851E-1
 6.500875839650000E9    -4.228093231704144E-1   -3.137001690120715E-1   -1.492212810187563E-2    2.966345098491437E-2   -1.318396324748330E-2    2.983731472319733E-2   -4.875240853704085E-1   -1.607738067519618E-1
 6.500888664475000E9    -4.234831128865881E-1   -3.128938770374963E-1   -1.496335860366568E-2    2.978038728135689E-2   -1.331414116969572E-2    2.995597183252008E-2   -4.879992043468325E-1   -1.595164680677435E-1
 6.500901489300000E9    -4.240433448130976E-1   -3.119562520032703E-1   -1.502996428788771E-2    2.995219492789564E-2   -1.332672214088004E-2    3.005877437648709E-2   -4.882231714150468E-1   -1.582820717888956E-1
 6.500914314125000E9    -4.246327836401046E-1   -3.111162936613625E-1   -1.489373394583928E-2    3.013040521514323E-2   -1.330650179855237E-2    3.029635557463970E-2   -4.885623074977863E-1   -1.570713443870310E-1
 6.500927138950000E9    -4.252405794170078E-1   -3.102015339450883E-1   -1.494771613647644E-2    3.032607196233631E-2   -1.329562044667535E-2    3.045344026572455E-2   -4.888435204968465E-1   -1.559316505288953E-1
 6.500939963775000E9    -4.259056365559521E-1   -3.093255741870835E-1   -1.498600947708304E-2    3.057658569248733E-2   -1.318168839091218E-2    3.061907451510141E-2   -4.891524279124898E-1   -1.547356232622837E-1
 6.500952788600000E9    -4.265466500749499E-1   -3.084719114360917E-1   -1.503837906171125E-2    3.087572348539782E-2   -1.328776887364662E-2    3.082795742270450E-2   -4.893733441982969E-1   -1.535150111495319E-1
 6.500965613425000E9    -4.270948064025884E-1   -3.075433752919250E-1   -1.489261509102918E-2    3.097542588814443E-2   -1.320482193429339E-2    3.108001189711498E-2   -4.898095409293313E-1   -1.522812147341324E-1
 6.500978438250000E9    -4.277423323411857E-1   -3.067371566765084E-1   -1.505782300966197E-2    3.101374616753590E-2   -1.322778023262667E-2    3.124187009970539E-2   -4.901260207703815E-1   -1.511805383383094E-1
 6.500991263075000E9    -4.283183931554607E-1   -3.059826792204831E-1   -1.503854307952782E-2    3.137631316242975E-2   -1.332573323766188E-2    3.144931381046621E-2   -4.903177986083498E-1   -1.497363268465985E-1
 6.501004087900000E9    -4.289471060946382E-1   -3.049789692474920E-1   -1.510542541681176E-2    3.147158532695964E-2   -1.329100679854490E-2    3.165609969306944E-2   -4.907239142276896E-1   -1.486233275874879E-1
 6.501016912725000E9    -4.294909433640314E-1   -3.040504365349682E-1   -1.513377600363190E-2    3.168402157348547E-2   -1.328762313328636E-2    3.184994243833247E-2   -4.909304269642834E-1   -1.473133552585995E-1
 6.501029737550000E9    -4.300348299422787E-1   -3.032221867942303E-1   -1.509682864582616E-2    3.186743312600010E-2   -1.326239187227948E-2    3.196794394819283E-2   -4.913761532094626E-1   -1.462368133618776E-1
 6.501042562375000E9    -4.307130935499788E-1   -3.023220321438128E-1   -1.503374991595952E-2    3.210648558301583E-2   -1.324867065245277E-2    3.216336800694470E-2   -4.915487606893599E-1   -1.448932111651843E-1
 6.501055387200000E9    -4.313063777184961E-1   -3.013698301658521E-1   -1.503644447935805E-2    3.230824905147357E-2   -1.320318347517955E-2    3.245075485777257E-2   -4.919262327761148E-1   -1.437323001144349E-1
 6.501068212025000E9    -4.318452996118411E-1   -3.005561648301098E-1   -1.511763831900950E-2    3.254147234079782E-2   -1.333454143396305E-2    3.259430334437177E-2   -4.921050600018909E-1   -1.423764087966629E-1
 6.501081036850000E9    -4.324472986395274E-1   -2.996748531512114E-1   -1.483950794192273E-2    3.268627376679585E-2   -1.321332475149868E-2    3.280872026305656E-2   -4.924105149674408E-1   -1.413062776390183E-1
 6.501093861675000E9    -4.330530988070915E-1   -2.986969886420541E-1   -1.492630388156342E-2    3.290074991443571E-2   -1.318947037389917E-2    3.300072304649766E-2   -4.927718063100386E-1   -1.400099990121185E-1
 6.501106686500000E9    -4.335725456337351E-1   -2.978005251556283E-1   -1.494884594228307E-2    3.316991318782959E-2   -1.320769125715922E-2    3.320058491831502E-2   -4.929730181719335E-1   -1.387240182138833E-1
 6.501119511325000E9    -4.342542914073266E-1   -2.969022351568619E-1   -1.495786910442606E-2    3.346814175430769E-2   -1.318325418903967E-2    3.346466748248502E-2   -4.932453621659792E-1   -1.374384405441503E-1
 6.501132336150000E9    -4.347212872056600E-1   -2.960396471356013E-1   -1.504725093565106E-2    3.364687859884190E-2   -1.316300769649931E-2    3.365755781647933E-2   -4.934316676681639E-1   -1.361104923872425E-1
 6.501145160975000E9    -4.352815668028659E-1   -2.951711911239494E-1   -1.501944484553596E-2    3.376634822366645E-2   -1.313651293124247E-2    3.375920144494508E-2   -4.936607268758509E-1   -1.348371070443068E-1
 6.501157985800000E9    -4.360135305842648E-1   -2.941965907117180E-1   -1.502386296032720E-2    3.410396955441680E-2   -1.319148465579463E-2    3.404067316806571E-2   -4.940908870537852E-1   -1.336209776045687E-1
 6.501170810625000E9    -4.364995060586508E-1   -2.933982905627170E-1   -1.512889425603068E-2    3.422546456610703E-2   -1.308517516617069E-2    3.434624984682505E-2   -4.942248572030036E-1   -1.322683776788925E-1
 6.501183635450000E9    -4.371884493015113E-1   -2.924099572344966E-1   -1.499707222136744E-2    3.451177687230191E-2   -1.318984759602357E-2    3.448146888080020E-2   -4.944849761928110E-1   -1.310271772545613E-1
 6.501196460275000E9    -4.376696204352054E-1   -2.914724743739479E-1   -1.498425678602018E-2    3.478048587239948E-2   -1.308484996612376E-2    3.479987531862506E-2   -4.947324105205488E-1   -1.297380382489418E-1
 6.501209285100000E9    -4.383090784418929E-1   -2.906570209156445E-1   -1.483385767784762E-2    3.479469346029498E-2   -1.305581784641870E-2    3.505928286491724E-2   -4.950083018407658E-1   -1.283451560255905E-1
 6.501222109925000E9    -4.388100108087854E-1   -2.896006445102838E-1   -1.493836854725706E-2    3.516335945492325E-2   -1.300329463257826E-2    3.523412045059026E-2   -4.951820520610707E-1   -1.271597750675664E-1
 6.501234934750000E9    -4.392758199244459E-1   -2.887515058246106E-1   -1.504898490939795E-2    3.539070364788158E-2   -1.303254664338919E-2    3.550806128089365E-2   -4.955084517143019E-1   -1.258620305207656E-1
 6.501247759575000E9    -4.399018374006603E-1   -2.878594585710973E-1   -1.498264789368541E-2    3.572929483956012E-2   -1.305266622240753E-2    3.568022162882423E-2   -4.957370464641607E-1   -1.246807422316671E-1
 6.501260584400000E9    -4.404896503456901E-1   -2.869523584329635E-1   -1.498735892158808E-2    3.594808617354945E-2   -1.300143187027897E-2    3.595324931877895E-2   -4.960760617586134E-1   -1.231685565179289E-1
 6.501273409225000E9    -4.410836363917799E-1   -2.860473691788322E-1   -1.497558812273015E-2    3.627091570350944E-2   -1.309540333726034E-2    3.615716947590988E-2   -4.962447474795763E-1   -1.219272407352504E-1
 6.501286234050000E9    -4.416392399954681E-1   -2.849868982676628E-1   -1.496854839953671E-2    3.645563296463639E-2   -1.304066818096320E-2    3.632461864418812E-2   -4.963971283164867E-1   -1.206354236521221E-1
 6.501299058875000E9    -4.422299813258772E-1   -2.841603245810297E-1   -1.497404892451481E-2    3.674242301433828E-2   -1.297592625430686E-2    3.659240530714362E-2   -4.966419694437223E-1   -1.192052610198199E-1
 6.501311883700000E9    -4.427347341042536E-1   -2.830972786724747E-1   -1.494706204737692E-2    3.692086322771960E-2   -1.291143201788363E-2    3.691983566816841E-2   -4.967582644508647E-1   -1.179575343956308E-1
 6.501324708525000E9    -4.432950392115328E-1   -2.821641425139394E-1   -1.490578890507329E-2    3.723470026041222E-2   -1.291868731694412E-2    3.713753743557024E-2   -4.970721290165784E-1   -1.166093397520233E-1
 6.501337533350000E9    -4.438564664522998E-1   -2.813532470306667E-1   -1.490848485308491E-2    3.757181224130030E-2   -1.296479137549175E-2    3.742919017447941E-2   -4.971093009640203E-1   -1.152160691565983E-1
 6.501350358175000E9    -4.443789921758790E-1   -2.804115967412249E-1   -1.493961991511354E-2    3.778061086776539E-2   -1.286718085592651E-2    3.770676459116475E-2   -4.974252478732914E-1   -1.138925327326018E-1
 6.501363183000000E9    -4.450369528902077E-1   -2.794613113404215E-1   -1.492613822435810E-2    3.802724013873836E-2   -1.301976389404896E-2    3.794270629454406E-2   -4.978065344947442E-1   -1.124287106127414E-1
 6.501376007825000E9    -4.455708543825546E-1   -2.784592831965387E-1   -1.500774709049615E-2    3.825099760189911E-2   -1.290932757170330E-2    3.823117872498679E-2   -4.979101794893834E-1   -1.110595442203012E-1
 6.501388832650000E9    -4.460803240609641E-1   -2.775687880199821E-1   -1.491549602246232E-2    3.876210074452127E-2   -1.290863023760607E-2    3.849989366535079E-2   -4.981986787210087E-1   -1.097717514363715E-1
 6.501401657475000E9    -4.466414500708656E-1   -2.765289294695578E-1   -1.495637184716483E-2    3.885572075774810E-2   -1.280520242800719E-2    3.875347006980668E-2   -4.982606663436882E-1   -1.084437348519205E-1
 6.501414482300000E9    -4.472346293109187E-1   -2.756063410537630E-1   -1.478699041799264E-2    3.915507748248864E-2   -1.290615572102628E-2    3.896654757542560E-2   -4.984454140481389E-1   -1.070510593935501E-1
 6.501427307125000E9    -4.477081761549914E-1   -2.746534601127299E-1   -1.477927962718120E-2    3.950363090613059E-2   -1.280538162524223E-2    3.926333981723482E-2   -4.987476321883305E-1   -1.056762427753820E-1
 6.501440131950000E9    -4.482064802358767E-1   -2.737106037981916E-1   -1.488358429421196E-2    3.959196158147538E-2   -1.268949691154167E-2    3.950353297726034E-2   -4.989128260316418E-1   -1.041651924849039E-1
 6.501452956775000E9    -4.488534712064778E-1   -2.726872141366088E-1   -1.481164410775375E-2    3.999065730374760E-2   -1.279760904114304E-2    3.990152639148247E-2   -4.990591620706297E-1   -1.029055114367610E-1
 6.501465781600000E9    -4.493852456140199E-1   -2.716972338086003E-1   -1.480230438664824E-2    4.026599740281735E-2   -1.266652947749216E-2    4.008727343462711E-2   -4.992245659444801E-1   -1.015263538566542E-1
 6.501478606425000E9    -4.498905811527050E-1   -2.707729755890598E-1   -1.483845022059062E-2    4.061477838058510E-2   -1.264265656695623E-2    4.035762508723464E-2   -4.994476660687346E-1   -1.000227831980311E-1
 6.501491431250000E9    -4.503157184766489E-1   -2.697897089544479E-1   -1.477742275916872E-2    4.094591958794126E-2   -1.263862527929013E-2    4.081199226083082E-2   -4.996321180670736E-1   -9.875870758494582E-2
 6.501504256075000E9    -4.509334896945446E-1   -2.688609914936315E-1   -1.458909011039727E-2    4.118339853717128E-2   -1.261706114407964E-2    4.100684892443204E-2   -4.998098023353013E-1   -9.730916804980944E-2
 6.501517080900000E9    -4.515596008091440E-1   -2.677590196461722E-1   -1.475261709475438E-2    4.147644064312016E-2   -1.263805852023679E-2    4.127645889521803E-2   -4.999123908624902E-1   -9.569377477588914E-2
 6.501529905725000E9    -4.520500487825038E-1   -2.668356804987257E-1   -1.487712585519650E-2    4.178757250940222E-2   -1.261925677052274E-2    4.166363677665276E-2   -5.002175651549342E-1   -9.422563267766805E-2
 6.501542730550000E9    -4.525494364005093E-1   -2.658349024527443E-1   -1.470230206633607E-2    4.214858518751860E-2   -1.256993898698387E-2    4.188533011474524E-2   -5.001595563885545E-1   -9.289748947472339E-2
 6.501555555375000E9    -4.530275916820019E-1   -2.648341384066903E-1   -1.479734123652188E-2    4.253536510469780E-2   -1.251178343685531E-2    4.212729898813546E-2   -5.003948732010813E-1   -9.132269022844121E-2
 6.501568380200000E9    -4.534955667513832E-1   -2.638894159789547E-1   -1.457968593764380E-2    4.294473988997476E-2   -1.261034463609381E-2    4.259749253608328E-2   -5.005370895373826E-1   -8.993484708017865E-2
 6.501581205025000E9    -4.540958385104035E-1   -2.628330924149702E-1   -1.465296454850785E-2    4.317506709827201E-2   -1.245577922953795E-2    4.290056017430359E-2   -5.005301288964112E-1   -8.836918961729781E-2
 6.501594029850000E9    -4.546000048380839E-1   -2.619700693272777E-1   -1.463574832323917E-2    4.345383821366991E-2   -1.244601223623930E-2    4.309006570587910E-2   -5.008631290566621E-1   -8.697841542552488E-2
 6.501606854675000E9    -4.551068391667870E-1   -2.608872681029084E-1   -1.474750217675562E-2    4.384372470459602E-2   -1.238861981676133E-2    4.355658202240144E-2   -5.009526462461511E-1   -8.553093524125915E-2
 6.501619679500000E9    -4.556275232620448E-1   -2.598227904779409E-1   -1.463322448258596E-2    4.421615967156532E-2   -1.231339990130224E-2    4.385940826950350E-2   -5.010293487422010E-1   -8.398616705166051E-2
 6.501632504325000E9    -4.561608357969184E-1   -2.588390180376185E-1   -1.455162841129740E-2    4.449930864584189E-2   -1.235170187436658E-2    4.428471783000914E-2   -5.011100865854810E-1   -8.270295612772302E-2
 6.501645329150000E9    -4.566735963411218E-1   -2.578733703222335E-1   -1.463784029886927E-2    4.479679369995499E-2   -1.235929267141613E-2    4.458879286642249E-2   -5.013104504569414E-1   -8.097270623754450E-2
 6.501658153975000E9    -4.572059671382220E-1   -2.568580425533456E-1   -1.455263425924595E-2    4.522713911668641E-2   -1.229366240531865E-2    4.489712631252611E-2   -5.014276386182083E-1   -7.945318418879793E-2
 6.501670978800000E9    -4.577548239221887E-1   -2.557817819880897E-1   -1.464714141129311E-2    4.561780798366986E-2   -1.219431434805462E-2    4.527966268033047E-2   -5.016126626900550E-1   -7.797106138185313E-2
 6.501683803625000E9    -4.582113900937883E-1   -2.547737310680045E-1   -1.429986623050576E-2    4.592223477274018E-2   -1.216060296620996E-2    4.558564502114226E-2   -5.015291117524464E-1   -7.633808365344950E-2
 6.501696628450000E9    -4.587804991941959E-1   -2.537859793368093E-1   -1.448735074553625E-2    4.633160686418979E-2   -1.218603866606187E-2    4.591137128592148E-2   -5.017368281158630E-1   -7.493236203189539E-2
 6.501709453275000E9    -4.592703364883288E-1   -2.528572993993078E-1   -1.447608748709956E-2    4.668775254044147E-2   -1.203924395390692E-2    4.631901423744660E-2   -5.018869916174193E-1   -7.326998258911496E-2
 6.501722278100000E9    -4.597965931364794E-1   -2.517201325157218E-1   -1.448201797457706E-2    4.705482881922100E-2   -1.199967631748929E-2    4.673796583496784E-2   -5.019204124710445E-1   -7.172501467282634E-2
 6.501735102925000E9    -4.602102087710473E-1   -2.506716471405770E-1   -1.436963658666306E-2    4.750457536095640E-2   -1.189296296909188E-2    4.712328576323443E-2   -5.019628223698102E-1   -7.013201999214078E-2
 6.501747927750000E9    -4.607157395720650E-1   -2.496230104672743E-1   -1.437462860956246E-2    4.785795649924264E-2   -1.192625864596199E-2    4.742265004061875E-2   -5.019797158441792E-1   -6.857697187086570E-2
 6.501760752575000E9    -4.612084159855981E-1   -2.485949174046781E-1   -1.434976902966109E-2    4.832547249371458E-2   -1.191541443947838E-2    4.782592631228624E-2   -5.020934835689047E-1   -6.708879394665371E-2
 6.501773577400000E9    -4.616917801931045E-1   -2.475227788157550E-1   -1.422762723457770E-2    4.874963692256552E-2   -1.177546097040682E-2    4.828402804403525E-2   -5.020607403155629E-1   -6.533587961889387E-2
 6.501786402225000E9    -4.622835561969681E-1   -2.464262013737310E-1   -1.421375412334930E-2    4.903959523295812E-2   -1.174307027139481E-2    4.860884065144631E-2   -5.020976580078199E-1   -6.386752594298137E-2
 6.501799227050000E9    -4.627374026269591E-1   -2.453597365716049E-1   -1.412565006540997E-2    4.948561054249601E-2   -1.165468399548176E-2    4.909089405706520E-2   -5.022170800845041E-1   -6.223811746586962E-2
 6.501812051875000E9    -4.632559407226939E-1   -2.443663019236286E-1   -1.414771878722950E-2    4.986346218174864E-2   -1.167433161470491E-2    4.945653478661199E-2   -5.022912563599481E-1   -6.051722564078681E-2
 6.501824876700000E9    -4.636870185487493E-1   -2.432823423584722E-1   -1.403369503089527E-2    5.046635009659751E-2   -1.162079759126273E-2    4.984348380034070E-2   -5.022867322996695E-1   -5.893887191749870E-2
 6.501837701525000E9    -4.641623326328680E-1   -2.422146370236630E-1   -1.402754524596563E-2    5.088463913219219E-2   -1.148544498144118E-2    5.033796612414322E-2   -5.022952480489431E-1   -5.724050041493464E-2
 6.501850526350000E9    -4.646425090256048E-1   -2.411528514253218E-1   -1.396124864457051E-2    5.115323586651452E-2   -1.150083421871997E-2    5.071945303895592E-2   -5.025188451081680E-1   -5.563090464775425E-2
 6.501863351175000E9    -4.651611257245798E-1   -2.400905585365181E-1   -1.389941260268958E-2    5.168359798815902E-2   -1.136053881745437E-2    5.121539778635565E-2   -5.023255787894487E-1   -5.384592226667314E-2
 6.501876176000000E9    -4.656873159765049E-1   -2.389774291684283E-1   -1.390526531550853E-2    5.225804728466498E-2   -1.140066056001425E-2    5.149382231711116E-2   -5.024400058629950E-1   -5.212238264874199E-2
 6.501889000825000E9    -4.660972517378559E-1   -2.378926861239166E-1   -1.380502522105615E-2    5.277587767311429E-2   -1.122992156954845E-2    5.213103252582407E-2   -5.024956772131556E-1   -5.057293676345810E-2
 6.501901825650000E9    -4.665828153054096E-1   -2.368529084875075E-1   -1.370207104634321E-2    5.321638719092126E-2   -1.116757350287090E-2    5.255642145146103E-2   -5.024303215141166E-1   -4.872518939462576E-2
 6.501914650475000E9    -4.670012067311481E-1   -2.357273008139099E-1   -1.373687170270189E-2    5.363506398649397E-2   -1.103482720296239E-2    5.301536875131328E-2   -5.022471687314022E-1   -4.693791574359019E-2
 6.501927475300000E9    -4.675361409243761E-1   -2.346281754352831E-1   -1.375975756522195E-2    5.407770537654336E-2   -1.097232329160917E-2    5.347020179069850E-2   -5.022391139994072E-1   -4.542005714946803E-2
 6.501940300125000E9    -4.679953392187963E-1   -2.334453546338651E-1   -1.365332569239561E-2    5.450031179730492E-2   -1.085893712402364E-2    5.390376802695842E-2   -5.022681593366554E-1   -4.348634895694894E-2
 6.501953124950000E9    -4.685271266709521E-1   -2.323564903650564E-1   -1.349698018140755E-2    5.517217169384616E-2   -1.084106580381841E-2    5.449678754741272E-2   -5.022920282718475E-1   -4.176674359472378E-2
 6.501965949775000E9    -4.689163800431004E-1   -2.312544393198978E-1   -1.344405604465963E-2    5.569055412399761E-2   -1.076259448319941E-2    5.490232320737206E-2   -5.022539377882935E-1   -4.002236851066099E-2
 6.501978774600000E9    -4.693857119044195E-1   -2.300981568839187E-1   -1.332944602145478E-2    5.623300421857753E-2   -1.062498584817483E-2    5.542082383857243E-2   -5.021375889146056E-1   -3.819919060444160E-2
 6.501991599425000E9    -4.698023484527646E-1   -2.289545111882586E-1   -1.326555438811969E-2    5.669748609120309E-2   -1.053159126396494E-2    5.594671105828668E-2   -5.019668194986778E-1   -3.633709983825744E-2
 6.502004424250000E9    -4.701781301007406E-1   -2.278253400175036E-1   -1.316532536156712E-2    5.725437775381995E-2   -1.038309503692547E-2    5.645610899051462E-2   -5.019490208874097E-1   -3.456901890355488E-2
