#  HZ   S   RI   R     50.00 
! Rohde & Schwarz Vector Network Analyzer 
! Rohde-Schwarz,ZNB20-2Port,1311601062101988,3.16
! Created: UTC 3/20/2024, 11:49:14 AM
! freq[Hz]                re:S11                  im:S11                  re:S21                  im:S21                  re:S12                  im:S12                  re:S22                  im:S22
 6.500845301000000E9    -4.213885742199620E-1   -3.157267982135138E-1   -1.506062205217632E-2    2.928442851657979E-2   -1.332801274277862E-2    2.940655701478185E-2   -4.867463738925315E-1   -1.635512179028748E-1
 6.500858137200000E9    -4.219703681082361E-1   -3.148792929977299E-1   -1.504722065133134E-2    2.939039936427539E-2   -1.325935096400215E-2    2.947718869766121E-2   -4.872617200075046E-1   -1.623751302846303E-1
 6.500870973400000E9    -4.227136248009596E-1   -3.139150151334569E-1   -1.490661580940779E-2    2.954660072050972E-2   -1.328591738409742E-2    2.966693234367842E-2   -4.874776151557245E-1   -1.611103496525670E-1
 6.500883809600000E9    -4.232446597087011E-1   -3.130906610201468E-1   -1.496096740596802E-2    2.983104712814837E-2   -1.327990460379636E-2    2.987367259757168E-2   -4.878293993773073E-1   -1.598192817481772E-1
 6.500896645800000E9    -4.238816629877281E-1   -3.123061092952996E-1   -1.500925037143731E-2    2.985217156422069E-2   -1.329378951763779E-2    3.013105351459422E-2   -4.881636522372396E-1   -1.586191994745902E-1
 6.500909482000000E9    -4.244653888356134E-1   -3.114188692739124E-1   -1.490194491436497E-2    3.017095139602148E-2   -1.321554030619189E-2    3.026337529420703E-2   -4.884813867079221E-1   -1.575339994454561E-1
 6.500922318200000E9    -4.250584287412830E-1   -3.105123369963085E-1   -1.501028224015202E-2    3.036085665560434E-2   -1.332716146178838E-2    3.043107725270252E-2   -4.887862144245372E-1   -1.563923544656078E-1
 6.500935154400000E9    -4.257002254821353E-1   -3.097783449001199E-1   -1.502752161902623E-2    3.051078479652957E-2   -1.330088224422413E-2    3.058788131482381E-2   -4.890770679138297E-1   -1.551217564655857E-1
 6.500947990600000E9    -4.262681546265232E-1   -3.087743524701116E-1   -1.493664204670964E-2    3.068732469565923E-2   -1.326541146948920E-2    3.072170253528456E-2   -4.893431343633352E-1   -1.539005227821210E-1
 6.500960826800000E9    -4.269324683223291E-1   -3.078599827264570E-1   -1.496155520418637E-2    3.096156997391432E-2   -1.323303735084124E-2    3.102344954269186E-2   -4.895412388132809E-1   -1.527685129947967E-1
 6.500973663000000E9    -4.274480821980987E-1   -3.070594880547595E-1   -1.497542995138664E-2    3.101918627513648E-2   -1.331525105001558E-2    3.125115143486983E-2   -4.899458986573356E-1   -1.515445010077680E-1
 6.500986499200000E9    -4.280171718744814E-1   -3.060871743452164E-1   -1.505909285642800E-2    3.112401886209555E-2   -1.316481632331334E-2    3.139983570744034E-2   -4.902357840993709E-1   -1.502529623972371E-1
 6.500999335400000E9    -4.286056903962259E-1   -3.052847916514784E-1   -1.504920055298309E-2    3.160112835559471E-2   -1.316616747548828E-2    3.152369926143735E-2   -4.903971610690805E-1   -1.489595041954920E-1
 6.501012171600000E9    -4.292826040840949E-1   -3.044251462660861E-1   -1.493571452575938E-2    3.171505206375748E-2   -1.315185019497159E-2    3.170530545893707E-2   -4.907846057954728E-1   -1.478459049382977E-1
 6.501025007800000E9    -4.297794003114193E-1   -3.035008424293391E-1   -1.499767722552072E-2    3.177543978863947E-2   -1.326094983314932E-2    3.195636015078405E-2   -4.911080201740713E-1   -1.466737482628680E-1
 6.501037844000000E9    -4.304395300263614E-1   -3.026044879970923E-1   -1.503521427714129E-2    3.199529500656723E-2   -1.328672641212329E-2    3.222222336771356E-2   -4.913313686055146E-1   -1.454103429942268E-1
 6.501050680200000E9    -4.310186122033640E-1   -3.017335779046195E-1   -1.498090659102603E-2    3.234572869181966E-2   -1.319329610202002E-2    3.237036510399233E-2   -4.916685023155116E-1   -1.441229515763819E-1
 6.501063516400000E9    -4.316918665596002E-1   -3.007926041629886E-1   -1.498855291434073E-2    3.247325909715769E-2   -1.323259972952799E-2    3.251602132468354E-2   -4.919830564636670E-1   -1.428569547182766E-1
 6.501076352600000E9    -4.322616498595960E-1   -2.999306846909895E-1   -1.503604765010900E-2    3.273854293271725E-2   -1.324990561795085E-2    3.274470558949029E-2   -4.922816820875059E-1   -1.416098022090820E-1
 6.501089188800000E9    -4.327608156852654E-1   -2.991005306264952E-1   -1.513461459503373E-2    3.285933072440338E-2   -1.322033969603578E-2    3.286983037122192E-2   -4.924862791566531E-1   -1.402932699894693E-1
 6.501102025000000E9    -4.333346708950187E-1   -2.981633827423619E-1   -1.499660881622969E-2    3.310734754815706E-2   -1.317423070148056E-2    3.315240672133024E-2   -4.927944935521152E-1   -1.390485316461676E-1
 6.501114861200000E9    -4.339922040738516E-1   -2.972524257173131E-1   -1.493561789917163E-2    3.345361867239593E-2   -1.315375399319897E-2    3.330362494009984E-2   -4.929744237623119E-1   -1.379280864634183E-1
 6.501127697400000E9    -4.344989414335651E-1   -2.963250676805271E-1   -1.503622648973045E-2    3.355244318375756E-2   -1.317033129305041E-2    3.366951618722058E-2   -4.933974000635836E-1   -1.365251468033450E-1
 6.501140533600000E9    -4.351173647324816E-1   -2.954854038641770E-1   -1.481698159276909E-2    3.387835538486898E-2   -1.322163846455482E-2    3.381999662515354E-2   -4.937192651492004E-1   -1.352382457842441E-1
 6.501153369800000E9    -4.356689632518385E-1   -2.945688009696535E-1   -1.510402657425947E-2    3.401303108347680E-2   -1.326568236494704E-2    3.399954691557508E-2   -4.938129514906753E-1   -1.341692204024105E-1
 6.501166206000000E9    -4.363496662943419E-1   -2.936568008990648E-1   -1.507398321554153E-2    3.434808739196116E-2   -1.325952189466043E-2    3.424258896840211E-2   -4.942839672267539E-1   -1.326417857253189E-1
 6.501179042200000E9    -4.368039932147858E-1   -2.927621856503492E-1   -1.502981481061782E-2    3.442078599435781E-2   -1.311538786455080E-2    3.440011675336997E-2   -4.944199289015658E-1   -1.314665008392931E-1
 6.501191878400000E9    -4.374510906076843E-1   -2.918233975232164E-1   -1.503583587199959E-2    3.473485827291674E-2   -1.315927044720590E-2    3.473149164126941E-2   -4.947534505878940E-1   -1.301777318036583E-1
 6.501204714600000E9    -4.378814437559595E-1   -2.909130455659262E-1   -1.502247033503212E-2    3.495542742346995E-2   -1.319247585398777E-2    3.485889095667529E-2   -4.948679480871086E-1   -1.288612991374471E-1
 6.501217550800000E9    -4.386235901643507E-1   -2.899225548599415E-1   -1.502322022518806E-2    3.529774737636782E-2   -1.306744019628956E-2    3.518983387476878E-2   -4.948918674476704E-1   -1.276316234093871E-1
 6.501230387000000E9    -4.392238209012060E-1   -2.890564038194916E-1   -1.492248216269129E-2    3.532374918154579E-2   -1.314128123799039E-2    3.530466879438132E-2   -4.953514798222658E-1   -1.263379896053048E-1
 6.501243223200000E9    -4.397375000202934E-1   -2.880671235944468E-1   -1.508320262912445E-2    3.567555281628979E-2   -1.309703433673237E-2    3.562333507740464E-2   -4.956116765133121E-1   -1.249897819870181E-1
 6.501256059400000E9    -4.401816829731033E-1   -2.871882649528893E-1   -1.488923576819853E-2    3.590425166825530E-2   -1.309455255597207E-2    3.582152951568644E-2   -4.958077161671992E-1   -1.237207743857759E-1
 6.501268895600000E9    -4.409433753600790E-1   -2.862725688356821E-1   -1.493433463841057E-2    3.616143043024913E-2   -1.303095821724481E-2    3.608639221190708E-2   -4.960749771715144E-1   -1.223925026759479E-1
 6.501281731800000E9    -4.414195922714558E-1   -2.853819034857901E-1   -1.496819230567789E-2    3.631223711935194E-2   -1.293099887344442E-2    3.635092728834437E-2   -4.963335502512853E-1   -1.210246770694899E-1
 6.501294568000000E9    -4.419260505511405E-1   -2.843835936306644E-1   -1.499946394424937E-2    3.656046239848258E-2   -1.289851051435850E-2    3.653193124628896E-2   -4.965923511551675E-1   -1.197392556930266E-1
 6.501307404200000E9    -4.425111127619055E-1   -2.835661676544476E-1   -1.507483722087814E-2    3.707241028864021E-2   -1.301502328340062E-2    3.685608854099704E-2   -4.968058060789566E-1   -1.182785046396921E-1
 6.501320240400000E9    -4.430789781779179E-1   -2.825591951533161E-1   -1.495100848037241E-2    3.715274540428892E-2   -1.294710479065458E-2    3.706801495856465E-2   -4.970086331276853E-1   -1.169853898178081E-1
 6.501333076600000E9    -4.437095238676323E-1   -2.815636352788538E-1   -1.501614671840362E-2    3.736510712769402E-2   -1.294343594672141E-2    3.741916435735367E-2   -4.973033241529400E-1   -1.156644142099448E-1
 6.501345912800000E9    -4.441494941714377E-1   -2.805994824941542E-1   -1.485146044101081E-2    3.777305376536308E-2   -1.292936461327978E-2    3.761665783168884E-2   -4.972388869812744E-1   -1.143170687003033E-1
 6.501358749000000E9    -4.447452527286231E-1   -2.796285565406710E-1   -1.491147194655028E-2    3.795553813329774E-2   -1.297535363809974E-2    3.784545234326833E-2   -4.976753163530194E-1   -1.129830279254322E-1
 6.501371585200000E9    -4.453416984693607E-1   -2.787081725264454E-1   -1.490302090039369E-2    3.825723524851436E-2   -1.298158677623253E-2    3.821004565573519E-2   -4.977608240870193E-1   -1.115023961005527E-1
 6.501384421400000E9    -4.458908881457302E-1   -2.777389286051869E-1   -1.509173885644744E-2    3.858808773145589E-2   -1.289384161106930E-2    3.841301726986930E-2   -4.979366019670290E-1   -1.101833991744719E-1
 6.501397257600000E9    -4.464848335751759E-1   -2.768822827011179E-1   -1.488430928456938E-2    3.874275147826007E-2   -1.285364940637583E-2    3.867662016470344E-2   -4.981594336422308E-1   -1.088680964502128E-1
 6.501410093800000E9    -4.469501079826750E-1   -2.758736148414177E-1   -1.494628940002982E-2    3.920731288083656E-2   -1.287187518679624E-2    3.896121473738705E-2   -4.983284366557867E-1   -1.073122749080085E-1
 6.501422930000000E9    -4.476104344709427E-1   -2.749033376104575E-1   -1.478394265982447E-2    3.935326684622503E-2   -1.282314722569741E-2    3.924960440902334E-2   -4.986591268059984E-1   -1.060948951182433E-1
 6.501435766200000E9    -4.480218966861092E-1   -2.740116332294604E-1   -1.492350127328620E-2    3.962707922050113E-2   -1.268674715718312E-2    3.955099018792527E-2   -4.987937049996148E-1   -1.046855322612032E-1
 6.501448602400000E9    -4.485458798603817E-1   -2.729753727162434E-1   -1.494831576709525E-2    4.005275022999164E-2   -1.274450960021566E-2    3.972554547598720E-2   -4.988805566853068E-1   -1.032748914284701E-1
 6.501461438600000E9    -4.491285079375393E-1   -2.719828471126335E-1   -1.477229276842009E-2    4.026218999389111E-2   -1.273015251698547E-2    4.007509077061835E-2   -4.991543672102484E-1   -1.019267238219655E-1
 6.501474274800000E9    -4.497006372350412E-1   -2.711449528172893E-1   -1.481549507146589E-2    4.061855587136179E-2   -1.265565099661979E-2    4.040888134918863E-2   -4.993514122130608E-1   -1.005466110262290E-1
 6.501487111000000E9    -4.502571877541634E-1   -2.700938438322037E-1   -1.480686508573560E-2    4.091237847234852E-2   -1.274445622193578E-2    4.057306804013751E-2   -4.995436066749983E-1   -9.898430224211111E-2
 6.501499947200000E9    -4.507716158024457E-1   -2.690504509834380E-1   -1.482944792309997E-2    4.106410765068847E-2   -1.265721918263293E-2    4.097907951749181E-2   -4.995023814842675E-1   -9.753581148691735E-2
 6.501512783400000E9    -4.512425862519370E-1   -2.681037472545752E-1   -1.479227538176598E-2    4.145624440125301E-2   -1.261244842150450E-2    4.127187826716797E-2   -4.996980242571256E-1   -9.622177757119442E-2
 6.501525619600000E9    -4.518458051661987E-1   -2.672233045900518E-1   -1.491065797711935E-2    4.180519372386403E-2   -1.252367975596975E-2    4.157098246735663E-2   -4.999739965235759E-1   -9.464488432276945E-2
 6.501538455800000E9    -4.523052159097886E-1   -2.661444954846737E-1   -1.465914011885922E-2    4.210548488988675E-2   -1.255255605879482E-2    4.191033968930401E-2   -5.002586297638862E-1   -9.321324726846564E-2
 6.501551292000000E9    -4.528268906883771E-1   -2.652068749142697E-1   -1.474661879726289E-2    4.244384410828134E-2   -1.258771845944445E-2    4.213754627333897E-2   -5.002960304541896E-1   -9.163560991961013E-2
 6.501564128200000E9    -4.533960721138946E-1   -2.641764669024229E-1   -1.472961863256086E-2    4.270899900321677E-2   -1.247431177506046E-2    4.255240689366788E-2   -5.003500968821590E-1   -9.036353511978208E-2
 6.501576964400000E9    -4.539221788726903E-1   -2.631140149946979E-1   -1.471386031398896E-2    4.325596674004293E-2   -1.251783068818440E-2    4.278469240338764E-2   -5.005450499313662E-1   -8.897587057176289E-2
 6.501589800600000E9    -4.544265904918756E-1   -2.622235009314007E-1   -1.471910181254251E-2    4.349077420726898E-2   -1.240066757284017E-2    4.310677290607257E-2   -5.006381417417649E-1   -8.744557012408682E-2
 6.501602636800000E9    -4.549552659126004E-1   -2.611631657655777E-1   -1.465920049324707E-2    4.381403416672242E-2   -1.235325450254787E-2    4.359767408586750E-2   -5.008033807426888E-1   -8.592700658183350E-2
 6.501615473000000E9    -4.554486647045562E-1   -2.601376298221959E-1   -1.461224480007818E-2    4.419918906810270E-2   -1.240920183078133E-2    4.382565268014064E-2   -5.008942468636824E-1   -8.437810782575773E-2
 6.501628309200000E9    -4.560255879903958E-1   -2.591600977436911E-1   -1.456113662762975E-2    4.448727648374429E-2   -1.226161470654897E-2    4.415253616762047E-2   -5.011346159623097E-1   -8.293462134500430E-2
 6.501641145400000E9    -4.565991860330375E-1   -2.581434190004033E-1   -1.446742052411221E-2    4.481424595837827E-2   -1.231605684094205E-2    4.447755266607154E-2   -5.013111645004296E-1   -8.150815874907803E-2
 6.501653981600000E9    -4.570301553245313E-1   -2.571828873316365E-1   -1.460684265981670E-2    4.512682812730145E-2   -1.228585550275758E-2    4.477413159489608E-2   -5.013334899136819E-1   -7.980164871911251E-2
 6.501666817800000E9    -4.576109195040642E-1   -2.560913619878503E-1   -1.452699253662790E-2    4.552677816019039E-2   -1.217241842268638E-2    4.514088059060578E-2   -5.014308231438428E-1   -7.832343871727808E-2
 6.501679654000000E9    -4.580637186973072E-1   -2.550722508132296E-1   -1.445265337751105E-2    4.598255067664379E-2   -1.209565349957794E-2    4.555331357685211E-2   -5.015472314249104E-1   -7.688831922139712E-2
 6.501692490200000E9    -4.586830871014477E-1   -2.540925374540068E-1   -1.447974267723961E-2    4.623979366578470E-2   -1.218098127966090E-2    4.585937129517819E-2   -5.015792113479142E-1   -7.514017769105005E-2
 6.501705326400000E9    -4.590805008459683E-1   -2.529757846067937E-1   -1.438590107099838E-2    4.664980880714838E-2   -1.204750301182548E-2    4.630553499156927E-2   -5.016048427133205E-1   -7.371430311312381E-2
 6.501718162600000E9    -4.596273162228079E-1   -2.519216823083849E-1   -1.439806368215282E-2    4.696883132753468E-2   -1.196104568817108E-2    4.661949138812010E-2   -5.018968399478304E-1   -7.232704350545541E-2
 6.501730998800000E9    -4.601741422895201E-1   -2.508854842034879E-1   -1.445225540116057E-2    4.732988828782555E-2   -1.196558874471126E-2    4.698725303541142E-2   -5.018243007177648E-1   -7.056072271353681E-2
 6.501743835000000E9    -4.605983837766082E-1   -2.499199663495103E-1   -1.431988973309282E-2    4.779024255023560E-2   -1.189730946906683E-2    4.740429049760891E-2   -5.019006357772290E-1   -6.895954792170160E-2
 6.501756671200000E9    -4.609946817114405E-1   -2.488403732333185E-1   -1.424667323730202E-2    4.844872876526417E-2   -1.195371295797952E-2    4.774289412888165E-2   -5.020971631164114E-1   -6.734696211272316E-2
 6.501769507400000E9    -4.615372494627603E-1   -2.477521738022777E-1   -1.424817466808336E-2    4.869529633527346E-2   -1.185236035748628E-2    4.818002989359012E-2   -5.021327541783067E-1   -6.583353028516956E-2
 6.501782343600000E9    -4.619482305656247E-1   -2.467455409710402E-1   -1.421064757876974E-2    4.912516616730820E-2   -1.186334055298783E-2    4.862196573036840E-2   -5.021645614811808E-1   -6.410339862747327E-2
 6.501795179800000E9    -4.626600774316105E-1   -2.456949602215241E-1   -1.427158545507614E-2    4.940491606028892E-2   -1.168127398467062E-2    4.897347562994465E-2   -5.021442709107581E-1   -6.254088935718094E-2
 6.501808016000000E9    -4.631729321599958E-1   -2.446837828209005E-1   -1.412947350120531E-2    4.989018036078609E-2   -1.162061835402006E-2    4.942545654427935E-2   -5.021091265664287E-1   -6.080970334389649E-2
 6.501820852200000E9    -4.635711329115335E-1   -2.434913067392250E-1   -1.397252386138433E-2    5.031474834196718E-2   -1.162732777634423E-2    4.981475582910200E-2   -5.020774061697122E-1   -5.928480519101996E-2
 6.501833688400000E9    -4.640425049739014E-1   -2.424725311842029E-1   -1.388780001431524E-2    5.077776099132994E-2   -1.144602613914891E-2    5.022733502630020E-2   -5.022993321329768E-1   -5.753110035587645E-2
 6.501846524600000E9    -4.645045932069841E-1   -2.415034395381605E-1   -1.402036912487502E-2    5.119941956200019E-2   -1.146283878463302E-2    5.067948281928258E-2   -5.022672261568842E-1   -5.602921350152848E-2
 6.501859360800000E9    -4.649446924711996E-1   -2.404334536245575E-1   -1.391422376871627E-2    5.170311960010596E-2   -1.145311662787353E-2    5.109834262970949E-2   -5.022985039174879E-1   -5.419739164665691E-2
 6.501872197000000E9    -4.654021758891618E-1   -2.392032256189419E-1   -1.382541852263173E-2    5.211447411862702E-2   -1.133307564534695E-2    5.155474115055544E-2   -5.021491502752367E-1   -5.271163554886246E-2
 6.501885033200000E9    -4.659883409387292E-1   -2.381650718948267E-1   -1.381621723453356E-2    5.267222978149085E-2   -1.120199449001895E-2    5.197910003766451E-2   -5.022961332003609E-1   -5.090653785569089E-2
 6.501897869400000E9    -4.665089930161031E-1   -2.370989292136125E-1   -1.379502957048873E-2    5.312263590667842E-2   -1.121075293132968E-2    5.252064738281436E-2   -5.022947206122560E-1   -4.926706417642582E-2
 6.501910705600000E9    -4.669452484062223E-1   -2.360514762299144E-1   -1.369526519081288E-2    5.355344385589145E-2   -1.115868122304891E-2    5.300081867456038E-2   -5.022119833816433E-1   -4.747935071389172E-2
 6.501923541800000E9    -4.673729593806924E-1   -2.349997195521630E-1   -1.368193258555379E-2    5.404485746365320E-2   -1.104922398070580E-2    5.342486332299285E-2   -5.020744877816816E-1   -4.560810542001452E-2
 6.501936378000000E9    -4.678067549567624E-1   -2.337431401602569E-1   -1.349318579219738E-2    5.445787610842703E-2   -1.097894159934924E-2    5.387545369748575E-2   -5.021361592522633E-1   -4.400547068168908E-2
 6.501949214200000E9    -4.682161516687213E-1   -2.326254077775311E-1   -1.345928525957020E-2    5.503132653381808E-2   -1.084016753057913E-2    5.442063268069659E-2   -5.022792861319081E-1   -4.226874175079722E-2
 6.501962050400000E9    -4.688032917588570E-1   -2.315095785706564E-1   -1.341494344377757E-2    5.553431637770021E-2   -1.081941042035233E-2    5.485387023549900E-2   -5.021967983232385E-1   -4.030938554588697E-2
 6.501974886600000E9    -4.690617309555081E-1   -2.303969539604230E-1   -1.345753846351796E-2    5.604589525128290E-2   -1.063843898453476E-2    5.540590280570646E-2   -5.019946101719228E-1   -3.859635727363672E-2
 6.501987722800000E9    -4.696897958440043E-1   -2.292839389040476E-1   -1.337788037491740E-2    5.660646572245949E-2   -1.050373232020439E-2    5.596295220497179E-2   -5.020419572250761E-1   -3.680767042342834E-2
 6.502000559000000E9    -4.701399760563206E-1   -2.281413148323949E-1   -1.325712105789350E-2    5.725745838746343E-2   -1.057445798228458E-2    5.639207187707750E-2   -5.020009556349543E-1   -3.501875962507359E-2
