#  HZ   S   RI   R     50.00 
! Rohde & Schwarz Vector Network Analyzer 
! Rohde-Schwarz,ZNB20-2Port,1311601062101988,3.16
! Created: UTC 3/20/2024, 11:49:34 AM
! freq[Hz]                re:S11                  im:S11                  re:S21                  im:S21                  re:S12                  im:S12                  re:S22                  im:S22
 6.500836668000000E9    -4.210056380091647E-1   -3.162160903336245E-1   -1.490442481822367E-2    2.919716984505170E-2   -1.324440039106444E-2    2.928032355233186E-2   -4.864616312728109E-1   -1.644197474290846E-1
 6.500849529950000E9    -4.216937937462172E-1   -3.153830346912349E-1   -1.494339721726412E-2    2.936706971676705E-2   -1.330784090838952E-2    2.948593874591007E-2   -4.868556826658014E-1   -1.631204180034157E-1
 6.500862391900000E9    -4.222227421491201E-1   -3.145960730153332E-1   -1.498945096046699E-2    2.949336033712083E-2   -1.333147961524572E-2    2.967619972288510E-2   -4.872891684888717E-1   -1.618285274562599E-1
 6.500875253850000E9    -4.228217767028260E-1   -3.137124408523735E-1   -1.513359942460758E-2    2.961389812251817E-2   -1.332008580096498E-2    2.985362562234501E-2   -4.875274823682854E-1   -1.605652172808481E-1
 6.500888115800000E9    -4.235033981989167E-1   -3.126991843699563E-1   -1.498620474608807E-2    2.977151016028767E-2   -1.326970631688707E-2    3.009205356911079E-2   -4.878217182039429E-1   -1.594551445215602E-1
 6.500900977750000E9    -4.241128272333479E-1   -3.119567477277724E-1   -1.511740361345845E-2    2.999578395900394E-2   -1.328012402528169E-2    3.016402193043029E-2   -4.881281855002198E-1   -1.582721192151358E-1
 6.500913839700000E9    -4.246785140441522E-1   -3.110805815921527E-1   -1.495404313700218E-2    3.036555017572815E-2   -1.331439012554347E-2    3.037337306493564E-2   -4.884022057157112E-1   -1.571607153897898E-1
 6.500926701650000E9    -4.251953956688514E-1   -3.101765693798547E-1   -1.502006382336448E-2    3.048016491195848E-2   -1.333612564437410E-2    3.045688111538897E-2   -4.888018866712884E-1   -1.559159036349177E-1
 6.500939563600000E9    -4.259290730110631E-1   -3.093070536481978E-1   -1.491152354194435E-2    3.073413211701575E-2   -1.335053500992723E-2    3.077458599806306E-2   -4.890658768615878E-1   -1.546699989354655E-1
 6.500952425550000E9    -4.265201846110444E-1   -3.084496153524915E-1   -1.504026022430925E-2    3.084008780767291E-2   -1.319865055740361E-2    3.087515003339423E-2   -4.894817689204395E-1   -1.534992840573475E-1
 6.500965287500000E9    -4.270600143422679E-1   -3.074854917346307E-1   -1.507078010272942E-2    3.093459997242229E-2   -1.332691033631093E-2    3.115064066262296E-2   -4.897352389026718E-1   -1.522002592396552E-1
 6.500978149450000E9    -4.276867255463233E-1   -3.066893345794877E-1   -1.501885884024940E-2    3.118707583090428E-2   -1.330503277612013E-2    3.133779609215136E-2   -4.899858723647004E-1   -1.509981527991259E-1
 6.500991011400000E9    -4.282566646806336E-1   -3.057667512021187E-1   -1.499439605806539E-2    3.137582111375840E-2   -1.331724210500112E-2    3.146569091878735E-2   -4.903628386522974E-1   -1.498359397198282E-1
 6.501003873350000E9    -4.289082422971888E-1   -3.049509892518348E-1   -1.494614786858987E-2    3.168028135419482E-2   -1.321609701855760E-2    3.164332601726615E-2   -4.906782864769478E-1   -1.485672246487585E-1
 6.501016735300000E9    -4.294931581851664E-1   -3.040328579172040E-1   -1.488629273471538E-2    3.171096263297312E-2   -1.328208837629884E-2    3.194742716868222E-2   -4.909747518547278E-1   -1.473813840606970E-1
 6.501029597250000E9    -4.301193105083002E-1   -3.031701447995230E-1   -1.511235878102498E-2    3.197535533533816E-2   -1.328040891157201E-2    3.212554532689716E-2   -4.912109944620681E-1   -1.460045735819959E-1
 6.501042459200000E9    -4.306291724386469E-1   -3.023593251655143E-1   -1.519241737574136E-2    3.228927441646848E-2   -1.318572222690700E-2    3.225562949967165E-2   -4.913817638927129E-1   -1.449478042403339E-1
 6.501055321150000E9    -4.311268367850679E-1   -3.013545579227095E-1   -1.504791124316224E-2    3.225968773801093E-2   -1.323369259314144E-2    3.248801086429488E-2   -4.916978874011549E-1   -1.437006439393627E-1
 6.501068183100000E9    -4.317971098258951E-1   -3.004690881512666E-1   -1.517626074191539E-2    3.263352801521868E-2   -1.326032757442831E-2    3.266059558932658E-2   -4.919223652013220E-1   -1.423310929377246E-1
 6.501081045050000E9    -4.324251742572178E-1   -2.995389399819915E-1   -1.503904257822442E-2    3.283994652506177E-2   -1.319211785313397E-2    3.288680125875486E-2   -4.921895577857456E-1   -1.411162143716814E-1
 6.501093907000000E9    -4.330443431970066E-1   -2.987663677214728E-1   -1.514107821507140E-2    3.304208215784390E-2   -1.326897721279258E-2    3.303341775606064E-2   -4.926416405419230E-1   -1.397822676024765E-1
 6.501106768950000E9    -4.336228093982590E-1   -2.978728316961464E-1   -1.494954207356328E-2    3.327886481636935E-2   -1.331692857953767E-2    3.334646615305466E-2   -4.928168789664442E-1   -1.386676816528167E-1
 6.501119630900000E9    -4.341884062108368E-1   -2.969998223193338E-1   -1.497130692756214E-2    3.346930989256627E-2   -1.323346666806454E-2    3.343330240971380E-2   -4.931835419190548E-1   -1.373612720032993E-1
 6.501132492850000E9    -4.347568414760358E-1   -2.959578099300486E-1   -1.503368763664640E-2    3.364206804352197E-2   -1.312503168192260E-2    3.367785321431212E-2   -4.932474000494586E-1   -1.360031315410365E-1
 6.501145354800000E9    -4.353654833385788E-1   -2.950903913326457E-1   -1.496648066026415E-2    3.396427633853334E-2   -1.314029287499607E-2    3.392938707101909E-2   -4.936772024025903E-1   -1.346744942779055E-1
 6.501158216750000E9    -4.359093156157267E-1   -2.940383114331040E-1   -1.488457809149656E-2    3.421741968724033E-2   -1.319430611699045E-2    3.425050305374711E-2   -4.939682833885748E-1   -1.335879436091867E-1
 6.501171078700000E9    -4.364932541636187E-1   -2.932671088261386E-1   -1.500646258308820E-2    3.443542653371870E-2   -1.316966155113644E-2    3.435249088227016E-2   -4.942159112626857E-1   -1.321552501473837E-1
 6.501183940650000E9    -4.371068231711014E-1   -2.923203552633945E-1   -1.490695457760174E-2    3.458066377905256E-2   -1.313535093777053E-2    3.467252084816958E-2   -4.944258871418157E-1   -1.309030230197599E-1
 6.501196802600000E9    -4.377054592041006E-1   -2.914936335899830E-1   -1.495260237571174E-2    3.495805077567838E-2   -1.310678030712682E-2    3.480799764840725E-2   -4.946925664117917E-1   -1.295568335564337E-1
 6.501209664550000E9    -4.383387974066039E-1   -2.904423623249126E-1   -1.500347077317022E-2    3.507718365472878E-2   -1.318410095466335E-2    3.505357596534534E-2   -4.949341874106848E-1   -1.283705257489146E-1
 6.501222526500000E9    -4.388800017471245E-1   -2.895506592722301E-1   -1.493156563964687E-2    3.542175907662747E-2   -1.305862506594100E-2    3.526310612868908E-2   -4.950997194457570E-1   -1.269284188701811E-1
 6.501235388450000E9    -4.394118972899686E-1   -2.886366444504546E-1   -1.518859155975659E-2    3.549844660581666E-2   -1.308246485697058E-2    3.556485247552355E-2   -4.953538871219499E-1   -1.257180425934735E-1
 6.501248250400000E9    -4.400295865878743E-1   -2.877488323906152E-1   -1.498601173697710E-2    3.587835145020701E-2   -1.312017022324320E-2    3.582014912366763E-2   -4.956504077329636E-1   -1.243849790278693E-1
 6.501261112350000E9    -4.405401884626441E-1   -2.867529454631811E-1   -1.499651852732004E-2    3.611798185866186E-2   -1.308925080036093E-2    3.603624364717797E-2   -4.958356586552761E-1   -1.229566109666410E-1
 6.501273974300000E9    -4.411538772951897E-1   -2.859453367156307E-1   -1.515945767848260E-2    3.632143599147975E-2   -1.305601802675945E-2    3.622217353883166E-2   -4.961720825884161E-1   -1.217071207205952E-1
 6.501286836250000E9    -4.416770530215346E-1   -2.849740799334940E-1   -1.491041660600147E-2    3.656050819071086E-2   -1.297200159755472E-2    3.649466501332418E-2   -4.963242787350437E-1   -1.205205763684122E-1
 6.501299698200000E9    -4.421011081907099E-1   -2.840437126199197E-1   -1.486564478351775E-2    3.675061276625463E-2   -1.302303524236818E-2    3.671275162668954E-2   -4.965209914528689E-1   -1.190172734725320E-1
 6.501312560150000E9    -4.427392961367744E-1   -2.830015442182822E-1   -1.506280070271717E-2    3.712649949195908E-2   -1.298072624481819E-2    3.699493903558923E-2   -4.967122579350123E-1   -1.177735553782609E-1
 6.501325422100000E9    -4.433051025143471E-1   -2.820765117746993E-1   -1.482041979725571E-2    3.731795922447889E-2   -1.295284546641749E-2    3.728933424466906E-2   -4.969227308311783E-1   -1.163525048876972E-1
 6.501338284050000E9    -4.438773635477891E-1   -2.810751846295128E-1   -1.501025432135564E-2    3.760273805410382E-2   -1.286535259540067E-2    3.756005501577617E-2   -4.972371619285175E-1   -1.150984722970686E-1
 6.501351146000000E9    -4.444172967123075E-1   -2.802078718265629E-1   -1.484516970136910E-2    3.775379945583149E-2   -1.293087272386804E-2    3.784583522475519E-2   -4.975447730199724E-1   -1.136026986464130E-1
 6.501364007950000E9    -4.450009620771951E-1   -2.792530660234413E-1   -1.496060493476769E-2    3.828235156087632E-2   -1.286516729683796E-2    3.802934826575924E-2   -4.975430685059118E-1   -1.122937018234327E-1
 6.501376869900000E9    -4.455958423891304E-1   -2.783399442673546E-1   -1.493037049890525E-2    3.855946956823547E-2   -1.283177244500078E-2    3.827968910629412E-2   -4.978598994313138E-1   -1.109450746433488E-1
 6.501389731850000E9    -4.461287758278628E-1   -2.773509100667011E-1   -1.497036904354065E-2    3.889396069227251E-2   -1.284589009571505E-2    3.859067353724332E-2   -4.980476906684576E-1   -1.095267184080856E-1
 6.501402593800000E9    -4.466561598584594E-1   -2.763920425514262E-1   -1.500893884033322E-2    3.896091827665664E-2   -1.275197242473295E-2    3.891412061990851E-2   -4.982315683645492E-1   -1.081557778119522E-1
 6.501415455750000E9    -4.472294967518719E-1   -2.753970184773912E-1   -1.488192076223123E-2    3.928695951060473E-2   -1.284578202823511E-2    3.914808109456989E-2   -4.983381846556977E-1   -1.067308058731089E-1
 6.501428317700000E9    -4.477009570586057E-1   -2.744390888550490E-1   -1.497056036892441E-2    3.957840837387017E-2   -1.276680587412224E-2    3.936821846471700E-2   -4.984672948557258E-1   -1.053124185009358E-1
 6.501441179650000E9    -4.483814488908556E-1   -2.736181059552113E-1   -1.491191160833956E-2    3.977597811463567E-2   -1.282447752169592E-2    3.967395186131814E-2   -4.987639247334630E-1   -1.040622036151301E-1
 6.501454041600000E9    -4.488889672503071E-1   -2.726065724684142E-1   -1.473891883518061E-2    4.011275476084820E-2   -1.273480811831920E-2    4.003071273066176E-2   -4.991191917464718E-1   -1.025052669044940E-1
 6.501466903550000E9    -4.493074923991426E-1   -2.716334653675320E-1   -1.491064153147707E-2    4.048613510913673E-2   -1.266202548782529E-2    4.025815035818921E-2   -4.990788667313231E-1   -1.013045181583333E-1
 6.501479765500000E9    -4.499568757326873E-1   -2.706053281389695E-1   -1.486643827232534E-2    4.072343531847784E-2   -1.263142805728403E-2    4.065099898869719E-2   -4.993106304061942E-1   -9.960883104068523E-2
 6.501492627450000E9    -4.504466141593202E-1   -2.696766964425469E-1   -1.473143328919776E-2    4.102411028075416E-2   -1.266590499960788E-2    4.083139247741386E-2   -4.994154931375010E-1   -9.836456420490047E-2
 6.501505489400000E9    -4.509374359371133E-1   -2.686145874485240E-1   -1.484932237735531E-2    4.134796515693997E-2   -1.268303959771242E-2    4.116319327689733E-2   -4.995899506072343E-1   -9.684200279736890E-2
 6.501518351350000E9    -4.515121193759306E-1   -2.675871504085969E-1   -1.479250688894653E-2    4.176090284603289E-2   -1.252521415557036E-2    4.149181729294701E-2   -4.997801641756681E-1   -9.535414058308921E-2
 6.501531213300000E9    -4.520193809697396E-1   -2.667241641767383E-1   -1.474459693468677E-2    4.188639818258279E-2   -1.262965350418762E-2    4.178613884029719E-2   -5.001668637715717E-1   -9.397025068578635E-2
 6.501544075250000E9    -4.525419342336671E-1   -2.656817171658128E-1   -1.467056870541721E-2    4.236688923815272E-2   -1.259331366011609E-2    4.212607886717890E-2   -5.001573242764144E-1   -9.247703500505373E-2
 6.501556937200000E9    -4.531412563940953E-1   -2.646213337042574E-1   -1.471518439488134E-2    4.268963384785859E-2   -1.243701984008489E-2    4.234867204939115E-2   -5.003364816367365E-1   -9.098405856116748E-2
 6.501569799150000E9    -4.536153114823719E-1   -2.638014204540010E-1   -1.479788935410033E-2    4.300841695332677E-2   -1.251673413296583E-2    4.267157581205581E-2   -5.004680247471938E-1   -8.972759530543507E-2
 6.501582661100000E9    -4.541489372546981E-1   -2.626542139463791E-1   -1.458135975421604E-2    4.325530319154051E-2   -1.238167239123626E-2    4.310442804214119E-2   -5.004798186140688E-1   -8.815009009008676E-2
 6.501595523050000E9    -4.546226575654186E-1   -2.616916461589335E-1   -1.479688150061561E-2    4.374637888667711E-2   -1.237742657103906E-2    4.342980871550142E-2   -5.007018622270262E-1   -8.646531385381649E-2
 6.501608385000000E9    -4.551552734971067E-1   -2.606324721209519E-1   -1.463003088780935E-2    4.395802226442503E-2   -1.232314294641258E-2    4.373808598152347E-2   -5.006786712028620E-1   -8.508535586472085E-2
 6.501621246950000E9    -4.557714132319895E-1   -2.597298603468731E-1   -1.460159560524068E-2    4.436882901482649E-2   -1.234532986523165E-2    4.405177847765980E-2   -5.008077840232260E-1   -8.361565289332670E-2
 6.501634108900000E9    -4.562764794924161E-1   -2.585881014913912E-1   -1.469440197007695E-2    4.474210807981496E-2   -1.237621617627424E-2    4.438240147049503E-2   -5.009609271007963E-1   -8.216150563734967E-2
 6.501646970850000E9    -4.567372075673648E-1   -2.576556797239342E-1   -1.460599632304033E-2    4.505614862609287E-2   -1.217124042654073E-2    4.476621006110244E-2   -5.011979479269901E-1   -8.045407126950316E-2
 6.501659832800000E9    -4.573187897186457E-1   -2.565996317419716E-1   -1.450300572432892E-2    4.545927277704861E-2   -1.222729076568952E-2    4.511153289222593E-2   -5.014319577565435E-1   -7.904784693251810E-2
 6.501672694750000E9    -4.577534815811151E-1   -2.555033521562471E-1   -1.454208001480534E-2    4.573243897950754E-2   -1.215322308246114E-2    4.552312737621442E-2   -5.014055313296133E-1   -7.752236124021702E-2
 6.501685556700000E9    -4.583521037234874E-1   -2.545455416305387E-1   -1.450425712658890E-2    4.620229639325961E-2   -1.216202125838101E-2    4.585350863854303E-2   -5.013556098465676E-1   -7.597738678833341E-2
 6.501698418650000E9    -4.588283953901569E-1   -2.535850533694652E-1   -1.456776886266813E-2    4.659469232510904E-2   -1.205277604501325E-2    4.615674337585392E-2   -5.013972040546149E-1   -7.443350400287127E-2
 6.501711280600000E9    -4.593195392368708E-1   -2.525343538817804E-1   -1.430454972888909E-2    4.696361896604827E-2   -1.204601031952308E-2    4.652248058123587E-2   -5.016941700408371E-1   -7.281025251403292E-2
 6.501724142550000E9    -4.597935740470668E-1   -2.514359526229538E-1   -1.441055707070243E-2    4.729075048237731E-2   -1.196481920293772E-2    4.698777202374486E-2   -5.017510816770059E-1   -7.137367576932893E-2
 6.501737004500000E9    -4.603438518831294E-1   -2.503593297583680E-1   -1.438549874692247E-2    4.779148879821467E-2   -1.193780378711793E-2    4.730632211505260E-2   -5.019115026319202E-1   -6.973216934725590E-2
 6.501749866450000E9    -4.608574363582368E-1   -2.493662190079279E-1   -1.424337965124648E-2    4.824099998432750E-2   -1.187118209528896E-2    4.768899943459393E-2   -5.018645660317989E-1   -6.810043570550173E-2
 6.501762728400000E9    -4.614111820479079E-1   -2.482847461316675E-1   -1.426479545677147E-2    4.857736470296456E-2   -1.187888081321632E-2    4.816227965689267E-2   -5.019694290976841E-1   -6.645131827350199E-2
 6.501775590350000E9    -4.617642552999165E-1   -2.473962114593448E-1   -1.430406634159864E-2    4.892574486476776E-2   -1.186317272791118E-2    4.841685728615654E-2   -5.020345749638863E-1   -6.484803134410780E-2
 6.501788452300000E9    -4.624302947640524E-1   -2.462623905271453E-1   -1.429521195547800E-2    4.938084560537319E-2   -1.185170173141201E-2    4.883672166212825E-2   -5.021124639950851E-1   -6.331168099552362E-2
 6.501801314250000E9    -4.626930983144464E-1   -2.451523853270574E-1   -1.398248135785946E-2    4.986044704711098E-2   -1.171256658691593E-2    4.935756037511474E-2   -5.023095385545983E-1   -6.160771896564023E-2
 6.501814176200000E9    -4.632730670368667E-1   -2.440605128875515E-1   -1.397276406649810E-2    5.029593951985648E-2   -1.171222078359715E-2    4.970038797951661E-2   -5.021984464677458E-1   -5.992463623848664E-2
 6.501827038150000E9    -4.637822259337525E-1   -2.430132251786015E-1   -1.401021110673079E-2    5.073239778453463E-2   -1.156124234901782E-2    5.020307616690990E-2   -5.021561050018654E-1   -5.837651696818814E-2
 6.501839900100000E9    -4.642246396663554E-1   -2.418757904283269E-1   -1.406564319183835E-2    5.111357109668504E-2   -1.149032404061732E-2    5.058742965882561E-2   -5.022036577609718E-1   -5.667596358718147E-2
 6.501852762050000E9    -4.647716109358306E-1   -2.408309225700849E-1   -1.396418406940785E-2    5.153291210440358E-2   -1.146463707137820E-2    5.101982157959976E-2   -5.022593778953625E-1   -5.493141759989242E-2
 6.501865624000000E9    -4.652309563004999E-1   -2.396436624098580E-1   -1.389673931839087E-2    5.198722305322779E-2   -1.134536300128644E-2    5.154163414712402E-2   -5.023544788579188E-1   -5.322360848055827E-2
 6.501878485950000E9    -4.656137217243642E-1   -2.386313106167785E-1   -1.379899730927609E-2    5.249296610478273E-2   -1.120900617435523E-2    5.197393059015987E-2   -5.021469116518201E-1   -5.165134610251519E-2
 6.501891347900000E9    -4.661941461766022E-1   -2.375150266432084E-1   -1.389250397923019E-2    5.297666525037136E-2   -1.113865708038091E-2    5.234733773523386E-2   -5.021841118988125E-1   -4.993340888684983E-2
 6.501904209850000E9    -4.665857126825217E-1   -2.364337688996027E-1   -1.374628175505082E-2    5.340366998066128E-2   -1.108182564316302E-2    5.285962457298105E-2   -5.022639562081768E-1   -4.809784944992378E-2
 6.501917071800000E9    -4.672205409990147E-1   -2.352653335367257E-1   -1.359360022091627E-2    5.400975301186859E-2   -1.102465733304258E-2    5.328227681749429E-2   -5.021628376531139E-1   -4.645598150822783E-2
 6.501929933750000E9    -4.676296537387979E-1   -2.341994163818411E-1   -1.368252450399712E-2    5.442217174736515E-2   -1.094434922405889E-2    5.380119156987109E-2   -5.021121850336312E-1   -4.464569339589924E-2
 6.501942795700000E9    -4.681436830320481E-1   -2.331515833527383E-1   -1.353678179583280E-2    5.503419363648610E-2   -1.082748130602363E-2    5.432727077846430E-2   -5.021400250022692E-1   -4.285982362785666E-2
 6.501955657650000E9    -4.685374141415912E-1   -2.319377687172506E-1   -1.342273738058872E-2    5.543872845158393E-2   -1.085976430848373E-2    5.482030982022474E-2   -5.019636313624218E-1   -4.110642035858055E-2
 6.501968519600000E9    -4.690767397190790E-1   -2.308946124185478E-1   -1.338716580530843E-2    5.602374651392244E-2   -1.076773378935634E-2    5.518591066489274E-2   -5.019472682005571E-1   -3.935817846670395E-2
 6.501981381550000E9    -4.693373521608878E-1   -2.298202883028350E-1   -1.321467122867430E-2    5.637432996564290E-2   -1.066692569768487E-2    5.575260839755162E-2   -5.019486170191343E-1   -3.742778322092258E-2
 6.501994243500000E9    -4.699894340170688E-1   -2.285451861370522E-1   -1.315905567801913E-2    5.702192254650521E-2   -1.057839380625226E-2    5.625159831002807E-2   -5.018916362404932E-1   -3.564376457527813E-2
