#  HZ   S   RI   R     50.00 
! Rohde & Schwarz Vector Network Analyzer 
! Rohde-Schwarz,ZNB20-2Port,1311601062101988,3.16
! Created: UTC 3/20/2024, 11:50:03 AM
! freq[Hz]                re:S11                  im:S11                  re:S21                  im:S21                  re:S12                  im:S12                  re:S22                  im:S22
 6.500824948000000E9    -4.205944317775251E-1   -3.169668621789609E-1   -1.494567227747844E-2    2.909900584217263E-2   -1.330445906212572E-2    2.913761989638907E-2   -4.861595335787298E-1   -1.653994256305811E-1
 6.500837840750000E9    -4.211024160591498E-1   -3.161476141616659E-1   -1.497181531875766E-2    2.936952597595751E-2   -1.328428437671161E-2    2.935002723759437E-2   -4.865190472980526E-1   -1.641375283235474E-1
 6.500850733500000E9    -4.216452199936303E-1   -3.151491628307169E-1   -1.494597272785956E-2    2.936005003603735E-2   -1.328729302429973E-2    2.954717830683999E-2   -4.868450591007525E-1   -1.629991307092674E-1
 6.500863626250000E9    -4.223831789705172E-1   -3.143788279247736E-1   -1.489434929230323E-2    2.949831174423956E-2   -1.331525208551382E-2    2.975059963496167E-2   -4.870916580052415E-1   -1.617726680082107E-1
 6.500876519000000E9    -4.229006723075759E-1   -3.134865369397689E-1   -1.492007597610789E-2    2.976078118917365E-2   -1.326563178670039E-2    2.982502440012506E-2   -4.874497946744613E-1   -1.606586424678142E-1
 6.500889411750000E9    -4.236009966178887E-1   -3.125394631320054E-1   -1.498924873527161E-2    3.000631660618631E-2   -1.336939388237864E-2    3.009556057236047E-2   -4.877344604018527E-1   -1.594561310929227E-1
 6.500902304500000E9    -4.241698367414108E-1   -3.116662809810035E-1   -1.501660128575083E-2    3.005662577543645E-2   -1.333022967919082E-2    3.024910054709601E-2   -4.881187461767533E-1   -1.583271762910587E-1
 6.500915197250000E9    -4.247004900029027E-1   -3.109206400718840E-1   -1.493308289965997E-2    3.033660221782273E-2   -1.325647475149082E-2    3.046767805615479E-2   -4.884002481553636E-1   -1.568941519306906E-1
 6.500928090000000E9    -4.252599252909192E-1   -3.100180624338720E-1   -1.499232841768668E-2    3.053344683512957E-2   -1.319326352909323E-2    3.057449009386761E-2   -4.887252844840226E-1   -1.557586473027779E-1
 6.500940982750000E9    -4.261056282516765E-1   -3.090149213369299E-1   -1.489004890734330E-2    3.073211994284720E-2   -1.327166999508747E-2    3.083319806414661E-2   -4.889928328837366E-1   -1.545076640749054E-1
 6.500953875500000E9    -4.265914367831037E-1   -3.083084064299059E-1   -1.504181383917184E-2    3.096797419460364E-2   -1.330784235140766E-2    3.096674971654872E-2   -4.893283001928076E-1   -1.533911618442412E-1
 6.500966768250000E9    -4.271464382085899E-1   -3.073200356670983E-1   -1.509236836854294E-2    3.100798992433562E-2   -1.334661503157350E-2    3.125488198067691E-2   -4.896247528611551E-1   -1.520012832264936E-1
 6.500979661000000E9    -4.278031468806378E-1   -3.064136392200761E-1   -1.493629754439330E-2    3.127409483542555E-2   -1.318318775222121E-2    3.135051839946505E-2   -4.898570167220763E-1   -1.508477138294967E-1
 6.500992553750000E9    -4.284840437203422E-1   -3.055921553537693E-1   -1.504016144524396E-2    3.136878973284801E-2   -1.320456753173298E-2    3.160748242716634E-2   -4.901366635214939E-1   -1.496274433930685E-1
 6.501005446500000E9    -4.289699107546854E-1   -3.046709658576913E-1   -1.505631520213740E-2    3.181165471781436E-2   -1.338203533724252E-2    3.174285605795391E-2   -4.905957453112753E-1   -1.483796891426161E-1
 6.501018339250000E9    -4.295843076886232E-1   -3.038924878340220E-1   -1.507070923095504E-2    3.193398278432014E-2   -1.320414721293496E-2    3.191577599304828E-2   -4.907985274587243E-1   -1.471237194939638E-1
 6.501031232000000E9    -4.301620263143494E-1   -3.029730927095122E-1   -1.503959218641144E-2    3.210060572732655E-2   -1.326153918947147E-2    3.224475638073795E-2   -4.911763950579597E-1   -1.459406727839660E-1
 6.501044124750000E9    -4.308581589001060E-1   -3.020135593156266E-1   -1.509410732400746E-2    3.225786944567150E-2   -1.328273018827664E-2    3.234417276657202E-2   -4.913744536836754E-1   -1.446793203713349E-1
 6.501057017500000E9    -4.312942006815060E-1   -3.010682507870650E-1   -1.506143607731267E-2    3.257141047186081E-2   -1.328266328044914E-2    3.265170096010905E-2   -4.916327440957755E-1   -1.434892672995807E-1
 6.501069910250000E9    -4.319949398747329E-1   -3.001381594369847E-1   -1.505000722220925E-2    3.277660424699121E-2   -1.322288304968755E-2    3.279703664644448E-2   -4.920090195987549E-1   -1.422785572594032E-1
 6.501082803000000E9    -4.326232417006260E-1   -2.993298279795386E-1   -1.503659549016541E-2    3.302187565563901E-2   -1.325279975789207E-2    3.307346337979392E-2   -4.921668780495981E-1   -1.408743618251490E-1
 6.501095695750000E9    -4.331246953063183E-1   -2.984000841709429E-1   -1.501804084408678E-2    3.316296193260021E-2   -1.324390794113573E-2    3.321463690960511E-2   -4.924469768218082E-1   -1.397133930837763E-1
 6.501108588500000E9    -4.338167558148366E-1   -2.975834179214455E-1   -1.507482684200004E-2    3.330432297091297E-2   -1.323701411385326E-2    3.349968628934957E-2   -4.928392216604900E-1   -1.383010131331150E-1
 6.501121481250000E9    -4.343638317652906E-1   -2.965840611621982E-1   -1.503954037464703E-2    3.347860757904694E-2   -1.319337818786409E-2    3.364975761544584E-2   -4.930859205933569E-1   -1.370625675201700E-1
 6.501134374000000E9    -4.349134030343972E-1   -2.957199578444926E-1   -1.507549567418178E-2    3.377125159032097E-2   -1.316278948327115E-2    3.394012399934747E-2   -4.934308457313556E-1   -1.358467696489272E-1
 6.501147266750000E9    -4.355465595018331E-1   -2.948405655644150E-1   -1.509033739783566E-2    3.409096711165234E-2   -1.320294499278096E-2    3.405134778004422E-2   -4.934255451781856E-1   -1.345684230935804E-1
 6.501160159500000E9    -4.361202555213255E-1   -2.939577876330636E-1   -1.504685789973987E-2    3.419550312201146E-2   -1.309787282213234E-2    3.427776894702807E-2   -4.938261069548027E-1   -1.332329826558614E-1
 6.501173052250000E9    -4.367067407303865E-1   -2.929766806987308E-1   -1.504113013885135E-2    3.451541140200631E-2   -1.317731837953368E-2    3.454628390958347E-2   -4.941155009792262E-1   -1.320529694326197E-1
 6.501185945000000E9    -4.372253901052437E-1   -2.920246704740226E-1   -1.495741700895175E-2    3.471445701581437E-2   -1.309169752180209E-2    3.480895066078776E-2   -4.943460423638709E-1   -1.306105422997254E-1
 6.501198837750000E9    -4.377984903779390E-1   -2.911612770037003E-1   -1.496827297047585E-2    3.503633916455300E-2   -1.308537322028934E-2    3.495261553832504E-2   -4.945161484556559E-1   -1.295084443312397E-1
 6.501211730500000E9    -4.384372745356086E-1   -2.902328988113310E-1   -1.506230929902677E-2    3.515332944997293E-2   -1.310601832232679E-2    3.523552754081015E-2   -4.949612014055933E-1   -1.281420048577129E-1
 6.501224623250000E9    -4.389741934887672E-1   -2.892810857023647E-1   -1.509830233027671E-2    3.547414838170194E-2   -1.307685009566006E-2    3.553248276649639E-2   -4.950331861503585E-1   -1.268564220742228E-1
 6.501237516000000E9    -4.395157013019749E-1   -2.883896087090458E-1   -1.510171208660107E-2    3.575394308349254E-2   -1.313584178297668E-2    3.569304262872584E-2   -4.952508699396523E-1   -1.254872885807229E-1
 6.501250408750000E9    -4.401481970866999E-1   -2.874765591186268E-1   -1.505458340358641E-2    3.600084769983260E-2   -1.300796855773634E-2    3.591011532131693E-2   -4.957066127981177E-1   -1.241136786465648E-1
 6.501263301500000E9    -4.407660957751942E-1   -2.865931494925717E-1   -1.506701972104500E-2    3.634423666216462E-2   -1.304544588747727E-2    3.614225347225133E-2   -4.958303404317115E-1   -1.227422251747454E-1
 6.501276194250000E9    -4.412485088464186E-1   -2.855678366934900E-1   -1.505924416418966E-2    3.654902770314063E-2   -1.300925427805655E-2    3.651205839303102E-2   -4.958490230006166E-1   -1.213735424490887E-1
 6.501289087000000E9    -4.418099689212994E-1   -2.845494061041755E-1   -1.509678850216534E-2    3.684114068726310E-2   -1.311730571361864E-2    3.669346519198385E-2   -4.963045649640092E-1   -1.202003209772304E-1
 6.501301979750000E9    -4.422747379133720E-1   -2.837611426793293E-1   -1.514616303416860E-2    3.704384563214606E-2   -1.296239650274513E-2    3.687409305166079E-2   -4.965067282207873E-1   -1.187893903053122E-1
 6.501314872500000E9    -4.429799471833743E-1   -2.826559988392521E-1   -1.500136551418834E-2    3.712515025667817E-2   -1.295987574061730E-2    3.716471537846093E-2   -4.966941674618680E-1   -1.174814957431673E-1
 6.501327765250000E9    -4.434874855604067E-1   -2.817989008673774E-1   -1.497075909838597E-2    3.750633077809405E-2   -1.292894186364097E-2    3.740070229065208E-2   -4.969737750179573E-1   -1.160871322963976E-1
 6.501340658000000E9    -4.440473297964909E-1   -2.808519873357159E-1   -1.505887144793214E-2    3.775171842008657E-2   -1.284878044594200E-2    3.767471604719366E-2   -4.972785893524705E-1   -1.146428857471926E-1
 6.501353550750000E9    -4.446828865543509E-1   -2.798563583677827E-1   -1.486891429631570E-2    3.817142982000737E-2   -1.292910072878718E-2    3.796057771943909E-2   -4.973571531809637E-1   -1.133196879925760E-1
 6.501366443500000E9    -4.450857588552540E-1   -2.789546900637983E-1   -1.491148371096178E-2    3.832997981798502E-2   -1.295066263143505E-2    3.819702859164441E-2   -4.975146129139426E-1   -1.119492499573144E-1
 6.501379336250000E9    -4.456702782026929E-1   -2.779830335289939E-1   -1.492940784998078E-2    3.854526051737244E-2   -1.290523888289267E-2    3.843301567876184E-2   -4.978269950052275E-1   -1.106695141957484E-1
 6.501392229000000E9    -4.462546039093615E-1   -2.769865719848426E-1   -1.501758540414965E-2    3.886655544137661E-2   -1.287482618009680E-2    3.879255226206653E-2   -4.979265538120897E-1   -1.092616560436188E-1
 6.501405121750000E9    -4.467667730818049E-1   -2.761210350023474E-1   -1.498414174253911E-2    3.924438628806173E-2   -1.291265164806997E-2    3.903836502815216E-2   -4.981686560165320E-1   -1.077830106545503E-1
 6.501418014500000E9    -4.473974950375541E-1   -2.750255420747685E-1   -1.492163775966369E-2    3.952614781229549E-2   -1.284839410920974E-2    3.925888615440177E-2   -4.983571691580359E-1   -1.063624204839326E-1
 6.501430907250000E9    -4.478838458790325E-1   -2.741097351463803E-1   -1.489676375137011E-2    3.969092192799947E-2   -1.284494673015094E-2    3.969083506155442E-2   -4.985472814732840E-1   -1.050593884853676E-1
 6.501443800000000E9    -4.485169528130545E-1   -2.732307909489607E-1   -1.489717266564449E-2    3.998200962673917E-2   -1.280027534919990E-2    3.982656993541032E-2   -4.988014420094384E-1   -1.037742274869199E-1
 6.501456692750000E9    -4.489671720829316E-1   -2.721587006208840E-1   -1.482707895562444E-2    4.034926216364155E-2   -1.278832845605483E-2    4.017549009899119E-2   -4.989722884766176E-1   -1.022173228118874E-1
 6.501469585500000E9    -4.494929476105315E-1   -2.711834443074100E-1   -1.489799973014799E-2    4.061527411954219E-2   -1.272741718457161E-2    4.044419415084993E-2   -4.989920120160881E-1   -1.008611075100364E-1
 6.501482478250000E9    -4.500419298737704E-1   -2.701176510077644E-1   -1.491087627528668E-2    4.094444132532481E-2   -1.261602385044834E-2    4.075554200170858E-2   -4.993149158610005E-1   -9.944599929520040E-2
 6.501495371000000E9    -4.506217638945359E-1   -2.691969810206467E-1   -1.478521044593823E-2    4.122635491024575E-2   -1.266498879488385E-2    4.110352397143009E-2   -4.993342519452111E-1   -9.795881186707758E-2
 6.501508263750000E9    -4.512430909741889E-1   -2.681455146997271E-1   -1.490429536102382E-2    4.163227588824280E-2   -1.252698242993760E-2    4.137269548609813E-2   -4.995159835215961E-1   -9.647850791280187E-2
 6.501521156500000E9    -4.517104780064401E-1   -2.672632942745971E-1   -1.480229146585534E-2    4.184202741988738E-2   -1.275483157443361E-2    4.154761386319236E-2   -4.997601888002581E-1   -9.512472361792911E-2
 6.501534049250000E9    -4.522557916607239E-1   -2.662811193754254E-1   -1.471436314962573E-2    4.222428134061736E-2   -1.258512641334202E-2    4.196419966072362E-2   -4.998197006385260E-1   -9.353136300943420E-2
 6.501546942000000E9    -4.528235465626473E-1   -2.654112144546093E-1   -1.475140160702519E-2    4.255603549144309E-2   -1.258542920187637E-2    4.223663225643435E-2   -5.000046560434454E-1   -9.219137107601029E-2
 6.501559834750000E9    -4.533046261774089E-1   -2.642469604833469E-1   -1.473275247672896E-2    4.295397420968113E-2   -1.249417114992111E-2    4.262888978512723E-2   -5.000983355122871E-1   -9.061263342978960E-2
 6.501572727500000E9    -4.537957271046146E-1   -2.633040344566150E-1   -1.471327507739249E-2    4.325369821733897E-2   -1.252861820601694E-2    4.293543419065610E-2   -5.003787789677241E-1   -8.929973645698500E-2
 6.501585620250000E9    -4.543358207375701E-1   -2.624147719494416E-1   -1.470157439882785E-2    4.351537369027728E-2   -1.242916231668343E-2    4.330003607595509E-2   -5.005387249709103E-1   -8.751684178009471E-2
 6.501598513000000E9    -4.548935749615190E-1   -2.611632260507659E-1   -1.470714819511647E-2    4.382458114259460E-2   -1.237746441238422E-2    4.353501311056566E-2   -5.007010449332570E-1   -8.633245243059207E-2
 6.501611405750000E9    -4.553891874666797E-1   -2.603372289631267E-1   -1.461146708496930E-2    4.429009834906123E-2   -1.238874187691010E-2    4.385123633366901E-2   -5.006122342454911E-1   -8.470504931889411E-2
 6.501624298500000E9    -4.558298550406126E-1   -2.591846440324828E-1   -1.464884851045668E-2    4.453841027392663E-2   -1.237911788660452E-2    4.430192054615181E-2   -5.008010135434849E-1   -8.317154010637461E-2
 6.501637191250000E9    -4.564691569731145E-1   -2.582569947300752E-1   -1.456329359974267E-2    4.491016102639046E-2   -1.231299588112486E-2    4.458667386198364E-2   -5.009490005279571E-1   -8.161111415713726E-2
 6.501650084000000E9    -4.569720068481717E-1   -2.571842634316506E-1   -1.463867721672865E-2    4.528471863559115E-2   -1.223300202223308E-2    4.489114164135543E-2   -5.010183584694461E-1   -8.012300756865001E-2
 6.501662976750000E9    -4.574400881880729E-1   -2.561481118071058E-1   -1.451138876745397E-2    4.567532249536598E-2   -1.216606523152680E-2    4.539068153216055E-2   -5.011947510016559E-1   -7.866257844026045E-2
 6.501675869500000E9    -4.579834319651628E-1   -2.551087438922652E-1   -1.444386129719703E-2    4.602866795404487E-2   -1.214818526071350E-2    4.577882139223275E-2   -5.012572832937719E-1   -7.704079798803612E-2
 6.501688762250000E9    -4.585573421737835E-1   -2.542029984066877E-1   -1.450567339986840E-2    4.651151119293952E-2   -1.212524537735548E-2    4.602524292221633E-2   -5.014096094750171E-1   -7.539091869419885E-2
 6.501701655000000E9    -4.589389406999355E-1   -2.529823306432253E-1   -1.453334997138165E-2    4.675852924183315E-2   -1.210240450607075E-2    4.645752250230328E-2   -5.013992520534378E-1   -7.383586679811396E-2
 6.501714547750000E9    -4.594167551924276E-1   -2.520800473651797E-1   -1.432758922825297E-2    4.709424002179646E-2   -1.198162010815692E-2    4.681876831121658E-2   -5.014821541165776E-1   -7.234537385448352E-2
 6.501727440500000E9    -4.599060280654547E-1   -2.509666901386465E-1   -1.444527084234448E-2    4.747565619063650E-2   -1.199513371033291E-2    4.720874115414112E-2   -5.015685693768367E-1   -7.078269172826436E-2
 6.501740333250000E9    -4.604381462069456E-1   -2.499222718008967E-1   -1.447239626910993E-2    4.804405534644225E-2   -1.191848539034820E-2    4.763115958902975E-2   -5.016058340624211E-1   -6.914657631614911E-2
 6.501753226000000E9    -4.609162576900144E-1   -2.488600976853591E-1   -1.442013126991487E-2    4.834929674720655E-2   -1.189254625266121E-2    4.798969465448617E-2   -5.017483897391206E-1   -6.748957737401040E-2
 6.501766118750000E9    -4.614769495585074E-1   -2.478101460826787E-1   -1.426267726409701E-2    4.872187229924847E-2   -1.179422406616749E-2    4.837314551182843E-2   -5.018712014494546E-1   -6.590510494376907E-2
 6.501779011500000E9    -4.620144936886972E-1   -2.467751129880101E-1   -1.426177730319143E-2    4.924458797104891E-2   -1.176576294849347E-2    4.876188051329858E-2   -5.017577217604012E-1   -6.439980723623910E-2
 6.501791904250000E9    -4.625494302816043E-1   -2.456512236304718E-1   -1.414983831605306E-2    4.964171351308466E-2   -1.164937065992629E-2    4.921450734161750E-2   -5.018801821849850E-1   -6.274140121643682E-2
 6.501804797000000E9    -4.630770069899553E-1   -2.447462393263390E-1   -1.417845268409691E-2    5.007748313950250E-2   -1.164271209275761E-2    4.955462218095744E-2   -5.018024432806463E-1   -6.108327711975810E-2
 6.501817689750000E9    -4.634891956739830E-1   -2.435765661391436E-1   -1.407617789809833E-2    5.070511619277557E-2   -1.161379639535727E-2    5.003555509009263E-2   -5.018941272921832E-1   -5.923621723282975E-2
 6.501830582500000E9    -4.640364645189037E-1   -2.424367467803175E-1   -1.397692958901465E-2    5.096987666950974E-2   -1.147822182152580E-2    5.043868157213988E-2   -5.020804556366435E-1   -5.778076952625812E-2
 6.501843475250000E9    -4.645126382861196E-1   -2.414276557867707E-1   -1.405461142723819E-2    5.141249599697086E-2   -1.156295987314874E-2    5.086218181117575E-2   -5.020392160823970E-1   -5.608644358579144E-2
 6.501856368000000E9    -4.649277653863659E-1   -2.403657236006158E-1   -1.402290730650534E-2    5.182145617102324E-2   -1.140073055546098E-2    5.136957451416715E-2   -5.020447919088035E-1   -5.440198407984063E-2
 6.501869260750000E9    -4.653873418553818E-1   -2.392830218463196E-1   -1.390118174157314E-2    5.238647624295646E-2   -1.134668803304157E-2    5.183551870407774E-2   -5.019680890965086E-1   -5.270770595124019E-2
 6.501882153500000E9    -4.658671933167364E-1   -2.381059981276197E-1   -1.376039608360427E-2    5.286553499674702E-2   -1.124683612983056E-2    5.222418129556124E-2   -5.020068078033124E-1   -5.100363650723971E-2
 6.501895046250000E9    -4.663930709226440E-1   -2.370214986778980E-1   -1.372685486446109E-2    5.325983434943089E-2   -1.114517466765475E-2    5.265043907630022E-2   -5.019843413629663E-1   -4.923123008315870E-2
 6.501907939000000E9    -4.668681826881829E-1   -2.359827745893179E-1   -1.360185623832093E-2    5.386426362624963E-2   -1.110989233132314E-2    5.319456397058766E-2   -5.020546033553931E-1   -4.744494012435260E-2
 6.501920831750000E9    -4.674615458311004E-1   -2.348794728459650E-1   -1.365008770559289E-2    5.428136330464718E-2   -1.102852360505430E-2    5.361918848255889E-2   -5.018965461137266E-1   -4.575529599849210E-2
 6.501933724500000E9    -4.677234419753719E-1   -2.337303118623493E-1   -1.345960866032877E-2    5.476347412533734E-2   -1.098295798612653E-2    5.410476795888115E-2   -5.018397691223532E-1   -4.391238713965520E-2
 6.501946617250000E9    -4.682121902499640E-1   -2.326102194788766E-1   -1.346237500093489E-2    5.528825644114659E-2   -1.089618061991173E-2    5.462138731269288E-2   -5.018493553954246E-1   -4.217965928414567E-2
 6.501959510000000E9    -4.687145102721040E-1   -2.314682769292347E-1   -1.355560538018775E-2    5.580506256923024E-2   -1.075071139760713E-2    5.512523758811183E-2   -5.018398004581029E-1   -4.049650067298364E-2
 6.501972402750000E9    -4.691930350743858E-1   -2.301965048955285E-1   -1.336547300386032E-2    5.631313659457443E-2   -1.071346095095314E-2    5.560012982958745E-2   -5.016929351054199E-1   -3.859207189494670E-2
 6.501985295500000E9    -4.697117842098244E-1   -2.292443426931362E-1   -1.325715972941374E-2    5.685778924494262E-2   -1.044512522666678E-2    5.610132743182139E-2   -5.017477593060826E-1   -3.669722937941031E-2
