#  HZ   S   RI   R     50.00 
! Rohde & Schwarz Vector Network Analyzer 
! Rohde-Schwarz,ZNB20-2Port,1311601062101988,3.16
! Created: UTC 3/20/2024, 11:37:29 AM
! freq[Hz]                re:S11                  im:S11                  re:S21                  im:S21                  re:S12                  im:S12                  re:S22                  im:S22
 6.501171621000000E9    -4.362516342544687E-1   -2.945195322724082E-1   -1.468202640566802E-2    3.265486323237102E-2   -1.292134787436806E-2    3.266058791892475E-2   -4.953823122410564E-1   -1.327330884006796E-1
 6.501183383150000E9    -4.367743677447211E-1   -2.936089459715666E-1   -1.476190355568526E-2    3.282262454571978E-2   -1.296342973143400E-2    3.280122310602156E-2   -4.955823756614459E-1   -1.316765960751722E-1
 6.501195145300000E9    -4.374047827591885E-1   -2.927794726884582E-1   -1.461362772879476E-2    3.314812001714368E-2   -1.298969020614400E-2    3.302200435595809E-2   -4.957912456994898E-1   -1.304825252514299E-1
 6.501206907450000E9    -4.377768620465045E-1   -2.920189398021885E-1   -1.467300276920117E-2    3.325301791739881E-2   -1.288346167551969E-2    3.318582058634293E-2   -4.959704745428524E-1   -1.293264384757612E-1
 6.501218669600000E9    -4.384340619509338E-1   -2.911348372228318E-1   -1.474612113445335E-2    3.346835675799532E-2   -1.291201463271297E-2    3.344323506302666E-2   -4.962530256985015E-1   -1.281359386887007E-1
 6.501230431750000E9    -4.389387638796211E-1   -2.903178540940896E-1   -1.479489518980366E-2    3.376900832460972E-2   -1.292759655264872E-2    3.358918596518180E-2   -4.965366326718300E-1   -1.269322915815748E-1
 6.501242193900000E9    -4.395574732286153E-1   -2.895207731860487E-1   -1.470111372646343E-2    3.376520469068103E-2   -1.290992067209575E-2    3.378643302555955E-2   -4.967339763367817E-1   -1.257432393521712E-1
 6.501253956050000E9    -4.400209660244619E-1   -2.886036802108982E-1   -1.466936405954415E-2    3.416110508360954E-2   -1.291123995178295E-2    3.415450673673360E-2   -4.969380369695738E-1   -1.246489484708482E-1
 6.501265718200000E9    -4.404416816185465E-1   -2.879117073335088E-1   -1.474536845741989E-2    3.425555000666593E-2   -1.281651694971886E-2    3.425657314792852E-2   -4.972580275638421E-1   -1.236018049900701E-1
 6.501277480350000E9    -4.410420074163335E-1   -2.868956949415186E-1   -1.475318224363225E-2    3.440860407840010E-2   -1.287986858977913E-2    3.439820100806889E-2   -4.974405499127572E-1   -1.221684350288552E-1
 6.501289242500000E9    -4.415253085534362E-1   -2.860595901177894E-1   -1.473579810632899E-2    3.459511144769369E-2   -1.285800601883436E-2    3.461535392931696E-2   -4.976444345986063E-1   -1.210554139782991E-1
 6.501301004650000E9    -4.420138042835280E-1   -2.851815271379178E-1   -1.475851182296648E-2    3.488460475303826E-2   -1.291475034837055E-2    3.485616087849994E-2   -4.977382729624321E-1   -1.200242056756854E-1
 6.501312766800000E9    -4.424805890079385E-1   -2.844491078661981E-1   -1.477412548319072E-2    3.498985377243088E-2   -1.287302510855052E-2    3.505614752093933E-2   -4.981638505590701E-1   -1.188044549474185E-1
 6.501324528950000E9    -4.429515789060982E-1   -2.836233538517083E-1   -1.472192318309872E-2    3.532570729826263E-2   -1.275555703208968E-2    3.529317388965811E-2   -4.982291532654291E-1   -1.174054817400714E-1
 6.501336291100000E9    -4.435938449396293E-1   -2.827838684836214E-1   -1.481017661012288E-2    3.566952606999695E-2   -1.281584293481840E-2    3.545586931663931E-2   -4.984513546750539E-1   -1.163723366520259E-1
 6.501348053250000E9    -4.440716469104601E-1   -2.818002739626509E-1   -1.473955861664420E-2    3.559008755817906E-2   -1.280415674655880E-2    3.565036922115950E-2   -4.985922993880835E-1   -1.151823823467901E-1
 6.501359815400000E9    -4.445511829035087E-1   -2.810825373356484E-1   -1.468746555543741E-2    3.608033803014511E-2   -1.272547754983659E-2    3.582126363689695E-2   -4.989287280249504E-1   -1.138454539966972E-1
 6.501371577550000E9    -4.451483545707318E-1   -2.801405465317123E-1   -1.473171918787902E-2    3.625751253499993E-2   -1.280566740721631E-2    3.617896190623413E-2   -4.990393043800653E-1   -1.127869715244182E-1
 6.501383339700000E9    -4.455878847634063E-1   -2.793618614620404E-1   -1.466673144071542E-2    3.646197669142172E-2   -1.281402729408997E-2    3.633653296597461E-2   -4.992364511698217E-1   -1.115428555976292E-1
 6.501395101850000E9    -4.460857549010784E-1   -2.784502349817646E-1   -1.460085154189309E-2    3.654993158440528E-2   -1.281188799253458E-2    3.659979030382322E-2   -4.994659152674038E-1   -1.103291886668870E-1
 6.501406864000000E9    -4.465734752659801E-1   -2.775688686873058E-1   -1.461312368204169E-2    3.687315889410274E-2   -1.267990022507878E-2    3.682341871083491E-2   -4.996717747262576E-1   -1.089628141844496E-1
 6.501418626150000E9    -4.471274372872494E-1   -2.767588619010511E-1   -1.475777134434815E-2    3.728132657818506E-2   -1.271420037594170E-2    3.695583558569236E-2   -4.998003199129414E-1   -1.077958540668624E-1
 6.501430388300000E9    -4.477032625217766E-1   -2.758048562887522E-1   -1.471136060702455E-2    3.741154566408907E-2   -1.267815261672004E-2    3.718329860161911E-2   -5.000350221145694E-1   -1.065581179610742E-1
 6.501442150450000E9    -4.480460059986444E-1   -2.749926823542880E-1   -1.472283494634827E-2    3.772962672420142E-2   -1.265587913922246E-2    3.759127667273295E-2   -5.001856108396123E-1   -1.053648495016147E-1
 6.501453912600000E9    -4.486480029370544E-1   -2.740767146686710E-1   -1.464172414049745E-2    3.781819066150693E-2   -1.265511057980720E-2    3.780258862569913E-2   -5.002321804994528E-1   -1.040765085240000E-1
 6.501465674750000E9    -4.491222259645638E-1   -2.732409067624476E-1   -1.456004144533554E-2    3.824899306977134E-2   -1.262128401193710E-2    3.798482142432919E-2   -5.006461274233389E-1   -1.028429354128048E-1
 6.501477436900000E9    -4.495972076810678E-1   -2.724072940775709E-1   -1.458782103747305E-2    3.836412119745648E-2   -1.256679575139650E-2    3.819645095916591E-2   -5.007592449450728E-1   -1.016471326843743E-1
 6.501489199050000E9    -4.501766006870639E-1   -2.715577336913197E-1   -1.451004086221828E-2    3.867070115903822E-2   -1.257315088905837E-2    3.837979301764614E-2   -5.008323706734090E-1   -1.003302991737868E-1
 6.501500961200000E9    -4.506044182750880E-1   -2.707145791207349E-1   -1.467556861761676E-2    3.889959946620154E-2   -1.258066512713593E-2    3.862123565873628E-2   -5.010041132364678E-1   -9.899381539677775E-2
 6.501512723350000E9    -4.510419252141442E-1   -2.697496737703250E-1   -1.460868341627891E-2    3.920846273941030E-2   -1.259992431296329E-2    3.896772581963359E-2   -5.012363190471461E-1   -9.770525768450947E-2
 6.501524485500000E9    -4.516071590735821E-1   -2.689805635204837E-1   -1.454314599326429E-2    3.927126470262507E-2   -1.252110963570477E-2    3.918741287469500E-2   -5.014869181212664E-1   -9.659949498744999E-2
 6.501536247650000E9    -4.521631156543399E-1   -2.679446406623019E-1   -1.457661834895698E-2    3.968048945304108E-2   -1.252154741839475E-2    3.942936085596840E-2   -5.014768780161069E-1   -9.528336850953603E-2
 6.501548009800000E9    -4.524944958950169E-1   -2.670050261089194E-1   -1.462665659535257E-2    3.991394119373265E-2   -1.250768696128282E-2    3.958080254376051E-2   -5.016509173220863E-1   -9.397422094670818E-2
 6.501559771950000E9    -4.530496976002867E-1   -2.662377621094545E-1   -1.449341915282252E-2    4.015369839122714E-2   -1.246187822284333E-2    3.995540442507324E-2   -5.016926964090312E-1   -9.274241399577658E-2
 6.501571534100000E9    -4.534974220225858E-1   -2.654625293882713E-1   -1.464086105391148E-2    4.037667053641966E-2   -1.254719636105422E-2    4.022378059714793E-2   -5.019204365978801E-1   -9.135816405947347E-2
 6.501583296250000E9    -4.540504490998082E-1   -2.644670708260768E-1   -1.456683519847380E-2    4.078732524582965E-2   -1.250502600340540E-2    4.050071867011788E-2   -5.022737943821413E-1   -8.995356918292627E-2
 6.501595058400000E9    -4.545326043459104E-1   -2.635251611642385E-1   -1.445242930425082E-2    4.111455673577082E-2   -1.246699171929877E-2    4.073195553805786E-2   -5.023145347501741E-1   -8.869683999955082E-2
 6.501606820550000E9    -4.548638875166279E-1   -2.625653618700058E-1   -1.465851016589573E-2    4.141247510394637E-2   -1.250767050409258E-2    4.101363336580224E-2   -5.023944299966555E-1   -8.749994807488891E-2
 6.501618582700000E9    -4.554764559090351E-1   -2.617210484163001E-1   -1.461690607470350E-2    4.161107938028764E-2   -1.242544800425163E-2    4.128945182048313E-2   -5.025284556013578E-1   -8.601955552421030E-2
 6.501630344850000E9    -4.559817616125809E-1   -2.607694566193647E-1   -1.436914763375640E-2    4.190286536794614E-2   -1.235609419559496E-2    4.155966081435047E-2   -5.024769433131103E-1   -8.474379358199802E-2
 6.501642107000000E9    -4.563486194691766E-1   -2.599341259716896E-1   -1.457502040201069E-2    4.206095187620672E-2   -1.245675916062712E-2    4.192594764440103E-2   -5.028860908680035E-1   -8.348379971024637E-2
 6.501653869150000E9    -4.568503306926132E-1   -2.590517435253832E-1   -1.448505042903316E-2    4.243949138465970E-2   -1.225843521227681E-2    4.219694169834919E-2   -5.027887697482573E-1   -8.219022466302241E-2
 6.501665631300000E9    -4.573802303525372E-1   -2.581431884422647E-1   -1.454463640961317E-2    4.283329777744056E-2   -1.232382750568926E-2    4.241669071965908E-2   -5.030185857003018E-1   -8.069939984226261E-2
 6.501677393450000E9    -4.577829994327049E-1   -2.572365476230112E-1   -1.439533811806446E-2    4.304092849513842E-2   -1.229092803839564E-2    4.277998058630329E-2   -5.031287223856623E-1   -7.937268337214304E-2
 6.501689155600000E9    -4.582822672868404E-1   -2.562760079345495E-1   -1.441513685796801E-2    4.340989687544667E-2   -1.223308624680899E-2    4.308689330640451E-2   -5.033318181344392E-1   -7.804494700333700E-2
 6.501700917750000E9    -4.586734269555970E-1   -2.553574446263724E-1   -1.433997203360479E-2    4.372522708773110E-2   -1.218604114062322E-2    4.333350740027133E-2   -5.033891360033705E-1   -7.667997981744541E-2
 6.501712679900000E9    -4.591360561846144E-1   -2.544549621300549E-1   -1.437251795785768E-2    4.387214520190601E-2   -1.216473536236765E-2    4.363927436811215E-2   -5.035694948127025E-1   -7.542862923980767E-2
 6.501724442050000E9    -4.595990060215971E-1   -2.534630091568663E-1   -1.443122345147368E-2    4.427144059431099E-2   -1.212661377294490E-2    4.389281185779505E-2   -5.034766640999802E-1   -7.391851299297386E-2
 6.501736204200000E9    -4.601706891166737E-1   -2.525472042672849E-1   -1.442037112008320E-2    4.449850864774301E-2   -1.208733687150064E-2    4.421546777724345E-2   -5.037776857266963E-1   -7.267749453461361E-2
 6.501747966350000E9    -4.605906088237049E-1   -2.515984511759461E-1   -1.424216717884554E-2    4.497252025714476E-2   -1.208230960484453E-2    4.450939660628151E-2   -5.038743910893161E-1   -7.129249683393045E-2
 6.501759728500000E9    -4.610106998301887E-1   -2.507099165249441E-1   -1.435718623342803E-2    4.529524468283518E-2   -1.200924403546418E-2    4.491644726995874E-2   -5.040031181107830E-1   -6.982085419915630E-2
 6.501771490650000E9    -4.614989461980735E-1   -2.496957377915912E-1   -1.437704985793051E-2    4.554262142161049E-2   -1.196619130600696E-2    4.520765436417695E-2   -5.039209789231073E-1   -6.843434008679720E-2
 6.501783252800000E9    -4.620043456993461E-1   -2.488022649127319E-1   -1.419584015227458E-2    4.577040960880754E-2   -1.198798213623243E-2    4.559703024324870E-2   -5.040054595401493E-1   -6.704770260323646E-2
 6.501795014950000E9    -4.624463307843346E-1   -2.478358526215242E-1   -1.414496538126663E-2    4.622826975663876E-2   -1.184503370946047E-2    4.585130937286567E-2   -5.041810254490193E-1   -6.557392256229946E-2
 6.501806777100000E9    -4.629329925557535E-1   -2.468341504320701E-1   -1.422781274671240E-2    4.658328065120503E-2   -1.186621599713682E-2    4.622939776541860E-2   -5.042120047028077E-1   -6.412159113425189E-2
 6.501818539250000E9    -4.634010024120686E-1   -2.459060479648534E-1   -1.422839688942328E-2    4.699941116055748E-2   -1.178238630922811E-2    4.660859646055642E-2   -5.041919824951614E-1   -6.275196280199831E-2
 6.501830301400000E9    -4.638573037086826E-1   -2.450211516374697E-1   -1.418410097449037E-2    4.715766685298949E-2   -1.179065720032824E-2    4.685208571069609E-2   -5.041979263015663E-1   -6.109791020939923E-2
 6.501842063550000E9    -4.642729199093056E-1   -2.439749709693965E-1   -1.427905436596504E-2    4.767942021438155E-2   -1.173478338790208E-2    4.723610324703187E-2   -5.042848988479894E-1   -5.973506606754705E-2
 6.501853825700000E9    -4.647291232246810E-1   -2.431338323715573E-1   -1.403508915485052E-2    4.798775029843250E-2   -1.169089638645503E-2    4.758565106242741E-2   -5.044442678132189E-1   -5.828326903570683E-2
 6.501865587850000E9    -4.652031078828165E-1   -2.421262097440437E-1   -1.411481881312611E-2    4.832207064015602E-2   -1.170311541296840E-2    4.792767922054948E-2   -5.044562717560021E-1   -5.683171621482201E-2
 6.501877350000000E9    -4.655677154421223E-1   -2.411385000255258E-1   -1.398123356078709E-2    4.878488809682416E-2   -1.161780669102888E-2    4.831796850536398E-2   -5.046140436939452E-1   -5.539952793251132E-2
 6.501889112150000E9    -4.661147684675696E-1   -2.401921310317401E-1   -1.401748308992777E-2    4.916339278726777E-2   -1.149321835824406E-2    4.865946495248489E-2   -5.045988348874443E-1   -5.399640059656630E-2
 6.501900874300000E9    -4.664744115548295E-1   -2.391137701787758E-1   -1.395435179378255E-2    4.957121289211547E-2   -1.149877281255920E-2    4.903090237329391E-2   -5.044898042846546E-1   -5.230997799885415E-2
 6.501912636450000E9    -4.668691158889006E-1   -2.383193093857750E-1   -1.390518624832329E-2    4.994868085209313E-2   -1.146840586188463E-2    4.945223409115292E-2   -5.046260431638041E-1   -5.088835024163862E-2
 6.501924398600000E9    -4.674099040425724E-1   -2.372695625594113E-1   -1.397476797721997E-2    5.031406049276620E-2   -1.141730581059640E-2    4.972143553141387E-2   -5.045681304983695E-1   -4.935363209274236E-2
 6.501936160750000E9    -4.678406571395008E-1   -2.362544169272948E-1   -1.377346101588788E-2    5.068489486704102E-2   -1.129145273594110E-2    5.021341882888821E-2   -5.045959893435158E-1   -4.794669705791901E-2
 6.501947922900000E9    -4.682246554673885E-1   -2.352143873881437E-1   -1.376766758386332E-2    5.123751912407246E-2   -1.128292268598120E-2    5.047839785463369E-2   -5.045484010367344E-1   -4.634983468191936E-2
 6.501959685050000E9    -4.687311882277248E-1   -2.342947011182169E-1   -1.373270943160942E-2    5.150082633793047E-2   -1.125900466015096E-2    5.096894068029816E-2   -5.046485735803533E-1   -4.485183244615860E-2
 6.501971447200000E9    -4.692256204214406E-1   -2.332229809250832E-1   -1.377565181639003E-2    5.203141332981097E-2   -1.122475000662558E-2    5.141694997063521E-2   -5.046499919246104E-1   -4.339521173897312E-2
 6.501983209350000E9    -4.695565170858076E-1   -2.323165074158503E-1   -1.363350327546793E-2    5.237796369731274E-2   -1.106485595038145E-2    5.173108378015191E-2   -5.046855416416723E-1   -4.167472200884563E-2
 6.501994971500000E9    -4.699811625519017E-1   -2.312450619657852E-1   -1.355333586386709E-2    5.268380040475373E-2   -1.107833508427318E-2    5.222525553036583E-2   -5.045767765186262E-1   -4.019996320892618E-2
 6.502006733650000E9    -4.703596295511800E-1   -2.301580367597904E-1   -1.349703118916087E-2    5.328642831609346E-2   -1.100405495262277E-2    5.265396692805049E-2   -5.046384980637701E-1   -3.851472004537456E-2
 6.502018495800000E9    -4.708076236978007E-1   -2.291897936837265E-1   -1.347967408342413E-2    5.358359224607902E-2   -1.092329073267425E-2    5.306789654448679E-2   -5.046147977970780E-1   -3.697811852806339E-2
 6.502030257950000E9    -4.711886106959615E-1   -2.282512011451069E-1   -1.353526312496546E-2    5.424358983295764E-2   -1.086105003400951E-2    5.344454044949541E-2   -5.042680859834777E-1   -3.546370244662034E-2
 6.502042020100000E9    -4.716891550241050E-1   -2.271989037717285E-1   -1.337313725672097E-2    5.460147971160509E-2   -1.080533969395948E-2    5.390992670839914E-2   -5.044602280699635E-1   -3.382297563475643E-2
 6.502053782250000E9    -4.720914984842355E-1   -2.261186917004099E-1   -1.325999689324484E-2    5.505926661740414E-2   -1.074849305165354E-2    5.436944687547948E-2   -5.044559244017904E-1   -3.213838163832226E-2
 6.502065544400000E9    -4.725460613684713E-1   -2.251256291507062E-1   -1.340046574956420E-2    5.550287627878009E-2   -1.063124327144662E-2    5.484359467985906E-2   -5.043788461746465E-1   -3.045341821262291E-2
 6.502077306550000E9    -4.728746207898582E-1   -2.241674132437315E-1   -1.323051894866379E-2    5.599327697614424E-2   -1.058602060273574E-2    5.531493348841154E-2   -5.043091461993188E-1   -2.897114852659056E-2
 6.502089068700000E9    -4.734245577114753E-1   -2.230452183734966E-1   -1.311842618808050E-2    5.648650691991369E-2   -1.049474509577196E-2    5.570735988819934E-2   -5.042984820597410E-1   -2.721158241264623E-2
 6.502100830850000E9    -4.737754930415117E-1   -2.220417633381924E-1   -1.313967638217311E-2    5.695288226399445E-2   -1.037679856983737E-2    5.623783091079958E-2   -5.040918383002881E-1   -2.559002388785466E-2
 6.502112593000000E9    -4.742496730459955E-1   -2.210421203912845E-1   -1.308991207382362E-2    5.744698863564845E-2   -1.030494746436061E-2    5.664722889045733E-2   -5.040897621516445E-1   -2.383722528394059E-2
 6.502124355150000E9    -4.744512096532997E-1   -2.199275534252717E-1   -1.284312386523090E-2    5.776621870750245E-2   -1.017376152394072E-2    5.723212794656804E-2   -5.041293684828680E-1   -2.221106936914210E-2
 6.502136117300000E9    -4.750281623228942E-1   -2.188213490190940E-1   -1.293360267943227E-2    5.838052946024982E-2   -1.018253414701169E-2    5.770275031807247E-2   -5.039742734633541E-1   -2.056100408788411E-2
 6.502147879450000E9    -4.753580607154848E-1   -2.177710067584869E-1   -1.291943663186763E-2    5.893820719107867E-2   -1.003359770787687E-2    5.817572323063285E-2   -5.038425469909782E-1   -1.875740718747204E-2
 6.502159641600000E9    -4.758662196611482E-1   -2.168059514374283E-1   -1.273978932687926E-2    5.951746548719103E-2   -9.995765535792752E-3    5.866773392641841E-2   -5.036045354380549E-1   -1.698199577924805E-2
 6.502171403750000E9    -4.761425904033946E-1   -2.156633850314768E-1   -1.272156177780523E-2    5.996070980059266E-2   -9.860076071446459E-3    5.917555562524081E-2   -5.036066825831296E-1   -1.532271888238538E-2
 6.502183165900000E9    -4.765099743016789E-1   -2.144921421081523E-1   -1.255053953728181E-2    6.063623261688256E-2   -9.776406549104260E-3    5.973697880907343E-2   -5.033783986679007E-1   -1.349754515940827E-2
 6.502194928050000E9    -4.770263321629654E-1   -2.134667825880816E-1   -1.245599636374548E-2    6.111531602428769E-2   -9.609034778519560E-3    6.017638920216983E-2   -5.033159728877850E-1   -1.169219697202288E-2
 6.502206690200000E9    -4.773336499012734E-1   -2.123807454220317E-1   -1.232092844491744E-2    6.170343794988708E-2   -9.523924567040380E-3    6.079941200288044E-2   -5.031096241322840E-1   -9.960489584853582E-3
 6.502218452350000E9    -4.777077861632188E-1   -2.113105358175320E-1   -1.218821974556556E-2    6.248127357261352E-2   -9.356014461477559E-3    6.132160235435314E-2   -5.029669233388363E-1   -8.141733339883763E-3
 6.502230214500000E9    -4.780680594813621E-1   -2.101502072846416E-1   -1.219441405573975E-2    6.290066010757416E-2   -9.287788165174731E-3    6.195298650073566E-2   -5.025494280581153E-1   -6.326516015452382E-3
