#  HZ   S   RI   R     50.00 
! Rohde & Schwarz Vector Network Analyzer 
! Rohde-Schwarz,ZNB20-2Port,1311601062101988,3.16
! Created: UTC 3/20/2024, 11:50:55 AM
! freq[Hz]                re:S11                  im:S11                  re:S21                  im:S21                  re:S12                  im:S12                  re:S22                  im:S22
 6.500804192000000E9    -4.195071072920842E-1   -3.183322185313270E-1   -1.493891664384238E-2    2.883136437455447E-2   -1.340455445494502E-2    2.907161620752808E-2   -4.854950499795447E-1   -1.671504779505493E-1
 6.500817142200000E9    -4.201563354988697E-1   -3.173528709207937E-1   -1.502546329115001E-2    2.902019249652244E-2   -1.334928386965730E-2    2.914113412551944E-2   -4.857705560198133E-1   -1.660136080456993E-1
 6.500830092400000E9    -4.207665262601589E-1   -3.165267794785375E-1   -1.513923344604463E-2    2.915401462508662E-2   -1.344447372903336E-2    2.936630626493673E-2   -4.861058333042714E-1   -1.648978548729408E-1
 6.500843042600000E9    -4.213542872086289E-1   -3.155562793782600E-1   -1.497590904463312E-2    2.940161984486656E-2   -1.338002282967457E-2    2.953728452087746E-2   -4.863834645173196E-1   -1.636159658807329E-1
 6.500855992800000E9    -4.220205366761917E-1   -3.146887155084374E-1   -1.511411526871052E-2    2.959306075468915E-2   -1.334496243316124E-2    2.975147358332405E-2   -4.868079544729871E-1   -1.625549388104380E-1
 6.500868943000000E9    -4.226114961651595E-1   -3.139214244575948E-1   -1.509327092412323E-2    2.974005731472439E-2   -1.328382385892033E-2    2.995104012985688E-2   -4.870082340995360E-1   -1.612574680925297E-1
 6.500881893200000E9    -4.233177486659918E-1   -3.130834543289219E-1   -1.505066532307981E-2    3.003286642591102E-2   -1.339352476784426E-2    3.012198217042667E-2   -4.874464602667266E-1   -1.601640233036851E-1
 6.500894843400000E9    -4.237946304613505E-1   -3.121133194285151E-1   -1.507073383121975E-2    3.002110738677534E-2   -1.340013047043834E-2    3.022196257921598E-2   -4.876447254400913E-1   -1.589459860894241E-1
 6.500907793600000E9    -4.244283190282576E-1   -3.113385502060297E-1   -1.501505805379370E-2    3.025566017888121E-2   -1.330486551546306E-2    3.050227328748619E-2   -4.881537470848749E-1   -1.576904490294503E-1
 6.500920743800000E9    -4.250804717441029E-1   -3.104063373652908E-1   -1.509227143162441E-2    3.069524913405525E-2   -1.337691113637905E-2    3.067885776400875E-2   -4.883888652730109E-1   -1.564392834971614E-1
 6.500933694000000E9    -4.258195484096411E-1   -3.095150534383265E-1   -1.497481192899255E-2    3.068111007892570E-2   -1.333020560727049E-2    3.080196485655403E-2   -4.885931755766922E-1   -1.551856165451736E-1
 6.500946644200000E9    -4.262517422023692E-1   -3.085971031480694E-1   -1.514863235024095E-2    3.091305331510620E-2   -1.335977707391149E-2    3.101734985138371E-2   -4.889949378521819E-1   -1.540004001500972E-1
 6.500959594400000E9    -4.268672206070823E-1   -3.077199859272138E-1   -1.506254754468230E-2    3.109250565452163E-2   -1.336478571485828E-2    3.124011600793508E-2   -4.893539659848767E-1   -1.527737096898082E-1
 6.500972544600000E9    -4.275507696337675E-1   -3.068120485595650E-1   -1.519568454052539E-2    3.134208977452307E-2   -1.333133344802975E-2    3.143431983391758E-2   -4.895998241891351E-1   -1.514678297181634E-1
 6.500985494800000E9    -4.280387869696287E-1   -3.060496397623386E-1   -1.509560461221909E-2    3.156469555682302E-2   -1.334159910847088E-2    3.167714975622105E-2   -4.899258546380020E-1   -1.501887909959926E-1
 6.500998445000000E9    -4.287736949760096E-1   -3.050889800851266E-1   -1.514982837218564E-2    3.175080383908734E-2   -1.331891808942729E-2    3.187302938275130E-2   -4.901068401943880E-1   -1.491951056948828E-1
 6.501011395200000E9    -4.294435744166488E-1   -3.042410881408839E-1   -1.494773635878942E-2    3.215278852930534E-2   -1.336865390075840E-2    3.202733754456442E-2   -4.905133913937058E-1   -1.478127604539742E-1
 6.501024345400000E9    -4.299202895342674E-1   -3.032916214379162E-1   -1.515928285952851E-2    3.217453417285482E-2   -1.323735894527157E-2    3.213040057818772E-2   -4.908706241665868E-1   -1.465127997365727E-1
 6.501037295600000E9    -4.305324869389043E-1   -3.023746029332502E-1   -1.501828739608565E-2    3.241845680790061E-2   -1.322935840408744E-2    3.239501164526241E-2   -4.910575595732572E-1   -1.452794944569056E-1
 6.501050245800000E9    -4.310473068229382E-1   -3.014901326989202E-1   -1.501364106078735E-2    3.258597196544016E-2   -1.328268816545178E-2    3.259285882897164E-2   -4.913813078421019E-1   -1.440913108697773E-1
 6.501063196000000E9    -4.316858386536956E-1   -3.005808584655376E-1   -1.518353883688097E-2    3.283846226119765E-2   -1.325416729623612E-2    3.278452638493397E-2   -4.916604082639506E-1   -1.427643221800046E-1
 6.501076146200000E9    -4.323332632369600E-1   -2.996871487715498E-1   -1.506191428991794E-2    3.299327733215873E-2   -1.323497637747837E-2    3.302749960793860E-2   -4.918684600289169E-1   -1.415411083492893E-1
 6.501089096400000E9    -4.328671370324319E-1   -2.987331328485727E-1   -1.503868863879968E-2    3.323670232845897E-2   -1.327932516878174E-2    3.327899038897800E-2   -4.922075155052560E-1   -1.400329069127639E-1
 6.501102046600000E9    -4.334588006492500E-1   -2.978345029796255E-1   -1.498321378640675E-2    3.332608954775074E-2   -1.321735611201982E-2    3.347856650001949E-2   -4.924260785723331E-1   -1.389963089828222E-1
 6.501114996800000E9    -4.340116261297670E-1   -2.970197666190916E-1   -1.500304358200212E-2    3.366933521651355E-2   -1.323456462693294E-2    3.366157568331483E-2   -4.926883206906081E-1   -1.375510176482923E-1
 6.501127947000000E9    -4.346371604935985E-1   -2.960253613176858E-1   -1.508847231176959E-2    3.389235411075237E-2   -1.312202151109723E-2    3.388018027869881E-2   -4.930007579831949E-1   -1.364715459524551E-1
 6.501140897200000E9    -4.351798878671993E-1   -2.951169959723714E-1   -1.497835292388452E-2    3.410142483114028E-2   -1.326368368111161E-2    3.414716426408312E-2   -4.932460890069602E-1   -1.351177688606958E-1
 6.501153847400000E9    -4.358155978239470E-1   -2.942035882815452E-1   -1.500576586729602E-2    3.443255581856405E-2   -1.315420025305203E-2    3.428887061316616E-2   -4.935058390543538E-1   -1.338620451105966E-1
 6.501166797600000E9    -4.363805759939938E-1   -2.933426581798513E-1   -1.508544760602125E-2    3.463450734943027E-2   -1.309486517256009E-2    3.459592413164819E-2   -4.939147683489242E-1   -1.324720434490681E-1
 6.501179747800000E9    -4.369741547482625E-1   -2.923370602237524E-1   -1.514010568745941E-2    3.485014924779761E-2   -1.311894899468177E-2    3.488051700863536E-2   -4.940837460778139E-1   -1.312037866094793E-1
 6.501192698000000E9    -4.374349221216880E-1   -2.915460994705244E-1   -1.497821515419814E-2    3.488969715922795E-2   -1.323151771943543E-2    3.497863014350613E-2   -4.943602558156975E-1   -1.298843661320542E-1
 6.501205648200000E9    -4.381182759539487E-1   -2.905138890352922E-1   -1.502208255692758E-2    3.519281129726014E-2   -1.314975954445815E-2    3.520891226558463E-2   -4.945693488629617E-1   -1.286301487417164E-1
 6.501218598400000E9    -4.388006378856755E-1   -2.896796212807708E-1   -1.498238467503571E-2    3.553116647200342E-2   -1.308876210806934E-2    3.553366781753655E-2   -4.948653174125424E-1   -1.272113412861049E-1
 6.501231548600000E9    -4.393580955874468E-1   -2.887363338170925E-1   -1.497318139971374E-2    3.578545454560815E-2   -1.307971439441960E-2    3.567170432922597E-2   -4.949822955817635E-1   -1.259301876978461E-1
 6.501244498800000E9    -4.399246739847613E-1   -2.877364873151261E-1   -1.518453401312997E-2    3.600257664993470E-2   -1.316777432973188E-2    3.591475085539383E-2   -4.954798691703386E-1   -1.245545097729881E-1
 6.501257449000000E9    -4.403928575793322E-1   -2.868489850949285E-1   -1.509454593290337E-2    3.616895496335210E-2   -1.304497769688656E-2    3.614967818454514E-2   -4.955398522543698E-1   -1.233085634303718E-1
 6.501270399200000E9    -4.410213895993988E-1   -2.857936009132969E-1   -1.489474667880732E-2    3.648440692080376E-2   -1.307232594589931E-2    3.641292553941614E-2   -4.957883789187069E-1   -1.219373115085330E-1
 6.501283349400000E9    -4.415803807748730E-1   -2.848651750020167E-1   -1.504520462428377E-2    3.668910472932464E-2   -1.307765534133161E-2    3.678085909783489E-2   -4.959852109755122E-1   -1.206179212482033E-1
 6.501296299600000E9    -4.421761786739769E-1   -2.839607323815894E-1   -1.509339979675326E-2    3.701117939601988E-2   -1.293644103878757E-2    3.692767330197201E-2   -4.962888402787933E-1   -1.193071531421947E-1
 6.501309249800000E9    -4.427713221879587E-1   -2.830123846647792E-1   -1.488552689314467E-2    3.735072094449041E-2   -1.299155827948856E-2    3.718541648268815E-2   -4.964800704498438E-1   -1.178332643119415E-1
 6.501322200000000E9    -4.431711413356975E-1   -2.820707948331138E-1   -1.495031018789751E-2    3.757571325322002E-2   -1.294116608141056E-2    3.754505798241676E-2   -4.966333419096373E-1   -1.165741622025798E-1
 6.501335150200000E9    -4.437861277333993E-1   -2.811595185770294E-1   -1.499677120432538E-2    3.788508231918630E-2   -1.306188655866512E-2    3.763909988456279E-2   -4.968895940609677E-1   -1.150830059056330E-1
 6.501348100400000E9    -4.443716661444198E-1   -2.801893670299209E-1   -1.483784914694711E-2    3.807698011764007E-2   -1.291654750116542E-2    3.800494341363900E-2   -4.971581819280192E-1   -1.139309933287786E-1
 6.501361050600000E9    -4.449286288100775E-1   -2.791919687040375E-1   -1.494718486412029E-2    3.831260634092393E-2   -1.291936466896715E-2    3.829282546186948E-2   -4.973182627102228E-1   -1.123209877939308E-1
 6.501374000800000E9    -4.455634100471846E-1   -2.782009415642425E-1   -1.494302611217525E-2    3.875917018121713E-2   -1.289326314306335E-2    3.849957874230066E-2   -4.976097588213926E-1   -1.111647573165139E-1
 6.501386951000000E9    -4.459555423873157E-1   -2.772405613756529E-1   -1.502594926865270E-2    3.898563509037278E-2   -1.295346960767085E-2    3.879256623737865E-2   -4.975981133227055E-1   -1.096180471921717E-1
 6.501399901200000E9    -4.465551368122298E-1   -2.763391924419019E-1   -1.495118724587193E-2    3.929199826881522E-2   -1.286282269123703E-2    3.906098552496556E-2   -4.980193603605457E-1   -1.082953405729707E-1
 6.501412851400000E9    -4.470985705826869E-1   -2.753996436147191E-1   -1.482086768113805E-2    3.961527426670273E-2   -1.285496096491263E-2    3.939227065872122E-2   -4.980668304569468E-1   -1.068325332563860E-1
 6.501425801600000E9    -4.477140296546710E-1   -2.743799666169844E-1   -1.487442001017390E-2    3.970441358746400E-2   -1.279404593838748E-2    3.965329532155684E-2   -4.983158820617202E-1   -1.055291291757256E-1
 6.501438751800000E9    -4.482520110376616E-1   -2.733866181649700E-1   -1.501457665238899E-2    4.016835149714028E-2   -1.280266172615384E-2    3.993392788320356E-2   -4.985321980723806E-1   -1.040355185785930E-1
 6.501451702000000E9    -4.487163528340700E-1   -2.724409866184678E-1   -1.486895723189308E-2    4.046241122797802E-2   -1.290991602909952E-2    4.022870401168717E-2   -4.986944765747417E-1   -1.026916991686772E-1
 6.501464652200000E9    -4.493280534676001E-1   -2.713566383082837E-1   -1.488137257695795E-2    4.067735182569938E-2   -1.275312066013839E-2    4.051180257482249E-2   -4.989227921024826E-1   -1.011045633508633E-1
 6.501477602400000E9    -4.499066316669800E-1   -2.704171648269397E-1   -1.493752525112132E-2    4.108615520709246E-2   -1.273514651948620E-2    4.082753223456762E-2   -4.990037936808356E-1   -9.976710302457498E-2
 6.501490552600000E9    -4.503573154780998E-1   -2.695105055174367E-1   -1.489263490855343E-2    4.135943073430715E-2   -1.265386828756625E-2    4.113161891775378E-2   -4.991245507564647E-1   -9.827581411682682E-2
 6.501503502800000E9    -4.509346249082658E-1   -2.684868915201356E-1   -1.480386904016817E-2    4.171017848105241E-2   -1.274031370324705E-2    4.156697181081607E-2   -4.994079711144809E-1   -9.691784664825187E-2
 6.501516453000000E9    -4.514951482653279E-1   -2.675547442626505E-1   -1.493256929028845E-2    4.196082898003298E-2   -1.265799030144818E-2    4.175685028266245E-2   -4.994999924292258E-1   -9.539740732368915E-2
 6.501529403200000E9    -4.520591537382702E-1   -2.664367640838842E-1   -1.482351362888937E-2    4.227013374895237E-2   -1.256824816943395E-2    4.210914888940471E-2   -4.996848430530536E-1   -9.393610334690519E-2
 6.501542353400000E9    -4.525865065218030E-1   -2.654773038684783E-1   -1.476785477573369E-2    4.266163350031960E-2   -1.255704416656936E-2    4.235676222134597E-2   -4.998207886931981E-1   -9.245338289581735E-2
 6.501555303600000E9    -4.531403641824792E-1   -2.644941705536407E-1   -1.489301043151400E-2    4.314414805478471E-2   -1.253778270111080E-2    4.273221783555344E-2   -4.999605970573882E-1   -9.094263026466465E-2
 6.501568253800000E9    -4.536363870044509E-1   -2.636064936252786E-1   -1.468500265886260E-2    4.334354231760303E-2   -1.242230836720505E-2    4.300999809094987E-2   -5.001186852117556E-1   -8.946092592099456E-2
 6.501581204000000E9    -4.541621879858663E-1   -2.624748197730442E-1   -1.475676562527594E-2    4.354018464813807E-2   -1.263305895282441E-2    4.340388443545288E-2   -5.002681472407785E-1   -8.797117352272732E-2
 6.501594154200000E9    -4.546736977848132E-1   -2.614519653346087E-1   -1.478322349808166E-2    4.405907104042255E-2   -1.247919831555234E-2    4.375206267062662E-2   -5.002482080677872E-1   -8.645334351991178E-2
 6.501607104400000E9    -4.551757690063645E-1   -2.605808366186059E-1   -1.466771893652745E-2    4.437758277077566E-2   -1.234221887132025E-2    4.403206175331440E-2   -5.005129804946938E-1   -8.492382314440028E-2
 6.501620054600000E9    -4.558030545360405E-1   -2.593938919880496E-1   -1.456767340011066E-2    4.469574226105666E-2   -1.237535822165353E-2    4.446356460286813E-2   -5.006104720945433E-1   -8.358509951975186E-2
 6.501633004800000E9    -4.563456071800785E-1   -2.584317457971127E-1   -1.475002209521917E-2    4.501142303162381E-2   -1.240171795237734E-2    4.469652777524129E-2   -5.008201871548701E-1   -8.196085067755271E-2
 6.501645955000000E9    -4.567783518023815E-1   -2.574038343233875E-1   -1.455196098572180E-2    4.540820839816490E-2   -1.230076134094317E-2    4.506985139699021E-2   -5.008069008415764E-1   -8.036796924232856E-2
 6.501658905200000E9    -4.572052859016666E-1   -2.563174357795305E-1   -1.458912697772027E-2    4.571379672275627E-2   -1.229111428078256E-2    4.544729938677160E-2   -5.008856742537933E-1   -7.890480425048689E-2
 6.501671855400000E9    -4.578717473793968E-1   -2.553039160430694E-1   -1.452181978079905E-2    4.610153130604441E-2   -1.222842403714167E-2    4.585120648387811E-2   -5.012166790077581E-1   -7.731576297474739E-2
 6.501684805600000E9    -4.583118467212820E-1   -2.543102742569276E-1   -1.455016494068891E-2    4.638061976326368E-2   -1.225742065963193E-2    4.623183559484395E-2   -5.011658240088802E-1   -7.568166047848301E-2
 6.501697755800000E9    -4.588641641369636E-1   -2.532057693184201E-1   -1.436853129545937E-2    4.702312579053441E-2   -1.215635013081852E-2    4.654579335610419E-2   -5.010917811699105E-1   -7.411226779559545E-2
 6.501710706000000E9    -4.593909813357667E-1   -2.521958054023280E-1   -1.446324710921994E-2    4.729261139493427E-2   -1.201266275662735E-2    4.686023561575347E-2   -5.014426259018061E-1   -7.260677804694513E-2
 6.501723656200000E9    -4.599167278552074E-1   -2.512258352137261E-1   -1.440653476895126E-2    4.768894321570352E-2   -1.209038573520532E-2    4.738785097165600E-2   -5.013197310649061E-1   -7.097051036340436E-2
 6.501736606400000E9    -4.602865441809695E-1   -2.501614469040933E-1   -1.433529481265661E-2    4.814494995649599E-2   -1.192185436362261E-2    4.775418151803804E-2   -5.015514541218624E-1   -6.934312889415616E-2
 6.501749556600000E9    -4.608573546778012E-1   -2.489748678387094E-1   -1.421427150349772E-2    4.849417951905596E-2   -1.188611895638527E-2    4.813494846829981E-2   -5.014600886476756E-1   -6.787922318606789E-2
 6.501762506800000E9    -4.613879631126420E-1   -2.479744727081755E-1   -1.426984789200599E-2    4.889430166268811E-2   -1.183567276690061E-2    4.854009242274067E-2   -5.016728498407742E-1   -6.598256615829520E-2
 6.501775457000000E9    -4.618449597939412E-1   -2.469473151887511E-1   -1.420862947569629E-2    4.941255711863882E-2   -1.179848662996979E-2    4.889866067045088E-2   -5.016416904162896E-1   -6.461031697177651E-2
 6.501788407200000E9    -4.623461021380428E-1   -2.457943175209098E-1   -1.414855036851033E-2    4.980052861356579E-2   -1.170202105073983E-2    4.927258467845379E-2   -5.017444509195630E-1   -6.279543592060768E-2
 6.501801357400000E9    -4.628822490736652E-1   -2.447729179409978E-1   -1.415309828736127E-2    5.035955317188875E-2   -1.178466609215481E-2    4.969609492875238E-2   -5.016767635510002E-1   -6.125579406787483E-2
 6.501814307600000E9    -4.633299362409949E-1   -2.436380853889199E-1   -1.413687240951974E-2    5.066343956768170E-2   -1.151718187839833E-2    5.016167618585431E-2   -5.018289225221618E-1   -5.944131495067344E-2
 6.501827257800000E9    -4.638851350171712E-1   -2.425530065691715E-1   -1.410929663308120E-2    5.123849467256951E-2   -1.158474963301586E-2    5.065721540577743E-2   -5.017169098826855E-1   -5.784169682212017E-2
 6.501840208000000E9    -4.642508426116383E-1   -2.415058762951461E-1   -1.395230817863979E-2    5.157410359897232E-2   -1.145161123124440E-2    5.112383981281800E-2   -5.016914910592795E-1   -5.623071965157844E-2
 6.501853158200000E9    -4.647729427759529E-1   -2.404128754995830E-1   -1.385398177590837E-2    5.202379352533645E-2   -1.150077679356280E-2    5.153720271413868E-2   -5.018710826047610E-1   -5.436078990372506E-2
 6.501866108400000E9    -4.653357335380212E-1   -2.392949069578378E-1   -1.392856424257746E-2    5.263528472810688E-2   -1.125733432124347E-2    5.197634695790891E-2   -5.017118504898335E-1   -5.281902345599052E-2
 6.501879058600000E9    -4.657316263068315E-1   -2.382150530434917E-1   -1.368702729188977E-2    5.297869696162279E-2   -1.127405772834053E-2    5.244256545343596E-2   -5.017553935765002E-1   -5.103734828808415E-2
 6.501892008800000E9    -4.662384027148839E-1   -2.370670618870047E-1   -1.384779551287176E-2    5.351645223744955E-2   -1.116752441757356E-2    5.287254795248660E-2   -5.017739628759150E-1   -4.923216906293402E-2
 6.501904959000000E9    -4.668360465765002E-1   -2.360000124502412E-1   -1.372623829057197E-2    5.395770212302829E-2   -1.110472862160765E-2    5.328101679694713E-2   -5.017429647098397E-1   -4.762952991053757E-2
 6.501917909200000E9    -4.671631226741670E-1   -2.346991327201503E-1   -1.349516372786014E-2    5.456208814953333E-2   -1.091113068564631E-2    5.388129911392138E-2   -5.016699175727015E-1   -4.571902617914377E-2
 6.501930859400000E9    -4.677753275492436E-1   -2.336989438634330E-1   -1.351507511270149E-2    5.503941833883187E-2   -1.104074062183119E-2    5.435709783192253E-2   -5.016399940162487E-1   -4.409335847082606E-2
 6.501943809600000E9    -4.681750325849467E-1   -2.326102294962070E-1   -1.341464358946533E-2    5.550605351047225E-2   -1.080750670311595E-2    5.479540302859948E-2   -5.016327016673555E-1   -4.212168783090658E-2
 6.501956759800000E9    -4.686183897256586E-1   -2.314922309019543E-1   -1.344479881352214E-2    5.612996435895478E-2   -1.063687925921532E-2    5.540469774453009E-2   -5.016748765782326E-1   -4.040465216798479E-2
 6.501969710000000E9    -4.691087375302643E-1   -2.303494282256060E-1   -1.330866633997767E-2    5.661862437054292E-2   -1.054594631778476E-2    5.594476817119499E-2   -5.015385021315510E-1   -3.854676461796074E-2
