#  HZ   S   RI   R     50.00 
! Rohde & Schwarz Vector Network Analyzer 
! Rohde-Schwarz,ZNB20-2Port,1311601062101988,3.16
! Created: UTC 3/20/2024, 11:37:32 AM
! freq[Hz]                re:S11                  im:S11                  re:S21                  im:S21                  re:S12                  im:S12                  re:S22                  im:S22
 6.501168863000000E9    -4.361875082665990E-1   -2.946796663213623E-1   -1.471369151492927E-2    3.261495460935967E-2   -1.298078476091038E-2    3.263344963698907E-2   -4.953029984334948E-1   -1.330304202891784E-1
 6.501180631950000E9    -4.367394700318461E-1   -2.938031947811400E-1   -1.474588332540748E-2    3.278293751663824E-2   -1.284791338748642E-2    3.279347824596570E-2   -4.955523346179099E-1   -1.318974379441169E-1
 6.501192400900000E9    -4.373396491281920E-1   -2.930484110093733E-1   -1.480884185369806E-2    3.294432335119189E-2   -1.300458030895794E-2    3.304184434025736E-2   -4.957650736831071E-1   -1.308301892217078E-1
 6.501204169850000E9    -4.377478993608853E-1   -2.922778195627265E-1   -1.469533282509862E-2    3.327223044344828E-2   -1.302709100864695E-2    3.311913704403192E-2   -4.961173779258630E-1   -1.297742915103725E-1
 6.501215938800000E9    -4.382796630958938E-1   -2.912594406198442E-1   -1.462576360824816E-2    3.348606225365571E-2   -1.288390616574132E-2    3.332296282617913E-2   -4.961554207155601E-1   -1.284219789203329E-1
 6.501227707750000E9    -4.387985921915966E-1   -2.905096217394139E-1   -1.470975279474901E-2    3.361584140110117E-2   -1.294537522377683E-2    3.356339847908388E-2   -4.965265708540635E-1   -1.271228251207725E-1
 6.501239476700000E9    -4.392390635412061E-1   -2.897139619507543E-1   -1.474848551595338E-2    3.383738638885957E-2   -1.288021071293719E-2    3.373087307546839E-2   -4.967286604193028E-1   -1.259585443250262E-1
 6.501251245650000E9    -4.399045522977701E-1   -2.888468864514894E-1   -1.486730727737312E-2    3.413385656337335E-2   -1.287891221705418E-2    3.397284636815867E-2   -4.968536449005484E-1   -1.248898884163389E-1
 6.501263014600000E9    -4.403755148841610E-1   -2.879874937946877E-1   -1.466982519449087E-2    3.420596281638920E-2   -1.289388748090386E-2    3.419366553494239E-2   -4.972372468360785E-1   -1.238284345409519E-1
 6.501274783550000E9    -4.408948381437164E-1   -2.872550116414365E-1   -1.476801419657694E-2    3.438153746129265E-2   -1.284573879149478E-2    3.440123763305598E-2   -4.973018513868800E-1   -1.223827211255514E-1
 6.501286552500000E9    -4.414631022554268E-1   -2.864248063650692E-1   -1.472021271208471E-2    3.475637721558394E-2   -1.281983541243650E-2    3.455379860525650E-2   -4.974926298414219E-1   -1.212883944821770E-1
 6.501298321450000E9    -4.419155408027546E-1   -2.854479547140730E-1   -1.483814741322778E-2    3.490359610251946E-2   -1.285600129622075E-2    3.484044420684666E-2   -4.978423637465391E-1   -1.202479130909946E-1
 6.501310090400000E9    -4.424723064019570E-1   -2.846564761870308E-1   -1.474790762274077E-2    3.525301986417463E-2   -1.273431623344680E-2    3.503412378907922E-2   -4.979969574771428E-1   -1.189282420744854E-1
 6.501321859350000E9    -4.429078060455079E-1   -2.837161078652499E-1   -1.474698565074700E-2    3.531352107461528E-2   -1.271807887104432E-2    3.515899251113686E-2   -4.983364846899525E-1   -1.178824934974321E-1
 6.501333628300000E9    -4.434670427979095E-1   -2.829319889837691E-1   -1.476700882695358E-2    3.552127173589265E-2   -1.280069270271090E-2    3.535580066024870E-2   -4.984338196494036E-1   -1.165789701319550E-1
 6.501345397250000E9    -4.439358058736944E-1   -2.822217105229092E-1   -1.485253378092942E-2    3.575406083069154E-2   -1.283403309325584E-2    3.567393323665143E-2   -4.985537732445761E-1   -1.154950560568587E-1
 6.501357166200000E9    -4.444937837342059E-1   -2.813178520132233E-1   -1.473714149759940E-2    3.587326270957817E-2   -1.280556563097131E-2    3.582855135267096E-2   -4.989053513090654E-1   -1.142239298950498E-1
 6.501368935150000E9    -4.450930420152019E-1   -2.804301744208872E-1   -1.480154459558611E-2    3.601365469309334E-2   -1.279097890236229E-2    3.605009581891705E-2   -4.989571580142296E-1   -1.129797226637716E-1
 6.501380704100000E9    -4.455704522225091E-1   -2.795369936260951E-1   -1.457861551006337E-2    3.640260038446061E-2   -1.282945895203024E-2    3.636009041267887E-2   -4.993081039207908E-1   -1.117018194896987E-1
 6.501392473050000E9    -4.459685713101585E-1   -2.786648096405555E-1   -1.463520548344173E-2    3.668788043280524E-2   -1.274009297451273E-2    3.653503452759137E-2   -4.994990925036983E-1   -1.105717421309897E-1
 6.501404242000000E9    -4.465072242555385E-1   -2.778659392796540E-1   -1.459997500118470E-2    3.671409205148304E-2   -1.275244703240892E-2    3.671820863545155E-2   -4.996353026306403E-1   -1.093393510763652E-1
 6.501416010950000E9    -4.470737551089056E-1   -2.768853919025694E-1   -1.467870101185107E-2    3.708027323710349E-2   -1.278485901601487E-2    3.684192974741839E-2   -4.997987369018280E-1   -1.080985154572408E-1
 6.501427779900000E9    -4.474686851197359E-1   -2.761010451774099E-1   -1.479871600391154E-2    3.728290476422999E-2   -1.267228139986722E-2    3.727250397970994E-2   -5.000391344002754E-1   -1.068577612937300E-1
 6.501439548850000E9    -4.481303630686351E-1   -2.753099838670271E-1   -1.460607604654416E-2    3.760269713091734E-2   -1.274314783383462E-2    3.736768708100027E-2   -5.001792375565325E-1   -1.056039853008906E-1
 6.501451317800000E9    -4.484071257394225E-1   -2.743839396947918E-1   -1.475019342240579E-2    3.787863122108047E-2   -1.262808537494066E-2    3.768566941565046E-2   -5.003140728347913E-1   -1.043693679812994E-1
 6.501463086750000E9    -4.490881193521914E-1   -2.735296446805323E-1   -1.464676809023367E-2    3.802805087781549E-2   -1.269057156336211E-2    3.785796727639597E-2   -5.005512130175594E-1   -1.031283596210019E-1
 6.501474855700000E9    -4.494601660005594E-1   -2.726104227431995E-1   -1.471827122001734E-2    3.822441967396504E-2   -1.260407100372033E-2    3.810233597302897E-2   -5.006757370927932E-1   -1.018904863749971E-1
 6.501486624650000E9    -4.500592127563953E-1   -2.717208224240285E-1   -1.462196375551085E-2    3.867160012208901E-2   -1.261174858401633E-2    3.845625019816657E-2   -5.007677810028854E-1   -1.006436241671236E-1
 6.501498393600000E9    -4.504920720014105E-1   -2.708915947713631E-1   -1.462079456111879E-2    3.867833926592815E-2   -1.267151189899929E-2    3.853816820983048E-2   -5.009198697620049E-1   -9.933445953823070E-2
 6.501510162550000E9    -4.509913212804723E-1   -2.699400919932076E-1   -1.464427455985771E-2    3.904834447855100E-2   -1.257694479468612E-2    3.889442653261635E-2   -5.011492318646147E-1   -9.823545674534677E-2
 6.501521931500000E9    -4.513924676738207E-1   -2.691527643167695E-1   -1.478773694548735E-2    3.931506864976644E-2   -1.260863165447630E-2    3.910501919485795E-2   -5.013476173770235E-1   -9.680472488700187E-2
 6.501533700450000E9    -4.519554048150723E-1   -2.681712230454945E-1   -1.462583056877107E-2    3.957875835775530E-2   -1.251703882530529E-2    3.939350753641417E-2   -5.014907099546143E-1   -9.566935581271709E-2
 6.501545469400000E9    -4.524767814777786E-1   -2.673254100236318E-1   -1.458253594218714E-2    3.986456022941770E-2   -1.245287157679763E-2    3.962215133541554E-2   -5.017477594133734E-1   -9.424868749893432E-2
 6.501557238350000E9    -4.529500971903063E-1   -2.664259629839996E-1   -1.459111563977306E-2    4.008718363202261E-2   -1.249421345146162E-2    3.985129817781213E-2   -5.016913552673250E-1   -9.288040192879310E-2
 6.501569007300000E9    -4.534377355400644E-1   -2.654865961970741E-1   -1.456723483869617E-2    4.028630990984099E-2   -1.242593312506538E-2    4.019418657138064E-2   -5.019622879261283E-1   -9.164355217346759E-2
 6.501580776250000E9    -4.539961754136950E-1   -2.646084922787628E-1   -1.450748042342943E-2    4.062025404082593E-2   -1.246950028306209E-2    4.047900477887113E-2   -5.020882661362990E-1   -9.024749864333415E-2
 6.501592545200000E9    -4.543532330065453E-1   -2.636850837626895E-1   -1.460525616207812E-2    4.096890860169577E-2   -1.243003499649822E-2    4.072468588669861E-2   -5.023248257179856E-1   -8.895678557692020E-2
 6.501604314150000E9    -4.548038270454088E-1   -2.628767215838627E-1   -1.460466817184853E-2    4.113333412187598E-2   -1.249714737397753E-2    4.096505309670311E-2   -5.026121336252448E-1   -8.764660236359087E-2
 6.501616083100000E9    -4.553865704427336E-1   -2.619757955379948E-1   -1.441318109645179E-2    4.142953666554591E-2   -1.235381545524407E-2    4.126786701885535E-2   -5.024568804346234E-1   -8.638263514706711E-2
 6.501627852050000E9    -4.558551034105889E-1   -2.610496850080649E-1   -1.462088218500913E-2    4.182728577736624E-2   -1.234372441483615E-2    4.154590884356917E-2   -5.026743667309788E-1   -8.516332798157897E-2
 6.501639621000000E9    -4.562932770788896E-1   -2.600555191987879E-1   -1.446490876829791E-2    4.207968743345639E-2   -1.240343629416576E-2    4.183916225195514E-2   -5.028951779345916E-1   -8.390101694959892E-2
 6.501651389950000E9    -4.566988731759483E-1   -2.591020210580787E-1   -1.443253921218073E-2    4.246429790469339E-2   -1.228232134470591E-2    4.206318555105668E-2   -5.028046355589347E-1   -8.243294045324118E-2
 6.501663158900000E9    -4.573399086249710E-1   -2.582839428231986E-1   -1.449546751172832E-2    4.264103239713813E-2   -1.219910922057981E-2    4.238023939052410E-2   -5.029858813499756E-1   -8.094416046331343E-2
 6.501674927850000E9    -4.577859298828340E-1   -2.573006171958716E-1   -1.449588581472403E-2    4.303598103221419E-2   -1.229937493594250E-2    4.265299212460168E-2   -5.030828045796022E-1   -7.972490882456179E-2
 6.501686696800000E9    -4.582145660495281E-1   -2.563447196955051E-1   -1.443250520855138E-2    4.328832587687383E-2   -1.225373878498612E-2    4.302463215954169E-2   -5.032949613190246E-1   -7.834114427806135E-2
 6.501698465750000E9    -4.586749486507386E-1   -2.555743986743053E-1   -1.450774296389826E-2    4.361958555129920E-2   -1.216262942043247E-2    4.328250824580144E-2   -5.034325849426619E-1   -7.701572343010540E-2
 6.501710234700000E9    -4.592755746632914E-1   -2.545579424148282E-1   -1.443629714738990E-2    4.381488992550749E-2   -1.213592965335462E-2    4.351339517987493E-2   -5.035071524026650E-1   -7.571523579165002E-2
 6.501722003650000E9    -4.596040057269242E-1   -2.537440017629877E-1   -1.446119573893272E-2    4.424725671790089E-2   -1.215860026901011E-2    4.391658555390970E-2   -5.036325227054526E-1   -7.422607845843245E-2
 6.501733772600000E9    -4.600884751186304E-1   -2.526527509178179E-1   -1.433323058622303E-2    4.446184761646597E-2   -1.210573371709451E-2    4.424780107618497E-2   -5.035408944286113E-1   -7.280157926433102E-2
 6.501745541550000E9    -4.606124791940493E-1   -2.518013187550348E-1   -1.433533328495834E-2    4.483129051328903E-2   -1.207847689952225E-2    4.456376323441582E-2   -5.037184402693865E-1   -7.160138634081176E-2
 6.501757310500000E9    -4.610310237764790E-1   -2.508470640392366E-1   -1.428745283970313E-2    4.518655558533449E-2   -1.196385904240644E-2    4.479122040450912E-2   -5.037638495261927E-1   -7.014927584139483E-2
 6.501769079450000E9    -4.615771559372357E-1   -2.498850538652438E-1   -1.423067403564670E-2    4.545082235952565E-2   -1.192253047757748E-2    4.512109223737808E-2   -5.039124165689965E-1   -6.880525796579962E-2
 6.501780848400000E9    -4.618895969846743E-1   -2.489661512351583E-1   -1.424782935783535E-2    4.584500569280778E-2   -1.199849833885652E-2    4.552896244542374E-2   -5.040764790836935E-1   -6.736454726661563E-2
 6.501792617350000E9    -4.623573333051282E-1   -2.479380385508491E-1   -1.419837004911131E-2    4.613834748204067E-2   -1.195466566992720E-2    4.579866175226407E-2   -5.039934003104576E-1   -6.584426852804462E-2
 6.501804386300000E9    -4.628760069121468E-1   -2.470915663809000E-1   -1.411945118838638E-2    4.655374955123325E-2   -1.189347987424879E-2    4.609690537486535E-2   -5.043120044348953E-1   -6.437454818560522E-2
 6.501816155250000E9    -4.633679882294546E-1   -2.461272097225080E-1   -1.421797078301878E-2    4.688794257157410E-2   -1.178065525100783E-2    4.639826931793422E-2   -5.040619453937271E-1   -6.299441612389245E-2
 6.501827924200000E9    -4.638466618692531E-1   -2.452171052114426E-1   -1.406388724542053E-2    4.715260158303061E-2   -1.168473857055944E-2    4.679618902439801E-2   -5.043920426891016E-1   -6.156989113864775E-2
 6.501839693150000E9    -4.641947470470483E-1   -2.442012703074976E-1   -1.418314215116773E-2    4.759337816891188E-2   -1.174053154809632E-2    4.713629823820000E-2   -5.043700193790471E-1   -6.011314019971124E-2
 6.501851462100000E9    -4.645835093806752E-1   -2.432805233407064E-1   -1.415872474098377E-2    4.790842834858441E-2   -1.174419509417934E-2    4.742883313602170E-2   -5.044347847858619E-1   -5.865550685887037E-2
 6.501863231050000E9    -4.651544892903280E-1   -2.422647605480477E-1   -1.407412334116583E-2    4.829799056755860E-2   -1.165397608583880E-2    4.786093665647625E-2   -5.043166058010315E-1   -5.726854167131867E-2
 6.501875000000000E9    -4.654813999418246E-1   -2.413178073645334E-1   -1.399499107513183E-2    4.867926624474201E-2   -1.169066289361318E-2    4.817007355123155E-2   -5.043652916897582E-1   -5.564040827987207E-2
 6.501886768950000E9    -4.659643186631588E-1   -2.403947739788544E-1   -1.402734187094158E-2    4.899575108360601E-2   -1.151415689987609E-2    4.853484066409664E-2   -5.043998353640146E-1   -5.428788907831155E-2
 6.501898537900000E9    -4.664098131439094E-1   -2.394452707959540E-1   -1.388685558442222E-2    4.952452342962470E-2   -1.153502876288878E-2    4.885503968514128E-2   -5.045576394926573E-1   -5.275513722598268E-2
 6.501910306850000E9    -4.668934795584651E-1   -2.383627378083773E-1   -1.391072607043190E-2    4.993468389940078E-2   -1.151514686243527E-2    4.935972253001179E-2   -5.046346325285954E-1   -5.130860089434154E-2
 6.501922075800000E9    -4.672567828735855E-1   -2.375115261201238E-1   -1.396632053911352E-2    5.019972355496277E-2   -1.140200543913431E-2    4.967507708592744E-2   -5.045294359516287E-1   -4.983657175937722E-2
 6.501933844750000E9    -4.676946249940966E-1   -2.364685804305358E-1   -1.383343383689775E-2    5.056926950134123E-2   -1.136535730358027E-2    5.010783413863416E-2   -5.046939684768924E-1   -4.831353670385524E-2
 6.501945613700000E9    -4.681518462229227E-1   -2.354511168382597E-1   -1.375220577223146E-2    5.110694606292170E-2   -1.125655803761303E-2    5.047877135878324E-2   -5.046914622393129E-1   -4.675344509238006E-2
 6.501957382650000E9    -4.686879517644372E-1   -2.343298455621984E-1   -1.363653171624668E-2    5.138934198766417E-2   -1.119020332267020E-2    5.092000413111920E-2   -5.045280243372937E-1   -4.524995505781585E-2
 6.501969151600000E9    -4.690497952621106E-1   -2.334390606347325E-1   -1.374305382683862E-2    5.187609942552319E-2   -1.118640734501248E-2    5.126997986757140E-2   -5.045414150573289E-1   -4.364798198899574E-2
 6.501980920550000E9    -4.694995109016543E-1   -2.324569014946096E-1   -1.361717473875148E-2    5.232727038101524E-2   -1.112558267793692E-2    5.174350844032312E-2   -5.045835784584435E-1   -4.204654075279725E-2
 6.501992689500000E9    -4.699289441409777E-1   -2.314496835620510E-1   -1.363274352656282E-2    5.270579650322130E-2   -1.110045707651537E-2    5.210040015777476E-2   -5.046492061461596E-1   -4.047757722068000E-2
 6.502004458450000E9    -4.703223168384128E-1   -2.304239487782023E-1   -1.364307183212058E-2    5.325208610769584E-2   -1.103300360002694E-2    5.252763983506854E-2   -5.046186520851470E-1   -3.891273192794659E-2
 6.502016227400000E9    -4.707249299792645E-1   -2.294906777551865E-1   -1.348509743647205E-2    5.374796230492644E-2   -1.093023453367970E-2    5.298569194705590E-2   -5.046271782746160E-1   -3.740362064575730E-2
 6.502027996350000E9    -4.712417689638534E-1   -2.283271345037998E-1   -1.345039301662610E-2    5.420956154813304E-2   -1.086995093555707E-2    5.332786164430861E-2   -5.045951716382281E-1   -3.572265510520191E-2
 6.502039765300000E9    -4.716453842345195E-1   -2.274374885275094E-1   -1.341837790268949E-2    5.441219230011761E-2   -1.082889320065577E-2    5.382477122690386E-2   -5.045086007987676E-1   -3.406114428950847E-2
 6.502051534250000E9    -4.720451432689443E-1   -2.262737982663632E-1   -1.340959509565002E-2    5.488934106335538E-2   -1.074646880377799E-2    5.423529344032310E-2   -5.043894841518737E-1   -3.249365113934026E-2
 6.502063303200000E9    -4.724538231200762E-1   -2.252620188172531E-1   -1.333588680247279E-2    5.548860707154546E-2   -1.063029214611630E-2    5.481363550356279E-2   -5.044430540098794E-1   -3.086915802575107E-2
 6.502075072150000E9    -4.728600576883633E-1   -2.242908814273269E-1   -1.329332885375599E-2    5.586053343414386E-2   -1.061819273759972E-2    5.513513422200202E-2   -5.041867738860850E-1   -2.915257169793748E-2
 6.502086841100000E9    -4.732598764424891E-1   -2.232738464426480E-1   -1.320000716212643E-2    5.638828408423376E-2   -1.039461156319183E-2    5.551459413196819E-2   -5.041232537870407E-1   -2.751501012896013E-2
 6.502098610050000E9    -4.736868763380902E-1   -2.222799195216860E-1   -1.302834591031179E-2    5.685776808478502E-2   -1.039199013266646E-2    5.609259596231889E-2   -5.042953990411164E-1   -2.592637751259498E-2
 6.502110379000000E9    -4.740304052091215E-1   -2.211873536280377E-1   -1.306414895026680E-2    5.730782608812950E-2   -1.037322626138133E-2    5.662183927285892E-2   -5.041212683662962E-1   -2.429325476475740E-2
 6.502122147950000E9    -4.745679954222144E-1   -2.201471517086913E-1   -1.288824209343247E-2    5.796923299958814E-2   -1.020099593424144E-2    5.704835713579208E-2   -5.039964763281214E-1   -2.247814631129246E-2
 6.502133916900000E9    -4.749035719674723E-1   -2.190565600563917E-1   -1.286159669542355E-2    5.842392207611146E-2   -1.013909821747785E-2    5.758941865971580E-2   -5.039096179908761E-1   -2.073670356891372E-2
 6.502145685850000E9    -4.753345431760826E-1   -2.179494596093507E-1   -1.276655265660153E-2    5.873594352625616E-2   -1.010700639643280E-2    5.809200929029841E-2   -5.036841750618376E-1   -1.896088455655886E-2
 6.502157454800000E9    -4.756551112672681E-1   -2.168317519608373E-1   -1.266093895309062E-2    5.942287009895159E-2   -1.003730259085782E-2    5.854167326291991E-2   -5.036396101359629E-1   -1.733600448700849E-2
 6.502169223750000E9    -4.761269604302606E-1   -2.157499808401224E-1   -1.256096415050765E-2    5.994521708818216E-2   -9.924310928920755E-3    5.908496843007469E-2   -5.036471878797851E-1   -1.567868964461756E-2
 6.502180992700000E9    -4.765333628744549E-1   -2.147934025992305E-1   -1.259340398479802E-2    6.054012856839235E-2   -9.795095849746378E-3    5.967963013089710E-2   -5.033739599575834E-1   -1.403692309051038E-2
 6.502192761650000E9    -4.769372444614933E-1   -2.136864526265304E-1   -1.258552747170173E-2    6.104596441745491E-2   -9.571773416446090E-3    6.022386304045454E-2   -5.032603378948115E-1   -1.208657776682652E-2
 6.502204530600000E9    -4.772608799669878E-1   -2.126181508504645E-1   -1.241963655073381E-2    6.168717321671250E-2   -9.566848133612322E-3    6.072897249673406E-2   -5.031513821432518E-1   -1.031495274991649E-2
 6.502216299550000E9    -4.775951555486553E-1   -2.114883935204344E-1   -1.219248295581152E-2    6.213621237297373E-2   -9.390272647312575E-3    6.125068543446398E-2   -5.029235306927865E-1   -8.484652194004546E-3
 6.502228068500000E9    -4.780439782330652E-1   -2.103235207656534E-1   -1.212465241800504E-2    6.275008492367347E-2   -9.356104537868434E-3    6.183623957395478E-2   -5.026627379045084E-1   -6.611413201098853E-3
