#  HZ   S   RI   R     50.00 
! Rohde & Schwarz Vector Network Analyzer 
! Rohde-Schwarz,ZNB20-2Port,1311601062101988,3.16
! Created: UTC 3/20/2024, 11:51:17 AM
! freq[Hz]                re:S11                  im:S11                  re:S21                  im:S21                  re:S12                  im:S12                  re:S22                  im:S22
 6.500793936000000E9    -4.190903486433813E-1   -3.187688233442740E-1   -1.501944746842663E-2    2.885722556058905E-2   -1.343333092680638E-2    2.893206778366660E-2   -4.852781363828042E-1   -1.679953900630677E-1
 6.500806918050000E9    -4.196381129853597E-1   -3.179977728961824E-1   -1.497330146387994E-2    2.879789864371073E-2   -1.336805094492148E-2    2.909345041506685E-2   -4.855299035850122E-1   -1.668620318727001E-1
 6.500819900100000E9    -4.203088747921718E-1   -3.170797794099264E-1   -1.503564352219128E-2    2.913217806796179E-2   -1.344452138462843E-2    2.919760304329776E-2   -4.859290877183728E-1   -1.659360508686426E-1
 6.500832882150000E9    -4.210119568754824E-1   -3.162096490960505E-1   -1.514306028597659E-2    2.940169450961969E-2   -1.343568065276593E-2    2.952518038765241E-2   -4.861653946681364E-1   -1.645084591330347E-1
 6.500845864200000E9    -4.215372405797156E-1   -3.153586130407766E-1   -1.501834275542881E-2    2.951415022205098E-2   -1.334724221012066E-2    2.964894912891598E-2   -4.865942686486796E-1   -1.634060478647215E-1
 6.500858846250000E9    -4.221332685398728E-1   -3.144458434595709E-1   -1.505736157971733E-2    2.973674363495253E-2   -1.342311465413585E-2    2.979841234809121E-2   -4.869368310021435E-1   -1.621445399701406E-1
 6.500871828300000E9    -4.226477833993107E-1   -3.137007202257769E-1   -1.509452981395850E-2    2.987652382748105E-2   -1.335862657781422E-2    3.001663457338937E-2   -4.872028132033224E-1   -1.609400784929299E-1
 6.500884810350000E9    -4.234561326335163E-1   -3.127217856635965E-1   -1.498596993264149E-2    3.001267934629243E-2   -1.326326737101464E-2    3.017389845715564E-2   -4.874665253580843E-1   -1.598398000972644E-1
 6.500897792400000E9    -4.240063031064010E-1   -3.118767174010386E-1   -1.500284995128727E-2    3.030540290307763E-2   -1.335331614611091E-2    3.027746834580934E-2   -4.877273136609847E-1   -1.585737271194653E-1
 6.500910774450000E9    -4.246097879138420E-1   -3.110931908664313E-1   -1.504884044154499E-2    3.048140785233017E-2   -1.339014957031684E-2    3.058566080278343E-2   -4.881118199257440E-1   -1.572716149327125E-1
 6.500923756500000E9    -4.252929413716910E-1   -3.100612538337326E-1   -1.500648938858575E-2    3.051079597584061E-2   -1.341306755685883E-2    3.071467013725190E-2   -4.883739793882209E-1   -1.561140338794460E-1
 6.500936738550000E9    -4.259389295574520E-1   -3.092848275410987E-1   -1.509275671090303E-2    3.079829379982804E-2   -1.323387635071235E-2    3.090976747865517E-2   -4.887308230086172E-1   -1.548914450759085E-1
 6.500949720600000E9    -4.264754021552679E-1   -3.083821695622375E-1   -1.510456471034873E-2    3.091405672643923E-2   -1.338289616636961E-2    3.114232068527287E-2   -4.890406588184951E-1   -1.536631819173623E-1
 6.500962702650000E9    -4.270138288017901E-1   -3.074259745682472E-1   -1.504536313640147E-2    3.130518651725045E-2   -1.334921440904981E-2    3.129749678878352E-2   -4.894033769983550E-1   -1.524917035579838E-1
 6.500975684700000E9    -4.275979174508674E-1   -3.065086766793507E-1   -1.501636510403727E-2    3.137452414044320E-2   -1.331445042612096E-2    3.146877939255048E-2   -4.896498871551795E-1   -1.511373655982826E-1
 6.500988666750000E9    -4.283120720776867E-1   -3.056011554181542E-1   -1.504540004210255E-2    3.157837851504990E-2   -1.331357614480849E-2    3.167515688271112E-2   -4.900400344872217E-1   -1.499274240660905E-1
 6.501001648800000E9    -4.289272650005986E-1   -3.048134767808068E-1   -1.495352425104198E-2    3.167757910016449E-2   -1.332695320975933E-2    3.188246625320729E-2   -4.903040799257256E-1   -1.486285286900796E-1
 6.501014630850000E9    -4.295336856353760E-1   -3.039126454541946E-1   -1.502708551359475E-2    3.202254699871823E-2   -1.319821931027093E-2    3.204355137255720E-2   -4.905402460244658E-1   -1.475029208766883E-1
 6.501027612900000E9    -4.300322392424246E-1   -3.029471991506035E-1   -1.513368035069808E-2    3.227390681897289E-2   -1.330777471677361E-2    3.229407763650389E-2   -4.909583154430588E-1   -1.461509541703740E-1
 6.501040594950000E9    -4.306277597497545E-1   -3.021215368783838E-1   -1.503320457472643E-2    3.260343439557422E-2   -1.334798952913992E-2    3.252674891916531E-2   -4.909968256196919E-1   -1.448649752467459E-1
 6.501053577000000E9    -4.313595896803435E-1   -3.011648499853798E-1   -1.498667322033281E-2    3.263572510365805E-2   -1.321316922252390E-2    3.269553449947087E-2   -4.914343059093156E-1   -1.436913006272189E-1
 6.501066559050000E9    -4.318219525256484E-1   -3.002457695229082E-1   -1.495759026394781E-2    3.279564176813096E-2   -1.338872475838415E-2    3.294065746361826E-2   -4.916991073515986E-1   -1.424665458140882E-1
 6.501079541100000E9    -4.325382439567811E-1   -2.993270160094677E-1   -1.513512519177955E-2    3.319102523156470E-2   -1.331264366757162E-2    3.312823602292066E-2   -4.919902839776833E-1   -1.412092523691905E-1
 6.501092523150000E9    -4.330020975150755E-1   -2.984475155799468E-1   -1.516674135632571E-2    3.322071819666503E-2   -1.324561553163192E-2    3.343264161904305E-2   -4.922501031771487E-1   -1.398376747507569E-1
 6.501105505200000E9    -4.336383522758523E-1   -2.976158267741988E-1   -1.490271802068512E-2    3.353891440434433E-2   -1.336134603914624E-2    3.360966287608401E-2   -4.925251385332248E-1   -1.386275133237767E-1
 6.501118487250000E9    -4.342776765190880E-1   -2.965988700279694E-1   -1.507195866780219E-2    3.375747518212483E-2   -1.324465032788412E-2    3.381728800400218E-2   -4.927999243113761E-1   -1.372593687808509E-1
 6.501131469300000E9    -4.347743974543219E-1   -2.956939259177585E-1   -1.509663110589090E-2    3.391855997573350E-2   -1.320355664535431E-2    3.407470495297196E-2   -4.931447067066948E-1   -1.360057671378945E-1
 6.501144451350000E9    -4.353623157248304E-1   -2.947881677042588E-1   -1.514753381395325E-2    3.418860003200197E-2   -1.321089168322205E-2    3.418845311864546E-2   -4.933323887397539E-1   -1.346461788841077E-1
 6.501157433400000E9    -4.359990208923569E-1   -2.938967310851094E-1   -1.502819475348819E-2    3.439618421383558E-2   -1.318918442795828E-2    3.434999713473934E-2   -4.935831810840272E-1   -1.334448866660933E-1
 6.501170415450000E9    -4.365402709103033E-1   -2.929254655995043E-1   -1.506087673167152E-2    3.463317505985488E-2   -1.312200577974237E-2    3.470528604715770E-2   -4.938765396799219E-1   -1.321645641598118E-1
 6.501183397500000E9    -4.371151906800582E-1   -2.920001975419958E-1   -1.516168683200940E-2    3.485765252837444E-2   -1.316128955689874E-2    3.498317025048121E-2   -4.941049379575447E-1   -1.308300897137651E-1
 6.501196379550000E9    -4.378153420756829E-1   -2.911457970729847E-1   -1.498156447909248E-2    3.536021824884885E-2   -1.316672903654472E-2    3.516854215860676E-2   -4.943544540947077E-1   -1.295305673644489E-1
 6.501209361600000E9    -4.382566243710377E-1   -2.902500194954628E-1   -1.504793772170917E-2    3.535540963494231E-2   -1.309247072997503E-2    3.547193959070485E-2   -4.945661141508342E-1   -1.280747126558109E-1
 6.501222343650000E9    -4.389529208316857E-1   -2.892333669087129E-1   -1.502629388590416E-2    3.559823488908399E-2   -1.309353166547766E-2    3.556548039903354E-2   -4.948493971051647E-1   -1.268919104709240E-1
 6.501235325700000E9    -4.394699853836821E-1   -2.883390349107998E-1   -1.505237989359991E-2    3.597247102704466E-2   -1.311934264359432E-2    3.590617606297996E-2   -4.950686703541632E-1   -1.254490921124370E-1
 6.501248307750000E9    -4.401560471594624E-1   -2.874027295977268E-1   -1.507461586109423E-2    3.618578793025898E-2   -1.309303794414228E-2    3.610192439246106E-2   -4.953417540572629E-1   -1.241858564727781E-1
 6.501261289800000E9    -4.407406335211638E-1   -2.864373377627428E-1   -1.515679146633120E-2    3.632675307179527E-2   -1.308320760546361E-2    3.636492658704308E-2   -4.954968898875885E-1   -1.228396896143268E-1
 6.501274271850000E9    -4.411946195954364E-1   -2.855489250016435E-1   -1.500579948420762E-2    3.668639607833472E-2   -1.303817732236779E-2    3.655145642912690E-2   -4.957606708926213E-1   -1.215475184335189E-1
 6.501287253900000E9    -4.417358467260568E-1   -2.846017034135583E-1   -1.505362531010962E-2    3.684615751636641E-2   -1.302280431495490E-2    3.690455604464517E-2   -4.959660136388996E-1   -1.200961488799816E-1
 6.501300235950000E9    -4.423009725759114E-1   -2.835354294013569E-1   -1.509571913050628E-2    3.723690250504730E-2   -1.305069480937204E-2    3.707051098444717E-2   -4.962744938969968E-1   -1.188177856774632E-1
 6.501313218000000E9    -4.428208470861381E-1   -2.826823981400900E-1   -1.503965971072490E-2    3.738296291334856E-2   -1.295266295180843E-2    3.729732923262524E-2   -4.964401170272753E-1   -1.175446800255233E-1
 6.501326200050000E9    -4.434486521825299E-1   -2.816111967924363E-1   -1.503813011643050E-2    3.780345854201907E-2   -1.296854257728371E-2    3.765819444838780E-2   -4.965590477179501E-1   -1.160451155217736E-1
 6.501339182100000E9    -4.440799582932660E-1   -2.806829746520179E-1   -1.501965659679519E-2    3.800492293874512E-2   -1.298344404127080E-2    3.799495751874787E-2   -4.969715810104332E-1   -1.147049609696059E-1
 6.501352164150000E9    -4.445829455422213E-1   -2.797080092654093E-1   -1.506837722642041E-2    3.835415838601244E-2   -1.297680741704918E-2    3.820700620015375E-2   -4.969850922677224E-1   -1.133061923352102E-1
 6.501365146200000E9    -4.450982564756618E-1   -2.788032833048669E-1   -1.496615251138513E-2    3.859461755702006E-2   -1.298735321032586E-2    3.850658987944269E-2   -4.972733550455582E-1   -1.118172421958644E-1
 6.501378128250000E9    -4.456580725185937E-1   -2.778784439448895E-1   -1.492469767241684E-2    3.884700432917852E-2   -1.296980519826751E-2    3.867552019793887E-2   -4.975786734053859E-1   -1.105195752328654E-1
 6.501391110300000E9    -4.462323005606675E-1   -2.769526968698753E-1   -1.486701096455883E-2    3.914120097883266E-2   -1.290107203282733E-2    3.904522648308920E-2   -4.977384463154289E-1   -1.091055098813954E-1
 6.501404092350000E9    -4.468002735848292E-1   -2.759103297784212E-1   -1.505573308706948E-2    3.944645571274401E-2   -1.289619895806870E-2    3.929858718348003E-2   -4.979054352570670E-1   -1.077133002831688E-1
 6.501417074400000E9    -4.472934373722071E-1   -2.750096912122585E-1   -1.476122080191748E-2    3.973456220769522E-2   -1.284474860240902E-2    3.951112548416359E-2   -4.980408473568148E-1   -1.063163044601600E-1
 6.501430056450000E9    -4.479525087926229E-1   -2.739081595721255E-1   -1.498113732175891E-2    4.007120621628875E-2   -1.284704465473790E-2    3.982262207003825E-2   -4.981763659763102E-1   -1.048803259901904E-1
 6.501443038500000E9    -4.485718446486297E-1   -2.730508796405102E-1   -1.487205924235799E-2    4.021018482086305E-2   -1.286706483983435E-2    4.001867457671291E-2   -4.984246881361301E-1   -1.034824939897294E-1
 6.501456020550000E9    -4.489651951153336E-1   -2.721383686527126E-1   -1.492074912388212E-2    4.061230038567300E-2   -1.280633134695688E-2    4.038225967633308E-2   -4.986992856491432E-1   -1.020905411928852E-1
 6.501469002600000E9    -4.495727520719035E-1   -2.709153366846456E-1   -1.486597377289602E-2    4.111272569594945E-2   -1.277151345012769E-2    4.074246813921451E-2   -4.988087219418369E-1   -1.005687504996825E-1
 6.501481984650000E9    -4.501768793836559E-1   -2.700251914125286E-1   -1.495102555518636E-2    4.124136021297488E-2   -1.279236727025547E-2    4.100708832331514E-2   -4.990363736335912E-1   -9.914768787098974E-2
 6.501494966700000E9    -4.506180814873522E-1   -2.689557375319544E-1   -1.474992974019102E-2    4.157729769445388E-2   -1.265139745602975E-2    4.132740647595586E-2   -4.992191137500247E-1   -9.775214021399820E-2
 6.501507948750000E9    -4.511785591013578E-1   -2.680521143335901E-1   -1.477494584223129E-2    4.182158435894938E-2   -1.260684003357982E-2    4.162143931737072E-2   -4.993654124490353E-1   -9.619173726265906E-2
 6.501520930800000E9    -4.517299773231727E-1   -2.670132896539708E-1   -1.480915876619087E-2    4.217992339524638E-2   -1.262040604329760E-2    4.189935048402144E-2   -4.994279172073001E-1   -9.481127409984902E-2
 6.501533912850000E9    -4.523295219507463E-1   -2.660399571812870E-1   -1.482095820322656E-2    4.254888795601462E-2   -1.265001202541901E-2    4.230863854691922E-2   -4.997905819439918E-1   -9.326921417255911E-2
 6.501546894900000E9    -4.527864021978330E-1   -2.650321350877612E-1   -1.483414095549257E-2    4.284128594859695E-2   -1.266708473725471E-2    4.252011854497113E-2   -4.998304247290641E-1   -9.172271438793585E-2
 6.501559876950000E9    -4.533544850106582E-1   -2.639969638521970E-1   -1.475299971841786E-2    4.321387363373488E-2   -1.252916623417217E-2    4.299167810080082E-2   -4.999562250341827E-1   -9.026914390775811E-2
 6.501572859000000E9    -4.538269631252693E-1   -2.629997166427599E-1   -1.475950923115697E-2    4.350939898747255E-2   -1.251802111557424E-2    4.330062350084043E-2   -5.001437401145722E-1   -8.883073933486400E-2
 6.501585841050000E9    -4.543457563859852E-1   -2.620101213021724E-1   -1.471664139046007E-2    4.379819867968900E-2   -1.252416631050558E-2    4.356938268297998E-2   -5.002100023753128E-1   -8.735544534414087E-2
 6.501598823100000E9    -4.549801286194798E-1   -2.610044759316157E-1   -1.453059550881522E-2    4.427167611095911E-2   -1.251459480176501E-2    4.395029252371081E-2   -5.003468119208970E-1   -8.578417060766455E-2
 6.501611805150000E9    -4.554599276541319E-1   -2.599407439363459E-1   -1.472722145686423E-2    4.456722787529420E-2   -1.234035284606284E-2    4.423187194565253E-2   -5.004393392453645E-1   -8.422015101567082E-2
 6.501624787200000E9    -4.559774540925650E-1   -2.588647111130949E-1   -1.462060562341994E-2    4.489357606606815E-2   -1.240513144909858E-2    4.459539070663066E-2   -5.005891895795622E-1   -8.282068837324016E-2
 6.501637769250000E9    -4.565247999905558E-1   -2.579644747586889E-1   -1.474012129822030E-2    4.523824024473271E-2   -1.227922153333131E-2    4.495277382445860E-2   -5.006993214328433E-1   -8.120640514667209E-2
 6.501650751300000E9    -4.570161911819037E-1   -2.568402955554705E-1   -1.464490059763356E-2    4.569310564274465E-2   -1.221401168946438E-2    4.538861212524973E-2   -5.007271886859055E-1   -7.971709038377278E-2
 6.501663733350000E9    -4.575309360129129E-1   -2.558006516888289E-1   -1.463380344611055E-2    4.614223302009324E-2   -1.218926001009266E-2    4.577611946868145E-2   -5.010243788388887E-1   -7.805426538376373E-2
 6.501676715400000E9    -4.580912646430072E-1   -2.548070235946408E-1   -1.460968014110755E-2    4.654314169738864E-2   -1.222993113721639E-2    4.608403760895217E-2   -5.009562597547474E-1   -7.660291992515612E-2
 6.501689697450000E9    -4.585740346264145E-1   -2.538075759220415E-1   -1.451749979391033E-2    4.681625558967734E-2   -1.218479322987503E-2    4.645470975150726E-2   -5.010955969767461E-1   -7.496209525163842E-2
 6.501702679500000E9    -4.589649499210388E-1   -2.526808088444411E-1   -1.440387136537923E-2    4.704614600883603E-2   -1.208305074921837E-2    4.681032966360926E-2   -5.012195670731631E-1   -7.358512002676779E-2
 6.501715661550000E9    -4.595550643579163E-1   -2.516330997175361E-1   -1.424854684611450E-2    4.752327989291847E-2   -1.208895687677175E-2    4.713323720883894E-2   -5.012818870447455E-1   -7.175942098703067E-2
 6.501728643600000E9    -4.601152440489091E-1   -2.506240381434129E-1   -1.431642985334084E-2    4.792195287009311E-2   -1.200779735359816E-2    4.764572209596225E-2   -5.013030335675926E-1   -7.020999009038212E-2
 6.501741625650000E9    -4.605829613183926E-1   -2.495052013561134E-1   -1.432917958674596E-2    4.849098305763085E-2   -1.188895471066894E-2    4.801284993438507E-2   -5.015095325895366E-1   -6.863988101829588E-2
 6.501754607700000E9    -4.611228313388924E-1   -2.484753038830195E-1   -1.438569989832931E-2    4.892015544140504E-2   -1.183268301091028E-2    4.835729670423811E-2   -5.015482970755407E-1   -6.711271881882859E-2
 6.501767589750000E9    -4.615629035448891E-1   -2.473524855999389E-1   -1.430492337812606E-2    4.927141320446967E-2   -1.181910003778289E-2    4.878748211242356E-2   -5.013504635463217E-1   -6.535830742898953E-2
 6.501780571800000E9    -4.621720801746983E-1   -2.463617134509655E-1   -1.420061404254751E-2    4.961744894746162E-2   -1.176151448558126E-2    4.930405396591991E-2   -5.016200961497874E-1   -6.365734641382481E-2
 6.501793553850000E9    -4.626353179359177E-1   -2.453349490242117E-1   -1.425034320228815E-2    5.006317634924094E-2   -1.174114877757970E-2    4.968646879072008E-2   -5.016398208639550E-1   -6.209591965344213E-2
 6.501806535900000E9    -4.631754114229288E-1   -2.442048042778119E-1   -1.404823399464188E-2    5.056040929455916E-2   -1.166420869063644E-2    5.010642310899808E-2   -5.015222819139948E-1   -6.038693008851490E-2
 6.501819517950000E9    -4.635051153920409E-1   -2.430948836340536E-1   -1.396884969415716E-2    5.094881252980832E-2   -1.158199164554340E-2    5.054853288181625E-2   -5.015945542302626E-1   -5.858897149480091E-2
 6.501832500000000E9    -4.640775585132968E-1   -2.420758042507665E-1   -1.400847495015804E-2    5.147282316767186E-2   -1.146160890980016E-2    5.099712240382360E-2   -5.016834122225461E-1   -5.695944975765047E-2
 6.501845482050000E9    -4.646077185178020E-1   -2.408829368759484E-1   -1.389983270771815E-2    5.204385483989985E-2   -1.143771300516965E-2    5.138678326645887E-2   -5.017433415598828E-1   -5.526961527311124E-2
 6.501858464100000E9    -4.649684766815120E-1   -2.398390374111885E-1   -1.392162973203756E-2    5.248202362482598E-2   -1.131200200312907E-2    5.176637242685001E-2   -5.017553979343390E-1   -5.351574027478372E-2
 6.501871446150000E9    -4.654914696198520E-1   -2.387687780603007E-1   -1.381241385308467E-2    5.277740678159732E-2   -1.114132998363135E-2    5.226134508592086E-2   -5.017309548381665E-1   -5.193203935932929E-2
 6.501884428200000E9    -4.659324002448499E-1   -2.375901768438530E-1   -1.394190083137397E-2    5.345521346804283E-2   -1.115658203042791E-2    5.285703098941862E-2   -5.017027031412759E-1   -5.008661215953567E-2
 6.501897410250000E9    -4.664294424294091E-1   -2.365181107415504E-1   -1.366744847387305E-2    5.381007976219567E-2   -1.108470030638485E-2    5.321543482727704E-2   -5.016305616337209E-1   -4.833333270035873E-2
 6.501910392300000E9    -4.669035540842292E-1   -2.354158626849580E-1   -1.363636195307000E-2    5.442173919370430E-2   -1.098422358679215E-2    5.373677245619527E-2   -5.017101542824324E-1   -4.655225088021845E-2
 6.501923374350000E9    -4.675752809927103E-1   -2.342210542980234E-1   -1.345670390503854E-2    5.484603373703299E-2   -1.090827610528197E-2    5.424369273578808E-2   -5.015757439971301E-1   -4.471380957418534E-2
 6.501936356400000E9    -4.678751236016549E-1   -2.330869834807185E-1   -1.361170304269256E-2    5.548662724366656E-2   -1.088924071681530E-2    5.469191416309917E-2   -5.015271020967993E-1   -4.303826191924433E-2
 6.501949338450000E9    -4.683895632661689E-1   -2.320162667556156E-1   -1.346920717311107E-2    5.574271400224243E-2   -1.078298066091120E-2    5.523625826208618E-2   -5.016351581518659E-1   -4.122824210121592E-2
 6.501962320500000E9    -4.688323488935863E-1   -2.308083559382815E-1   -1.338400694062311E-2    5.639725617525734E-2   -1.062954444384896E-2    5.567539579100245E-2   -5.013738138961082E-1   -3.942029034723039E-2
