#  HZ   S   RI   R     50.00 
! Rohde & Schwarz Vector Network Analyzer 
! Rohde-Schwarz,ZNB20-2Port,1311601062101988,3.16
! Created: UTC 3/20/2024, 11:51:35 AM
! freq[Hz]                re:S11                  im:S11                  re:S21                  im:S21                  re:S12                  im:S12                  re:S22                  im:S22
 6.500790447000000E9    -4.188664403117732E-1   -3.189277837683619E-1   -1.500264829473318E-2    2.869729789160266E-2   -1.345897190055083E-2    2.885345132494496E-2   -4.850548614540174E-1   -1.685098205868052E-1
 6.500803433225000E9    -4.194294281681023E-1   -3.179977935647200E-1   -1.500542929898937E-2    2.895934902920453E-2   -1.340965054730578E-2    2.909166241124059E-2   -4.852666952631903E-1   -1.673202622787439E-1
 6.500816419450000E9    -4.201369784651400E-1   -3.171793886529983E-1   -1.502040257763731E-2    2.908995493281330E-2   -1.334670972198434E-2    2.926559275251960E-2   -4.857728729249339E-1   -1.662087206026658E-1
 6.500829405675000E9    -4.207712256349389E-1   -3.164110273129789E-1   -1.497751739061030E-2    2.930926168868335E-2   -1.335096550468984E-2    2.927004719720408E-2   -4.861774024676183E-1   -1.649624135635384E-1
 6.500842391900000E9    -4.214312965938053E-1   -3.154844476362336E-1   -1.508459561125614E-2    2.945237341682690E-2   -1.328845167196675E-2    2.953414086140741E-2   -4.864237433261610E-1   -1.638515010004303E-1
 6.500855378125000E9    -4.220887317934564E-1   -3.146653357304968E-1   -1.506091768443089E-2    2.958744923484046E-2   -1.337556483562542E-2    2.976022235857237E-2   -4.868169131741392E-1   -1.625978552076422E-1
 6.500868364350000E9    -4.226611437453910E-1   -3.136231080058099E-1   -1.495329839458188E-2    2.977091594785608E-2   -1.342960737988298E-2    2.996886512988404E-2   -4.870742510617538E-1   -1.614812373839582E-1
 6.500881350575000E9    -4.232786150789294E-1   -3.128486324557926E-1   -1.502532676348171E-2    3.003132621820104E-2   -1.328928976994310E-2    3.007399855545266E-2   -4.873124924394349E-1   -1.601159306869525E-1
 6.500894336800000E9    -4.238060004663738E-1   -3.120115369653985E-1   -1.509437094852332E-2    3.021296754209664E-2   -1.321077457079432E-2    3.032290985029663E-2   -4.876778659482111E-1   -1.590778216202791E-1
 6.500907323025000E9    -4.245306617552246E-1   -3.111557101615200E-1   -1.504165912784188E-2    3.027339525776002E-2   -1.327523282240711E-2    3.051589424631643E-2   -4.880643421261914E-1   -1.578258844572276E-1
 6.500920309250000E9    -4.251204295514515E-1   -3.103106210112817E-1   -1.503770165366552E-2    3.066006510152294E-2   -1.332207514140803E-2    3.059084102420285E-2   -4.881985894137755E-1   -1.565455660526449E-1
 6.500933295475000E9    -4.257350576366339E-1   -3.092760943069349E-1   -1.509221054690367E-2    3.086243422102193E-2   -1.321592656492681E-2    3.082765082700676E-2   -4.886879795519090E-1   -1.552000645995052E-1
 6.500946281700000E9    -4.263408848377671E-1   -3.084908203360175E-1   -1.505272206410313E-2    3.089049363713771E-2   -1.334509130329937E-2    3.104469583563964E-2   -4.890180325183759E-1   -1.541109208430500E-1
 6.500959267925000E9    -4.269582369579079E-1   -3.075493258067749E-1   -1.501313375554312E-2    3.103806732146668E-2   -1.319669898010255E-2    3.121835788382074E-2   -4.893148007776790E-1   -1.528092164530942E-1
 6.500972254150000E9    -4.274763715074857E-1   -3.067468206970919E-1   -1.493096485824898E-2    3.137509352015194E-2   -1.330531102165731E-2    3.148879063725814E-2   -4.894569198589418E-1   -1.517225158271243E-1
 6.500985240375000E9    -4.281817176463457E-1   -3.058022312798317E-1   -1.512071296573324E-2    3.144492961057200E-2   -1.323280066198437E-2    3.165664563524683E-2   -4.898466456947387E-1   -1.503554227875738E-1
 6.500998226600000E9    -4.287491965952289E-1   -3.049719793991726E-1   -1.502706393647403E-2    3.178276730405550E-2   -1.328315967525425E-2    3.181824774435224E-2   -4.900470977084023E-1   -1.491306991532253E-1
 6.501011212825000E9    -4.293350148722478E-1   -3.041249242519452E-1   -1.503416433325631E-2    3.195469087068971E-2   -1.332030340297219E-2    3.201162386070773E-2   -4.905355999499878E-1   -1.479030175905033E-1
 6.501024199050000E9    -4.299195630412916E-1   -3.030829527828706E-1   -1.503537362474073E-2    3.215908187055479E-2   -1.322637265851875E-2    3.222258377527458E-2   -4.907145204500606E-1   -1.465298745686028E-1
 6.501037185275000E9    -4.305286021834718E-1   -3.021379779698200E-1   -1.502606254435971E-2    3.232453247226193E-2   -1.330904540599346E-2    3.235366493398827E-2   -4.909907863724138E-1   -1.453639201757370E-1
 6.501050171500000E9    -4.311001859100689E-1   -3.011645637483196E-1   -1.507477018554762E-2    3.256267534987289E-2   -1.322711131430212E-2    3.260493879591970E-2   -4.913881683781922E-1   -1.440972964498923E-1
 6.501063157725000E9    -4.317625410069847E-1   -3.003499082122858E-1   -1.499974714670875E-2    3.277762199799025E-2   -1.319996587504642E-2    3.283696255119246E-2   -4.915937121160297E-1   -1.427849911478488E-1
 6.501076143950000E9    -4.324228748854768E-1   -2.995462896202309E-1   -1.505170218067449E-2    3.289832580169771E-2   -1.321406677494648E-2    3.310079851182762E-2   -4.919001273701194E-1   -1.414921701010887E-1
 6.501089130175000E9    -4.330100083593293E-1   -2.986440203823864E-1   -1.509825110981283E-2    3.326338524595138E-2   -1.322209299946500E-2    3.340005737874572E-2   -4.921849651124974E-1   -1.403767374088077E-1
 6.501102116400000E9    -4.335209250359562E-1   -2.977175560145280E-1   -1.505871233276504E-2    3.344740159476041E-2   -1.324314821269828E-2    3.354517406749213E-2   -4.923224168870102E-1   -1.389863039220560E-1
 6.501115102625000E9    -4.340952142169233E-1   -2.967783333047180E-1   -1.503808381548235E-2    3.370099539451411E-2   -1.327600080713574E-2    3.365664974044462E-2   -4.927256643691040E-1   -1.377877648086950E-1
 6.501128088850000E9    -4.347480109307320E-1   -2.959288535996384E-1   -1.515399791485643E-2    3.388409285843134E-2   -1.316626447153881E-2    3.392792987373811E-2   -4.930087403903813E-1   -1.363567014058339E-1
 6.501141075075000E9    -4.352165140260243E-1   -2.949108579059833E-1   -1.495149104541885E-2    3.415442274543570E-2   -1.325885508337965E-2    3.416996592795205E-2   -4.932724283142395E-1   -1.352495043551012E-1
 6.501154061300000E9    -4.358851045671567E-1   -2.939249710010371E-1   -1.502596430455898E-2    3.430456883729116E-2   -1.319302503525952E-2    3.443575946876568E-2   -4.934991963561896E-1   -1.338114954770463E-1
 6.501167047525000E9    -4.363845866238024E-1   -2.929570340913184E-1   -1.502641567768355E-2    3.466584487146697E-2   -1.324013704054729E-2    3.463656943335486E-2   -4.937615137107593E-1   -1.324811530157677E-1
 6.501180033750000E9    -4.371351982399009E-1   -2.921810897776642E-1   -1.505773051200830E-2    3.483771605779912E-2   -1.315367507013537E-2    3.475005160876914E-2   -4.939826360965338E-1   -1.313070687782485E-1
 6.501193019975000E9    -4.375778776296420E-1   -2.911917395852004E-1   -1.503100748807132E-2    3.515945231021270E-2   -1.311259747425538E-2    3.514146994634264E-2   -4.941884547862018E-1   -1.298210396444377E-1
 6.501206006200000E9    -4.381970585304332E-1   -2.901367531079895E-1   -1.500406770217097E-2    3.544700576274760E-2   -1.309005158055881E-2    3.534398835550004E-2   -4.945642617368596E-1   -1.285972223403875E-1
 6.501218992425000E9    -4.388373075921128E-1   -2.893826420434146E-1   -1.510817766179417E-2    3.552884660980284E-2   -1.309649495105819E-2    3.551839504599195E-2   -4.947770066200146E-1   -1.272652412032800E-1
 6.501231978650000E9    -4.393555742049897E-1   -2.884096762245567E-1   -1.508593877835834E-2    3.583857700258086E-2   -1.310682903755024E-2    3.577034617394052E-2   -4.950601938748452E-1   -1.259602142279260E-1
 6.501244964875000E9    -4.398927528716809E-1   -2.874555522433396E-1   -1.492764328518775E-2    3.608385920312729E-2   -1.319584817447929E-2    3.600624178745471E-2   -4.952516596000882E-1   -1.245206625981374E-1
 6.501257951100000E9    -4.404658710976304E-1   -2.865711893849222E-1   -1.496373344183473E-2    3.618985601887272E-2   -1.311275513845929E-2    3.626958371452067E-2   -4.955401570592403E-1   -1.232179584148139E-1
 6.501270937325000E9    -4.411580369255733E-1   -2.855469940161885E-1   -1.516080265696544E-2    3.664113353411188E-2   -1.311358947558987E-2    3.655262017717686E-2   -4.957479984647729E-1   -1.220850670680853E-1
 6.501283923550000E9    -4.417273702753452E-1   -2.844958682296634E-1   -1.497273693311093E-2    3.698793982231446E-2   -1.294443573684752E-2    3.672521239312086E-2   -4.958770341865470E-1   -1.205266890492991E-1
 6.501296909775000E9    -4.422060512673244E-1   -2.837181038440396E-1   -1.504494637063751E-2    3.719092503303074E-2   -1.306069848900000E-2    3.699924165357132E-2   -4.961568883268821E-1   -1.192334911601622E-1
 6.501309896000000E9    -4.427358212351744E-1   -2.827583140241614E-1   -1.507768945813912E-2    3.733679720981922E-2   -1.306304987911103E-2    3.722840788984007E-2   -4.963364441890361E-1   -1.178056738801525E-1
 6.501322882225000E9    -4.433510780758652E-1   -2.818032016136698E-1   -1.511917117613864E-2    3.747411121744499E-2   -1.299271033717185E-2    3.750603789651724E-2   -4.965726194355558E-1   -1.165005397319346E-1
 6.501335868450000E9    -4.438634534195106E-1   -2.808697480424024E-1   -1.502932621542011E-2    3.801160799703041E-2   -1.294436780498660E-2    3.772228588256690E-2   -4.968333339420507E-1   -1.151529879651838E-1
 6.501348854675000E9    -4.444701320417996E-1   -2.799200289723108E-1   -1.493738744513104E-2    3.816994468275164E-2   -1.295751387817734E-2    3.802254017898685E-2   -4.969406371196498E-1   -1.137615036385158E-1
 6.501361840900000E9    -4.449847075341731E-1   -2.790329832974732E-1   -1.505321334291613E-2    3.844787457667440E-2   -1.301754334894990E-2    3.831925717018787E-2   -4.974057534493800E-1   -1.123610297523217E-1
 6.501374827125000E9    -4.456868071010904E-1   -2.779195654148247E-1   -1.485492544514956E-2    3.879137130420027E-2   -1.291174205689820E-2    3.860846419915313E-2   -4.975245748213216E-1   -1.111539459556856E-1
 6.501387813350000E9    -4.460516411606515E-1   -2.770717092744499E-1   -1.474763165085986E-2    3.893130485770446E-2   -1.291522324093145E-2    3.883517854214302E-2   -4.976849341453103E-1   -1.095200839116267E-1
 6.501400799575000E9    -4.467375515916195E-1   -2.760662286601736E-1   -1.498995581698938E-2    3.927249585954015E-2   -1.285744224813756E-2    3.915766753030590E-2   -4.978057263772918E-1   -1.082692780053581E-1
 6.501413785800000E9    -4.473347659100274E-1   -2.751306907902887E-1   -1.485115930434759E-2    3.967269809229329E-2   -1.288796165498156E-2    3.945439271755689E-2   -4.980560428694839E-1   -1.068196354704473E-1
 6.501426772025000E9    -4.478121813587970E-1   -2.741183858989483E-1   -1.485755616189168E-2    3.987586073485425E-2   -1.289892766432025E-2    3.976130182741178E-2   -4.983115712629750E-1   -1.054379128332383E-1
 6.501439758250000E9    -4.483152350059891E-1   -2.732031048726565E-1   -1.497847807342587E-2    4.022722287478309E-2   -1.288065591042933E-2    4.006569149884934E-2   -4.984616206520365E-1   -1.039121499287465E-1
 6.501452744475000E9    -4.488749986517576E-1   -2.721238232466053E-1   -1.490248208938788E-2    4.047565799097658E-2   -1.274744412389259E-2    4.023482440425458E-2   -4.986812826653098E-1   -1.024231101111422E-1
 6.501465730700000E9    -4.494325681645556E-1   -2.711867227473527E-1   -1.479043648233595E-2    4.075481159704272E-2   -1.271265791349540E-2    4.065185473644951E-2   -4.988794453212404E-1   -1.011354949202659E-1
 6.501478716925000E9    -4.499499122366852E-1   -2.701464476213526E-1   -1.494650927934845E-2    4.111985839172905E-2   -1.277377149062523E-2    4.084266968957990E-2   -4.991163135567658E-1   -9.961517249797860E-2
 6.501491703150000E9    -4.505120151341302E-1   -2.691605893511051E-1   -1.494530829400656E-2    4.140249079266908E-2   -1.273426985096226E-2    4.121232330766728E-2   -4.991594384956974E-1   -9.822475281711229E-2
 6.501504689375000E9    -4.510904634603295E-1   -2.682137278981321E-1   -1.480604117182212E-2    4.180243535013988E-2   -1.264573425794963E-2    4.148948475656409E-2   -4.992564113252007E-1   -9.684044619500169E-2
 6.501517675600000E9    -4.516339894457262E-1   -2.672145558926720E-1   -1.484881759153444E-2    4.207967031007141E-2   -1.270509950648101E-2    4.184163736922288E-2   -4.993746396435889E-1   -9.518715801079138E-2
 6.501530661825000E9    -4.521455671830166E-1   -2.663384608290850E-1   -1.474686720686680E-2    4.236656789939910E-2   -1.269414820894562E-2    4.213458493277162E-2   -4.995251958778895E-1   -9.380955677885131E-2
 6.501543648050000E9    -4.526044320440566E-1   -2.652571241733125E-1   -1.473478822631201E-2    4.271785322394841E-2   -1.256376189757130E-2    4.247444110859059E-2   -4.997686240345136E-1   -9.236295002526458E-2
 6.501556634275000E9    -4.532681907477906E-1   -2.642115877102606E-1   -1.472413794295350E-2    4.307478710196444E-2   -1.265019113734690E-2    4.284388204373219E-2   -4.999348703675016E-1   -9.089271799063216E-2
 6.501569620500000E9    -4.536483004742530E-1   -2.631844225652317E-1   -1.480403553436196E-2    4.351506294216257E-2   -1.259466369942252E-2    4.312121496872182E-2   -5.000449388419124E-1   -8.942654244972645E-2
 6.501582606725000E9    -4.542212069727333E-1   -2.621168188332217E-1   -1.470797314025861E-2    4.375852473010804E-2   -1.247810105558918E-2    4.338738905063406E-2   -5.002215159786741E-1   -8.786520931832037E-2
 6.501595592950000E9    -4.547824251673480E-1   -2.610606693190642E-1   -1.456808364979816E-2    4.409456672156759E-2   -1.245299160433825E-2    4.375596088736436E-2   -5.002427620526222E-1   -8.637212260725316E-2
 6.501608579175000E9    -4.553255743686160E-1   -2.601097661746086E-1   -1.459219203076461E-2    4.440561849460634E-2   -1.246552067866347E-2    4.421798640235887E-2   -5.004294157202611E-1   -8.479913770484306E-2
 6.501621565400000E9    -4.557992510185553E-1   -2.591390761928025E-1   -1.468169582104591E-2    4.476616405499435E-2   -1.230097740711439E-2    4.458949767959487E-2   -5.005813424615532E-1   -8.328192082230279E-2
 6.501634551625000E9    -4.564129845090246E-1   -2.580764607345724E-1   -1.463817040244506E-2    4.510784674764525E-2   -1.226104971630627E-2    4.485846351262843E-2   -5.006064738876531E-1   -8.177906834073070E-2
 6.501647537850000E9    -4.569227059470846E-1   -2.571117821224070E-1   -1.464204447926452E-2    4.565108082289675E-2   -1.220802375061601E-2    4.521695050692690E-2   -5.008786281486520E-1   -8.005876843207883E-2
 6.501660524075000E9    -4.573423964400778E-1   -2.559887233622726E-1   -1.451418335543352E-2    4.589073945549864E-2   -1.220740597336147E-2    4.555585782236696E-2   -5.009343342166517E-1   -7.860899144316491E-2
 6.501673510300000E9    -4.579010652038963E-1   -2.550493345655838E-1   -1.447526236809859E-2    4.641801208669077E-2   -1.222996252513706E-2    4.598251763178869E-2   -5.010145260956538E-1   -7.702343773414341E-2
 6.501686496525000E9    -4.584089992907350E-1   -2.538653399166659E-1   -1.459208976507736E-2    4.661994914197456E-2   -1.212341134690570E-2    4.631172399413454E-2   -5.011308237342734E-1   -7.557028622622947E-2
 6.501699482750000E9    -4.588778064659210E-1   -2.528173701596348E-1   -1.453800843417875E-2    4.705791746466252E-2   -1.210137365087774E-2    4.673421372751554E-2   -5.011047184221832E-1   -7.386067302126394E-2
 6.501712468975000E9    -4.594242822953096E-1   -2.518935048180047E-1   -1.436479735544688E-2    4.748050425742461E-2   -1.203018775009866E-2    4.707985182237048E-2   -5.013349169885036E-1   -7.230005883497767E-2
 6.501725455200000E9    -4.599432143549221E-1   -2.508223894765702E-1   -1.445115182037425E-2    4.788208539220445E-2   -1.198502923225635E-2    4.737691949324424E-2   -5.013632090416615E-1   -7.076360118929592E-2
 6.501738441425000E9    -4.604179171440992E-1   -2.496681956813033E-1   -1.434420119336873E-2    4.826531438251464E-2   -1.188727608010965E-2    4.786203876405663E-2   -5.013693113198699E-1   -6.901606353750991E-2
 6.501751427650000E9    -4.610395313289847E-1   -2.486204893149127E-1   -1.424684785017073E-2    4.864690882440281E-2   -1.192517746238408E-2    4.820496195305967E-2   -5.014302633259742E-1   -6.757308352910503E-2
 6.501764413875000E9    -4.615548926311109E-1   -2.476304964843750E-1   -1.426281954906632E-2    4.920247517215839E-2   -1.180204979753899E-2    4.863932315896757E-2   -5.015500098770098E-1   -6.597978816143552E-2
 6.501777400100000E9    -4.619946089118609E-1   -2.465918727236505E-1   -1.409545720542639E-2    4.955252979672412E-2   -1.169463327336813E-2    4.903502195220234E-2   -5.014248898218350E-1   -6.426309936936123E-2
 6.501790386325000E9    -4.624158986834264E-1   -2.454270897298107E-1   -1.415644284659989E-2    4.999828913373976E-2   -1.169726135523677E-2    4.948280663896537E-2   -5.015597096962994E-1   -6.246616221168894E-2
 6.501803372550000E9    -4.628683887251536E-1   -2.444067503203421E-1   -1.427699246483495E-2    5.045591068727175E-2   -1.160962727702506E-2    4.994141896308413E-2   -5.016802968285343E-1   -6.098406977249347E-2
 6.501816358775000E9    -4.634601539853072E-1   -2.433240731411447E-1   -1.409212159007413E-2    5.097794353174383E-2   -1.158685011065177E-2    5.028258711693775E-2   -5.017898537580624E-1   -5.930153747815183E-2
 6.501829345000000E9    -4.639697084354507E-1   -2.420446795205543E-1   -1.409657633403612E-2    5.136918112791169E-2   -1.149181365658622E-2    5.069923443592045E-2   -5.016856947715934E-1   -5.758356514124405E-2
 6.501842331225000E9    -4.644176319665910E-1   -2.411699845686945E-1   -1.387789413755467E-2    5.182303991023584E-2   -1.141436002918843E-2    5.113896936776562E-2   -5.016609442298235E-1   -5.595920639422976E-2
 6.501855317450000E9    -4.649412973940342E-1   -2.400454888712880E-1   -1.385014006622864E-2    5.232296301497930E-2   -1.141146092277747E-2    5.161676786644864E-2   -5.016771969447321E-1   -5.408228205755049E-2
 6.501868303675000E9    -4.654493480118648E-1   -2.389200691372292E-1   -1.384286955817927E-2    5.265973916566987E-2   -1.126301652687570E-2    5.219658884994458E-2   -5.016826557183259E-1   -5.245365965536217E-2
 6.501881289900000E9    -4.659920344562721E-1   -2.376028078399558E-1   -1.373892082632746E-2    5.324961547520032E-2   -1.125189499634926E-2    5.258060611665708E-2   -5.015853798806527E-1   -5.078474401397003E-2
 6.501894276125000E9    -4.663110111977626E-1   -2.366396303191451E-1   -1.380697225146900E-2    5.365196009138510E-2   -1.117887223796867E-2    5.305789717088005E-2   -5.016437267011896E-1   -4.888835459076226E-2
 6.501907262350000E9    -4.668549372912990E-1   -2.355347527647180E-1   -1.385162721235630E-2    5.418984437905033E-2   -1.104237711786996E-2    5.345522603470409E-2   -5.016983478426766E-1   -4.719851778791120E-2
 6.501920248575000E9    -4.673164015059144E-1   -2.344712474016758E-1   -1.357087943197919E-2    5.472353217233090E-2   -1.093310592027130E-2    5.405390278887558E-2   -5.016677388014310E-1   -4.533304663520817E-2
 6.501933234800000E9    -4.677911182309432E-1   -2.333644421559090E-1   -1.356796918376842E-2    5.534157392705932E-2   -1.094310658656593E-2    5.461749290003436E-2   -5.015603868144808E-1   -4.354087952721086E-2
 6.501946221025000E9    -4.682850757104983E-1   -2.321950116505195E-1   -1.339992298539085E-2    5.568766421812483E-2   -1.075478969495450E-2    5.499125229342085E-2   -5.014360820610004E-1   -4.187547027381522E-2
 6.501959207250000E9    -4.686540687290695E-1   -2.310129729891964E-1   -1.331824235989467E-2    5.629480128782235E-2   -1.070241068411606E-2    5.554557034064701E-2   -5.015009997091882E-1   -3.996842446924889E-2
