#  HZ   S   RI   R     50.00 
! Rohde & Schwarz Vector Network Analyzer 
! Rohde-Schwarz,ZNB20-2Port,1311601062101988,3.16
! Created: UTC 3/20/2024, 11:51:57 AM
! freq[Hz]                re:S11                  im:S11                  re:S21                  im:S21                  re:S12                  im:S12                  re:S22                  im:S22
 6.500796039000000E9    -4.192722645807874E-1   -3.185556674031836E-1   -1.489777039531541E-2    2.876846630747299E-2   -1.342910831536408E-2    2.892852596854397E-2   -4.854018998435253E-1   -1.680008783712779E-1
 6.500809014575000E9    -4.197190860184566E-1   -3.177363559701350E-1   -1.501441945324926E-2    2.898068231302446E-2   -1.332575478237666E-2    2.913665648857095E-2   -4.856161045981495E-1   -1.668707431409699E-1
 6.500821990150000E9    -4.204762922418340E-1   -3.168771567471409E-1   -1.497576136271458E-2    2.915085438247392E-2   -1.329267399241657E-2    2.933148016335052E-2   -4.859364812591609E-1   -1.656616861087954E-1
 6.500834965725000E9    -4.210799791884852E-1   -3.160590025471495E-1   -1.515286464293775E-2    2.933840562933938E-2   -1.332351902779137E-2    2.949626309602597E-2   -4.861970299425625E-1   -1.645617404243774E-1
 6.500847941300000E9    -4.217809315711500E-1   -3.151317328592321E-1   -1.502661376333194E-2    2.956387801866878E-2   -1.333203094295268E-2    2.959742204741482E-2   -4.864491226132804E-1   -1.633440413826817E-1
 6.500860916875000E9    -4.223639855004293E-1   -3.142186751807762E-1   -1.503347254248019E-2    2.964649844749744E-2   -1.336616352958890E-2    2.978394237046751E-2   -4.868352171697842E-1   -1.621606339952383E-1
 6.500873892450000E9    -4.229214691331961E-1   -3.134382999956894E-1   -1.495923745019039E-2    2.973855753018248E-2   -1.334206087163411E-2    2.999340308223542E-2   -4.873407379284254E-1   -1.608595621206212E-1
 6.500886868025000E9    -4.235700067171848E-1   -3.124196262930842E-1   -1.500052241130372E-2    3.003434611054088E-2   -1.327951225544507E-2    3.021517535564563E-2   -4.874220798150055E-1   -1.597137956691558E-1
 6.500899843600000E9    -4.241660584226939E-1   -3.116243683773454E-1   -1.500110415973247E-2    3.032947813965937E-2   -1.329974316053623E-2    3.029963769463290E-2   -4.877860585514557E-1   -1.585024465570855E-1
 6.500912819175000E9    -4.247455855734129E-1   -3.107231851129005E-1   -1.502021201860169E-2    3.048482271754467E-2   -1.336234519895977E-2    3.054680969817544E-2   -4.880089772228197E-1   -1.572508325821978E-1
 6.500925794750000E9    -4.253169682591588E-1   -3.099878217711614E-1   -1.498045354889748E-2    3.071980264393014E-2   -1.335587137839205E-2    3.082937612593548E-2   -4.883859133332957E-1   -1.560889001466129E-1
 6.500938770325000E9    -4.259037085921946E-1   -3.090170500506585E-1   -1.502690602070027E-2    3.083590464279155E-2   -1.330352200944078E-2    3.095413575285056E-2   -4.886571116790960E-1   -1.548302761062169E-1
 6.500951745900000E9    -4.266295987059666E-1   -3.082047724041191E-1   -1.512650333633649E-2    3.103895807529150E-2   -1.327162853971735E-2    3.117341417984011E-2   -4.890585861472022E-1   -1.536330953133526E-1
 6.500964721475000E9    -4.272359445397844E-1   -3.072758841257945E-1   -1.502068261492784E-2    3.122156900125155E-2   -1.322284695204890E-2    3.125744298490286E-2   -4.895878173061845E-1   -1.523577616464820E-1
 6.500977697050000E9    -4.278054431144425E-1   -3.063767414431181E-1   -1.513662340988970E-2    3.134573420084982E-2   -1.323251198503997E-2    3.156161124495628E-2   -4.896397078863017E-1   -1.510233866123090E-1
 6.500990672625000E9    -4.283803158869319E-1   -3.055019834011161E-1   -1.513711172137244E-2    3.171415016360840E-2   -1.336600800477029E-2    3.175224178363972E-2   -4.899951401819899E-1   -1.497776176615096E-1
 6.501003648200000E9    -4.290184125563720E-1   -3.045518930545194E-1   -1.510412270030769E-2    3.175994107150426E-2   -1.333289850572770E-2    3.194143393306660E-2   -4.903767501311168E-1   -1.486481517577649E-1
 6.501016623775000E9    -4.296268673276770E-1   -3.037536413772541E-1   -1.498404017353480E-2    3.203429389319598E-2   -1.327976541670089E-2    3.217857114657664E-2   -4.904309238813679E-1   -1.473079626224316E-1
 6.501029599350000E9    -4.301952412568059E-1   -3.027582477517373E-1   -1.507746006780683E-2    3.235416985150647E-2   -1.327208586086263E-2    3.233007485980732E-2   -4.909679733180083E-1   -1.461461540796491E-1
 6.501042574925000E9    -4.307670586111774E-1   -3.018834165713908E-1   -1.507121576174822E-2    3.255481075350228E-2   -1.326423292854041E-2    3.254712737073950E-2   -4.910876946583358E-1   -1.448521307079101E-1
 6.501055550500000E9    -4.314550217344659E-1   -3.009679984400735E-1   -1.498266328512553E-2    3.261964112038307E-2   -1.334255307470221E-2    3.271440275936476E-2   -4.914105146501869E-1   -1.435976907194597E-1
 6.501068526075000E9    -4.320170535731253E-1   -3.000742047507787E-1   -1.503268132799338E-2    3.284902032717500E-2   -1.326557695823848E-2    3.289253409269857E-2   -4.916981029720857E-1   -1.423254873479953E-1
 6.501081501650000E9    -4.326392056466338E-1   -2.992024985883044E-1   -1.512172377408555E-2    3.305871997472892E-2   -1.320478190100577E-2    3.322210623410313E-2   -4.919125587916642E-1   -1.410164553551226E-1
 6.501094477225000E9    -4.331736753697212E-1   -2.982639851105641E-1   -1.511192070322212E-2    3.332215662668968E-2   -1.331567928597751E-2    3.334594221957962E-2   -4.922580587766599E-1   -1.397785673463374E-1
 6.501107452800000E9    -4.337805474289096E-1   -2.973984442117286E-1   -1.497567942697393E-2    3.352150829122022E-2   -1.321429375943629E-2    3.359183870051540E-2   -4.926368503665594E-1   -1.384815712825573E-1
 6.501120428375000E9    -4.344110571339858E-1   -2.963769261837730E-1   -1.515349471612633E-2    3.380200990204681E-2   -1.314232172774630E-2    3.368219435485310E-2   -4.929008314223645E-1   -1.371593991951186E-1
 6.501133403950000E9    -4.349403802030289E-1   -2.955859090479300E-1   -1.509770941487506E-2    3.405885402687456E-2   -1.321235351061617E-2    3.400100517593525E-2   -4.931571897542794E-1   -1.358430969437042E-1
 6.501146379525000E9    -4.354239076208976E-1   -2.946246141751181E-1   -1.506563230414303E-2    3.419009048966801E-2   -1.320815761216198E-2    3.422057342217794E-2   -4.933246132255651E-1   -1.345809794202505E-1
 6.501159355100000E9    -4.360868495105857E-1   -2.935764039379318E-1   -1.504779531404093E-2    3.447640936730491E-2   -1.320465019271679E-2    3.451485019573761E-2   -4.936323899051218E-1   -1.332842671641007E-1
 6.501172330675000E9    -4.366748149498628E-1   -2.927434980428725E-1   -1.518404873395741E-2    3.468338608995334E-2   -1.312889520417830E-2    3.467718271247388E-2   -4.940973866403139E-1   -1.320546860882106E-1
 6.501185306250000E9    -4.372929856471635E-1   -2.917544214986781E-1   -1.510402846749366E-2    3.495550619751699E-2   -1.317029055568478E-2    3.501102986018899E-2   -4.940983141272841E-1   -1.306899064627094E-1
 6.501198281825000E9    -4.378804087918860E-1   -2.908640193734132E-1   -1.495636130761461E-2    3.513259924576448E-2   -1.314520057938253E-2    3.517200842622534E-2   -4.944994488587157E-1   -1.294200506918339E-1
 6.501211257400000E9    -4.384624863608234E-1   -2.899872278086619E-1   -1.511762567726191E-2    3.535313297574776E-2   -1.314012897389377E-2    3.537255137268232E-2   -4.945162542629696E-1   -1.281208519797812E-1
 6.501224232975000E9    -4.390576596123165E-1   -2.889621920067760E-1   -1.493703325038448E-2    3.572776395599135E-2   -1.312394259690967E-2    3.562095709884023E-2   -4.949715242967602E-1   -1.266904311883976E-1
 6.501237208550000E9    -4.396212921870780E-1   -2.881108201660361E-1   -1.515055165961325E-2    3.588034916527316E-2   -1.317906549909460E-2    3.587451014529706E-2   -4.951133688504969E-1   -1.254227254207664E-1
 6.501250184125000E9    -4.402067260110564E-1   -2.871918867369211E-1   -1.517942353510686E-2    3.622353256653946E-2   -1.302629731888816E-2    3.612532982716911E-2   -4.953036193235428E-1   -1.240991241691968E-1
 6.501263159700000E9    -4.406986156225283E-1   -2.862529913782344E-1   -1.512356496482353E-2    3.636443431075925E-2   -1.304872806396348E-2    3.639749446673888E-2   -4.955582320490096E-1   -1.228069126288755E-1
 6.501276135275000E9    -4.413551585730834E-1   -2.852793003834607E-1   -1.509876873598801E-2    3.666506320694977E-2   -1.310163841198232E-2    3.663267491512199E-2   -4.956872342279062E-1   -1.213661087797380E-1
 6.501289110850000E9    -4.418542320143730E-1   -2.843307005982601E-1   -1.505772223923042E-2    3.697918631934339E-2   -1.302119978043099E-2    3.684511218022170E-2   -4.959577296210620E-1   -1.200628542390643E-1
 6.501302086425000E9    -4.423776453392853E-1   -2.834261680369836E-1   -1.507815079181899E-2    3.711500262077925E-2   -1.301701249734687E-2    3.707952432263657E-2   -4.962797232544968E-1   -1.186792331474271E-1
 6.501315062000000E9    -4.430259842730245E-1   -2.825016972667597E-1   -1.502828034664907E-2    3.758900322409359E-2   -1.301656268619364E-2    3.744759507713490E-2   -4.964318840252403E-1   -1.173635208963396E-1
 6.501328037575000E9    -4.435546636091109E-1   -2.815823308780384E-1   -1.515329741556540E-2    3.778072076431825E-2   -1.298327398155062E-2    3.759030550540059E-2   -4.966798858524429E-1   -1.160548133041403E-1
 6.501341013150000E9    -4.441194778345331E-1   -2.804888604893124E-1   -1.505309541448742E-2    3.802385167523974E-2   -1.300391668831945E-2    3.793838312843008E-2   -4.969863497998239E-1   -1.144996507188044E-1
 6.501353988725000E9    -4.447840916418673E-1   -2.795666914236334E-1   -1.499889810856828E-2    3.819095871784399E-2   -1.294825761746973E-2    3.817212703253200E-2   -4.970167461749952E-1   -1.132753786249553E-1
 6.501366964300000E9    -4.452476650247732E-1   -2.786430502832886E-1   -1.505250055509659E-2    3.849492272584099E-2   -1.287626215691733E-2    3.839953496258361E-2   -4.973623330515921E-1   -1.118372046301310E-1
 6.501379939875000E9    -4.457765190361300E-1   -2.776620355004906E-1   -1.502380763055926E-2    3.887104666193823E-2   -1.297518357966158E-2    3.874030808676403E-2   -4.976090438403287E-1   -1.103903718363034E-1
 6.501392915450000E9    -4.463609492264103E-1   -2.765565894752301E-1   -1.504122170933094E-2    3.912781365788594E-2   -1.279559149209777E-2    3.898128921363789E-2   -4.977510913406059E-1   -1.091054492607272E-1
 6.501405891025000E9    -4.468993445198832E-1   -2.756622145580976E-1   -1.501374800615217E-2    3.935765544706193E-2   -1.293067849372973E-2    3.922696576823699E-2   -4.977704204007312E-1   -1.077469658032666E-1
 6.501418866600000E9    -4.474323178935836E-1   -2.747645514080318E-1   -1.492044613460857E-2    3.971378993028800E-2   -1.287546864681955E-2    3.962971074563307E-2   -4.982412753722314E-1   -1.062359979441384E-1
 6.501431842175000E9    -4.479411175885475E-1   -2.738389998354056E-1   -1.489158657106890E-2    4.005451641357801E-2   -1.278669811528964E-2    3.986513830574016E-2   -4.983589236647998E-1   -1.047950027222828E-1
 6.501444817750000E9    -4.485782673019373E-1   -2.728248782835568E-1   -1.492947419023103E-2    4.031980233672260E-2   -1.284477410541462E-2    4.012710144297004E-2   -4.983886139785385E-1   -1.034935539924299E-1
 6.501457793325000E9    -4.490422573504893E-1   -2.716777282895471E-1   -1.481543772729917E-2    4.071685757058378E-2   -1.270818120412067E-2    4.046575537076397E-2   -4.986499432796978E-1   -1.019878044450597E-1
 6.501470768900000E9    -4.496580727003853E-1   -2.707998292233419E-1   -1.475790694184651E-2    4.089566941817462E-2   -1.270223639327846E-2    4.071920578836658E-2   -4.987915265958143E-1   -1.005620449002503E-1
 6.501483744475000E9    -4.501813889355187E-1   -2.698599740083092E-1   -1.492598591307375E-2    4.123131430946033E-2   -1.268306382675606E-2    4.105337739343559E-2   -4.989598036681115E-1   -9.908063589959579E-2
 6.501496720050000E9    -4.507185542149541E-1   -2.688012048186881E-1   -1.485499632702629E-2    4.159174725880050E-2   -1.254202526021414E-2    4.133598415996751E-2   -4.991074411553291E-1   -9.753708780619702E-2
 6.501509695625000E9    -4.512974475962153E-1   -2.677416514063862E-1   -1.483241100606350E-2    4.187858485286584E-2   -1.264006374051864E-2    4.169646315632131E-2   -4.993485229900850E-1   -9.616642507682702E-2
 6.501522671200000E9    -4.518555271572374E-1   -2.669122396141033E-1   -1.485980050273535E-2    4.219445385703678E-2   -1.264160806197593E-2    4.191679593940385E-2   -4.994764875874170E-1   -9.471761060786302E-2
 6.501535646775000E9    -4.521854397605068E-1   -2.657939685726942E-1   -1.480738823028666E-2    4.258592894716885E-2   -1.255557413814399E-2    4.226539412738845E-2   -4.998349372994840E-1   -9.331317693731861E-2
 6.501548622350000E9    -4.528487395952951E-1   -2.647826992877360E-1   -1.484555994923738E-2    4.288583753360405E-2   -1.247585420441968E-2    4.262533238759264E-2   -4.997889244002267E-1   -9.167110912681274E-2
 6.501561597925000E9    -4.533535900385899E-1   -2.637723736484411E-1   -1.488306636322765E-2    4.313160713334781E-2   -1.250129549528614E-2    4.294130042139876E-2   -4.998944090275199E-1   -9.028710133113162E-2
 6.501574573500000E9    -4.539405930394242E-1   -2.627929902362655E-1   -1.479356717365231E-2    4.346778585391945E-2   -1.245907942571647E-2    4.325708122159721E-2   -5.000198401990072E-1   -8.886427561596075E-2
 6.501587549075000E9    -4.545724954781288E-1   -2.616436925332961E-1   -1.476006613753896E-2    4.397444936912687E-2   -1.243424279170146E-2    4.356710608234666E-2   -5.003179372844597E-1   -8.715049192821549E-2
 6.501600524650000E9    -4.550158357257600E-1   -2.607756097266599E-1   -1.468329944832111E-2    4.435719571477122E-2   -1.242598013322744E-2    4.388560477922430E-2   -5.004175109730454E-1   -8.571860550028677E-2
 6.501613500225000E9    -4.555736630510991E-1   -2.597492891204840E-1   -1.467400418940487E-2    4.445948350494661E-2   -1.226832479006513E-2    4.426818269936009E-2   -5.005031428810076E-1   -8.425730207583491E-2
 6.501626475800000E9    -4.560798301727791E-1   -2.587382519925722E-1   -1.466375254136102E-2    4.489501088870465E-2   -1.230860059568178E-2    4.466524294944662E-2   -5.005299461114334E-1   -8.272482812580359E-2
 6.501639451375000E9    -4.565838292715611E-1   -2.576659886217900E-1   -1.447359071525545E-2    4.530101495054278E-2   -1.231696384716103E-2    4.494756423135579E-2   -5.007400073902877E-1   -8.114803188346270E-2
 6.501652426950000E9    -4.570915695676997E-1   -2.566109734784732E-1   -1.447925879903841E-2    4.565528148266023E-2   -1.228611151078902E-2    4.526211940903949E-2   -5.007793122930670E-1   -7.968967635108444E-2
 6.501665402525000E9    -4.576645103630123E-1   -2.557385505058382E-1   -1.459884362656988E-2    4.609450582567016E-2   -1.221236618352339E-2    4.563132779045275E-2   -5.009767261115760E-1   -7.803889143091626E-2
 6.501678378100000E9    -4.581255541040307E-1   -2.545779072812229E-1   -1.455079390295273E-2    4.645524360830853E-2   -1.211158328401202E-2    4.606008947044245E-2   -5.010691774824261E-1   -7.650442362584414E-2
 6.501691353675000E9    -4.586437809804309E-1   -2.535805825612168E-1   -1.441001747545411E-2    4.684551509910791E-2   -1.217803691773304E-2    4.650226570795669E-2   -5.011875624287679E-1   -7.494570110600200E-2
 6.501704329250000E9    -4.591970161785415E-1   -2.525586822732878E-1   -1.451626623914107E-2    4.737418681542595E-2   -1.201406156785662E-2    4.676663051415828E-2   -5.011823252419529E-1   -7.335789253429907E-2
 6.501717304825000E9    -4.596086819246177E-1   -2.514503140117822E-1   -1.446161402535069E-2    4.763514757545162E-2   -1.199811778081776E-2    4.721017345499413E-2   -5.011842545663701E-1   -7.181165391103678E-2
 6.501730280400000E9    -4.600765295526895E-1   -2.503684442707399E-1   -1.441386253656663E-2    4.808209061055780E-2   -1.196335087282864E-2    4.757872737075463E-2   -5.013083773574282E-1   -7.016138620714850E-2
 6.501743255975000E9    -4.608182399528845E-1   -2.493102153921655E-1   -1.426356243763723E-2    4.832735293622784E-2   -1.196610805207459E-2    4.796369821051899E-2   -5.013636891800642E-1   -6.855913609290666E-2
 6.501756231550000E9    -4.610353529955326E-1   -2.482372670725181E-1   -1.439350138230024E-2    4.883368190406868E-2   -1.187462479649375E-2    4.836098414852620E-2   -5.015790081562195E-1   -6.699389277798759E-2
 6.501769207125000E9    -4.615698388114945E-1   -2.471976049398694E-1   -1.422634679135813E-2    4.926306360779390E-2   -1.188268252530237E-2    4.878972955388977E-2   -5.015123152500329E-1   -6.533417295917929E-2
 6.501782182700000E9    -4.622045928548502E-1   -2.461647533315129E-1   -1.420684128903122E-2    4.967735222643580E-2   -1.179621147660675E-2    4.923943058408843E-2   -5.015826928043203E-1   -6.360685613442178E-2
 6.501795158275000E9    -4.626922175732787E-1   -2.450997945698598E-1   -1.423532849853924E-2    5.015614921591825E-2   -1.162577899498921E-2    4.966819554624191E-2   -5.015968994888622E-1   -6.194779881967086E-2
 6.501808133850000E9    -4.630907036461012E-1   -2.440445794457255E-1   -1.425902122171331E-2    5.063270991650094E-2   -1.159671297493849E-2    5.009891664222998E-2   -5.017430500116221E-1   -6.035707000647599E-2
 6.501821109425000E9    -4.636086991141118E-1   -2.428630211366277E-1   -1.398066998481995E-2    5.103624544730093E-2   -1.162942381078965E-2    5.056659130595997E-2   -5.017764309904297E-1   -5.857003410261884E-2
 6.501834085000000E9    -4.641394498895139E-1   -2.417636019486687E-1   -1.416450526665673E-2    5.169475418272425E-2   -1.151900132390721E-2    5.100835244612385E-2   -5.016515754674179E-1   -5.702389941302632E-2
 6.501847060575000E9    -4.647057770453963E-1   -2.407962326110766E-1   -1.401291468997129E-2    5.204935864454721E-2   -1.139671001982462E-2    5.134389296001352E-2   -5.017568137379036E-1   -5.520653635450719E-2
 6.501860036150000E9    -4.651166527434494E-1   -2.395910585823663E-1   -1.400101518665786E-2    5.236171710143995E-2   -1.130384945507050E-2    5.182355761111498E-2   -5.018144617105769E-1   -5.353809032460691E-2
 6.501873011725000E9    -4.655943983911814E-1   -2.385246381466576E-1   -1.388829545445588E-2    5.289488041612003E-2   -1.126670879078108E-2    5.237610424547091E-2   -5.016897026288941E-1   -5.177115047143001E-2
 6.501885987300000E9    -4.660429421953800E-1   -2.373841428870733E-1   -1.378238831371081E-2    5.330646455950429E-2   -1.123798047178677E-2    5.275243581968718E-2   -5.017235462317778E-1   -4.989938208668149E-2
 6.501898962875000E9    -4.665681975015731E-1   -2.362711152295630E-1   -1.375725421598933E-2    5.381856240069794E-2   -1.105283018893444E-2    5.332481346218169E-2   -5.015693325119746E-1   -4.825357019047134E-2
 6.501911938450000E9    -4.670221229083872E-1   -2.351743319447333E-1   -1.372792357717752E-2    5.431896308200945E-2   -1.096841553220441E-2    5.377646996279015E-2   -5.015767121876020E-1   -4.651559464813211E-2
 6.501924914025000E9    -4.675164947274657E-1   -2.340743803584434E-1   -1.354807596774733E-2    5.480115007033417E-2   -1.098757977208332E-2    5.423944312539886E-2   -5.015709018540894E-1   -4.483614491117999E-2
 6.501937889600000E9    -4.679612023788436E-1   -2.329597673736681E-1   -1.344841753626336E-2    5.527488737592823E-2   -1.085397358611616E-2    5.474480185844240E-2   -5.015589810594435E-1   -4.296423647267315E-2
 6.501950865175000E9    -4.684900238040454E-1   -2.318033074201301E-1   -1.349910252954998E-2    5.592841752884534E-2   -1.076229774294261E-2    5.514997342261672E-2   -5.015411025951739E-1   -4.126782882915235E-2
 6.501963840750000E9    -4.688376287694089E-1   -2.306306537497146E-1   -1.339674980826547E-2    5.646111178601778E-2   -1.063742127977029E-2    5.580303883942078E-2   -5.014474871952072E-1   -3.932988778476483E-2
