#  HZ   S   RI   R     50.00 
! Rohde & Schwarz Vector Network Analyzer 
! Rohde-Schwarz,ZNB20-2Port,1311601062101988,3.16
! Created: UTC 3/20/2024, 11:52:12 AM
! freq[Hz]                re:S11                  im:S11                  re:S21                  im:S21                  re:S12                  im:S12                  re:S22                  im:S22
 6.500799043000000E9    -4.192537430934401E-1   -3.183880926885462E-1   -1.511520599690919E-2    2.893589790489860E-2   -1.335433649557493E-2    2.898741517509682E-2   -4.852634861794810E-1   -1.677720277759100E-1
 6.500812006775000E9    -4.198994216815616E-1   -3.175624546817418E-1   -1.506882816918356E-2    2.896249404034942E-2   -1.344842158019086E-2    2.911501423006929E-2   -4.856211627033695E-1   -1.665815283345209E-1
 6.500824970550000E9    -4.205777700311237E-1   -3.165829146517674E-1   -1.503515619015811E-2    2.922836163710407E-2   -1.333688710597787E-2    2.941720667201902E-2   -4.860348377571798E-1   -1.654313963013802E-1
 6.500837934325000E9    -4.211805953256189E-1   -3.157236600812481E-1   -1.519352649392377E-2    2.941115708990766E-2   -1.341074676834087E-2    2.948807665423596E-2   -4.862436076281260E-1   -1.641117040498018E-1
 6.500850898100000E9    -4.217453948178360E-1   -3.150538154952717E-1   -1.503578218002925E-2    2.969137759178056E-2   -1.339218063132511E-2    2.966779097099267E-2   -4.867093227095196E-1   -1.629129960406935E-1
 6.500863861875000E9    -4.224236709596419E-1   -3.140767307874500E-1   -1.500645916480792E-2    2.965182159827614E-2   -1.333255008351385E-2    2.988193288159791E-2   -4.869439795043025E-1   -1.617779983571747E-1
 6.500876825650000E9    -4.230223747665222E-1   -3.132564688026920E-1   -1.515898316907073E-2    2.979794951806488E-2   -1.329265041130168E-2    3.000607241715760E-2   -4.872975536028243E-1   -1.606007448334004E-1
 6.500889789425000E9    -4.236327298603232E-1   -3.123640062262223E-1   -1.514110470563564E-2    3.019602486041285E-2   -1.333029495936609E-2    3.018267809348522E-2   -4.876106802965571E-1   -1.593529452847459E-1
 6.500902753200000E9    -4.242555873130107E-1   -3.113530025059681E-1   -1.504458969475634E-2    3.028470795936440E-2   -1.335767353269061E-2    3.034312994365078E-2   -4.878596145637466E-1   -1.581609536030401E-1
 6.500915716975000E9    -4.249246116385290E-1   -3.106083609703320E-1   -1.498342523541132E-2    3.049907793603503E-2   -1.335145787199045E-2    3.056773263853530E-2   -4.883058177416909E-1   -1.568923951995395E-1
 6.500928680750000E9    -4.254118146917107E-1   -3.095805128219509E-1   -1.502888326026233E-2    3.075099689727703E-2   -1.342563683235999E-2    3.074234908153479E-2   -4.885282266591146E-1   -1.557758018412258E-1
 6.500941644525000E9    -4.261244016375451E-1   -3.087965724033641E-1   -1.505062900594171E-2    3.082045556045628E-2   -1.339351884967718E-2    3.091250686466612E-2   -4.888596011135780E-1   -1.544911355735093E-1
 6.500954608300000E9    -4.267506535865607E-1   -3.079143177762146E-1   -1.508531947119331E-2    3.102675804746103E-2   -1.335436115293405E-2    3.111884080092342E-2   -4.892131913049788E-1   -1.532801767131907E-1
 6.500967572075000E9    -4.272749739660371E-1   -3.070129303248117E-1   -1.501078396847846E-2    3.124337350159234E-2   -1.344388122005725E-2    3.133137911491911E-2   -4.894678524799061E-1   -1.521090162421432E-1
 6.500980535850000E9    -4.278788241017870E-1   -3.061459132157709E-1   -1.501152503344288E-2    3.150647180275076E-2   -1.331603851765208E-2    3.152213894718800E-2   -4.897681590682344E-1   -1.507213584238426E-1
 6.500993499625000E9    -4.285663381500489E-1   -3.053274326559871E-1   -1.503268614310438E-2    3.169547971456805E-2   -1.324973582820939E-2    3.176789271139173E-2   -4.900529700660551E-1   -1.495649782144113E-1
 6.501006463400000E9    -4.290720299463023E-1   -3.044523546938980E-1   -1.503950660577049E-2    3.188062956012282E-2   -1.329740222214057E-2    3.193387378249369E-2   -4.903004268677951E-1   -1.484256233648612E-1
 6.501019427175000E9    -4.296834662877499E-1   -3.034355358397852E-1   -1.517216024308227E-2    3.208059702152184E-2   -1.312443548117885E-2    3.213925040127527E-2   -4.906403247568566E-1   -1.471826775496031E-1
 6.501032390950000E9    -4.303253597241303E-1   -3.026444905670727E-1   -1.513526580898911E-2    3.232765285126754E-2   -1.324426417323501E-2    3.231569722703936E-2   -4.910272046333202E-1   -1.458358797297638E-1
 6.501045354725000E9    -4.310044796830375E-1   -3.018258516850010E-1   -1.495163093305690E-2    3.243481789544959E-2   -1.332885331156072E-2    3.251021168049685E-2   -4.911875119563817E-1   -1.446007873784451E-1
 6.501058318500000E9    -4.315821414769552E-1   -3.008188684051060E-1   -1.507878473192461E-2    3.264356182232808E-2   -1.317280316668118E-2    3.284664705727770E-2   -4.915823799962690E-1   -1.432566310190326E-1
 6.501071282275000E9    -4.320629601706736E-1   -2.998692035916232E-1   -1.513332939487271E-2    3.293712336193855E-2   -1.320901140232084E-2    3.295879475531818E-2   -4.918609398745928E-1   -1.419487820164468E-1
 6.501084246050000E9    -4.326853072090838E-1   -2.990242298500108E-1   -1.518708477304946E-2    3.329208523052269E-2   -1.319614926096424E-2    3.315839027856064E-2   -4.921178865878456E-1   -1.407003817593393E-1
 6.501097209825000E9    -4.332232695073561E-1   -2.981165477540869E-1   -1.509326429823848E-2    3.350935867072902E-2   -1.318419122932788E-2    3.340310112412562E-2   -4.923512262385112E-1   -1.394955361289742E-1
 6.501110173600000E9    -4.337513284052367E-1   -2.971761653414585E-1   -1.498874693789747E-2    3.364363727308883E-2   -1.325183990371929E-2    3.355410678829168E-2   -4.926468661774876E-1   -1.382397546197051E-1
 6.501123137375000E9    -4.344815159208179E-1   -2.962683664275564E-1   -1.496200539151106E-2    3.382634612647602E-2   -1.321797574007886E-2    3.372719084086579E-2   -4.928475065757387E-1   -1.370299297131294E-1
 6.501136101150000E9    -4.350634556947419E-1   -2.954152586422110E-1   -1.506651367629290E-2    3.407660894744651E-2   -1.312014525730149E-2    3.400380299638745E-2   -4.931297177903085E-1   -1.356626800831900E-1
 6.501149064925000E9    -4.355450116430772E-1   -2.944224917963230E-1   -1.509757651716596E-2    3.431551760765172E-2   -1.322022123713675E-2    3.426815392380553E-2   -4.934368194964253E-1   -1.344160550460218E-1
 6.501162028700000E9    -4.360683923756528E-1   -2.934982520422083E-1   -1.509407142127915E-2    3.448695964786945E-2   -1.310568471899820E-2    3.449101717579477E-2   -4.937768757349875E-1   -1.330170931199886E-1
 6.501174992475000E9    -4.367957063915074E-1   -2.925814889975228E-1   -1.512726609587504E-2    3.468989217353290E-2   -1.318767801291163E-2    3.466182543410903E-2   -4.939203362124948E-1   -1.316877091862007E-1
 6.501187956250000E9    -4.373198872109317E-1   -2.916981760061599E-1   -1.515503605608507E-2    3.496529312609772E-2   -1.315373046104826E-2    3.489690118884050E-2   -4.942367125846511E-1   -1.304288812185021E-1
 6.501200920025000E9    -4.379727447071970E-1   -2.907769932893791E-1   -1.509276473073079E-2    3.525595543794534E-2   -1.316458401703095E-2    3.524953425722140E-2   -4.943957280989524E-1   -1.292459508782180E-1
 6.501213883800000E9    -4.385170788431189E-1   -2.898258179772907E-1   -1.499973010988685E-2    3.554214050968304E-2   -1.315287091741343E-2    3.545537464681401E-2   -4.945977201994241E-1   -1.278728393308263E-1
 6.501226847575000E9    -4.391715685329399E-1   -2.888265728431383E-1   -1.506397814828863E-2    3.582814104828894E-2   -1.312810142047633E-2    3.561720355773429E-2   -4.949700337270737E-1   -1.266008588669361E-1
 6.501239811350000E9    -4.397554129118604E-1   -2.878648410540592E-1   -1.508846537635969E-2    3.604155626051727E-2   -1.313014544331143E-2    3.588023045188628E-2   -4.951043890687126E-1   -1.251302691346375E-1
 6.501252775125000E9    -4.402246758838365E-1   -2.869117754754065E-1   -1.509962446785156E-2    3.628398822399211E-2   -1.306922875394061E-2    3.618431195701470E-2   -4.954181156852189E-1   -1.238672249273371E-1
 6.501265738900000E9    -4.407211706787971E-1   -2.859837973862959E-1   -1.510010360722978E-2    3.647672794431708E-2   -1.304142592908026E-2    3.636740701406679E-2   -4.956459574807808E-1   -1.224695982429849E-1
 6.501278702675000E9    -4.413852554549399E-1   -2.851889434823754E-1   -1.508830164832792E-2    3.678706317798177E-2   -1.300518974967686E-2    3.671088024283687E-2   -4.957219947181122E-1   -1.210736064411826E-1
 6.501291666450000E9    -4.420010984391564E-1   -2.842458795068995E-1   -1.508519019094115E-2    3.697216383960444E-2   -1.318318450659022E-2    3.687336527039407E-2   -4.960329286931438E-1   -1.198810830351251E-1
 6.501304630225000E9    -4.425450405122442E-1   -2.832463367209003E-1   -1.505743395882873E-2    3.728896980341960E-2   -1.308250328994280E-2    3.711353508248665E-2   -4.963156450370154E-1   -1.184880328293367E-1
 6.501317594000000E9    -4.430339881169303E-1   -2.822818021766904E-1   -1.502999240457630E-2    3.761405435080122E-2   -1.300055029967418E-2    3.738229167327754E-2   -4.965471270749174E-1   -1.171297892363768E-1
 6.501330557775000E9    -4.436417277145755E-1   -2.813080105299714E-1   -1.492675134904537E-2    3.781374255079800E-2   -1.296807605032554E-2    3.769536431635684E-2   -4.966627041907741E-1   -1.156717927688853E-1
 6.501343521550000E9    -4.440630166334581E-1   -2.803580045134937E-1   -1.501956308109555E-2    3.802355901431627E-2   -1.301240202115308E-2    3.800027487747851E-2   -4.969898744629522E-1   -1.142961194663686E-1
 6.501356485325000E9    -4.447981824756632E-1   -2.794314382339175E-1   -1.494900871432988E-2    3.827789000247993E-2   -1.299799219351803E-2    3.822089316956036E-2   -4.971201721289750E-1   -1.130258022812784E-1
 6.501369449100000E9    -4.452877324894907E-1   -2.784931455249867E-1   -1.500852587566427E-2    3.864421257286339E-2   -1.290713686634622E-2    3.845425227937076E-2   -4.974888434705510E-1   -1.116386126145539E-1
 6.501382412875000E9    -4.459339326188441E-1   -2.774057983733109E-1   -1.499301324963769E-2    3.898224676042509E-2   -1.286693474034773E-2    3.867306326316558E-2   -4.975317991044986E-1   -1.103624693889174E-1
 6.501395376650000E9    -4.464319407724807E-1   -2.764326851157314E-1   -1.500823697260463E-2    3.923748149378234E-2   -1.285208300248793E-2    3.899591545015202E-2   -4.978103977156266E-1   -1.088118460996883E-1
 6.501408340425000E9    -4.469365501053953E-1   -2.755559164474811E-1   -1.496470881676151E-2    3.941998884628982E-2   -1.284432457731964E-2    3.926524161742498E-2   -4.979782465777713E-1   -1.073540214515791E-1
 6.501421304200000E9    -4.475387288302650E-1   -2.744844303796298E-1   -1.495881968298875E-2    3.981331184490004E-2   -1.277342621064540E-2    3.963390495750061E-2   -4.981774201459648E-1   -1.059201750989339E-1
 6.501434267975000E9    -4.481600630505599E-1   -2.736464925596947E-1   -1.492437145961410E-2    4.012557713426508E-2   -1.281622750629532E-2    3.996572406473355E-2   -4.984080119761850E-1   -1.045792592324901E-1
 6.501447231750000E9    -4.486206543623066E-1   -2.725497087485222E-1   -1.481525121425978E-2    4.042249203558511E-2   -1.282844618852516E-2    4.025433042391199E-2   -4.985962633356724E-1   -1.031603212609379E-1
 6.501460195525000E9    -4.491881948552168E-1   -2.715637596502815E-1   -1.485129125799549E-2    4.047479107888000E-2   -1.282394872855477E-2    4.048519647351755E-2   -4.986059282640297E-1   -1.016412480946518E-1
 6.501473159300000E9    -4.497065907783277E-1   -2.706782614661005E-1   -1.499085326679671E-2    4.101346837542654E-2   -1.271810333467791E-2    4.074757979675683E-2   -4.989753142007561E-1   -1.001356376076432E-1
 6.501486123075000E9    -4.503370993675234E-1   -2.696408133434773E-1   -1.482830251901011E-2    4.125471410148589E-2   -1.272177811316976E-2    4.106831515323927E-2   -4.990297208709822E-1   -9.889848391729979E-2
 6.501499086850000E9    -4.507678821745557E-1   -2.686527055009387E-1   -1.488917141710253E-2    4.168502886664427E-2   -1.264833650384845E-2    4.134690389203607E-2   -4.992676769161295E-1   -9.750088842909660E-2
 6.501512050625000E9    -4.514061693889835E-1   -2.677421626581784E-1   -1.486848698185890E-2    4.191367121164395E-2   -1.278001963002409E-2    4.173680103699151E-2   -4.994260458537794E-1   -9.586751598640131E-2
 6.501525014400000E9    -4.517956872175031E-1   -2.667150353704328E-1   -1.469274602695763E-2    4.224904195987201E-2   -1.259621732635542E-2    4.193246832315465E-2   -4.995249432109928E-1   -9.451816419708331E-2
 6.501537978175000E9    -4.525382906891438E-1   -2.656915280573887E-1   -1.473931825091656E-2    4.249531461509348E-2   -1.265954355567930E-2    4.227141930626682E-2   -4.996674017621294E-1   -9.305056381861637E-2
 6.501550941950000E9    -4.530372539814960E-1   -2.646208084840705E-1   -1.464021917889934E-2    4.291776652581496E-2   -1.254900386211475E-2    4.263701439409855E-2   -4.997935735340909E-1   -9.149032722812957E-2
 6.501563905725000E9    -4.534699520699180E-1   -2.636637534931714E-1   -1.477725937379475E-2    4.312353728975693E-2   -1.253108658835382E-2    4.295762033244425E-2   -4.999809722199446E-1   -8.995558336261537E-2
 6.501576869500000E9    -4.540023722243823E-1   -2.626263789394808E-1   -1.466147689535227E-2    4.353663232529207E-2   -1.255281924935586E-2    4.322165633717400E-2   -5.000809961731424E-1   -8.859883885554211E-2
 6.501589833275000E9    -4.545074955286241E-1   -2.616109105137797E-1   -1.469889164509464E-2    4.395332872226685E-2   -1.249149984317607E-2    4.364237265862136E-2   -5.002186791432558E-1   -8.698352847294788E-2
 6.501602797050000E9    -4.550770182019603E-1   -2.606444407719642E-1   -1.462249173911856E-2    4.420325117828990E-2   -1.236825781741620E-2    4.400748763422131E-2   -5.003175971062264E-1   -8.543794750963775E-2
 6.501615760825000E9    -4.555556221253652E-1   -2.595850895642917E-1   -1.474869026919437E-2    4.457573605785498E-2   -1.235925977180024E-2    4.438049171820045E-2   -5.005748679499499E-1   -8.389223285888345E-2
 6.501628724600000E9    -4.560907824731406E-1   -2.584998201963218E-1   -1.465885092425968E-2    4.501074172538162E-2   -1.231833200749208E-2    4.473893513070214E-2   -5.007193223404185E-1   -8.244093644511614E-2
 6.501641688375000E9    -4.565223920181344E-1   -2.574365883414150E-1   -1.470410020228971E-2    4.536329450589290E-2   -1.231479993622880E-2    4.501010910026568E-2   -5.009188396459698E-1   -8.083740733596097E-2
 6.501654652150000E9    -4.572106670478411E-1   -2.565414172295558E-1   -1.454145091190394E-2    4.563760257793276E-2   -1.224327001568669E-2    4.531213591399563E-2   -5.009278113579129E-1   -7.937310977239988E-2
 6.501667615925000E9    -4.576712906853770E-1   -2.555441432386849E-1   -1.449996205040547E-2    4.624310618079180E-2   -1.220473575241371E-2    4.571222072838842E-2   -5.011336764333512E-1   -7.784838976913189E-2
 6.501680579700000E9    -4.582199042265666E-1   -2.544352616220548E-1   -1.464109390583193E-2    4.655763241807037E-2   -1.221247923672219E-2    4.615751726284558E-2   -5.011562670941582E-1   -7.636410120125517E-2
 6.501693543475000E9    -4.586847720787317E-1   -2.534272160709045E-1   -1.447491398305650E-2    4.695848370160552E-2   -1.217145718054507E-2    4.643205720336378E-2   -5.011305928234016E-1   -7.486170001538706E-2
 6.501706507250000E9    -4.592330297954582E-1   -2.524126161765001E-1   -1.449932547109465E-2    4.721943014036239E-2   -1.205743773222114E-2    4.690833975217469E-2   -5.011612414077955E-1   -7.302072860941865E-2
 6.501719471025000E9    -4.596884989993799E-1   -2.512515150126033E-1   -1.444750717334264E-2    4.768132718050275E-2   -1.191419411900332E-2    4.718194147617044E-2   -5.011819991011885E-1   -7.150301206339453E-2
 6.501732434800000E9    -4.602421576578277E-1   -2.501554388893051E-1   -1.441041843049302E-2    4.809191791115828E-2   -1.196933786963031E-2    4.765730496964905E-2   -5.014296173586188E-1   -6.987975289017856E-2
 6.501745398575000E9    -4.607393757911071E-1   -2.491140821429275E-1   -1.430076191495163E-2    4.847454424770751E-2   -1.196928221087370E-2    4.806993674889220E-2   -5.013546786714604E-1   -6.830291419879245E-2
 6.501758362350000E9    -4.612838623942085E-1   -2.481223953941031E-1   -1.429014757544790E-2    4.891462384997526E-2   -1.177784646678789E-2    4.844046499949704E-2   -5.015389574780789E-1   -6.667390198315637E-2
 6.501771326125000E9    -4.617029656124743E-1   -2.470270595069905E-1   -1.430302701693538E-2    4.932326962959593E-2   -1.177762940009586E-2    4.884946707061810E-2   -5.015843323630038E-1   -6.494872189024391E-2
 6.501784289900000E9    -4.622746461091767E-1   -2.459710302972068E-1   -1.416003381782027E-2    4.978270824601180E-2   -1.174998234095874E-2    4.919746935413023E-2   -5.016057267835504E-1   -6.339472638299069E-2
 6.501797253675000E9    -4.627002146358201E-1   -2.450133407976606E-1   -1.406562150726156E-2    5.008527851665370E-2   -1.175030260609651E-2    4.966566142124199E-2   -5.016711308828292E-1   -6.187516481593535E-2
 6.501810217450000E9    -4.631562539671810E-1   -2.437922705231665E-1   -1.412547447937738E-2    5.049683387335629E-2   -1.161505464398671E-2    5.015919193508290E-2   -5.016360153726402E-1   -6.007549081907937E-2
 6.501823181225000E9    -4.638014955610916E-1   -2.427395216846183E-1   -1.400811053961019E-2    5.116264233137321E-2   -1.163028381982588E-2    5.059690253922826E-2   -5.016716550843877E-1   -5.830636754412578E-2
 6.501836145000000E9    -4.642058747764737E-1   -2.416845953577583E-1   -1.411427679695173E-2    5.134498825322191E-2   -1.149171128681246E-2    5.098137135563076E-2   -5.018229465968805E-1   -5.664778869043254E-2
 6.501849108775000E9    -4.647473283474798E-1   -2.404708793600956E-1   -1.399207568626754E-2    5.196933834492802E-2   -1.132747467390112E-2    5.143966144176988E-2   -5.017398196716207E-1   -5.504653316223198E-2
 6.501862072550000E9    -4.651494307585423E-1   -2.396166551874109E-1   -1.392760940959989E-2    5.245309841730968E-2   -1.128566025804751E-2    5.190993932036090E-2   -5.018112683613923E-1   -5.334192838605831E-2
 6.501875036325000E9    -4.656775407712387E-1   -2.384004091080039E-1   -1.392925885939547E-2    5.294908340478895E-2   -1.120303552748957E-2    5.244420945293636E-2   -5.015876188091198E-1   -5.153177346259209E-2
 6.501888000100000E9    -4.661975669170171E-1   -2.372845119802361E-1   -1.374474009275440E-2    5.340438594487933E-2   -1.110865508100409E-2    5.294264980536538E-2   -5.017588556499947E-1   -4.977121959612337E-2
 6.501900963875000E9    -4.666395995679592E-1   -2.361777928846682E-1   -1.363470236754832E-2    5.395976943109873E-2   -1.116911271940606E-2    5.319247435882041E-2   -5.018208027388255E-1   -4.808900383048134E-2
 6.501913927650000E9    -4.671268572306132E-1   -2.350713678097308E-1   -1.361026448778750E-2    5.442634542435509E-2   -1.105041161935437E-2    5.369262539713579E-2   -5.016245585090739E-1   -4.628462332607122E-2
 6.501926891425000E9    -4.675010439487948E-1   -2.339513144809347E-1   -1.360685403514096E-2    5.490072039809679E-2   -1.094707655115349E-2    5.430905509868439E-2   -5.015574904088871E-1   -4.457030972606392E-2
 6.501939855200000E9    -4.679605273153195E-1   -2.327493369368952E-1   -1.349753962493974E-2    5.542533824892432E-2   -1.090293319483374E-2    5.478469872447360E-2   -5.017012344564529E-1   -4.282822544580523E-2
 6.501952818975000E9    -4.685145513932241E-1   -2.316489366898496E-1   -1.347798212839413E-2    5.584811121853292E-2   -1.073601824859981E-2    5.528645968491995E-2   -5.014499597841249E-1   -4.084621931092533E-2
 6.501965782750000E9    -4.689385243144933E-1   -2.304690753887721E-1   -1.330320038641617E-2    5.661578673850363E-2   -1.063897309515666E-2    5.568867182888378E-2   -5.015347790335828E-1   -3.914511224470900E-2
