#  HZ   S   RI   R     50.00 
! Rohde & Schwarz Vector Network Analyzer 
! Rohde-Schwarz,ZNB20-2Port,1311601062101988,3.16
! Created: UTC 3/20/2024, 11:52:14 AM
! freq[Hz]                re:S11                  im:S11                  re:S21                  im:S21                  re:S12                  im:S12                  re:S22                  im:S22
 6.500802488000000E9    -4.194456092578452E-1   -3.182563634611148E-1   -1.507298492671367E-2    2.883164694566372E-2   -1.338422209198143E-2    2.895959683111571E-2   -4.853182958384945E-1   -1.674645734614210E-1
 6.500815436125000E9    -4.200732287292571E-1   -3.173120898634042E-1   -1.488219786338470E-2    2.908286159188617E-2   -1.337354773244199E-2    2.921278705529103E-2   -4.857870955333623E-1   -1.662691547530956E-1
 6.500828384250000E9    -4.207258858955183E-1   -3.164024953003005E-1   -1.498565598081127E-2    2.925492782032876E-2   -1.346178621552185E-2    2.942821474049055E-2   -4.862466148126822E-1   -1.650931446752829E-1
 6.500841332375000E9    -4.214065649165601E-1   -3.154187116298485E-1   -1.502414975364103E-2    2.925524586359884E-2   -1.341494171696309E-2    2.951370118698095E-2   -4.863771814916825E-1   -1.640095220507689E-1
 6.500854280500000E9    -4.219711722644661E-1   -3.146506167875368E-1   -1.507701429043593E-2    2.970693450279023E-2   -1.328947741034921E-2    2.972753018543263E-2   -4.868139773521144E-1   -1.627948764015786E-1
 6.500867228625000E9    -4.225476252595227E-1   -3.137798024681711E-1   -1.518017999193144E-2    2.979663300060589E-2   -1.336664139888421E-2    2.989899533585721E-2   -4.870350434845899E-1   -1.616029132353046E-1
 6.500880176750000E9    -4.231862088643241E-1   -3.129740526605321E-1   -1.509701931136194E-2    2.995072816279885E-2   -1.333086420698338E-2    3.001039133988581E-2   -4.873569811459332E-1   -1.602662782519668E-1
 6.500893124875000E9    -4.238246583258257E-1   -3.121337128778640E-1   -1.487035741086612E-2    3.030604043530018E-2   -1.333015229696687E-2    3.020718722028249E-2   -4.875357334293603E-1   -1.590208033941914E-1
 6.500906073000000E9    -4.245019472285398E-1   -3.112676808151700E-1   -1.509059798948902E-2    3.038391644438931E-2   -1.337597440905246E-2    3.048701116561011E-2   -4.879484284909896E-1   -1.580047558755520E-1
 6.500919021125000E9    -4.249731363627346E-1   -3.103878761396728E-1   -1.497664520903698E-2    3.065073002307469E-2   -1.343200252789256E-2    3.059002202429284E-2   -4.884339900428821E-1   -1.566975725966137E-1
 6.500931969250000E9    -4.257161387979577E-1   -3.094393710144753E-1   -1.502415662531007E-2    3.074889671159307E-2   -1.331855662475184E-2    3.083393057303092E-2   -4.887993210536095E-1   -1.554529310503331E-1
 6.500944917375000E9    -4.262562578498187E-1   -3.085639876618838E-1   -1.504731511155793E-2    3.094048395377318E-2   -1.326167982255177E-2    3.098407603229404E-2   -4.888360147013104E-1   -1.540854105334953E-1
 6.500957865500000E9    -4.269544879923446E-1   -3.077035978116168E-1   -1.503720082869784E-2    3.108328636905781E-2   -1.328133715949284E-2    3.123568464350698E-2   -4.892873818333026E-1   -1.530529851811973E-1
 6.500970813625000E9    -4.274925976985671E-1   -3.068496923257167E-1   -1.500158181705278E-2    3.119961479137619E-2   -1.331863961361523E-2    3.148640197881649E-2   -4.897579544334728E-1   -1.517337778152523E-1
 6.500983761750000E9    -4.281225175775345E-1   -3.059636099442774E-1   -1.517898552590289E-2    3.165023520436015E-2   -1.326040582697420E-2    3.152129156462774E-2   -4.898468895580893E-1   -1.503940394660115E-1
 6.500996709875000E9    -4.287135089403484E-1   -3.051478170657281E-1   -1.510265003039095E-2    3.187043748491031E-2   -1.319703787070247E-2    3.179613737682901E-2   -4.900898651924130E-1   -1.492628313810540E-1
 6.501009658000000E9    -4.292987696996758E-1   -3.041165905710180E-1   -1.513606458897374E-2    3.180490804026694E-2   -1.323595001016907E-2    3.201253353485876E-2   -4.904225505433630E-1   -1.480994468791703E-1
 6.501022606125000E9    -4.299183292019165E-1   -3.032114340004809E-1   -1.511695874798996E-2    3.223609785045829E-2   -1.330408415410351E-2    3.220359003503483E-2   -4.906653058146170E-1   -1.468962473868913E-1
 6.501035554250000E9    -4.304791133735907E-1   -3.023957549494649E-1   -1.514878694011617E-2    3.234518885192385E-2   -1.328357063561153E-2    3.237866934312254E-2   -4.910489248606933E-1   -1.455414502701013E-1
 6.501048502375000E9    -4.310475893393112E-1   -3.015220164669257E-1   -1.504173794582508E-2    3.262334797730219E-2   -1.329412523511166E-2    3.262197293630147E-2   -4.912706329566052E-1   -1.442945184486034E-1
 6.501061450500000E9    -4.317168141123099E-1   -3.005599913237625E-1   -1.513241585234971E-2    3.283324659046936E-2   -1.314298222895922E-2    3.272614111868245E-2   -4.916884573895550E-1   -1.430396857371185E-1
 6.501074398625000E9    -4.322112624380526E-1   -2.997289367616807E-1   -1.503571989126176E-2    3.295766820498215E-2   -1.326123131185780E-2    3.305499268563921E-2   -4.917721264175755E-1   -1.417472787408793E-1
 6.501087346750000E9    -4.327704665647951E-1   -2.987248945768309E-1   -1.497896080553659E-2    3.319865533495355E-2   -1.325897632822735E-2    3.329819872724604E-2   -4.921861746744897E-1   -1.405261947912829E-1
 6.501100294875000E9    -4.334556031920415E-1   -2.978674788640859E-1   -1.515379345725572E-2    3.339115405575790E-2   -1.323353356402703E-2    3.340857863998654E-2   -4.924699293838367E-1   -1.393183419590572E-1
 6.501113243000000E9    -4.341037056457573E-1   -2.970264185085132E-1   -1.518151017832071E-2    3.360308049029417E-2   -1.328583241602338E-2    3.366895050996807E-2   -4.926863235325236E-1   -1.378979023921852E-1
 6.501126191125000E9    -4.346354493471568E-1   -2.961517901132475E-1   -1.522809375598191E-2    3.395063819819415E-2   -1.320580584356795E-2    3.374776817114593E-2   -4.929026882195831E-1   -1.366155470862166E-1
 6.501139139250000E9    -4.352582012613948E-1   -2.950761103810601E-1   -1.509318522061663E-2    3.400869019498629E-2   -1.313832838271641E-2    3.412751314125974E-2   -4.932585420912528E-1   -1.353512825682344E-1
 6.501152087375000E9    -4.357577818996853E-1   -2.942139384352165E-1   -1.500619509926616E-2    3.442443603922835E-2   -1.316457150129462E-2    3.432611500683953E-2   -4.934454383410154E-1   -1.339777211826732E-1
 6.501165035500000E9    -4.364333296378827E-1   -2.933427197897994E-1   -1.509565804371256E-2    3.467860505899348E-2   -1.323294963004472E-2    3.446920634115368E-2   -4.937743992132895E-1   -1.327729276419865E-1
 6.501177983625000E9    -4.370989330453685E-1   -2.923703423638830E-1   -1.507424191669045E-2    3.486383931595041E-2   -1.320781104622528E-2    3.469678028212930E-2   -4.939372533874098E-1   -1.314657963492168E-1
 6.501190931750000E9    -4.375238580193479E-1   -2.913935633942242E-1   -1.497909312954208E-2    3.493237706579003E-2   -1.318209219647398E-2    3.503481048835296E-2   -4.942969578643859E-1   -1.302054599973288E-1
 6.501203879875000E9    -4.381235245015422E-1   -2.905230462695401E-1   -1.521468661437029E-2    3.513286971228039E-2   -1.313665551735527E-2    3.529651591694700E-2   -4.946528399253116E-1   -1.289929795429433E-1
 6.501216828000000E9    -4.386836651368398E-1   -2.896370232761436E-1   -1.507514962061278E-2    3.543279153331688E-2   -1.315578631951942E-2    3.547335295878512E-2   -4.947178525890767E-1   -1.276136273501731E-1
 6.501229776125000E9    -4.392396747750623E-1   -2.886773806669593E-1   -1.506110196826285E-2    3.580891660508451E-2   -1.310134334858547E-2    3.569676554918585E-2   -4.949255288363458E-1   -1.261685374337457E-1
 6.501242724250000E9    -4.399057251795843E-1   -2.877264721367075E-1   -1.506506728597454E-2    3.607454729967930E-2   -1.311268820524977E-2    3.593393852330121E-2   -4.952916820004901E-1   -1.248675990724139E-1
 6.501255672375000E9    -4.403743669264730E-1   -2.869118617274256E-1   -1.502813747384245E-2    3.624055379243822E-2   -1.320697559313145E-2    3.621444061386364E-2   -4.954632483236963E-1   -1.236337331785375E-1
 6.501268620500000E9    -4.408583646348398E-1   -2.859377473345742E-1   -1.508522295287900E-2    3.635786063736421E-2   -1.303057653649983E-2    3.651753216462637E-2   -4.956437503192743E-1   -1.222736204134642E-1
 6.501281568625000E9    -4.415268892974428E-1   -2.848755813510225E-1   -1.508159788765361E-2    3.675559735228198E-2   -1.311226024946668E-2    3.671478474816512E-2   -4.959626879368169E-1   -1.208868352351020E-1
 6.501294516750000E9    -4.420985296174927E-1   -2.839459263640020E-1   -1.484352334670307E-2    3.707488558734828E-2   -1.300013219977388E-2    3.698402652006798E-2   -4.961949472380203E-1   -1.194031760896080E-1
 6.501307464875000E9    -4.426540374305976E-1   -2.830036925309897E-1   -1.510132109169886E-2    3.722900403083330E-2   -1.307568867904658E-2    3.719340680404629E-2   -4.963977814611253E-1   -1.181389095667109E-1
 6.501320413000000E9    -4.431611613816726E-1   -2.820545453331670E-1   -1.506230967131292E-2    3.752335450651741E-2   -1.298057627765546E-2    3.742372101551924E-2   -4.964649741125837E-1   -1.168175779160136E-1
 6.501333361125000E9    -4.438023384690906E-1   -2.811207645475371E-1   -1.494542918235852E-2    3.781063192535846E-2   -1.295882862708692E-2    3.773667781212011E-2   -4.969083250448383E-1   -1.153948075795815E-1
 6.501346309250000E9    -4.443305883156984E-1   -2.802417144147570E-1   -1.521030894858288E-2    3.819703825404043E-2   -1.297199352880023E-2    3.799058004066914E-2   -4.971337231548303E-1   -1.142108473855289E-1
 6.501359257375000E9    -4.448784261398310E-1   -2.791723695480033E-1   -1.517210936842115E-2    3.839932097859127E-2   -1.291725473603793E-2    3.831010257602201E-2   -4.972327129006421E-1   -1.127639141777838E-1
 6.501372205500000E9    -4.455485719808803E-1   -2.781485892873509E-1   -1.503450192387776E-2    3.875498230187688E-2   -1.295236706242330E-2    3.856033111873269E-2   -4.974286831167919E-1   -1.113229923132979E-1
 6.501385153625000E9    -4.461208408166312E-1   -2.773308379743348E-1   -1.496150123905100E-2    3.886432379610581E-2   -1.299322917101803E-2    3.878896556127311E-2   -4.976358626752946E-1   -1.098565761203820E-1
 6.501398101750000E9    -4.464775971142329E-1   -2.762486563367262E-1   -1.498948014033906E-2    3.922876697644448E-2   -1.284386267554361E-2    3.905156209394861E-2   -4.979022543920794E-1   -1.085019176631969E-1
 6.501411049875000E9    -4.472305732178178E-1   -2.753403452023285E-1   -1.510445416882841E-2    3.952929942140391E-2   -1.291287363583115E-2    3.944664437875921E-2   -4.979777847846145E-1   -1.070891465999498E-1
 6.501423998000000E9    -4.477648673118788E-1   -2.743576978086206E-1   -1.496100412289782E-2    3.990882278307458E-2   -1.285534857081457E-2    3.973241454072253E-2   -4.982995235715206E-1   -1.056473281118080E-1
 6.501436946125000E9    -4.482477932626545E-1   -2.734036561807405E-1   -1.490965920762509E-2    4.006390888610330E-2   -1.286574876936740E-2    3.991101532116369E-2   -4.985252071164782E-1   -1.044452507808842E-1
 6.501449894250000E9    -4.487952895902814E-1   -2.724743636360588E-1   -1.492484044326979E-2    4.043623179005554E-2   -1.278307539432703E-2    4.031741718026671E-2   -4.986393850743467E-1   -1.028803565275902E-1
 6.501462842375000E9    -4.492848193854638E-1   -2.713197750582346E-1   -1.480656060345201E-2    4.069276299440592E-2   -1.275716942278603E-2    4.044942830029154E-2   -4.987574126026592E-1   -1.014656940656364E-1
 6.501475790500000E9    -4.498447718122248E-1   -2.705275775993737E-1   -1.494043003248795E-2    4.098235793242933E-2   -1.283971475344949E-2    4.081980518019469E-2   -4.989289599250121E-1   -9.998639403659908E-2
 6.501488738625000E9    -4.504454336883066E-1   -2.695011764819099E-1   -1.484953498147386E-2    4.142528416268892E-2   -1.268967977885279E-2    4.111482878138749E-2   -4.992166665458914E-1   -9.856143116895566E-2
 6.501501686750000E9    -4.509314221470297E-1   -2.684682757125699E-1   -1.488038701925479E-2    4.150161650276177E-2   -1.271633629248178E-2    4.142882717016217E-2   -4.992562861352944E-1   -9.724334941103525E-2
 6.501514634875000E9    -4.514812790275772E-1   -2.675056539624733E-1   -1.476474110311235E-2    4.185062573207506E-2   -1.254834931280282E-2    4.176061755896913E-2   -4.995023710610110E-1   -9.558170104106534E-2
 6.501527583000000E9    -4.521019316199624E-1   -2.664655307028675E-1   -1.484711089952087E-2    4.234812114474348E-2   -1.263946784995569E-2    4.211694040131240E-2   -4.996166260503037E-1   -9.424011453247809E-2
 6.501540531125000E9    -4.525561379078232E-1   -2.655969821071202E-1   -1.476415211306350E-2    4.259228261851673E-2   -1.254563292603031E-2    4.240223224603054E-2   -4.996284606422324E-1   -9.273183969292338E-2
 6.501553479250000E9    -4.531009963821102E-1   -2.644810434011512E-1   -1.475961619029817E-2    4.304707014458001E-2   -1.275391843368108E-2    4.267562413774703E-2   -4.998769161365994E-1   -9.117745769042994E-2
 6.501566427375000E9    -4.536219489638402E-1   -2.635683969811534E-1   -1.483897894615523E-2    4.338251706155866E-2   -1.252735278980981E-2    4.299471125875737E-2   -5.001097369869819E-1   -8.979118626920905E-2
 6.501579375500000E9    -4.540553125156890E-1   -2.625222658709962E-1   -1.476122392576015E-2    4.370167034230057E-2   -1.253361957661836E-2    4.344681976925688E-2   -5.001403022853893E-1   -8.829822870188825E-2
 6.501592323625000E9    -4.546527957179479E-1   -2.614566302368468E-1   -1.484643772307914E-2    4.392816315301389E-2   -1.247702371377847E-2    4.361816229490688E-2   -5.001729757760328E-1   -8.678374764652542E-2
 6.501605271750000E9    -4.551503060021593E-1   -2.604192579643246E-1   -1.472210780872377E-2    4.436115819384240E-2   -1.246359769289266E-2    4.400071984209183E-2   -5.003072021730546E-1   -8.525319543129666E-2
 6.501618219875000E9    -4.557601627663291E-1   -2.595314676759031E-1   -1.469384940222501E-2    4.474666351128506E-2   -1.244548734369190E-2    4.429052631820019E-2   -5.004263726915226E-1   -8.370093225759317E-2
 6.501631168000000E9    -4.562392481524867E-1   -2.583734515035693E-1   -1.450698100593747E-2    4.508872338249449E-2   -1.231325212853870E-2    4.474065176612822E-2   -5.006054808710927E-1   -8.206397997333024E-2
 6.501644116125000E9    -4.567005222923312E-1   -2.573763036313062E-1   -1.457396104821570E-2    4.548247588921130E-2   -1.228809221456443E-2    4.513303106158913E-2   -5.007732416689058E-1   -8.070743628369882E-2
 6.501657064250000E9    -4.573006039906485E-1   -2.563303964932487E-1   -1.444583889001326E-2    4.583333094346861E-2   -1.220750656114677E-2    4.545199167470999E-2   -5.009573760680520E-1   -7.911221090349704E-2
 6.501670012375000E9    -4.578163745064970E-1   -2.552446265076814E-1   -1.451664762744834E-2    4.617705489432170E-2   -1.224231928889081E-2    4.591921142720467E-2   -5.010623904889586E-1   -7.769647243670647E-2
 6.501682960500000E9    -4.583499921517012E-1   -2.544281423150578E-1   -1.444055345525193E-2    4.668899904883630E-2   -1.215305661314761E-2    4.620195451967150E-2   -5.010847607289501E-1   -7.612533975472895E-2
 6.501695908625000E9    -4.588654223834641E-1   -2.532668439853389E-1   -1.453063573731471E-2    4.693202896679684E-2   -1.211301372579134E-2    4.649491787860338E-2   -5.013049118785328E-1   -7.444801277653629E-2
 6.501708856750000E9    -4.593931041378083E-1   -2.522182897527113E-1   -1.444878553031300E-2    4.746555021472867E-2   -1.207186472774710E-2    4.694051492121051E-2   -5.011914696087146E-1   -7.282362424058747E-2
 6.501721804875000E9    -4.596780575046423E-1   -2.511131061223145E-1   -1.431738602030574E-2    4.779178807168780E-2   -1.207467937548477E-2    4.732420843577098E-2   -5.013748868933853E-1   -7.123878112696919E-2
 6.501734753000000E9    -4.602711519877982E-1   -2.501588028642074E-1   -1.433347262929617E-2    4.818777950595359E-2   -1.201022593899405E-2    4.767997851985730E-2   -5.014696253738640E-1   -6.959662025944741E-2
 6.501747701125000E9    -4.608634445248984E-1   -2.490923614494066E-1   -1.430185430458226E-2    4.857652746432427E-2   -1.185265741567262E-2    4.813675085120594E-2   -5.015494226655793E-1   -6.803707280248611E-2
 6.501760649250000E9    -4.613823549538025E-1   -2.479467462564607E-1   -1.428081756201385E-2    4.893308526248453E-2   -1.186463806510806E-2    4.855659310619037E-2   -5.015285058712112E-1   -6.641276209201846E-2
 6.501773597375000E9    -4.617952563855700E-1   -2.469273688475978E-1   -1.430698854999980E-2    4.934801202738251E-2   -1.179472778673936E-2    4.892786169249703E-2   -5.016570292159227E-1   -6.482596416790036E-2
 6.501786545500000E9    -4.622841635607113E-1   -2.457700420059235E-1   -1.402509087050977E-2    4.985259912128691E-2   -1.173614307138650E-2    4.941980421329033E-2   -5.016591088386415E-1   -6.317444408725699E-2
 6.501799493625000E9    -4.628652017362645E-1   -2.448048448509691E-1   -1.408907540431295E-2    5.031891947574337E-2   -1.164398039099038E-2    4.969051985106617E-2   -5.016298266111098E-1   -6.164600884800992E-2
 6.501812441750000E9    -4.633471689206502E-1   -2.436537240985744E-1   -1.409468669008214E-2    5.066357006986643E-2   -1.154057462617123E-2    5.015778341068493E-2   -5.016525292360746E-1   -5.980585071318027E-2
 6.501825389875000E9    -4.638660948445988E-1   -2.426219646479998E-1   -1.405520763149131E-2    5.110223714203308E-2   -1.154762006688940E-2    5.067903465966723E-2   -5.016673888288183E-1   -5.809647713250853E-2
 6.501838338000000E9    -4.642417090669557E-1   -2.415336156864034E-1   -1.397743865081611E-2    5.166490410325080E-2   -1.146070924080778E-2    5.101714239198842E-2   -5.017797860664983E-1   -5.645596782794091E-2
 6.501851286125000E9    -4.648342660252419E-1   -2.404096053188169E-1   -1.397322640944490E-2    5.220189597402978E-2   -1.138272892006199E-2    5.152368981010004E-2   -5.017631296475369E-1   -5.468646181804334E-2
 6.501864234250000E9    -4.652058531554922E-1   -2.392718005308573E-1   -1.388060275813136E-2    5.263789131666392E-2   -1.134404411796848E-2    5.192752329896405E-2   -5.017887206298073E-1   -5.298641933172667E-2
 6.501877182375000E9    -4.657882357394892E-1   -2.382651167669642E-1   -1.378016321398724E-2    5.304102827021650E-2   -1.126745904364353E-2    5.240648479999999E-2   -5.016945430192022E-1   -5.129940572118605E-2
 6.501890130500000E9    -4.662287969549037E-1   -2.371471833204162E-1   -1.374557277271097E-2    5.348215414348143E-2   -1.113289460290934E-2    5.284310316669529E-2   -5.017377739768336E-1   -4.944388026071815E-2
 6.501903078625000E9    -4.666860036058554E-1   -2.359404897772461E-1   -1.379097925876087E-2    5.395231606489053E-2   -1.106803477818982E-2    5.337257505298217E-2   -5.018151219502640E-1   -4.767839678763439E-2
 6.501916026750000E9    -4.671167973176459E-1   -2.348693364151916E-1   -1.362497584715749E-2    5.459005987379876E-2   -1.103817450465494E-2    5.381234575920572E-2   -5.017804719054785E-1   -4.598954576509385E-2
 6.501928974875000E9    -4.676232397913273E-1   -2.337393533288494E-1   -1.365729465616872E-2    5.497667449277546E-2   -1.090314144263581E-2    5.428607248069898E-2   -5.016529794442414E-1   -4.433204561283345E-2
 6.501941923000000E9    -4.680669393115782E-1   -2.325868639241918E-1   -1.354918687489406E-2    5.547830021157363E-2   -1.082283665073045E-2    5.484375129723523E-2   -5.016200786238093E-1   -4.236141087645374E-2
 6.501954871125000E9    -4.685705561494462E-1   -2.315271983091829E-1   -1.337744589941105E-2    5.610884705647756E-2   -1.082753083704551E-2    5.530471520551380E-2   -5.015321930183843E-1   -4.065843237276164E-2
 6.501967819250000E9    -4.691384817645322E-1   -2.303190248189854E-1   -1.335012251225611E-2    5.650305698340552E-2   -1.063212110027482E-2    5.582492582830969E-2   -5.013056271756398E-1   -3.887236961679710E-2
