#  HZ   S   RI   R     50.00 
! Rohde & Schwarz Vector Network Analyzer 
! Rohde-Schwarz,ZNB20-2Port,1311601062101988,3.16
! Created: UTC 3/20/2024, 11:52:30 AM
! freq[Hz]                re:S11                  im:S11                  re:S21                  im:S21                  re:S12                  im:S12                  re:S22                  im:S22
 6.500805305000000E9    -4.196190036975433E-1   -3.177132759370488E-1   -1.496584190520507E-2    2.886990890604486E-2   -1.342520643304528E-2    2.913729539179201E-2   -4.853599497505917E-1   -1.672707690754519E-1
 6.500818241000000E9    -4.202550168665383E-1   -3.169479223315498E-1   -1.495825418466089E-2    2.901987199731744E-2   -1.332869468764301E-2    2.914350252227323E-2   -4.856680366757393E-1   -1.660805303190408E-1
 6.500831177000000E9    -4.208278760695870E-1   -3.161289570860561E-1   -1.499221612079257E-2    2.915097015645587E-2   -1.338983892952044E-2    2.932529239732613E-2   -4.862584664772659E-1   -1.648774460041320E-1
 6.500844113000000E9    -4.215430148806480E-1   -3.152684677913173E-1   -1.503460821730758E-2    2.951038544640529E-2   -1.326259470960159E-2    2.961574012083453E-2   -4.865098257612048E-1   -1.636287620286724E-1
 6.500857049000000E9    -4.221297486356493E-1   -3.143362924884792E-1   -1.497617052610334E-2    2.956012816322273E-2   -1.331351730126645E-2    2.977097476534246E-2   -4.867751707559023E-1   -1.625195643415317E-1
 6.500869985000000E9    -4.226827777402555E-1   -3.134927052866895E-1   -1.504583882565092E-2    2.995047833598680E-2   -1.329655682882043E-2    2.985385029896129E-2   -4.870735842146330E-1   -1.611588809683701E-1
 6.500882921000000E9    -4.233407542321385E-1   -3.126928698795590E-1   -1.508400933874398E-2    2.998443422422968E-2   -1.342007279378103E-2    3.008401830504119E-2   -4.873895510848275E-1   -1.600089317213669E-1
 6.500895857000000E9    -4.238696957314790E-1   -3.118991674212129E-1   -1.504493175656621E-2    3.023961223883860E-2   -1.326361842914390E-2    3.029012000092154E-2   -4.877420652213147E-1   -1.589498558889946E-1
 6.500908793000000E9    -4.245652528332088E-1   -3.109562545744216E-1   -1.509762573240922E-2    3.041767423237180E-2   -1.337744757999521E-2    3.041072978516088E-2   -4.880991465111481E-1   -1.576063005832549E-1
 6.500921729000000E9    -4.251245954763332E-1   -3.100582002845095E-1   -1.485180617252601E-2    3.061023579523490E-2   -1.331134134782237E-2    3.073978556350134E-2   -4.882832032469462E-1   -1.562532144347805E-1
 6.500934665000000E9    -4.257392110571294E-1   -3.092318105172263E-1   -1.493638891001478E-2    3.067548660711832E-2   -1.330303041063281E-2    3.080898350431885E-2   -4.887791654002184E-1   -1.552215344732369E-1
 6.500947601000000E9    -4.262404844449060E-1   -3.082730610037748E-1   -1.495715628899110E-2    3.090469198030898E-2   -1.331023132689859E-2    3.101433461375763E-2   -4.889723276140756E-1   -1.539599241539912E-1
 6.500960537000000E9    -4.268859057621531E-1   -3.074848002887713E-1   -1.504306868788078E-2    3.102029457754285E-2   -1.332202350995893E-2    3.128750557121545E-2   -4.893204515237535E-1   -1.528220496794622E-1
 6.500973473000000E9    -4.275907261248664E-1   -3.066230021846318E-1   -1.506610312026238E-2    3.122168968164228E-2   -1.334603571015108E-2    3.142806307856527E-2   -4.896226786341651E-1   -1.515330185894397E-1
 6.500986409000000E9    -4.282450580387781E-1   -3.056552524091369E-1   -1.515605303297483E-2    3.158304665210265E-2   -1.330157314687572E-2    3.155063739803082E-2   -4.899603663385644E-1   -1.502602763259493E-1
 6.500999345000000E9    -4.287743605695847E-1   -3.047945982639210E-1   -1.495910037541766E-2    3.184994852361039E-2   -1.322948227042521E-2    3.187466663529789E-2   -4.903096820067681E-1   -1.490533658537115E-1
 6.501012281000000E9    -4.293661483160495E-1   -3.038911516962783E-1   -1.507579689852013E-2    3.192921374612234E-2   -1.325445895349864E-2    3.202715877735347E-2   -4.906318684072675E-1   -1.480167574476924E-1
 6.501025217000000E9    -4.300622729484264E-1   -3.030157319295186E-1   -1.501241455449423E-2    3.217497395900940E-2   -1.323145553532588E-2    3.213494558400810E-2   -4.908600018410564E-1   -1.464364036668807E-1
 6.501038153000000E9    -4.305289041973210E-1   -3.021557946092571E-1   -1.513729097031713E-2    3.228074487233308E-2   -1.326164984327989E-2    3.240405794487661E-2   -4.911013350418459E-1   -1.453673317653141E-1
 6.501051089000000E9    -4.311053935103424E-1   -3.011766607523764E-1   -1.500871313858710E-2    3.257548064465517E-2   -1.329460936300447E-2    3.261226159506893E-2   -4.912339338039207E-1   -1.440935491725792E-1
 6.501064025000000E9    -4.317305329490887E-1   -3.003335233299552E-1   -1.505782891309748E-2    3.278769730897824E-2   -1.328376640672132E-2    3.284617060993682E-2   -4.916791051735158E-1   -1.427051984209844E-1
 6.501076961000000E9    -4.323188638215894E-1   -2.994497092182676E-1   -1.501005882477345E-2    3.305808875711758E-2   -1.325005240910426E-2    3.299051177188302E-2   -4.920319559271924E-1   -1.415226518090804E-1
 6.501089897000000E9    -4.329255593746600E-1   -2.984732108284779E-1   -1.512987990214759E-2    3.321798778743808E-2   -1.321562105639900E-2    3.326220726188547E-2   -4.922391986494243E-1   -1.403094804428818E-1
 6.501102833000000E9    -4.335174453874431E-1   -2.976174028530648E-1   -1.510727492891322E-2    3.345042472622393E-2   -1.325048113252738E-2    3.354051344394587E-2   -4.925168271091950E-1   -1.389915058174873E-1
 6.501115769000000E9    -4.340591834073025E-1   -2.966780600183779E-1   -1.509050228867147E-2    3.366285821956130E-2   -1.323011950509356E-2    3.376061165867525E-2   -4.928496868183491E-1   -1.377688341090430E-1
 6.501128705000000E9    -4.348005724732291E-1   -2.957940656211887E-1   -1.504646564978491E-2    3.388346625560028E-2   -1.312630858873301E-2    3.386204405767910E-2   -4.930353719947606E-1   -1.364773343696076E-1
 6.501141641000000E9    -4.352788798664995E-1   -2.947987232328086E-1   -1.511433771820661E-2    3.429196978461019E-2   -1.325184616041261E-2    3.419428083824557E-2   -4.930757309912950E-1   -1.351615639847698E-1
 6.501154577000000E9    -4.358323697493171E-1   -2.939866834258451E-1   -1.511084340039784E-2    3.438676568041568E-2   -1.313183590625555E-2    3.424530018076968E-2   -4.936635291477271E-1   -1.338689196385189E-1
 6.501167513000000E9    -4.364557404507544E-1   -2.929589497275567E-1   -1.497568020959382E-2    3.461824063887357E-2   -1.317688394321016E-2    3.458575350258247E-2   -4.937688869092094E-1   -1.324936457898297E-1
 6.501180449000000E9    -4.370585991362632E-1   -2.920880402988492E-1   -1.513421102735529E-2    3.479888556909695E-2   -1.311483071691190E-2    3.486092828769503E-2   -4.940867659939490E-1   -1.312473414534673E-1
 6.501193385000000E9    -4.376460458443840E-1   -2.911975900276076E-1   -1.515265563174856E-2    3.516130222482336E-2   -1.315804560882148E-2    3.497646698135409E-2   -4.942713543603864E-1   -1.299794330569723E-1
 6.501206321000000E9    -4.380934231695098E-1   -2.902759210387966E-1   -1.499596584199868E-2    3.540107689920826E-2   -1.318741563813885E-2    3.522952349447683E-2   -4.945905106509175E-1   -1.285548671570949E-1
 6.501219257000000E9    -4.387372163134514E-1   -2.893128848378585E-1   -1.497396886122977E-2    3.556117940088522E-2   -1.313814759932761E-2    3.553828118137058E-2   -4.947499355406801E-1   -1.272420852603703E-1
 6.501232193000000E9    -4.394328005299595E-1   -2.884753256451300E-1   -1.500141199796818E-2    3.589748235683778E-2   -1.310439024858025E-2    3.578119247771246E-2   -4.951197826512836E-1   -1.260482777026649E-1
 6.501245129000000E9    -4.399166777279075E-1   -2.875069651570195E-1   -1.507743535419779E-2    3.604701616919718E-2   -1.310247093042659E-2    3.601276683760747E-2   -4.953696782211552E-1   -1.246743353227119E-1
 6.501258065000000E9    -4.404108668165403E-1   -2.865443034563205E-1   -1.506854506033470E-2    3.642967050455648E-2   -1.308315096685872E-2    3.622102326518174E-2   -4.955073478549824E-1   -1.233181935661596E-1
 6.501271001000000E9    -4.410405798265391E-1   -2.856349993746438E-1   -1.502969389760804E-2    3.646594755537546E-2   -1.310822552421987E-2    3.649463376567432E-2   -4.956458199102837E-1   -1.220860338209577E-1
 6.501283937000000E9    -4.415698857281137E-1   -2.846432362939815E-1   -1.512453909822153E-2    3.681884004850363E-2   -1.304422193396445E-2    3.675534144330835E-2   -4.960274346660511E-1   -1.206458857126508E-1
 6.501296873000000E9    -4.422022675960422E-1   -2.837113882198945E-1   -1.505970677595346E-2    3.704413417925718E-2   -1.307668373955278E-2    3.702952935047393E-2   -4.962457371268405E-1   -1.193654198969141E-1
 6.501309809000000E9    -4.427120399422099E-1   -2.827370196383046E-1   -1.507533462557210E-2    3.747516534763503E-2   -1.301409711056160E-2    3.725632800315960E-2   -4.962432954312739E-1   -1.179673479868853E-1
 6.501322745000000E9    -4.432943774137505E-1   -2.817879680263298E-1   -1.489383143921388E-2    3.751506149703671E-2   -1.303660746392224E-2    3.744444464095965E-2   -4.968873421624044E-1   -1.165429673701177E-1
 6.501335681000000E9    -4.438718523620486E-1   -2.807937098652991E-1   -1.487513136475866E-2    3.770996199967951E-2   -1.302654337258015E-2    3.769078166093809E-2   -4.969223016040619E-1   -1.153890685349994E-1
 6.501348617000000E9    -4.444840595543431E-1   -2.799511180866828E-1   -1.505362440674399E-2    3.796788667815057E-2   -1.298862011722530E-2    3.802785180058052E-2   -4.970475307046168E-1   -1.138997578031299E-1
 6.501361553000000E9    -4.449960261083857E-1   -2.790277696239594E-1   -1.490525347247303E-2    3.835219722749619E-2   -1.293431727940073E-2    3.845895955193092E-2   -4.972701428829985E-1   -1.124354173306520E-1
 6.501374489000000E9    -4.455471606986265E-1   -2.780498389404346E-1   -1.506393040758234E-2    3.854247276484816E-2   -1.293363284100249E-2    3.848402286217534E-2   -4.974804186703994E-1   -1.109674424363677E-1
 6.501387425000000E9    -4.461266941799861E-1   -2.770185669326362E-1   -1.489933878431905E-2    3.895556677404315E-2   -1.285013373695937E-2    3.894880326179034E-2   -4.977486423418557E-1   -1.096806798739762E-1
 6.501400361000000E9    -4.466029356404536E-1   -2.761035664711936E-1   -1.494364428187695E-2    3.923466305795687E-2   -1.291449310288291E-2    3.909609928546511E-2   -4.979145402754451E-1   -1.082094963542113E-1
 6.501413297000000E9    -4.472122477853232E-1   -2.751608600558187E-1   -1.490621882915507E-2    3.946822207354607E-2   -1.291729523116637E-2    3.936149748411057E-2   -4.982242458912844E-1   -1.069685378567653E-1
 6.501426233000000E9    -4.477572752958544E-1   -2.740997906086591E-1   -1.498696986084732E-2    3.984382314597820E-2   -1.287922930831859E-2    3.963378504191167E-2   -4.982852143806876E-1   -1.055109781213345E-1
 6.501439169000000E9    -4.482838635158193E-1   -2.733008289180564E-1   -1.494074299074540E-2    4.001639407184204E-2   -1.273245576760060E-2    3.992583989928478E-2   -4.983941901436903E-1   -1.039998433032297E-1
 6.501452105000000E9    -4.488486580359217E-1   -2.721479616544039E-1   -1.487144691442174E-2    4.046097978680215E-2   -1.277723427568664E-2    4.025029346904881E-2   -4.987388472378657E-1   -1.026319483873516E-1
 6.501465041000000E9    -4.494553091222958E-1   -2.712747081449581E-1   -1.488714651643665E-2    4.075062918434048E-2   -1.274967636856060E-2    4.056910644293150E-2   -4.986957157823813E-1   -1.012601408224031E-1
 6.501477977000000E9    -4.497638089196632E-1   -2.702290500733947E-1   -1.484377866987198E-2    4.094631554041017E-2   -1.273108827427220E-2    4.092945180697861E-2   -4.989898432054939E-1   -9.974577661586773E-2
 6.501490913000000E9    -4.504688515291767E-1   -2.692512723626200E-1   -1.485939311672930E-2    4.138030491357415E-2   -1.278448072720481E-2    4.105202651055512E-2   -4.990937989415307E-1   -9.839822212504665E-2
 6.501503849000000E9    -4.508887725814659E-1   -2.682332947395628E-1   -1.488880160209042E-2    4.164330633651889E-2   -1.269393094434807E-2    4.148772773593790E-2   -4.992762051766412E-1   -9.688099305326191E-2
 6.501516785000000E9    -4.515848873312014E-1   -2.671867978593150E-1   -1.489858052399070E-2    4.205362917070236E-2   -1.274852998797873E-2    4.176864748256268E-2   -4.994842302052854E-1   -9.545530058215021E-2
 6.501529721000000E9    -4.520110169000118E-1   -2.661698000610423E-1   -1.477161155024516E-2    4.243751088321723E-2   -1.260627603308645E-2    4.211949235112191E-2   -4.996797973193801E-1   -9.411951827907161E-2
 6.501542657000000E9    -4.526451406165061E-1   -2.652084603915519E-1   -1.479675422170870E-2    4.273025346430389E-2   -1.256639679414167E-2    4.247733917744946E-2   -4.999332998803974E-1   -9.234343707607075E-2
 6.501555593000000E9    -4.531031011743732E-1   -2.643258130247014E-1   -1.464907383097798E-2    4.307243045526824E-2   -1.256359959607601E-2    4.278569030843025E-2   -4.999375833171379E-1   -9.118789458517734E-2
 6.501568529000000E9    -4.536451056643903E-1   -2.632736060831392E-1   -1.479232602673092E-2    4.334988636837305E-2   -1.259147578475625E-2    4.306105632487724E-2   -5.000362432308602E-1   -8.937022374580347E-2
 6.501581465000000E9    -4.541236485796561E-1   -2.622470945534555E-1   -1.473844727759426E-2    4.373319984783779E-2   -1.258588212364537E-2    4.332531986656955E-2   -5.000382502412082E-1   -8.797847175833490E-2
 6.501594401000000E9    -4.547808109056163E-1   -2.612910663842984E-1   -1.475270463627744E-2    4.402317966170869E-2   -1.240590716260121E-2    4.373049715552967E-2   -5.003973133198447E-1   -8.669403942387074E-2
 6.501607337000000E9    -4.553077155198754E-1   -2.602886794161849E-1   -1.472789822844904E-2    4.436212554541753E-2   -1.243081785401404E-2    4.397592993823589E-2   -5.003733246517941E-1   -8.508189866644958E-2
 6.501620273000000E9    -4.558457421629390E-1   -2.592319143080480E-1   -1.465426830265885E-2    4.476448286117035E-2   -1.238596995136992E-2    4.440405768821309E-2   -5.006709442704498E-1   -8.357389720637197E-2
 6.501633209000000E9    -4.563067878815693E-1   -2.581330593133908E-1   -1.459667411117043E-2    4.497646532330183E-2   -1.241261822454335E-2    4.466778994844930E-2   -5.007102450038696E-1   -8.197544543978294E-2
 6.501646145000000E9    -4.567293726300574E-1   -2.572000791151420E-1   -1.460570674895484E-2    4.550945338568126E-2   -1.228385216595701E-2    4.512345598182520E-2   -5.008777186325192E-1   -8.042156148403204E-2
 6.501659081000000E9    -4.572757459307801E-1   -2.561302146455258E-1   -1.450340346385041E-2    4.582422464326375E-2   -1.213298837514879E-2    4.540227409433793E-2   -5.008824359107138E-1   -7.880835044606031E-2
 6.501672017000000E9    -4.579060174917188E-1   -2.551896428476358E-1   -1.443648516348733E-2    4.628558228371255E-2   -1.224063571052294E-2    4.575253647897248E-2   -5.010451785819994E-1   -7.732524272768583E-2
 6.501684953000000E9    -4.584416311256945E-1   -2.540911834688430E-1   -1.457513171873937E-2    4.666360916859223E-2   -1.211916785864553E-2    4.619906324655992E-2   -5.011850913783079E-1   -7.583453064568316E-2
 6.501697889000000E9    -4.588516689294062E-1   -2.529709480447451E-1   -1.448347591673928E-2    4.688391336237710E-2   -1.220581630894985E-2    4.655657145517934E-2   -5.011669470821165E-1   -7.434965931478607E-2
 6.501710825000000E9    -4.594560627161151E-1   -2.520541289249763E-1   -1.440513985520805E-2    4.741202784894145E-2   -1.205948721475427E-2    4.696550995325040E-2   -5.012160486925030E-1   -7.267979728641320E-2
 6.501723761000000E9    -4.598876400882903E-1   -2.508391972431069E-1   -1.447173980867792E-2    4.779415382279253E-2   -1.199893472733756E-2    4.735322707853550E-2   -5.012246065221542E-1   -7.088733619391617E-2
 6.501736697000000E9    -4.604830796397254E-1   -2.498748959470759E-1   -1.437719869405969E-2    4.816690616114732E-2   -1.199841405958140E-2    4.779735130369999E-2   -5.015259340631169E-1   -6.943235539559023E-2
 6.501749633000000E9    -4.608652825783548E-1   -2.487954095626229E-1   -1.420566189322242E-2    4.865430446985702E-2   -1.193805290361098E-2    4.818880601203624E-2   -5.014859462667961E-1   -6.779934376613458E-2
 6.501762569000000E9    -4.613853392245510E-1   -2.477109604673218E-1   -1.425934563274832E-2    4.890980062273685E-2   -1.184737807016479E-2    4.859205965580204E-2   -5.016055838730291E-1   -6.632270627800223E-2
 6.501775505000000E9    -4.618965407213272E-1   -2.467061546652657E-1   -1.427946201956900E-2    4.937904031384195E-2   -1.179963760886667E-2    4.883398437112955E-2   -5.015275021889399E-1   -6.458421755150695E-2
 6.501788441000000E9    -4.623524817823587E-1   -2.456519360081011E-1   -1.409149716440605E-2    4.988865372624603E-2   -1.170132240058961E-2    4.937384563840641E-2   -5.015989503071004E-1   -6.288934673929192E-2
 6.501801377000000E9    -4.628888984143567E-1   -2.444938460689885E-1   -1.421623437408187E-2    5.026517427422380E-2   -1.165783446925066E-2    4.974601151422952E-2   -5.016881385982709E-1   -6.142713035647382E-2
 6.501814313000000E9    -4.633521524141174E-1   -2.434621726021000E-1   -1.424520492032151E-2    5.072955041923217E-2   -1.173641241902446E-2    5.023186617371814E-2   -5.016984877904848E-1   -5.952015423830127E-2
 6.501827249000000E9    -4.638168402914084E-1   -2.423930883013606E-1   -1.403235409057369E-2    5.121459474291631E-2   -1.153879617317682E-2    5.057854361993751E-2   -5.017701371069667E-1   -5.787820065882179E-2
 6.501840185000000E9    -4.643592782730996E-1   -2.413587713712425E-1   -1.397497674422572E-2    5.170253512929894E-2   -1.149958565959879E-2    5.113295876340110E-2   -5.017223430865887E-1   -5.619760765908464E-2
 6.501853121000000E9    -4.647904159416452E-1   -2.402060457275382E-1   -1.385512888699519E-2    5.207531623317418E-2   -1.140771664530974E-2    5.150351400403803E-2   -5.017517007505000E-1   -5.445498166095139E-2
 6.501866057000000E9    -4.653277757071386E-1   -2.390771727596134E-1   -1.392519124901212E-2    5.242489119617860E-2   -1.132185258278094E-2    5.194436789746044E-2   -5.017529079605505E-1   -5.276787711972224E-2
 6.501878993000000E9    -4.657748023608754E-1   -2.380378656405551E-1   -1.388103363774533E-2    5.317822236843179E-2   -1.121270092220582E-2    5.243196585025742E-2   -5.018007118879463E-1   -5.097626908794223E-2
 6.501891929000000E9    -4.663811181184477E-1   -2.369793619595340E-1   -1.391021492078402E-2    5.355210096088183E-2   -1.112334500523166E-2    5.284227462706817E-2   -5.016870435241642E-1   -4.938715143863948E-2
 6.501904865000000E9    -4.667661808980525E-1   -2.357094004901699E-1   -1.376086371396091E-2    5.406229937370790E-2   -1.104111932964278E-2    5.337694795508799E-2   -5.017530961481381E-1   -4.744155400660171E-2
 6.501917801000000E9    -4.672890302100011E-1   -2.347073645561231E-1   -1.361312832604571E-2    5.456142955960186E-2   -1.104931280377436E-2    5.379031364339836E-2   -5.016631785191006E-1   -4.586227228001256E-2
 6.501930737000000E9    -4.676661018693733E-1   -2.335239051806544E-1   -1.361937045209261E-2    5.513721369163430E-2   -1.102756821480817E-2    5.429162411222642E-2   -5.018158586532601E-1   -4.410159712873799E-2
 6.501943673000000E9    -4.681605153794186E-1   -2.324529895749905E-1   -1.360956359578354E-2    5.562812851707255E-2   -1.088014797087503E-2    5.478299582847588E-2   -5.016956887425534E-1   -4.219573393599509E-2
 6.501956609000000E9    -4.685617282122440E-1   -2.313938149463477E-1   -1.347311649481151E-2    5.605479002798269E-2   -1.080899420650957E-2    5.535367633083814E-2   -5.016780912278055E-1   -4.045326291499876E-2
 6.501969545000000E9    -4.690880058930169E-1   -2.301030146619082E-1   -1.336381399642419E-2    5.653950430314016E-2   -1.063386332294399E-2    5.589178677436647E-2   -5.015543462093115E-1   -3.874767618927225E-2
