#  HZ   S   RI   R     50.00 
! Rohde & Schwarz Vector Network Analyzer 
! Rohde-Schwarz,ZNB20-2Port,1311601062101988,3.16
! Created: UTC 3/20/2024, 11:37:39 AM
! freq[Hz]                re:S11                  im:S11                  re:S21                  im:S21                  re:S12                  im:S12                  re:S22                  im:S22
 6.501169194000000E9    -4.361177843408331E-1   -2.948190023410553E-1   -1.479797551434755E-2    3.268816920753650E-2   -1.295579453276813E-2    3.265305915900824E-2   -4.953249138949097E-1   -1.331376526879120E-1
 6.501180956700000E9    -4.366420288378984E-1   -2.940731174255219E-1   -1.483810616179736E-2    3.280537631530425E-2   -1.300550614234688E-2    3.284193858952367E-2   -4.955240394800649E-1   -1.319783504570334E-1
 6.501192719400000E9    -4.372689849398430E-1   -2.932427124173188E-1   -1.478059884447994E-2    3.305524251272509E-2   -1.295222166044242E-2    3.301706520384710E-2   -4.957330317470923E-1   -1.308124734913853E-1
 6.501204482100000E9    -4.375933125588590E-1   -2.923183481247647E-1   -1.476641767869353E-2    3.311821006972689E-2   -1.305160544524497E-2    3.322251950360258E-2   -4.959779481862868E-1   -1.296218169422724E-1
 6.501216244800000E9    -4.382493670184034E-1   -2.914483657277298E-1   -1.474152446570699E-2    3.335867780527971E-2   -1.290434773434629E-2    3.338709654566242E-2   -4.961388294269471E-1   -1.284940042881267E-1
 6.501228007500000E9    -4.387755002834208E-1   -2.906172704061042E-1   -1.478106866420282E-2    3.362695123461111E-2   -1.291015861215714E-2    3.353568838128109E-2   -4.964833886277466E-1   -1.272776558789232E-1
 6.501239770200000E9    -4.392513233919081E-1   -2.898521233185168E-1   -1.474996269651717E-2    3.382153531191221E-2   -1.299413690841332E-2    3.370692244500258E-2   -4.966590656001574E-1   -1.260877308629029E-1
 6.501251532900000E9    -4.398410179690422E-1   -2.890359701741145E-1   -1.477366339815878E-2    3.397596495358340E-2   -1.286118458948400E-2    3.396736844089275E-2   -4.968760395052016E-1   -1.248951612556897E-1
 6.501263295600000E9    -4.403064280509869E-1   -2.881394750555276E-1   -1.479959658733852E-2    3.419959475218055E-2   -1.290945396817884E-2    3.418046406134680E-2   -4.972424612621041E-1   -1.239417608581254E-1
 6.501275058300000E9    -4.408438247737917E-1   -2.872855462323456E-1   -1.476315354354064E-2    3.444731344306170E-2   -1.292140370367040E-2    3.430389569823487E-2   -4.973670901627115E-1   -1.226319326723466E-1
 6.501286821000000E9    -4.413353574531638E-1   -2.865514447238028E-1   -1.472693017678357E-2    3.464971220283791E-2   -1.280335132709923E-2    3.458866421249846E-2   -4.975080596497016E-1   -1.214847303054895E-1
 6.501298583700000E9    -4.418790548780676E-1   -2.856376223924965E-1   -1.480736297082373E-2    3.496977482324998E-2   -1.279954378278644E-2    3.482362265106533E-2   -4.978427016561919E-1   -1.202866978255228E-1
 6.501310346400000E9    -4.423727185971137E-1   -2.846784919773594E-1   -1.483366521793635E-2    3.516176019808300E-2   -1.287555272706878E-2    3.506247071751829E-2   -4.979445972290710E-1   -1.190697006254778E-1
 6.501322109100000E9    -4.429086412590360E-1   -2.840323272015489E-1   -1.465517955327422E-2    3.520717272317286E-2   -1.285166822449939E-2    3.520828424819940E-2   -4.982609808299643E-1   -1.176703738800734E-1
 6.501333871800000E9    -4.434221519875388E-1   -2.829813771822201E-1   -1.480837920102099E-2    3.554556447499539E-2   -1.288606255077612E-2    3.553354444437264E-2   -4.983734165227778E-1   -1.167109026283389E-1
 6.501345634500000E9    -4.438844242379617E-1   -2.822201986491058E-1   -1.472880465162129E-2    3.583375832463213E-2   -1.274292292429223E-2    3.561899451307564E-2   -4.986505038255283E-1   -1.155031824161603E-1
 6.501357397200000E9    -4.444659916321576E-1   -2.814208052201788E-1   -1.470741102041979E-2    3.593868535934409E-2   -1.276165353563872E-2    3.600134721462498E-2   -4.988864006360597E-1   -1.140946650943154E-1
 6.501369159900000E9    -4.449022487882335E-1   -2.806363678679645E-1   -1.479462533336925E-2    3.616489304869683E-2   -1.288942740606836E-2    3.611454167374932E-2   -4.990259175618324E-1   -1.129424192046982E-1
 6.501380922600000E9    -4.454482714448177E-1   -2.796906813484469E-1   -1.472546386063036E-2    3.637811427270778E-2   -1.276108071219191E-2    3.633711124615688E-2   -4.992915320009637E-1   -1.117946359293690E-1
 6.501392685300000E9    -4.460651907197706E-1   -2.788231432537481E-1   -1.481411401393656E-2    3.657442676391735E-2   -1.276880093241541E-2    3.648962744751334E-2   -4.993139961699871E-1   -1.105487492808742E-1
 6.501404448000000E9    -4.463428935940762E-1   -2.778628144436591E-1   -1.475789751395594E-2    3.679796601456462E-2   -1.262306791568003E-2    3.678161631345687E-2   -4.996708086391971E-1   -1.093010856792149E-1
 6.501416210700000E9    -4.469312612849644E-1   -2.770905068785950E-1   -1.460639386885610E-2    3.709816032379061E-2   -1.272275625925284E-2    3.702685502239678E-2   -4.997582704432397E-1   -1.081347363115790E-1
 6.501427973400000E9    -4.475608781831381E-1   -2.762081566948176E-1   -1.481100459388164E-2    3.736038386838780E-2   -1.263861040062875E-2    3.721892314766288E-2   -4.998928243285402E-1   -1.068530277249934E-1
 6.501439736100000E9    -4.480077884954605E-1   -2.753213350666281E-1   -1.474908392770746E-2    3.764964567967281E-2   -1.272713778550417E-2    3.744947241423192E-2   -5.001449194130483E-1   -1.056809554949981E-1
 6.501451498800000E9    -4.484328554937116E-1   -2.745375005286292E-1   -1.466535422373316E-2    3.782985396308627E-2   -1.274792753617253E-2    3.770119034266867E-2   -5.003548375643188E-1   -1.044229528925974E-1
 6.501463261500000E9    -4.489819775592769E-1   -2.735615796817574E-1   -1.463506364079725E-2    3.812731597293594E-2   -1.264822324394073E-2    3.792554408126946E-2   -5.005181671851308E-1   -1.031265635828056E-1
 6.501475024200000E9    -4.494049003680488E-1   -2.727642933514829E-1   -1.463053194320964E-2    3.824772251360995E-2   -1.255858528625990E-2    3.812617027871576E-2   -5.005788008673928E-1   -1.018836805708423E-1
 6.501486786900000E9    -4.499574005130587E-1   -2.718459214881491E-1   -1.465305186053849E-2    3.869027246213633E-2   -1.257196282398353E-2    3.839969277353861E-2   -5.009092624596315E-1   -1.007425457980280E-1
 6.501498549600000E9    -4.503536904995984E-1   -2.709462066391681E-1   -1.467486674760928E-2    3.878743596597319E-2   -1.257670890071821E-2    3.855585061949939E-2   -5.009888075272769E-1   -9.938064410075884E-2
 6.501510312300000E9    -4.509504764626268E-1   -2.700482169160756E-1   -1.466089038953780E-2    3.902078563559472E-2   -1.259983721237735E-2    3.896748149173056E-2   -5.012902574084643E-1   -9.807096842649046E-2
 6.501522075000000E9    -4.512653593896027E-1   -2.691395954437855E-1   -1.457968259198943E-2    3.933151447440391E-2   -1.264957326967953E-2    3.912895013756507E-2   -5.013355143734128E-1   -9.673984796986049E-2
 6.501533837700000E9    -4.518744183587077E-1   -2.682395749637493E-1   -1.465662997722524E-2    3.961703199775526E-2   -1.257789627614581E-2    3.940796316930942E-2   -5.015059965796833E-1   -9.556949510191867E-2
 6.501545600400000E9    -4.524843799240188E-1   -2.674157365471532E-1   -1.455602404177526E-2    3.982031108525830E-2   -1.250822501588195E-2    3.970875804056533E-2   -5.015099174275824E-1   -9.434420047672396E-2
 6.501557363100000E9    -4.529093573170739E-1   -2.665130740521044E-1   -1.460284042588021E-2    4.005325206504765E-2   -1.251253205527205E-2    3.989075811861580E-2   -5.018174078772188E-1   -9.295964365781370E-2
 6.501569125800000E9    -4.533217105712590E-1   -2.656656341512796E-1   -1.472706388340337E-2    4.046268844310172E-2   -1.252470016097595E-2    4.014407920592911E-2   -5.019046216678456E-1   -9.170197907090694E-2
 6.501580888500000E9    -4.538036018204665E-1   -2.646833180584898E-1   -1.466621867094146E-2    4.061999712944396E-2   -1.245190628541665E-2    4.040066677020554E-2   -5.020867491486206E-1   -9.040520391255220E-2
 6.501592651200000E9    -4.542629274064804E-1   -2.639039640574479E-1   -1.460585301812876E-2    4.098617540651238E-2   -1.244701679651756E-2    4.066106206119152E-2   -5.022084090697133E-1   -8.897692926391844E-2
 6.501604413900000E9    -4.548364839449691E-1   -2.629517445503531E-1   -1.462145764765629E-2    4.122130826728610E-2   -1.239949310378122E-2    4.102375379487851E-2   -5.023888286109794E-1   -8.769494757119177E-2
 6.501616176600000E9    -4.552540484336201E-1   -2.619914145525356E-1   -1.453883788441732E-2    4.144995136918880E-2   -1.240371016417376E-2    4.132407919617376E-2   -5.023703974548890E-1   -8.635247267470712E-2
 6.501627939300000E9    -4.558407636209463E-1   -2.611869793500832E-1   -1.452960991738424E-2    4.194419709782359E-2   -1.232365094868691E-2    4.165088483235471E-2   -5.026117926911017E-1   -8.511729829947282E-2
 6.501639702000000E9    -4.562652867982359E-1   -2.602647368540377E-1   -1.447241653455290E-2    4.201201966937777E-2   -1.240312081532749E-2    4.176308576489380E-2   -5.027599382290354E-1   -8.367547226939263E-2
 6.501651464700000E9    -4.567011005755610E-1   -2.593010458909631E-1   -1.450566489674741E-2    4.240173641169966E-2   -1.228746110576859E-2    4.202363270745500E-2   -5.028862640878167E-1   -8.247395014798475E-2
 6.501663227400000E9    -4.572834825031831E-1   -2.585041891929215E-1   -1.449412342646444E-2    4.276863415018275E-2   -1.214648899822058E-2    4.239663850751037E-2   -5.030536890778891E-1   -8.111387935312986E-2
 6.501674990100000E9    -4.577024880309328E-1   -2.574284596317308E-1   -1.444798477934950E-2    4.309723781591258E-2   -1.222786634716767E-2    4.266363059583415E-2   -5.032024244998385E-1   -7.985273466875539E-2
 6.501686752800000E9    -4.580844764699111E-1   -2.566201218730216E-1   -1.446379484019656E-2    4.336089912532521E-2   -1.233767556068019E-2    4.297900186929385E-2   -5.031931952115425E-1   -7.854756001844820E-2
 6.501698515500000E9    -4.585350092482143E-1   -2.556266336094369E-1   -1.453866136846453E-2    4.355110675288581E-2   -1.219614021093456E-2    4.335308038821149E-2   -5.032596163869825E-1   -7.695389724284682E-2
 6.501710278200000E9    -4.591375640450754E-1   -2.547728251835281E-1   -1.446419514180597E-2    4.391733811434227E-2   -1.216266725188983E-2    4.353862701225142E-2   -5.034929342615291E-1   -7.564735075924210E-2
 6.501722040900000E9    -4.595185455706626E-1   -2.538434980417157E-1   -1.438136175299079E-2    4.415812965063642E-2   -1.210767362683730E-2    4.390238647589834E-2   -5.036021585699845E-1   -7.429796919705185E-2
 6.501733803600000E9    -4.600291281652735E-1   -2.528533375519412E-1   -1.449852669458673E-2    4.456464664045569E-2   -1.209832645948118E-2    4.422952841968222E-2   -5.036008109530841E-1   -7.297496937111851E-2
 6.501745566300000E9    -4.604856087001494E-1   -2.518842795727678E-1   -1.434574442515194E-2    4.496132734522384E-2   -1.207004630985245E-2    4.450943872420859E-2   -5.037477582328413E-1   -7.156018609714919E-2
 6.501757329000000E9    -4.610250230174044E-1   -2.510347450130854E-1   -1.425628157727790E-2    4.528406976749165E-2   -1.200869445689903E-2    4.491118516655374E-2   -5.037461953552012E-1   -7.003408572289858E-2
 6.501769091700000E9    -4.615041107258641E-1   -2.501911022491583E-1   -1.432555416533158E-2    4.566500222995098E-2   -1.195504201878734E-2    4.520627553303668E-2   -5.039439008259411E-1   -6.866801062840981E-2
 6.501780854400000E9    -4.618263738219552E-1   -2.491223800375710E-1   -1.432057756472386E-2    4.578248893286200E-2   -1.194204870357440E-2    4.554427422513226E-2   -5.038311065441867E-1   -6.742125163188939E-2
 6.501792617100000E9    -4.623592407294215E-1   -2.481215465595970E-1   -1.420785633540509E-2    4.627182865215346E-2   -1.198546124168211E-2    4.575073527695839E-2   -5.041368251736381E-1   -6.597243884729248E-2
 6.501804379800000E9    -4.627368590070565E-1   -2.472222699636782E-1   -1.425233972945729E-2    4.658380724114489E-2   -1.196605495519899E-2    4.609854054191460E-2   -5.042188606568714E-1   -6.466586789730389E-2
 6.501816142500000E9    -4.632342255965839E-1   -2.462840765685329E-1   -1.425356898621812E-2    4.697143349898106E-2   -1.182809986832327E-2    4.645974356199004E-2   -5.041809852357382E-1   -6.297233252035211E-2
 6.501827905200000E9    -4.637423179539113E-1   -2.453526129410609E-1   -1.421230879026514E-2    4.724914577058199E-2   -1.178168263557510E-2    4.682972716751162E-2   -5.042470250691204E-1   -6.157456569681981E-2
 6.501839667900000E9    -4.641390679544463E-1   -2.442490300655688E-1   -1.418283431762463E-2    4.754947419940041E-2   -1.175616168785805E-2    4.710655695466898E-2   -5.043229785578427E-1   -6.014604717489723E-2
 6.501851430600000E9    -4.646398492985588E-1   -2.434576274078906E-1   -1.411313590526578E-2    4.791230351223334E-2   -1.179936214151103E-2    4.748525896498139E-2   -5.045233228617945E-1   -5.867280140834328E-2
 6.501863193300000E9    -4.651192697586292E-1   -2.424708952221266E-1   -1.404466337681423E-2    4.835381687770249E-2   -1.159704100109060E-2    4.789936196904179E-2   -5.043376130861515E-1   -5.725022211862327E-2
 6.501874956000000E9    -4.654796775114841E-1   -2.414032568554729E-1   -1.402891123033552E-2    4.871494251591166E-2   -1.164922550825013E-2    4.828281965185832E-2   -5.045176164481037E-1   -5.570999771426298E-2
 6.501886718700000E9    -4.659661625000757E-1   -2.404178546761113E-1   -1.419625668825554E-2    4.906175000574581E-2   -1.158082192360578E-2    4.858515754503582E-2   -5.046479440029595E-1   -5.437739787204376E-2
 6.501898481400000E9    -4.663371783061303E-1   -2.394898734154713E-1   -1.388510323667116E-2    4.948193052961321E-2   -1.144267461178894E-2    4.896241963002748E-2   -5.044798832031837E-1   -5.279954949008212E-2
 6.501910244100000E9    -4.668032518598383E-1   -2.384788324084051E-1   -1.399935536103019E-2    4.979806175039246E-2   -1.153914344209040E-2    4.940403813039689E-2   -5.044727995917445E-1   -5.133141330021538E-2
 6.501922006800000E9    -4.671723968871587E-1   -2.375093354441952E-1   -1.389562497518216E-2    5.016248998624016E-2   -1.144771335703192E-2    4.971107812204018E-2   -5.045024804982834E-1   -4.971359706187536E-2
 6.501933769500000E9    -4.675661703290092E-1   -2.365442868843535E-1   -1.394190740459940E-2    5.056952769043700E-2   -1.137999230028534E-2    5.016659347133343E-2   -5.045419979411144E-1   -4.817793572213394E-2
 6.501945532200000E9    -4.681854711445559E-1   -2.356005175298424E-1   -1.373056420752057E-2    5.109206769455498E-2   -1.127998135198957E-2    5.053653063932721E-2   -5.046430659852634E-1   -4.672697624401589E-2
 6.501957294900000E9    -4.684754294037413E-1   -2.345750997491624E-1   -1.365741116684252E-2    5.144398505103671E-2   -1.126963119466110E-2    5.085663916560023E-2   -5.046949434779530E-1   -4.516002979019208E-2
 6.501969057600000E9    -4.689779585354751E-1   -2.336133495935839E-1   -1.368655478417615E-2    5.192416475809489E-2   -1.115934493904830E-2    5.131530989355013E-2   -5.047293079367062E-1   -4.369595665626922E-2
 6.501980820300000E9    -4.694327515285225E-1   -2.325004975695237E-1   -1.365126427247120E-2    5.235554787006067E-2   -1.103221142017282E-2    5.176082293729855E-2   -5.046390433092331E-1   -4.200208182207526E-2
 6.501992583000000E9    -4.698453692144099E-1   -2.314676704749095E-1   -1.370056710589056E-2    5.266318530632796E-2   -1.108486179343678E-2    5.211022388559985E-2   -5.046172511082806E-1   -4.059087383429884E-2
 6.502004345700000E9    -4.702607747340430E-1   -2.306646670990377E-1   -1.359780861143445E-2    5.305972641601212E-2   -1.099147553859249E-2    5.253117697997860E-2   -5.046022850097133E-1   -3.887870726977772E-2
 6.502016108400000E9    -4.706331684367920E-1   -2.295471419168328E-1   -1.351985073027766E-2    5.368330051923229E-2   -1.094748575420268E-2    5.293015699970437E-2   -5.045915102747180E-1   -3.739284351271326E-2
 6.502027871100000E9    -4.712042088797465E-1   -2.285790598827908E-1   -1.351023666148143E-2    5.395200777986144E-2   -1.087893444475362E-2    5.343638951824249E-2   -5.045855282006882E-1   -3.587690476732749E-2
 6.502039633800000E9    -4.716340131710402E-1   -2.274412056907742E-1   -1.343695938197078E-2    5.463829548386499E-2   -1.077809590895607E-2    5.385511477628857E-2   -5.044910981136805E-1   -3.413662535875706E-2
 6.502051396500000E9    -4.719402022125191E-1   -2.266193498012627E-1   -1.333892731324892E-2    5.506882477147616E-2   -1.079770552177569E-2    5.426726971450217E-2   -5.044607229965157E-1   -3.251923341737001E-2
 6.502063159200000E9    -4.723820640482333E-1   -2.254516616930196E-1   -1.322350222563178E-2    5.561798956713505E-2   -1.063786441185281E-2    5.471041519430656E-2   -5.044257097021171E-1   -3.101760345019781E-2
 6.502074921900000E9    -4.727985255762536E-1   -2.244301474285467E-1   -1.339606085086631E-2    5.581995999897016E-2   -1.060019422320479E-2    5.517433423695781E-2   -5.042132823076206E-1   -2.918097232083564E-2
 6.502086684600000E9    -4.732265007384971E-1   -2.233355261745733E-1   -1.328406694198447E-2    5.630876306782185E-2   -1.050910766033822E-2    5.560554899938926E-2   -5.042456366315347E-1   -2.755508556018649E-2
 6.502098447300000E9    -4.736271208503237E-1   -2.223705828082845E-1   -1.313560617664894E-2    5.695154188119234E-2   -1.031363454920006E-2    5.611102772665721E-2   -5.041956198469116E-1   -2.598686913574019E-2
 6.502110210000000E9    -4.739768118883114E-1   -2.212019696168952E-1   -1.300329467493968E-2    5.736112720483982E-2   -1.026482086676405E-2    5.663853354210879E-2   -5.040237572183364E-1   -2.422596793779575E-2
 6.502121972700000E9    -4.744567924623462E-1   -2.201460025329705E-1   -1.294829689987382E-2    5.798826341577745E-2   -1.026395500689128E-2    5.710396669946893E-2   -5.038550423080655E-1   -2.246974404449709E-2
 6.502133735400000E9    -4.748614754271598E-1   -2.191682654483726E-1   -1.295326446592698E-2    5.837110168308683E-2   -1.011991829574957E-2    5.761181265689411E-2   -5.039562746383420E-1   -2.081886784311453E-2
 6.502145498100000E9    -4.752756300250403E-1   -2.181344983895891E-1   -1.276150822423477E-2    5.894020343464381E-2   -1.002270792661351E-2    5.801929882940338E-2   -5.038149492450683E-1   -1.917729686508604E-2
 6.502157260800000E9    -4.755611590614310E-1   -2.169983338504029E-1   -1.282151520681439E-2    5.941925289912346E-2   -1.003230530648218E-2    5.862457242223139E-2   -5.036571151794078E-1   -1.740947190900129E-2
 6.502169023500000E9    -4.760328200674660E-1   -2.159989458037153E-1   -1.268399818426703E-2    5.993977129479175E-2   -9.849730982862818E-3    5.910010691677085E-2   -5.035704460143743E-1   -1.570809520638743E-2
 6.502180786200000E9    -4.763662247271712E-1   -2.149235475417842E-1   -1.256149317560745E-2    6.049152462987658E-2   -9.730382074602355E-3    5.968344032619299E-2   -5.034020713710260E-1   -1.390907436241945E-2
 6.502192548900000E9    -4.768410492168637E-1   -2.138169171039293E-1   -1.250062540355775E-2    6.119847731407603E-2   -9.648896955132923E-3    6.020766369485827E-2   -5.031382191967461E-1   -1.219663010672293E-2
 6.502204311600000E9    -4.772672191125621E-1   -2.126165700400110E-1   -1.239666421148346E-2    6.173151534272460E-2   -9.607085844905642E-3    6.062737629215130E-2   -5.031732082176534E-1   -1.022456770339789E-2
 6.502216074300000E9    -4.775411022383319E-1   -2.116317035378275E-1   -1.224580587527961E-2    6.230456245741591E-2   -9.461994461318511E-3    6.132580121074630E-2   -5.029110840961274E-1   -8.562334616312483E-3
 6.502227837000000E9    -4.779711207745104E-1   -2.104437277003291E-1   -1.223057491026720E-2    6.279022495869292E-2   -9.384151730871863E-3    6.189631173643740E-2   -5.027472524123581E-1   -6.796220433708739E-3
