#  HZ   S   RI   R     50.00 
! Rohde & Schwarz Vector Network Analyzer 
! Rohde-Schwarz,ZNB20-2Port,1311601062101988,3.16
! Created: UTC 3/20/2024, 11:52:54 AM
! freq[Hz]                re:S11                  im:S11                  re:S21                  im:S21                  re:S12                  im:S12                  re:S22                  im:S22
 6.500814458000000E9    -4.200376137551693E-1   -3.175170107268176E-1   -1.504890162543483E-2    2.899939833481714E-2   -1.341277933464339E-2    2.911620868959404E-2   -4.856332268846977E-1   -1.664296114999922E-1
 6.500827362625000E9    -4.206423781858655E-1   -3.165710237979777E-1   -1.491428697138522E-2    2.905678029835745E-2   -1.337279558917602E-2    2.941075029962845E-2   -4.859927531554338E-1   -1.652929515628033E-1
 6.500840267250000E9    -4.213158146797125E-1   -3.157026808987523E-1   -1.512942907288500E-2    2.929813423546566E-2   -1.334204099856540E-2    2.950724174513958E-2   -4.862581427804045E-1   -1.641785567283477E-1
 6.500853171875000E9    -4.218623947662099E-1   -3.148635793916149E-1   -1.498888434205252E-2    2.942838072342798E-2   -1.337315265754190E-2    2.956060799697376E-2   -4.867732555190034E-1   -1.629865455446460E-1
 6.500866076500000E9    -4.224991820675214E-1   -3.140505058823043E-1   -1.515488181063692E-2    2.966744307035451E-2   -1.340375975881922E-2    2.985270397233900E-2   -4.871771619926725E-1   -1.616384001133336E-1
 6.500878981125000E9    -4.230646486185450E-1   -3.131640764634231E-1   -1.510063476833652E-2    2.980176762070458E-2   -1.335384883668343E-2    2.997046140038488E-2   -4.872608084328170E-1   -1.604420558145771E-1
 6.500891885750000E9    -4.236354756273967E-1   -3.122842958547430E-1   -1.500064616689444E-2    3.008904985973634E-2   -1.339213109619016E-2    3.016695713374767E-2   -4.876686588091408E-1   -1.593410554755398E-1
 6.500904790375000E9    -4.243207547830097E-1   -3.113863313818626E-1   -1.507123761335426E-2    3.024123276357878E-2   -1.331799584818141E-2    3.044640014460505E-2   -4.879642628233044E-1   -1.582221063215270E-1
 6.500917695000000E9    -4.249424254919372E-1   -3.105783261006518E-1   -1.494728689569625E-2    3.043920609884005E-2   -1.323426922244395E-2    3.051221737459116E-2   -4.882423746522140E-1   -1.569891020413608E-1
 6.500930599625000E9    -4.256050518247332E-1   -3.095732415920504E-1   -1.501878062687603E-2    3.071252641548530E-2   -1.333087898954846E-2    3.076330770169961E-2   -4.886068069858244E-1   -1.557796427119843E-1
 6.500943504250000E9    -4.260546593629828E-1   -3.088692987586801E-1   -1.509126472565043E-2    3.075486701698892E-2   -1.330523532939436E-2    3.095699959332375E-2   -4.889286515999807E-1   -1.545304912948065E-1
 6.500956408875000E9    -4.266606677594650E-1   -3.079043231150985E-1   -1.496651269650347E-2    3.111349938897038E-2   -1.331663049013767E-2    3.110330214727911E-2   -4.892264924355676E-1   -1.533455933743232E-1
 6.500969313500000E9    -4.274053032832602E-1   -3.070018979842000E-1   -1.514594835772056E-2    3.131402882091527E-2   -1.340842008050165E-2    3.141873682501097E-2   -4.893689538178203E-1   -1.520503580505927E-1
 6.500982218125000E9    -4.279659584795870E-1   -3.061761224156077E-1   -1.502946674616546E-2    3.133471134858628E-2   -1.340564529144268E-2    3.157629735894105E-2   -4.898604894882069E-1   -1.508520652099092E-1
 6.500995122750000E9    -4.285798024626154E-1   -3.051923329528001E-1   -1.508230411958938E-2    3.166297320782004E-2   -1.330963471849689E-2    3.170898547975481E-2   -4.901720206711428E-1   -1.495850255736146E-1
 6.501008027375000E9    -4.291236137377437E-1   -3.043382550299529E-1   -1.498419780296087E-2    3.181386591146550E-2   -1.326197133510021E-2    3.186704705560644E-2   -4.905081161791193E-1   -1.483431407363364E-1
 6.501020932000000E9    -4.297714526144943E-1   -3.034321228330222E-1   -1.510592794325653E-2    3.201601808104183E-2   -1.332463563700756E-2    3.217466137297350E-2   -4.906475889795135E-1   -1.470761043422838E-1
 6.501033836625000E9    -4.303109354727477E-1   -3.026320199630036E-1   -1.507796162043079E-2    3.223908899855040E-2   -1.332551461347798E-2    3.237118184992632E-2   -4.909167030037069E-1   -1.459363316215607E-1
 6.501046741250000E9    -4.309682697834424E-1   -3.016792761052515E-1   -1.506818671360223E-2    3.236957405044560E-2   -1.329258908879578E-2    3.258075559238759E-2   -4.912859591666944E-1   -1.445787766452401E-1
 6.501059645875000E9    -4.313822566393023E-1   -3.008428318780966E-1   -1.504400231728735E-2    3.270359469291094E-2   -1.329616424912401E-2    3.266286945232363E-2   -4.917157679679331E-1   -1.434169447125401E-1
 6.501072550500000E9    -4.321792963303389E-1   -2.998873082474635E-1   -1.509840176271499E-2    3.285026185415866E-2   -1.318522262313075E-2    3.302205368716708E-2   -4.919508666427089E-1   -1.422269826521075E-1
 6.501085455125000E9    -4.327053825025564E-1   -2.989140614989146E-1   -1.505037930527842E-2    3.315862258223939E-2   -1.327192320754566E-2    3.317050640423126E-2   -4.921297677788410E-1   -1.407912040883490E-1
 6.501098359750000E9    -4.333187670647584E-1   -2.980417022506393E-1   -1.513377385451402E-2    3.335102256541651E-2   -1.330277908057468E-2    3.329307323973082E-2   -4.924160365282897E-1   -1.396786755587268E-1
 6.501111264375000E9    -4.339674873916135E-1   -2.971800671117173E-1   -1.505868411711402E-2    3.349614934416092E-2   -1.327490228521079E-2    3.355885616546261E-2   -4.925766972995470E-1   -1.382319277151431E-1
 6.501124169000000E9    -4.344318823517933E-1   -2.962789641800888E-1   -1.502214237101746E-2    3.381890305170729E-2   -1.320975878077016E-2    3.378261526454415E-2   -4.929988348218127E-1   -1.369705412147152E-1
 6.501137073625000E9    -4.350053887705573E-1   -2.953651692721841E-1   -1.509356066733035E-2    3.386699702237563E-2   -1.329990733509362E-2    3.401345041630360E-2   -4.933195464853126E-1   -1.357074243715576E-1
 6.501149978250000E9    -4.356505633131518E-1   -2.944708164697263E-1   -1.506917196950814E-2    3.420508531240021E-2   -1.312942395667211E-2    3.415817583338771E-2   -4.934906204700676E-1   -1.344681413240556E-1
 6.501162882875000E9    -4.360907378182387E-1   -2.935326863759050E-1   -1.509535678768089E-2    3.440817998562636E-2   -1.312916131220921E-2    3.438196034703998E-2   -4.936810739171221E-1   -1.331902506885748E-1
 6.501175787500000E9    -4.368128384221536E-1   -2.926133480040210E-1   -1.513325207726129E-2    3.468648092417632E-2   -1.317514670230898E-2    3.465090618808704E-2   -4.940181968345859E-1   -1.318690848755586E-1
 6.501188692125000E9    -4.374259441580375E-1   -2.916794260369683E-1   -1.506620037211098E-2    3.500717340706205E-2   -1.308917359851407E-2    3.491522075053706E-2   -4.943142039448594E-1   -1.304633798230636E-1
 6.501201596750000E9    -4.379764452362628E-1   -2.908296420772011E-1   -1.495296969915384E-2    3.522060284739822E-2   -1.307892389941412E-2    3.509804871074532E-2   -4.944924352184181E-1   -1.292395660067182E-1
 6.501214501375000E9    -4.385992882350294E-1   -2.899134214871406E-1   -1.507767119406155E-2    3.559781192383048E-2   -1.305970844936307E-2    3.534591973220207E-2   -4.948046861905991E-1   -1.279729833150340E-1
 6.501227406000000E9    -4.391042883817455E-1   -2.889270465687264E-1   -1.510388842309611E-2    3.560458468349990E-2   -1.313108165168945E-2    3.562987846772188E-2   -4.949533270734192E-1   -1.266820437143518E-1
 6.501240310625000E9    -4.395070455644674E-1   -2.880105534107882E-1   -1.508537082572677E-2    3.591103718554525E-2   -1.313937516517146E-2    3.585033108566361E-2   -4.952373562350323E-1   -1.253212543971824E-1
 6.501253215250000E9    -4.401915891901015E-1   -2.870980606428653E-1   -1.504989694638269E-2    3.619663352537855E-2   -1.312948042790879E-2    3.606849728698396E-2   -4.954568475623379E-1   -1.238667226328042E-1
 6.501266119875000E9    -4.408294610108699E-1   -2.859931104912062E-1   -1.510996403103805E-2    3.634634330294481E-2   -1.311491843669730E-2    3.630644576635468E-2   -4.956282134745491E-1   -1.226139702824001E-1
 6.501279024500000E9    -4.413827845141864E-1   -2.851637668278715E-1   -1.498546787301838E-2    3.652818698880001E-2   -1.303851023989863E-2    3.645056839255480E-2   -4.958726775512944E-1   -1.213201707606687E-1
 6.501291929125000E9    -4.419477028482799E-1   -2.842326917694354E-1   -1.518525591355340E-2    3.688080535559728E-2   -1.313770702179232E-2    3.687260827527833E-2   -4.962332355752475E-1   -1.199690039340860E-1
 6.501304833750000E9    -4.424618616690407E-1   -2.833864155492519E-1   -1.497511801479354E-2    3.713834115965664E-2   -1.308192021336361E-2    3.710200691050356E-2   -4.963649873756659E-1   -1.185786642091220E-1
 6.501317738375000E9    -4.431033529338106E-1   -2.823714791439982E-1   -1.500355840780411E-2    3.733144375911336E-2   -1.301430628228651E-2    3.731858363617624E-2   -4.966278153237639E-1   -1.171076296356511E-1
 6.501330643000000E9    -4.436635803543868E-1   -2.813734513145747E-1   -1.503248602956326E-2    3.771859732555884E-2   -1.294519868399317E-2    3.754765651183691E-2   -4.968755516431793E-1   -1.158480549522954E-1
 6.501343547625000E9    -4.441867405806872E-1   -2.804669179821545E-1   -1.501396330206567E-2    3.800692902725222E-2   -1.292217202824312E-2    3.775183996468602E-2   -4.969952272052354E-1   -1.144559757696598E-1
 6.501356452250000E9    -4.447260533008370E-1   -2.795699488352800E-1   -1.502035056858622E-2    3.815547981933811E-2   -1.302745353349094E-2    3.818159590137064E-2   -4.971749299577441E-1   -1.132017244480677E-1
 6.501369356875000E9    -4.452490590878568E-1   -2.785818325722328E-1   -1.505064408656657E-2    3.850149234221299E-2   -1.299309262822628E-2    3.841538241553246E-2   -4.973628151717284E-1   -1.117048192803154E-1
 6.501382261500000E9    -4.458433485742143E-1   -2.775501288108025E-1   -1.493001144542385E-2    3.878083362581117E-2   -1.289489392044811E-2    3.873871868559738E-2   -4.977227198489962E-1   -1.104032418251830E-1
 6.501395166125000E9    -4.464556906032187E-1   -2.766290433288532E-1   -1.499139890006202E-2    3.915760799107559E-2   -1.290802248300337E-2    3.899635853455925E-2   -4.978791578348496E-1   -1.090136782649127E-1
 6.501408070750000E9    -4.469146288683248E-1   -2.756189105971490E-1   -1.480972790626131E-2    3.930364418385771E-2   -1.284714549204001E-2    3.924137953485674E-2   -4.979812876736093E-1   -1.075679447643975E-1
 6.501420975375000E9    -4.475544861138862E-1   -2.746436003216008E-1   -1.500706245695799E-2    3.963508085461601E-2   -1.276483519359326E-2    3.949621710364829E-2   -4.982707516215425E-1   -1.061989139624446E-1
 6.501433880000000E9    -4.478821507408707E-1   -2.738137420906164E-1   -1.502830765661633E-2    3.995233645278904E-2   -1.292789298433897E-2    3.974744769661245E-2   -4.984352419868046E-1   -1.048486673016403E-1
 6.501446784625000E9    -4.485544258018271E-1   -2.727852378394168E-1   -1.500693716553183E-2    4.016215544678384E-2   -1.283260757675393E-2    4.003811459439123E-2   -4.985462498096728E-1   -1.032784502173795E-1
 6.501459689250000E9    -4.490962117358791E-1   -2.717653826435056E-1   -1.487741090581496E-2    4.059783265834119E-2   -1.287093620623535E-2    4.033890694465982E-2   -4.986991353872943E-1   -1.020837884810980E-1
 6.501472593875000E9    -4.496195718445256E-1   -2.707642308428936E-1   -1.494463589011151E-2    4.088121085047762E-2   -1.279884732239041E-2    4.061253913208330E-2   -4.989761699233490E-1   -1.005873497436874E-1
 6.501485498500000E9    -4.502870278519572E-1   -2.697142338824648E-1   -1.474179501525035E-2    4.111804134161910E-2   -1.266748114581545E-2    4.096048460081164E-2   -4.990833860035645E-1   -9.912922663293831E-2
 6.501498403125000E9    -4.507262396528235E-1   -2.689025569517393E-1   -1.490381523806903E-2    4.151190503694042E-2   -1.277994587795462E-2    4.135428640385185E-2   -4.993396700082142E-1   -9.765000695497869E-2
 6.501511307750000E9    -4.513459937236819E-1   -2.678012451993186E-1   -1.478806644325532E-2    4.176420651227238E-2   -1.260581070189509E-2    4.149762916193667E-2   -4.995782698263990E-1   -9.615732475153120E-2
 6.501524212375000E9    -4.518154247796266E-1   -2.668206548109953E-1   -1.491391992703822E-2    4.203273551206810E-2   -1.273907067219643E-2    4.189975123678526E-2   -4.995751056454258E-1   -9.463405010713781E-2
 6.501537117000000E9    -4.523332350713349E-1   -2.658379165117532E-1   -1.485488727318929E-2    4.238151966418894E-2   -1.266366958340072E-2    4.229772036909595E-2   -4.997181617483171E-1   -9.331530022841693E-2
 6.501550021625000E9    -4.528689612234826E-1   -2.647831174977072E-1   -1.489466065411935E-2    4.273071306271829E-2   -1.266571984852051E-2    4.261665060135140E-2   -4.999192241083565E-1   -9.183405179072900E-2
 6.501562926250000E9    -4.534134699370229E-1   -2.638383670630527E-1   -1.469230052936344E-2    4.311944564624919E-2   -1.262480504376859E-2    4.280551130046493E-2   -5.001266905533616E-1   -9.034454497024695E-2
 6.501575830875000E9    -4.540559411860084E-1   -2.628559860329613E-1   -1.474544474687143E-2    4.353922857811576E-2   -1.251302555442937E-2    4.305686865471300E-2   -5.000972460456580E-1   -8.888633636690400E-2
 6.501588735500000E9    -4.544277281096762E-1   -2.618739532826874E-1   -1.476196999910517E-2    4.377495456668443E-2   -1.246201115508796E-2    4.349766911119211E-2   -5.003315204167325E-1   -8.741154393223098E-2
 6.501601640125000E9    -4.549896315722299E-1   -2.607975430362969E-1   -1.470474665988861E-2    4.402041211659866E-2   -1.244120107381502E-2    4.379131701885324E-2   -5.004734073410456E-1   -8.589025185866608E-2
 6.501614544750000E9    -4.556376040200172E-1   -2.598531611586612E-1   -1.463151082622103E-2    4.448685291175876E-2   -1.238531608993036E-2    4.426185548298100E-2   -5.005628097935528E-1   -8.431429750217412E-2
 6.501627449375000E9    -4.560242805506499E-1   -2.589016418534762E-1   -1.461582599730116E-2    4.496297387647189E-2   -1.225595984910262E-2    4.454497737133773E-2   -5.007689843440178E-1   -8.274277829626693E-2
 6.501640354000000E9    -4.566303221164218E-1   -2.577203803734939E-1   -1.457260168343204E-2    4.524530109347505E-2   -1.231717479688468E-2    4.485452084645510E-2   -5.008327593679481E-1   -8.138659500092117E-2
 6.501653258625000E9    -4.570650027340493E-1   -2.567778702056964E-1   -1.456923544413300E-2    4.563509778716460E-2   -1.233602100996928E-2    4.524921778382972E-2   -5.009526175694242E-1   -7.972178633021808E-2
 6.501666163250000E9    -4.576154133262380E-1   -2.556409582865347E-1   -1.461102022104163E-2    4.591041299638842E-2   -1.209871881759586E-2    4.559442104962018E-2   -5.009586368486842E-1   -7.818174204444751E-2
 6.501679067875000E9    -4.581106740000736E-1   -2.548322782994565E-1   -1.457121541552875E-2    4.628531750669114E-2   -1.213435399742179E-2    4.591104693637191E-2   -5.011674313895881E-1   -7.674320640729844E-2
 6.501691972500000E9    -4.586132969222758E-1   -2.536661372372248E-1   -1.453838175527927E-2    4.671516399760951E-2   -1.202992483397101E-2    4.631475957489493E-2   -5.012116125197785E-1   -7.520216270229592E-2
 6.501704877125000E9    -4.591431473809418E-1   -2.526310930303901E-1   -1.447640445028829E-2    4.713639528160133E-2   -1.208309160186975E-2    4.673808774041956E-2   -5.012794255693247E-1   -7.346453829637249E-2
 6.501717781750000E9    -4.595666657924986E-1   -2.515292832416055E-1   -1.450172373688841E-2    4.756006657842308E-2   -1.197347913891735E-2    4.702803540127836E-2   -5.015347889141487E-1   -7.192310842126516E-2
 6.501730686375000E9    -4.601113050023734E-1   -2.505355373735738E-1   -1.444213994078043E-2    4.794023786060547E-2   -1.204472611594563E-2    4.751698146809255E-2   -5.014720380796630E-1   -7.056740693949996E-2
 6.501743591000000E9    -4.606653052073081E-1   -2.494409026736681E-1   -1.438008717547171E-2    4.828912993040834E-2   -1.200077379422231E-2    4.787257979329207E-2   -5.015836580438708E-1   -6.869708659195324E-2
 6.501756495625000E9    -4.611896147977879E-1   -2.484334105923572E-1   -1.426202622851903E-2    4.871076583574444E-2   -1.187288229717990E-2    4.824427918593421E-2   -5.015561500998410E-1   -6.725631289110297E-2
 6.501769400250000E9    -4.616227417273098E-1   -2.473395227853428E-1   -1.427913262508135E-2    4.925521272590373E-2   -1.184089426344987E-2    4.857286666693052E-2   -5.017223103051127E-1   -6.548210423940200E-2
 6.501782304875000E9    -4.622175090946422E-1   -2.462797828624491E-1   -1.432373076200036E-2    4.959207902164530E-2   -1.184347055114913E-2    4.913382252711655E-2   -5.016524499470727E-1   -6.382390640277683E-2
 6.501795209500000E9    -4.626889529199650E-1   -2.452173484795317E-1   -1.414562197896862E-2    5.007177649536460E-2   -1.177836329344671E-2    4.953367119538366E-2   -5.016389612643839E-1   -6.219280652451460E-2
 6.501808114125000E9    -4.630811792818766E-1   -2.441543741981769E-1   -1.413483117326604E-2    5.036705349232112E-2   -1.162908014831603E-2    4.998742526268386E-2   -5.016857597760028E-1   -6.057679785115426E-2
 6.501821018750000E9    -4.636400942736953E-1   -2.430830779062272E-1   -1.406302733202580E-2    5.091715380027285E-2   -1.160437293106299E-2    5.038932602547661E-2   -5.017627508644159E-1   -5.891892351058099E-2
 6.501833923375000E9    -4.640698055743128E-1   -2.420191936600904E-1   -1.406679433831415E-2    5.140393644553630E-2   -1.155262790211626E-2    5.076953930730247E-2   -5.017602701695114E-1   -5.728081676025943E-2
 6.501846828000000E9    -4.645530007994410E-1   -2.409735239651647E-1   -1.397253905098690E-2    5.185390821256129E-2   -1.144090666154999E-2    5.129408315201955E-2   -5.018721368183358E-1   -5.557435729804632E-2
 6.501859732625000E9    -4.650608707765115E-1   -2.398996548648028E-1   -1.396877597414278E-2    5.230140853631495E-2   -1.136811680591087E-2    5.170127894815535E-2   -5.018700923160885E-1   -5.384247111230795E-2
 6.501872637250000E9    -4.654474424727773E-1   -2.388674933472650E-1   -1.393120467054821E-2    5.276891538946116E-2   -1.130606083116461E-2    5.214526329994089E-2   -5.019313989842417E-1   -5.224439937233184E-2
 6.501885541875000E9    -4.660598510323780E-1   -2.375214040935354E-1   -1.382509528624233E-2    5.319597154997643E-2   -1.114730516562254E-2    5.268066970276420E-2   -5.017881916399658E-1   -5.051244567099922E-2
 6.501898446500000E9    -4.664867514353093E-1   -2.365899902653738E-1   -1.367844764189422E-2    5.367547333958228E-2   -1.117324227292635E-2    5.302127542570915E-2   -5.019230028996707E-1   -4.856550817986487E-2
 6.501911351125000E9    -4.669352433517356E-1   -2.354214531248467E-1   -1.369758507588327E-2    5.415571645380148E-2   -1.113737060468020E-2    5.355548003856573E-2   -5.018149697689354E-1   -4.693519919036204E-2
 6.501924255750000E9    -4.674214673477058E-1   -2.342361701631599E-1   -1.369293372792672E-2    5.477459088064927E-2   -1.105407501605074E-2    5.410790568475951E-2   -5.019041338886203E-1   -4.521715476041425E-2
 6.501937160375000E9    -4.679688872138443E-1   -2.332481588021290E-1   -1.362323293718502E-2    5.521670038148641E-2   -1.087397179249419E-2    5.448916954192165E-2   -5.015663274674271E-1   -4.332276316129319E-2
 6.501950065000000E9    -4.683115503278395E-1   -2.321100589094895E-1   -1.339101363710555E-2    5.566545292409444E-2   -1.082395004431404E-2    5.506801238412808E-2   -5.018221076111959E-1   -4.155714929609658E-2
 6.501962969625000E9    -4.688574294311194E-1   -2.308271404972030E-1   -1.351666500481546E-2    5.611819941763881E-2   -1.078212121429246E-2    5.555236302283954E-2   -5.014818497865297E-1   -3.976947607437815E-2
 6.501975874250000E9    -4.693027977318855E-1   -2.297489990702053E-1   -1.321988093608526E-2    5.679744314803055E-2   -1.068512061785888E-2    5.600201997335037E-2   -5.016924617734593E-1   -3.804312492591413E-2
