#  HZ   S   RI   R     50.00 
! Rohde & Schwarz Vector Network Analyzer 
! Rohde-Schwarz,ZNB20-2Port,1311601062101988,3.16
! Created: UTC 3/20/2024, 11:53:39 AM
! freq[Hz]                re:S11                  im:S11                  re:S21                  im:S21                  re:S12                  im:S12                  re:S22                  im:S22
 6.500827458000000E9    -4.205784314982454E-1   -3.167284551447358E-1   -1.494825236300148E-2    2.908799528760493E-2   -1.333148129515356E-2    2.921025060718794E-2   -4.860650950678318E-1   -1.655885919355805E-1
 6.500840326075000E9    -4.210038142408363E-1   -3.158789509652898E-1   -1.502424716835809E-2    2.927837504232583E-2   -1.347880074963698E-2    2.933232857723920E-2   -4.864271591225423E-1   -1.643209815333085E-1
 6.500853194150000E9    -4.218607367872574E-1   -3.149818012043913E-1   -1.499141202962969E-2    2.950758377849569E-2   -1.334177797715248E-2    2.964438873723562E-2   -4.867495012563909E-1   -1.631774359861881E-1
 6.500866062225000E9    -4.224137046510193E-1   -3.142004601881246E-1   -1.507961683207887E-2    2.958842269643188E-2   -1.336979999710509E-2    2.974733518075263E-2   -4.870066315674605E-1   -1.620079606570866E-1
 6.500878930300000E9    -4.230255311077513E-1   -3.132164762277012E-1   -1.498530653713700E-2    2.982975110711098E-2   -1.335816342983912E-2    2.990180065448287E-2   -4.874068218552413E-1   -1.607677294970108E-1
 6.500891798375000E9    -4.235572102710150E-1   -3.124562417742082E-1   -1.499129735920727E-2    2.998376286919823E-2   -1.331802343714530E-2    3.013970994134387E-2   -4.875538086807348E-1   -1.595509015353186E-1
 6.500904666450000E9    -4.243067816188282E-1   -3.116092882181931E-1   -1.498656429156247E-2    3.016614447017440E-2   -1.333016203415323E-2    3.030518632452383E-2   -4.880761499900755E-1   -1.584533989578322E-1
 6.500917534525000E9    -4.248529884869166E-1   -3.107222976332249E-1   -1.511193212732748E-2    3.039884126208400E-2   -1.325209617551728E-2    3.044725438443820E-2   -4.884108772008146E-1   -1.572380633470960E-1
 6.500930402600000E9    -4.254463812332926E-1   -3.098474284560449E-1   -1.492683879958206E-2    3.048424500938282E-2   -1.334908767995576E-2    3.066265804610926E-2   -4.886158941791400E-1   -1.559767727284174E-1
 6.500943270675000E9    -4.260442544555159E-1   -3.088970998912079E-1   -1.509296719029216E-2    3.069865030183003E-2   -1.337025411619255E-2    3.092592917915875E-2   -4.888578532946371E-1   -1.546631759254529E-1
 6.500956138750000E9    -4.265868500131877E-1   -3.080746447650484E-1   -1.504573626063311E-2    3.093281266174382E-2   -1.328961611849936E-2    3.107396919020446E-2   -4.891681856397516E-1   -1.536120690414619E-1
 6.500969006825000E9    -4.272380650642035E-1   -3.071014709239853E-1   -1.512692703773892E-2    3.105598093919527E-2   -1.331865938322686E-2    3.119722511282174E-2   -4.896459130105358E-1   -1.522915093929610E-1
 6.500981874900000E9    -4.277892752947474E-1   -3.063265667335274E-1   -1.495706058980713E-2    3.134677370112147E-2   -1.327396334788438E-2    3.141399040305635E-2   -4.897761143147342E-1   -1.510085266144292E-1
 6.500994742975000E9    -4.283272093258665E-1   -3.054091685280402E-1   -1.503907832182558E-2    3.147381467897712E-2   -1.327500293608093E-2    3.159913644763097E-2   -4.902074490032926E-1   -1.500381458416141E-1
 6.501007611050000E9    -4.289541007604210E-1   -3.045310519260633E-1   -1.516421310916921E-2    3.173497442709841E-2   -1.333937271302406E-2    3.178492572815165E-2   -4.904007115984916E-1   -1.485375346623212E-1
 6.501020479125000E9    -4.295933039414158E-1   -3.036823132610499E-1   -1.506979869647997E-2    3.199688956307530E-2   -1.325828593077717E-2    3.205742128348362E-2   -4.907882759536618E-1   -1.474464253326293E-1
 6.501033347200000E9    -4.302826294864866E-1   -3.027580967247862E-1   -1.507086960217767E-2    3.227310947545835E-2   -1.320971613159916E-2    3.219725055352942E-2   -4.909840745796492E-1   -1.461317046948562E-1
 6.501046215275000E9    -4.307442255952631E-1   -3.018824982889707E-1   -1.505434648390170E-2    3.234411075124672E-2   -1.327958194695378E-2    3.245830766415465E-2   -4.913132176201017E-1   -1.448478962162923E-1
 6.501059083350000E9    -4.313406965372165E-1   -3.009415626346484E-1   -1.511894066507363E-2    3.254294064332565E-2   -1.319222533087031E-2    3.263564852187305E-2   -4.915418538775839E-1   -1.436621603012491E-1
 6.501071951425000E9    -4.319937993697629E-1   -3.000017594940194E-1   -1.501199936465034E-2    3.291914865244286E-2   -1.323819097550687E-2    3.287236618886966E-2   -4.918078121362979E-1   -1.424324068157301E-1
 6.501084819500000E9    -4.325862906324211E-1   -2.991846016911068E-1   -1.499786679249349E-2    3.293485271154421E-2   -1.325136393662533E-2    3.306602941574029E-2   -4.921652355598192E-1   -1.412811248198457E-1
 6.501097687575000E9    -4.331972615454067E-1   -2.984087606037479E-1   -1.512227477543702E-2    3.334373678850130E-2   -1.323034439836275E-2    3.316900851848514E-2   -4.923589808003100E-1   -1.397860874838425E-1
 6.501110555650000E9    -4.338431132819817E-1   -2.973496714337792E-1   -1.506133836281245E-2    3.331656918798487E-2   -1.330277783056230E-2    3.347312166600419E-2   -4.926814246576773E-1   -1.385860292015685E-1
 6.501123423725000E9    -4.344214912888941E-1   -2.964040448451359E-1   -1.503429325442197E-2    3.368796401846826E-2   -1.325533815975433E-2    3.365342604881183E-2   -4.929783491280067E-1   -1.373255178733015E-1
 6.501136291800000E9    -4.349196465531975E-1   -2.955062186746110E-1   -1.507584946685281E-2    3.398456046127477E-2   -1.319088158521518E-2    3.380357410113693E-2   -4.932157609064329E-1   -1.359956153914907E-1
 6.501149159875000E9    -4.355036735440485E-1   -2.947006575132896E-1   -1.496313645206157E-2    3.406867748943841E-2   -1.315660864733388E-2    3.417609568601904E-2   -4.934861968486509E-1   -1.345654704962332E-1
 6.501162027950000E9    -4.361159495913748E-1   -2.937219232436625E-1   -1.490851272135417E-2    3.439179930769344E-2   -1.311601898650657E-2    3.425468351173424E-2   -4.936102310016122E-1   -1.335845898672706E-1
 6.501174896025000E9    -4.366549687357613E-1   -2.928596200433795E-1   -1.513370164803114E-2    3.460357213403108E-2   -1.319401635595286E-2    3.458824150847302E-2   -4.938811048624226E-1   -1.320964602437590E-1
 6.501187764100000E9    -4.372761386114337E-1   -2.918267726863298E-1   -1.501419643516863E-2    3.475646483225844E-2   -1.317275066334285E-2    3.478697039297987E-2   -4.941722349182934E-1   -1.309095299296776E-1
 6.501200632175000E9    -4.378399062437640E-1   -2.910392300776622E-1   -1.513645910136996E-2    3.508081084083561E-2   -1.316589881239154E-2    3.495961708985575E-2   -4.943799127803294E-1   -1.296597716804679E-1
 6.501213500250000E9    -4.384023163521316E-1   -2.900133352417628E-1   -1.503988429604530E-2    3.540193645307849E-2   -1.311345567213712E-2    3.525786335917752E-2   -4.946842870832137E-1   -1.283195993166852E-1
 6.501226368325000E9    -4.389727905677841E-1   -2.892530244632361E-1   -1.500904363743590E-2    3.551115090763813E-2   -1.318563323621356E-2    3.549488603989599E-2   -4.949582303608802E-1   -1.269427421173387E-1
 6.501239236400000E9    -4.396096727865018E-1   -2.882308750488156E-1   -1.504617591683200E-2    3.565908014308146E-2   -1.312962822882112E-2    3.573605172155176E-2   -4.952999107402115E-1   -1.257627642303647E-1
 6.501252104475000E9    -4.401616790057140E-1   -2.872960006015703E-1   -1.500495259718984E-2    3.595393310307019E-2   -1.307305620680217E-2    3.600165222341910E-2   -4.954884873610845E-1   -1.243604195576077E-1
 6.501264972550000E9    -4.406324851719964E-1   -2.864001869678708E-1   -1.505766941247147E-2    3.638326712481725E-2   -1.304599110972458E-2    3.622011523978741E-2   -4.956459143320664E-1   -1.230151450850818E-1
 6.501277840625000E9    -4.412492738593039E-1   -2.854248776057555E-1   -1.502459216025212E-2    3.651868235350927E-2   -1.303111545503674E-2    3.647919667045944E-2   -4.958995497697911E-1   -1.217574631848847E-1
 6.501290708700000E9    -4.417579946528697E-1   -2.845131898540531E-1   -1.494323224748016E-2    3.679980604997591E-2   -1.311145330253208E-2    3.678776721056974E-2   -4.961728984912371E-1   -1.204102598253275E-1
 6.501303576775000E9    -4.423758010036140E-1   -2.835701641063386E-1   -1.496830858189582E-2    3.701083366763928E-2   -1.302580351118099E-2    3.695451018874271E-2   -4.965650018513288E-1   -1.189758487491022E-1
 6.501316444850000E9    -4.429737628735930E-1   -2.826031333313201E-1   -1.516047516152460E-2    3.728080815616296E-2   -1.303220406499790E-2    3.718527452457711E-2   -4.965285943153333E-1   -1.175879537470708E-1
 6.501329312925000E9    -4.434006849869823E-1   -2.816624809740873E-1   -1.494286166156530E-2    3.749918822907602E-2   -1.295518803613844E-2    3.747143420567120E-2   -4.968824869126999E-1   -1.163450401421896E-1
 6.501342181000000E9    -4.441097284029076E-1   -2.807642057618329E-1   -1.510544826028318E-2    3.782953484669842E-2   -1.294938709126271E-2    3.776131094675725E-2   -4.971216166065475E-1   -1.150461622706573E-1
 6.501355049075000E9    -4.445010885508846E-1   -2.797647536752528E-1   -1.494621778542320E-2    3.813342725322340E-2   -1.296463381816170E-2    3.800523342183161E-2   -4.972383455579413E-1   -1.135699667042157E-1
 6.501367917150000E9    -4.451584774726949E-1   -2.788449289740099E-1   -1.496009422815402E-2    3.838606423849279E-2   -1.290318993389109E-2    3.821138155129215E-2   -4.974014080102910E-1   -1.122803553778828E-1
 6.501380785225000E9    -4.456691785012233E-1   -2.778065543340011E-1   -1.508817018989959E-2    3.876691700182269E-2   -1.300446102909508E-2    3.844880637981145E-2   -4.977205604791636E-1   -1.109394879311231E-1
 6.501393653300000E9    -4.462689769360809E-1   -2.769860873936729E-1   -1.505366041137058E-2    3.893879424210507E-2   -1.287761457238822E-2    3.875013400617041E-2   -4.977892106764989E-1   -1.095369376854213E-1
 6.501406521375000E9    -4.468314766634237E-1   -2.759082768183320E-1   -1.506471142843421E-2    3.926891299731255E-2   -1.282091339892364E-2    3.905788413499137E-2   -4.980836047655688E-1   -1.080766582391732E-1
 6.501419389450000E9    -4.473027992606888E-1   -2.749834715358810E-1   -1.494005418980464E-2    3.943527260462403E-2   -1.294577088150077E-2    3.936025311565586E-2   -4.982487422537062E-1   -1.066204525539804E-1
 6.501432257525000E9    -4.478902020595344E-1   -2.740115321790881E-1   -1.488120746473729E-2    3.977761380809546E-2   -1.281897126631294E-2    3.960184102469515E-2   -4.982246098215286E-1   -1.053294389741866E-1
 6.501445125600000E9    -4.484581908838743E-1   -2.731324293589877E-1   -1.484051346716473E-2    4.000262423341498E-2   -1.285590737229556E-2    3.990617954342337E-2   -4.985776465072744E-1   -1.039012292672221E-1
 6.501457993675000E9    -4.490572846181059E-1   -2.720738273679470E-1   -1.493885511760925E-2    4.043935645351032E-2   -1.281221191841037E-2    4.029280469466884E-2   -4.988608314180493E-1   -1.023902128125131E-1
 6.501470861750000E9    -4.495816025733310E-1   -2.710846482770979E-1   -1.480370861272010E-2    4.064300360881345E-2   -1.273266320955748E-2    4.051674403864179E-2   -4.990017542415667E-1   -1.010756217187143E-1
 6.501483729825000E9    -4.501127104283819E-1   -2.702479918155563E-1   -1.496152433123430E-2    4.114216982663537E-2   -1.272750415482782E-2    4.083346698981276E-2   -4.991570725259120E-1   -9.957949205024809E-2
 6.501496597900000E9    -4.505313141003243E-1   -2.692238593637405E-1   -1.481375454388055E-2    4.130108861353831E-2   -1.265971321569095E-2    4.099813894800233E-2   -4.993759353161867E-1   -9.825439565725157E-2
 6.501509465975000E9    -4.510578517798178E-1   -2.682108539196102E-1   -1.485519620123832E-2    4.170282387013795E-2   -1.264547547634430E-2    4.138647450529492E-2   -4.994902885011406E-1   -9.676309494177074E-2
 6.501522334050000E9    -4.516492808714210E-1   -2.671654621380213E-1   -1.476643379388985E-2    4.195877855709779E-2   -1.271243481786816E-2    4.172767795540815E-2   -4.997134183047793E-1   -9.524608005095490E-2
 6.501535202125000E9    -4.522194502099406E-1   -2.662164611151163E-1   -1.474468880720429E-2    4.242029821422504E-2   -1.262953645913427E-2    4.211984217269916E-2   -4.999137721332367E-1   -9.389664895267960E-2
 6.501548070200000E9    -4.527360435798248E-1   -2.653115440205526E-1   -1.486136917851316E-2    4.249571621085857E-2   -1.266682849247269E-2    4.234763977996657E-2   -4.998412071294900E-1   -9.233813146206837E-2
 6.501560938275000E9    -4.533086496836861E-1   -2.642199536743632E-1   -1.482986063753636E-2    4.297865702656071E-2   -1.262810543042499E-2    4.258698836137276E-2   -5.001868431670289E-1   -9.093940149391803E-2
 6.501573806350000E9    -4.538203089962187E-1   -2.632055394899858E-1   -1.469922209128857E-2    4.332426735420546E-2   -1.260023666400267E-2    4.296778372903814E-2   -5.002968370346450E-1   -8.945355478025743E-2
 6.501586674425000E9    -4.543294597793862E-1   -2.622121386098645E-1   -1.469574175262328E-2    4.344811233908338E-2   -1.252192578684790E-2    4.332587174424295E-2   -5.004527999832930E-1   -8.803863609050916E-2
 6.501599542500000E9    -4.547619346680211E-1   -2.610945120436591E-1   -1.466852382576180E-2    4.389547865723831E-2   -1.249751088087241E-2    4.369148807211794E-2   -5.004858039649679E-1   -8.650679663315927E-2
 6.501612410575000E9    -4.554208994027245E-1   -2.602169981241975E-1   -1.473130311362786E-2    4.418977041638900E-2   -1.245258497459303E-2    4.398920358704220E-2   -5.006549523951030E-1   -8.489112129244740E-2
 6.501625278650000E9    -4.559416829015269E-1   -2.591816292648521E-1   -1.461993359204718E-2    4.456556449812381E-2   -1.242482845394590E-2    4.432128985145917E-2   -5.007121983516055E-1   -8.339302737843710E-2
 6.501638146725000E9    -4.564104211039179E-1   -2.582086996129584E-1   -1.460826819010078E-2    4.508593436958866E-2   -1.229616766347144E-2    4.459088999076911E-2   -5.008543782679622E-1   -8.196017036913592E-2
 6.501651014800000E9    -4.568697902202002E-1   -2.572104610074842E-1   -1.458826492524978E-2    4.538418730994420E-2   -1.240229904900533E-2    4.501235162763014E-2   -5.009291301487010E-1   -8.041225581597931E-2
 6.501663882875000E9    -4.574632627388177E-1   -2.561647247716625E-1   -1.459019921667768E-2    4.575373812494504E-2   -1.226278324852364E-2    4.537774108375213E-2   -5.010670793429473E-1   -7.882671041668718E-2
 6.501676750950000E9    -4.579067595352313E-1   -2.551018797602477E-1   -1.462387152302857E-2    4.608313511922898E-2   -1.221827118408430E-2    4.572667757056530E-2   -5.011207985034822E-1   -7.720816760591488E-2
 6.501689619025000E9    -4.584175302801155E-1   -2.541689919363163E-1   -1.459568773527199E-2    4.645972051325380E-2   -1.215965111008552E-2    4.609612313111274E-2   -5.013512521840287E-1   -7.572727383984250E-2
 6.501702487100000E9    -4.589253737862409E-1   -2.530236554933081E-1   -1.441671694466202E-2    4.688165740068898E-2   -1.217270633739854E-2    4.635197581824833E-2   -5.013603583238592E-1   -7.419584550303189E-2
 6.501715355175000E9    -4.595176836144753E-1   -2.520052580220542E-1   -1.437152457120251E-2    4.734975559363346E-2   -1.204221115331855E-2    4.684015615454552E-2   -5.014302279176144E-1   -7.262751176389023E-2
 6.501728223250000E9    -4.600202034061104E-1   -2.507894273959912E-1   -1.443252101257587E-2    4.771086438337330E-2   -1.200230032336581E-2    4.725722516619307E-2   -5.015379664620689E-1   -7.116512833437917E-2
 6.501741091325000E9    -4.604035454979889E-1   -2.499141531519523E-1   -1.446337496378951E-2    4.799262713230612E-2   -1.198514277539933E-2    4.769001526329657E-2   -5.015146007141262E-1   -6.950600712566757E-2
 6.501753959400000E9    -4.609970882309472E-1   -2.488072268932607E-1   -1.444352807110287E-2    4.845850064125085E-2   -1.192213541613593E-2    4.797109474513730E-2   -5.016838728888586E-1   -6.778229099727001E-2
 6.501766827475000E9    -4.613399403842586E-1   -2.478349200609930E-1   -1.427717678577552E-2    4.896702579972449E-2   -1.192448486310159E-2    4.842808064547621E-2   -5.017671867550766E-1   -6.615030560586904E-2
 6.501779695550000E9    -4.620228780409023E-1   -2.467233664052063E-1   -1.421789878794197E-2    4.921141780858621E-2   -1.177306673357917E-2    4.880611328172361E-2   -5.017184089084975E-1   -6.463961384367420E-2
 6.501792563625000E9    -4.625410684195506E-1   -2.456483367728379E-1   -1.423639356203405E-2    4.973798996376541E-2   -1.177934775263989E-2    4.922480015273809E-2   -5.017452599023542E-1   -6.291907371828141E-2
 6.501805431700000E9    -4.629534057160048E-1   -2.447092521202053E-1   -1.420073866725975E-2    5.019334737101382E-2   -1.174740063786849E-2    4.963507469228900E-2   -5.017927008657490E-1   -6.135095868322540E-2
 6.501818299775000E9    -4.635075804928463E-1   -2.434955509789505E-1   -1.409801215554808E-2    5.067625556229444E-2   -1.166134455445628E-2    5.000565600665849E-2   -5.019318127704858E-1   -5.974454841839792E-2
 6.501831167850000E9    -4.638036630784933E-1   -2.424731504619515E-1   -1.400905863429415E-2    5.101701551205447E-2   -1.157897806727621E-2    5.052543163159133E-2   -5.019855326811016E-1   -5.809525457658272E-2
 6.501844035925000E9    -4.643756599612740E-1   -2.412848405764770E-1   -1.409088521335692E-2    5.149887397267944E-2   -1.143496150190322E-2    5.089867302524154E-2   -5.020214922610552E-1   -5.628762722071056E-2
 6.501856904000000E9    -4.649598619326642E-1   -2.402173462303357E-1   -1.396046921601817E-2    5.194104562243330E-2   -1.139451293086893E-2    5.129217482232120E-2   -5.019356533242764E-1   -5.467620737110896E-2
 6.501869772075000E9    -4.653467229895233E-1   -2.392048475679714E-1   -1.393376384057804E-2    5.234992442092665E-2   -1.127598712582600E-2    5.176393016321038E-2   -5.019424236460819E-1   -5.299981487966084E-2
 6.501882640150000E9    -4.657990328329599E-1   -2.381304755996972E-1   -1.386070452862210E-2    5.284184523817019E-2   -1.130402634502815E-2    5.230379995876434E-2   -5.019903247401729E-1   -5.123016817795838E-2
 6.501895508225000E9    -4.663269564663213E-1   -2.370687135621625E-1   -1.377655565063773E-2    5.335792369095604E-2   -1.117265566647532E-2    5.283692332069703E-2   -5.019853030161636E-1   -4.962033050533251E-2
 6.501908376300000E9    -4.667470388455718E-1   -2.358200530018417E-1   -1.369662830180233E-2    5.373914874644836E-2   -1.116957939618205E-2    5.319869118086890E-2   -5.019099741006019E-1   -4.769375690875796E-2
 6.501921244375000E9    -4.673187046125755E-1   -2.347715247887405E-1   -1.358535013142937E-2    5.426136267893817E-2   -1.104718945037980E-2    5.360015390058234E-2   -5.017501295441519E-1   -4.597347148593173E-2
 6.501934112450000E9    -4.676518132811102E-1   -2.336842606091754E-1   -1.357465674120393E-2    5.472518367255954E-2   -1.106379541663462E-2    5.417811342776038E-2   -5.019450592556259E-1   -4.438114705025627E-2
 6.501946980525000E9    -4.681306112033621E-1   -2.324811420316931E-1   -1.360205187378795E-2    5.540447649134105E-2   -1.085044120043921E-2    5.468013890114215E-2   -5.018518978250373E-1   -4.256826405182829E-2
 6.501959848600000E9    -4.686061956815692E-1   -2.313328384173794E-1   -1.358170987786146E-2    5.595970448168678E-2   -1.079167844621362E-2    5.516169933478945E-2   -5.017023429971348E-1   -4.069383522353869E-2
 6.501972716675000E9    -4.691464053816290E-1   -2.302575837682182E-1   -1.331215019318383E-2    5.629587559040544E-2   -1.071932956191568E-2    5.571636002859136E-2   -5.016380896532842E-1   -3.893752498024947E-2
 6.501985584750000E9    -4.695846927762447E-1   -2.291448729371734E-1   -1.340196337089078E-2    5.680937746227909E-2   -1.059897224446661E-2    5.624708543741368E-2   -5.016663698133044E-1   -3.715870095657554E-2
