#  HZ   S   RI   R     50.00 
! Rohde & Schwarz Vector Network Analyzer 
! Rohde-Schwarz,ZNB20-2Port,1311601062101988,3.16
! Created: UTC 3/20/2024, 11:53:41 AM
! freq[Hz]                re:S11                  im:S11                  re:S21                  im:S21                  re:S12                  im:S12                  re:S22                  im:S22
 6.500830754000000E9    -4.207067764112689E-1   -3.165416021749448E-1   -1.498103514331962E-2    2.914760649642918E-2   -1.332022562948318E-2    2.925404418277903E-2   -4.860797849524003E-1   -1.652158612397012E-1
 6.500843607300000E9    -4.213495909374465E-1   -3.156230205097190E-1   -1.493305827647999E-2    2.912355015605047E-2   -1.330168620739714E-2    2.949094652278303E-2   -4.864692856783379E-1   -1.640616114033713E-1
 6.500856460600000E9    -4.219700318804524E-1   -3.148654981196682E-1   -1.510924207751448E-2    2.948463828812124E-2   -1.341514742126556E-2    2.960728387357559E-2   -4.867935875960909E-1   -1.629936473376855E-1
 6.500869313900000E9    -4.225890919899391E-1   -3.139604618919885E-1   -1.498569903585996E-2    2.984328734125266E-2   -1.330482330546426E-2    2.982580485564250E-2   -4.870480555991513E-1   -1.616302866696846E-1
 6.500882167200000E9    -4.231206991221647E-1   -3.130831905741415E-1   -1.494576228751384E-2    2.994644604206060E-2   -1.340255133734011E-2    2.996727813178967E-2   -4.873325828254519E-1   -1.605216143079200E-1
 6.500895020500000E9    -4.238115721063430E-1   -3.121690008180952E-1   -1.511343738200540E-2    3.007023605992673E-2   -1.322546826520035E-2    3.016174296136655E-2   -4.878101627193277E-1   -1.591453422029276E-1
 6.500907873800000E9    -4.244851231707197E-1   -3.112733919033709E-1   -1.500918039051413E-2    3.014666262965656E-2   -1.332370413624382E-2    3.046724009297198E-2   -4.880382086480783E-1   -1.581736649883857E-1
 6.500920727100000E9    -4.250521010284016E-1   -3.104587769140161E-1   -1.509326050981574E-2    3.032890426215476E-2   -1.332341114091241E-2    3.042736277830107E-2   -4.883569852767898E-1   -1.570515106845211E-1
 6.500933580400000E9    -4.255249671254747E-1   -3.095763992873609E-1   -1.507181786588639E-2    3.067509192929666E-2   -1.325630212874046E-2    3.063951024555364E-2   -4.888113533263207E-1   -1.555672090499451E-1
 6.500946433700000E9    -4.262589257368538E-1   -3.086979910028443E-1   -1.507300510539647E-2    3.079078253790653E-2   -1.329264368258426E-2    3.086598867656527E-2   -4.888817053372022E-1   -1.544450329547011E-1
 6.500959287000000E9    -4.268903264808315E-1   -3.078213379481970E-1   -1.497909400722513E-2    3.102778817902551E-2   -1.331557152124408E-2    3.106933829409453E-2   -4.892944558556526E-1   -1.532061778392070E-1
 6.500972140300000E9    -4.273735027036437E-1   -3.069339330498259E-1   -1.515855514971041E-2    3.131371219020312E-2   -1.335530693107956E-2    3.116724730478248E-2   -4.896330468646635E-1   -1.519401187209254E-1
 6.500984993600000E9    -4.280012251638833E-1   -3.060697575280792E-1   -1.511299610663355E-2    3.124618765129266E-2   -1.316978382313715E-2    3.142023516812948E-2   -4.898438213927346E-1   -1.507054982243821E-1
 6.500997846900000E9    -4.286156445501484E-1   -3.052703220698957E-1   -1.505535026208385E-2    3.162425480035967E-2   -1.327355775878129E-2    3.160727878602992E-2   -4.901589839642440E-1   -1.496063536264962E-1
 6.501010700200000E9    -4.291669110956428E-1   -3.043218966031357E-1   -1.499840107886340E-2    3.167447569895873E-2   -1.325880700584175E-2    3.187310287467920E-2   -4.904468917805820E-1   -1.483396444656475E-1
 6.501023553500000E9    -4.297700253854545E-1   -3.035767615578147E-1   -1.509564338399234E-2    3.203712451481856E-2   -1.322948553575681E-2    3.199196743297853E-2   -4.908464687967363E-1   -1.470412810319664E-1
 6.501036406800000E9    -4.302962960067051E-1   -3.025380923812123E-1   -1.503488906521148E-2    3.236236487351234E-2   -1.331453447018558E-2    3.224370152913437E-2   -4.910833855495786E-1   -1.457667035550866E-1
 6.501049260100000E9    -4.309896209529600E-1   -3.017183943823438E-1   -1.498918045119037E-2    3.242808485339185E-2   -1.323638729957440E-2    3.246412836596935E-2   -4.912945427107819E-1   -1.446350798125342E-1
 6.501062113400000E9    -4.315270333985095E-1   -3.008152510979294E-1   -1.497540581447492E-2    3.271182646109224E-2   -1.324535526255118E-2    3.259728461963578E-2   -4.915544637255877E-1   -1.434798280314385E-1
 6.501074966700000E9    -4.321323812542217E-1   -2.997991187775514E-1   -1.507277238302924E-2    3.277285555683704E-2   -1.328775588258635E-2    3.292162739408436E-2   -4.919928635217518E-1   -1.421940002238486E-1
 6.501087820000000E9    -4.327331307696959E-1   -2.989541702796784E-1   -1.508969426519771E-2    3.305041588662293E-2   -1.328773043037688E-2    3.317401354777379E-2   -4.922576913005025E-1   -1.407640256710548E-1
 6.501100673300000E9    -4.333321129839506E-1   -2.980072901646557E-1   -1.512858962288666E-2    3.332336580473946E-2   -1.321333580517669E-2    3.321242789983788E-2   -4.923816602637748E-1   -1.395539372322521E-1
 6.501113526600000E9    -4.338310192459303E-1   -2.971803632232459E-1   -1.499443506172852E-2    3.343625798520990E-2   -1.326306166793301E-2    3.345463179133606E-2   -4.927506146109165E-1   -1.383417387078321E-1
 6.501126379900000E9    -4.345236335368337E-1   -2.963091258721455E-1   -1.497153484424953E-2    3.372618361813406E-2   -1.320448240179365E-2    3.372613648616098E-2   -4.930483122643735E-1   -1.370341256268019E-1
 6.501139233200000E9    -4.349630052935595E-1   -2.953922097500968E-1   -1.500428545419477E-2    3.379467580142000E-2   -1.321602384014941E-2    3.399068226181196E-2   -4.932810104006601E-1   -1.357393162359444E-1
 6.501152086500000E9    -4.357158171805402E-1   -2.945153824047833E-1   -1.500879175283492E-2    3.399503509488287E-2   -1.321528846365939E-2    3.420303569146751E-2   -4.935679168435719E-1   -1.344972206848180E-1
 6.501164939800000E9    -4.361505294717458E-1   -2.935069536915392E-1   -1.511120048812245E-2    3.441424079611644E-2   -1.317955262132728E-2    3.434963243527667E-2   -4.937962785562615E-1   -1.332969353554560E-1
 6.501177793100000E9    -4.367358685002903E-1   -2.926008019059728E-1   -1.508606764118161E-2    3.457011535170260E-2   -1.323930829991831E-2    3.459832581845638E-2   -4.940601943946498E-1   -1.319550450324146E-1
 6.501190646400000E9    -4.373497712120874E-1   -2.916230142786062E-1   -1.509298106645454E-2    3.486198256178898E-2   -1.322493321963687E-2    3.482364121352323E-2   -4.943083685946890E-1   -1.306800731634918E-1
 6.501203499700000E9    -4.378517368804215E-1   -2.908229896637384E-1   -1.503691809348582E-2    3.515141384281268E-2   -1.318286615932733E-2    3.505085917908332E-2   -4.945333914138183E-1   -1.292860949626241E-1
 6.501216353000000E9    -4.384860914712521E-1   -2.898573834854111E-1   -1.509374379263770E-2    3.529089784631241E-2   -1.316497928731336E-2    3.525113862546853E-2   -4.948483062657515E-1   -1.280179458064324E-1
 6.501229206300000E9    -4.390921949361763E-1   -2.889219174482350E-1   -1.509728946234941E-2    3.568082637904576E-2   -1.321325330393284E-2    3.557068234699527E-2   -4.950254654168061E-1   -1.266955726924822E-1
 6.501242059600000E9    -4.396950867508687E-1   -2.880734014479353E-1   -1.510376641067068E-2    3.569894106651823E-2   -1.307361728919228E-2    3.581496802908047E-2   -4.952119247356062E-1   -1.253912325873903E-1
 6.501254912900000E9    -4.401952597366959E-1   -2.871715655933524E-1   -1.512746689167486E-2    3.597342846596892E-2   -1.314072059549848E-2    3.600149266261648E-2   -4.955419127117793E-1   -1.241017798296236E-1
 6.501267766200000E9    -4.408108314423845E-1   -2.862086767243485E-1   -1.501077705165483E-2    3.644050654008878E-2   -1.308452825885877E-2    3.618486740419567E-2   -4.957542332353220E-1   -1.227064178761868E-1
 6.501280619500000E9    -4.413529128643366E-1   -2.852037308880069E-1   -1.511228248787608E-2    3.653088859884814E-2   -1.300775553457086E-2    3.645381678053729E-2   -4.958976479789972E-1   -1.214183016598495E-1
 6.501293472800000E9    -4.420308316947082E-1   -2.843137717341797E-1   -1.498651927950641E-2    3.680794037434697E-2   -1.310941009534875E-2    3.673820878099325E-2   -4.961306596394845E-1   -1.200287061787092E-1
 6.501306326100000E9    -4.425817750882217E-1   -2.833563142054949E-1   -1.502498569533817E-2    3.711823948788686E-2   -1.302218276937730E-2    3.695759387833836E-2   -4.963692559785048E-1   -1.187813439594996E-1
 6.501319179400000E9    -4.429898008298358E-1   -2.824430497528014E-1   -1.501960441538551E-2    3.733547798653305E-2   -1.300550678594897E-2    3.722892195157809E-2   -4.966944920642106E-1   -1.173724739515252E-1
 6.501332032700000E9    -4.435365163628457E-1   -2.813669561978028E-1   -1.499274919807727E-2    3.759355363341870E-2   -1.301499321453309E-2    3.743713693268011E-2   -4.968405601566740E-1   -1.158739939479582E-1
 6.501344886000000E9    -4.442086602391370E-1   -2.806087970828575E-1   -1.499994599941627E-2    3.784352557154025E-2   -1.300575808387408E-2    3.770332048091259E-2   -4.970123860621374E-1   -1.146941863182266E-1
 6.501357739300000E9    -4.445816913011625E-1   -2.795886529144564E-1   -1.503874147057623E-2    3.802785899437172E-2   -1.299382556566895E-2    3.805112308445371E-2   -4.972453346698565E-1   -1.132268560192891E-1
 6.501370592600000E9    -4.452520391401348E-1   -2.787320125071534E-1   -1.488244003042457E-2    3.842888785109150E-2   -1.300831298650060E-2    3.835349417914273E-2   -4.974582287963734E-1   -1.120132779353576E-1
 6.501383445900000E9    -4.458165571628170E-1   -2.776776312421537E-1   -1.490734781504544E-2    3.856506370437878E-2   -1.303251899797185E-2    3.855452995376821E-2   -4.976483159348157E-1   -1.105385899659078E-1
 6.501396299200000E9    -4.463503764860983E-1   -2.767333124540201E-1   -1.501623263718331E-2    3.908081492233242E-2   -1.289531513459391E-2    3.884115642184190E-2   -4.978427451103801E-1   -1.092004317141390E-1
 6.501409152500000E9    -4.469184917290949E-1   -2.757888539741989E-1   -1.493560008269724E-2    3.928581122336332E-2   -1.292678751330948E-2    3.914744054711949E-2   -4.981495431215028E-1   -1.078008650321053E-1
 6.501422005800000E9    -4.474379505999622E-1   -2.747055843168767E-1   -1.490874616137841E-2    3.957129085408396E-2   -1.276840386148258E-2    3.932561945967283E-2   -4.982128743571492E-1   -1.065964891057045E-1
 6.501434859100000E9    -4.479644652576441E-1   -2.738211841801810E-1   -1.486489532663271E-2    3.995827083092113E-2   -1.281253645442761E-2    3.970475883959221E-2   -4.983865226603973E-1   -1.050435555034841E-1
 6.501447712400000E9    -4.485763717331362E-1   -2.728876102468951E-1   -1.498413132520996E-2    4.016569218262571E-2   -1.277908979562813E-2    3.996962988727308E-2   -4.985761257129024E-1   -1.036307341570426E-1
 6.501460565700000E9    -4.491109361573523E-1   -2.719020522582909E-1   -1.493101853324618E-2    4.041961681816691E-2   -1.278488928164990E-2    4.021040013652659E-2   -4.988810232889087E-1   -1.022353414196794E-1
 6.501473419000000E9    -4.496625927919385E-1   -2.708758416632496E-1   -1.501294194349012E-2    4.082785173699049E-2   -1.276912432150976E-2    4.048408421748486E-2   -4.990391780001805E-1   -1.009011381380233E-1
 6.501486272300000E9    -4.500937822615768E-1   -2.699037513165292E-1   -1.498076122450042E-2    4.099546779028291E-2   -1.276274648241575E-2    4.082780642469637E-2   -4.991598812158370E-1   -9.929905965469543E-2
 6.501499125600000E9    -4.507037020193461E-1   -2.690687403680672E-1   -1.484463219330046E-2    4.140631082582051E-2   -1.271266426118503E-2    4.118026884380004E-2   -4.992654041980017E-1   -9.802715739774173E-2
 6.501511978900000E9    -4.510969890516746E-1   -2.679868339268422E-1   -1.478156719962282E-2    4.168341381813322E-2   -1.269886256076679E-2    4.143980094851565E-2   -4.995530658170190E-1   -9.655541845406342E-2
 6.501524832200000E9    -4.518654820448673E-1   -2.670439514590292E-1   -1.482174077567982E-2    4.209966518341425E-2   -1.268200188644929E-2    4.170452160029357E-2   -4.995972826904640E-1   -9.499998626165553E-2
 6.501537685500000E9    -4.522947096393030E-1   -2.661937297941551E-1   -1.473103398695975E-2    4.233392957415157E-2   -1.267110927840421E-2    4.201648757614985E-2   -4.997392985136306E-1   -9.349020695314429E-2
 6.501550538800000E9    -4.528674734839946E-1   -2.650846993507136E-1   -1.475466791121069E-2    4.268368200240973E-2   -1.259343283030652E-2    4.238105734937442E-2   -4.999114811524731E-1   -9.230627343179727E-2
 6.501563392100000E9    -4.533967465763451E-1   -2.640358431880385E-1   -1.486922563836542E-2    4.299434944671409E-2   -1.251143051072017E-2    4.263263921790172E-2   -5.001250517492960E-1   -9.065500985195817E-2
 6.501576245400000E9    -4.539029449749635E-1   -2.630179805197265E-1   -1.471992309065567E-2    4.333144685202118E-2   -1.249842519281641E-2    4.301124594301159E-2   -5.001780532118399E-1   -8.934834378977069E-2
 6.501589098700000E9    -4.543562686624054E-1   -2.620185478671139E-1   -1.495958175952923E-2    4.363341042347057E-2   -1.244654115183742E-2    4.339909027243106E-2   -5.002969844470205E-1   -8.769578516284467E-2
 6.501601952000000E9    -4.549462229172118E-1   -2.611147331959637E-1   -1.463426515124986E-2    4.396883627579415E-2   -1.242174763613690E-2    4.373888811789155E-2   -5.005145743527974E-1   -8.625201165011609E-2
 6.501614805300000E9    -4.555268990002391E-1   -2.599818942995529E-1   -1.472700732329313E-2    4.426751413002223E-2   -1.240057216022220E-2    4.401072072379288E-2   -5.006590070984321E-1   -8.466736486308329E-2
 6.501627658600000E9    -4.560455972755505E-1   -2.589039730022178E-1   -1.447448271532336E-2    4.468864362122628E-2   -1.235367711542400E-2    4.437756575434965E-2   -5.007807156069227E-1   -8.319769939788130E-2
 6.501640511900000E9    -4.565327221769969E-1   -2.580230331964324E-1   -1.458407272032371E-2    4.509068299897747E-2   -1.233591891666923E-2    4.470466594016227E-2   -5.009721859446999E-1   -8.157478883463125E-2
 6.501653365200000E9    -4.570922118621594E-1   -2.569801695563722E-1   -1.473235444039312E-2    4.534983396043325E-2   -1.228973024329366E-2    4.504857429060608E-2   -5.009841285216398E-1   -8.013147467447304E-2
 6.501666218500000E9    -4.575363168182378E-1   -2.559165168670482E-1   -1.457965184967362E-2    4.590534819383647E-2   -1.228332150860412E-2    4.547025212097951E-2   -5.009969307078728E-1   -7.855019048457368E-2
 6.501679071800000E9    -4.580239390435441E-1   -2.548535948485892E-1   -1.459643531117633E-2    4.612155629525701E-2   -1.223422846335694E-2    4.584400875866933E-2   -5.012545335396460E-1   -7.710497861588440E-2
 6.501691925100000E9    -4.585304275784204E-1   -2.538610659593723E-1   -1.440740863138637E-2    4.654071296507450E-2   -1.219965109545945E-2    4.613890073814220E-2   -5.012228624992122E-1   -7.556449702022844E-2
 6.501704778400000E9    -4.591344927023824E-1   -2.527804469675565E-1   -1.449356946958813E-2    4.680797004524576E-2   -1.210825266374782E-2    4.654413643355695E-2   -5.013693824127647E-1   -7.408323070094544E-2
 6.501717631700000E9    -4.595035158405821E-1   -2.518546715155200E-1   -1.449812121908251E-2    4.721883396295853E-2   -1.214927719610948E-2    4.695316334714071E-2   -5.015007342812636E-1   -7.243927102902448E-2
 6.501730485000000E9    -4.600617989128951E-1   -2.507473062852039E-1   -1.440840489622316E-2    4.774011766614059E-2   -1.203726683685288E-2    4.731774501508394E-2   -5.016630114666500E-1   -7.082385366233959E-2
 6.501743338300000E9    -4.605366693119550E-1   -2.497592419125435E-1   -1.434314957821352E-2    4.799242080903344E-2   -1.195995705118438E-2    4.773786051086814E-2   -5.016680624041853E-1   -6.916936877425299E-2
 6.501756191600000E9    -4.610401207508112E-1   -2.486676965325932E-1   -1.445114923693416E-2    4.851145386299541E-2   -1.190344710920395E-2    4.802575279393396E-2   -5.017145417993641E-1   -6.761156338431773E-2
 6.501769044900000E9    -4.616325873376045E-1   -2.475725719444577E-1   -1.430143847243646E-2    4.886042481774653E-2   -1.189844305701617E-2    4.850195709837944E-2   -5.015373552639076E-1   -6.596454286431905E-2
 6.501781898200000E9    -4.620185509630404E-1   -2.466255213766736E-1   -1.420091591494715E-2    4.945796418187855E-2   -1.185801409480212E-2    4.877331856181669E-2   -5.018691543741464E-1   -6.445615543564127E-2
 6.501794751500000E9    -4.625876926912753E-1   -2.455174753272753E-1   -1.423616114882650E-2    4.980738411117901E-2   -1.177694679708725E-2    4.923164593297749E-2   -5.018520829993041E-1   -6.286840537520233E-2
 6.501807604800000E9    -4.630593284816125E-1   -2.444450089014663E-1   -1.411481879992335E-2    5.044225205584452E-2   -1.168929068575901E-2    4.974472901201485E-2   -5.018445005682843E-1   -6.118154652496499E-2
 6.501820458100000E9    -4.636091652619991E-1   -2.433565042855192E-1   -1.416812381216784E-2    5.059190999742530E-2   -1.159412798798507E-2    5.012075554383510E-2   -5.018646149813744E-1   -5.938276210997653E-2
 6.501833311400000E9    -4.640672456400018E-1   -2.422959898521940E-1   -1.399732514473771E-2    5.119127100260477E-2   -1.153656317457029E-2    5.056155222250523E-2   -5.019137366211792E-1   -5.772338664877073E-2
 6.501846164700000E9    -4.645174502841995E-1   -2.411105283775473E-1   -1.395215686774400E-2    5.155959450540674E-2   -1.149948978706993E-2    5.101175084964517E-2   -5.019676811856300E-1   -5.623956518894950E-2
 6.501859018000000E9    -4.649318360026224E-1   -2.401700707562675E-1   -1.399881773831529E-2    5.193505681122516E-2   -1.139249800510161E-2    5.143237693011156E-2   -5.019540884281394E-1   -5.442639429341039E-2
 6.501871871300000E9    -4.654784253342401E-1   -2.389667434421359E-1   -1.398234081452480E-2    5.248623091472537E-2   -1.134758864721894E-2    5.192141464517416E-2   -5.020066338884447E-1   -5.274583312426887E-2
 6.501884724600000E9    -4.659618973684241E-1   -2.380044482002344E-1   -1.393916965471736E-2    5.289847014516592E-2   -1.130089888941807E-2    5.234554643817362E-2   -5.019240395792604E-1   -5.097223606545689E-2
 6.501897577900000E9    -4.663525945291308E-1   -2.367770686607482E-1   -1.381135321941502E-2    5.342670182528068E-2   -1.122567390182280E-2    5.274701684460748E-2   -5.019591184520795E-1   -4.936166347708575E-2
 6.501910431200000E9    -4.668700162690144E-1   -2.356284905332951E-1   -1.376222402714956E-2    5.387534141885082E-2   -1.112937093922006E-2    5.331092065975316E-2   -5.018953104911811E-1   -4.746563641008059E-2
 6.501923284500000E9    -4.673635208800844E-1   -2.345079777757583E-1   -1.355900559585012E-2    5.445877042641605E-2   -1.110760302699181E-2    5.380569163168786E-2   -5.019670145934008E-1   -4.575398205307372E-2
 6.501936137800000E9    -4.677704371793823E-1   -2.335322056821440E-1   -1.362224409398197E-2    5.496904430361459E-2   -1.095273938306551E-2    5.425531795755439E-2   -5.020056490302811E-1   -4.405098779370076E-2
 6.501948991100000E9    -4.683132909671018E-1   -2.323751067770714E-1   -1.364186570434137E-2    5.546726607265001E-2   -1.080675885680412E-2    5.479265827133468E-2   -5.017761187012628E-1   -4.215718947026692E-2
 6.501961844400000E9    -4.686401294404082E-1   -2.312080802573717E-1   -1.343111591630346E-2    5.584387778816834E-2   -1.074635342185981E-2    5.531607901619934E-2   -5.018485778041177E-1   -4.054820098709917E-2
 6.501974697700000E9    -4.691658360075544E-1   -2.301694732218595E-1   -1.335767543332557E-2    5.643729004697517E-2   -1.075275961568640E-2    5.579993206349945E-2   -5.017600371555089E-1   -3.865431268589729E-2
 6.501987551000000E9    -4.696289997889483E-1   -2.289811199758526E-1   -1.327277000183095E-2    5.696171602413285E-2   -1.064247454117143E-2    5.633555115066920E-2   -5.015457856314370E-1   -3.689277404181440E-2
