#  HZ   S   RI   R     50.00 
! Rohde & Schwarz Vector Network Analyzer 
! Rohde-Schwarz,ZNB20-2Port,1311601062101988,3.16
! Created: UTC 3/20/2024, 11:53:44 AM
! freq[Hz]                re:S11                  im:S11                  re:S21                  im:S21                  re:S12                  im:S12                  re:S22                  im:S22
 6.500832790000000E9    -4.206871784678653E-1   -3.164715007158041E-1   -1.502800630014663E-2    2.914548391043203E-2   -1.340208706176203E-2    2.932808972115737E-2   -4.861667414974409E-1   -1.650468405853810E-1
 6.500845635600000E9    -4.213181897123278E-1   -3.155838496824498E-1   -1.504341513348763E-2    2.936215823592736E-2   -1.334884399709528E-2    2.944242637398142E-2   -4.864897632569288E-1   -1.639735976929759E-1
 6.500858481200000E9    -4.221166186065060E-1   -3.147702958287920E-1   -1.504081566304051E-2    2.941265095767509E-2   -1.337343341854356E-2    2.962577313771615E-2   -4.869160323643883E-1   -1.627951335883314E-1
 6.500871326800000E9    -4.226442026095634E-1   -3.138948096268926E-1   -1.494608256122336E-2    2.981350286558896E-2   -1.332426434485729E-2    2.981639702774664E-2   -4.871772832069896E-1   -1.614463277131995E-1
 6.500884172400000E9    -4.232638847780610E-1   -3.130762454029056E-1   -1.480302092227481E-2    2.993613664259857E-2   -1.342269205268662E-2    3.001454658750268E-2   -4.873657648434596E-1   -1.602761425234559E-1
 6.500897018000000E9    -4.237794792103186E-1   -3.121756450162884E-1   -1.491851876898168E-2    3.003878013362148E-2   -1.339812978259372E-2    3.021032029859959E-2   -4.878904140840800E-1   -1.591279026413209E-1
 6.500909863600000E9    -4.244929547293608E-1   -3.112251964495891E-1   -1.505140695616915E-2    3.029831799584953E-2   -1.337995966582129E-2    3.028045995325385E-2   -4.879609524882213E-1   -1.578322670522807E-1
 6.500922709200000E9    -4.251266384441538E-1   -3.103972234152905E-1   -1.508081885678426E-2    3.034109555836889E-2   -1.332472824870020E-2    3.061333364325285E-2   -4.884020995286130E-1   -1.566698570597488E-1
 6.500935554800000E9    -4.256535708162116E-1   -3.094957121982600E-1   -1.503220798549004E-2    3.059975599903862E-2   -1.333120484597813E-2    3.063423508886543E-2   -4.886184909953485E-1   -1.554345741747100E-1
 6.500948400400000E9    -4.262746996983182E-1   -3.086492118145502E-1   -1.515691094527826E-2    3.070728672965994E-2   -1.331440221624293E-2    3.099076297530166E-2   -4.889923862477960E-1   -1.543189873640668E-1
 6.500961246000000E9    -4.269519655637791E-1   -3.078226283739539E-1   -1.513001771885103E-2    3.096826443662578E-2   -1.330344275823195E-2    3.107337592317294E-2   -4.893878096825953E-1   -1.529620436277756E-1
 6.500974091600000E9    -4.274440231295654E-1   -3.068988569118860E-1   -1.502463719212693E-2    3.118825017131656E-2   -1.329800426068614E-2    3.133731093171784E-2   -4.897167538118516E-1   -1.519123525740398E-1
 6.500986937200000E9    -4.280925413473294E-1   -3.060446494159568E-1   -1.502808109931859E-2    3.143861980700668E-2   -1.328334049681729E-2    3.146683097006542E-2   -4.899662312898844E-1   -1.506321282180852E-1
 6.500999782800000E9    -4.286825034242377E-1   -3.051668969965541E-1   -1.509006180028695E-2    3.196133527322958E-2   -1.337596922754405E-2    3.162832068127400E-2   -4.901374539165297E-1   -1.493630908529969E-1
 6.501012628400000E9    -4.292770188481021E-1   -3.042846921805858E-1   -1.512609773964569E-2    3.194427073497513E-2   -1.331083324425635E-2    3.193237923699205E-2   -4.905538044683680E-1   -1.481504075918523E-1
 6.501025474000000E9    -4.298011246490257E-1   -3.034278678796606E-1   -1.502298592232218E-2    3.211591344481175E-2   -1.326121436678073E-2    3.212773906985231E-2   -4.908997248303267E-1   -1.469356080354451E-1
 6.501038319600000E9    -4.304789475509258E-1   -3.024914661888340E-1   -1.510976849423706E-2    3.233328815446896E-2   -1.334351402091759E-2    3.225387507344363E-2   -4.910407205024067E-1   -1.456652758450335E-1
 6.501051165200000E9    -4.309754548275273E-1   -3.015867893777376E-1   -1.506025207392107E-2    3.243067377985875E-2   -1.326896840450820E-2    3.250680119427009E-2   -4.913960874337351E-1   -1.445673326165145E-1
 6.501064010800000E9    -4.316017101219984E-1   -3.006900810682708E-1   -1.505897351161369E-2    3.269944677538132E-2   -1.325296467839530E-2    3.269120533326752E-2   -4.917702887388469E-1   -1.431964572675037E-1
 6.501076856400000E9    -4.321947922907898E-1   -2.998347480665974E-1   -1.501053516706542E-2    3.272365808504415E-2   -1.328869376568929E-2    3.286348288520458E-2   -4.919155340977355E-1   -1.418841769199784E-1
 6.501089702000000E9    -4.326927161602024E-1   -2.989509325749569E-1   -1.500159523808932E-2    3.320647935381396E-2   -1.330182454973181E-2    3.312864438205159E-2   -4.923655799345078E-1   -1.407356354534810E-1
 6.501102547600000E9    -4.334013393672591E-1   -2.979868707168120E-1   -1.511674708593596E-2    3.334212578940389E-2   -1.325803352887676E-2    3.338247210098628E-2   -4.924550618350197E-1   -1.393289309197366E-1
 6.501115393200000E9    -4.339351020126111E-1   -2.971271539540610E-1   -1.528537641078703E-2    3.350600237086167E-2   -1.328407361275458E-2    3.349018765387093E-2   -4.927431333504526E-1   -1.381384639884806E-1
 6.501128238800000E9    -4.345432436331588E-1   -2.962658211630613E-1   -1.502852351908539E-2    3.373949691737865E-2   -1.330964540229405E-2    3.375128481385493E-2   -4.931521358126084E-1   -1.368801465534850E-1
 6.501141084400000E9    -4.351576888688052E-1   -2.952540551755758E-1   -1.506404474239730E-2    3.395041907550386E-2   -1.320140664407953E-2    3.394863290108919E-2   -4.933439752958464E-1   -1.355605146698172E-1
 6.501153930000000E9    -4.356613174255804E-1   -2.942900998627743E-1   -1.503906422486719E-2    3.410138320916488E-2   -1.328097637655989E-2    3.419609835183149E-2   -4.936441095713560E-1   -1.343359092000850E-1
 6.501166775600000E9    -4.363059813514574E-1   -2.934982840898520E-1   -1.508616555436257E-2    3.436974618639968E-2   -1.316902810710721E-2    3.441627233279875E-2   -4.937690899730341E-1   -1.330180930130884E-1
 6.501179621200000E9    -4.369033581760339E-1   -2.926506506006660E-1   -1.503948606144123E-2    3.463909471167882E-2   -1.323843070808565E-2    3.459117524074159E-2   -4.940086724490846E-1   -1.318535481354973E-1
 6.501192466800000E9    -4.373918409475699E-1   -2.916676710181266E-1   -1.515306948826425E-2    3.493045702675700E-2   -1.313024042682952E-2    3.485465491190197E-2   -4.943460356976461E-1   -1.305209626586086E-1
 6.501205312400000E9    -4.380005114502730E-1   -2.908044040855928E-1   -1.506926751265804E-2    3.516753026451486E-2   -1.313648085225593E-2    3.515135688937356E-2   -4.946618521979040E-1   -1.292007607116721E-1
 6.501218158000000E9    -4.386087548479892E-1   -2.897608348938071E-1   -1.498161561138467E-2    3.545148204773509E-2   -1.316289768843839E-2    3.528753668286297E-2   -4.948701565113949E-1   -1.278055909370943E-1
 6.501231003600000E9    -4.392173080694051E-1   -2.888296635635192E-1   -1.511059446597059E-2    3.560547391610686E-2   -1.314828732534611E-2    3.548851793973719E-2   -4.950912961364003E-1   -1.265632184289266E-1
 6.501243849200000E9    -4.396720355256949E-1   -2.878995970571301E-1   -1.505706541000179E-2    3.577453019314493E-2   -1.316822371800745E-2    3.579540291753750E-2   -4.952785384307871E-1   -1.252454337250357E-1
 6.501256694800000E9    -4.402820702646311E-1   -2.871127900617395E-1   -1.499009156405485E-2    3.610300870252799E-2   -1.301351611045126E-2    3.606602265235558E-2   -4.955777810920634E-1   -1.239836789445927E-1
 6.501269540400000E9    -4.408973323856995E-1   -2.861010802615761E-1   -1.504260618775732E-2    3.641831317321876E-2   -1.316376318019652E-2    3.629342678711761E-2   -4.956237977639963E-1   -1.225195152659368E-1
 6.501282386000000E9    -4.414336158857401E-1   -2.850960777661703E-1   -1.505950132135049E-2    3.647466709180977E-2   -1.308149498606495E-2    3.643869862138510E-2   -4.958944302371984E-1   -1.212931719160327E-1
 6.501295231600000E9    -4.419467818086890E-1   -2.841703730044556E-1   -1.511050079320162E-2    3.675253429769085E-2   -1.295972732957372E-2    3.680454351068150E-2   -4.963199105715733E-1   -1.200441712494831E-1
 6.501308077200000E9    -4.424732983457990E-1   -2.833128371424987E-1   -1.503104973363269E-2    3.711112165880792E-2   -1.307840553452664E-2    3.699284670015603E-2   -4.964402067060369E-1   -1.186439906013041E-1
 6.501320922800000E9    -4.431003330579258E-1   -2.823804116559717E-1   -1.516225125883988E-2    3.729005824755544E-2   -1.300456496701794E-2    3.722609563229995E-2   -4.967617178820197E-1   -1.173751967881242E-1
 6.501333768400000E9    -4.437203863866798E-1   -2.813498305719504E-1   -1.506696643660764E-2    3.756903315786232E-2   -1.297371014881110E-2    3.752576757942247E-2   -4.968582167956928E-1   -1.159490810078239E-1
 6.501346614000000E9    -4.442113543281503E-1   -2.804354261693485E-1   -1.512066994847552E-2    3.795478109304549E-2   -1.291338049731524E-2    3.784207574476701E-2   -4.970832812286953E-1   -1.146222016275154E-1
 6.501359459600000E9    -4.447852419712896E-1   -2.794941997539857E-1   -1.499423714028053E-2    3.823910894696499E-2   -1.297768442645405E-2    3.807039411842724E-2   -4.974180511126730E-1   -1.131606402005774E-1
 6.501372305200000E9    -4.452631037277208E-1   -2.785747016698409E-1   -1.501874744325184E-2    3.850771901348666E-2   -1.295339485072149E-2    3.826832011089321E-2   -4.974971359342549E-1   -1.119349506935399E-1
 6.501385150800000E9    -4.458886364747883E-1   -2.777018852308750E-1   -1.495190258872407E-2    3.871686161687459E-2   -1.284538773111553E-2    3.862198874079215E-2   -4.978063865168258E-1   -1.104248041947126E-1
 6.501397996400000E9    -4.464403617789065E-1   -2.766286674152377E-1   -1.495339211036200E-2    3.901726648303150E-2   -1.291415668066377E-2    3.873207231592470E-2   -4.979180159192230E-1   -1.090572474827890E-1
 6.501410842000000E9    -4.470452235186930E-1   -2.757202633570899E-1   -1.501914648747995E-2    3.930953898475435E-2   -1.285572009032320E-2    3.908643869623678E-2   -4.982108422390704E-1   -1.076033023411386E-1
 6.501423687600000E9    -4.474325652282708E-1   -2.747387333001524E-1   -1.483233404151130E-2    3.960513163073363E-2   -1.272718018304323E-2    3.942397296811487E-2   -4.983442564291214E-1   -1.062858504712837E-1
 6.501436533200000E9    -4.479925178077495E-1   -2.737696886127051E-1   -1.498024008177199E-2    3.990091728497870E-2   -1.280485062896841E-2    3.978510193300694E-2   -4.985109276969633E-1   -1.049224725471866E-1
 6.501449378800000E9    -4.486019654470797E-1   -2.727844388635067E-1   -1.490791648498921E-2    4.008307359629779E-2   -1.277991265869789E-2    3.998027275468218E-2   -4.986949668059045E-1   -1.033526084446380E-1
 6.501462224400000E9    -4.490576174401180E-1   -2.719090425323457E-1   -1.491730251695711E-2    4.043079514255883E-2   -1.286182995608159E-2    4.028327361145402E-2   -4.987796166909553E-1   -1.020834414811281E-1
 6.501475070000000E9    -4.496791702640205E-1   -2.708813600623738E-1   -1.494501056946039E-2    4.085120338585771E-2   -1.279881023767640E-2    4.052723441910109E-2   -4.990285163928781E-1   -1.006220741152212E-1
 6.501487915600000E9    -4.502895758237757E-1   -2.698308595176908E-1   -1.491647169502274E-2    4.097521347454270E-2   -1.274147225881627E-2    4.086028678883693E-2   -4.992399813011887E-1   -9.923471358958459E-2
 6.501500761200000E9    -4.506544256705081E-1   -2.689029681509962E-1   -1.480154201238393E-2    4.139455078344541E-2   -1.268715017030540E-2    4.109347278282443E-2   -4.993233839071042E-1   -9.769790350923301E-2
 6.501513606800000E9    -4.512989208158311E-1   -2.679717448803355E-1   -1.495180420584814E-2    4.166754813171276E-2   -1.277676020059570E-2    4.144746425451242E-2   -4.995810860423812E-1   -9.629959566409178E-2
 6.501526452400000E9    -4.517941333462789E-1   -2.670246807158738E-1   -1.478463240899358E-2    4.212024131826954E-2   -1.261793012451673E-2    4.182164553340453E-2   -4.997945784307797E-1   -9.496154267787786E-2
 6.501539298000000E9    -4.523023206992354E-1   -2.659944307243563E-1   -1.478671079122906E-2    4.236773941352232E-2   -1.265799512778140E-2    4.220996409365409E-2   -4.998403203447566E-1   -9.339332810613735E-2
 6.501552143600000E9    -4.529598593580185E-1   -2.649354581728285E-1   -1.467849969861941E-2    4.270105743295113E-2   -1.260884540286952E-2    4.246719526158083E-2   -5.000135229628190E-1   -9.209959066434710E-2
 6.501564989200000E9    -4.533958878171366E-1   -2.639802889850573E-1   -1.474023146381626E-2    4.287761966421168E-2   -1.267044561238577E-2    4.276255007773339E-2   -5.000626196431952E-1   -9.056287400269764E-2
 6.501577834800000E9    -4.539306201544235E-1   -2.629129147881958E-1   -1.475424485699302E-2    4.344917687467525E-2   -1.263234725533676E-2    4.312040205454581E-2   -5.003324350618679E-1   -8.910354688679213E-2
 6.501590680400000E9    -4.544754375401057E-1   -2.619074462818768E-1   -1.482441805806162E-2    4.370100396644279E-2   -1.242064965804531E-2    4.343386096577796E-2   -5.003996762957375E-1   -8.758563089874560E-2
 6.501603526000000E9    -4.549807656213052E-1   -2.609661713053843E-1   -1.470831286846207E-2    4.406195390237883E-2   -1.236692051629359E-2    4.372435166449685E-2   -5.006516894249147E-1   -8.605791634393382E-2
 6.501616371600000E9    -4.555855642628525E-1   -2.598602163367623E-1   -1.474087752408052E-2    4.432557361109656E-2   -1.240468759632446E-2    4.401820299634962E-2   -5.005676268557770E-1   -8.455085984023625E-2
 6.501629217200000E9    -4.561173703962952E-1   -2.589496616035040E-1   -1.468511031386362E-2    4.474007239236338E-2   -1.241301115505161E-2    4.438411434915019E-2   -5.008122322646084E-1   -8.308187822063283E-2
 6.501642062800000E9    -4.564973601650692E-1   -2.578590861919061E-1   -1.461137971818465E-2    4.502734241738383E-2   -1.226245354642500E-2    4.471579958726349E-2   -5.008989348585379E-1   -8.163718023986398E-2
 6.501654908400000E9    -4.571073106869617E-1   -2.569065022943133E-1   -1.463028672160700E-2    4.538001099439352E-2   -1.225922329321928E-2    4.511724244278306E-2   -5.010164509171333E-1   -7.987531899486935E-2
 6.501667754000000E9    -4.575755281018287E-1   -2.559797100157748E-1   -1.453226102519154E-2    4.573207711238257E-2   -1.228856970919469E-2    4.549226191335718E-2   -5.010713642356941E-1   -7.836900119647777E-2
 6.501680599600000E9    -4.580546331129392E-1   -2.548423173445194E-1   -1.459324334443519E-2    4.613814780170083E-2   -1.228371313484182E-2    4.587739368881164E-2   -5.013177298435387E-1   -7.682526478876517E-2
 6.501693445200000E9    -4.586786094946674E-1   -2.537102630555587E-1   -1.454022514719401E-2    4.651820438642097E-2   -1.206438922742532E-2    4.624144953506589E-2   -5.013760756839325E-1   -7.537245397481779E-2
 6.501706290800000E9    -4.591373485723527E-1   -2.528081103814401E-1   -1.449275778859788E-2    4.697647983925171E-2   -1.211298269531302E-2    4.656379867230486E-2   -5.013353550145805E-1   -7.374665117718231E-2
 6.501719136400000E9    -4.596449830752953E-1   -2.517400166104652E-1   -1.448368270010246E-2    4.742321106453849E-2   -1.211249416498465E-2    4.694581505586842E-2   -5.014197265286069E-1   -7.215873837922071E-2
 6.501731982000000E9    -4.601439287536367E-1   -2.507869737191100E-1   -1.445370818127150E-2    4.776337569736991E-2   -1.205660895201206E-2    4.730369237056796E-2   -5.013694822360202E-1   -7.062551155495306E-2
 6.501744827600000E9    -4.606410851676977E-1   -2.496147641294171E-1   -1.442062061346094E-2    4.806580960017722E-2   -1.195177586391002E-2    4.778141589721704E-2   -5.015425738580037E-1   -6.904774932512633E-2
 6.501757673200000E9    -4.611549843620474E-1   -2.485931363345643E-1   -1.433059145753286E-2    4.865616691641324E-2   -1.197093054439782E-2    4.810054998423873E-2   -5.017033487278862E-1   -6.751328898961698E-2
 6.501770518800000E9    -4.615763321192078E-1   -2.475497865868438E-1   -1.431507296590189E-2    4.895396195494418E-2   -1.185119343515471E-2    4.851786040688936E-2   -5.016932169148141E-1   -6.590801063827934E-2
 6.501783364400000E9    -4.620343131549398E-1   -2.463798635151418E-1   -1.428383685883123E-2    4.948683678931039E-2   -1.177720629753437E-2    4.899851133258058E-2   -5.016731019754299E-1   -6.421087098128818E-2
 6.501796210000000E9    -4.625860098846673E-1   -2.454349543933271E-1   -1.426654930199771E-2    4.980133121482698E-2   -1.163714389976184E-2    4.932158611359373E-2   -5.019026350177580E-1   -6.266681040778725E-2
 6.501809055600000E9    -4.630913679265391E-1   -2.443634922391551E-1   -1.423187422826126E-2    5.015384465342168E-2   -1.174393658821924E-2    4.966575757117523E-2   -5.018060699773487E-1   -6.092925239827021E-2
 6.501821901200000E9    -4.635269193828256E-1   -2.433889567980146E-1   -1.403888001774266E-2    5.073282568411454E-2   -1.168918108082817E-2    5.018386639806446E-2   -5.017660939624138E-1   -5.925852777142034E-2
 6.501834746800000E9    -4.640523469240871E-1   -2.422431241452612E-1   -1.405954483059118E-2    5.122723642812597E-2   -1.154629712014881E-2    5.060992721296136E-2   -5.019270395471297E-1   -5.759428827516433E-2
 6.501847592400000E9    -4.644718171271969E-1   -2.411653819130718E-1   -1.405809169779164E-2    5.161837206137365E-2   -1.144099707655448E-2    5.100496542570009E-2   -5.019655818274180E-1   -5.601172622336315E-2
 6.501860438000000E9    -4.649915943110076E-1   -2.400581398883081E-1   -1.391777144038096E-2    5.203519720538597E-2   -1.146522505384873E-2    5.145556582149453E-2   -5.019325316467146E-1   -5.427552338878063E-2
 6.501873283600000E9    -4.654920979022101E-1   -2.389058628021790E-1   -1.393735987704338E-2    5.251341952167152E-2   -1.138678132138493E-2    5.192244058575712E-2   -5.019602975605513E-1   -5.257069370570569E-2
 6.501886129200000E9    -4.660405313981565E-1   -2.377751644260322E-1   -1.386148266380554E-2    5.301541185450867E-2   -1.126244710088903E-2    5.240255923304212E-2   -5.020472921340343E-1   -5.089297432421853E-2
 6.501898974800000E9    -4.665291829442335E-1   -2.368427640526549E-1   -1.382455131882268E-2    5.344196797586288E-2   -1.122373936565888E-2    5.274371599545589E-2   -5.019138740928881E-1   -4.907441224356273E-2
 6.501911820400000E9    -4.669945045795788E-1   -2.356207102215526E-1   -1.373604295332818E-2    5.394917546409379E-2   -1.120363814891925E-2    5.332884664044469E-2   -5.018818681119357E-1   -4.743274118104304E-2
 6.501924666000000E9    -4.674496245823350E-1   -2.345088931621323E-1   -1.369165025901827E-2    5.454687127218831E-2   -1.104428159129901E-2    5.379580587417435E-2   -5.019392416706283E-1   -4.570831559388093E-2
 6.501937511600000E9    -4.677169868085381E-1   -2.334036294119211E-1   -1.369693065372930E-2    5.492141752154726E-2   -1.098754582414720E-2    5.430480410466503E-2   -5.018547704656182E-1   -4.390100614623933E-2
 6.501950357200000E9    -4.683517181997914E-1   -2.323598343380128E-1   -1.356297748283062E-2    5.554528188711736E-2   -1.089808082603669E-2    5.479273981450411E-2   -5.017145724221638E-1   -4.222484699471975E-2
 6.501963202800000E9    -4.687834537041438E-1   -2.311871479433964E-1   -1.354293840837414E-2    5.594046080266064E-2   -1.079817757678044E-2    5.520089622153531E-2   -5.019553852395541E-1   -4.018663288506045E-2
 6.501976048400000E9    -4.692709818115418E-1   -2.300885308976290E-1   -1.333129550215923E-2    5.655452040401804E-2   -1.066665106443449E-2    5.581887437675239E-2   -5.017087332946336E-1   -3.846841067103833E-2
 6.501988894000000E9    -4.696297340725720E-1   -2.289431047486243E-1   -1.324710336854046E-2    5.702573001278962E-2   -1.061352680098597E-2    5.629762622806730E-2   -5.016388351229416E-1   -3.666571154896756E-2
