#  HZ   S   RI   R     50.00 
! Rohde & Schwarz Vector Network Analyzer 
! Rohde-Schwarz,ZNB20-2Port,1311601062101988,3.16
! Created: UTC 3/20/2024, 11:53:58 AM
! freq[Hz]                re:S11                  im:S11                  re:S21                  im:S21                  re:S12                  im:S12                  re:S22                  im:S22
 6.500840243000000E9    -4.210509066851987E-1   -3.160698072020340E-1   -1.492073081314502E-2    2.920394552146275E-2   -1.338126680115168E-2    2.934007308246524E-2   -4.863623276964212E-1   -1.644659307153694E-1
 6.500853063425000E9    -4.217822135378545E-1   -3.151379741076230E-1   -1.508682424143897E-2    2.938415472418816E-2   -1.335662031812480E-2    2.949353222197343E-2   -4.867699486348576E-1   -1.633026245740024E-1
 6.500865883850000E9    -4.222841722550156E-1   -3.142349373386816E-1   -1.509308507836609E-2    2.962201798596781E-2   -1.331531467964007E-2    2.970779639704053E-2   -4.870338973189595E-1   -1.621167566750262E-1
 6.500878704275000E9    -4.230026634109980E-1   -3.134352484078466E-1   -1.505958318025536E-2    2.979854571263063E-2   -1.333224768218441E-2    2.996577315245754E-2   -4.873327144903408E-1   -1.609305103194657E-1
 6.500891524700000E9    -4.234788550251165E-1   -3.125264450974089E-1   -1.508470180085596E-2    3.007018789162408E-2   -1.342884784134905E-2    3.008722999555488E-2   -4.877084985601403E-1   -1.598330044723415E-1
 6.500904345125000E9    -4.241023224491487E-1   -3.117377122537784E-1   -1.502574824982335E-2    3.019515427169344E-2   -1.331631694659026E-2    3.017791958778157E-2   -4.880222568429685E-1   -1.585619948749738E-1
 6.500917165550000E9    -4.247014494175281E-1   -3.108328935503230E-1   -1.500150020515860E-2    3.037994817698965E-2   -1.340353462670056E-2    3.049969145886226E-2   -4.882731538961043E-1   -1.572915420289537E-1
 6.500929985975000E9    -4.253039976912223E-1   -3.100538414948045E-1   -1.501526102120911E-2    3.050960123054995E-2   -1.342775466791900E-2    3.065811929902050E-2   -4.885323420638770E-1   -1.561026442939394E-1
 6.500942806400000E9    -4.259265427433626E-1   -3.090722367935088E-1   -1.497260367651015E-2    3.075065153932019E-2   -1.336709309485391E-2    3.084782847589861E-2   -4.888460979332266E-1   -1.548433785688645E-1
 6.500955626825000E9    -4.265284090832798E-1   -3.082877473435841E-1   -1.510091507386271E-2    3.084948427689953E-2   -1.342193532582726E-2    3.100606415166410E-2   -4.891559747362547E-1   -1.537064847479795E-1
 6.500968447250000E9    -4.271839766493539E-1   -3.073347798926501E-1   -1.509873651600000E-2    3.107822504704303E-2   -1.344605333025000E-2    3.118547767740382E-2   -4.896483753955820E-1   -1.525080483665786E-1
 6.500981267675000E9    -4.277013072954748E-1   -3.064914627031976E-1   -1.514622938187948E-2    3.125781820371900E-2   -1.336550960429832E-2    3.130068177418991E-2   -4.898893301181801E-1   -1.513446675370908E-1
 6.500994088100000E9    -4.283858503185649E-1   -3.055779381607852E-1   -1.507364650600472E-2    3.156976444632344E-2   -1.329885416764590E-2    3.156925613031578E-2   -4.900885518815903E-1   -1.499283651696623E-1
 6.501006908525000E9    -4.289787428414278E-1   -3.047633317030963E-1   -1.522587915457565E-2    3.173375938509371E-2   -1.340026784480312E-2    3.174839933619878E-2   -4.904285373729159E-1   -1.487530320239234E-1
 6.501019728950000E9    -4.294943863747933E-1   -3.038716525790131E-1   -1.502754090568505E-2    3.179035810762969E-2   -1.331669972344629E-2    3.199378522753937E-2   -4.906483653775028E-1   -1.476552893291422E-1
 6.501032549375000E9    -4.300151225738839E-1   -3.028739781859753E-1   -1.507398293557104E-2    3.205289817205718E-2   -1.338248696705624E-2    3.210469800113481E-2   -4.909704264122025E-1   -1.463818951876299E-1
 6.501045369800000E9    -4.307297385521410E-1   -3.019253403710153E-1   -1.499591790616393E-2    3.230532278590881E-2   -1.329281021409968E-2    3.233514134127036E-2   -4.912790887421252E-1   -1.450866492172057E-1
 6.501058190225000E9    -4.313792252667303E-1   -3.012319564056805E-1   -1.501060664957773E-2    3.258285463740381E-2   -1.320824189684056E-2    3.259587884014711E-2   -4.913842488661619E-1   -1.438059053887234E-1
 6.501071010650000E9    -4.319309097873861E-1   -3.002088330447648E-1   -1.505554693906857E-2    3.271494407337789E-2   -1.325999104502809E-2    3.279712463651292E-2   -4.918330926972238E-1   -1.426927621255008E-1
 6.501083831075000E9    -4.324872008485937E-1   -2.995372016980614E-1   -1.502972811578643E-2    3.290197972297149E-2   -1.322583221747815E-2    3.293661119596260E-2   -4.920877336842907E-1   -1.413124176226328E-1
 6.501096651500000E9    -4.330164725467411E-1   -2.985345552808785E-1   -1.507540505184404E-2    3.327049266075183E-2   -1.326017708717375E-2    3.322409918382702E-2   -4.923690207005813E-1   -1.399587993645239E-1
 6.501109471925000E9    -4.336042635922684E-1   -2.976076569985719E-1   -1.508971920622436E-2    3.336482099657407E-2   -1.325088884321508E-2    3.342524331596084E-2   -4.926182194683336E-1   -1.389072228788281E-1
 6.501122292350000E9    -4.342258029070351E-1   -2.966872493618550E-1   -1.528623172520937E-2    3.363546699276007E-2   -1.318272554566513E-2    3.359222475880985E-2   -4.928958831255740E-1   -1.376408682860839E-1
 6.501135112775000E9    -4.348005728811979E-1   -2.957790738637314E-1   -1.502339457327611E-2    3.385033137489873E-2   -1.309459368296713E-2    3.382337063832788E-2   -4.930771454668746E-1   -1.362958976729980E-1
 6.501147933200000E9    -4.354264212647055E-1   -2.948402194071864E-1   -1.510068404761155E-2    3.412363135365736E-2   -1.323125517281872E-2    3.405374096107688E-2   -4.934840380689774E-1   -1.349995951785290E-1
 6.501160753625000E9    -4.360143672831865E-1   -2.939662995848822E-1   -1.500726704660228E-2    3.418926758508836E-2   -1.313359923526299E-2    3.424472195383358E-2   -4.936401140616904E-1   -1.337833029243279E-1
 6.501173574050000E9    -4.365291161875496E-1   -2.930944409065409E-1   -1.508259574805063E-2    3.453924788830507E-2   -1.319471029921381E-2    3.446547057855707E-2   -4.939179199178355E-1   -1.324430157351857E-1
 6.501186394475000E9    -4.370522321010472E-1   -2.921511278598519E-1   -1.500091598304426E-2    3.475195898192282E-2   -1.313560027044425E-2    3.463056006388976E-2   -4.940767021194591E-1   -1.312159395872294E-1
 6.501199214900000E9    -4.376821537126143E-1   -2.912923217808360E-1   -1.499199885843287E-2    3.495828794470390E-2   -1.318447901250343E-2    3.495903032086093E-2   -4.943127258406111E-1   -1.299725677033189E-1
 6.501212035325000E9    -4.382644211309811E-1   -2.903091679095092E-1   -1.490553025936853E-2    3.530486292659638E-2   -1.311523970156965E-2    3.519175720227032E-2   -4.946063667715122E-1   -1.285992962648557E-1
 6.501224855750000E9    -4.387918399839316E-1   -2.893794586984778E-1   -1.508024103404310E-2    3.550895333484556E-2   -1.314202054790604E-2    3.534388984226118E-2   -4.949713316555461E-1   -1.273477059051221E-1
 6.501237676175000E9    -4.393197035068739E-1   -2.884962932112407E-1   -1.510911132757638E-2    3.566247771044467E-2   -1.314209312930662E-2    3.562443968037073E-2   -4.951322165676033E-1   -1.259872228608479E-1
 6.501250496600000E9    -4.399943054230717E-1   -2.875880424604173E-1   -1.517206803751203E-2    3.594501067911816E-2   -1.304902816437576E-2    3.588237317535351E-2   -4.954382089473401E-1   -1.246103623028812E-1
 6.501263317025000E9    -4.405936688324085E-1   -2.866100607639421E-1   -1.508581844063227E-2    3.612011565703332E-2   -1.304761357040668E-2    3.606476121714886E-2   -4.955520827178615E-1   -1.234131812615616E-1
 6.501276137450000E9    -4.411391126796892E-1   -2.856826027909221E-1   -1.501896334833865E-2    3.646907945167058E-2   -1.318446368848248E-2    3.634691157440170E-2   -4.958575339262336E-1   -1.220219016235762E-1
 6.501288957875000E9    -4.416797648189011E-1   -2.846755202359805E-1   -1.504339737646667E-2    3.672915814091040E-2   -1.306050844729869E-2    3.663452025061049E-2   -4.960743517466681E-1   -1.206512071229471E-1
 6.501301778300000E9    -4.422613428711635E-1   -2.838868026649022E-1   -1.500853041137333E-2    3.686779530189431E-2   -1.310832709120590E-2    3.688958144781943E-2   -4.962373947856875E-1   -1.193232772529123E-1
 6.501314598725000E9    -4.428132575137961E-1   -2.829484661227936E-1   -1.488692305406991E-2    3.710443457272376E-2   -1.301413456877939E-2    3.713930386752107E-2   -4.965282432483608E-1   -1.180374430701276E-1
 6.501327419150000E9    -4.434148375423437E-1   -2.819330444852338E-1   -1.490857799910718E-2    3.737633961729676E-2   -1.299836884920058E-2    3.741793512598310E-2   -4.967375557731294E-1   -1.166473645791082E-1
 6.501340239575000E9    -4.439228936785390E-1   -2.810009925589363E-1   -1.503790236475965E-2    3.768006852022605E-2   -1.294143715930600E-2    3.761043432985946E-2   -4.970587449853374E-1   -1.152666151946098E-1
 6.501353060000000E9    -4.444769330789627E-1   -2.800156973575975E-1   -1.502153972523487E-2    3.798575470682917E-2   -1.298513639650898E-2    3.788446915293933E-2   -4.970882222944055E-1   -1.139606883923833E-1
 6.501365880425000E9    -4.450070058644383E-1   -2.790914102197039E-1   -1.504559916900497E-2    3.826291391861440E-2   -1.305407067361790E-2    3.818909432329006E-2   -4.974044437908339E-1   -1.127069939230518E-1
 6.501378700850000E9    -4.455078419306537E-1   -2.781008797684992E-1   -1.493721414384916E-2    3.846082354838933E-2   -1.290414255369803E-2    3.845623796940778E-2   -4.975933364843638E-1   -1.111770475185665E-1
 6.501391521275000E9    -4.461730315604641E-1   -2.771631172114103E-1   -1.488176893280747E-2    3.878590909327491E-2   -1.296798894304507E-2    3.868674677919072E-2   -4.978812677195408E-1   -1.097844508759972E-1
 6.501404341700000E9    -4.466553918718841E-1   -2.762132150874077E-1   -1.495774272945582E-2    3.915803868099172E-2   -1.292614784563791E-2    3.896850205103974E-2   -4.979775621545820E-1   -1.084640589177232E-1
 6.501417162125000E9    -4.473132713529629E-1   -2.753687026413588E-1   -1.492110487112033E-2    3.939441181755685E-2   -1.285048382754314E-2    3.927814378795557E-2   -4.982115128226951E-1   -1.069985008460994E-1
 6.501429982550000E9    -4.478881621980757E-1   -2.743513533441246E-1   -1.492833748643341E-2    3.971449999279186E-2   -1.288651155343220E-2    3.956189197435429E-2   -4.984243456675491E-1   -1.055970354493784E-1
 6.501442802975000E9    -4.483920431712834E-1   -2.733711310414630E-1   -1.493292943958311E-2    3.995996841606174E-2   -1.283614836009894E-2    3.979080427946627E-2   -4.985764299083318E-1   -1.043274842576307E-1
 6.501455623400000E9    -4.489268052691593E-1   -2.723884188321443E-1   -1.490034792928554E-2    4.021369118923325E-2   -1.277601400498481E-2    4.013182623328185E-2   -4.989532579137200E-1   -1.028535704984822E-1
 6.501468443825000E9    -4.494247697530790E-1   -2.713982483982637E-1   -1.494233550965341E-2    4.057697254694311E-2   -1.279012364912701E-2    4.034587252469544E-2   -4.989832264844577E-1   -1.016277783186563E-1
 6.501481264250000E9    -4.499217613846218E-1   -2.705205318895947E-1   -1.495543056642623E-2    4.100412552593219E-2   -1.270171609624879E-2    4.060814118279549E-2   -4.991298581635768E-1   -1.001910803944235E-1
 6.501494084675000E9    -4.505116543950407E-1   -2.695088562334676E-1   -1.488166502541812E-2    4.113669928801927E-2   -1.267300703938301E-2    4.101029435828618E-2   -4.993219950593290E-1   -9.869256611085472E-2
 6.501506905100000E9    -4.509863581005383E-1   -2.685985261162703E-1   -1.484391296247681E-2    4.155259109448803E-2   -1.277432144445899E-2    4.121184375838641E-2   -4.993076397904734E-1   -9.715979889613420E-2
 6.501519725525000E9    -4.515597179926347E-1   -2.675405390846788E-1   -1.492851909799676E-2    4.174781210122125E-2   -1.271452674725562E-2    4.158159199234091E-2   -4.996020007647933E-1   -9.580848562380755E-2
 6.501532545950000E9    -4.520630974203587E-1   -2.665241506124317E-1   -1.488557008279325E-2    4.207105966102298E-2   -1.266485411874413E-2    4.184939152434404E-2   -4.997590068342450E-1   -9.432038723111738E-2
 6.501545366375000E9    -4.526898186260344E-1   -2.655450557179602E-1   -1.473701728061485E-2    4.242269216893565E-2   -1.258673082177888E-2    4.225269758415357E-2   -4.999422165290124E-1   -9.274605869553393E-2
 6.501558186800000E9    -4.532102619182603E-1   -2.646069598243645E-1   -1.483095594215528E-2    4.275346356285039E-2   -1.260444353632151E-2    4.249935142628410E-2   -5.000946956139323E-1   -9.138333950557057E-2
 6.501571007225000E9    -4.535862930663802E-1   -2.636981135704040E-1   -1.475244027676107E-2    4.308104460176932E-2   -1.255483484365458E-2    4.277640224293436E-2   -5.002147660822297E-1   -9.008451048682019E-2
 6.501583827650000E9    -4.542840743929067E-1   -2.625817644482907E-1   -1.479301323289937E-2    4.349292634314176E-2   -1.256865206923056E-2    4.314219177035623E-2   -5.004278210999632E-1   -8.831479622396794E-2
 6.501596648075000E9    -4.547068675637181E-1   -2.615671753417010E-1   -1.462028508257834E-2    4.390754094036745E-2   -1.246144204726678E-2    4.355161753714880E-2   -5.004381633168561E-1   -8.695668659411059E-2
 6.501609468500000E9    -4.552787141566498E-1   -2.605954207665769E-1   -1.480964178973536E-2    4.416986985860925E-2   -1.241346299005670E-2    4.377925225236550E-2   -5.006609724735890E-1   -8.562772070226894E-2
 6.501622288925000E9    -4.558524032608040E-1   -2.596341180228192E-1   -1.478853117328142E-2    4.456313118976354E-2   -1.237675380857771E-2    4.419523158141456E-2   -5.006346907664044E-1   -8.407468667298275E-2
 6.501635109350000E9    -4.562834938168542E-1   -2.586123832362085E-1   -1.462591184168045E-2    4.467155690946542E-2   -1.237900174739806E-2    4.452539639337295E-2   -5.007830155942143E-1   -8.244858194441526E-2
 6.501647929775000E9    -4.568976263714802E-1   -2.575978718097580E-1   -1.467963816849692E-2    4.501102016225688E-2   -1.232074783007232E-2    4.482362400269157E-2   -5.009622606385099E-1   -8.085058985585601E-2
 6.501660750200000E9    -4.573435962812699E-1   -2.564947771211821E-1   -1.469768657232930E-2    4.549599415849172E-2   -1.227767400091518E-2    4.520489113771650E-2   -5.010599768888365E-1   -7.949892587314038E-2
 6.501673570625000E9    -4.577967453457114E-1   -2.555485802820153E-1   -1.455282204541994E-2    4.586579909641983E-2   -1.217566790829467E-2    4.550577286031005E-2   -5.011914351153604E-1   -7.777140487027455E-2
 6.501686391050000E9    -4.582862911229964E-1   -2.544914687209168E-1   -1.452957244775847E-2    4.616946742690039E-2   -1.211387700978775E-2    4.594982035918634E-2   -5.012784914006216E-1   -7.651103293044766E-2
 6.501699211475000E9    -4.587230432288282E-1   -2.535131048020215E-1   -1.450016302531157E-2    4.659452539970094E-2   -1.214528765414732E-2    4.620761068917444E-2   -5.014061742449704E-1   -7.478997196428759E-2
 6.501712031900000E9    -4.592655019931792E-1   -2.524276826487072E-1   -1.438416848131062E-2    4.685653486844857E-2   -1.216170429545585E-2    4.663876424262522E-2   -5.014485485460640E-1   -7.328210366652649E-2
 6.501724852325000E9    -4.599272180377070E-1   -2.513956370390801E-1   -1.441157547063384E-2    4.750885819741102E-2   -1.212045973697628E-2    4.696649385199853E-2   -5.015867520994961E-1   -7.177005717024447E-2
 6.501737672750000E9    -4.603237398731826E-1   -2.502993335112569E-1   -1.440220869229065E-2    4.785256083490256E-2   -1.206824212999459E-2    4.743076285757333E-2   -5.015547794733370E-1   -7.018661180319567E-2
 6.501750493175000E9    -4.608600602121594E-1   -2.492885424462846E-1   -1.428614887489022E-2    4.818959173991037E-2   -1.194217051072751E-2    4.778178986948938E-2   -5.016895917396254E-1   -6.851098413291094E-2
 6.501763313600000E9    -4.613629743948803E-1   -2.482551345519097E-1   -1.438057612064907E-2    4.876405141608307E-2   -1.190062446967476E-2    4.825497142157943E-2   -5.016485130980149E-1   -6.703002421983735E-2
 6.501776134025000E9    -4.618173212513585E-1   -2.472042968566940E-1   -1.430015804636765E-2    4.911444011823331E-2   -1.184646508069725E-2    4.860627409794749E-2   -5.017768650887263E-1   -6.527184167356666E-2
 6.501788954450000E9    -4.622813278557603E-1   -2.461535542264130E-1   -1.423797945541722E-2    4.949587511498602E-2   -1.171292997934132E-2    4.895946757551343E-2   -5.018209708673688E-1   -6.363454340674592E-2
 6.501801774875000E9    -4.628449892877002E-1   -2.450887373330231E-1   -1.425462788136712E-2    4.979272976355400E-2   -1.170657082101006E-2    4.933850669886508E-2   -5.018107382672162E-1   -6.204447161927142E-2
 6.501814595300000E9    -4.633252649981315E-1   -2.439189154974904E-1   -1.415504989493868E-2    5.046917261186867E-2   -1.164401784490297E-2    4.981581465498829E-2   -5.017972341181105E-1   -6.049243175932154E-2
 6.501827415725000E9    -4.637979002865535E-1   -2.429836261244440E-1   -1.401994939452274E-2    5.085591903812815E-2   -1.156694561990054E-2    5.034596635216175E-2   -5.020108755970722E-1   -5.882978305372637E-2
 6.501840236150000E9    -4.643098480190184E-1   -2.418906268099287E-1   -1.416316549582455E-2    5.123288334576526E-2   -1.153565058014683E-2    5.063618667169381E-2   -5.020144774610350E-1   -5.716464749960370E-2
 6.501853056575000E9    -4.647680207618576E-1   -2.407573609371927E-1   -1.400499236877133E-2    5.174657772582673E-2   -1.150265585494334E-2    5.122541630772765E-2   -5.020879452972052E-1   -5.546663042819507E-2
 6.501865877000000E9    -4.651185579063389E-1   -2.396363702063193E-1   -1.383722999505480E-2    5.210089525461861E-2   -1.145400658374521E-2    5.157483042582209E-2   -5.019472625490317E-1   -5.367065470624970E-2
 6.501878697425000E9    -4.657004527902692E-1   -2.385449170519345E-1   -1.380379781236573E-2    5.261033117702452E-2   -1.131931890964958E-2    5.208787189194104E-2   -5.019316548844819E-1   -5.204911778509663E-2
 6.501891517850000E9    -4.661103399195456E-1   -2.374929804412691E-1   -1.383644155075502E-2    5.307771511075831E-2   -1.129234976378880E-2    5.255531913774218E-2   -5.019683211887985E-1   -5.034002343357410E-2
 6.501904338275000E9    -4.665705127848743E-1   -2.363668018002829E-1   -1.374636353565283E-2    5.361108203230763E-2   -1.119042165905851E-2    5.295961960914439E-2   -5.020762076063191E-1   -4.865668929305442E-2
 6.501917158700000E9    -4.672246827894359E-1   -2.352745187315495E-1   -1.368888456989095E-2    5.410462135330257E-2   -1.107633562052080E-2    5.332673535778300E-2   -5.019084550404052E-1   -4.681380624559756E-2
 6.501929979125000E9    -4.676340944659620E-1   -2.342220580186512E-1   -1.368434693375639E-2    5.454293541604129E-2   -1.105610272085466E-2    5.394567859089196E-2   -5.019936417988039E-1   -4.511718777809867E-2
 6.501942799550000E9    -4.680131941209614E-1   -2.331155920594470E-1   -1.366388721793736E-2    5.509957272657470E-2   -1.082572333890814E-2    5.441499842752304E-2   -5.019152035110241E-1   -4.323411455426001E-2
 6.501955619975000E9    -4.684508677388749E-1   -2.319147918724541E-1   -1.349824609000555E-2    5.555493266203283E-2   -1.091621299913601E-2    5.487499844803308E-2   -5.017340277000936E-1   -4.156590782754176E-2
 6.501968440400000E9    -4.690050975578570E-1   -2.308901432038296E-1   -1.339726867103648E-2    5.605955013951729E-2   -1.076917303847283E-2    5.543548823089970E-2   -5.018340817690133E-1   -3.971593901448212E-2
 6.501981260825000E9    -4.694498440188361E-1   -2.296868826484154E-1   -1.336290205333322E-2    5.665167820903592E-2   -1.072721610392295E-2    5.589746029170548E-2   -5.018222426155894E-1   -3.795344957391129E-2
 6.501994081250000E9    -4.699235617112978E-1   -2.285740186306025E-1   -1.325830386603151E-2    5.711695258935647E-2   -1.057393822840385E-2    5.641820433089138E-2   -5.016501993633711E-1   -3.608623738268335E-2
