#  HZ   S   RI   R     50.00 
! Rohde & Schwarz Vector Network Analyzer 
! Rohde-Schwarz,ZNB20-2Port,1311601062101988,3.16
! Created: UTC 3/20/2024, 11:54:08 AM
! freq[Hz]                re:S11                  im:S11                  re:S21                  im:S21                  re:S12                  im:S12                  re:S22                  im:S22
 6.500842345000000E9    -4.212206192121588E-1   -3.158623701748308E-1   -1.492868549937451E-2    2.911938895127357E-2   -1.335630571334090E-2    2.942251817172104E-2   -4.865361901152465E-1   -1.642014406885798E-1
 6.500855163550000E9    -4.218222711670094E-1   -3.149717105962644E-1   -1.505753916410151E-2    2.943579597272329E-2   -1.337942055695887E-2    2.953738530341781E-2   -4.867827218775023E-1   -1.631468546745132E-1
 6.500867982100000E9    -4.224857175154481E-1   -3.141815881351476E-1   -1.510761795658270E-2    2.958692192507219E-2   -1.334472396208015E-2    2.976912630691646E-2   -4.871242156395995E-1   -1.617831723793755E-1
 6.500880800650000E9    -4.230790359123015E-1   -3.133763275423425E-1   -1.498106734337517E-2    2.975217521754321E-2   -1.325651255850610E-2    2.987150001914965E-2   -4.872610876912017E-1   -1.608369703775733E-1
 6.500893619200000E9    -4.236070773232004E-1   -3.123665106048492E-1   -1.496750494966268E-2    2.995664388980979E-2   -1.328226779147084E-2    3.008250924657972E-2   -4.876937229556929E-1   -1.594357503461660E-1
 6.500906437750000E9    -4.242892684217680E-1   -3.116031478022746E-1   -1.499931210426042E-2    3.027382953770118E-2   -1.329735083392491E-2    3.030121826679046E-2   -4.881247462799939E-1   -1.582521212930450E-1
 6.500919256300000E9    -4.248844992049688E-1   -3.106882595070322E-1   -1.491548716242016E-2    3.033592354183564E-2   -1.335086979079131E-2    3.038766686405102E-2   -4.884214465638959E-1   -1.572509761051471E-1
 6.500932074850000E9    -4.254956833824324E-1   -3.098253622688021E-1   -1.503570162935423E-2    3.052828223777308E-2   -1.333746831770705E-2    3.062859534535350E-2   -4.885778496918803E-1   -1.559047018189907E-1
 6.500944893400000E9    -4.261456999406678E-1   -3.089739232576333E-1   -1.513880292390807E-2    3.069653767469797E-2   -1.332941959632462E-2    3.082602544521848E-2   -4.890198998768541E-1   -1.546413825126941E-1
 6.500957711950000E9    -4.267513392962369E-1   -3.079653705299134E-1   -1.499915720520157E-2    3.089715174213952E-2   -1.325004434653307E-2    3.101990583276384E-2   -4.892292190273699E-1   -1.535158013275577E-1
 6.500970530500000E9    -4.272746380356005E-1   -3.071928839705947E-1   -1.499506057771687E-2    3.110936452404194E-2   -1.330624351234499E-2    3.121121703258893E-2   -4.895406956141096E-1   -1.523522589523369E-1
 6.500983349050000E9    -4.278595046226011E-1   -3.063185893818047E-1   -1.503293465751607E-2    3.125379517464575E-2   -1.333712666153035E-2    3.140716598548326E-2   -4.899354618402355E-1   -1.511154028930688E-1
 6.500996167600000E9    -4.284354348009932E-1   -3.054779290521633E-1   -1.502685610591646E-2    3.141265034801728E-2   -1.333042835137561E-2    3.157159551850952E-2   -4.902254601086235E-1   -1.499592152175288E-1
 6.501008986150000E9    -4.290578568630904E-1   -3.045934593755331E-1   -1.499556421951224E-2    3.173154813870290E-2   -1.330036203122679E-2    3.178666424405701E-2   -4.903666617220809E-1   -1.486452624855891E-1
 6.501021804700000E9    -4.295909217108691E-1   -3.037559838128888E-1   -1.511674819025637E-2    3.187186746841975E-2   -1.332402993674950E-2    3.184401077135895E-2   -4.907221081285434E-1   -1.473504465269796E-1
 6.501034623250000E9    -4.302226744270990E-1   -3.028028666190017E-1   -1.501234337883220E-2    3.202202867720198E-2   -1.328260647052373E-2    3.209043186662745E-2   -4.909014144129154E-1   -1.461235446964566E-1
 6.501047441800000E9    -4.307971478746517E-1   -3.019313884302633E-1   -1.506102358915616E-2    3.222883538767954E-2   -1.318684500012292E-2    3.248590176625075E-2   -4.913064129020177E-1   -1.448389617984925E-1
 6.501060260350000E9    -4.314092979067970E-1   -3.010967827182810E-1   -1.497713591563537E-2    3.259010032343625E-2   -1.323904698283212E-2    3.251682967498087E-2   -4.916321075229511E-1   -1.436664505311269E-1
 6.501073078900000E9    -4.320040203242463E-1   -3.001433206576673E-1   -1.508875231892482E-2    3.265315064205862E-2   -1.327379439961876E-2    3.272046944316830E-2   -4.918878077781437E-1   -1.424814584387629E-1
 6.501085897450000E9    -4.326473195772517E-1   -2.992865169217223E-1   -1.505439211636041E-2    3.303353767834692E-2   -1.325559419605560E-2    3.301976006259023E-2   -4.921179006227522E-1   -1.411218678135728E-1
 6.501098716000000E9    -4.332266918754666E-1   -2.984174022619522E-1   -1.506869002395751E-2    3.320360349036018E-2   -1.320625600203169E-2    3.325809588710930E-2   -4.924531308820049E-1   -1.398222898540376E-1
 6.501111534550000E9    -4.338511732937070E-1   -2.973725968379397E-1   -1.495864308508339E-2    3.336494620110538E-2   -1.325292236465955E-2    3.342127671733592E-2   -4.926820152361103E-1   -1.386995590241149E-1
 6.501124353100000E9    -4.343575614345156E-1   -2.966468578500726E-1   -1.510564762889144E-2    3.353258457401084E-2   -1.320971149537769E-2    3.353097198671044E-2   -4.930355683460469E-1   -1.373776515267720E-1
 6.501137171650000E9    -4.349192640593982E-1   -2.956769494202089E-1   -1.503214599145951E-2    3.387828941502122E-2   -1.327443879121654E-2    3.382819437156193E-2   -4.931130598247451E-1   -1.361578963772194E-1
 6.501149990200000E9    -4.355006429926704E-1   -2.947269074128995E-1   -1.505438505861883E-2    3.405137907489637E-2   -1.314584315015126E-2    3.408748025330981E-2   -4.934887751485943E-1   -1.348186548471915E-1
 6.501162808750000E9    -4.360288685756831E-1   -2.938136740971119E-1   -1.514503929763538E-2    3.418278849472208E-2   -1.315019436976081E-2    3.433980618349741E-2   -4.937450302103168E-1   -1.337151040652770E-1
 6.501175627300000E9    -4.365672077380885E-1   -2.929053283780882E-1   -1.510407344947862E-2    3.458228362778443E-2   -1.314257969026951E-2    3.453616604702191E-2   -4.940998089488706E-1   -1.324295299603794E-1
 6.501188445850000E9    -4.372866823128430E-1   -2.919468739468230E-1   -1.499646762455780E-2    3.481266172259707E-2   -1.321264183147067E-2    3.466729146347929E-2   -4.941069385156827E-1   -1.310994301641543E-1
 6.501201264400000E9    -4.378819908298259E-1   -2.911815300469578E-1   -1.506274528254375E-2    3.497679299494459E-2   -1.314394055772808E-2    3.491602569729629E-2   -4.945118940730808E-1   -1.296256470229575E-1
 6.501214082950000E9    -4.382891744653142E-1   -2.902824605015816E-1   -1.502437662536564E-2    3.522827920168269E-2   -1.314263001106345E-2    3.517505482488690E-2   -4.947756884017067E-1   -1.283937421923948E-1
 6.501226901500000E9    -4.389479306895984E-1   -2.891801097784839E-1   -1.509625548676982E-2    3.533568189436163E-2   -1.314547954703970E-2    3.542879271793910E-2   -4.948364886946006E-1   -1.270537083085261E-1
 6.501239720050000E9    -4.395375522376637E-1   -2.884065481923879E-1   -1.515386627727191E-2    3.561239234745937E-2   -1.310264832183099E-2    3.560678499046778E-2   -4.951776097233905E-1   -1.258954463265275E-1
 6.501252538600000E9    -4.400364023585178E-1   -2.873757990969692E-1   -1.502900669642243E-2    3.594345553489673E-2   -1.304692042530573E-2    3.587938390892367E-2   -4.954867705336333E-1   -1.245487654980261E-1
 6.501265357150000E9    -4.406506820611347E-1   -2.865611953162893E-1   -1.497910978923808E-2    3.615094663421341E-2   -1.307905689848750E-2    3.618786184081219E-2   -4.957551781307079E-1   -1.231039435035047E-1
 6.501278175700000E9    -4.412563311099911E-1   -2.854747587375808E-1   -1.494444969730681E-2    3.650379136672270E-2   -1.306437550616279E-2    3.634959793434984E-2   -4.959801153811540E-1   -1.218867550291865E-1
 6.501290994250000E9    -4.417843238284571E-1   -2.846436312889113E-1   -1.507674529556049E-2    3.663678643574504E-2   -1.301848380687223E-2    3.667950847398942E-2   -4.962340342053043E-1   -1.206123650737450E-1
 6.501303812800000E9    -4.422304861524577E-1   -2.836983156041537E-1   -1.498056014959530E-2    3.693469090255062E-2   -1.311244356607778E-2    3.694720712391369E-2   -4.962734829228622E-1   -1.192861393763142E-1
 6.501316631350000E9    -4.428725284328496E-1   -2.827979462135758E-1   -1.498498436309705E-2    3.724710755380337E-2   -1.299270227119295E-2    3.712362540507547E-2   -4.965128165185861E-1   -1.178373597932297E-1
 6.501329449900000E9    -4.434397841350579E-1   -2.818021229952605E-1   -1.493064363077951E-2    3.748795833185412E-2   -1.290839653689283E-2    3.736711483133743E-2   -4.967974132788650E-1   -1.164192421302751E-1
 6.501342268450000E9    -4.440617788008046E-1   -2.809098597464730E-1   -1.507237828450113E-2    3.785203558008860E-2   -1.298286200870787E-2    3.767166606057401E-2   -4.971130831871393E-1   -1.151078434211942E-1
 6.501355087000000E9    -4.445795764051268E-1   -2.799708801403497E-1   -1.489407178607389E-2    3.800573623903896E-2   -1.295123395308936E-2    3.784129832150415E-2   -4.971479699280828E-1   -1.138779062459050E-1
 6.501367905550000E9    -4.451386670412579E-1   -2.790332019013327E-1   -1.512878569907853E-2    3.835266946988792E-2   -1.303075216909653E-2    3.811803782305754E-2   -4.975013946038539E-1   -1.124968021876211E-1
 6.501380724100000E9    -4.457655743948145E-1   -2.781159289035794E-1   -1.494023708023730E-2    3.861755907448400E-2   -1.290848103607993E-2    3.838889906444121E-2   -4.975982909378588E-1   -1.110603738232779E-1
 6.501393542650000E9    -4.461275504515637E-1   -2.771503985947633E-1   -1.498526669408915E-2    3.885586591389211E-2   -1.289367570361915E-2    3.869597582302547E-2   -4.979909038569658E-1   -1.097485566943929E-1
 6.501406361200000E9    -4.467757056341788E-1   -2.761194032674291E-1   -1.493654553514501E-2    3.919747060393074E-2   -1.288751785594425E-2    3.894644304555229E-2   -4.980888910960874E-1   -1.083150516399093E-1
 6.501419179750000E9    -4.472860494094746E-1   -2.751789883471754E-1   -1.490583671026804E-2    3.937418270462149E-2   -1.286272317003300E-2    3.922844509373194E-2   -4.982906913791844E-1   -1.070405118884169E-1
 6.501431998300000E9    -4.478546609357849E-1   -2.741543011792834E-1   -1.500860573293066E-2    3.971827109118257E-2   -1.285610539754088E-2    3.954875307462644E-2   -4.984346661033388E-1   -1.055478707854596E-1
 6.501444816850000E9    -4.483250596871382E-1   -2.732627938362607E-1   -1.496453388246260E-2    3.998988385012647E-2   -1.283642383612523E-2    3.979798766019355E-2   -4.986764370659905E-1   -1.040840638912970E-1
 6.501457635400000E9    -4.489213730573795E-1   -2.722143472698844E-1   -1.488374187126683E-2    4.031032317829850E-2   -1.278016344620580E-2    4.011266470686040E-2   -4.988777125072762E-1   -1.027697175772380E-1
 6.501470453950000E9    -4.495258995642543E-1   -2.712611758904254E-1   -1.488253759968730E-2    4.057505627301677E-2   -1.280085757806410E-2    4.034789433991726E-2   -4.989008054720491E-1   -1.014040269716905E-1
 6.501483272500000E9    -4.499796407125837E-1   -2.703529477919267E-1   -1.486002923815060E-2    4.083990500396727E-2   -1.264721194256428E-2    4.065009171231327E-2   -4.991506579984364E-1   -9.997052420555941E-2
 6.501496091050000E9    -4.505533012202346E-1   -2.693013835251769E-1   -1.484734741677873E-2    4.124982913624383E-2   -1.270641065031219E-2    4.100746789182565E-2   -4.992758038939633E-1   -9.864852969049379E-2
 6.501508909600000E9    -4.510124699687068E-1   -2.684046169304161E-1   -1.498450381704196E-2    4.148343992245900E-2   -1.258524245544429E-2    4.122260097528448E-2   -4.994094318677259E-1   -9.690391395058555E-2
 6.501521728150000E9    -4.516549066848960E-1   -2.673322287376608E-1   -1.477430486477448E-2    4.177644001717370E-2   -1.268040304089152E-2    4.159967795503375E-2   -4.997337767087717E-1   -9.578782578684945E-2
 6.501534546700000E9    -4.520802412221736E-1   -2.663961376736910E-1   -1.490333921998484E-2    4.215343633940200E-2   -1.259573783240532E-2    4.194144516233197E-2   -4.998125210439860E-1   -9.429900679830557E-2
 6.501547365250000E9    -4.527931078963337E-1   -2.653489575553436E-1   -1.482255918014091E-2    4.249823241459661E-2   -1.256601232967971E-2    4.219947295076940E-2   -4.998894712484843E-1   -9.269100848025477E-2
 6.501560183800000E9    -4.532391794759789E-1   -2.644787381884666E-1   -1.489834694096507E-2    4.285307920579937E-2   -1.254677072229787E-2    4.252145008221042E-2   -5.000877177599237E-1   -9.127092602921333E-2
 6.501573002350000E9    -4.538060025011450E-1   -2.634124937175180E-1   -1.472738897260795E-2    4.308279132963282E-2   -1.254122636325363E-2    4.286802081706085E-2   -5.002788273790473E-1   -8.983182389084829E-2
 6.501585820900000E9    -4.542379929161164E-1   -2.624226591406246E-1   -1.480459476339261E-2    4.347366192372353E-2   -1.249027447341531E-2    4.323095874193821E-2   -5.003000985459690E-1   -8.826212362251892E-2
 6.501598639450000E9    -4.548081284962890E-1   -2.614548114237037E-1   -1.473452593481886E-2    4.382138538507874E-2   -1.253397581415078E-2    4.350124998183457E-2   -5.003991702683278E-1   -8.681347356710095E-2
 6.501611458000000E9    -4.553413116868603E-1   -2.604986935860999E-1   -1.461230546410444E-2    4.403223169028228E-2   -1.244352854974195E-2    4.373113556358126E-2   -5.006031863881355E-1   -8.538551816265925E-2
 6.501624276550000E9    -4.558569600563529E-1   -2.593616078543717E-1   -1.460540224225269E-2    4.439565118208252E-2   -1.245746541692535E-2    4.422570278224871E-2   -5.008049133105588E-1   -8.386440937264811E-2
 6.501637095100000E9    -4.564053033825268E-1   -2.584319749794387E-1   -1.471493340570922E-2    4.485668645427387E-2   -1.234386750445180E-2    4.450251734742884E-2   -5.010102458891620E-1   -8.218963352166825E-2
 6.501649913650000E9    -4.568620518525726E-1   -2.573413519578440E-1   -1.455241234189301E-2    4.515236891445817E-2   -1.216000509180823E-2    4.477659836573342E-2   -5.009432404516881E-1   -8.081509233764905E-2
 6.501662732200000E9    -4.573859692671290E-1   -2.564291982208891E-1   -1.464344864963465E-2    4.557944359367105E-2   -1.231561473100435E-2    4.524044274001699E-2   -5.010888751814443E-1   -7.915017225179413E-2
 6.501675550750000E9    -4.579190475269074E-1   -2.553385205775002E-1   -1.460535193182165E-2    4.595540602676661E-2   -1.220670457422711E-2    4.566912151895113E-2   -5.011685736521824E-1   -7.776694928440346E-2
 6.501688369300000E9    -4.583116416969237E-1   -2.542510726090093E-1   -1.470156168891092E-2    4.626226278042822E-2   -1.226298728861265E-2    4.592915798004965E-2   -5.013337657403099E-1   -7.619337872601033E-2
 6.501701187850000E9    -4.588938782626232E-1   -2.532352497499402E-1   -1.451145639404457E-2    4.668057160530004E-2   -1.213264650947905E-2    4.633732092827322E-2   -5.013367165039464E-1   -7.476507410991985E-2
 6.501714006400000E9    -4.592938889046942E-1   -2.521182622478234E-1   -1.443958678753193E-2    4.712727204006761E-2   -1.201869928663758E-2    4.670600394426316E-2   -5.014653162141898E-1   -7.311809698504818E-2
 6.501726824950000E9    -4.599311418287044E-1   -2.512284834039056E-1   -1.452409547387106E-2    4.741701160868809E-2   -1.214242013941652E-2    4.707979805257792E-2   -5.015609573583856E-1   -7.157392748034742E-2
 6.501739643500000E9    -4.604721070199488E-1   -2.501852125725293E-1   -1.428137352016927E-2    4.788217716931098E-2   -1.197682580050990E-2    4.737740920448986E-2   -5.017835730875002E-1   -6.996008020703658E-2
 6.501752462050000E9    -4.608789041879574E-1   -2.490551000451002E-1   -1.441124990858255E-2    4.831647955901065E-2   -1.191026569217294E-2    4.788665505464940E-2   -5.016725869373970E-1   -6.832263772467947E-2
 6.501765280600000E9    -4.614592342420855E-1   -2.479812816275267E-1   -1.441680618642553E-2    4.870954102845722E-2   -1.190648122260681E-2    4.819001852146924E-2   -5.018245352183337E-1   -6.681442796948384E-2
 6.501778099150000E9    -4.619425078760175E-1   -2.470627250847501E-1   -1.417866421459630E-2    4.910638312151184E-2   -1.181174753915475E-2    4.867362813527094E-2   -5.018803629093178E-1   -6.517187073326075E-2
 6.501790917700000E9    -4.623040202180400E-1   -2.459833040280251E-1   -1.424527919843418E-2    4.951674250897301E-2   -1.182353730501039E-2    4.904051825220825E-2   -5.018283137683017E-1   -6.354140534510989E-2
 6.501803736250000E9    -4.629155673790669E-1   -2.449086550746115E-1   -1.418303245010097E-2    4.992826991542874E-2   -1.165527543267541E-2    4.943798402323105E-2   -5.019292744826612E-1   -6.191067172950478E-2
 6.501816554800000E9    -4.632893747606067E-1   -2.438739543112728E-1   -1.422064546518830E-2    5.036264973959075E-2   -1.172517125091817E-2    4.984722671791404E-2   -5.019496230245739E-1   -6.027382105023057E-2
 6.501829373350000E9    -4.638650957369002E-1   -2.428465390400146E-1   -1.405760731235973E-2    5.081980500963126E-2   -1.165157298025181E-2    5.026112938445437E-2   -5.018794137110809E-1   -5.873056528237958E-2
 6.501842191900000E9    -4.643804464161794E-1   -2.416567129615213E-1   -1.405323752391300E-2    5.128761195425081E-2   -1.147454327715016E-2    5.077949837571205E-2   -5.021071428427537E-1   -5.698840326060873E-2
 6.501855010450000E9    -4.647635868945701E-1   -2.406481619701472E-1   -1.409837147546916E-2    5.171337966863020E-2   -1.143461046112857E-2    5.113593320679208E-2   -5.020395917202323E-1   -5.535113666565065E-2
 6.501867829000000E9    -4.653118298593797E-1   -2.395372851412118E-1   -1.399679694888110E-2    5.212977501299402E-2   -1.139306670470023E-2    5.164975790583048E-2   -5.021951114964952E-1   -5.354449883602415E-2
 6.501880647550000E9    -4.657679390317733E-1   -2.383827908362080E-1   -1.388029801772656E-2    5.259652340246514E-2   -1.130646682610506E-2    5.208783418993934E-2   -5.019352287509832E-1   -5.197232746585771E-2
 6.501893466100000E9    -4.662208013402397E-1   -2.373287086195914E-1   -1.387409055542370E-2    5.312921435652671E-2   -1.116696587877469E-2    5.244055838358024E-2   -5.020081820926942E-1   -5.017682809577523E-2
 6.501906284650000E9    -4.666672638324862E-1   -2.362563049496836E-1   -1.381025684739565E-2    5.361642715923515E-2   -1.113829827075080E-2    5.300425765110220E-2   -5.020003988772366E-1   -4.854631728003522E-2
 6.501919103200000E9    -4.670760376778083E-1   -2.352525965201884E-1   -1.364758799250293E-2    5.421360459467672E-2   -1.110828221454831E-2    5.350626987204139E-2   -5.019042520773380E-1   -4.661568381606348E-2
 6.501931921750000E9    -4.676133852901957E-1   -2.341581470601974E-1   -1.357855501536029E-2    5.450828403459532E-2   -1.091894815674775E-2    5.393149925275728E-2   -5.018992296643922E-1   -4.489519684363362E-2
 6.501944740300000E9    -4.681265105665356E-1   -2.329563315902785E-1   -1.352592909763050E-2    5.513672023530199E-2   -1.096755064884648E-2    5.442383983276389E-2   -5.019690315867512E-1   -4.319106507124994E-2
 6.501957558850000E9    -4.685561445395942E-1   -2.318983511509178E-1   -1.355227119705686E-2    5.560305862835692E-2   -1.083036701272029E-2    5.485728462140369E-2   -5.017720986870312E-1   -4.143210621912923E-2
 6.501970377400000E9    -4.689875507073806E-1   -2.306971078493932E-1   -1.337134298136957E-2    5.619355461529575E-2   -1.083465678287367E-2    5.544566654103603E-2   -5.018562389615153E-1   -3.956652405241607E-2
 6.501983195950000E9    -4.694801032397768E-1   -2.295724881552485E-1   -1.345320776556436E-2    5.663474646474952E-2   -1.062255471427905E-2    5.595464980368216E-2   -5.016784787180577E-1   -3.776849284832118E-2
 6.501996014500000E9    -4.699473225500862E-1   -2.284964118801335E-1   -1.349172577269207E-2    5.724137619135120E-2   -1.051112078444627E-2    5.648796050442734E-2   -5.015188309866327E-1   -3.599002412513167E-2
