#  HZ   S   RI   R     50.00 
! Rohde & Schwarz Vector Network Analyzer 
! Rohde-Schwarz,ZNB20-2Port,1311601062101988,3.16
! Created: UTC 3/20/2024, 11:54:16 AM
! freq[Hz]                re:S11                  im:S11                  re:S21                  im:S21                  re:S12                  im:S12                  re:S22                  im:S22
 6.500847312000000E9    -4.214536011124043E-1   -3.156146504355828E-1   -1.500466827488022E-2    2.925902034677520E-2   -1.332055873929668E-2    2.941177164772855E-2   -4.864923739021856E-1   -1.639613676946118E-1
 6.500860111475000E9    -4.220140784839623E-1   -3.147584861491877E-1   -1.496069382442128E-2    2.943636352333817E-2   -1.332761599485730E-2    2.961555565045621E-2   -4.869351602040268E-1   -1.628084248076969E-1
 6.500872910950000E9    -4.226303670348427E-1   -3.139017058134401E-1   -1.502249319056099E-2    2.950916996433839E-2   -1.333964710692253E-2    2.975889812023650E-2   -4.872540425426099E-1   -1.616189214186208E-1
 6.500885710425000E9    -4.233174488369362E-1   -3.130117349216885E-1   -1.514910021774501E-2    2.981786586424148E-2   -1.338889840581741E-2    3.002595916495159E-2   -4.874769064292679E-1   -1.603204998045611E-1
 6.500898509900000E9    -4.238566296124676E-1   -3.121181348208583E-1   -1.506105065086632E-2    2.986706569696919E-2   -1.330025619615285E-2    3.009591792218105E-2   -4.878443415133132E-1   -1.591553014931080E-1
 6.500911309375000E9    -4.244575365570983E-1   -3.111901070026534E-1   -1.484657545851597E-2    3.014150883495198E-2   -1.331658930090428E-2    3.030136856678245E-2   -4.881380284256553E-1   -1.579628532255834E-1
 6.500924108850000E9    -4.250889524579393E-1   -3.103585434715425E-1   -1.505465555629468E-2    3.043873677804278E-2   -1.337598763838624E-2    3.055759497406635E-2   -4.884591961173046E-1   -1.566775585563706E-1
 6.500936908325000E9    -4.257996881329548E-1   -3.096642459874368E-1   -1.504983163407541E-2    3.038824027518614E-2   -1.324732158468659E-2    3.068278510903053E-2   -4.887452349677114E-1   -1.556263378868152E-1
 6.500949707800000E9    -4.262885145125455E-1   -3.087086832065761E-1   -1.505531521360088E-2    3.082516579791656E-2   -1.333337241616568E-2    3.083134699552494E-2   -4.890078464569547E-1   -1.542463044465893E-1
 6.500962507275000E9    -4.269696408796571E-1   -3.077684312206979E-1   -1.507323444836300E-2    3.095604104642803E-2   -1.336840246751813E-2    3.105456471514404E-2   -4.891984804684090E-1   -1.530077295262517E-1
 6.500975306750000E9    -4.275043080552284E-1   -3.069334808069295E-1   -1.500841338918925E-2    3.117165099636065E-2   -1.322642194422883E-2    3.125368349618606E-2   -4.895729551746238E-1   -1.519128276369588E-1
 6.500988106225000E9    -4.280023409278567E-1   -3.060237580320035E-1   -1.497763806759494E-2    3.142066974771311E-2   -1.334293468958462E-2    3.139706154814813E-2   -4.900201430677450E-1   -1.506259969893090E-1
 6.501000905700000E9    -4.286122922752503E-1   -3.052701667356815E-1   -1.504808778152575E-2    3.155276011664519E-2   -1.333037337150686E-2    3.161647199743532E-2   -4.902457318779466E-1   -1.494548503339414E-1
 6.501013705175000E9    -4.292376720970190E-1   -3.043259603377803E-1   -1.506451695572990E-2    3.170720845620274E-2   -1.324400325344695E-2    3.181466653547903E-2   -4.905908302123354E-1   -1.481969838699693E-1
 6.501026504650000E9    -4.298484362448852E-1   -3.034675667701298E-1   -1.504080919727839E-2    3.195763698234821E-2   -1.320805010555700E-2    3.195042995742382E-2   -4.907829158516582E-1   -1.471327112588272E-1
 6.501039304125000E9    -4.304524872716092E-1   -3.025253131064712E-1   -1.510559314122205E-2    3.221567551629549E-2   -1.326512912596283E-2    3.216359452003176E-2   -4.910634300224154E-1   -1.458002665392394E-1
 6.501052103600000E9    -4.310712947655538E-1   -3.017467150919363E-1   -1.498078051847901E-2    3.229750283374734E-2   -1.320025008370035E-2    3.245618499719550E-2   -4.915049246351501E-1   -1.444880789727640E-1
 6.501064903075000E9    -4.315697944693770E-1   -3.007379576374607E-1   -1.506053775353728E-2    3.254287063145115E-2   -1.328276055039198E-2    3.255980597108155E-2   -4.916782592627426E-1   -1.432977359931883E-1
 6.501077702550000E9    -4.322026258041935E-1   -2.999403034278253E-1   -1.498457571488408E-2    3.281106616445324E-2   -1.325135915127732E-2    3.284957179458874E-2   -4.919870233760322E-1   -1.420790028868258E-1
 6.501090502025000E9    -4.327635582812005E-1   -2.989314806504209E-1   -1.515092370637127E-2    3.298509185091054E-2   -1.328796884717182E-2    3.294379468931145E-2   -4.922341871600476E-1   -1.408415486614951E-1
 6.501103301500000E9    -4.334251592881797E-1   -2.980343024117051E-1   -1.502712195326336E-2    3.333302816223734E-2   -1.322621024549650E-2    3.327599441660902E-2   -4.925559564444963E-1   -1.395054995135409E-1
 6.501116100975000E9    -4.339429214935432E-1   -2.971395251744826E-1   -1.512953318323500E-2    3.343356988209824E-2   -1.328252192807321E-2    3.340891544669459E-2   -4.927197590651345E-1   -1.382587246304938E-1
 6.501128900450000E9    -4.345900089804045E-1   -2.962792169530606E-1   -1.490978469482075E-2    3.368459412691046E-2   -1.312963219948789E-2    3.355397591877832E-2   -4.930061592735227E-1   -1.370085992033930E-1
 6.501141699925000E9    -4.350952238283729E-1   -2.953924793836663E-1   -1.502078319759918E-2    3.392454149526934E-2   -1.330742552371437E-2    3.395374443717694E-2   -4.932592801643699E-1   -1.357315362421087E-1
 6.501154499400000E9    -4.355953232443634E-1   -2.944883348356120E-1   -1.510172091987960E-2    3.403214509949130E-2   -1.316302645750168E-2    3.404805873846418E-2   -4.934662268492672E-1   -1.343420291660819E-1
 6.501167298875000E9    -4.363083347041023E-1   -2.935806723228904E-1   -1.511265839762166E-2    3.417318544233434E-2   -1.316409278244821E-2    3.432213520848421E-2   -4.938199635925545E-1   -1.331581021027990E-1
 6.501180098350000E9    -4.368969316665403E-1   -2.926235508453915E-1   -1.510522142366466E-2    3.450268216251650E-2   -1.319469763042604E-2    3.459935785806202E-2   -4.940430257505257E-1   -1.319123327213874E-1
 6.501192897825000E9    -4.373845302283360E-1   -2.918599764292652E-1   -1.506541339798771E-2    3.481161861553564E-2   -1.312525906048935E-2    3.478924105239416E-2   -4.943403910414852E-1   -1.307033395428610E-1
 6.501205697300000E9    -4.380822376196791E-1   -2.908190484555855E-1   -1.508604584716219E-2    3.501842634981927E-2   -1.316990284457505E-2    3.496065873368362E-2   -4.945951785750404E-1   -1.292167082990215E-1
 6.501218496775000E9    -4.385705198162029E-1   -2.898935104836895E-1   -1.490987883376389E-2    3.526980787623434E-2   -1.313600803885367E-2    3.523345556733617E-2   -4.947782805363556E-1   -1.279348749478545E-1
 6.501231296250000E9    -4.391004071319998E-1   -2.889839848614018E-1   -1.511901821653104E-2    3.557706267879231E-2   -1.312174329374854E-2    3.543976229515727E-2   -4.949246269819353E-1   -1.268369297635308E-1
 6.501244095725000E9    -4.396065805635593E-1   -2.881094426139540E-1   -1.513047610310866E-2    3.576369149256173E-2   -1.304060369843761E-2    3.577439433203897E-2   -4.953852256322107E-1   -1.255269377435249E-1
 6.501256895200000E9    -4.402490904997702E-1   -2.871810166802978E-1   -1.515206632253655E-2    3.590198525630700E-2   -1.311444769682681E-2    3.588910967624764E-2   -4.955859708559375E-1   -1.241479895345900E-1
 6.501269694675000E9    -4.408467749306582E-1   -2.861893066861768E-1   -1.508893607019302E-2    3.634707524278815E-2   -1.307335481942464E-2    3.629161750993765E-2   -4.957138558730704E-1   -1.227929021849328E-1
 6.501282494150000E9    -4.414329245298399E-1   -2.852900180043920E-1   -1.499795917101042E-2    3.653005084120894E-2   -1.302492985037074E-2    3.647811756049496E-2   -4.960831424281876E-1   -1.213951741734512E-1
 6.501295293625000E9    -4.419331868227225E-1   -2.844777736085958E-1   -1.503346433560768E-2    3.675981982705460E-2   -1.303530842040960E-2    3.669656456791535E-2   -4.962795360121379E-1   -1.201289001726518E-1
 6.501308093100000E9    -4.424484296271138E-1   -2.834151676060811E-1   -1.509874896193412E-2    3.699640140844609E-2   -1.300460963986752E-2    3.686037543774286E-2   -4.964735764401229E-1   -1.188374249477654E-1
 6.501320892575000E9    -4.430967368182779E-1   -2.825376022621382E-1   -1.502819264132269E-2    3.733475422451960E-2   -1.304891877437326E-2    3.721277278927796E-2   -4.965670297495401E-1   -1.173912569289994E-1
 6.501333692050000E9    -4.435932582113445E-1   -2.814485354850412E-1   -1.501163677183454E-2    3.768440029043743E-2   -1.299236918233829E-2    3.740081502909109E-2   -4.969853106173029E-1   -1.161593931346626E-1
 6.501346491525000E9    -4.441699972104997E-1   -2.806565886401228E-1   -1.481911216473074E-2    3.771780100208390E-2   -1.296953058042677E-2    3.774658335679465E-2   -4.971540925588431E-1   -1.148038514899190E-1
 6.501359291000000E9    -4.447672418478643E-1   -2.795787105602419E-1   -1.499662936067009E-2    3.809049163643354E-2   -1.294107521505073E-2    3.792070227115951E-2   -4.973563314951611E-1   -1.133999815687638E-1
 6.501372090475000E9    -4.454130047883851E-1   -2.787260096064154E-1   -1.492398091339935E-2    3.833662574522585E-2   -1.304123165631845E-2    3.823910674617374E-2   -4.975466151957598E-1   -1.121574314870382E-1
 6.501384889950000E9    -4.458949268546539E-1   -2.777690281043178E-1   -1.498460011444155E-2    3.861642734610908E-2   -1.294905308477509E-2    3.852323525244486E-2   -4.976456830375698E-1   -1.107979622759102E-1
 6.501397689425000E9    -4.464536188049530E-1   -2.768254086128711E-1   -1.502945125031495E-2    3.888816300529317E-2   -1.294696484456871E-2    3.869077824157070E-2   -4.978612867222117E-1   -1.094202823208982E-1
 6.501410488900000E9    -4.469290221776617E-1   -2.759464179989919E-1   -1.498724772262060E-2    3.918944177199552E-2   -1.292090413004293E-2    3.904816138121466E-2   -4.981930855760131E-1   -1.079810307160088E-1
 6.501423288375000E9    -4.474718546578245E-1   -2.748491169772062E-1   -1.490109768114668E-2    3.942406697965289E-2   -1.289111398458377E-2    3.935083882558955E-2   -4.983338986575445E-1   -1.065971641274591E-1
 6.501436087850000E9    -4.480316391483050E-1   -2.738710651205633E-1   -1.492147010771591E-2    3.981117187817870E-2   -1.290654601550294E-2    3.959420232198558E-2   -4.984677019460345E-1   -1.053206935468474E-1
 6.501448887325000E9    -4.486428999114366E-1   -2.729197654084071E-1   -1.493977133515761E-2    3.995310512131593E-2   -1.288294888065407E-2    3.989532782127541E-2   -4.985476845006748E-1   -1.038363690715418E-1
 6.501461686800000E9    -4.490500999240707E-1   -2.720433659039229E-1   -1.486549269634697E-2    4.032930964828291E-2   -1.279075672881215E-2    4.019292494134378E-2   -4.988352628546617E-1   -1.023303403078162E-1
 6.501474486275000E9    -4.496237379276338E-1   -2.710436157667376E-1   -1.494669224904089E-2    4.063170541713081E-2   -1.275912267466159E-2    4.039560214597832E-2   -4.991314981684082E-1   -1.009574802391468E-1
 6.501487285750000E9    -4.502767443084296E-1   -2.701496583349661E-1   -1.468891096915230E-2    4.106341339481389E-2   -1.268787210327688E-2    4.069161470076706E-2   -4.991657722556752E-1   -9.961212116576684E-2
 6.501500085225000E9    -4.507341887742744E-1   -2.690054918541868E-1   -1.475035242486378E-2    4.124559081384506E-2   -1.264060732634367E-2    4.101210493297291E-2   -4.995368842190840E-1   -9.814124563948154E-2
 6.501512884700000E9    -4.512246274990246E-1   -2.682386472820796E-1   -1.482285687558429E-2    4.159939622767280E-2   -1.273081185433880E-2    4.132808597033042E-2   -4.995921796319934E-1   -9.670885955618043E-2
 6.501525684175000E9    -4.517975382415998E-1   -2.671331917627586E-1   -1.485092548860677E-2    4.190186680058406E-2   -1.261926057776365E-2    4.163004305641559E-2   -4.996786313240021E-1   -9.519314834199344E-2
 6.501538483650000E9    -4.522663742425301E-1   -2.661160108123358E-1   -1.491307555087843E-2    4.219638355606303E-2   -1.254991324445601E-2    4.194070675030091E-2   -4.998147674869309E-1   -9.377156392733690E-2
 6.501551283125000E9    -4.528631135557147E-1   -2.652569993357166E-1   -1.485213293114360E-2    4.265525550169556E-2   -1.270193689531718E-2    4.225998505947062E-2   -5.000173915787466E-1   -9.230121967672010E-2
 6.501564082600000E9    -4.533910207445258E-1   -2.641842952282864E-1   -1.469689361619371E-2    4.283875252902648E-2   -1.257293612375925E-2    4.261182154623933E-2   -5.000787482950180E-1   -9.100502530831751E-2
 6.501576882075000E9    -4.539019956759404E-1   -2.631726067750532E-1   -1.484790099411188E-2    4.315238449012531E-2   -1.254855589884104E-2    4.289588005581111E-2   -5.002808753568356E-1   -8.942443010051714E-2
 6.501589681550000E9    -4.543606737315163E-1   -2.622071509146233E-1   -1.474867645440277E-2    4.359003263104209E-2   -1.246632410518184E-2    4.325068700087886E-2   -5.005904652824822E-1   -8.794800895079832E-2
 6.501602481025000E9    -4.549562169644160E-1   -2.611969882081817E-1   -1.464998298011308E-2    4.381686391496530E-2   -1.252004207794069E-2    4.353471902746434E-2   -5.005511240098340E-1   -8.649351591146319E-2
 6.501615280500000E9    -4.553716881577124E-1   -2.602412979693360E-1   -1.476448170970465E-2    4.421447872940055E-2   -1.243695360705203E-2    4.391485458789585E-2   -5.006810828154453E-1   -8.497244489483620E-2
 6.501628079975000E9    -4.558728066525742E-1   -2.592079375376807E-1   -1.463951420651783E-2    4.457434799012674E-2   -1.244364177292669E-2    4.419695771922587E-2   -5.007774373083248E-1   -8.342888552443418E-2
 6.501640879450000E9    -4.564803154462146E-1   -2.581962079677953E-1   -1.459972953745119E-2    4.481303140979694E-2   -1.233980302109650E-2    4.448336725130402E-2   -5.009572489132745E-1   -8.200068857996447E-2
 6.501653678925000E9    -4.570850475544748E-1   -2.571734291197972E-1   -1.463913441355749E-2    4.524031235288545E-2   -1.229438862279994E-2    4.492274085140972E-2   -5.010734065842248E-1   -8.038620030024865E-2
 6.501666478400000E9    -4.575285697740066E-1   -2.561893216716387E-1   -1.460664852542918E-2    4.553523298566033E-2   -1.219605518523264E-2    4.520991909076064E-2   -5.010560182308874E-1   -7.894867276754253E-2
 6.501679277875000E9    -4.579908410446109E-1   -2.551382507831497E-1   -1.449050450476056E-2    4.602140882204919E-2   -1.220189127067972E-2    4.562818456422136E-2   -5.012164209504476E-1   -7.742266643923611E-2
 6.501692077350000E9    -4.585705443953442E-1   -2.541284308753669E-1   -1.455366670244491E-2    4.640187122038310E-2   -1.219395375297329E-2    4.596731772087597E-2   -5.013081858525499E-1   -7.594191453743060E-2
 6.501704876825000E9    -4.590908255738677E-1   -2.529991748474215E-1   -1.441396212561519E-2    4.684012008318061E-2   -1.203492587400012E-2    4.635802976450924E-2   -5.015058976778646E-1   -7.421223372665589E-2
 6.501717676300000E9    -4.595118463053104E-1   -2.520770451593678E-1   -1.444122714500864E-2    4.719538412002544E-2   -1.211333531099625E-2    4.683433586050110E-2   -5.015591067639761E-1   -7.274167890879719E-2
 6.501730475775000E9    -4.601337260406796E-1   -2.510563482535538E-1   -1.450994015243130E-2    4.757482150680606E-2   -1.211086775676837E-2    4.721825582532520E-2   -5.016053206653462E-1   -7.123291114013741E-2
 6.501743275250000E9    -4.606282963252886E-1   -2.499311678556262E-1   -1.439829058097558E-2    4.788841329889771E-2   -1.194616794293678E-2    4.744633484462962E-2   -5.017874982606614E-1   -6.957166887573435E-2
 6.501756074725000E9    -4.609810717670407E-1   -2.489514597571758E-1   -1.433834402291409E-2    4.823851288700130E-2   -1.190143616357378E-2    4.789125216880688E-2   -5.018234908994202E-1   -6.792620925209963E-2
 6.501768874200000E9    -4.615564321245589E-1   -2.479138953255035E-1   -1.427228187390615E-2    4.872811821096033E-2   -1.186963875983618E-2    4.821305810845367E-2   -5.018307689297807E-1   -6.651935932128095E-2
 6.501781673675000E9    -4.620789877210165E-1   -2.468210036080561E-1   -1.439928379519527E-2    4.906302695699107E-2   -1.176818998852034E-2    4.866496502222318E-2   -5.019004250910041E-1   -6.478454056473487E-2
 6.501794473150000E9    -4.625822647454758E-1   -2.457372163934375E-1   -1.423686535257033E-2    4.950238517879917E-2   -1.180988710467978E-2    4.912814149492395E-2   -5.018275226034596E-1   -6.305752400526692E-2
 6.501807272625000E9    -4.629400269535571E-1   -2.446302707658373E-1   -1.418114945088557E-2    5.004816383108704E-2   -1.167241013916237E-2    4.943750257534633E-2   -5.018988002329023E-1   -6.153231634935672E-2
 6.501820072100000E9    -4.634774806907502E-1   -2.436467506894634E-1   -1.411143571797656E-2    5.026596514187515E-2   -1.175898196085853E-2    4.996331370989499E-2   -5.020245457518002E-1   -5.984684430835700E-2
 6.501832871575000E9    -4.639197344450671E-1   -2.426403458874260E-1   -1.401759990559954E-2    5.078138229110339E-2   -1.161661634712825E-2    5.039149760991550E-2   -5.020593133785700E-1   -5.824948976770632E-2
 6.501845671050000E9    -4.644154908600836E-1   -2.414436154822447E-1   -1.396317392307107E-2    5.124684582681772E-2   -1.146987295528939E-2    5.074505137263582E-2   -5.020229813772165E-1   -5.660157356913739E-2
 6.501858470525000E9    -4.649163757461657E-1   -2.404297503621335E-1   -1.393848892404305E-2    5.169139307178558E-2   -1.147907901134947E-2    5.123845005449049E-2   -5.019012183706119E-1   -5.478157803669506E-2
 6.501871270000000E9    -4.653805295459351E-1   -2.393086571201599E-1   -1.388555188884364E-2    5.207375516406330E-2   -1.139478000221686E-2    5.172411797286295E-2   -5.020066447396190E-1   -5.324527476497603E-2
 6.501884069475000E9    -4.658952323924722E-1   -2.382710147737912E-1   -1.380971823679876E-2    5.269957664227427E-2   -1.130585245434520E-2    5.203491180759908E-2   -5.021279724873593E-1   -5.152138686260036E-2
 6.501896868950000E9    -4.663258646906155E-1   -2.372527100881313E-1   -1.381477945220748E-2    5.315565191626967E-2   -1.119649729228504E-2    5.254110176745930E-2   -5.019448574835377E-1   -4.970331884200174E-2
 6.501909668425000E9    -4.668423246763232E-1   -2.360054892867172E-1   -1.355658688241613E-2    5.371443909226403E-2   -1.122596121505866E-2    5.311141713766335E-2   -5.020298702684918E-1   -4.816480872082667E-2
 6.501922467900000E9    -4.672270632520791E-1   -2.349637773990414E-1   -1.368031913712651E-2    5.432109734488654E-2   -1.108023027015422E-2    5.355641352888799E-2   -5.020412885500540E-1   -4.649739333524762E-2
 6.501935267375000E9    -4.677733573594828E-1   -2.338088690992245E-1   -1.359152114134954E-2    5.464202258306988E-2   -1.103810173926783E-2    5.402744072749727E-2   -5.019683905224274E-1   -4.456921417551133E-2
 6.501948066850000E9    -4.681828889466280E-1   -2.326807041901921E-1   -1.360113109251833E-2    5.517722341359770E-2   -1.091154171454177E-2    5.446824456804491E-2   -5.019451484939532E-1   -4.278117962664502E-2
 6.501960866325000E9    -4.687471128179013E-1   -2.315030094676798E-1   -1.356254079137119E-2    5.572444159979205E-2   -1.084891878303134E-2    5.498103809698465E-2   -5.019228757551070E-1   -4.111750042342011E-2
 6.501973665800000E9    -4.691213563296049E-1   -2.305086531963607E-1   -1.335777139460910E-2    5.623186130628167E-2   -1.066287663733048E-2    5.546992853700481E-2   -5.018398951960695E-1   -3.915147900703653E-2
 6.501986465275000E9    -4.696487173521344E-1   -2.292858390507639E-1   -1.332252908609841E-2    5.672046639712432E-2   -1.063950776053105E-2    5.604744040934093E-2   -5.017748704487882E-1   -3.752766286871564E-2
 6.501999264750000E9    -4.700496508830883E-1   -2.282650807126344E-1   -1.316275116199435E-2    5.721618756697223E-2   -1.054380108991670E-2    5.653132960024866E-2   -5.015813791446271E-1   -3.570109701041464E-2
