#  HZ   S   RI   R     50.00 
! Rohde & Schwarz Vector Network Analyzer 
! Rohde-Schwarz,ZNB20-2Port,1311601062101988,3.16
! Created: UTC 3/20/2024, 11:54:18 AM
! freq[Hz]                re:S11                  im:S11                  re:S21                  im:S21                  re:S12                  im:S12                  re:S22                  im:S22
 6.500849044000000E9    -4.215626849187054E-1   -3.154585307835098E-1   -1.502220810985700E-2    2.920820434205144E-2   -1.334470313102448E-2    2.937280081291074E-2   -4.866090384040517E-1   -1.637070416995259E-1
 6.500861837925000E9    -4.222176989350936E-1   -3.145747031302248E-1   -1.498908606105339E-2    2.953874672774570E-2   -1.326974644899244E-2    2.959312957948565E-2   -4.868261976606152E-1   -1.626059071469164E-1
 6.500874631850000E9    -4.227451067967538E-1   -3.137873449523959E-1   -1.517831493066058E-2    2.965352298882866E-2   -1.326016182101712E-2    2.984151852908929E-2   -4.871223275922879E-1   -1.612923855258577E-1
 6.500887425775000E9    -4.234021729076194E-1   -3.128904623135411E-1   -1.514086623122818E-2    2.986693585114481E-2   -1.334531083309806E-2    2.994746089997627E-2   -4.875723887135287E-1   -1.602208486163076E-1
 6.500900219700000E9    -4.239762697968794E-1   -3.119117236335903E-1   -1.507272589340024E-2    2.997675209224668E-2   -1.328712650466852E-2    3.014460783016418E-2   -4.878915995701684E-1   -1.588924107983067E-1
 6.500913013625000E9    -4.245376004059100E-1   -3.111830850149944E-1   -1.496584980728854E-2    3.007617772054137E-2   -1.337256901807034E-2    3.026602162121886E-2   -4.882352379870847E-1   -1.577615440245309E-1
 6.500925807550000E9    -4.252888327834252E-1   -3.103463749980590E-1   -1.502794831014856E-2    3.035157140905041E-2   -1.333381679499133E-2    3.059178146384436E-2   -4.884928120289029E-1   -1.565613611023065E-1
 6.500938601475000E9    -4.257577596702047E-1   -3.094460763351795E-1   -1.506689978906675E-2    3.053838454875626E-2   -1.330851067016963E-2    3.067247273216538E-2   -4.887763804020296E-1   -1.555313007640614E-1
 6.500951395400000E9    -4.263948457460544E-1   -3.086462062528844E-1   -1.501769846477286E-2    3.090457187626177E-2   -1.330352343438289E-2    3.095416603456707E-2   -4.889917667102359E-1   -1.542212566080182E-1
 6.500964189325000E9    -4.270287061383284E-1   -3.076231855296558E-1   -1.499877506142671E-2    3.085767043887204E-2   -1.333781265939948E-2    3.104472425012453E-2   -4.893892108532907E-1   -1.530272432112628E-1
 6.500976983250000E9    -4.275263888301750E-1   -3.067812045376019E-1   -1.503622824739541E-2    3.111416751965570E-2   -1.333605038243042E-2    3.121151106142470E-2   -4.897439731657648E-1   -1.516153971312851E-1
 6.500989777175000E9    -4.281392146996580E-1   -3.059049554729409E-1   -1.494632384458183E-2    3.130971290873740E-2   -1.327568794477619E-2    3.149421143668277E-2   -4.899594099570168E-1   -1.504574857919208E-1
 6.501002571100000E9    -4.286811139449618E-1   -3.050324223915004E-1   -1.501735807548863E-2    3.161132567258383E-2   -1.333006698252802E-2    3.161479389017232E-2   -4.903410967859582E-1   -1.492823316559192E-1
 6.501015365025000E9    -4.293353306156905E-1   -3.040878895298541E-1   -1.507122573846991E-2    3.169511074877701E-2   -1.328589807769194E-2    3.184985521046620E-2   -4.904610043835817E-1   -1.479653233072482E-1
 6.501028158950000E9    -4.299802875295815E-1   -3.033345893228236E-1   -1.505018267500655E-2    3.195465716479016E-2   -1.332074822922211E-2    3.209560565389747E-2   -4.908886889283114E-1   -1.467672014287372E-1
 6.501040952875000E9    -4.304656164566535E-1   -3.024674846975038E-1   -1.505271146440147E-2    3.207110635659964E-2   -1.320491813394252E-2    3.229752481022120E-2   -4.911481827896714E-1   -1.456569803384088E-1
 6.501053746800000E9    -4.310658074270807E-1   -3.014850713649567E-1   -1.508022132570370E-2    3.227594471966941E-2   -1.327706629704166E-2    3.242024000392748E-2   -4.914393673906097E-1   -1.443217665454722E-1
 6.501066540725000E9    -4.317865778415828E-1   -3.005595479646805E-1   -1.506644897999698E-2    3.267104380737143E-2   -1.314454339365685E-2    3.260180776557824E-2   -4.916253000683369E-1   -1.431582841126096E-1
 6.501079334650000E9    -4.323254934230040E-1   -2.997133603927433E-1   -1.501326085535253E-2    3.286936510734628E-2   -1.323781636032083E-2    3.286174460214380E-2   -4.919998155696638E-1   -1.418055017979396E-1
 6.501092128575000E9    -4.328780699746780E-1   -2.988637379542051E-1   -1.491200144854120E-2    3.304041644047966E-2   -1.326084474366635E-2    3.310862837287656E-2   -4.921849356401500E-1   -1.407295084262419E-1
 6.501104922500000E9    -4.334684912087835E-1   -2.979013490086665E-1   -1.510799879808438E-2    3.323669815323183E-2   -1.325320134559192E-2    3.323419371242307E-2   -4.925594679423968E-1   -1.392724570891101E-1
 6.501117716425000E9    -4.340615256326561E-1   -2.970864011577539E-1   -1.507373234268003E-2    3.333479809722569E-2   -1.323211244598650E-2    3.352601140675052E-2   -4.928273919535137E-1   -1.380944629482376E-1
 6.501130510350000E9    -4.346003993575791E-1   -2.961616192949438E-1   -1.499606844511083E-2    3.361492731693849E-2   -1.321349102562725E-2    3.374521328306593E-2   -4.930621239876742E-1   -1.368905629568731E-1
 6.501143304275000E9    -4.352821608341149E-1   -2.953044199341416E-1   -1.516276034431461E-2    3.390958596543625E-2   -1.322096231072505E-2    3.391218768213144E-2   -4.933317037725728E-1   -1.355763501100923E-1
 6.501156098200000E9    -4.358364047758441E-1   -2.943526463442507E-1   -1.507563539756026E-2    3.409223477667720E-2   -1.317153890389125E-2    3.403461201908747E-2   -4.936053111124407E-1   -1.345231403116550E-1
 6.501168892125000E9    -4.363958303726091E-1   -2.934056129249266E-1   -1.510026910241882E-2    3.441062514723677E-2   -1.319306526712152E-2    3.443974224322086E-2   -4.938011613009703E-1   -1.330498594666871E-1
 6.501181686050000E9    -4.370919821085726E-1   -2.926489973616889E-1   -1.496883498520403E-2    3.449112709965669E-2   -1.320932082138521E-2    3.467080972821822E-2   -4.941451536349507E-1   -1.316930223318418E-1
 6.501194479975000E9    -4.375603359420678E-1   -2.917076786247765E-1   -1.512432018280506E-2    3.489669681623089E-2   -1.314538995706006E-2    3.482624362391266E-2   -4.944163893186435E-1   -1.305061185962581E-1
 6.501207273900000E9    -4.380883452579543E-1   -2.906257871961986E-1   -1.504883450382443E-2    3.498669732988269E-2   -1.305805170015626E-2    3.506678033205554E-2   -4.945692629829378E-1   -1.292702213016075E-1
 6.501220067825000E9    -4.386739191900073E-1   -2.898130144993686E-1   -1.498408121250671E-2    3.527332595562054E-2   -1.309451007484955E-2    3.532016132715041E-2   -4.947521402928525E-1   -1.277626490006175E-1
 6.501232861750000E9    -4.392342894153444E-1   -2.888800799542103E-1   -1.500483308007874E-2    3.561032723115178E-2   -1.313370625068076E-2    3.542740276391759E-2   -4.950383205535721E-1   -1.266045594665980E-1
 6.501245655675000E9    -4.398313005589318E-1   -2.880129926886085E-1   -1.502063786237775E-2    3.574112999094801E-2   -1.306551967092432E-2    3.583046416213219E-2   -4.952161301358356E-1   -1.252360016266596E-1
 6.501258449600000E9    -4.403848663932263E-1   -2.871147266451181E-1   -1.503696689427705E-2    3.601629734548972E-2   -1.307846988837231E-2    3.591205944951864E-2   -4.955132300464213E-1   -1.239435721970028E-1
 6.501271243525000E9    -4.409329818736119E-1   -2.860488354820936E-1   -1.490696367110366E-2    3.622815768202029E-2   -1.310118768027099E-2    3.620044006276059E-2   -4.957002101950997E-1   -1.226450476652587E-1
 6.501284037450000E9    -4.414212004949803E-1   -2.850451226673761E-1   -1.498870218568153E-2    3.667750605712555E-2   -1.312468477176566E-2    3.638402917401338E-2   -4.959959793649008E-1   -1.213086037263800E-1
 6.501296831375000E9    -4.420408437433904E-1   -2.842515994628544E-1   -1.516840981857817E-2    3.686001931777431E-2   -1.300021708664737E-2    3.660211949875565E-2   -4.963081870101737E-1   -1.200795296527226E-1
 6.501309625300000E9    -4.426231714248747E-1   -2.833497632322546E-1   -1.495031872227513E-2    3.704625553614912E-2   -1.305261006909105E-2    3.698195257579395E-2   -4.965527157548091E-1   -1.187445369604730E-1
 6.501322419225000E9    -4.431507546644884E-1   -2.822930045943912E-1   -1.510344625293945E-2    3.728024098966592E-2   -1.303178427722497E-2    3.723218113307985E-2   -4.967583952155333E-1   -1.173412061241973E-1
 6.501335213150000E9    -4.437906826182885E-1   -2.813451152541941E-1   -1.503357002754924E-2    3.749236102269322E-2   -1.291091767368193E-2    3.742760176794986E-2   -4.969489600669632E-1   -1.159077658032462E-1
 6.501348007075000E9    -4.443226584170398E-1   -2.804532245004435E-1   -1.496704091457521E-2    3.772740952210166E-2   -1.295479805618138E-2    3.773418255686246E-2   -4.970766032617607E-1   -1.146152482508562E-1
 6.501360801000000E9    -4.447729536365785E-1   -2.795842312327725E-1   -1.484064770419665E-2    3.805687263405440E-2   -1.309498320571205E-2    3.796748801204313E-2   -4.974482963565794E-1   -1.132965138565044E-1
 6.501373594925000E9    -4.453467730286959E-1   -2.785964335894932E-1   -1.507499283399216E-2    3.828728746495249E-2   -1.292345332993729E-2    3.820521701743974E-2   -4.976549779140051E-1   -1.118947838220694E-1
 6.501386388850000E9    -4.458962917422491E-1   -2.774774542423293E-1   -1.497589662890328E-2    3.868163909096623E-2   -1.290547264003481E-2    3.857734607508014E-2   -4.978974493187409E-1   -1.105142850249213E-1
 6.501399182775000E9    -4.465269910716244E-1   -2.767167041699397E-1   -1.493960258355459E-2    3.891476640224711E-2   -1.292043690295219E-2    3.871783116921918E-2   -4.978663180404613E-1   -1.092145953621498E-1
 6.501411976700000E9    -4.470405332273379E-1   -2.758238528470499E-1   -1.505964044827424E-2    3.915533881163120E-2   -1.284345451322822E-2    3.903415132821593E-2   -4.981807632200646E-1   -1.078623934731482E-1
 6.501424770625000E9    -4.475892385686290E-1   -2.747828257545011E-1   -1.504635318669617E-2    3.951199923997153E-2   -1.288118383895201E-2    3.933726602771045E-2   -4.982337877525495E-1   -1.064214208208735E-1
 6.501437564550000E9    -4.481846551726024E-1   -2.738422271460967E-1   -1.495977283285580E-2    3.983680498104090E-2   -1.280317625293737E-2    3.957482361064514E-2   -4.985176797931033E-1   -1.051273237675358E-1
 6.501450358475000E9    -4.486665943651280E-1   -2.729540956654101E-1   -1.484144477352366E-2    4.006525278915831E-2   -1.279236392756671E-2    3.995248162928625E-2   -4.986209303373032E-1   -1.036234551082895E-1
 6.501463152400000E9    -4.492310630602329E-1   -2.719108419229282E-1   -1.500199303652939E-2    4.039921815806580E-2   -1.281881834993873E-2    4.012721398155566E-2   -4.988928628245519E-1   -1.022806469190734E-1
 6.501475946325000E9    -4.497382465371680E-1   -2.708926757950950E-1   -1.491216019540744E-2    4.066418756547694E-2   -1.281983139792860E-2    4.045078263145054E-2   -4.989931014524615E-1   -1.007778104225038E-1
 6.501488740250000E9    -4.502490121186825E-1   -2.697922756804122E-1   -1.484829357955973E-2    4.092024253946032E-2   -1.268709308753010E-2    4.073298563200033E-2   -4.992546954084372E-1   -9.947433200676593E-2
 6.501501534175000E9    -4.508561356580049E-1   -2.689650383963263E-1   -1.494158893236590E-2    4.132059636775351E-2   -1.271936224964841E-2    4.106131093984503E-2   -4.994099011545252E-1   -9.797124735890542E-2
 6.501514328100000E9    -4.513541031480572E-1   -2.679732092717764E-1   -1.486781751059874E-2    4.159187274019086E-2   -1.265003665043663E-2    4.131886715365142E-2   -4.995692909189448E-1   -9.657324761109642E-2
 6.501527122025000E9    -4.517884749977829E-1   -2.669962075953629E-1   -1.491378574359988E-2    4.181837648375977E-2   -1.263536261830901E-2    4.175142304880482E-2   -4.996383583226314E-1   -9.517269511361019E-2
 6.501539915950000E9    -4.524513395110507E-1   -2.660721272144728E-1   -1.476575389462002E-2    4.220655094921194E-2   -1.260052679021802E-2    4.209815056358787E-2   -4.999231460360788E-1   -9.367800482200227E-2
 6.501552709875000E9    -4.529452312838531E-1   -2.649119063632095E-1   -1.480423216278008E-2    4.252699619779788E-2   -1.264794315321700E-2    4.226426346879841E-2   -5.000900140281516E-1   -9.217155207196762E-2
 6.501565503800000E9    -4.533597452611338E-1   -2.639814323733479E-1   -1.474253279060101E-2    4.279994951651769E-2   -1.256850335324045E-2    4.262792013578187E-2   -5.002603672904988E-1   -9.086541351169330E-2
 6.501578297725000E9    -4.538312896097044E-1   -2.630628791801819E-1   -1.468460153764547E-2    4.315046637110603E-2   -1.256342035221299E-2    4.307949998474116E-2   -5.003562738009144E-1   -8.928310201827032E-2
 6.501591091650000E9    -4.544417315907268E-1   -2.620196229689412E-1   -1.477781034622917E-2    4.351368943245818E-2   -1.251426519104854E-2    4.329913645597391E-2   -5.003851614564909E-1   -8.773676048546937E-2
 6.501603885575000E9    -4.549559090377641E-1   -2.611048309934019E-1   -1.482304920873409E-2    4.397041650050523E-2   -1.241203252058317E-2    4.359929968576861E-2   -5.006543673652430E-1   -8.638971427332098E-2
 6.501616679500000E9    -4.555809800689986E-1   -2.599901786676534E-1   -1.487844224169009E-2    4.441184824237410E-2   -1.245112695162818E-2    4.388098768471266E-2   -5.007550932435832E-1   -8.490138529803186E-2
 6.501629473425000E9    -4.560756373561494E-1   -2.591241361007782E-1   -1.471557377875375E-2    4.463097469525308E-2   -1.230474899890922E-2    4.424693231951615E-2   -5.009269850371003E-1   -8.330194129269156E-2
 6.501642267350000E9    -4.565452956460370E-1   -2.580625619298784E-1   -1.461475812299843E-2    4.507693550970213E-2   -1.239599494356401E-2    4.457625935357761E-2   -5.008851896838757E-1   -8.185035190142086E-2
 6.501655061275000E9    -4.569888771698473E-1   -2.569134154111020E-1   -1.437872655259657E-2    4.520618962130150E-2   -1.236573242200053E-2    4.496806144067152E-2   -5.011386919935855E-1   -8.027123661343470E-2
 6.501667855200000E9    -4.575521990482604E-1   -2.560513678153785E-1   -1.455463428162020E-2    4.572848947384026E-2   -1.226462870268061E-2    4.524040953713612E-2   -5.011376413502249E-1   -7.885398309759684E-2
 6.501680649125000E9    -4.580819371874178E-1   -2.549789729727240E-1   -1.455671044118703E-2    4.608634944726787E-2   -1.218854111176445E-2    4.577268393638282E-2   -5.012397474130609E-1   -7.728864649557760E-2
 6.501693443050000E9    -4.586181880588229E-1   -2.539904968001894E-1   -1.439865655541026E-2    4.647156245511171E-2   -1.222023496534336E-2    4.600603800509084E-2   -5.013882223036799E-1   -7.578179262294037E-2
 6.501706236975000E9    -4.591031831931806E-1   -2.529232334789590E-1   -1.451964035866019E-2    4.659273843542547E-2   -1.215593746381955E-2    4.631082311943391E-2   -5.012948878061408E-1   -7.428742859940245E-2
 6.501719030900000E9    -4.595840085732674E-1   -2.519159710807242E-1   -1.440834850070433E-2    4.724670936696060E-2   -1.203118127518691E-2    4.675210287274020E-2   -5.015509018057466E-1   -7.266814912361269E-2
 6.501731824825000E9    -4.601205319606997E-1   -2.507090515799308E-1   -1.435473562733297E-2    4.748606759261865E-2   -1.204536308830968E-2    4.710010161345980E-2   -5.016071892609393E-1   -7.100902175142439E-2
 6.501744618750000E9    -4.605566088118372E-1   -2.498783165044882E-1   -1.431158571991983E-2    4.797531899296838E-2   -1.194913798244763E-2    4.745527037714854E-2   -5.017493162371891E-1   -6.956412810467190E-2
 6.501757412675000E9    -4.610950912688390E-1   -2.487866909468714E-1   -1.431155759257833E-2    4.831846464627897E-2   -1.192080030395013E-2    4.804980650918489E-2   -5.018713796677994E-1   -6.786374163376270E-2
 6.501770206600000E9    -4.615690740000032E-1   -2.477347663047605E-1   -1.430077160726361E-2    4.884219789453673E-2   -1.187798525363628E-2    4.836044305216829E-2   -5.019697734933253E-1   -6.616192106547517E-2
 6.501783000525000E9    -4.621188168603581E-1   -2.466247669567670E-1   -1.434612631573576E-2    4.909826026849830E-2   -1.183571445413397E-2    4.870743546722045E-2   -5.018699501852649E-1   -6.463091949832059E-2
 6.501795794450000E9    -4.626119259681211E-1   -2.457591869580299E-1   -1.414152523729897E-2    4.969972165048618E-2   -1.179603829214395E-2    4.898130943710792E-2   -5.019442677343747E-1   -6.308952306333028E-2
 6.501808588375000E9    -4.630969588801737E-1   -2.445783947970828E-1   -1.424597052462771E-2    5.004937414347221E-2   -1.161358180966275E-2    4.953133523646135E-2   -5.020356097131884E-1   -6.132161579248267E-2
 6.501821382300000E9    -4.635156306111266E-1   -2.435380098852110E-1   -1.412443911081626E-2    5.032387345510297E-2   -1.166796036854096E-2    4.993055100377561E-2   -5.020878176819238E-1   -5.979186430968950E-2
 6.501834176225000E9    -4.640108702680347E-1   -2.424260208014841E-1   -1.404013639898953E-2    5.085450627218646E-2   -1.158526002257737E-2    5.037251924338612E-2   -5.019674449245679E-1   -5.807730882234406E-2
 6.501846970150000E9    -4.644830720955012E-1   -2.414027056385618E-1   -1.404370192802813E-2    5.125506169115202E-2   -1.150424918056332E-2    5.073416704855704E-2   -5.020507933644108E-1   -5.630852840336972E-2
 6.501859764075000E9    -4.649436177922586E-1   -2.402519101778794E-1   -1.385265366620807E-2    5.189774843810748E-2   -1.145033295077895E-2    5.124759812944513E-2   -5.021020966844623E-1   -5.487351923279078E-2
 6.501872558000000E9    -4.654893887526332E-1   -2.391771903862967E-1   -1.389628787279244E-2    5.214332390200171E-2   -1.140180975355167E-2    5.175972850627027E-2   -5.021266717137894E-1   -5.309950083927925E-2
 6.501885351925000E9    -4.659089934858728E-1   -2.380711594322409E-1   -1.395275104513156E-2    5.258479937197707E-2   -1.132730806000461E-2    5.216102534265799E-2   -5.020984140361988E-1   -5.143161195677146E-2
 6.501898145850000E9    -4.664509637472991E-1   -2.369855987627072E-1   -1.384186200056486E-2    5.321445302648722E-2   -1.127662660694416E-2    5.256380397184965E-2   -5.020636330548519E-1   -4.968690503988037E-2
 6.501910939775000E9    -4.669306151618352E-1   -2.358606459726685E-1   -1.379535064914037E-2    5.376716705003841E-2   -1.121803315380074E-2    5.306198372209942E-2   -5.019514438800969E-1   -4.794696334318033E-2
 6.501923733700000E9    -4.674535685466756E-1   -2.348313668131162E-1   -1.379081153284606E-2    5.429254417097275E-2   -1.108721245218475E-2    5.353424865712497E-2   -5.020034065667878E-1   -4.615676798128310E-2
 6.501936527625000E9    -4.677990153582918E-1   -2.337017417147060E-1   -1.358209450873915E-2    5.465716750770096E-2   -1.095153591489605E-2    5.400328958787926E-2   -5.020777595541036E-1   -4.454818632016769E-2
 6.501949321550000E9    -4.682717909889958E-1   -2.325381373231615E-1   -1.355051788779616E-2    5.520807935014681E-2   -1.095547896514547E-2    5.446842686392343E-2   -5.017962050276839E-1   -4.265631109309769E-2
 6.501962115475000E9    -4.687346416316621E-1   -2.314313821390769E-1   -1.347818922105364E-2    5.578108290025829E-2   -1.080413208889120E-2    5.501212098041686E-2   -5.018309663054427E-1   -4.095668986793117E-2
 6.501974909400000E9    -4.692608256419732E-1   -2.302986112753173E-1   -1.353205403062994E-2    5.626508010940438E-2   -1.074072959179322E-2    5.545019516023424E-2   -5.018239713077065E-1   -3.906686679983646E-2
 6.501987703325000E9    -4.696646088542224E-1   -2.291639883261419E-1   -1.348773021703778E-2    5.672648681430666E-2   -1.061266415437122E-2    5.602757228886148E-2   -5.017366309214326E-1   -3.729770142030592E-2
 6.502000497250000E9    -4.700040326108626E-1   -2.281865144286017E-1   -1.334766287173125E-2    5.723265426710406E-2   -1.055605966509897E-2    5.649462178482127E-2   -5.016918981768487E-1   -3.548523016550163E-2
