#  HZ   S   RI   R     50.00 
! Rohde & Schwarz Vector Network Analyzer 
! Rohde-Schwarz,ZNB20-2Port,1311601062101988,3.16
! Created: UTC 3/20/2024, 11:54:23 AM
! freq[Hz]                re:S11                  im:S11                  re:S21                  im:S21                  re:S12                  im:S12                  re:S22                  im:S22
 6.500849447000000E9    -4.215958876147495E-1   -3.154890953965466E-1   -1.495528001719830E-2    2.930528138959874E-2   -1.336007243430937E-2    2.946568997617901E-2   -4.864819754214253E-1   -1.638190606420935E-1
 6.500862244175000E9    -4.222807538918157E-1   -3.145052511448421E-1   -1.505836498787916E-2    2.940453749230715E-2   -1.337800242573631E-2    2.960194293496884E-2   -4.867915784306686E-1   -1.624526155002767E-1
 6.500875041350000E9    -4.227567417607684E-1   -3.137469576244059E-1   -1.500657637516943E-2    2.961536037779296E-2   -1.337266816267377E-2    2.973938795421000E-2   -4.871926368036555E-1   -1.614573726925710E-1
 6.500887838525000E9    -4.234169360525581E-1   -3.128822104814770E-1   -1.497097657114063E-2    2.979344656077922E-2   -1.335724815429799E-2    2.993152198261459E-2   -4.875692684849524E-1   -1.601154194114022E-1
 6.500900635700000E9    -4.239406261309792E-1   -3.119267755125335E-1   -1.507898486570618E-2    2.999259013324419E-2   -1.336093381607516E-2    3.015094667652524E-2   -4.878248447300524E-1   -1.589702507095181E-1
 6.500913432875000E9    -4.246081813393944E-1   -3.111025647084560E-1   -1.497247685078251E-2    3.015240557086395E-2   -1.331334097433140E-2    3.036156592100297E-2   -4.882262974144516E-1   -1.578239563495462E-1
 6.500926230050000E9    -4.251305351663962E-1   -3.101520509699305E-1   -1.492109047700260E-2    3.036842604085198E-2   -1.342760513121119E-2    3.056743678655674E-2   -4.884371531716873E-1   -1.567460586596937E-1
 6.500939027225000E9    -4.258497581529966E-1   -3.094263196648789E-1   -1.496301746509953E-2    3.057478223105775E-2   -1.333034412415330E-2    3.062682083451224E-2   -4.889139679120631E-1   -1.553432818341747E-1
 6.500951824400000E9    -4.265037864007050E-1   -3.085648415310965E-1   -1.506473926374063E-2    3.083215857889268E-2   -1.337270872265133E-2    3.093382747382918E-2   -4.890019854749898E-1   -1.542021430396969E-1
 6.500964621575000E9    -4.270084361013197E-1   -3.076790503279849E-1   -1.494278409060995E-2    3.102948078536797E-2   -1.331642881047141E-2    3.100485017777222E-2   -4.895291925495003E-1   -1.530686263105497E-1
 6.500977418750000E9    -4.277268115229145E-1   -3.067085391291876E-1   -1.504527304223536E-2    3.129584864310687E-2   -1.324586323496680E-2    3.127276807007350E-2   -4.896749561824437E-1   -1.517411555777111E-1
 6.500990215925000E9    -4.281505612336261E-1   -3.058886012586114E-1   -1.507394636891630E-2    3.125915315633266E-2   -1.333377322176720E-2    3.145768731470607E-2   -4.900676695013176E-1   -1.506514745407967E-1
 6.501003013100000E9    -4.288796090253367E-1   -3.049661990851230E-1   -1.499031813562175E-2    3.164920811175596E-2   -1.326120927957341E-2    3.158200485982702E-2   -4.903694261331364E-1   -1.493128102461406E-1
 6.501015810275000E9    -4.294705033844489E-1   -3.042263230052146E-1   -1.506220599537572E-2    3.177061861986840E-2   -1.331112513510163E-2    3.190405401752638E-2   -4.906147122872169E-1   -1.480676594222926E-1
 6.501028607450000E9    -4.300984017034893E-1   -3.032101481784558E-1   -1.501737573318810E-2    3.196103268536485E-2   -1.332492723709876E-2    3.203507520489288E-2   -4.907547179963097E-1   -1.468722831824220E-1
 6.501041404625000E9    -4.305987113430460E-1   -3.023574976943691E-1   -1.512263017183918E-2    3.219400081953772E-2   -1.315257368822599E-2    3.226320329095146E-2   -4.910761875976797E-1   -1.455510562640275E-1
 6.501054201800000E9    -4.310856288872282E-1   -3.015209673212082E-1   -1.502123517985096E-2    3.246282160661649E-2   -1.326696895030630E-2    3.241120175221252E-2   -4.914781334972335E-1   -1.444679718668175E-1
 6.501066998975000E9    -4.317909252390527E-1   -3.005767768663041E-1   -1.505852133831993E-2    3.258619411490780E-2   -1.327270683280885E-2    3.266038089538338E-2   -4.917192663983543E-1   -1.431004597716229E-1
 6.501079796150000E9    -4.323296370288876E-1   -2.996500416993478E-1   -1.515337563561407E-2    3.264885600257520E-2   -1.323240460401111E-2    3.282610078626140E-2   -4.919870670155792E-1   -1.418720555267872E-1
 6.501092593325000E9    -4.328816563310761E-1   -2.987561020303573E-1   -1.506843555327427E-2    3.302092376184317E-2   -1.323701012547311E-2    3.300021949144770E-2   -4.921349013273508E-1   -1.406139124550609E-1
 6.501105390500000E9    -4.334811866285314E-1   -2.978037352004829E-1   -1.488901578591289E-2    3.327292871760557E-2   -1.325085153593304E-2    3.324289366085301E-2   -4.925658697456433E-1   -1.394668491518843E-1
 6.501118187675000E9    -4.341322284280581E-1   -2.970951280692297E-1   -1.517697106329515E-2    3.347460925754062E-2   -1.317603879315280E-2    3.346620234920674E-2   -4.928795356377707E-1   -1.381057873755774E-1
 6.501130984850000E9    -4.346499181240894E-1   -2.961851760978816E-1   -1.508151722943014E-2    3.357895763961544E-2   -1.319487853495419E-2    3.368129895582864E-2   -4.930820439897118E-1   -1.369163339758915E-1
 6.501143782025000E9    -4.354189188838381E-1   -2.952336234311392E-1   -1.510575109094048E-2    3.394282909583476E-2   -1.323983865347890E-2    3.394530090135658E-2   -4.933440477267039E-1   -1.355379496920943E-1
 6.501156579200000E9    -4.358687571562756E-1   -2.943336700339947E-1   -1.506298000307092E-2    3.406937847435495E-2   -1.320027362027232E-2    3.408081646383691E-2   -4.935853025841749E-1   -1.343522646506784E-1
 6.501169376375000E9    -4.364404043501283E-1   -2.933419244819451E-1   -1.499355887287566E-2    3.443624790439897E-2   -1.320625490403693E-2    3.429644537412398E-2   -4.937847624389106E-1   -1.330010545734837E-1
 6.501182173550000E9    -4.369431891096649E-1   -2.925494664489923E-1   -1.514643423686676E-2    3.448388518661834E-2   -1.312098663847946E-2    3.468111175805853E-2   -4.941082053163723E-1   -1.317262622201314E-1
 6.501194970725000E9    -4.376049862575200E-1   -2.916034323892416E-1   -1.500489207309078E-2    3.485833892984722E-2   -1.321552576276113E-2    3.486970426173362E-2   -4.943547225799458E-1   -1.305024797325007E-1
 6.501207767900000E9    -4.381110582619793E-1   -2.906494371782709E-1   -1.516150013345364E-2    3.499710296564222E-2   -1.310985664318468E-2    3.509697508741300E-2   -4.944274319424999E-1   -1.291989381076165E-1
 6.501220565075000E9    -4.386059020852771E-1   -2.897120171316258E-1   -1.502553501791715E-2    3.532062415133550E-2   -1.318976001267282E-2    3.524012901762522E-2   -4.948087382453605E-1   -1.279611568923087E-1
 6.501233362250000E9    -4.392886532411583E-1   -2.888414503484615E-1   -1.497880195815977E-2    3.549345028742125E-2   -1.316375264350904E-2    3.545366512423336E-2   -4.952049676061707E-1   -1.266324483482805E-1
 6.501246159425000E9    -4.398465607852171E-1   -2.878651517605938E-1   -1.495555481281080E-2    3.570982078203570E-2   -1.311556779624756E-2    3.568984593809825E-2   -4.953329853862820E-1   -1.252298732937723E-1
 6.501258956600000E9    -4.404272505785617E-1   -2.870057989589281E-1   -1.507045262140453E-2    3.594472417250981E-2   -1.311824298978526E-2    3.598482028818379E-2   -4.955929739058651E-1   -1.239989403772700E-1
 6.501271753775000E9    -4.409741186281586E-1   -2.859888085067974E-1   -1.496150461629656E-2    3.608912487598381E-2   -1.305522457962195E-2    3.622363047630503E-2   -4.958346670138919E-1   -1.226537150764373E-1
 6.501284550950000E9    -4.414901182736411E-1   -2.850928881000327E-1   -1.507604913334775E-2    3.642824420796013E-2   -1.296730530782571E-2    3.637837217484550E-2   -4.959572356630626E-1   -1.213187329572277E-1
 6.501297348125000E9    -4.420179896697576E-1   -2.841633941355920E-1   -1.506450813333961E-2    3.681517419819531E-2   -1.304690315524964E-2    3.664544888345902E-2   -4.963408606360494E-1   -1.199344151255647E-1
 6.501310145300000E9    -4.426758882051414E-1   -2.832312021132121E-1   -1.503531208247044E-2    3.703091625907368E-2   -1.311087395453879E-2    3.690597916484495E-2   -4.965510891144122E-1   -1.185706317317814E-1
 6.501322942475000E9    -4.431871392236943E-1   -2.823374507635625E-1   -1.511647858234301E-2    3.724318548858304E-2   -1.299578048208318E-2    3.716115675110328E-2   -4.967830364733984E-1   -1.174201500825197E-1
 6.501335739650000E9    -4.436996973794239E-1   -2.813951974634363E-1   -1.503108385287970E-2    3.751101707305004E-2   -1.302063333784551E-2    3.745202081759446E-2   -4.969621174579267E-1   -1.159729097277907E-1
 6.501348536825000E9    -4.442857740858924E-1   -2.803541709683746E-1   -1.505172412707744E-2    3.773832692140313E-2   -1.300563254750323E-2    3.760057021298988E-2   -4.970673599591671E-1   -1.145682594383195E-1
 6.501361334000000E9    -4.447934538323763E-1   -2.795307811446414E-1   -1.500936969388794E-2    3.804835505473673E-2   -1.301798548646348E-2    3.797143788883631E-2   -4.974273814235237E-1   -1.133597907235127E-1
 6.501374131175000E9    -4.454103028868558E-1   -2.785274542306074E-1   -1.486772151950252E-2    3.832618344509977E-2   -1.288574116699408E-2    3.822245374478246E-2   -4.975155580763571E-1   -1.118318560780480E-1
 6.501386928350000E9    -4.458887339027723E-1   -2.776693149318446E-1   -1.495305090756360E-2    3.859152778333200E-2   -1.302516783557075E-2    3.851228589415659E-2   -4.977604076012654E-1   -1.105315257022760E-1
 6.501399725525000E9    -4.466278562283679E-1   -2.766288938160457E-1   -1.495736073811432E-2    3.882800895065065E-2   -1.293869539576972E-2    3.872109242431127E-2   -4.980092773864774E-1   -1.091686519132180E-1
 6.501412522700000E9    -4.470827693699780E-1   -2.757616237246688E-1   -1.502170184671504E-2    3.914222095155315E-2   -1.289317240272380E-2    3.913020115234137E-2   -4.980441466686333E-1   -1.077322827446439E-1
 6.501425319875000E9    -4.475911730642148E-1   -2.747579015887471E-1   -1.485528424648903E-2    3.942794057663533E-2   -1.280860008552098E-2    3.940073008481047E-2   -4.983902886492884E-1   -1.064095445150970E-1
 6.501438117050000E9    -4.481283624299631E-1   -2.737640820829926E-1   -1.498556132864558E-2    3.963690172411316E-2   -1.286010235015748E-2    3.963359838258376E-2   -4.985518782477985E-1   -1.050262333526204E-1
 6.501450914225000E9    -4.487032486676981E-1   -2.727509514432964E-1   -1.494442333176802E-2    4.006172577704829E-2   -1.278321318350359E-2    3.987014002854198E-2   -4.988008361906545E-1   -1.036922437816293E-1
 6.501463711400000E9    -4.492060915677302E-1   -2.718590413326470E-1   -1.488106466241232E-2    4.028201219601665E-2   -1.274227409431625E-2    4.014393877898115E-2   -4.988732405918966E-1   -1.022203359297990E-1
 6.501476508575000E9    -4.498635979506154E-1   -2.708444021356952E-1   -1.488229025707740E-2    4.068109502400537E-2   -1.276411468024019E-2    4.057231292080161E-2   -4.989610265096836E-1   -1.007618743643975E-1
 6.501489305750000E9    -4.502568858268884E-1   -2.699320292788385E-1   -1.485870638304893E-2    4.109193816809349E-2   -1.273070507547217E-2    4.079459776253278E-2   -4.992566555059532E-1   -9.944219036018552E-2
 6.501502102925000E9    -4.508088306772537E-1   -2.689295114086026E-1   -1.487960963584332E-2    4.134860089263628E-2   -1.263941873481836E-2    4.107043544295329E-2   -4.993882830615477E-1   -9.799278032439536E-2
 6.501514900100000E9    -4.513423693524072E-1   -2.680557087240872E-1   -1.486557565589187E-2    4.154172712767537E-2   -1.259183197755542E-2    4.142819831140832E-2   -4.996107807965087E-1   -9.654800807030398E-2
 6.501527697275000E9    -4.518861166255004E-1   -2.669536341170379E-1   -1.478122052430820E-2    4.192852552900919E-2   -1.259817156162049E-2    4.160178109360982E-2   -4.997678871298848E-1   -9.505645744729442E-2
 6.501540494450000E9    -4.524079335110240E-1   -2.659734233970810E-1   -1.481926453051345E-2    4.219788689730003E-2   -1.265036002147003E-2    4.199719686291731E-2   -4.998459351172043E-1   -9.365328655934221E-2
 6.501553291625000E9    -4.529032559651474E-1   -2.648908134797253E-1   -1.476145373328284E-2    4.260872840137936E-2   -1.258770389362430E-2    4.234322912036543E-2   -5.000624761650159E-1   -9.224069128826412E-2
 6.501566088800000E9    -4.534280508048196E-1   -2.640713179864942E-1   -1.481403098116973E-2    4.297412508050365E-2   -1.249756912356097E-2    4.257992455370972E-2   -5.002146376643312E-1   -9.081340062812264E-2
 6.501578885975000E9    -4.539928669300146E-1   -2.629560007821751E-1   -1.458380096350991E-2    4.334613654101501E-2   -1.256902779253418E-2    4.289145898786235E-2   -5.003314947762519E-1   -8.935730568209911E-2
 6.501591683150000E9    -4.545658081659139E-1   -2.620014226118877E-1   -1.468588662585605E-2    4.351122803623773E-2   -1.256294838202483E-2    4.319069545247698E-2   -5.004375855369596E-1   -8.786499030550698E-2
 6.501604480325000E9    -4.549259602053131E-1   -2.610574263445341E-1   -1.471570459644086E-2    4.372680388556702E-2   -1.244531804088485E-2    4.356352100800371E-2   -5.005968193543819E-1   -8.631362726662301E-2
 6.501617277500000E9    -4.555963773052015E-1   -2.600418035258231E-1   -1.471185137528918E-2    4.421883232194777E-2   -1.254079325945177E-2    4.391865729203370E-2   -5.008151497295608E-1   -8.486731127607637E-2
 6.501630074675000E9    -4.561187029635422E-1   -2.589548650926655E-1   -1.463227292416672E-2    4.457046154722004E-2   -1.229973887527571E-2    4.419156182307573E-2   -5.007270254683035E-1   -8.342113035167613E-2
 6.501642871850000E9    -4.566622907877525E-1   -2.580864651799831E-1   -1.461378334908579E-2    4.486527531480029E-2   -1.232074116043528E-2    4.454907665893599E-2   -5.008909150249566E-1   -8.189899540172314E-2
 6.501655669025000E9    -4.571098007240150E-1   -2.569913342559575E-1   -1.465582523305840E-2    4.521101253484703E-2   -1.234358532752349E-2    4.501984104624048E-2   -5.011886700122331E-1   -8.021721087388481E-2
 6.501668466200000E9    -4.576428994677804E-1   -2.559486629179936E-1   -1.465555441050694E-2    4.552524503357240E-2   -1.225630117557241E-2    4.531859003184419E-2   -5.012805442492011E-1   -7.889523521965335E-2
 6.501681263375000E9    -4.581946818646703E-1   -2.549403754646705E-1   -1.443123357095679E-2    4.594900314589807E-2   -1.217682723763469E-2    4.574033405398924E-2   -5.013171542256819E-1   -7.731193489559661E-2
 6.501694060550000E9    -4.587487949122177E-1   -2.539674893984171E-1   -1.459788806433215E-2    4.643686510260275E-2   -1.223313309470671E-2    4.601003460332858E-2   -5.014276091205456E-1   -7.557116705949676E-2
 6.501706857725000E9    -4.590971814994249E-1   -2.529637488537366E-1   -1.434806353415739E-2    4.668175192890962E-2   -1.209686344978741E-2    4.637949258156619E-2   -5.015111581168310E-1   -7.411536160633304E-2
 6.501719654900000E9    -4.597565830805184E-1   -2.519144999214443E-1   -1.451649785653031E-2    4.708647943133402E-2   -1.212064237589008E-2    4.678034182344291E-2   -5.016394787613154E-1   -7.260104420602702E-2
 6.501732452075000E9    -4.601271301139862E-1   -2.509013784099864E-1   -1.443097168926325E-2    4.757157812160624E-2   -1.196517618671308E-2    4.713093964494528E-2   -5.016827475500202E-1   -7.103776758743585E-2
 6.501745249250000E9    -4.605894331531443E-1   -2.496962989308581E-1   -1.438729680529521E-2    4.785777470161336E-2   -1.192012451156796E-2    4.753852425146956E-2   -5.016869692692062E-1   -6.946326059555349E-2
 6.501758046425000E9    -4.612104343193615E-1   -2.487839597127110E-1   -1.434327049867116E-2    4.827626153613491E-2   -1.188007782403867E-2    4.790097513415532E-2   -5.018078783373813E-1   -6.793496700372459E-2
 6.501770843600000E9    -4.617277548669757E-1   -2.476723833450980E-1   -1.432827729437176E-2    4.876255564929305E-2   -1.186234115161816E-2    4.835405504345942E-2   -5.018284427829068E-1   -6.627417149474428E-2
 6.501783640775000E9    -4.622241006319308E-1   -2.467047904959203E-1   -1.419064434035774E-2    4.921345997851279E-2   -1.179286769413274E-2    4.871545595565627E-2   -5.019115268961072E-1   -6.468057974845350E-2
 6.501796437950000E9    -4.626423199422033E-1   -2.456238874716938E-1   -1.422989637729079E-2    4.957110520756160E-2   -1.174444016590493E-2    4.912484004782058E-2   -5.019132515112624E-1   -6.298878230927347E-2
 6.501809235125000E9    -4.630993184084629E-1   -2.445225928114551E-1   -1.412773396390654E-2    5.001820315167980E-2   -1.165774800307988E-2    4.952697245722738E-2   -5.018870894882985E-1   -6.132897324243942E-2
 6.501822032300000E9    -4.635736122338696E-1   -2.434908781263836E-1   -1.414480232872674E-2    5.039985638728028E-2   -1.162085176630407E-2    4.994924572693055E-2   -5.020423601137641E-1   -5.983371666077975E-2
 6.501834829475000E9    -4.641410945535089E-1   -2.424272584386004E-1   -1.406163248378414E-2    5.092839103963974E-2   -1.151626848988480E-2    5.035187230680102E-2   -5.020238649513526E-1   -5.814935457292912E-2
 6.501847626650000E9    -4.645926505184323E-1   -2.413442405369923E-1   -1.400599590292634E-2    5.134023031384961E-2   -1.146707312249924E-2    5.078219334952788E-2   -5.020489555325727E-1   -5.641534112014906E-2
 6.501860423825000E9    -4.651417005039430E-1   -2.402246250419415E-1   -1.393217073057481E-2    5.183726761469611E-2   -1.145699222892009E-2    5.128374310787406E-2   -5.020143628521663E-1   -5.484317284167239E-2
 6.501873221000000E9    -4.656085556556207E-1   -2.391419583945174E-1   -1.383479085929207E-2    5.216494080303918E-2   -1.139783704567567E-2    5.170258653550075E-2   -5.019097071333246E-1   -5.301090502197113E-2
 6.501886018175000E9    -4.660156396116283E-1   -2.381008514520983E-1   -1.379312766207262E-2    5.262289079097205E-2   -1.133724086874508E-2    5.212105151022145E-2   -5.019933367224554E-1   -5.137746698751938E-2
 6.501898815350000E9    -4.664175742750091E-1   -2.369356744277012E-1   -1.390708765214447E-2    5.311354981903298E-2   -1.121929618730490E-2    5.257120388918463E-2   -5.022283160297096E-1   -4.977280808125627E-2
 6.501911612525000E9    -4.669929588808117E-1   -2.358506481177674E-1   -1.379089670608030E-2    5.372922508423656E-2   -1.110814352429049E-2    5.309481696474412E-2   -5.019930875282671E-1   -4.792068073511946E-2
 6.501924409700000E9    -4.674451679429038E-1   -2.347675267136454E-1   -1.364763446638967E-2    5.430884724698799E-2   -1.107912201991104E-2    5.359444357587075E-2   -5.020719530272957E-1   -4.624282481743457E-2
 6.501937206875000E9    -4.679523394574661E-1   -2.336661447566236E-1   -1.363259103470997E-2    5.468879811086554E-2   -1.106543324964447E-2    5.395393162929091E-2   -5.019722665990934E-1   -4.445174517667386E-2
 6.501950004050000E9    -4.683002842438129E-1   -2.325085767609804E-1   -1.356901864998018E-2    5.513486347315076E-2   -1.089522283754296E-2    5.452064176174813E-2   -5.019766387169796E-1   -4.267021052210021E-2
 6.501962801225000E9    -4.687753411601832E-1   -2.313609305793979E-1   -1.339289771390620E-2    5.563588381755266E-2   -1.080964277543340E-2    5.503699768202418E-2   -5.018534341123082E-1   -4.081666193295291E-2
 6.501975598400000E9    -4.693111552142304E-1   -2.303120374309192E-1   -1.347955226536990E-2    5.618200150349418E-2   -1.071226450547322E-2    5.552614712216716E-2   -5.017838809881179E-1   -3.907890642584771E-2
 6.501988395575000E9    -4.696397994035011E-1   -2.292874983160523E-1   -1.327157712281958E-2    5.680966085431045E-2   -1.065355142794101E-2    5.606693144526970E-2   -5.017027489245715E-1   -3.730801228013413E-2
 6.502001192750000E9    -4.702232606792630E-1   -2.279780486588049E-1   -1.322116643436577E-2    5.739550707261410E-2   -1.052984475850802E-2    5.647395832766515E-2   -5.017910838804922E-1   -3.539616707264889E-2
