#  HZ   S   RI   R     50.00 
! Rohde & Schwarz Vector Network Analyzer 
! Rohde-Schwarz,ZNB20-2Port,1311601062101988,3.16
! Created: UTC 3/20/2024, 11:54:31 AM
! freq[Hz]                re:S11                  im:S11                  re:S21                  im:S21                  re:S12                  im:S12                  re:S22                  im:S22
 6.500852940000000E9    -4.217585592353603E-1   -3.150981568302699E-1   -1.492436864604372E-2    2.945375664382321E-2   -1.339495085952974E-2    2.941607130275335E-2   -4.866333678196711E-1   -1.633559397565198E-1
 6.500865729275000E9    -4.223209951056531E-1   -3.140934896670777E-1   -1.495205316845820E-2    2.946920097676012E-2   -1.336908841273340E-2    2.962683777432461E-2   -4.870831469289074E-1   -1.621861053990000E-1
 6.500878518550000E9    -4.229676333094343E-1   -3.133371221432528E-1   -1.495952075768762E-2    2.971340572511854E-2   -1.333242125061181E-2    2.975484858308988E-2   -4.873473772728056E-1   -1.609598225675784E-1
 6.500891307825000E9    -4.235490751891585E-1   -3.124611366833544E-1   -1.500277194746341E-2    2.984192338383726E-2   -1.332746345496467E-2    2.993550992600150E-2   -4.877137193572380E-1   -1.600192676001616E-1
 6.500904097100000E9    -4.241561087285151E-1   -3.116341590504882E-1   -1.498562196797381E-2    3.006905779807461E-2   -1.334096311965913E-2    3.023497235646780E-2   -4.878915493663577E-1   -1.586561106016999E-1
 6.500916886375000E9    -4.248533382151983E-1   -3.108064523636587E-1   -1.494068642982899E-2    3.025197810045665E-2   -1.326869708768788E-2    3.038749178095988E-2   -4.883013806326336E-1   -1.574384684518577E-1
 6.500929675650000E9    -4.253818604970230E-1   -3.098737767096564E-1   -1.487211614285532E-2    3.048057066012781E-2   -1.327328113516135E-2    3.048387816624319E-2   -4.885989088058703E-1   -1.562493710801359E-1
 6.500942464925000E9    -4.259400244207658E-1   -3.090963435932144E-1   -1.493074432874472E-2    3.066683232671909E-2   -1.321852163843452E-2    3.070584125516773E-2   -4.888264239846848E-1   -1.551248252462424E-1
 6.500955254200000E9    -4.266407019455092E-1   -3.081831075544781E-1   -1.498119141285112E-2    3.091914497606423E-2   -1.336771449369652E-2    3.084178095103307E-2   -4.891864905961676E-1   -1.539010366704174E-1
 6.500968043475000E9    -4.271622561658232E-1   -3.072717291020455E-1   -1.490941745343014E-2    3.097974959551461E-2   -1.328107808976872E-2    3.108893575412611E-2   -4.894613035177879E-1   -1.526287401481567E-1
 6.500980832750000E9    -4.279211339330655E-1   -3.065262725432728E-1   -1.510270307291197E-2    3.114114704814122E-2   -1.325227296358039E-2    3.118618582628433E-2   -4.899948683449493E-1   -1.515643752383882E-1
 6.500993622025000E9    -4.284013580723867E-1   -3.055466010735282E-1   -1.504518907691057E-2    3.146947542808870E-2   -1.322226246134442E-2    3.140626525479182E-2   -4.900445442956265E-1   -1.502454762143150E-1
 6.501006411300000E9    -4.290342272185044E-1   -3.047497479727347E-1   -1.500503785665330E-2    3.157326823082782E-2   -1.329527436235119E-2    3.157416109188708E-2   -4.904590159264747E-1   -1.490048388135063E-1
 6.501019200575000E9    -4.296051910766913E-1   -3.037856793607180E-1   -1.518380491151363E-2    3.179097080818328E-2   -1.331109192481168E-2    3.175384701782609E-2   -4.905538488240520E-1   -1.477869342159512E-1
 6.501031989850000E9    -4.301473957113607E-1   -3.029268539675564E-1   -1.506111741401270E-2    3.197815427440195E-2   -1.324228232626258E-2    3.218364798413772E-2   -4.909305820151663E-1   -1.465816086947538E-1
 6.501044779125000E9    -4.307467345399211E-1   -3.020583447441896E-1   -1.503576710311431E-2    3.213945405962203E-2   -1.334512957949349E-2    3.228228123491380E-2   -4.911978114855475E-1   -1.453260441730926E-1
 6.501057568400000E9    -4.314176643721545E-1   -3.012122908622310E-1   -1.502393377583222E-2    3.248295540519302E-2   -1.330113703226586E-2    3.244450423852573E-2   -4.914613018087921E-1   -1.440993039679225E-1
 6.501070357675000E9    -4.320542970674578E-1   -3.002345287498178E-1   -1.511569280312328E-2    3.278141055341419E-2   -1.332036567963468E-2    3.263809960748749E-2   -4.917683706694693E-1   -1.427862460731706E-1
 6.501083146950000E9    -4.325162945602706E-1   -2.993668375299242E-1   -1.503662419883538E-2    3.288724229449889E-2   -1.319785615190973E-2    3.290548992763578E-2   -4.920308052932850E-1   -1.416049837615131E-1
 6.501095936225000E9    -4.331225738130391E-1   -2.984779082563661E-1   -1.499592225908477E-2    3.306627729728891E-2   -1.323141699099599E-2    3.309031405080808E-2   -4.924146269353026E-1   -1.403745910678072E-1
 6.501108725500000E9    -4.336401805956459E-1   -2.976336927042030E-1   -1.501017925237995E-2    3.326628229615253E-2   -1.321898374730191E-2    3.313995443569526E-2   -4.926521339678369E-1   -1.391751702420722E-1
 6.501121514775000E9    -4.342548870321935E-1   -2.967777693592055E-1   -1.497049840924126E-2    3.341890302359597E-2   -1.320541239221442E-2    3.347622678053648E-2   -4.928695607421499E-1   -1.378788225361094E-1
 6.501134304050000E9    -4.348818875196918E-1   -2.958042308515937E-1   -1.502036616370420E-2    3.359683911266337E-2   -1.311525317477203E-2    3.373635371318767E-2   -4.930810284704218E-1   -1.365479297336241E-1
 6.501147093325000E9    -4.353833345556758E-1   -2.948431643737922E-1   -1.496682941668415E-2    3.403065078880023E-2   -1.315916075419061E-2    3.399182900757958E-2   -4.934776113839813E-1   -1.353284143681591E-1
 6.501159882600000E9    -4.360486644744899E-1   -2.940081768448853E-1   -1.510872417612397E-2    3.411638589373538E-2   -1.324318189633242E-2    3.416562726395981E-2   -4.937087797794988E-1   -1.341026601229474E-1
 6.501172671875000E9    -4.366627785188174E-1   -2.930784397658743E-1   -1.508400493463015E-2    3.439566478712680E-2   -1.325962986211996E-2    3.441826236573699E-2   -4.939959190809363E-1   -1.327191048333881E-1
 6.501185461150000E9    -4.371517662062626E-1   -2.921252267718379E-1   -1.492490794056106E-2    3.460664396215447E-2   -1.324654162054346E-2    3.455373793149203E-2   -4.941203384291630E-1   -1.314598952097165E-1
 6.501198250425000E9    -4.376985805946754E-1   -2.912788916912447E-1   -1.490694545841903E-2    3.492701928970701E-2   -1.308011461310692E-2    3.479515055673850E-2   -4.944832287438815E-1   -1.302082750337604E-1
 6.501211039700000E9    -4.382306760461586E-1   -2.904184478724342E-1   -1.508162139761355E-2    3.518511804531117E-2   -1.301974365641579E-2    3.509644810427291E-2   -4.946733234728822E-1   -1.290091410213899E-1
 6.501223828975000E9    -4.388743590066269E-1   -2.893862449658784E-1   -1.500411493448822E-2    3.526100701189020E-2   -1.304243342706211E-2    3.521023673650270E-2   -4.950782510643829E-1   -1.276138555982393E-1
 6.501236618250000E9    -4.393642908485186E-1   -2.886096356305407E-1   -1.503246922562007E-2    3.565449901254261E-2   -1.311881522393483E-2    3.552268543453593E-2   -4.952998840671455E-1   -1.263413838365295E-1
 6.501249407525000E9    -4.400943078314305E-1   -2.875814709949031E-1   -1.501593264027584E-2    3.575222752413546E-2   -1.311554698479661E-2    3.577884936097203E-2   -4.953732602180675E-1   -1.250651134745164E-1
 6.501262196800000E9    -4.405371820910591E-1   -2.867185692093279E-1   -1.505632171168448E-2    3.600993120993047E-2   -1.305588962019386E-2    3.604118508633039E-2   -4.957208165962098E-1   -1.236863908412286E-1
 6.501274986075000E9    -4.411903766372553E-1   -2.857431972333753E-1   -1.509855772134677E-2    3.633668360831666E-2   -1.308608102312708E-2    3.616875303522472E-2   -4.958730345204135E-1   -1.223368784720399E-1
 6.501287775350000E9    -4.416311637588087E-1   -2.848384888244977E-1   -1.497334241641895E-2    3.641679093467547E-2   -1.305637086506963E-2    3.642432219097499E-2   -4.961415915835806E-1   -1.209698663784179E-1
 6.501300564625000E9    -4.423248441688474E-1   -2.838851950919599E-1   -1.505974960406252E-2    3.681109888854035E-2   -1.300096265313341E-2    3.676503072072915E-2   -4.963760625262690E-1   -1.196620508836712E-1
 6.501313353900000E9    -4.428702505253846E-1   -2.829661433521299E-1   -1.485853277079766E-2    3.697593884557306E-2   -1.299065460880572E-2    3.689773763704950E-2   -4.964799831276410E-1   -1.184918130903587E-1
 6.501326143175000E9    -4.433857196661506E-1   -2.821259657577161E-1   -1.514294429378367E-2    3.727246549238170E-2   -1.301890852326983E-2    3.725930376522538E-2   -4.968477453177705E-1   -1.171701568930839E-1
 6.501338932450000E9    -4.439801033126540E-1   -2.810692919023045E-1   -1.493789738080730E-2    3.748082678631708E-2   -1.297022198813383E-2    3.751524850964189E-2   -4.969702948317731E-1   -1.155752976422338E-1
 6.501351721725000E9    -4.444719355191227E-1   -2.801940000552739E-1   -1.502002285871853E-2    3.781683992472559E-2   -1.297032554967815E-2    3.771363536831081E-2   -4.971508936510128E-1   -1.144696344202711E-1
 6.501364511000000E9    -4.450236184772559E-1   -2.792848639547700E-1   -1.483357671366877E-2    3.798020767193710E-2   -1.287048872091788E-2    3.794749246582052E-2   -4.973575148604310E-1   -1.129989189655444E-1
 6.501377300275000E9    -4.456218518772771E-1   -2.783469387062155E-1   -1.496364197983353E-2    3.842355374716881E-2   -1.288922526175348E-2    3.821264299808388E-2   -4.976295386386126E-1   -1.116637616611069E-1
 6.501390089550000E9    -4.460748931475396E-1   -2.772989782777969E-1   -1.493737353416405E-2    3.878575506829786E-2   -1.292441116387917E-2    3.852947095960920E-2   -4.978372317972415E-1   -1.103222190050354E-1
 6.501402878825000E9    -4.467763458331800E-1   -2.763632943592117E-1   -1.489068703203789E-2    3.899509598387988E-2   -1.287447277620623E-2    3.880604046872991E-2   -4.980008830116227E-1   -1.088723446558375E-1
 6.501415668100000E9    -4.471293905084406E-1   -2.753983363404002E-1   -1.495752347804814E-2    3.924281882153669E-2   -1.289099469401534E-2    3.902605745017273E-2   -4.981810422043231E-1   -1.075800534478495E-1
 6.501428457375000E9    -4.477415412912555E-1   -2.744840715244315E-1   -1.489085911281773E-2    3.947646464041901E-2   -1.276513966964301E-2    3.937286329703334E-2   -4.984205262564720E-1   -1.061645350758599E-1
 6.501441246650000E9    -4.483675923305356E-1   -2.735043624011881E-1   -1.484594856566646E-2    3.977371999993905E-2   -1.286300014121387E-2    3.960991121468328E-2   -4.986704450296160E-1   -1.048172327509246E-1
 6.501454035925000E9    -4.487738207520682E-1   -2.724824349643713E-1   -1.491464496786487E-2    4.009050798888593E-2   -1.283046156667881E-2    3.991969586904247E-2   -4.987116303299348E-1   -1.033392052260889E-1
 6.501466825200000E9    -4.493967732674116E-1   -2.715119137389687E-1   -1.503310623411393E-2    4.034883899995637E-2   -1.275167585639967E-2    4.014978177263050E-2   -4.989559990453984E-1   -1.019093080392574E-1
 6.501479614475000E9    -4.499420821221055E-1   -2.705411043744593E-1   -1.483101490161212E-2    4.071371965164011E-2   -1.282839716035719E-2    4.049564699330024E-2   -4.991548660212048E-1   -1.005497625122323E-1
 6.501492403750000E9    -4.505308488561502E-1   -2.696909653598503E-1   -1.491423652337273E-2    4.101962022712210E-2   -1.272859367198072E-2    4.082967926757312E-2   -4.994217567188192E-1   -9.909590203284883E-2
 6.501505193025000E9    -4.510522209642686E-1   -2.686275703473986E-1   -1.484862155239410E-2    4.124852842139474E-2   -1.263795773730616E-2    4.112887139089490E-2   -4.995439888927087E-1   -9.766552708367512E-2
 6.501517982300000E9    -4.515405046539024E-1   -2.678132168557284E-1   -1.489598671175213E-2    4.160886450571683E-2   -1.268165803057837E-2    4.137593567761428E-2   -4.995641575734199E-1   -9.606250529656483E-2
 6.501530771575000E9    -4.520356795625155E-1   -2.667100961798065E-1   -1.484913954331795E-2    4.191687862418506E-2   -1.267287655079372E-2    4.170703430094013E-2   -4.997623583061627E-1   -9.464102416620956E-2
 6.501543560850000E9    -4.524886736684712E-1   -2.658070781163583E-1   -1.484929401295386E-2    4.225768085465923E-2   -1.254976192263975E-2    4.200649443922035E-2   -4.999776365523411E-1   -9.340479262198083E-2
 6.501556350125000E9    -4.530593537911469E-1   -2.647798238010489E-1   -1.481722467702096E-2    4.260425252245567E-2   -1.262800339133626E-2    4.229117252939914E-2   -5.000479723922957E-1   -9.198421615895512E-2
 6.501569139400000E9    -4.535467323808833E-1   -2.636806892968630E-1   -1.478378155300015E-2    4.290256174066924E-2   -1.261728580334119E-2    4.264018300628229E-2   -5.001641569478148E-1   -9.050916614998132E-2
 6.501581928675000E9    -4.541638690604263E-1   -2.627855252950368E-1   -1.478750511111594E-2    4.327653005334897E-2   -1.248769019977551E-2    4.293744894896422E-2   -5.003752681092933E-1   -8.896885668307045E-2
 6.501594717950000E9    -4.546200712301332E-1   -2.617321211314681E-1   -1.468767453095193E-2    4.363487170322935E-2   -1.252996664558848E-2    4.332479539516820E-2   -5.005403068391057E-1   -8.753260053764042E-2
 6.501607507225000E9    -4.551279617906354E-1   -2.607616482782383E-1   -1.473721422035951E-2    4.394683682936468E-2   -1.235223569554944E-2    4.367817812341606E-2   -5.005064107204253E-1   -8.607694305271556E-2
 6.501620296500000E9    -4.557474528090371E-1   -2.596653014759213E-1   -1.479439918187138E-2    4.422451228016159E-2   -1.251388513219131E-2    4.391440777841543E-2   -5.007719196782791E-1   -8.455946098882296E-2
 6.501633085775000E9    -4.562450629138303E-1   -2.588372757499105E-1   -1.462812471448846E-2    4.459592031525310E-2   -1.231747858984005E-2    4.426080413317564E-2   -5.009541993808657E-1   -8.305508893983642E-2
 6.501645875050000E9    -4.567241916217593E-1   -2.577171129003727E-1   -1.455194488571194E-2    4.492601137705115E-2   -1.243567434333350E-2    4.462900215802797E-2   -5.010043808610324E-1   -8.157447525762650E-2
 6.501658664325000E9    -4.572706811967163E-1   -2.567045478941197E-1   -1.460471899011539E-2    4.533028606487950E-2   -1.233502895179928E-2    4.497802181634576E-2   -5.011164779487051E-1   -8.011143324240165E-2
 6.501671453600000E9    -4.577209448025864E-1   -2.556908389601240E-1   -1.467520860393152E-2    4.571327968453907E-2   -1.208054127399115E-2    4.522930475317986E-2   -5.012022460103368E-1   -7.843440202072206E-2
 6.501684242875000E9    -4.583268889566302E-1   -2.546589583129198E-1   -1.467135504715825E-2    4.607774611900006E-2   -1.227445234165513E-2    4.564541129144885E-2   -5.013601416617209E-1   -7.693668809179592E-2
 6.501697032150000E9    -4.587797215186616E-1   -2.536042005471001E-1   -1.444379171856887E-2    4.646258833173798E-2   -1.213325347375606E-2    4.603744712445971E-2   -5.013964002910171E-1   -7.535826207484765E-2
 6.501709821425000E9    -4.593070515699761E-1   -2.526346848983525E-1   -1.444167920205016E-2    4.701623618721313E-2   -1.211938198956040E-2    4.635462023945659E-2   -5.014424868488601E-1   -7.393545742064658E-2
 6.501722610700000E9    -4.598036483535289E-1   -2.515924145167792E-1   -1.440351377813985E-2    4.718397493565160E-2   -1.208787234409584E-2    4.683217018091752E-2   -5.015741783034552E-1   -7.238994572678648E-2
 6.501735399975000E9    -4.604116440399086E-1   -2.504624438302398E-1   -1.442072987683783E-2    4.763321540409243E-2   -1.204802195364416E-2    4.714913153166853E-2   -5.016864604460576E-1   -7.063802384548791E-2
 6.501748189250000E9    -4.608625315508057E-1   -2.495227981944491E-1   -1.437797182610678E-2    4.799002324772945E-2   -1.194518683975568E-2    4.761466519032299E-2   -5.016931444411027E-1   -6.915735005151241E-2
 6.501760978525000E9    -4.613597412198854E-1   -2.484729581787050E-1   -1.438633484900986E-2    4.835504518705551E-2   -1.181971175603309E-2    4.797368242202955E-2   -5.017735368076821E-1   -6.754768689417207E-2
 6.501773767800000E9    -4.617784060154982E-1   -2.474229400247784E-1   -1.418728554770786E-2    4.879081121473570E-2   -1.186649993253863E-2    4.830746786221799E-2   -5.019091523099054E-1   -6.603527512102869E-2
 6.501786557075000E9    -4.623421102921603E-1   -2.464202873898270E-1   -1.418205707098780E-2    4.933751544146547E-2   -1.186310637350033E-2    4.880593133632970E-2   -5.019663172479089E-1   -6.421984229041376E-2
 6.501799346350000E9    -4.627216805086793E-1   -2.453120833438599E-1   -1.423021224361120E-2    4.958313930414501E-2   -1.186450181078408E-2    4.920258420615012E-2   -5.019207573885525E-1   -6.274613182725992E-2
 6.501812135625000E9    -4.632684900560794E-1   -2.442707413107518E-1   -1.421596014713062E-2    5.009041335680616E-2   -1.171497421919847E-2    4.956415728474679E-2   -5.019292362009719E-1   -6.111888267590714E-2
 6.501824924900000E9    -4.637141408951722E-1   -2.431375524984760E-1   -1.416424363590551E-2    5.060648192984180E-2   -1.156798153762330E-2    4.998154566907618E-2   -5.021183588118401E-1   -5.946920917877867E-2
 6.501837714175000E9    -4.643282141221595E-1   -2.421646863397494E-1   -1.406678736254836E-2    5.094783647889971E-2   -1.158420664224530E-2    5.042670731374553E-2   -5.022115430066928E-1   -5.790289955866668E-2
 6.501850503450000E9    -4.646567220203697E-1   -2.410706021405473E-1   -1.413650247052216E-2    5.134270959686178E-2   -1.148393165655047E-2    5.080608591348872E-2   -5.018974167387955E-1   -5.610782674199356E-2
 6.501863292725000E9    -4.651818194307767E-1   -2.399968239341516E-1   -1.400858206029766E-2    5.191557409570649E-2   -1.129703849050722E-2    5.136351932398078E-2   -5.020711610185101E-1   -5.440529368844774E-2
 6.501876082000000E9    -4.656716318353702E-1   -2.388193329591247E-1   -1.396481956157372E-2    5.232135360720875E-2   -1.136314498132230E-2    5.175549882096311E-2   -5.020802736339049E-1   -5.264646531302741E-2
 6.501888871275000E9    -4.661579312682647E-1   -2.378117001198009E-1   -1.387537800603984E-2    5.275442725242985E-2   -1.136223494180272E-2    5.211053963055635E-2   -5.019139805643092E-1   -5.109682050468894E-2
 6.501901660550000E9    -4.666616123204764E-1   -2.367485259883646E-1   -1.389153748996554E-2    5.333041798731106E-2   -1.123733774988842E-2    5.265759598629509E-2   -5.021252053067953E-1   -4.941451343928812E-2
 6.501914449825000E9    -4.671293756861414E-1   -2.355644016414461E-1   -1.378356280795872E-2    5.371420273093768E-2   -1.117851129572620E-2    5.312108339385006E-2   -5.019738356810318E-1   -4.764289989421867E-2
 6.501927239100000E9    -4.675157223103148E-1   -2.345107605282531E-1   -1.374565480365415E-2    5.427497793742961E-2   -1.100782349072136E-2    5.361952750416399E-2   -5.021474927108092E-1   -4.590855207170923E-2
 6.501940028375000E9    -4.681215599184229E-1   -2.334980153041143E-1   -1.356914898168217E-2    5.478601002476879E-2   -1.101062885179704E-2    5.411467961877102E-2   -5.021096279319666E-1   -4.433094613684214E-2
 6.501952817650000E9    -4.685116529517711E-1   -2.323229083828014E-1   -1.350009223937408E-2    5.522062685588217E-2   -1.082865913762291E-2    5.450739954001985E-2   -5.018904586035102E-1   -4.228848630157040E-2
 6.501965606925000E9    -4.688293251880870E-1   -2.311508395253135E-1   -1.347576134106968E-2    5.580372432088345E-2   -1.082141066477593E-2    5.520806172994842E-2   -5.019298266519415E-1   -4.066558928057498E-2
 6.501978396200000E9    -4.694834717733407E-1   -2.300562383329117E-1   -1.351031877250230E-2    5.625799008558090E-2   -1.059569219421496E-2    5.558153967919681E-2   -5.019158685342202E-1   -3.873662901590959E-2
 6.501991185475000E9    -4.698264310993858E-1   -2.290189795972067E-1   -1.327208557618171E-2    5.674358639662873E-2   -1.063491822671982E-2    5.600921604198675E-2   -5.017431977497783E-1   -3.700712905707607E-2
 6.502003974750000E9    -4.703167374533456E-1   -2.278429500731004E-1   -1.326217534221499E-2    5.742894883117060E-2   -1.051667175012221E-2    5.655757471888360E-2   -5.016499951860856E-1   -3.524998987503485E-2
