#  HZ   S   RI   R     50.00 
! Rohde & Schwarz Vector Network Analyzer 
! Rohde-Schwarz,ZNB20-2Port,1311601062101988,3.16
! Created: UTC 3/20/2024, 11:54:36 AM
! freq[Hz]                re:S11                  im:S11                  re:S21                  im:S21                  re:S12                  im:S12                  re:S22                  im:S22
 6.500854880000000E9    -4.218146538561705E-1   -3.151368625580962E-1   -1.503799021671875E-2    2.938036728314083E-2   -1.333016120196146E-2    2.935797673842645E-2   -4.868040853396209E-1   -1.634583663384701E-1
 6.500867662525000E9    -4.225040330415749E-1   -3.143152202592421E-1   -1.495318896971915E-2    2.951555339982581E-2   -1.332565886939634E-2    2.963146493052110E-2   -4.869690151203233E-1   -1.621884686308921E-1
 6.500880445050000E9    -4.230742782630615E-1   -3.132891524609623E-1   -1.491289997817793E-2    2.971289092040456E-2   -1.326478944779140E-2    2.986133640163483E-2   -4.874666762812100E-1   -1.609598053790483E-1
 6.500893227575000E9    -4.236772288409450E-1   -3.125621688595563E-1   -1.499599424986832E-2    2.991364405687560E-2   -1.320209807306492E-2    3.003224648082806E-2   -4.876362280228063E-1   -1.596412809364724E-1
 6.500906010100000E9    -4.242544284987633E-1   -3.117419770081274E-1   -1.498056419670396E-2    3.013659728787859E-2   -1.328992142114596E-2    3.015334841151359E-2   -4.880891539236193E-1   -1.585287336879155E-1
 6.500918792625000E9    -4.248972212657465E-1   -3.108934637916949E-1   -1.491019432297178E-2    3.024899718680878E-2   -1.328004960813603E-2    3.033490903975465E-2   -4.883473917893423E-1   -1.573906974494479E-1
 6.500931575150000E9    -4.255088784942148E-1   -3.100113786920976E-1   -1.496931394504724E-2    3.048752106867906E-2   -1.337722144568729E-2    3.054445482302114E-2   -4.885963047744002E-1   -1.563012712367709E-1
 6.500944357675000E9    -4.259536236666339E-1   -3.091990002581836E-1   -1.499267779052343E-2    3.053648878800901E-2   -1.326703308483958E-2    3.066415376588520E-2   -4.890152583946783E-1   -1.549615474894639E-1
 6.500957140200000E9    -4.266875253134444E-1   -3.082584542885443E-1   -1.497670080638495E-2    3.092664029651270E-2   -1.323877797204166E-2    3.091596007400176E-2   -4.892632856852286E-1   -1.538434612519786E-1
 6.500969922725000E9    -4.271974240685015E-1   -3.073782538625169E-1   -1.494552758538977E-2    3.102054745260494E-2   -1.320924461821973E-2    3.106634744003138E-2   -4.894310215823949E-1   -1.526287900548427E-1
 6.500982705250000E9    -4.278552695256533E-1   -3.065121379821510E-1   -1.512555945584891E-2    3.116785814513086E-2   -1.324197760071978E-2    3.131535106963123E-2   -4.897966259222529E-1   -1.513896799542172E-1
 6.500995487775000E9    -4.285247165265791E-1   -3.055651294423218E-1   -1.509279643121761E-2    3.152559269317087E-2   -1.323399544068627E-2    3.143281978553950E-2   -4.901878813915251E-1   -1.501202878066805E-1
 6.501008270300000E9    -4.290047932949833E-1   -3.047242777234053E-1   -1.508460327047413E-2    3.172873500115372E-2   -1.329911676303250E-2    3.166570157097905E-2   -4.903582455913299E-1   -1.488302100116814E-1
 6.501021052825000E9    -4.297648649891790E-1   -3.038265762273054E-1   -1.492529894649876E-2    3.190321271194659E-2   -1.321017728584502E-2    3.189242376323696E-2   -4.905705243197157E-1   -1.476801475736672E-1
 6.501033835350000E9    -4.301857096149036E-1   -3.029037976250682E-1   -1.499785761866541E-2    3.210350568715581E-2   -1.326394258961428E-2    3.213369116977026E-2   -4.908659358296030E-1   -1.464748370398719E-1
 6.501046617875000E9    -4.308455696314049E-1   -3.021347147056097E-1   -1.503876837810017E-2    3.219677469702351E-2   -1.327715976344928E-2    3.224838461488951E-2   -4.913268562884742E-1   -1.453041971144760E-1
 6.501059400400000E9    -4.315002463896425E-1   -3.012743121923795E-1   -1.508733424446640E-2    3.244515922946493E-2   -1.324691868441588E-2    3.245049417151867E-2   -4.916525075571001E-1   -1.440646978107348E-1
 6.501072182925000E9    -4.320590764052216E-1   -3.002944581647643E-1   -1.504075530278180E-2    3.268216219390233E-2   -1.324595266140723E-2    3.268443906923563E-2   -4.918646969989677E-1   -1.427066766006173E-1
 6.501084965450000E9    -4.326469039447526E-1   -2.994568439499432E-1   -1.507330758663863E-2    3.282876295856928E-2   -1.324796534960229E-2    3.288541417038253E-2   -4.920860184710587E-1   -1.415408969737458E-1
 6.501097747975000E9    -4.331139426146184E-1   -2.984661525235151E-1   -1.504027874618854E-2    3.301549150926900E-2   -1.322490857065196E-2    3.306809914875275E-2   -4.922908488541969E-1   -1.402274131782719E-1
 6.501110530500000E9    -4.337174232693529E-1   -2.977016674682679E-1   -1.510140618614502E-2    3.308280606469857E-2   -1.330983142556402E-2    3.322992873883909E-2   -4.926502390055561E-1   -1.388259600364674E-1
 6.501123313025000E9    -4.343156440670878E-1   -2.967611150660897E-1   -1.495258188747450E-2    3.347759531955652E-2   -1.317384352475899E-2    3.353864871702984E-2   -4.928890486668481E-1   -1.377305836002441E-1
 6.501136095550000E9    -4.349834360414230E-1   -2.958467845759867E-1   -1.503821990810002E-2    3.358709739893220E-2   -1.323838080739166E-2    3.370685146155915E-2   -4.931734688499645E-1   -1.363182481842224E-1
 6.501148878075000E9    -4.355283555793436E-1   -2.949483735830650E-1   -1.493667657758207E-2    3.382941509955201E-2   -1.315781089260316E-2    3.399606430639621E-2   -4.933637986057169E-1   -1.351735451148985E-1
 6.501161660600000E9    -4.361126320450783E-1   -2.940329004664194E-1   -1.509173451612956E-2    3.412741333660367E-2   -1.308890493473297E-2    3.415176045955906E-2   -4.937324297179058E-1   -1.338183028405714E-1
 6.501174443125000E9    -4.366809304742613E-1   -2.931542127206128E-1   -1.503550816695029E-2    3.442544968428546E-2   -1.314681179436808E-2    3.425645128034559E-2   -4.939593718682566E-1   -1.326590326693948E-1
 6.501187225650000E9    -4.371904715064215E-1   -2.922439207469118E-1   -1.509013734109008E-2    3.464599614796462E-2   -1.314420353615313E-2    3.459726452115405E-2   -4.943064151627283E-1   -1.315119383528899E-1
 6.501200008175000E9    -4.378762772060837E-1   -2.913959644880670E-1   -1.502374214991766E-2    3.480230408316327E-2   -1.305871268312955E-2    3.495278405187348E-2   -4.944753516934669E-1   -1.301567712541304E-1
 6.501212790700000E9    -4.383501928667315E-1   -2.904068072810984E-1   -1.495964008836736E-2    3.504783098594248E-2   -1.303044400139740E-2    3.511092311643408E-2   -4.947277843048321E-1   -1.288569337855514E-1
 6.501225573225000E9    -4.389378478049702E-1   -2.894160691745843E-1   -1.501970299889309E-2    3.533455832107749E-2   -1.309812654316076E-2    3.529028889896323E-2   -4.948953721604060E-1   -1.273195570410156E-1
 6.501238355750000E9    -4.395800113640137E-1   -2.885798522464246E-1   -1.511461604733185E-2    3.561662260750008E-2   -1.311565337474608E-2    3.547980316248654E-2   -4.952658498817485E-1   -1.262812922620406E-1
 6.501251138275000E9    -4.401058228041858E-1   -2.876762497724780E-1   -1.498180102693985E-2    3.577887110860264E-2   -1.304191135271988E-2    3.572332921968215E-2   -4.953677914364636E-1   -1.246860592169070E-1
 6.501263920800000E9    -4.406030877101750E-1   -2.866684420212102E-1   -1.495560531160773E-2    3.609729145219369E-2   -1.307195484085627E-2    3.597179878963655E-2   -4.957937660809993E-1   -1.235715672284683E-1
 6.501276703325000E9    -4.411865569695712E-1   -2.857696585212758E-1   -1.512456703874331E-2    3.629100657637607E-2   -1.309404876304258E-2    3.617800613812596E-2   -4.958487214521884E-1   -1.223146358647751E-1
 6.501289485850000E9    -4.417015607679449E-1   -2.848641464598041E-1   -1.486535675533534E-2    3.643465187905610E-2   -1.309422648092410E-2    3.653999721331570E-2   -4.962475017293563E-1   -1.208994048512658E-1
 6.501302268375000E9    -4.423620528892676E-1   -2.838304087124435E-1   -1.496382565148630E-2    3.676114098162697E-2   -1.303322003817167E-2    3.680028802364627E-2   -4.963232522593182E-1   -1.197121472288700E-1
 6.501315050900000E9    -4.428600597407162E-1   -2.830027354150061E-1   -1.501321925841015E-2    3.701257629245600E-2   -1.302825529938259E-2    3.698924111165329E-2   -4.965569364345550E-1   -1.182383318872248E-1
 6.501327833425000E9    -4.434333488283092E-1   -2.820388015451740E-1   -1.492273538859254E-2    3.733241828944323E-2   -1.295057427773755E-2    3.720637762841537E-2   -4.968410445050793E-1   -1.169903626785418E-1
 6.501340615950000E9    -4.439485442174398E-1   -2.811839681117351E-1   -1.501164206509265E-2    3.760868219733305E-2   -1.300594401092103E-2    3.757672605406357E-2   -4.969399583804683E-1   -1.155214097030502E-1
 6.501353398475000E9    -4.445497463047391E-1   -2.802503835412214E-1   -1.489301356278911E-2    3.787910781922567E-2   -1.298827106052377E-2    3.779705750760452E-2   -4.972989529348790E-1   -1.141524082638399E-1
 6.501366181000000E9    -4.451585270599483E-1   -2.792072004870428E-1   -1.486128229416201E-2    3.808631045275069E-2   -1.292753069904891E-2    3.786033884547467E-2   -4.974592267837771E-1   -1.128274722632180E-1
 6.501378963525000E9    -4.456907976526799E-1   -2.783827322456486E-1   -1.495702944437939E-2    3.841044808053861E-2   -1.283935003671981E-2    3.816302977772029E-2   -4.976642717179363E-1   -1.113966081183522E-1
 6.501391746050000E9    -4.461872526739502E-1   -2.772487766622371E-1   -1.496615224372623E-2    3.867298725251592E-2   -1.286912399506609E-2    3.848805980527324E-2   -4.978636716105663E-1   -1.101577422137272E-1
 6.501404528575000E9    -4.467052429903030E-1   -2.763804704945360E-1   -1.497448019310572E-2    3.885250931538674E-2   -1.285047604037239E-2    3.878090562032343E-2   -4.979615534555188E-1   -1.087902302059011E-1
 6.501417311100000E9    -4.472524916391621E-1   -2.754000368402026E-1   -1.496149351179412E-2    3.926254324835689E-2   -1.290720558787495E-2    3.907275065687067E-2   -4.982010187447777E-1   -1.074947356306370E-1
 6.501430093625000E9    -4.478688180077909E-1   -2.745252834458612E-1   -1.489447495367350E-2    3.949612764117814E-2   -1.285818919330825E-2    3.935365085118270E-2   -4.984203036800271E-1   -1.061064867689463E-1
 6.501442876150000E9    -4.483329941447003E-1   -2.734615002793042E-1   -1.484822199642386E-2    3.985606815129440E-2   -1.284285086674337E-2    3.963117335982289E-2   -4.986331814769678E-1   -1.045968700733856E-1
 6.501455658675000E9    -4.489363822108278E-1   -2.724671779192209E-1   -1.483223236800211E-2    3.998122587417832E-2   -1.269961301863065E-2    3.994867249091444E-2   -4.986708698111134E-1   -1.032583321853397E-1
 6.501468441200000E9    -4.494889484188548E-1   -2.715383560681225E-1   -1.482063666018453E-2    4.049882622714208E-2   -1.279933468090342E-2    4.010509910070145E-2   -4.988548583881700E-1   -1.018165951105178E-1
 6.501481223725000E9    -4.500477290246495E-1   -2.706203188483614E-1   -1.494150634986598E-2    4.060643850733710E-2   -1.273954061804729E-2    4.056099079621330E-2   -4.990189050863684E-1   -1.004017379573369E-1
 6.501494006250000E9    -4.503995780969197E-1   -2.696584310044745E-1   -1.488344634183145E-2    4.092178734165622E-2   -1.268419522039745E-2    4.075503383866581E-2   -4.993475913865150E-1   -9.891552194098158E-2
 6.501506788775000E9    -4.510515867021909E-1   -2.687020766582190E-1   -1.477988770962476E-2    4.125177819616950E-2   -1.276239329315588E-2    4.107244553678689E-2   -4.994658608037187E-1   -9.762095826650807E-2
 6.501519571300000E9    -4.515511507828389E-1   -2.677276431103857E-1   -1.475126598716309E-2    4.164440224242373E-2   -1.262490992819124E-2    4.132228145816483E-2   -4.997247145166968E-1   -9.612921429449131E-2
 6.501532353825000E9    -4.521495695604379E-1   -2.667406908983129E-1   -1.482241535792453E-2    4.180978919801680E-2   -1.262590315190480E-2    4.177065161577920E-2   -4.998065305018323E-1   -9.463110572640902E-2
 6.501545136350000E9    -4.525590188389453E-1   -2.657664223501116E-1   -1.474176238514026E-2    4.222516744369457E-2   -1.261600810118507E-2    4.203094767153009E-2   -4.998056644781378E-1   -9.319414785984986E-2
 6.501557918875000E9    -4.530856189718376E-1   -2.647608706947731E-1   -1.467356071516882E-2    4.256235420533391E-2   -1.256806244481368E-2    4.233978093227215E-2   -5.001816153947991E-1   -9.188181869474321E-2
 6.501570701400000E9    -4.537442889080909E-1   -2.637157072458186E-1   -1.484065986292830E-2    4.282808857466228E-2   -1.257622585250634E-2    4.260972519098662E-2   -5.002099084856741E-1   -9.032728616249099E-2
 6.501583483925000E9    -4.542745345942171E-1   -2.627573454288873E-1   -1.477788621640716E-2    4.332285496717332E-2   -1.253552072251049E-2    4.300486796662754E-2   -5.003454111293651E-1   -8.884434807140490E-2
 6.501596266450000E9    -4.547274256036913E-1   -2.616730367620017E-1   -1.479873119819829E-2    4.346712649997649E-2   -1.245738821459649E-2    4.329111038339837E-2   -5.005709119212793E-1   -8.752891286079922E-2
 6.501609048975000E9    -4.552081214304784E-1   -2.607317238925171E-1   -1.470549619426742E-2    4.405408872659135E-2   -1.247686783775073E-2    4.373773835711230E-2   -5.006715406097312E-1   -8.599642078536453E-2
 6.501621831500000E9    -4.556999958984467E-1   -2.597196189065679E-1   -1.472006701421479E-2    4.421552695655588E-2   -1.241579979963279E-2    4.396799140244448E-2   -5.007111177452395E-1   -8.433682723987213E-2
 6.501634614025000E9    -4.562925585868444E-1   -2.587280339662635E-1   -1.459343915721339E-2    4.468766836932057E-2   -1.229271595263274E-2    4.430625453730636E-2   -5.008467201898139E-1   -8.286442824631103E-2
 6.501647396550000E9    -4.568030038595274E-1   -2.577395652130577E-1   -1.463272176523085E-2    4.495262399847014E-2   -1.231303661920645E-2    4.466194878101408E-2   -5.010369008428839E-1   -8.158290416660786E-2
 6.501660179075000E9    -4.573461761764836E-1   -2.567906624800980E-1   -1.462118476137706E-2    4.538451705724093E-2   -1.231082933594173E-2    4.501582361734526E-2   -5.011930312976318E-1   -7.996073794784171E-2
 6.501672961600000E9    -4.578124404190136E-1   -2.557285984429667E-1   -1.456954578149238E-2    4.565081941015232E-2   -1.238162397634206E-2    4.539710589147699E-2   -5.012932336677834E-1   -7.848234901746914E-2
 6.501685744125000E9    -4.581724451629312E-1   -2.547348608363603E-1   -1.445865548114001E-2    4.616452862922895E-2   -1.217502063406014E-2    4.573416077822717E-2   -5.014158131225506E-1   -7.682791716837850E-2
 6.501698526650000E9    -4.588744613926277E-1   -2.536286302548152E-1   -1.453665122547675E-2    4.644407125248313E-2   -1.216216671886735E-2    4.600497695342753E-2   -5.013293470850348E-1   -7.523227431091757E-2
 6.501711309175000E9    -4.594076747044056E-1   -2.526277921759928E-1   -1.450718590569076E-2    4.677137499322491E-2   -1.208059429021325E-2    4.647747152108122E-2   -5.014961824775471E-1   -7.376139960602303E-2
 6.501724091700000E9    -4.597275738748339E-1   -2.515401652061308E-1   -1.447052498757091E-2    4.720683260534998E-2   -1.194713880229077E-2    4.678908474593285E-2   -5.014927310359868E-1   -7.224818805998066E-2
 6.501736874225000E9    -4.604267681472588E-1   -2.505806316578836E-1   -1.445974752219937E-2    4.771128001868015E-2   -1.208316061130888E-2    4.718937316849133E-2   -5.016140609578857E-1   -7.062534852575159E-2
 6.501749656750000E9    -4.608388434159020E-1   -2.494331011616504E-1   -1.428189776885932E-2    4.794171559543366E-2   -1.198792169194414E-2    4.753212666007608E-2   -5.017022760838314E-1   -6.915752189968617E-2
 6.501762439275000E9    -4.613508610427068E-1   -2.484695043480271E-1   -1.433823157253440E-2    4.837079304677108E-2   -1.194536404598483E-2    4.807019606397982E-2   -5.017640430011790E-1   -6.750430596906425E-2
 6.501775221800000E9    -4.617705008628722E-1   -2.473990367040877E-1   -1.431966663210084E-2    4.871860180031149E-2   -1.187820237431513E-2    4.830425645106391E-2   -5.019217400180153E-1   -6.587021803483892E-2
 6.501788004325000E9    -4.621561883307643E-1   -2.463516891320387E-1   -1.422308437664869E-2    4.920956752724937E-2   -1.174569132675328E-2    4.877469396747239E-2   -5.018755149579022E-1   -6.417469400611783E-2
 6.501800786850000E9    -4.627496425664267E-1   -2.453711170556664E-1   -1.413204912175850E-2    4.972106540167530E-2   -1.182018729953509E-2    4.913228683100639E-2   -5.019957459681473E-1   -6.274284465224325E-2
 6.501813569375000E9    -4.633300072580723E-1   -2.442850319560396E-1   -1.423627736629890E-2    4.991122881010242E-2   -1.173868126861445E-2    4.949099940610006E-2   -5.020584035999123E-1   -6.113057343698110E-2
 6.501826351900000E9    -4.636724279299227E-1   -2.432058758853491E-1   -1.415952681265199E-2    5.058576697124099E-2   -1.168539007479922E-2    5.002774387096151E-2   -5.021233850596857E-1   -5.926180886872179E-2
 6.501839134425000E9    -4.643104381672839E-1   -2.421909660812560E-1   -1.413258890771342E-2    5.094186339854060E-2   -1.159084165283996E-2    5.040595654614306E-2   -5.021146440149719E-1   -5.788061353777405E-2
 6.501851916950000E9    -4.647325242222998E-1   -2.410776826400487E-1   -1.407819840122844E-2    5.141400437352613E-2   -1.145072612838910E-2    5.077101388844808E-2   -5.019820484514059E-1   -5.598585214705105E-2
 6.501864699475000E9    -4.652107727423488E-1   -2.399631943679938E-1   -1.403598275120534E-2    5.188857261466394E-2   -1.144719987038475E-2    5.121558814463707E-2   -5.020460785394967E-1   -5.436298418295087E-2
 6.501877482000000E9    -4.657533864701141E-1   -2.388682558596536E-1   -1.397471275874677E-2    5.224236545046241E-2   -1.137217449219924E-2    5.171705771691029E-2   -5.020559556673910E-1   -5.277756762465198E-2
 6.501890264525000E9    -4.661401416642673E-1   -2.377634154164675E-1   -1.382780437877742E-2    5.279024304786551E-2   -1.127026433353503E-2    5.209604717764404E-2   -5.021991946102138E-1   -5.100956520809528E-2
 6.501903047050000E9    -4.665368125622300E-1   -2.367282903330588E-1   -1.377744637845672E-2    5.323716035442201E-2   -1.123430574148738E-2    5.273517213666287E-2   -5.021288046867202E-1   -4.922783853590154E-2
 6.501915829575000E9    -4.670654516180336E-1   -2.357096998264746E-1   -1.376030532208572E-2    5.380391589066574E-2   -1.104003742814677E-2    5.320354602192794E-2   -5.020596422870767E-1   -4.761166132286851E-2
 6.501928612100000E9    -4.675742083144705E-1   -2.345110140313281E-1   -1.372890960552788E-2    5.427320277652543E-2   -1.098135918486944E-2    5.363093535247906E-2   -5.020379761975257E-1   -4.569157489288657E-2
 6.501941394625000E9    -4.680596748663522E-1   -2.333880350451426E-1   -1.364368280324439E-2    5.471156290946069E-2   -1.102197190753842E-2    5.414577995558151E-2   -5.020569891620549E-1   -4.416368637852697E-2
 6.501954177150000E9    -4.684992129837634E-1   -2.323730908922215E-1   -1.356965020213214E-2    5.533618669333468E-2   -1.088369961847490E-2    5.451980614012048E-2   -5.020576844589320E-1   -4.234838831363816E-2
 6.501966959675000E9    -4.688649454801066E-1   -2.311125343879231E-1   -1.347512545720750E-2    5.570037192569798E-2   -1.072468842830115E-2    5.504700303408203E-2   -5.018398293427606E-1   -4.041439589483948E-2
 6.501979742200000E9    -4.693672299350450E-1   -2.300070307406822E-1   -1.337726659771599E-2    5.622427218930283E-2   -1.078387203858800E-2    5.561335994929113E-2   -5.018695778729360E-1   -3.878746964912558E-2
 6.501992524725000E9    -4.698304876646963E-1   -2.288852278597580E-1   -1.321204311246090E-2    5.683957721099082E-2   -1.061418066447333E-2    5.611598207905021E-2   -5.017531602423205E-1   -3.693126554591723E-2
 6.502005307250000E9    -4.703306661345608E-1   -2.278319726146218E-1   -1.330585676398444E-2    5.730447018615996E-2   -1.050356098479206E-2    5.651742635486116E-2   -5.016250683018544E-1   -3.513536772331671E-2
