#  HZ   S   RI   R     50.00 
! Rohde & Schwarz Vector Network Analyzer 
! Rohde-Schwarz,ZNB20-2Port,1311601062101988,3.16
! Created: UTC 3/20/2024, 11:54:38 AM
! freq[Hz]                re:S11                  im:S11                  re:S21                  im:S21                  re:S12                  im:S12                  re:S22                  im:S22
 6.500855159000000E9    -4.218760881978652E-1   -3.151273161975388E-1   -1.498255666479580E-2    2.930997085552618E-2   -1.325716085702273E-2    2.955486848689499E-2   -4.867567684356078E-1   -1.633139598116472E-1
 6.500867942900000E9    -4.225029515576494E-1   -3.141846390954732E-1   -1.488664706943907E-2    2.952237293177102E-2   -1.336001795201224E-2    2.960867592138853E-2   -4.869296758156464E-1   -1.620290752657345E-1
 6.500880726800000E9    -4.231557571418765E-1   -3.134385381171733E-1   -1.505152829532578E-2    2.967069996035602E-2   -1.327850725645031E-2    2.983351770371779E-2   -4.873426796884717E-1   -1.609402103915855E-1
 6.500893510700000E9    -4.237163414820546E-1   -3.126175109839529E-1   -1.502216784374885E-2    2.998130772159488E-2   -1.330323479976940E-2    3.007267476000682E-2   -4.876150601018088E-1   -1.598066214619336E-1
 6.500906294600000E9    -4.243163395244643E-1   -3.117156997491094E-1   -1.493345837172018E-2    3.001627094396252E-2   -1.325724989895001E-2    3.016380415939836E-2   -4.881342599154488E-1   -1.584395532706476E-1
 6.500919078500000E9    -4.248883241656785E-1   -3.108802648867072E-1   -1.509812184847928E-2    3.018890096955704E-2   -1.325048415613978E-2    3.036533238256065E-2   -4.883043877839410E-1   -1.573901207393193E-1
 6.500931862400000E9    -4.254065347032800E-1   -3.099091500205605E-1   -1.494933317994098E-2    3.044288248084354E-2   -1.332078654956139E-2    3.052071500404225E-2   -4.886408571818999E-1   -1.562535372788888E-1
 6.500944646300000E9    -4.259994498696204E-1   -3.090435518986728E-1   -1.509193179735673E-2    3.064368506528684E-2   -1.325521650922759E-2    3.070226593144116E-2   -4.890287137472922E-1   -1.548359201263841E-1
 6.500957430200000E9    -4.266717815566319E-1   -3.082385164210558E-1   -1.502494060947559E-2    3.089260553672603E-2   -1.325420558427834E-2    3.091237514089563E-2   -4.892089458281398E-1   -1.537158654795771E-1
 6.500970214100000E9    -4.272873224001487E-1   -3.074235096465762E-1   -1.494063003803140E-2    3.092121508819356E-2   -1.323513604893328E-2    3.101074324982613E-2   -4.896411507722444E-1   -1.524396258384499E-1
 6.500982998000000E9    -4.278129294922186E-1   -3.065676732824166E-1   -1.499258467633569E-2    3.103730589114409E-2   -1.323375947439182E-2    3.128666782695431E-2   -4.898093393778723E-1   -1.512956044012124E-1
 6.500995781900000E9    -4.284735761576289E-1   -3.055686961541029E-1   -1.501808738830892E-2    3.141590905105505E-2   -1.330578907457263E-2    3.145807294745408E-2   -4.901490888770053E-1   -1.501579038182551E-1
 6.501008565800000E9    -4.290213005955985E-1   -3.047508896870768E-1   -1.497446648908306E-2    3.151438412397313E-2   -1.326984275456039E-2    3.156349232267659E-2   -4.904820934606877E-1   -1.489239572878558E-1
 6.501021349700000E9    -4.297479776220089E-1   -3.038763129254307E-1   -1.503114238032785E-2    3.182946653305046E-2   -1.331358737578756E-2    3.190511053906834E-2   -4.908445124908191E-1   -1.477155368536492E-1
 6.501034133600000E9    -4.303180276740790E-1   -3.029649701717213E-1   -1.516064091874176E-2    3.197477721840378E-2   -1.325416313811083E-2    3.213614902463102E-2   -4.909614320860747E-1   -1.463842994722347E-1
 6.501046917500000E9    -4.307551000417041E-1   -3.020136363666560E-1   -1.504631026141367E-2    3.217689105675838E-2   -1.328029054484716E-2    3.229572735762034E-2   -4.912827405320604E-1   -1.452461250343293E-1
 6.501059701400000E9    -4.314036356589174E-1   -3.011907390485842E-1   -1.514033616775802E-2    3.235997500294745E-2   -1.330014270312129E-2    3.250039892804843E-2   -4.916944288786804E-1   -1.438490796995771E-1
 6.501072485300000E9    -4.320133529457076E-1   -3.004248764837339E-1   -1.495044873691459E-2    3.257901023885926E-2   -1.322470169248284E-2    3.261965488985565E-2   -4.917251332778525E-1   -1.427707762173797E-1
 6.501085269200000E9    -4.326158615458097E-1   -2.993866390363843E-1   -1.513995403281954E-2    3.282467357428367E-2   -1.313735372609994E-2    3.286839441844144E-2   -4.921004979386291E-1   -1.413711254622650E-1
 6.501098053100000E9    -4.331864650855910E-1   -2.985464561797234E-1   -1.500799755217812E-2    3.303092282045037E-2   -1.315077044696667E-2    3.314402700413769E-2   -4.923948844351123E-1   -1.402521204712641E-1
 6.501110837000000E9    -4.338068893782661E-1   -2.976221734445858E-1   -1.509390615447640E-2    3.332947751385588E-2   -1.316778895935596E-2    3.323299718237108E-2   -4.926611602071415E-1   -1.390877517474734E-1
 6.501123620900000E9    -4.344372260609690E-1   -2.967800793644789E-1   -1.509842303082313E-2    3.344318329987529E-2   -1.318508901021807E-2    3.355891176337759E-2   -4.930218258347723E-1   -1.376918946021652E-1
 6.501136404800000E9    -4.349110149162375E-1   -2.958904522229278E-1   -1.500119982457123E-2    3.362632416812454E-2   -1.316679560669385E-2    3.377165385015608E-2   -4.931008732084009E-1   -1.365157908945313E-1
 6.501149188700000E9    -4.354329712917228E-1   -2.948740697282505E-1   -1.506101531265364E-2    3.397437052669502E-2   -1.322189880216242E-2    3.386686961154917E-2   -4.934191541002269E-1   -1.351734282782454E-1
 6.501161972600000E9    -4.359837805638162E-1   -2.940238836651479E-1   -1.502921820982691E-2    3.416942778076165E-2   -1.310519593471010E-2    3.415717131406890E-2   -4.938463960311812E-1   -1.339497953108604E-1
 6.501174756500000E9    -4.366256019270220E-1   -2.931538623416733E-1   -1.497726981970942E-2    3.430317525318569E-2   -1.316301454355177E-2    3.438065756877677E-2   -4.939266934797764E-1   -1.326097707348451E-1
 6.501187540400000E9    -4.372025888000343E-1   -2.922299506885703E-1   -1.491451042562054E-2    3.460877053338604E-2   -1.305770310978518E-2    3.450329744021530E-2   -4.942413393407654E-1   -1.313646168225269E-1
 6.501200324300000E9    -4.377134384567156E-1   -2.912597503747338E-1   -1.492272503041676E-2    3.484652748910323E-2   -1.316073318139739E-2    3.478170118908698E-2   -4.944378150262976E-1   -1.300399290351068E-1
 6.501213108200000E9    -4.383461998885024E-1   -2.904252531034205E-1   -1.493951205923595E-2    3.515428554078594E-2   -1.308564071872247E-2    3.501065182766161E-2   -4.948018239664538E-1   -1.288443906359890E-1
 6.501225892100000E9    -4.389149068564674E-1   -2.894845787670668E-1   -1.506382841563783E-2    3.534830897772837E-2   -1.314174982738391E-2    3.529158546059873E-2   -4.949884024424118E-1   -1.274858111355514E-1
 6.501238676000000E9    -4.394991390690222E-1   -2.884255880764087E-1   -1.502849533497273E-2    3.547391671737794E-2   -1.319724548571049E-2    3.550843519462375E-2   -4.951538871213350E-1   -1.261739805772023E-1
 6.501251459900000E9    -4.401176448263150E-1   -2.875630685568606E-1   -1.492944951283089E-2    3.576807452328149E-2   -1.302807815820223E-2    3.585145815012456E-2   -4.955741566438736E-1   -1.248949726903652E-1
 6.501264243800000E9    -4.405799280460020E-1   -2.866372502525196E-1   -1.502819398853164E-2    3.607645500435476E-2   -1.311762614121117E-2    3.592829267199005E-2   -4.957226020839019E-1   -1.235195941089741E-1
 6.501277027700000E9    -4.412611789590191E-1   -2.858381994845498E-1   -1.505582667490101E-2    3.638133785260126E-2   -1.312101751456173E-2    3.628334812421350E-2   -4.959797160915642E-1   -1.222598772389207E-1
 6.501289811600000E9    -4.417448060732913E-1   -2.848856269922119E-1   -1.493071838978848E-2    3.651238988019195E-2   -1.308653693009774E-2    3.644542700688928E-2   -4.962416527258229E-1   -1.208013920269296E-1
 6.501302595500000E9    -4.423859396214223E-1   -2.838410321438284E-1   -1.510654949087372E-2    3.669048178336322E-2   -1.307196934465158E-2    3.669804313797567E-2   -4.964507466395344E-1   -1.196159348604437E-1
 6.501315379400000E9    -4.428238565289542E-1   -2.829175512925249E-1   -1.495179834056665E-2    3.712239834911073E-2   -1.299049467532098E-2    3.699946856226238E-2   -4.964808615029266E-1   -1.182212480891367E-1
 6.501328163300000E9    -4.433451304334562E-1   -2.820772897416476E-1   -1.510451310781304E-2    3.733487353826218E-2   -1.300228382756085E-2    3.726374141647313E-2   -4.968406354131225E-1   -1.169068529449318E-1
 6.501340947200000E9    -4.439436915290317E-1   -2.810823191000570E-1   -1.501194819716165E-2    3.756421308611806E-2   -1.303371142827248E-2    3.751646922287077E-2   -4.970363803901677E-1   -1.155423697113612E-1
 6.501353731100000E9    -4.445857308221277E-1   -2.802694842069995E-1   -1.486385482121471E-2    3.798618741688346E-2   -1.295468169428766E-2    3.767138250208549E-2   -4.973185043618411E-1   -1.141972514675685E-1
 6.501366515000000E9    -4.450329928033859E-1   -2.792475904831951E-1   -1.492322292486173E-2    3.815803595654830E-2   -1.292355097016586E-2    3.801287687610293E-2   -4.975351734050880E-1   -1.127473505023742E-1
 6.501379298900000E9    -4.455763319275551E-1   -2.782967067932876E-1   -1.494591849960147E-2    3.830869315973649E-2   -1.293224254060524E-2    3.821997912761455E-2   -4.975567502548305E-1   -1.114817299686989E-1
 6.501392082800000E9    -4.462842794927555E-1   -2.773591718425350E-1   -1.510409520545763E-2    3.861529753387152E-2   -1.290852293839869E-2    3.857884942101374E-2   -4.978618843109530E-1   -1.103042482563803E-1
 6.501404866700000E9    -4.467117233679951E-1   -2.763516224642553E-1   -1.497228495375429E-2    3.890541332765984E-2   -1.285514957083349E-2    3.883491525228917E-2   -4.979271511099145E-1   -1.087899104981586E-1
 6.501417650600000E9    -4.471675197576311E-1   -2.753979003691975E-1   -1.489511704829150E-2    3.913503058503919E-2   -1.284130841620616E-2    3.906479063105684E-2   -4.982751344032439E-1   -1.075269313153599E-1
 6.501430434500000E9    -4.477795705023864E-1   -2.745173647005841E-1   -1.489808389258334E-2    3.948093269408673E-2   -1.288274516518953E-2    3.937260770288083E-2   -4.984519183607817E-1   -1.059481365255629E-1
 6.501443218400000E9    -4.483308724387147E-1   -2.735116780213510E-1   -1.492782514435615E-2    3.990269420015762E-2   -1.284452350252763E-2    3.962749731497902E-2   -4.987262921673566E-1   -1.046191916347611E-1
 6.501456002300000E9    -4.488632706291556E-1   -2.725060625945241E-1   -1.485161616310663E-2    4.013069308255667E-2   -1.286828902844138E-2    3.997684381681661E-2   -4.988298043604323E-1   -1.031600297917630E-1
 6.501468786200000E9    -4.493605180464016E-1   -2.715607842284066E-1   -1.476353072460592E-2    4.046506005264922E-2   -1.279948720394607E-2    4.018197395591580E-2   -4.990853121854450E-1   -1.018152982065312E-1
 6.501481570100000E9    -4.500113692874773E-1   -2.706626509286200E-1   -1.483608991386958E-2    4.067902691625494E-2   -1.274521697445703E-2    4.044737089644165E-2   -4.991594281849251E-1   -1.003326805255462E-1
 6.501494354000000E9    -4.504996179407780E-1   -2.696819520671293E-1   -1.487807918574713E-2    4.115154260006720E-2   -1.278919606626469E-2    4.084893023254223E-2   -4.993001895857623E-1   -9.897931743307876E-2
 6.501507137900000E9    -4.510345704582386E-1   -2.685893046846573E-1   -1.491814162012789E-2    4.120368589019823E-2   -1.264668315352029E-2    4.106812925445029E-2   -4.994869404527518E-1   -9.742195208316667E-2
 6.501519921800000E9    -4.515985763590250E-1   -2.676457153305512E-1   -1.471777378750266E-2    4.163965705485689E-2   -1.272067931373951E-2    4.147312572656183E-2   -4.997790358751406E-1   -9.621083351834485E-2
 6.501532705700000E9    -4.520714082350551E-1   -2.667365499306590E-1   -1.482912359199951E-2    4.196696307130767E-2   -1.256909758227807E-2    4.170736060246143E-2   -4.998703514822873E-1   -9.471982495001363E-2
 6.501545489600000E9    -4.526601019653506E-1   -2.657054486321976E-1   -1.480825148455691E-2    4.240456639947697E-2   -1.258858535637928E-2    4.191756842387699E-2   -5.000276061927698E-1   -9.320952224877536E-2
 6.501558273500000E9    -4.531764315963691E-1   -2.648546185302894E-1   -1.473486431007335E-2    4.266902380441123E-2   -1.259780886649970E-2    4.239539535898278E-2   -5.000124437860914E-1   -9.195080495712467E-2
 6.501571057400000E9    -4.536382344715225E-1   -2.637429464584569E-1   -1.483050392043504E-2    4.293047205178918E-2   -1.251761339145196E-2    4.265241446794130E-2   -5.002415920971289E-1   -9.034145168367196E-2
 6.501583841300000E9    -4.541836182220981E-1   -2.628323710413708E-1   -1.476565703315079E-2    4.332629854786104E-2   -1.249523972937503E-2    4.303072858031652E-2   -5.005218796671441E-1   -8.887525475463218E-2
 6.501596625200000E9    -4.547962838387032E-1   -2.617931386189808E-1   -1.472889914102045E-2    4.354974719274290E-2   -1.243788575408329E-2    4.323982640192484E-2   -5.006849235644788E-1   -8.737631395666165E-2
 6.501609409100000E9    -4.553246837872566E-1   -2.607615062197192E-1   -1.455044792851081E-2    4.383581766118055E-2   -1.241209192672043E-2    4.358724414884697E-2   -5.006680679494356E-1   -8.586391668915759E-2
 6.501622193000000E9    -4.557338980803975E-1   -2.597599460090964E-1   -1.459728645993549E-2    4.433623840624702E-2   -1.239273578425640E-2    4.390473325216293E-2   -5.009329037568696E-1   -8.436556612642858E-2
 6.501634976900000E9    -4.562917429360812E-1   -2.587460263488002E-1   -1.469707861953369E-2    4.462969887273233E-2   -1.232840495314521E-2    4.429160763148690E-2   -5.008250002717142E-1   -8.293371301590569E-2
 6.501647760800000E9    -4.567718212992013E-1   -2.577768160079505E-1   -1.461665639244991E-2    4.498012173977927E-2   -1.234944013425079E-2    4.471036495597451E-2   -5.009448030886816E-1   -8.150870277815085E-2
 6.501660544700000E9    -4.572846728520840E-1   -2.566602775427306E-1   -1.460248137200316E-2    4.532901483440242E-2   -1.231651878199893E-2    4.493337185813576E-2   -5.010428201823808E-1   -7.987295716486173E-2
 6.501673328600000E9    -4.578647548609851E-1   -2.556436440853827E-1   -1.451750929997236E-2    4.562456769905320E-2   -1.223971360120027E-2    4.533113902468743E-2   -5.013289520070011E-1   -7.823931613459498E-2
 6.501686112500000E9    -4.583361221122336E-1   -2.547079384319998E-1   -1.454236804218073E-2    4.601739523467091E-2   -1.220316284064107E-2    4.577112402702695E-2   -5.012425924833152E-1   -7.686284404994884E-2
 6.501698896400000E9    -4.588263866952327E-1   -2.536607551387579E-1   -1.449702666669173E-2    4.636800278568222E-2   -1.213770059745743E-2    4.615311186549641E-2   -5.013292012377101E-1   -7.520776607874845E-2
 6.501711680300000E9    -4.593384132299560E-1   -2.526820266566194E-1   -1.450165948458583E-2    4.688631966836351E-2   -1.211900017575516E-2    4.644636766758194E-2   -5.015645656569979E-1   -7.373378513095766E-2
 6.501724464200000E9    -4.598371096839977E-1   -2.515817216821331E-1   -1.431940408993523E-2    4.713367065099168E-2   -1.201942467047335E-2    4.679941888184973E-2   -5.015302051267850E-1   -7.204619908048944E-2
 6.501737248100000E9    -4.604305487037205E-1   -2.505807633481507E-1   -1.444804575891389E-2    4.759469888742411E-2   -1.195632511089800E-2    4.717523347288375E-2   -5.015099436298659E-1   -7.065044039857817E-2
 6.501750032000000E9    -4.608296364581012E-1   -2.495325886842575E-1   -1.445138021376640E-2    4.809821939109412E-2   -1.190432443453811E-2    4.768651281543231E-2   -5.018295866086322E-1   -6.893919154898198E-2
 6.501762815900000E9    -4.612119773727406E-1   -2.484622617487568E-1   -1.439443344197402E-2    4.829586402142119E-2   -1.188174404002738E-2    4.796313405736693E-2   -5.018646530703357E-1   -6.752371655292037E-2
 6.501775599800000E9    -4.618799298691133E-1   -2.474118610451877E-1   -1.438185224929456E-2    4.880348163687965E-2   -1.187024114032027E-2    4.836079308039122E-2   -5.020190817695949E-1   -6.577138447957873E-2
 6.501788383700000E9    -4.623568919822311E-1   -2.462978761316567E-1   -1.421614784105637E-2    4.921033025965486E-2   -1.187813515013188E-2    4.878515395801566E-2   -5.020257409496106E-1   -6.428608509163604E-2
 6.501801167600000E9    -4.628359387483441E-1   -2.453454674219922E-1   -1.426093135347213E-2    4.964540146366562E-2   -1.173466046100137E-2    4.919972932242837E-2   -5.018751440909281E-1   -6.271693148929600E-2
 6.501813951500000E9    -4.632820285391596E-1   -2.442919121609846E-1   -1.414587215077351E-2    5.007184382979906E-2   -1.171183036243931E-2    4.952670940343831E-2   -5.019527008448155E-1   -6.102279049158975E-2
 6.501826735400000E9    -4.636922274926277E-1   -2.430928351539119E-1   -1.402912390302589E-2    5.046343764486520E-2   -1.161668754972713E-2    5.004907836316719E-2   -5.019707104112314E-1   -5.941473711787641E-2
 6.501839519300000E9    -4.642265523946348E-1   -2.420313148836443E-1   -1.407021326214115E-2    5.112128046590184E-2   -1.163064523025588E-2    5.043036988204606E-2   -5.019668530156206E-1   -5.770121457176728E-2
 6.501852303200000E9    -4.647327756208425E-1   -2.411449751282666E-1   -1.408729981688782E-2    5.139448118059767E-2   -1.159202569472707E-2    5.082000142818942E-2   -5.021030416455899E-1   -5.593498814006551E-2
 6.501865087100000E9    -4.653111467874130E-1   -2.398737581235264E-1   -1.391173513556148E-2    5.187332414440478E-2   -1.145752412974232E-2    5.132286201066238E-2   -5.020655730028942E-1   -5.435465097556197E-2
 6.501877871000000E9    -4.657331047614300E-1   -2.388785196940335E-1   -1.392173520868347E-2    5.238311276938378E-2   -1.140559623263867E-2    5.172809782265427E-2   -5.021034630474103E-1   -5.269921664667350E-2
 6.501890654900000E9    -4.662105281303435E-1   -2.378104975212488E-1   -1.390797718705607E-2    5.274962756801398E-2   -1.124706860455720E-2    5.223164002038556E-2   -5.021598668809394E-1   -5.099016819838290E-2
 6.501903438800000E9    -4.666993504905346E-1   -2.366526969771883E-1   -1.380967347673165E-2    5.320610872188053E-2   -1.114102851876179E-2    5.268056383924347E-2   -5.021322802842724E-1   -4.921114415702256E-2
 6.501916222700000E9    -4.671475615666835E-1   -2.356577539517651E-1   -1.373300226539536E-2    5.358124406469120E-2   -1.112186477106368E-2    5.314478492035037E-2   -5.021557912492178E-1   -4.761991378430804E-2
 6.501929006600000E9    -4.675078552332247E-1   -2.345424201714891E-1   -1.370010955806792E-2    5.421099119351013E-2   -1.109130984329637E-2    5.366534884273932E-2   -5.019658095609980E-1   -4.589587402180136E-2
 6.501941790500000E9    -4.681046693013157E-1   -2.333658625761918E-1   -1.368510131359492E-2    5.464291800932185E-2   -1.108577189882622E-2    5.402864877340691E-2   -5.019786594904140E-1   -4.422213954375328E-2
 6.501954574400000E9    -4.685122899542754E-1   -2.323035549477981E-1   -1.361613287755753E-2    5.519390657397059E-2   -1.077267830477129E-2    5.456922703058192E-2   -5.017973599122826E-1   -4.235006222990256E-2
 6.501967358300000E9    -4.690238813039894E-1   -2.311261969575000E-1   -1.340948378862346E-2    5.582220868091751E-2   -1.078386858272259E-2    5.504404580467237E-2   -5.019252338151090E-1   -4.057025823382437E-2
 6.501980142200000E9    -4.693747312728703E-1   -2.301450144840072E-1   -1.327640177644860E-2    5.627727545768112E-2   -1.075745851597898E-2    5.551350258878724E-2   -5.018878589021218E-1   -3.871287803641497E-2
 6.501992926100000E9    -4.698973867236674E-1   -2.290189907840743E-1   -1.326955782899147E-2    5.682522780765083E-2   -1.049506048988100E-2    5.609758634926067E-2   -5.018654339469112E-1   -3.692105838552876E-2
 6.502005710000000E9    -4.703867720602928E-1   -2.277746611685322E-1   -1.332483768009485E-2    5.732462317910522E-2   -1.052876355872024E-2    5.675502153443481E-2   -5.017495227085887E-1   -3.512975285352438E-2
