#  HZ   S   RI   R     50.00 
! Rohde & Schwarz Vector Network Analyzer 
! Rohde-Schwarz,ZNB20-2Port,1311601062101988,3.16
! Created: UTC 3/20/2024, 11:54:48 AM
! freq[Hz]                re:S11                  im:S11                  re:S21                  im:S21                  re:S12                  im:S12                  re:S22                  im:S22
 6.500862763000000E9    -4.221911594303195E-1   -3.147183037808218E-1   -1.505381587099136E-2    2.937205682043093E-2   -1.335271066119500E-2    2.959400234438152E-2   -4.868538216874008E-1   -1.626397589088915E-1
 6.500875518800000E9    -4.228862280723041E-1   -3.137878723968437E-1   -1.492047153260674E-2    2.948748268569337E-2   -1.333625862355478E-2    2.979037545641225E-2   -4.872614465986248E-1   -1.613909353288840E-1
 6.500888274600000E9    -4.234395299967334E-1   -3.129496675324048E-1   -1.492693473764967E-2    2.970634121281318E-2   -1.336650482274657E-2    2.990744080096917E-2   -4.875066755446020E-1   -1.601782745139127E-1
 6.500901030400000E9    -4.240202338998919E-1   -3.120863663883197E-1   -1.499752247672398E-2    3.010072730306583E-2   -1.336655259931199E-2    3.000742912089330E-2   -4.876707096068118E-1   -1.591308190025746E-1
 6.500913786200000E9    -4.246620926967561E-1   -3.111960207900580E-1   -1.512755459764076E-2    3.023640784002652E-2   -1.326641805554971E-2    3.029398997784821E-2   -4.881202561616343E-1   -1.578801263532336E-1
 6.500926542000000E9    -4.252140955894525E-1   -3.102702850166857E-1   -1.496833803610929E-2    3.033494435215630E-2   -1.325917665360922E-2    3.047785594607494E-2   -4.885104934103501E-1   -1.566900095819237E-1
 6.500939297800000E9    -4.258722825960430E-1   -3.095220396444558E-1   -1.494934137924522E-2    3.055458533420330E-2   -1.323274480483779E-2    3.059590360328582E-2   -4.887593501042481E-1   -1.555955985676359E-1
 6.500952053600000E9    -4.264473365365897E-1   -3.085848167686349E-1   -1.495490339658829E-2    3.078228718102636E-2   -1.326348521215109E-2    3.074246470481873E-2   -4.890491064499831E-1   -1.541438832772923E-1
 6.500964809400000E9    -4.271105416746805E-1   -3.077552875225502E-1   -1.504194120501829E-2    3.096097414258211E-2   -1.318420968888451E-2    3.104479941323357E-2   -4.894701782470350E-1   -1.530821128902882E-1
 6.500977565200000E9    -4.276465021187020E-1   -3.068254287128002E-1   -1.501284582138447E-2    3.098349549450980E-2   -1.331206570915283E-2    3.120298084534720E-2   -4.897018552530023E-1   -1.518885649790645E-1
 6.500990321000000E9    -4.281957753516055E-1   -3.059209456304500E-1   -1.502411598520394E-2    3.127094303203523E-2   -1.344623622596522E-2    3.135470516142321E-2   -4.900133425183603E-1   -1.507087533734764E-1
 6.501003076800000E9    -4.287300684234427E-1   -3.050845145946654E-1   -1.491365479044828E-2    3.149774007629109E-2   -1.322275814579007E-2    3.150924398259592E-2   -4.902287155379697E-1   -1.493312325395186E-1
 6.501015832600000E9    -4.294336095635612E-1   -3.041585640849515E-1   -1.518934343317093E-2    3.170499433835355E-2   -1.332645999256305E-2    3.177211750152886E-2   -4.906791652621789E-1   -1.482247528087432E-1
 6.501028588400000E9    -4.299597849379817E-1   -3.033628096175346E-1   -1.505836215430083E-2    3.186644713038692E-2   -1.321923304430125E-2    3.198881375535670E-2   -4.909276889481255E-1   -1.469290740334297E-1
 6.501041344200000E9    -4.306097685298360E-1   -3.025052017270289E-1   -1.499632009217139E-2    3.197778239807485E-2   -1.323392833489670E-2    3.218288278146485E-2   -4.910892743048512E-1   -1.459542502980453E-1
 6.501054100000000E9    -4.312990074901032E-1   -3.015811553713992E-1   -1.503263598777049E-2    3.232672040148871E-2   -1.320611561379496E-2    3.233524873365805E-2   -4.914601229656329E-1   -1.445778125543369E-1
 6.501066855800000E9    -4.316529616598715E-1   -3.006826639089925E-1   -1.496440560276217E-2    3.255828482545982E-2   -1.320925007149871E-2    3.257839796824125E-2   -4.916232202350359E-1   -1.433131440040919E-1
 6.501079611600000E9    -4.323140045678041E-1   -2.998238254457957E-1   -1.506974353997730E-2    3.263828541418695E-2   -1.326460519362322E-2    3.286435229705035E-2   -4.919791073243126E-1   -1.421806851581183E-1
 6.501092367400000E9    -4.329459269112396E-1   -2.989212421699471E-1   -1.508089977636241E-2    3.297109722190459E-2   -1.319004597978958E-2    3.302513280721676E-2   -4.923204851667370E-1   -1.407728915276867E-1
 6.501105123200000E9    -4.335000370878916E-1   -2.980411562128205E-1   -1.502253301045598E-2    3.320766036252073E-2   -1.323504633273771E-2    3.319577623484282E-2   -4.926313429021046E-1   -1.395864861207747E-1
 6.501117879000000E9    -4.340938799153453E-1   -2.970596334325016E-1   -1.493177540130970E-2    3.337042248727923E-2   -1.326137061208358E-2    3.336345067014933E-2   -4.929168712125896E-1   -1.383512777983512E-1
 6.501130634800000E9    -4.346626040634369E-1   -2.962806474440416E-1   -1.501231511559865E-2    3.359021054494675E-2   -1.326982441968123E-2    3.366316593655682E-2   -4.931408611350686E-1   -1.370767993258656E-1
 6.501143390600000E9    -4.351985671032148E-1   -2.952179568283915E-1   -1.507558739056441E-2    3.369804081809880E-2   -1.322669242450524E-2    3.379428527433701E-2   -4.933731221780361E-1   -1.358493145134255E-1
 6.501156146400000E9    -4.359216363337372E-1   -2.944290415600093E-1   -1.504617423087503E-2    3.400128868217842E-2   -1.316000712385570E-2    3.398433204554190E-2   -4.935526198665827E-1   -1.344698433264157E-1
 6.501168902200000E9    -4.364064403422518E-1   -2.934578028006382E-1   -1.496954162649286E-2    3.423880646462356E-2   -1.320174025981189E-2    3.425203756253746E-2   -4.940003158352106E-1   -1.332512315066474E-1
 6.501181658000000E9    -4.369806550374210E-1   -2.926316473575207E-1   -1.515081403273282E-2    3.424143950495762E-2   -1.321388695611077E-2    3.444615226511154E-2   -4.940973799266817E-1   -1.319289339873540E-1
 6.501194413800000E9    -4.375349198485720E-1   -2.916255807599878E-1   -1.502523634875641E-2    3.476745997260195E-2   -1.314031138358702E-2    3.462119661430928E-2   -4.943254915839737E-1   -1.307697287972899E-1
 6.501207169600000E9    -4.380612776791123E-1   -2.907913849727095E-1   -1.491769047182899E-2    3.498138980680630E-2   -1.312795359255834E-2    3.491217977858255E-2   -4.947261042301083E-1   -1.294853160603944E-1
 6.501219925400000E9    -4.386055615904177E-1   -2.898552951838637E-1   -1.495935449517820E-2    3.508062075661637E-2   -1.311353767636245E-2    3.516829853565758E-2   -4.949236123260182E-1   -1.281492022586118E-1
 6.501232681200000E9    -4.392275403722782E-1   -2.888947694066044E-1   -1.496814238308009E-2    3.543881719516140E-2   -1.308632139780190E-2    3.538058539967295E-2   -4.952108076498991E-1   -1.267462486605031E-1
 6.501245437000000E9    -4.397618741056262E-1   -2.880722392833587E-1   -1.511982327663816E-2    3.554269728562455E-2   -1.305608157285197E-2    3.559430230013649E-2   -4.952713511141240E-1   -1.255286611247786E-1
 6.501258192800000E9    -4.404480921527648E-1   -2.871572083152658E-1   -1.499481791052719E-2    3.597396450445462E-2   -1.307059279038252E-2    3.587186928688860E-2   -4.955816479832854E-1   -1.242650223523018E-1
 6.501270948600000E9    -4.409494698337199E-1   -2.863554579862008E-1   -1.507129733995406E-2    3.608299994968457E-2   -1.317431754745032E-2    3.607153506673605E-2   -4.959700800529562E-1   -1.228924441923619E-1
 6.501283704400000E9    -4.414265577395127E-1   -2.852764060884542E-1   -1.497159521610108E-2    3.639843169219541E-2   -1.314344265685571E-2    3.630998705901747E-2   -4.959960270669940E-1   -1.217256768883907E-1
 6.501296460200000E9    -4.421612843872334E-1   -2.843101156418095E-1   -1.489252309890995E-2    3.666345499813733E-2   -1.309216539155595E-2    3.651301118840689E-2   -4.961998232706137E-1   -1.201899089702177E-1
 6.501309216000000E9    -4.425785521854513E-1   -2.833003442203144E-1   -1.490312754068106E-2    3.679069817806435E-2   -1.304407044244128E-2    3.669814563290837E-2   -4.965382735777915E-1   -1.189917843512225E-1
 6.501321971800000E9    -4.431733921351002E-1   -2.824917774983660E-1   -1.497990733339786E-2    3.718590071448650E-2   -1.298556227046976E-2    3.703803542277777E-2   -4.966962806592506E-1   -1.176374795680161E-1
 6.501334727600000E9    -4.437673074550048E-1   -2.816131421629991E-1   -1.508606357571503E-2    3.752184610128275E-2   -1.296222428758244E-2    3.734120153668161E-2   -4.968716527195758E-1   -1.163288563035603E-1
 6.501347483400000E9    -4.442911612830975E-1   -2.806921315319410E-1   -1.491387837553262E-2    3.772381575780180E-2   -1.297446158359172E-2    3.764793500372927E-2   -4.971391242686033E-1   -1.148623383756598E-1
 6.501360239200000E9    -4.448609282300978E-1   -2.795965886585903E-1   -1.492024611927673E-2    3.792117590042951E-2   -1.293253349777237E-2    3.784069868716174E-2   -4.974135371984852E-1   -1.136595325885815E-1
 6.501372995000000E9    -4.452889699601039E-1   -2.786962872599175E-1   -1.489586735857071E-2    3.824445872934158E-2   -1.292440304371051E-2    3.813265193583243E-2   -4.975876703504424E-1   -1.123351194226281E-1
 6.501385750800000E9    -4.459116936644149E-1   -2.778222562855718E-1   -1.501229132771487E-2    3.849768993018299E-2   -1.287739607633896E-2    3.831074149964421E-2   -4.977395002758167E-1   -1.108921092912487E-1
 6.501398506600000E9    -4.464591310965398E-1   -2.768090647655229E-1   -1.490621354975606E-2    3.886894224571374E-2   -1.289773137909117E-2    3.865512044157506E-2   -4.981137206962079E-1   -1.096550679540813E-1
 6.501411262400000E9    -4.470207925068640E-1   -2.758962024018739E-1   -1.498196212294283E-2    3.902115219648243E-2   -1.286042054235842E-2    3.896169919400110E-2   -4.982355089286724E-1   -1.080263665227062E-1
 6.501424018200000E9    -4.475606626345106E-1   -2.749325033959810E-1   -1.474517573437095E-2    3.932410594481967E-2   -1.282401702636680E-2    3.914674968341373E-2   -4.982604249510178E-1   -1.067272913059928E-1
 6.501436774000000E9    -4.481996912251582E-1   -2.740273212150840E-1   -1.494276859907896E-2    3.957647338261477E-2   -1.284233099609765E-2    3.949318540289933E-2   -4.984913909834070E-1   -1.052950260510221E-1
 6.501449529800000E9    -4.486335906277185E-1   -2.729788368020832E-1   -1.486977004406805E-2    3.978683294538749E-2   -1.283850894751813E-2    3.968739998308979E-2   -4.987788197427365E-1   -1.040416672992412E-1
 6.501462285600000E9    -4.491476554814136E-1   -2.720504189758552E-1   -1.491629906659289E-2    4.024063887889203E-2   -1.278556334279578E-2    4.004857819156627E-2   -4.989277688474392E-1   -1.025184445277108E-1
 6.501475041400000E9    -4.496555221797792E-1   -2.710977434815387E-1   -1.483237063762085E-2    4.054016768158016E-2   -1.279310469033423E-2    4.034479014003127E-2   -4.991615941515983E-1   -1.010683146936026E-1
 6.501487797200000E9    -4.502408362709706E-1   -2.700945250671949E-1   -1.484575978238645E-2    4.082674243403493E-2   -1.273179564808247E-2    4.065081679694915E-2   -4.992465394458375E-1   -9.972648343667426E-2
 6.501500553000000E9    -4.507390964945683E-1   -2.690872168912765E-1   -1.483052532057377E-2    4.097833743165037E-2   -1.273064981182967E-2    4.085598802784437E-2   -4.994655339973386E-1   -9.834300570353763E-2
 6.501513308800000E9    -4.512472307242816E-1   -2.681490173615032E-1   -1.478167708605907E-2    4.145387602593378E-2   -1.264195922471282E-2    4.118682659016092E-2   -4.995382383984318E-1   -9.698438854054964E-2
 6.501526064600000E9    -4.518136037252873E-1   -2.672307682237365E-1   -1.472212291921734E-2    4.168474721406407E-2   -1.260747970450284E-2    4.150719146951879E-2   -4.997171443667650E-1   -9.531271239605464E-2
 6.501538820400000E9    -4.523915974447382E-1   -2.662748348518309E-1   -1.477112615858417E-2    4.211561105420944E-2   -1.249592375855327E-2    4.188291191211622E-2   -4.999345563228521E-1   -9.405278614312436E-2
 6.501551576200000E9    -4.529981971403584E-1   -2.653097440827488E-1   -1.463478383604989E-2    4.234925661815658E-2   -1.254959506521447E-2    4.226651677492161E-2   -5.000425747654121E-1   -9.258251467140009E-2
 6.501564332000000E9    -4.534223923444944E-1   -2.643626063933411E-1   -1.465634550009510E-2    4.269086148507362E-2   -1.259581357669639E-2    4.244546689207213E-2   -5.000460622145756E-1   -9.123061606365580E-2
 6.501577087800000E9    -4.540015327925721E-1   -2.632277695597622E-1   -1.481434119086025E-2    4.300520127259528E-2   -1.261808222896152E-2    4.278016707384902E-2   -5.004399871522027E-1   -8.965795835558170E-2
 6.501589843600000E9    -4.544284648934028E-1   -2.622416122871415E-1   -1.471140763969354E-2    4.341545970358730E-2   -1.259077535593246E-2    4.312786054115896E-2   -5.003857121584628E-1   -8.814182328211349E-2
 6.501602599400000E9    -4.549623161887944E-1   -2.612591875584814E-1   -1.474476690149965E-2    4.364612661731523E-2   -1.250795420099266E-2    4.342013488357204E-2   -5.006206347057849E-1   -8.677619071818010E-2
 6.501615355200000E9    -4.554506471411789E-1   -2.602523798385673E-1   -1.470188278482246E-2    4.399568769041916E-2   -1.242020672938886E-2    4.370137157040972E-2   -5.005988013151798E-1   -8.533540359172999E-2
 6.501628111000000E9    -4.560413287056815E-1   -2.593243602603319E-1   -1.465848226204960E-2    4.423799691907934E-2   -1.244583730542458E-2    4.409297498153011E-2   -5.008749619039183E-1   -8.376680525721025E-2
 6.501640866800000E9    -4.564403824931519E-1   -2.583282290183636E-1   -1.465886472696433E-2    4.482865586772767E-2   -1.234388743273454E-2    4.448905984548936E-2   -5.009405911957190E-1   -8.232263778939179E-2
 6.501653622600000E9    -4.570236891947363E-1   -2.572454249038376E-1   -1.463140614361820E-2    4.511420769040107E-2   -1.236685194228936E-2    4.471865753622772E-2   -5.010714227802736E-1   -8.072938355756147E-2
 6.501666378400000E9    -4.575498097360814E-1   -2.561840266016744E-1   -1.456348947280858E-2    4.548549446552488E-2   -1.233890029828284E-2    4.513282024944155E-2   -5.012442658530986E-1   -7.924269323523561E-2
 6.501679134200000E9    -4.580275199562779E-1   -2.551626063986915E-1   -1.454325626156854E-2    4.576255843224911E-2   -1.227666467433019E-2    4.549601796781353E-2   -5.012509338289980E-1   -7.782328835529503E-2
 6.501691890000000E9    -4.585046597144277E-1   -2.542520720724297E-1   -1.455662056348388E-2    4.614778196372592E-2   -1.216487225589393E-2    4.590019748492134E-2   -5.013874080202246E-1   -7.626362617492390E-2
 6.501704645800000E9    -4.589759297541415E-1   -2.532382935451555E-1   -1.442117075561826E-2    4.664518987130491E-2   -1.219743646050305E-2    4.611723258463502E-2   -5.015441661716472E-1   -7.480325040933149E-2
 6.501717401600000E9    -4.595168472097298E-1   -2.521953237444290E-1   -1.436709794951870E-2    4.677836747337579E-2   -1.215488176028871E-2    4.646293752991589E-2   -5.015837980064070E-1   -7.326701071292228E-2
 6.501730157400000E9    -4.600360483685594E-1   -2.511466634647679E-1   -1.440782101075154E-2    4.726270668959092E-2   -1.203139549016681E-2    4.691774648313758E-2   -5.016290436194172E-1   -7.149587815116605E-2
 6.501742913200000E9    -4.606641531193744E-1   -2.500739758708284E-1   -1.442544887704047E-2    4.776390812794838E-2   -1.195527973430973E-2    4.727698556490823E-2   -5.016875248878969E-1   -6.994909525556860E-2
 6.501755669000000E9    -4.611146004681187E-1   -2.490063824918450E-1   -1.427405818419189E-2    4.815413510834071E-2   -1.193669039026477E-2    4.768919835918020E-2   -5.017717236676972E-1   -6.834547921366650E-2
 6.501768424800000E9    -4.615460730789351E-1   -2.480574826581362E-1   -1.431367174886333E-2    4.846769941634677E-2   -1.185723815845076E-2    4.811519369611714E-2   -5.018138016175783E-1   -6.696100246985968E-2
 6.501781180600000E9    -4.619936783396660E-1   -2.469276565729590E-1   -1.423664982387153E-2    4.889404694156145E-2   -1.187546344402027E-2    4.847896885474594E-2   -5.019433735175212E-1   -6.528512649976266E-2
 6.501793936400000E9    -4.625443830485233E-1   -2.459719551825328E-1   -1.426664441923520E-2    4.930300165627505E-2   -1.175140330108322E-2    4.889574325078888E-2   -5.018481228284689E-1   -6.355534637601937E-2
 6.501806692200000E9    -4.629437038249573E-1   -2.448562486198992E-1   -1.413838085167146E-2    4.973492917366796E-2   -1.171890347754496E-2    4.927262125339132E-2   -5.019191114699671E-1   -6.185223694856709E-2
 6.501819448000000E9    -4.635102616989769E-1   -2.437589123414196E-1   -1.404880001815638E-2    5.024490167604784E-2   -1.157556389502139E-2    4.969718477486474E-2   -5.020527906882966E-1   -6.027649385448024E-2
 6.501832203800000E9    -4.639454211768238E-1   -2.427455665454040E-1   -1.397763476535451E-2    5.061665625809308E-2   -1.163292820841268E-2    5.021156848372187E-2   -5.021463056438332E-1   -5.874165046083752E-2
 6.501844959600000E9    -4.645104500928855E-1   -2.417081563255110E-1   -1.413617069536060E-2    5.102741344305863E-2   -1.151689928176397E-2    5.062942002383480E-2   -5.021365742934226E-1   -5.714392437088779E-2
 6.501857715400000E9    -4.648625470453433E-1   -2.406547621864183E-1   -1.404955430913060E-2    5.149028069852831E-2   -1.149516316377157E-2    5.100255860539701E-2   -5.021706689491751E-1   -5.528918949342249E-2
 6.501870471200000E9    -4.653773714030572E-1   -2.394623648267377E-1   -1.382092612101080E-2    5.197342269349006E-2   -1.142056351055501E-2    5.136692866399821E-2   -5.020814906344800E-1   -5.373772779878135E-2
 6.501883227000000E9    -4.658867934219905E-1   -2.384419291576066E-1   -1.384681281304315E-2    5.245415095868092E-2   -1.133914341837263E-2    5.177701112874904E-2   -5.020780728939376E-1   -5.203396120842489E-2
 6.501895982800000E9    -4.663079418290259E-1   -2.373288347445960E-1   -1.384700141551455E-2    5.278126215853336E-2   -1.130522598651986E-2    5.227350676068469E-2   -5.020860221019877E-1   -5.036214059867254E-2
 6.501908738600000E9    -4.667965241949696E-1   -2.361713233349234E-1   -1.394436145811038E-2    5.346460239083234E-2   -1.117437985227191E-2    5.284035299203714E-2   -5.021040494861823E-1   -4.859200468958326E-2
 6.501921494400000E9    -4.673171441285396E-1   -2.351137700986503E-1   -1.376355172191401E-2    5.382768655011466E-2   -1.102953674381124E-2    5.317479777417630E-2   -5.021066103608207E-1   -4.688058967871873E-2
 6.501934250200000E9    -4.677221353723643E-1   -2.340193247197427E-1   -1.356430385015444E-2    5.433403129149839E-2   -1.102334687931670E-2    5.371223675763510E-2   -5.020716357668051E-1   -4.515634884241809E-2
 6.501947006000000E9    -4.683010465299698E-1   -2.329240778006672E-1   -1.358753924520713E-2    5.483770887352477E-2   -1.096628657550702E-2    5.423045207223717E-2   -5.020920007051857E-1   -4.343321866387050E-2
 6.501959761800000E9    -4.686940910506490E-1   -2.318882046520309E-1   -1.358497918177029E-2    5.542542723302762E-2   -1.087368146398667E-2    5.465230216679356E-2   -5.020681568128674E-1   -4.164303557854625E-2
 6.501972517600000E9    -4.691595442488922E-1   -2.307028494445068E-1   -1.337441714713883E-2    5.586744353467270E-2   -1.067852395788123E-2    5.522762185734990E-2   -5.019404120917537E-1   -3.989519068951433E-2
 6.501985273400000E9    -4.696387100478234E-1   -2.296539680346159E-1   -1.343223617967838E-2    5.639675057449113E-2   -1.068066508141619E-2    5.561321009925895E-2   -5.019005582619566E-1   -3.821449159722175E-2
 6.501998029200000E9    -4.700814216698159E-1   -2.285646888303571E-1   -1.352910379304464E-2    5.695888167365223E-2   -1.058894666099643E-2    5.625407227858690E-2   -5.018467453937108E-1   -3.624921102380715E-2
 6.502010785000000E9    -4.705298732521787E-1   -2.273934901081189E-1   -1.316426155963379E-2    5.744164842530055E-2   -1.057510236428691E-2    5.671544814335759E-2   -5.016305737479041E-1   -3.450428137802831E-2
