#  HZ   S   RI   R     50.00 
! Rohde & Schwarz Vector Network Analyzer 
! Rohde-Schwarz,ZNB20-2Port,1311601062101988,3.16
! Created: UTC 3/20/2024, 11:54:50 AM
! freq[Hz]                re:S11                  im:S11                  re:S21                  im:S21                  re:S12                  im:S12                  re:S22                  im:S22
 6.500860556000000E9    -4.220495004792675E-1   -3.147440212181492E-1   -1.501180249688557E-2    2.934132459632796E-2   -1.345435011757275E-2    2.956157233248959E-2   -4.869178504784468E-1   -1.628321400055923E-1
 6.500873324725000E9    -4.227118185522197E-1   -3.139104689028522E-1   -1.494917028685999E-2    2.966257020163604E-2   -1.327511816032700E-2    2.966798302349615E-2   -4.871904590555178E-1   -1.616445717777001E-1
 6.500886093450000E9    -4.232774582277757E-1   -3.131369855128693E-1   -1.497493791660008E-2    2.975164200957868E-2   -1.326805259161505E-2    2.988089055834548E-2   -4.876101166801933E-1   -1.604429416974163E-1
 6.500898862175000E9    -4.238923319187629E-1   -3.123288951072248E-1   -1.508351894771629E-2    2.996703438274341E-2   -1.331074854500192E-2    3.012790586193896E-2   -4.878468424989745E-1   -1.592977521576547E-1
 6.500911630900000E9    -4.246160734764531E-1   -3.113114588992462E-1   -1.498229257927746E-2    3.011331979371017E-2   -1.325116059518971E-2    3.020135692995449E-2   -4.881786614121160E-1   -1.582689662197117E-1
 6.500924399625000E9    -4.251223608964380E-1   -3.105639441414562E-1   -1.495224662829828E-2    3.030771765436730E-2   -1.333272770380475E-2    3.039903197105412E-2   -4.884437078544723E-1   -1.569161877093685E-1
 6.500937168350000E9    -4.257334430464180E-1   -3.097299170400161E-1   -1.499682893415056E-2    3.056972774861445E-2   -1.322269356547832E-2    3.061730273817960E-2   -4.886864107759383E-1   -1.556989770889499E-1
 6.500949937075000E9    -4.264114108774570E-1   -3.087774199785989E-1   -1.493159811553842E-2    3.068779959228608E-2   -1.325216811198381E-2    3.075568363852703E-2   -4.891554123129998E-1   -1.545712002648371E-1
 6.500962705800000E9    -4.269129461069249E-1   -3.078746239106119E-1   -1.499381233233975E-2    3.100364922686005E-2   -1.322414757100484E-2    3.095025164748701E-2   -4.894347095411598E-1   -1.532598846138172E-1
 6.500975474525000E9    -4.274716156022552E-1   -3.069495321624854E-1   -1.496799684092021E-2    3.115731182494401E-2   -1.331948078251122E-2    3.118933968810366E-2   -4.897291870151613E-1   -1.521621107923130E-1
 6.500988243250000E9    -4.280983520468986E-1   -3.061920014980249E-1   -1.501312208157533E-2    3.111669975871077E-2   -1.329857996748074E-2    3.137701913606504E-2   -4.899784067027358E-1   -1.509975790285960E-1
 6.501001011975000E9    -4.287223742280657E-1   -3.052523906370367E-1   -1.499727924394389E-2    3.140021883310594E-2   -1.321333027875302E-2    3.148364941325059E-2   -4.901210260063295E-1   -1.496580644993029E-1
 6.501013780700000E9    -4.293275088168176E-1   -3.042895936046958E-1   -1.509567510428649E-2    3.156153313092235E-2   -1.329812584096185E-2    3.170766581769430E-2   -4.906305958654355E-1   -1.484648792124704E-1
 6.501026549425000E9    -4.298818309651149E-1   -3.035073833866290E-1   -1.505409381467236E-2    3.187214100321203E-2   -1.332827792628887E-2    3.194355511324911E-2   -4.909715847921545E-1   -1.472751783743531E-1
 6.501039318150000E9    -4.304598456538842E-1   -3.026647473171344E-1   -1.498186147076809E-2    3.204410202292706E-2   -1.323855530591049E-2    3.201784311149655E-2   -4.911737778632936E-1   -1.458848190551089E-1
 6.501052086875000E9    -4.312171320995226E-1   -3.018549781381121E-1   -1.490044668720101E-2    3.232797228796083E-2   -1.326487920640648E-2    3.228614642163664E-2   -4.913620904668737E-1   -1.446862563847686E-1
 6.501064855600000E9    -4.317714000790983E-1   -3.008634087129305E-1   -1.499892210576475E-2    3.254861232378368E-2   -1.326393072439245E-2    3.253405252303429E-2   -4.916743614054222E-1   -1.435277575893995E-1
 6.501077624325000E9    -4.322401401997148E-1   -2.999380847703877E-1   -1.507963703654864E-2    3.253686587506983E-2   -1.324697444701081E-2    3.271011389067069E-2   -4.919881364008495E-1   -1.422065707303952E-1
 6.501090393050000E9    -4.327935980994649E-1   -2.989627456997394E-1   -1.490007634910631E-2    3.282441957570732E-2   -1.325805526714748E-2    3.294665657344819E-2   -4.923035003498715E-1   -1.409813248463828E-1
 6.501103161775000E9    -4.333392674610678E-1   -2.980329915274254E-1   -1.505795232235480E-2    3.306704437223337E-2   -1.324604609071244E-2    3.314966510176942E-2   -4.925614078619679E-1   -1.398821293406553E-1
 6.501115930500000E9    -4.339868428536229E-1   -2.972571835998966E-1   -1.499968927914474E-2    3.331659013436516E-2   -1.318271420750974E-2    3.339510139678447E-2   -4.929275201181363E-1   -1.385308468126878E-1
 6.501128699225000E9    -4.346186514076017E-1   -2.963997249903266E-1   -1.519039909356378E-2    3.352500669571198E-2   -1.311556944272265E-2    3.356336987153880E-2   -4.928962873165670E-1   -1.371936359711153E-1
 6.501141467950000E9    -4.352453359153416E-1   -2.954650569110435E-1   -1.499483022229089E-2    3.377546033624851E-2   -1.317548324426974E-2    3.383203267341835E-2   -4.934041426445384E-1   -1.358861930950989E-1
 6.501154236675000E9    -4.356795204138313E-1   -2.946445855989653E-1   -1.506307910719644E-2    3.394908552946622E-2   -1.319194407449520E-2    3.395296621519042E-2   -4.937664606537236E-1   -1.347895744506328E-1
 6.501167005400000E9    -4.363416338724004E-1   -2.936903917474461E-1   -1.496796156495125E-2    3.421156363029543E-2   -1.318584639050074E-2    3.415774655071589E-2   -4.938935975385889E-1   -1.334739277053002E-1
 6.501179774125000E9    -4.369530480359261E-1   -2.927177163567229E-1   -1.501911143966037E-2    3.438381761089573E-2   -1.319657140925269E-2    3.442569494095610E-2   -4.940958351547671E-1   -1.321965248574694E-1
 6.501192542850000E9    -4.375041212495236E-1   -2.918645439293352E-1   -1.498723257075729E-2    3.470844280236721E-2   -1.309737641925189E-2    3.460965691037206E-2   -4.942841239755685E-1   -1.309542924970958E-1
 6.501205311575000E9    -4.380640569835927E-1   -2.909497956088030E-1   -1.498869509667598E-2    3.481680015938243E-2   -1.311244183703184E-2    3.486369678312309E-2   -4.945119570243927E-1   -1.296550065110336E-1
 6.501218080300000E9    -4.386413387542575E-1   -2.901459160050890E-1   -1.505139686535580E-2    3.508341437259981E-2   -1.315522141996323E-2    3.510476192537382E-2   -4.947355641905746E-1   -1.283403091457468E-1
 6.501230849025000E9    -4.393472644500628E-1   -2.891060719598578E-1   -1.505406454300945E-2    3.540714443614146E-2   -1.301896722593999E-2    3.534348243315777E-2   -4.950096558597866E-1   -1.271250999476833E-1
 6.501243617750000E9    -4.396908193315266E-1   -2.883278013698520E-1   -1.503429494662651E-2    3.557868479758898E-2   -1.307249210835463E-2    3.551077626714710E-2   -4.953462389145852E-1   -1.258166675688694E-1
 6.501256386475000E9    -4.403169809163703E-1   -2.873546550907801E-1   -1.492547752209885E-2    3.587070144717090E-2   -1.303377515916086E-2    3.583833595951737E-2   -4.955598033419809E-1   -1.243111485322696E-1
 6.501269155200000E9    -4.408103953772939E-1   -2.863313864714513E-1   -1.496070156895956E-2    3.611550678245918E-2   -1.305421374598027E-2    3.603990355257436E-2   -4.957441867219850E-1   -1.231657659616392E-1
 6.501281923925000E9    -4.413618237496729E-1   -2.853765894129376E-1   -1.511415608761627E-2    3.642343045968015E-2   -1.302989238005278E-2    3.629400761570742E-2   -4.960507024448474E-1   -1.217663914421786E-1
 6.501294692650000E9    -4.419840576436884E-1   -2.845769085254051E-1   -1.503203390756956E-2    3.664610006249612E-2   -1.304462696780962E-2    3.648633896217741E-2   -4.962583835231585E-1   -1.204718755302150E-1
 6.501307461375000E9    -4.425485708717496E-1   -2.835497524342655E-1   -1.504638555289557E-2    3.684717700730483E-2   -1.299098755305734E-2    3.670745401845619E-2   -4.965454334778509E-1   -1.191675304622695E-1
 6.501320230100000E9    -4.431316926950892E-1   -2.826322334211172E-1   -1.497093028578987E-2    3.722614932165524E-2   -1.303942878803649E-2    3.706908137654129E-2   -4.967345360523517E-1   -1.178557149776216E-1
 6.501332998825000E9    -4.436702054533845E-1   -2.817218957718803E-1   -1.502579229824350E-2    3.732723606104069E-2   -1.312361073316174E-2    3.738392681399631E-2   -4.968692700278915E-1   -1.164829607644877E-1
 6.501345767550000E9    -4.442124666122843E-1   -2.808373071736379E-1   -1.496730887209648E-2    3.763725027172973E-2   -1.294048681147317E-2    3.754895135427882E-2   -4.970797355317762E-1   -1.151284880564173E-1
 6.501358536275000E9    -4.447318423256136E-1   -2.797651941802276E-1   -1.506163291337834E-2    3.787513673077956E-2   -1.293832712098771E-2    3.780889125137787E-2   -4.973914887018691E-1   -1.137315789471096E-1
 6.501371305000000E9    -4.452858276467071E-1   -2.788209770073192E-1   -1.491796416548670E-2    3.823774178740827E-2   -1.294650616805073E-2    3.808192433682629E-2   -4.974372378043617E-1   -1.124456306890027E-1
 6.501384073725000E9    -4.458440639014904E-1   -2.779115939219287E-1   -1.484311954500488E-2    3.847090861459489E-2   -1.284019621311577E-2    3.835615129396240E-2   -4.978141787745458E-1   -1.111055186309739E-1
 6.501396842450000E9    -4.464094934554673E-1   -2.769802961175588E-1   -1.491915220379877E-2    3.863790495340897E-2   -1.291359280850263E-2    3.861152996564710E-2   -4.979040310018129E-1   -1.096080363178824E-1
 6.501409611175000E9    -4.469340959516036E-1   -2.760011696800371E-1   -1.495618401750391E-2    3.897389362282085E-2   -1.285448818556522E-2    3.887169982134551E-2   -4.981098868551857E-1   -1.082814137342574E-1
 6.501422379900000E9    -4.476114888212605E-1   -2.749977262299390E-1   -1.498900710332895E-2    3.919464937244806E-2   -1.280477353358282E-2    3.907764431302461E-2   -4.983560021142226E-1   -1.070279940668952E-1
 6.501435148625000E9    -4.481405260498059E-1   -2.741454338561827E-1   -1.496662498947595E-2    3.947129394860294E-2   -1.281895084498138E-2    3.935878779832554E-2   -4.984883940513240E-1   -1.055093017686814E-1
 6.501447917350000E9    -4.485855732971907E-1   -2.732195809653666E-1   -1.493639217711174E-2    3.974477158060293E-2   -1.279563834886983E-2    3.972556035192965E-2   -4.987876469626808E-1   -1.042138671370837E-1
 6.501460686075000E9    -4.490610502208102E-1   -2.721735651565854E-1   -1.497719185841931E-2    4.016466888480194E-2   -1.280239523135292E-2    4.001128995540561E-2   -4.990086591184010E-1   -1.028362117051183E-1
 6.501473454800000E9    -4.496171331062074E-1   -2.713245333695520E-1   -1.487185863054296E-2    4.037497607281428E-2   -1.271461097152647E-2    4.025527995668738E-2   -4.992037605267359E-1   -1.013872441388902E-1
 6.501486223525000E9    -4.501384579217694E-1   -2.702646288847331E-1   -1.488745965137346E-2    4.069558747353322E-2   -1.273675273101338E-2    4.055677851979850E-2   -4.990366969716764E-1   -9.996492584228160E-2
 6.501498992250000E9    -4.507583135129922E-1   -2.692361956152270E-1   -1.479800524676396E-2    4.100931006482530E-2   -1.281518561205259E-2    4.087489097642685E-2   -4.995380685508851E-1   -9.857076947679359E-2
 6.501511760975000E9    -4.511651962408263E-1   -2.684157566927415E-1   -1.482896715104158E-2    4.138229074830225E-2   -1.265361839237165E-2    4.107457141282030E-2   -4.996708525732136E-1   -9.713222966153287E-2
 6.501524529700000E9    -4.517193523291614E-1   -2.673703108005459E-1   -1.469693297863417E-2    4.152643304226235E-2   -1.267113537008580E-2    4.146790414208128E-2   -4.997685154891264E-1   -9.572476043925165E-2
 6.501537298425000E9    -4.523261780703537E-1   -2.663735836701766E-1   -1.483244160192998E-2    4.199787707679094E-2   -1.264077314406880E-2    4.178456431675981E-2   -4.999279662924597E-1   -9.419560134657363E-2
 6.501550067150000E9    -4.528256786203133E-1   -2.654036596985220E-1   -1.481599458441366E-2    4.224437276408528E-2   -1.257486966773044E-2    4.206863626765690E-2   -4.999527096742388E-1   -9.283703380799757E-2
 6.501562835875000E9    -4.533329929514811E-1   -2.644211979986263E-1   -1.465979653984094E-2    4.253480187216145E-2   -1.252651094093810E-2    4.244619644613890E-2   -5.000518209082041E-1   -9.139538305833916E-2
 6.501575604600000E9    -4.538848432975953E-1   -2.633686516240431E-1   -1.470176052578933E-2    4.291491298444639E-2   -1.250433804202119E-2    4.268592699249757E-2   -5.003910556286131E-1   -8.992912429205430E-2
 6.501588373325000E9    -4.544390908594764E-1   -2.623273013830345E-1   -1.465111157435708E-2    4.321821846252421E-2   -1.245196984277674E-2    4.307585454588098E-2   -5.004893158681603E-1   -8.838177559465248E-2
 6.501601142050000E9    -4.549716299632304E-1   -2.613694333324249E-1   -1.479116142374907E-2    4.371020108847794E-2   -1.248676156726141E-2    4.338676852338137E-2   -5.005568725059086E-1   -8.704527294669337E-2
 6.501613910775000E9    -4.554423518502519E-1   -2.603612813042502E-1   -1.466019709297615E-2    4.403335949043920E-2   -1.248192741025012E-2    4.368587496241054E-2   -5.007269876612079E-1   -8.551197310756957E-2
 6.501626679500000E9    -4.559699767166838E-1   -2.594819805471481E-1   -1.463934531858315E-2    4.436173444639042E-2   -1.241849937634134E-2    4.404293228442119E-2   -5.008341305971152E-1   -8.406165199440793E-2
 6.501639448225000E9    -4.564995878331206E-1   -2.583426337424201E-1   -1.466593523212759E-2    4.475205342663401E-2   -1.234264098596937E-2    4.429657810166281E-2   -5.009007399504185E-1   -8.250784146146550E-2
 6.501652216950000E9    -4.569480533879872E-1   -2.573081160701278E-1   -1.454552530241973E-2    4.494770976131535E-2   -1.232617229696112E-2    4.472297154354390E-2   -5.011455066530732E-1   -8.090346730047238E-2
 6.501664985675000E9    -4.574256359909185E-1   -2.562433701256428E-1   -1.448043546130089E-2    4.538973673048172E-2   -1.224239362352399E-2    4.507715334654766E-2   -5.011521927848522E-1   -7.950236124424985E-2
 6.501677754400000E9    -4.580425333874509E-1   -2.553785648744139E-1   -1.461216853198625E-2    4.582941752181569E-2   -1.220395071582148E-2    4.537531993278775E-2   -5.014104421510399E-1   -7.788995421552319E-2
 6.501690523125000E9    -4.585283131586002E-1   -2.543397795827474E-1   -1.466613722657264E-2    4.622542143071009E-2   -1.223843235782817E-2    4.580225016880386E-2   -5.012735972144433E-1   -7.650644038074501E-2
 6.501703291850000E9    -4.588674154883183E-1   -2.532440016090823E-1   -1.449823807268151E-2    4.640899073720135E-2   -1.203865024527747E-2    4.619630262940790E-2   -5.014228565216587E-1   -7.482117342841656E-2
 6.501716060575000E9    -4.594584027588711E-1   -2.522414977573523E-1   -1.438192030045264E-2    4.687527380124078E-2   -1.209926532782818E-2    4.649747661835496E-2   -5.014274890549120E-1   -7.337991009790036E-2
 6.501728829300000E9    -4.599700618134032E-1   -2.513013491900978E-1   -1.454437967519870E-2    4.731801432888814E-2   -1.209411040964311E-2    4.695301038401076E-2   -5.016738670983383E-1   -7.185302668752047E-2
 6.501741598025000E9    -4.605385509350979E-1   -2.503271765702937E-1   -1.429163091887647E-2    4.767878250955546E-2   -1.202197899098637E-2    4.718918997852888E-2   -5.016151808984715E-1   -7.018716515867184E-2
 6.501754366750000E9    -4.610029070887561E-1   -2.492141396435837E-1   -1.435014678939040E-2    4.793338238227828E-2   -1.194333632645641E-2    4.771522180563471E-2   -5.018503049541913E-1   -6.877689027689440E-2
 6.501767135475000E9    -4.614192012003479E-1   -2.480527292150041E-1   -1.424539937558731E-2    4.841808226746287E-2   -1.193250312389000E-2    4.800032339636261E-2   -5.019551565481265E-1   -6.702534954830708E-2
 6.501779904200000E9    -4.619749410968041E-1   -2.470885775031950E-1   -1.425565803475959E-2    4.889376339792866E-2   -1.189408242736366E-2    4.845843586741991E-2   -5.020475537596506E-1   -6.551427085524809E-2
 6.501792672925000E9    -4.624440338111052E-1   -2.459864132705185E-1   -1.421202696010222E-2    4.916134927496806E-2   -1.172711110686679E-2    4.889979449973950E-2   -5.019175883063056E-1   -6.384196393073630E-2
 6.501805441650000E9    -4.630557092697467E-1   -2.450309810464101E-1   -1.413030488320865E-2    4.968732750194352E-2   -1.172177588462380E-2    4.927049026839900E-2   -5.021088367320837E-1   -6.212147254175004E-2
 6.501818210375000E9    -4.634722808336934E-1   -2.439493184466195E-1   -1.410159960824939E-2    5.005998838983273E-2   -1.167884370032540E-2    4.962581251585775E-2   -5.019781505605642E-1   -6.052962805682542E-2
 6.501830979100000E9    -4.639216182625222E-1   -2.429372101337084E-1   -1.403453768619093E-2    5.048341209274367E-2   -1.166092561319154E-2    5.001581347464211E-2   -5.021338818013683E-1   -5.893127469209145E-2
 6.501843747825000E9    -4.644847575309597E-1   -2.417266340828081E-1   -1.407563791413671E-2    5.096448576519173E-2   -1.160960437832773E-2    5.042772706742162E-2   -5.020749407875045E-1   -5.736211254828402E-2
 6.501856516550000E9    -4.648687995655758E-1   -2.407657193101403E-1   -1.413661888839818E-2    5.142803263792014E-2   -1.147528181565823E-2    5.104690920647258E-2   -5.022451822408646E-1   -5.561464760786957E-2
 6.501869285275000E9    -4.653352602495906E-1   -2.396567545073481E-1   -1.387605319049371E-2    5.195592533412977E-2   -1.142051320511637E-2    5.133842085361263E-2   -5.020275399001732E-1   -5.399430793861837E-2
 6.501882054000000E9    -4.657618049788050E-1   -2.384883373364169E-1   -1.378022028220677E-2    5.235222224729495E-2   -1.133164284784206E-2    5.190538264113718E-2   -5.021515011174075E-1   -5.223469672165769E-2
 6.501894822725000E9    -4.664035449871082E-1   -2.375221584071475E-1   -1.389087696473179E-2    5.288069169082197E-2   -1.128637167329144E-2    5.224645067257260E-2   -5.021908161738183E-1   -5.049327230849193E-2
 6.501907591450000E9    -4.668311532343330E-1   -2.364068732536765E-1   -1.382788957815502E-2    5.342743286055616E-2   -1.120950823208535E-2    5.274081824132195E-2   -5.020495047865899E-1   -4.878942752129001E-2
 6.501920360175000E9    -4.672810694800045E-1   -2.352465457468931E-1   -1.382560793346555E-2    5.372839392834907E-2   -1.116956101980417E-2    5.320148477920881E-2   -5.021121948610759E-1   -4.711120770702802E-2
 6.501933128900000E9    -4.677269455378356E-1   -2.341974024267697E-1   -1.368521101998518E-2    5.431585746475089E-2   -1.095785490723169E-2    5.370864744463760E-2   -5.019899641311447E-1   -4.539915636120642E-2
 6.501945897625000E9    -4.681443450020956E-1   -2.331020567364622E-1   -1.357132649568822E-2    5.481420653895305E-2   -1.088782135894583E-2    5.404256898399574E-2   -5.021566732970673E-1   -4.361543144328152E-2
 6.501958666350000E9    -4.686774716289432E-1   -2.319141771703970E-1   -1.361142041890288E-2    5.530476413696622E-2   -1.090156784358198E-2    5.461410007391055E-2   -5.019753637519774E-1   -4.175577346283735E-2
 6.501971435075000E9    -4.691125712693582E-1   -2.307684089439973E-1   -1.354074288027863E-2    5.589536209241165E-2   -1.074426031685720E-2    5.511708131385194E-2   -5.020178070248591E-1   -4.008558620288734E-2
 6.501984203800000E9    -4.693774787904153E-1   -2.296609743233086E-1   -1.347878999572983E-2    5.627306219388026E-2   -1.074425646621541E-2    5.557345394307311E-2   -5.019545909102018E-1   -3.826739847841498E-2
 6.501996972525000E9    -4.699275960474247E-1   -2.286489352842585E-1   -1.332081252932563E-2    5.678151044192412E-2   -1.066137553367119E-2    5.618491314569436E-2   -5.017079986466246E-1   -3.633603177997689E-2
 6.502009741250000E9    -4.706310142414358E-1   -2.275165982068638E-1   -1.316741353488349E-2    5.747368341046689E-2   -1.044870738441755E-2    5.665775724703672E-2   -5.017724115409772E-1   -3.458041157980989E-2
