#  HZ   S   RI   R     50.00 
! Rohde & Schwarz Vector Network Analyzer 
! Rohde-Schwarz,ZNB20-2Port,1311601062101988,3.16
! Created: UTC 3/20/2024, 11:54:58 AM
! freq[Hz]                re:S11                  im:S11                  re:S21                  im:S21                  re:S12                  im:S12                  re:S22                  im:S22
 6.500866603000000E9    -4.225021604285262E-1   -3.143292620202370E-1   -1.494054355101448E-2    2.937996150734602E-2   -1.330167420655812E-2    2.958895668738088E-2   -4.870910489523190E-1   -1.623507376744469E-1
 6.500879348525000E9    -4.230893110147892E-1   -3.133961470307542E-1   -1.498027229195356E-2    2.973893978387047E-2   -1.331940960101958E-2    2.972744293353598E-2   -4.874687350883819E-1   -1.611336193432295E-1
 6.500892094050000E9    -4.236524159631503E-1   -3.125519140605212E-1   -1.497262804684417E-2    2.974911871654791E-2   -1.327001785574144E-2    3.000493343764223E-2   -4.877043533644979E-1   -1.599097825820437E-1
 6.500904839575000E9    -4.243263772088092E-1   -3.116474099321530E-1   -1.505608573887320E-2    2.994340170211159E-2   -1.325208471104258E-2    3.011578945035434E-2   -4.879386400855787E-1   -1.587865757367697E-1
 6.500917585100000E9    -4.249027981390414E-1   -3.107157907031702E-1   -1.508882782142150E-2    3.032716398704907E-2   -1.328860819315431E-2    3.032231411318024E-2   -4.882964323329453E-1   -1.575789029041856E-1
 6.500930330625000E9    -4.255587522092215E-1   -3.099425238729994E-1   -1.501974164538423E-2    3.039767273973579E-2   -1.332525073955495E-2    3.045437698229030E-2   -4.885439474107076E-1   -1.563319135523985E-1
 6.500943076150000E9    -4.261305238687503E-1   -3.090270324152125E-1   -1.501061122852045E-2    3.053045067087574E-2   -1.328106365388351E-2    3.068936917484474E-2   -4.888591848523194E-1   -1.552495051003540E-1
 6.500955821675000E9    -4.266929801606983E-1   -3.081532933858036E-1   -1.501763757332775E-2    3.081968145945059E-2   -1.325790247634785E-2    3.082476009131504E-2   -4.891836979618726E-1   -1.540404284471748E-1
 6.500968567200000E9    -4.272613284811473E-1   -3.073084236492186E-1   -1.510879612331353E-2    3.073489112873598E-2   -1.336138782689406E-2    3.103836913776769E-2   -4.895232932364100E-1   -1.528963821342245E-1
 6.500981312725000E9    -4.279056538742710E-1   -3.064004042921173E-1   -1.485532817846206E-2    3.119220108505290E-2   -1.329831936187140E-2    3.110249603157654E-2   -4.897071010383564E-1   -1.515069398815511E-1
 6.500994058250000E9    -4.283922949295741E-1   -3.056213351618263E-1   -1.510199799663863E-2    3.127271068578936E-2   -1.328382988212250E-2    3.140103140002441E-2   -4.902273209568730E-1   -1.505530006232375E-1
 6.501006803775000E9    -4.290057928282739E-1   -3.045888357076784E-1   -1.508192522321053E-2    3.152257347338391E-2   -1.318535442775838E-2    3.162839405630215E-2   -4.904298371517615E-1   -1.491420248761013E-1
 6.501019549300000E9    -4.296229417337797E-1   -3.038555150085145E-1   -1.482627524242168E-2    3.167453548960742E-2   -1.317011787343392E-2    3.177809743270112E-2   -4.906507345484156E-1   -1.478787436896199E-1
 6.501032294825000E9    -4.302213471963992E-1   -3.029655601444504E-1   -1.504380253769691E-2    3.195721346766896E-2   -1.323226869172603E-2    3.195524293982236E-2   -4.910165856262343E-1   -1.466668261569165E-1
 6.501045040350000E9    -4.308432810398160E-1   -3.018946612181099E-1   -1.500328256786431E-2    3.217275055779854E-2   -1.323686458228337E-2    3.218299246430587E-2   -4.912477179872437E-1   -1.455460853894567E-1
 6.501057785875000E9    -4.315122138447204E-1   -3.011320936458070E-1   -1.503688723735457E-2    3.236494621664759E-2   -1.320945180469480E-2    3.234591101687320E-2   -4.915542330098311E-1   -1.442248283829906E-1
 6.501070531400000E9    -4.320391639964447E-1   -3.002754235483721E-1   -1.511831964465621E-2    3.243827664896663E-2   -1.321018033161908E-2    3.250855852053583E-2   -4.916989402929672E-1   -1.430440178117768E-1
 6.501083276925000E9    -4.326808794645390E-1   -2.994474928494104E-1   -1.501293164291130E-2    3.267488352931022E-2   -1.323483160551915E-2    3.278411274720989E-2   -4.921063194975784E-1   -1.418023592603068E-1
 6.501096022450000E9    -4.332076735857942E-1   -2.984259234513776E-1   -1.510435590530487E-2    3.292531875556615E-2   -1.316779076574554E-2    3.299526400483612E-2   -4.923701090267195E-1   -1.406185015042026E-1
 6.501108767975000E9    -4.337944642992159E-1   -2.976873220807284E-1   -1.504614610497038E-2    3.308489865206304E-2   -1.313947299458676E-2    3.323764342148092E-2   -4.926265584703422E-1   -1.392058606827129E-1
 6.501121513500000E9    -4.342945212462848E-1   -2.967248402772544E-1   -1.496490195993931E-2    3.345334689997236E-2   -1.329852998942874E-2    3.350494439687442E-2   -4.930087546506338E-1   -1.380979783541032E-1
 6.501134259025000E9    -4.349823290371549E-1   -2.958247767807957E-1   -1.503806493154748E-2    3.359764650854263E-2   -1.318116048202423E-2    3.357017854065646E-2   -4.932018809589682E-1   -1.367119805123422E-1
 6.501147004550000E9    -4.355344489322784E-1   -2.949558676262812E-1   -1.501678379981054E-2    3.381081640088787E-2   -1.314184015626118E-2    3.386730159779353E-2   -4.933538793391605E-1   -1.355028985502511E-1
 6.501159750075000E9    -4.360937327059334E-1   -2.941062895432581E-1   -1.510613301568627E-2    3.405709962145809E-2   -1.312895287753089E-2    3.414954206173915E-2   -4.936559301804764E-1   -1.342381371995225E-1
 6.501172495600000E9    -4.364838556252247E-1   -2.931038242880292E-1   -1.502558663145479E-2    3.427107686917594E-2   -1.320782342188103E-2    3.429582441125125E-2   -4.940075247466654E-1   -1.329211540276920E-1
 6.501185241125000E9    -4.373359494246948E-1   -2.922566115359721E-1   -1.489306692623747E-2    3.467216538281055E-2   -1.318072810797148E-2    3.450724974477086E-2   -4.943287512175381E-1   -1.316970376689184E-1
 6.501197986650000E9    -4.377967666131665E-1   -2.913314013265469E-1   -1.501567406786012E-2    3.461533348545116E-2   -1.318960640651018E-2    3.468168819555273E-2   -4.943601598783507E-1   -1.303797198739107E-1
 6.501210732175000E9    -4.383057219409915E-1   -2.904511516566409E-1   -1.515918808709839E-2    3.493603392567144E-2   -1.314090513444171E-2    3.496280466696930E-2   -4.946667645785618E-1   -1.290221133199295E-1
 6.501223477700000E9    -4.388795261744454E-1   -2.895253021523406E-1   -1.508319333329479E-2    3.514289254953668E-2   -1.316983626216507E-2    3.512470973189343E-2   -4.948565728256399E-1   -1.278671529305904E-1
 6.501236223225000E9    -4.394976627041743E-1   -2.885575986203583E-1   -1.502703621744617E-2    3.537972580195609E-2   -1.312945732335537E-2    3.549494453224041E-2   -4.953393030311229E-1   -1.264493071276188E-1
 6.501248968750000E9    -4.400897825993125E-1   -2.876409796517114E-1   -1.503813855739581E-2    3.563248949018002E-2   -1.312066627713614E-2    3.562769177579993E-2   -4.953735127304690E-1   -1.253024729641085E-1
 6.501261714275000E9    -4.406053199733421E-1   -2.867115965583535E-1   -1.500960413435377E-2    3.605015606843714E-2   -1.311390329667261E-2    3.588701016060646E-2   -4.956771798291190E-1   -1.240464672119970E-1
 6.501274459800000E9    -4.411677259945265E-1   -2.858777813973699E-1   -1.505852939124920E-2    3.614569191626110E-2   -1.297074127364538E-2    3.607997945184661E-2   -4.960459414203441E-1   -1.225794842516711E-1
 6.501287205325000E9    -4.417381349103421E-1   -2.849177813166890E-1   -1.501145789819186E-2    3.632806445802201E-2   -1.302710663114670E-2    3.647398572853067E-2   -4.959985023634474E-1   -1.213531701579729E-1
 6.501299950850000E9    -4.422867412669278E-1   -2.840604019368678E-1   -1.502683737663656E-2    3.662445188854848E-2   -1.302995913061496E-2    3.664553075905889E-2   -4.963793577713608E-1   -1.199051627673135E-1
 6.501312696375000E9    -4.428728832815124E-1   -2.831872750146420E-1   -1.495948649107063E-2    3.692252707899976E-2   -1.301042019105431E-2    3.694043223516336E-2   -4.965013765080870E-1   -1.185947382882546E-1
 6.501325441900000E9    -4.433666816940952E-1   -2.820105376235622E-1   -1.487439710351519E-2    3.707504363175217E-2   -1.297454567257541E-2    3.710150344783763E-2   -4.967617142872542E-1   -1.172535884012995E-1
 6.501338187425000E9    -4.439020703561525E-1   -2.812211402394534E-1   -1.494810659749025E-2    3.743020888068764E-2   -1.303130676900929E-2    3.730050484366591E-2   -4.970424956824899E-1   -1.158917621653051E-1
 6.501350932950000E9    -4.444374696940389E-1   -2.801183229267798E-1   -1.505405117174467E-2    3.773994126672502E-2   -1.292228011975279E-2    3.759055991075910E-2   -4.972139863739322E-1   -1.147287041190345E-1
 6.501363678475000E9    -4.450959202559337E-1   -2.793353295590170E-1   -1.507506490417454E-2    3.789598026386153E-2   -1.296798880071998E-2    3.789625095034108E-2   -4.974459320358049E-1   -1.133554017611128E-1
 6.501376424000000E9    -4.456432453075552E-1   -2.782913399402810E-1   -1.500338737313419E-2    3.830320928927784E-2   -1.290973206059136E-2    3.802406458990244E-2   -4.976828329790066E-1   -1.118558343638625E-1
 6.501389169525000E9    -4.461216871895680E-1   -2.773551263439047E-1   -1.500827686781700E-2    3.857446785654058E-2   -1.288170223803553E-2    3.839036621945437E-2   -4.978418908876582E-1   -1.106042333980016E-1
 6.501401915050000E9    -4.467073518856902E-1   -2.764569474021766E-1   -1.488824837653764E-2    3.882313256044590E-2   -1.288422925979668E-2    3.871208684307184E-2   -4.980352791570872E-1   -1.091923758620050E-1
 6.501414660575000E9    -4.472413858273067E-1   -2.755048684943773E-1   -1.498459101752186E-2    3.912387012683451E-2   -1.296209553555042E-2    3.899363721665204E-2   -4.981772986916037E-1   -1.078517725981770E-1
 6.501427406100000E9    -4.477978942466682E-1   -2.746223774009429E-1   -1.491624551743453E-2    3.934666975207302E-2   -1.279354168101660E-2    3.919441009934299E-2   -4.985608736721329E-1   -1.065240504007459E-1
 6.501440151625000E9    -4.483952509517843E-1   -2.736290012857409E-1   -1.491220793214960E-2    3.961611227467397E-2   -1.277236865153723E-2    3.952660619728035E-2   -4.986009166329544E-1   -1.051084348381471E-1
 6.501452897150000E9    -4.489260639600878E-1   -2.727195705648853E-1   -1.486998769271760E-2    3.990412146219607E-2   -1.281592052635236E-2    3.974203863716147E-2   -4.987787914185429E-1   -1.036364027368328E-1
 6.501465642675000E9    -4.492935541742437E-1   -2.716125868844946E-1   -1.487184421874660E-2    4.020874094272877E-2   -1.265771922541162E-2    4.007286196498601E-2   -4.990884394753918E-1   -1.023170415891790E-1
 6.501478388200000E9    -4.498968686486914E-1   -2.707523507489650E-1   -1.486915185775951E-2    4.056057689022838E-2   -1.272737114060270E-2    4.036579948083899E-2   -4.991289318973290E-1   -1.008572434635549E-1
 6.501491133725000E9    -4.504646413586628E-1   -2.697090084791753E-1   -1.483576675551105E-2    4.086831230933965E-2   -1.269942420447563E-2    4.068621699193413E-2   -4.993085003006291E-1   -9.949324135370302E-2
 6.501503879250000E9    -4.509185544024057E-1   -2.688031228085833E-1   -1.482954137305235E-2    4.104829593387409E-2   -1.269298142610319E-2    4.091937299355006E-2   -4.995178387406787E-1   -9.806803385391408E-2
 6.501516624775000E9    -4.514692274093133E-1   -2.678439461361837E-1   -1.484417132348816E-2    4.143530170904524E-2   -1.256876361134078E-2    4.125196375260290E-2   -4.996802756874817E-1   -9.665586018235209E-2
 6.501529370300000E9    -4.521004385409478E-1   -2.668407744838656E-1   -1.490580589435240E-2    4.178108723219462E-2   -1.271637184677159E-2    4.154728312415047E-2   -4.998327343714274E-1   -9.522061135199965E-2
 6.501542115825000E9    -4.524810244210605E-1   -2.658189048102523E-1   -1.477528771101935E-2    4.215878741453891E-2   -1.251388750254708E-2    4.181126189161866E-2   -5.000547911856993E-1   -9.383491946599658E-2
 6.501554861350000E9    -4.531469037989074E-1   -2.648719833482173E-1   -1.480640644588902E-2    4.241634126117665E-2   -1.249737004912755E-2    4.220107184804796E-2   -4.999942890779410E-1   -9.236148841252716E-2
 6.501567606875000E9    -4.535898887831032E-1   -2.638328697997530E-1   -1.476969061556046E-2    4.265352056547826E-2   -1.251385056679943E-2    4.246330326058256E-2   -5.002649405693121E-1   -9.075724178746737E-2
 6.501580352400000E9    -4.541749016613573E-1   -2.628702205073803E-1   -1.480393096713040E-2    4.307164541243316E-2   -1.244087582201391E-2    4.282122638467507E-2   -5.004446433971992E-1   -8.943370381798453E-2
 6.501593097925000E9    -4.547199403926136E-1   -2.619258900954180E-1   -1.468154799073228E-2    4.341014846777517E-2   -1.242517996887763E-2    4.305174468504629E-2   -5.004500231944926E-1   -8.806160600623084E-2
 6.501605843450000E9    -4.551895904809435E-1   -2.609057975348119E-1   -1.474680985717991E-2    4.375795176251814E-2   -1.245977172059249E-2    4.340647102030736E-2   -5.006796262904141E-1   -8.649214569487747E-2
 6.501618588975000E9    -4.557658686168503E-1   -2.598102477531103E-1   -1.475413159492345E-2    4.410268048054947E-2   -1.236487505503373E-2    4.380250176847274E-2   -5.008033820559872E-1   -8.510743564418387E-2
 6.501631334500000E9    -4.561730572532681E-1   -2.589664237825451E-1   -1.451918149878131E-2    4.440246207735041E-2   -1.237351109324589E-2    4.406811878500014E-2   -5.008857195071691E-1   -8.356655816442997E-2
 6.501644080025000E9    -4.566947077130705E-1   -2.578979462805395E-1   -1.469424290527054E-2    4.485279215652113E-2   -1.231781486202997E-2    4.448041532094049E-2   -5.009687472757057E-1   -8.200285373149672E-2
 6.501656825550000E9    -4.571744081549183E-1   -2.568487384778033E-1   -1.469725868476704E-2    4.506930990461377E-2   -1.234103287850633E-2    4.475704041776390E-2   -5.011281703902828E-1   -8.059170433064508E-2
 6.501669571075000E9    -4.576938415456829E-1   -2.558725720104956E-1   -1.455433354689639E-2    4.552377327530179E-2   -1.222161902871871E-2    4.505188672973442E-2   -5.013071511115667E-1   -7.907372841293679E-2
 6.501682316600000E9    -4.582424902481601E-1   -2.548183791122943E-1   -1.458340901583834E-2    4.587718878191972E-2   -1.219701709984588E-2    4.550349630011454E-2   -5.012910960975875E-1   -7.752284009778038E-2
 6.501695062125000E9    -4.587701239967367E-1   -2.538858324430469E-1   -1.445415319000495E-2    4.615176565849184E-2   -1.209723806836151E-2    4.584565947153321E-2   -5.014395165361614E-1   -7.599377770827259E-2
 6.501707807650000E9    -4.593028214683652E-1   -2.527331847642706E-1   -1.467895123136387E-2    4.655346648448874E-2   -1.213760519707607E-2    4.618635945465707E-2   -5.014471239058023E-1   -7.452380036667582E-2
 6.501720553175000E9    -4.597736255305649E-1   -2.518768062124635E-1   -1.448790855447070E-2    4.684360344674171E-2   -1.208925026848962E-2    4.651760626820955E-2   -5.017495528408907E-1   -7.297539476397494E-2
 6.501733298700000E9    -4.602901421129089E-1   -2.506906708597170E-1   -1.446900252271550E-2    4.733386467702660E-2   -1.203191372830587E-2    4.696731466662676E-2   -5.016987290499728E-1   -7.136841188427680E-2
 6.501746044225000E9    -4.608097057800797E-1   -2.497076816048179E-1   -1.445972796596381E-2    4.785471207362466E-2   -1.190464278381741E-2    4.730032308276381E-2   -5.018521089883058E-1   -6.971465035148071E-2
 6.501758789750000E9    -4.612250344541382E-1   -2.487023713197784E-1   -1.429231329103955E-2    4.806761793791919E-2   -1.187540993936750E-2    4.768022537521487E-2   -5.017078435346141E-1   -6.814909877733465E-2
 6.501771535275000E9    -4.616984376767016E-1   -2.475135726364481E-1   -1.419344862467073E-2    4.840870907575571E-2   -1.176435501049897E-2    4.807382459851158E-2   -5.018734656502113E-1   -6.645043430014975E-2
 6.501784280800000E9    -4.623507804131549E-1   -2.466184792512982E-1   -1.416141266662502E-2    4.892782490068482E-2   -1.182211990395137E-2    4.851271539838918E-2   -5.020268126861381E-1   -6.493169168494345E-2
 6.501797026325000E9    -4.626484866113356E-1   -2.456006424368746E-1   -1.420901973470759E-2    4.929555372830782E-2   -1.173298652383524E-2    4.894236887425761E-2   -5.020712670660858E-1   -6.347021944967778E-2
 6.501809771850000E9    -4.631895599548657E-1   -2.444385592065020E-1   -1.410551703400866E-2    4.972408223758459E-2   -1.171982770702480E-2    4.935301870577065E-2   -5.021829047182136E-1   -6.177840262533401E-2
 6.501822517375000E9    -4.637171468129541E-1   -2.434377484652440E-1   -1.416382891391029E-2    5.015470330014429E-2   -1.161693040678917E-2    4.976184959339104E-2   -5.022440606453993E-1   -5.999280290737728E-2
 6.501835262900000E9    -4.641516476413003E-1   -2.423256765025529E-1   -1.414032026478640E-2    5.064587252176064E-2   -1.158158009648494E-2    5.012593448626218E-2   -5.021145344934600E-1   -5.855471125603834E-2
 6.501848008425000E9    -4.646452009115349E-1   -2.412211245006398E-1   -1.404366090969153E-2    5.107225790204233E-2   -1.147581571123627E-2    5.058610739123276E-2   -5.021501241248482E-1   -5.678783317801741E-2
 6.501860753950000E9    -4.651465411656425E-1   -2.401062563515002E-1   -1.397746377374412E-2    5.140668085155845E-2   -1.142104742478670E-2    5.106061941172994E-2   -5.020963185143749E-1   -5.508327779162610E-2
 6.501873499475000E9    -4.656147785261828E-1   -2.391543967783941E-1   -1.382771331306253E-2    5.204731326869495E-2   -1.124080092706560E-2    5.140778816968179E-2   -5.021045340256941E-1   -5.347817272900151E-2
 6.501886245000000E9    -4.661172486729280E-1   -2.380381779663109E-1   -1.391882325743667E-2    5.256941903312012E-2   -1.136513411148640E-2    5.189063160357346E-2   -5.021921541646721E-1   -5.185939965450764E-2
 6.501898990525000E9    -4.664989474947244E-1   -2.369528880818604E-1   -1.384579590059300E-2    5.289622264974968E-2   -1.131284145218442E-2    5.242767452109152E-2   -5.021573065265137E-1   -5.012564345666724E-2
 6.501911736050000E9    -4.669580669538804E-1   -2.359045437074001E-1   -1.377461195407254E-2    5.341491665128726E-2   -1.120080026847919E-2    5.283002999541545E-2   -5.022270351758968E-1   -4.841434673183875E-2
 6.501924481575000E9    -4.675057185375904E-1   -2.347670699728375E-1   -1.372273911233738E-2    5.383299831130124E-2   -1.108333010924641E-2    5.319491893996545E-2   -5.021819913125549E-1   -4.663428613980620E-2
 6.501937227100000E9    -4.679617449115154E-1   -2.336520992713782E-1   -1.363668565647811E-2    5.440909039395631E-2   -1.107169781386061E-2    5.381197865269273E-2   -5.021123260618261E-1   -4.493061350897176E-2
 6.501949972625000E9    -4.683815621278712E-1   -2.325885412579333E-1   -1.357325637891629E-2    5.500849112005828E-2   -1.086827959150384E-2    5.423986882833029E-2   -5.019513604075270E-1   -4.320674419223449E-2
 6.501962718150000E9    -4.688966513042080E-1   -2.314161059748714E-1   -1.360668142503735E-2    5.540320825458814E-2   -1.076893744702140E-2    5.478230993562253E-2   -5.019574135387217E-1   -4.143096235468272E-2
 6.501975463675000E9    -4.693113315994700E-1   -2.303174050272485E-1   -1.349011546840431E-2    5.587075816600236E-2   -1.070771020123705E-2    5.510531584807374E-2   -5.019988346492305E-1   -3.968615865804591E-2
 6.501988209200000E9    -4.697775923421018E-1   -2.292160995045807E-1   -1.336935330123570E-2    5.647048177709460E-2   -1.068696425156265E-2    5.572341036644616E-2   -5.020392801094898E-1   -3.779126306620782E-2
 6.502000954725000E9    -4.701879378373988E-1   -2.280776542207247E-1   -1.318671363819043E-2    5.692454949231525E-2   -1.054123995083286E-2    5.627691133693655E-2   -5.019277890585350E-1   -3.590633899626049E-2
 6.502013700250000E9    -4.706786348346624E-1   -2.270507089616148E-1   -1.324745422850410E-2    5.763185914784831E-2   -1.038252176082735E-2    5.676855549056542E-2   -5.017771159785885E-1   -3.428735787224004E-2
