#  HZ   S   RI   R     50.00 
! Rohde & Schwarz Vector Network Analyzer 
! Rohde-Schwarz,ZNB20-2Port,1311601062101988,3.16
! Created: UTC 3/20/2024, 11:55:22 AM
! freq[Hz]                re:S11                  im:S11                  re:S21                  im:S21                  re:S12                  im:S12                  re:S22                  im:S22
 6.500874013000000E9    -4.230066315675871E-1   -3.135320010807977E-1   -1.490188078506322E-2    2.963555448523817E-2   -1.329048410184903E-2    2.960118087828361E-2   -4.871435412142661E-1   -1.616360813946571E-1
 6.500886747650000E9    -4.236382723567255E-1   -3.126311457093330E-1   -1.497066105079175E-2    2.954941106810326E-2   -1.334165433170653E-2    2.976802414722839E-2   -4.873432847492387E-1   -1.604746140750039E-1
 6.500899482300000E9    -4.242972038514429E-1   -3.117411111171681E-1   -1.496921028904940E-2    2.991173589926929E-2   -1.332699455567720E-2    2.989194769520412E-2   -4.878221762537583E-1   -1.595144408097707E-1
 6.500912216950000E9    -4.248208953412810E-1   -3.108256804051719E-1   -1.491765043900081E-2    3.002009612597469E-2   -1.324600854736825E-2    3.014166966072039E-2   -4.881641101986446E-1   -1.582072563798451E-1
 6.500924951600000E9    -4.254378802163867E-1   -3.100329195447512E-1   -1.493128411066481E-2    3.011347154900475E-2   -1.316365339092128E-2    3.032445900800427E-2   -4.884106097602425E-1   -1.570037894970776E-1
 6.500937686250000E9    -4.259937106239667E-1   -3.091673290251672E-1   -1.511790455483519E-2    3.047238528683366E-2   -1.335912343838530E-2    3.050015136782634E-2   -4.888298930414856E-1   -1.558183321873933E-1
 6.500950420900000E9    -4.266208223773778E-1   -3.083217140549346E-1   -1.502986523943455E-2    3.062709218640706E-2   -1.327633650335492E-2    3.073389010076236E-2   -4.890443005302786E-1   -1.545345439727266E-1
 6.500963155550000E9    -4.272477711347336E-1   -3.074566314870902E-1   -1.502542379867253E-2    3.080160169073396E-2   -1.320799538913649E-2    3.089404960205022E-2   -4.894265985060702E-1   -1.533168825515446E-1
 6.500975890200000E9    -4.277303886166557E-1   -3.065721577991832E-1   -1.502799854447962E-2    3.098869860947709E-2   -1.326218857124130E-2    3.104391791830910E-2   -4.897118784537717E-1   -1.522565374865081E-1
 6.500988624850000E9    -4.284820487930925E-1   -3.056858434413607E-1   -1.499136770824194E-2    3.120147947294466E-2   -1.323938378479603E-2    3.123033491791194E-2   -4.900260123433450E-1   -1.510108365968580E-1
 6.501001359500000E9    -4.290222370900192E-1   -3.048224468931334E-1   -1.486217103567476E-2    3.141224779376022E-2   -1.320589381225972E-2    3.140702009098577E-2   -4.902626427253186E-1   -1.498699657901121E-1
 6.501014094150000E9    -4.295243640694402E-1   -3.039438999020694E-1   -1.499275599927448E-2    3.151895241082098E-2   -1.319156622369404E-2    3.158861298690640E-2   -4.906887508675545E-1   -1.485676772008306E-1
 6.501026828800000E9    -4.301547677461375E-1   -3.031322626000611E-1   -1.497699914079322E-2    3.165262425033982E-2   -1.320616922094636E-2    3.185243830602270E-2   -4.907738510011377E-1   -1.474250401912925E-1
 6.501039563450000E9    -4.307847740876839E-1   -3.022770487715261E-1   -1.509436637712398E-2    3.182449795521845E-2   -1.324077465056076E-2    3.202920152767492E-2   -4.911418058787634E-1   -1.462092941251867E-1
 6.501052298100000E9    -4.314054854668692E-1   -3.013033442260693E-1   -1.502345217571387E-2    3.202084384964118E-2   -1.317659515393605E-2    3.223652252335297E-2   -4.913827281242368E-1   -1.449602339078894E-1
 6.501065032750000E9    -4.318768411234947E-1   -3.004665050881524E-1   -1.501464610699088E-2    3.236003978574909E-2   -1.320630399659334E-2    3.250199476391064E-2   -4.918578875427150E-1   -1.436541109877515E-1
 6.501077767400000E9    -4.325296522262131E-1   -2.995820317045470E-1   -1.492239414889765E-2    3.252196812830400E-2   -1.319704653308474E-2    3.249725037192434E-2   -4.919219581773884E-1   -1.424191383513827E-1
 6.501090502050000E9    -4.330642503301976E-1   -2.985706272215344E-1   -1.501327809402340E-2    3.273850746979021E-2   -1.318218648452708E-2    3.282273220184140E-2   -4.923003802116536E-1   -1.412033809377704E-1
 6.501103236700000E9    -4.337361760726492E-1   -2.977757430811839E-1   -1.499205650568230E-2    3.299293373779105E-2   -1.313298875299936E-2    3.305307490634445E-2   -4.925035015077781E-1   -1.400849295064752E-1
 6.501115971350000E9    -4.342037614468059E-1   -2.967811041598479E-1   -1.489441357123146E-2    3.318097402642680E-2   -1.305612325496237E-2    3.322301500772870E-2   -4.927617755258585E-1   -1.387731102936114E-1
 6.501128706000000E9    -4.348417128957512E-1   -2.960319252748128E-1   -1.496096441975735E-2    3.344489192069541E-2   -1.314902454443631E-2    3.349710338961721E-2   -4.931025859349665E-1   -1.374952201290837E-1
 6.501141440650000E9    -4.354013021870323E-1   -2.950545303686014E-1   -1.503377586392118E-2    3.378456669659783E-2   -1.314969893507448E-2    3.371436122571053E-2   -4.933681970666110E-1   -1.361821028680287E-1
 6.501154175300000E9    -4.359315144636254E-1   -2.942186670788694E-1   -1.500534946613226E-2    3.389325143586435E-2   -1.315565751343286E-2    3.385604783443212E-2   -4.936253990031653E-1   -1.348508741709555E-1
 6.501166909950000E9    -4.365547323723779E-1   -2.932951218596149E-1   -1.498205079480604E-2    3.399602155991705E-2   -1.315004604009998E-2    3.411112714840753E-2   -4.937960453996336E-1   -1.336959737160126E-1
 6.501179644600000E9    -4.371254713799376E-1   -2.924213115084857E-1   -1.499696027232335E-2    3.444644781725691E-2   -1.306017169204932E-2    3.438137310690498E-2   -4.940032796398008E-1   -1.323126728359872E-1
 6.501192379250000E9    -4.376942466706731E-1   -2.915403905712275E-1   -1.509065146728306E-2    3.456103008117877E-2   -1.315182300071314E-2    3.458212963121089E-2   -4.943766984141379E-1   -1.312145097452122E-1
 6.501205113900000E9    -4.383046880314397E-1   -2.904625323758801E-1   -1.500619923460356E-2    3.461094325324482E-2   -1.320354035897130E-2    3.477024448692369E-2   -4.945290284881629E-1   -1.298264039414623E-1
 6.501217848550000E9    -4.388957046996716E-1   -2.896030828327026E-1   -1.503843334819758E-2    3.507927850149805E-2   -1.300447569273272E-2    3.500240783716439E-2   -4.949314073044403E-1   -1.285917356196819E-1
 6.501230583200000E9    -4.393299281011031E-1   -2.886562012318220E-1   -1.505007194828273E-2    3.526414364556676E-2   -1.311388699924259E-2    3.518849909034201E-2   -4.950984060372788E-1   -1.272353559774849E-1
 6.501243317850000E9    -4.398624275074257E-1   -2.876945585680378E-1   -1.491214445650654E-2    3.550532341029784E-2   -1.301427721005872E-2    3.538008501698658E-2   -4.954260284483274E-1   -1.259521962417800E-1
 6.501256052500000E9    -4.405695599486963E-1   -2.869207337632014E-1   -1.503926590727912E-2    3.564853494198422E-2   -1.309531614497271E-2    3.561464027519235E-2   -4.956848358855869E-1   -1.246546881645189E-1
 6.501268787150000E9    -4.410678411313856E-1   -2.859569623302176E-1   -1.510854964927200E-2    3.590095809129492E-2   -1.302687970455881E-2    3.590196798548269E-2   -4.958104647830935E-1   -1.234757249600025E-1
 6.501281521800000E9    -4.415710559790498E-1   -2.850103265053233E-1   -1.489728029606803E-2    3.614089714830131E-2   -1.299848852404111E-2    3.614423377702263E-2   -4.960854909259990E-1   -1.220159862474541E-1
 6.501294256450000E9    -4.422269922161715E-1   -2.841550886432315E-1   -1.498492660893086E-2    3.650837977923517E-2   -1.296453663601515E-2    3.636763029009587E-2   -4.962636622008514E-1   -1.207634570629225E-1
 6.501306991100000E9    -4.427463071694394E-1   -2.831931514082556E-1   -1.490811544221669E-2    3.677891160178250E-2   -1.295918717296264E-2    3.665112568603845E-2   -4.965654143180221E-1   -1.195416135713686E-1
 6.501319725750000E9    -4.433378188688166E-1   -2.823010820941428E-1   -1.500370261162357E-2    3.693941935300427E-2   -1.295844166390314E-2    3.694611747972147E-2   -4.968131332608046E-1   -1.182141202922259E-1
 6.501332460400000E9    -4.439087630252069E-1   -2.814057979536075E-1   -1.499947050739272E-2    3.720626212569021E-2   -1.291616414048416E-2    3.713899728087187E-2   -4.968435865143942E-1   -1.168205935586684E-1
 6.501345195050000E9    -4.444065475937378E-1   -2.803803625648679E-1   -1.501846158362777E-2    3.741315105283102E-2   -1.289875406040639E-2    3.740364111321400E-2   -4.969950256061232E-1   -1.152925233917097E-1
 6.501357929700000E9    -4.449366267027089E-1   -2.794491919236105E-1   -1.507157176454351E-2    3.763530123930285E-2   -1.286913608977975E-2    3.769276163629545E-2   -4.972173984666118E-1   -1.141888628687699E-1
 6.501370664350000E9    -4.455175768257180E-1   -2.784739670863522E-1   -1.490572696222281E-2    3.802376455219005E-2   -1.283304442057353E-2    3.791452034299626E-2   -4.974879055863077E-1   -1.127380550747883E-1
 6.501383399000000E9    -4.460543970070851E-1   -2.776300283677496E-1   -1.491799202599557E-2    3.822581833944065E-2   -1.277365979390425E-2    3.822154403412708E-2   -4.978219688069056E-1   -1.113728665206442E-1
 6.501396133650000E9    -4.465137561836631E-1   -2.764791399954547E-1   -1.483718201925460E-2    3.856476697290331E-2   -1.280543661773323E-2    3.848176672205164E-2   -4.979188648217567E-1   -1.100320550305318E-1
 6.501408868300000E9    -4.471154723096652E-1   -2.756887582231481E-1   -1.486484737388356E-2    3.885118941002170E-2   -1.282781436478889E-2    3.872718292017140E-2   -4.981203917650894E-1   -1.086530446531995E-1
 6.501421602950000E9    -4.477640347333806E-1   -2.746869291520374E-1   -1.496188708136123E-2    3.918445743480915E-2   -1.272710777672914E-2    3.905871312941350E-2   -4.984300514017486E-1   -1.073016468049841E-1
 6.501434337600000E9    -4.481845416554534E-1   -2.737686805512898E-1   -1.486393469909470E-2    3.941414144875554E-2   -1.279099017167572E-2    3.925003944695613E-2   -4.984819202134588E-1   -1.057884431737820E-1
 6.501447072250000E9    -4.487731740866136E-1   -2.728446744167201E-1   -1.473930319854596E-2    3.958639932853693E-2   -1.274479023830891E-2    3.956479126991565E-2   -4.988060768525287E-1   -1.045330851813941E-1
 6.501459806900000E9    -4.493054073033518E-1   -2.718825158999530E-1   -1.475336267095435E-2    3.998655673754945E-2   -1.271655447488465E-2    3.989138229831378E-2   -4.988319258348728E-1   -1.031526577198401E-1
 6.501472541550000E9    -4.497499423568024E-1   -2.709916509309687E-1   -1.478984240390449E-2    4.028811228093412E-2   -1.277926904881491E-2    4.000299872850335E-2   -4.990721496596294E-1   -1.018825914429414E-1
 6.501485276200000E9    -4.503491539137714E-1   -2.699508831309605E-1   -1.475944512482492E-2    4.062121883401133E-2   -1.268585593854444E-2    4.041110949987527E-2   -4.994243286880323E-1   -1.004286718864402E-1
 6.501498010850000E9    -4.508087669931266E-1   -2.689590872402116E-1   -1.483814073662639E-2    4.093610383757602E-2   -1.268133677604622E-2    4.071300766370726E-2   -4.994375707768298E-1   -9.891192911557949E-2
 6.501510745500000E9    -4.513724476082499E-1   -2.680151913300707E-1   -1.493058262270522E-2    4.127207772728108E-2   -1.265104951737456E-2    4.105085623603134E-2   -4.996838498384394E-1   -9.740549411227271E-2
 6.501523480150000E9    -4.519807988011278E-1   -2.669413161332316E-1   -1.485727549648611E-2    4.150765443160775E-2   -1.260478241864452E-2    4.126858297469582E-2   -4.998465149974909E-1   -9.608833765346060E-2
 6.501536214800000E9    -4.524541985525883E-1   -2.660406416738993E-1   -1.478994526587105E-2    4.171614861686918E-2   -1.262424600491499E-2    4.160518468957280E-2   -4.999502847387549E-1   -9.467875091125326E-2
 6.501548949450000E9    -4.529220336941320E-1   -2.650103441906030E-1   -1.474782343213383E-2    4.198034765244453E-2   -1.253903832167523E-2    4.196340148457076E-2   -4.998618090572793E-1   -9.306000043391720E-2
 6.501561684100000E9    -4.535804476882459E-1   -2.640497113525673E-1   -1.484186605979881E-2    4.249439312716907E-2   -1.251370772708894E-2    4.225054015903043E-2   -5.001516797761253E-1   -9.174171200924017E-2
 6.501574418750000E9    -4.539983911708347E-1   -2.630276025996058E-1   -1.469430711339160E-2    4.277512097315494E-2   -1.248398181859145E-2    4.252310772671555E-2   -5.003685794937084E-1   -9.028418021677209E-2
 6.501587153400000E9    -4.545119361296715E-1   -2.621628552482775E-1   -1.483031751829470E-2    4.302737962804003E-2   -1.246220607244944E-2    4.277602717191892E-2   -5.004516832458040E-1   -8.899057496262990E-2
 6.501599888050000E9    -4.550554901821900E-1   -2.610734050466652E-1   -1.470453069534043E-2    4.348724638504672E-2   -1.234559767642209E-2    4.310822739532028E-2   -5.006750726709024E-1   -8.728485536104418E-2
 6.501612622700000E9    -4.556134957047207E-1   -2.600335803855506E-1   -1.471607754366775E-2    4.375732865028239E-2   -1.237710288956644E-2    4.355992252145314E-2   -5.008470342691222E-1   -8.594963947795667E-2
 6.501625357350000E9    -4.560448149653734E-1   -2.589922268627547E-1   -1.466749469112193E-2    4.420823320808312E-2   -1.227865483807195E-2    4.388470395667234E-2   -5.009353292200902E-1   -8.450622683279602E-2
 6.501638092000000E9    -4.567007767200772E-1   -2.580363504979160E-1   -1.464185557130551E-2    4.444476341025577E-2   -1.231945490624593E-2    4.418210170354299E-2   -5.009749063367208E-1   -8.292933642094003E-2
 6.501650826650000E9    -4.571365566700477E-1   -2.570864604711971E-1   -1.464059268974457E-2    4.484290749707767E-2   -1.227100824783193E-2    4.449876465689425E-2   -5.012555652253645E-1   -8.151938843750113E-2
 6.501663561300000E9    -4.576983949641279E-1   -2.561246296705531E-1   -1.456133144349040E-2    4.516590292789328E-2   -1.222925098285028E-2    4.482977303639803E-2   -5.013093486801837E-1   -7.995925506005615E-2
 6.501676295950000E9    -4.581223134401237E-1   -2.550364706352601E-1   -1.454028486584747E-2    4.559530122292713E-2   -1.215765430017031E-2    4.518951980132876E-2   -5.013846599447471E-1   -7.850460499494542E-2
 6.501689030600000E9    -4.586028273662707E-1   -2.540250088236830E-1   -1.450224565821980E-2    4.582481330426976E-2   -1.212533440708664E-2    4.551775953733516E-2   -5.014944185318753E-1   -7.693931871346268E-2
 6.501701765250000E9    -4.591431439567842E-1   -2.531178109243543E-1   -1.463067804633443E-2    4.630494319305471E-2   -1.209414886764850E-2    4.596090692968083E-2   -5.016297889068891E-1   -7.539885061146416E-2
 6.501714499900000E9    -4.596428280551293E-1   -2.519058188600315E-1   -1.449049470390471E-2    4.665333248672272E-2   -1.194255978350278E-2    4.633802703074087E-2   -5.017996075700816E-1   -7.378993245239232E-2
 6.501727234550000E9    -4.601278608037512E-1   -2.510702004710021E-1   -1.451503913787784E-2    4.711227452885138E-2   -1.189061828152967E-2    4.665251029365774E-2   -5.017203923083916E-1   -7.233842317112525E-2
 6.501739969200000E9    -4.606600998330760E-1   -2.499199282899454E-1   -1.451043919145793E-2    4.737552842076544E-2   -1.197038104758182E-2    4.706796189096529E-2   -5.017842218567147E-1   -7.080068797131066E-2
 6.501752703850000E9    -4.611176197826261E-1   -2.490677436632892E-1   -1.434748754021074E-2    4.783568772427699E-2   -1.191980401642947E-2    4.738590729700974E-2   -5.018924510568381E-1   -6.921778531395842E-2
 6.501765438500000E9    -4.617340126718810E-1   -2.479335702683853E-1   -1.439309485174363E-2    4.822911192108809E-2   -1.182728027121931E-2    4.775956127623857E-2   -5.020023293624405E-1   -6.775936243580487E-2
 6.501778173150000E9    -4.621450410806556E-1   -2.468035934902858E-1   -1.424816796229020E-2    4.856274225929805E-2   -1.186610916220930E-2    4.800132198847276E-2   -5.021843785885307E-1   -6.603615547049754E-2
 6.501790907800000E9    -4.626169785867518E-1   -2.457148943159470E-1   -1.424808677107548E-2    4.900366848799718E-2   -1.179773198443188E-2    4.865256346092228E-2   -5.021131689468659E-1   -6.438089662935720E-2
 6.501803642450000E9    -4.630740689873322E-1   -2.446447149616942E-1   -1.418049400258430E-2    4.941422527936096E-2   -1.175471254288650E-2    4.893038430756515E-2   -5.020872754045790E-1   -6.275321021932607E-2
 6.501816377100000E9    -4.636488842332444E-1   -2.437699675525185E-1   -1.416063903252627E-2    4.977548497450762E-2   -1.170868953492523E-2    4.934985871386850E-2   -5.021273522130244E-1   -6.120731914777044E-2
 6.501829111750000E9    -4.640263398920667E-1   -2.426033626289527E-1   -1.403964161136219E-2    5.032811477498182E-2   -1.161570787238544E-2    4.978721480354053E-2   -5.022007260607888E-1   -5.963926172373633E-2
 6.501841846400000E9    -4.645932541666160E-1   -2.415551337139858E-1   -1.397729344213889E-2    5.063700293965153E-2   -1.150317368902523E-2    5.014716556999158E-2   -5.022279543476657E-1   -5.795979797715786E-2
 6.501854581050000E9    -4.649814130643465E-1   -2.405379041006475E-1   -1.400411719769496E-2    5.121981846261278E-2   -1.139882690258242E-2    5.068260983165196E-2   -5.022322554207683E-1   -5.631828455712057E-2
 6.501867315700000E9    -4.654152674934666E-1   -2.394923681081665E-1   -1.403012065907990E-2    5.163310835993554E-2   -1.144496347209318E-2    5.105065997285918E-2   -5.023411148047406E-1   -5.458803494162346E-2
 6.501880050350000E9    -4.658411135706308E-1   -2.383552554694607E-1   -1.380628872385305E-2    5.205916682921700E-2   -1.132687839083139E-2    5.145568632455987E-2   -5.022166366734496E-1   -5.288274347862558E-2
 6.501892785000000E9    -4.664419356800992E-1   -2.372970538937111E-1   -1.385205001492548E-2    5.250511858001772E-2   -1.118544655616282E-2    5.194891731809952E-2   -5.023159147058458E-1   -5.128015307488778E-2
 6.501905519650000E9    -4.669620399479065E-1   -2.361685166925977E-1   -1.392682518491454E-2    5.295656804455250E-2   -1.124866214968694E-2    5.230662581179472E-2   -5.022180725544855E-1   -4.954521255589774E-2
 6.501918254300000E9    -4.674580961185099E-1   -2.350310235891605E-1   -1.384797789307239E-2    5.359790041611744E-2   -1.114446531852755E-2    5.276442695543224E-2   -5.021655915268096E-1   -4.778100038034432E-2
 6.501930988950000E9    -4.678769411451948E-1   -2.340360843830663E-1   -1.365025489911092E-2    5.405354156976755E-2   -1.101717870392907E-2    5.328339158422586E-2   -5.022596534759649E-1   -4.606146194781544E-2
 6.501943723600000E9    -4.683895686417059E-1   -2.328282694728381E-1   -1.353957140811204E-2    5.449583331240910E-2   -1.093687275248531E-2    5.380756375299177E-2   -5.021651188776386E-1   -4.440345292019470E-2
 6.501956458250000E9    -4.687513364614447E-1   -2.318133152635423E-1   -1.354913275011876E-2    5.493909746862404E-2   -1.084888340095229E-2    5.426933631651103E-2   -5.022224425512006E-1   -4.259660709894789E-2
 6.501969192900000E9    -4.692578475798219E-1   -2.306197075139719E-1   -1.343651450025600E-2    5.541274697745194E-2   -1.078563250541382E-2    5.483318038889253E-2   -5.021268800695033E-1   -4.069429350058673E-2
 6.501981927550000E9    -4.696984173628849E-1   -2.296225015803395E-1   -1.335106489371952E-2    5.596513540234163E-2   -1.071091724099312E-2    5.536049164416890E-2   -5.019568587231947E-1   -3.905653681389495E-2
 6.501994662200000E9    -4.702278332209258E-1   -2.283988489726224E-1   -1.338499212493017E-2    5.651646183716948E-2   -1.065200218742344E-2    5.576352182181572E-2   -5.021186616058968E-1   -3.738833140813266E-2
 6.502007396850000E9    -4.705760104496519E-1   -2.272880647406416E-1   -1.313582421949895E-2    5.715213976751361E-2   -1.040653661477883E-2    5.630923432845668E-2   -5.019212529486644E-1   -3.548369798375347E-2
 6.502020131500000E9    -4.710462929129351E-1   -2.262062596644197E-1   -1.313195994996004E-2    5.761232706239085E-2   -1.035832720294044E-2    5.690860213000166E-2   -5.018931291651931E-1   -3.361893488264506E-2
