#  HZ   S   RI   R     50.00 
! Rohde & Schwarz Vector Network Analyzer 
! Rohde-Schwarz,ZNB20-2Port,1311601062101988,3.16
! Created: UTC 3/20/2024, 11:56:09 AM
! freq[Hz]                re:S11                  im:S11                  re:S21                  im:S21                  re:S12                  im:S12                  re:S22                  im:S22
 6.500899893000000E9    -4.241156044871037E-1   -3.120122293618549E-1   -1.497848923316407E-2    2.983151992814637E-2   -1.338199430497559E-2    2.984888318225421E-2   -4.878716858296347E-1   -1.596134211170941E-1
 6.500912550375000E9    -4.247086267451375E-1   -3.111339061419012E-1   -1.484869017574736E-2    2.988035170310372E-2   -1.321449545675423E-2    3.003757837625111E-2   -4.883165619901060E-1   -1.584015034881485E-1
 6.500925207750000E9    -4.253157250714368E-1   -3.105051359888229E-1   -1.496410263063723E-2    3.005649859599672E-2   -1.324882313136191E-2    3.021911567360885E-2   -4.884251478080394E-1   -1.572464615904323E-1
 6.500937865125000E9    -4.257917674488511E-1   -3.095317414601339E-1   -1.495549293943883E-2    3.029469402125952E-2   -1.326135096116823E-2    3.033061465403406E-2   -4.888943914208597E-1   -1.559700879250500E-1
 6.500950522500000E9    -4.264813318955185E-1   -3.086776644666777E-1   -1.503383350341017E-2    3.029459691150582E-2   -1.329669901062715E-2    3.058544096110841E-2   -4.892730959497369E-1   -1.548938118339242E-1
 6.500963179875000E9    -4.270728108115894E-1   -3.078849211740189E-1   -1.497614414118715E-2    3.070485984739987E-2   -1.324242076659907E-2    3.074985711541599E-2   -4.894528960910808E-1   -1.537145347019598E-1
 6.500975837250000E9    -4.277027654002419E-1   -3.069350238246607E-1   -1.499362129978889E-2    3.089819713964806E-2   -1.334930604563216E-2    3.093912814849610E-2   -4.897643134804783E-1   -1.525879279439549E-1
 6.500988494625000E9    -4.283416219106855E-1   -3.061418732266981E-1   -1.491020083056335E-2    3.103805014632148E-2   -1.325102445625267E-2    3.118029509639415E-2   -4.901569225370522E-1   -1.512472105886378E-1
 6.501001152000000E9    -4.289019664861290E-1   -3.052876988057466E-1   -1.503791000809002E-2    3.123883745310070E-2   -1.324049912768167E-2    3.137453392809166E-2   -4.902919070008929E-1   -1.499984886356906E-1
 6.501013809375000E9    -4.294429796791281E-1   -3.043516181531530E-1   -1.486129042085359E-2    3.139073701608864E-2   -1.320917207945593E-2    3.151403674884670E-2   -4.905093411937133E-1   -1.488736900112738E-1
 6.501026466750000E9    -4.300821428343760E-1   -3.035306772171121E-1   -1.493125474991269E-2    3.163781546921063E-2   -1.317442537633299E-2    3.176237579287449E-2   -4.910308376112729E-1   -1.476011410491768E-1
 6.501039124125000E9    -4.305624315030327E-1   -3.026098965478717E-1   -1.493844526733723E-2    3.166734439853692E-2   -1.323811455920788E-2    3.194150321209200E-2   -4.911998641353714E-1   -1.463923889064258E-1
 6.501051781500000E9    -4.312749839477487E-1   -3.017723222403096E-1   -1.493320077599036E-2    3.196852365918890E-2   -1.323120607508746E-2    3.206839976166904E-2   -4.915190056190473E-1   -1.452188800139343E-1
 6.501064438875000E9    -4.317821241074505E-1   -3.008737657893935E-1   -1.499835926197113E-2    3.209038906428290E-2   -1.315873047372105E-2    3.224674129624589E-2   -4.917696718900594E-1   -1.439467655298116E-1
 6.501077096250000E9    -4.323193620696121E-1   -3.000234972301350E-1   -1.497373912175943E-2    3.237447839178247E-2   -1.324529877801935E-2    3.244185727848537E-2   -4.919084523433698E-1   -1.428000039075891E-1
 6.501089753625000E9    -4.329138061700741E-1   -2.991258728060639E-1   -1.502421722201275E-2    3.253716415105645E-2   -1.322492263847225E-2    3.265408301575285E-2   -4.923315354744414E-1   -1.414575040333109E-1
 6.501102411000000E9    -4.334993987915375E-1   -2.982272729033326E-1   -1.500446229845771E-2    3.278129873348540E-2   -1.320132885541429E-2    3.289172050945843E-2   -4.926038780140499E-1   -1.402683641583514E-1
 6.501115068375000E9    -4.340219580017411E-1   -2.973733388078129E-1   -1.496105661749060E-2    3.302077008327337E-2   -1.315174519009549E-2    3.313543012100339E-2   -4.929456827254486E-1   -1.389509986265632E-1
 6.501127725750000E9    -4.346770865362628E-1   -2.964198569566589E-1   -1.493371723988852E-2    3.324628231854111E-2   -1.318229417247074E-2    3.325591415082507E-2   -4.932087054638101E-1   -1.377915336847074E-1
 6.501140383125000E9    -4.352428823759466E-1   -2.955803623134605E-1   -1.496225079198285E-2    3.341873933125594E-2   -1.311952316610288E-2    3.357211664702425E-2   -4.933544617682489E-1   -1.365664056975696E-1
 6.501153040500000E9    -4.357908500303551E-1   -2.947306228947812E-1   -1.501869274914555E-2    3.373426537522069E-2   -1.314550504246144E-2    3.369060751707671E-2   -4.935632759154735E-1   -1.352979328399526E-1
 6.501165697875000E9    -4.363428955064044E-1   -2.937541689204573E-1   -1.494461844507877E-2    3.389189132502531E-2   -1.307146215285382E-2    3.396413182963764E-2   -4.938940681904028E-1   -1.340781960334590E-1
 6.501178355250000E9    -4.369033497507560E-1   -2.928898029921295E-1   -1.502395070805720E-2    3.418326763713739E-2   -1.317054686950889E-2    3.415206392713468E-2   -4.941017659346560E-1   -1.328600849782754E-1
 6.501191012625000E9    -4.375909306536118E-1   -2.919196074117246E-1   -1.510988072528201E-2    3.430469698644785E-2   -1.306063752677287E-2    3.435544952366068E-2   -4.944073451300472E-1   -1.315672521910319E-1
 6.501203670000000E9    -4.380598633414060E-1   -2.910751697539161E-1   -1.502155398342639E-2    3.468945239738324E-2   -1.306493798673767E-2    3.456543895189906E-2   -4.946720804695471E-1   -1.302724421199757E-1
 6.501216327375000E9    -4.387857585580339E-1   -2.901835865748866E-1   -1.496870674333209E-2    3.477895756119608E-2   -1.308243319069712E-2    3.472956487548340E-2   -4.948139187334394E-1   -1.289689163489266E-1
 6.501228984750000E9    -4.391650533820651E-1   -2.892359972534110E-1   -1.510427053765368E-2    3.507861610129361E-2   -1.311316496544127E-2    3.502124496903512E-2   -4.952371950192443E-1   -1.277543995592588E-1
 6.501241642125000E9    -4.397920429419360E-1   -2.884030947100916E-1   -1.483093971241674E-2    3.534255288293505E-2   -1.297906918569930E-2    3.530866086517428E-2   -4.954535349881167E-1   -1.263343180795237E-1
 6.501254299500000E9    -4.403619323803101E-1   -2.875292108789534E-1   -1.492043195681884E-2    3.548581970269755E-2   -1.305426141693778E-2    3.546075883099991E-2   -4.955455406714386E-1   -1.252077300628628E-1
 6.501266956875000E9    -4.409194559373947E-1   -2.865441126928895E-1   -1.502363397095021E-2    3.577926782675966E-2   -1.308958168898051E-2    3.573537228759874E-2   -4.959326832766205E-1   -1.238555503174838E-1
 6.501279614250000E9    -4.414793632702990E-1   -2.856652537387692E-1   -1.492654923670805E-2    3.607210001644224E-2   -1.299498577767275E-2    3.596486019826869E-2   -4.961712105914025E-1   -1.224746312389356E-1
 6.501292271625000E9    -4.419330018813071E-1   -2.847169717830861E-1   -1.499305197639124E-2    3.619655623103393E-2   -1.300087996751411E-2    3.618924111853872E-2   -4.964416750803610E-1   -1.212533708482952E-1
 6.501304929000000E9    -4.426849208944685E-1   -2.837452616695051E-1   -1.498023583671981E-2    3.652070244362197E-2   -1.292207374290366E-2    3.653555828328354E-2   -4.966733365058180E-1   -1.199056354096230E-1
 6.501317586375000E9    -4.429698727419228E-1   -2.828606827232027E-1   -1.494302954899379E-2    3.671524554278442E-2   -1.297658995060851E-2    3.672160353171597E-2   -4.967158043508633E-1   -1.186468473612074E-1
 6.501330243750000E9    -4.437165293316021E-1   -2.819705246961529E-1   -1.488598505088383E-2    3.700588492277643E-2   -1.298273989167172E-2    3.694138260081011E-2   -4.970172281757022E-1   -1.172670947754340E-1
 6.501342901125000E9    -4.444132432274992E-1   -2.809203579173473E-1   -1.485084459564065E-2    3.719928772276738E-2   -1.294390794348869E-2    3.705346872622313E-2   -4.972333707125244E-1   -1.160580428149111E-1
 6.501355558500000E9    -4.447000925485046E-1   -2.801483547454892E-1   -1.505962838986922E-2    3.769227023312864E-2   -1.293314570975490E-2    3.750930198454380E-2   -4.973885915221037E-1   -1.145834198309852E-1
 6.501368215875000E9    -4.452124253288946E-1   -2.790971261868495E-1   -1.498894502396628E-2    3.769013895374972E-2   -1.291049670384082E-2    3.765325306721089E-2   -4.977176273882869E-1   -1.133896237749054E-1
 6.501380873250000E9    -4.458605797824987E-1   -2.781837572304013E-1   -1.492126094760200E-2    3.799289251490739E-2   -1.282394646156034E-2    3.792786095446476E-2   -4.978442654648338E-1   -1.119465328380442E-1
 6.501393530625000E9    -4.464435707842885E-1   -2.772600525467237E-1   -1.490066967698510E-2    3.828317534667328E-2   -1.285565808533156E-2    3.815276824981900E-2   -4.980550211923802E-1   -1.105709758843490E-1
 6.501406188000000E9    -4.469250129038725E-1   -2.763464935312652E-1   -1.483918116253173E-2    3.854282701986577E-2   -1.281735779255170E-2    3.846544786638631E-2   -4.982374403972395E-1   -1.092682509939175E-1
 6.501418845375000E9    -4.473832770477533E-1   -2.753032078710987E-1   -1.496452010124551E-2    3.883743564667377E-2   -1.271929120148711E-2    3.886030061919164E-2   -4.982945977428836E-1   -1.079238285139809E-1
 6.501431502750000E9    -4.480176318998114E-1   -2.744329415796548E-1   -1.491208773118165E-2    3.916886698783522E-2   -1.273182387612415E-2    3.894361984969408E-2   -4.986680763653144E-1   -1.064928700272796E-1
 6.501444160125000E9    -4.485781935762500E-1   -2.735086404444266E-1   -1.494918193724621E-2    3.945089065153815E-2   -1.279381737228135E-2    3.930400553930965E-2   -4.986460451146024E-1   -1.053272911389496E-1
 6.501456817500000E9    -4.491094762484037E-1   -2.726049711055386E-1   -1.481895180714192E-2    3.968440025540529E-2   -1.275278081011519E-2    3.957556635113423E-2   -4.990307492771947E-1   -1.039905065919101E-1
 6.501469474875000E9    -4.496156225838273E-1   -2.717354687801607E-1   -1.484282042303951E-2    4.007505523874244E-2   -1.278223078931735E-2    3.992842858027408E-2   -4.992124528937189E-1   -1.024392690032074E-1
 6.501482132250000E9    -4.502137032976731E-1   -2.705051151054436E-1   -1.482936069490308E-2    4.033777537657151E-2   -1.273188676752698E-2    4.004922977248682E-2   -4.992790150724681E-1   -1.009470367922031E-1
 6.501494789625000E9    -4.506256536897195E-1   -2.697021295271855E-1   -1.484091777771535E-2    4.058824183862939E-2   -1.269810737336410E-2    4.044426444807613E-2   -4.995985966684682E-1   -9.977577474048355E-2
 6.501507447000000E9    -4.512174787623653E-1   -2.687332598906353E-1   -1.474835559434828E-2    4.088951751452544E-2   -1.270618831978535E-2    4.069711461126022E-2   -4.997178236052088E-1   -9.831650574298503E-2
 6.501520104375000E9    -4.517891662204351E-1   -2.677363026793200E-1   -1.467631104347675E-2    4.117045978691442E-2   -1.261309370501966E-2    4.104268803212244E-2   -4.999188096766288E-1   -9.698845958040653E-2
 6.501532761750000E9    -4.523046443161186E-1   -2.667568862500245E-1   -1.487846121197395E-2    4.155123890796777E-2   -1.262570254687553E-2    4.126125477688063E-2   -5.000723306794249E-1   -9.540022287902092E-2
 6.501545419125000E9    -4.527930190536935E-1   -2.657110860340225E-1   -1.472292405415132E-2    4.178093626612293E-2   -1.255624623935994E-2    4.154493279416148E-2   -5.001813163618752E-1   -9.410884343631043E-2
 6.501558076500000E9    -4.532794285494752E-1   -2.649142974226713E-1   -1.477782811157359E-2    4.215537935089855E-2   -1.251715375423008E-2    4.182254991946818E-2   -5.003236124005216E-1   -9.264155604116761E-2
 6.501570733875000E9    -4.538696144621167E-1   -2.638804456979209E-1   -1.469739985987579E-2    4.235458115277745E-2   -1.256331716854737E-2    4.216665899895990E-2   -5.005683413174031E-1   -9.115965345320419E-2
 6.501583391250000E9    -4.544174931741174E-1   -2.628513328390124E-1   -1.474789923870659E-2    4.271934768076739E-2   -1.242721450707359E-2    4.249597001167257E-2   -5.005369675529024E-1   -8.971044001794456E-2
 6.501596048625000E9    -4.547826294865947E-1   -2.618863007916339E-1   -1.460402014190821E-2    4.295534212307375E-2   -1.249122920303664E-2    4.286615364493639E-2   -5.005878141345741E-1   -8.824747931583768E-2
 6.501608706000000E9    -4.553790277469845E-1   -2.609096693541455E-1   -1.463426213895262E-2    4.347656102945952E-2   -1.236222436127368E-2    4.318149196997164E-2   -5.007182054720848E-1   -8.690792812216129E-2
 6.501621363375000E9    -4.558356457133706E-1   -2.599304495762464E-1   -1.466930844387668E-2    4.372029395803159E-2   -1.240741393266437E-2    4.351192854939804E-2   -5.009658727055571E-1   -8.526519812626426E-2
 6.501634020750000E9    -4.563591933050080E-1   -2.589073782348415E-1   -1.462442566249269E-2    4.406994120227290E-2   -1.236202764974945E-2    4.372495235499367E-2   -5.011316207770300E-1   -8.388861643225726E-2
 6.501646678125000E9    -4.568616425520641E-1   -2.579776138258191E-1   -1.459340592539609E-2    4.457594202398780E-2   -1.237728396322267E-2    4.419111053772468E-2   -5.012589964543916E-1   -8.237459313944993E-2
 6.501659335500000E9    -4.573746331003798E-1   -2.568658072046041E-1   -1.473942936797480E-2    4.476693863955179E-2   -1.226998791868097E-2    4.447340063531853E-2   -5.013762275603902E-1   -8.083615051447328E-2
 6.501671992875000E9    -4.580044051143245E-1   -2.559725958759438E-1   -1.456430108317141E-2    4.508416647270393E-2   -1.217174390184863E-2    4.479491149231058E-2   -5.014381339211978E-1   -7.934241410444781E-2
 6.501684650250000E9    -4.584117830313708E-1   -2.548747410847828E-1   -1.457081435927573E-2    4.546058446469897E-2   -1.211718837997928E-2    4.512128439672046E-2   -5.017253179204822E-1   -7.788893310739504E-2
 6.501697307625000E9    -4.588725707782516E-1   -2.538321052103129E-1   -1.452605892303245E-2    4.586234647848882E-2   -1.207762956902729E-2    4.542288454203981E-2   -5.017664276383748E-1   -7.638872244455520E-2
 6.501709965000000E9    -4.593219594864243E-1   -2.529582487176678E-1   -1.442480209256932E-2    4.622266146637295E-2   -1.207939567856611E-2    4.582187852273442E-2   -5.017907355825988E-1   -7.480885177879380E-2
 6.501722622375000E9    -4.598888061704830E-1   -2.518764352515686E-1   -1.447376302600462E-2    4.657554628527298E-2   -1.201914198966663E-2    4.624287998757762E-2   -5.018111459451919E-1   -7.335423915018842E-2
 6.501735279750000E9    -4.603802145877317E-1   -2.508689674270483E-1   -1.440039459660285E-2    4.689645433199446E-2   -1.196197161304463E-2    4.654104673442348E-2   -5.019960188157500E-1   -7.180539445248821E-2
 6.501747937125000E9    -4.609064960127388E-1   -2.498007449222800E-1   -1.437934563933815E-2    4.738027234362369E-2   -1.198138654938965E-2    4.697776892489067E-2   -5.020112167744624E-1   -7.026181890786874E-2
 6.501760594500000E9    -4.613990660929675E-1   -2.487724817783276E-1   -1.427291093254671E-2    4.776467635907239E-2   -1.198549520382008E-2    4.731088551201429E-2   -5.021115452586349E-1   -6.864887959686750E-2
 6.501773251875000E9    -4.618523254567961E-1   -2.478824858356849E-1   -1.437978490995699E-2    4.806487734404685E-2   -1.185008767766148E-2    4.770492007795479E-2   -5.021074980552288E-1   -6.713763655560205E-2
 6.501785909250000E9    -4.623533090766946E-1   -2.466860965466758E-1   -1.423016162536781E-2    4.861057738966239E-2   -1.184587259480751E-2    4.816374819985645E-2   -5.020981423581170E-1   -6.554552048276259E-2
 6.501798566625000E9    -4.628876199009089E-1   -2.456543114698250E-1   -1.414442853651765E-2    4.903121888835783E-2   -1.174691051973495E-2    4.848477763426678E-2   -5.022556399629704E-1   -6.393613216878874E-2
 6.501811224000000E9    -4.632574429904891E-1   -2.446004058686991E-1   -1.430042255244173E-2    4.943253944809747E-2   -1.172934086771791E-2    4.892416361621054E-2   -5.024491457380180E-1   -6.223319933554443E-2
 6.501823881375000E9    -4.638556501481141E-1   -2.435781196773525E-1   -1.412457732620942E-2    4.987287135943214E-2   -1.171575408204276E-2    4.927384930203439E-2   -5.023582606509214E-1   -6.070400677006670E-2
 6.501836538750000E9    -4.643363573924139E-1   -2.425051626158314E-1   -1.419459547949975E-2    5.015005799805742E-2   -1.151980787420169E-2    4.972770459422849E-2   -5.023267457195933E-1   -5.913334391423439E-2
 6.501849196125000E9    -4.647035882751274E-1   -2.413359817882006E-1   -1.411632639894931E-2    5.062441519833941E-2   -1.150282266795451E-2    5.002621092920923E-2   -5.024278266861320E-1   -5.753014358451978E-2
 6.501861853500000E9    -4.652390665678585E-1   -2.404136334505628E-1   -1.395410538635233E-2    5.111365062268009E-2   -1.149795845433093E-2    5.051419898829245E-2   -5.024338167901561E-1   -5.591865085278443E-2
 6.501874510875000E9    -4.656947929315995E-1   -2.393401992468972E-1   -1.406726415775222E-2    5.163170863608421E-2   -1.133140684964999E-2    5.105956419760486E-2   -5.025434514034846E-1   -5.421032822861618E-2
 6.501887168250000E9    -4.662185693070738E-1   -2.382453083072436E-1   -1.385333883324893E-2    5.199079492370300E-2   -1.142096181888864E-2    5.138874580051210E-2   -5.024897910865370E-1   -5.263143805604532E-2
 6.501899825625000E9    -4.666771460283135E-1   -2.372734180843375E-1   -1.381537637205326E-2    5.249670816257326E-2   -1.125500362408376E-2    5.180865986638426E-2   -5.025098488258214E-1   -5.094591286977523E-2
 6.501912483000000E9    -4.672323688472735E-1   -2.361042196277792E-1   -1.367869935732512E-2    5.284911722395653E-2   -1.119931102654592E-2    5.224482269758390E-2   -5.024717208548256E-1   -4.916133187300444E-2
 6.501925140375000E9    -4.676380163890590E-1   -2.349561778476107E-1   -1.373209603605534E-2    5.354673640425638E-2   -1.114269349044370E-2    5.276918918584383E-2   -5.023468728448247E-1   -4.758164725020229E-2
 6.501937797750000E9    -4.680598947548116E-1   -2.339475595540957E-1   -1.372805385840319E-2    5.389084168926676E-2   -1.090862495827768E-2    5.323960137834746E-2   -5.024619636828976E-1   -4.588145529881235E-2
 6.501950455125000E9    -4.685044712616499E-1   -2.329732991437484E-1   -1.354602630247463E-2    5.433203217841698E-2   -1.100590604276278E-2    5.376855130452740E-2   -5.024072944163639E-1   -4.402942549982055E-2
 6.501963112500000E9    -4.690415588233854E-1   -2.317525689256427E-1   -1.352795131901196E-2    5.481209236976696E-2   -1.085552602378728E-2    5.423775795068136E-2   -5.024063454729751E-1   -4.233178766007885E-2
 6.501975769875000E9    -4.693848398989058E-1   -2.307197748440520E-1   -1.352435504308727E-2    5.529730049471702E-2   -1.077657257881428E-2    5.471549771364664E-2   -5.023236350371821E-1   -4.058460907247736E-2
 6.501988427250000E9    -4.699451261680990E-1   -2.296072068442203E-1   -1.345848725549154E-2    5.600945146789299E-2   -1.065648709157298E-2    5.509523640648896E-2   -5.022956480515589E-1   -3.887147781880818E-2
 6.502001084625000E9    -4.703065070169408E-1   -2.284912560758202E-1   -1.327553707584799E-2    5.627674987682200E-2   -1.063633612360517E-2    5.567659195562801E-2   -5.022041023616981E-1   -3.703562183511773E-2
 6.502013742000000E9    -4.707392790474269E-1   -2.274521662987600E-1   -1.331734927372949E-2    5.683042675482993E-2   -1.050633175873014E-2    5.617712948818554E-2   -5.021073226649644E-1   -3.524583024669968E-2
 6.502026399375000E9    -4.712349211081611E-1   -2.262442042089656E-1   -1.315594582296452E-2    5.754343900426120E-2   -1.041991004297771E-2    5.671596501233268E-2   -5.019723055713521E-1   -3.348786375006098E-2
 6.502039056750000E9    -4.716741606119226E-1   -2.250698453544672E-1   -1.318115267436222E-2    5.798201408103029E-2   -1.030397266039832E-2    5.723208268949899E-2   -5.018884504419998E-1   -3.171605299776449E-2
