#  HZ   S   RI   R     50.00 
! Rohde & Schwarz Vector Network Analyzer 
! Rohde-Schwarz,ZNB20-2Port,1311601062101988,3.16
! Created: UTC 3/20/2024, 11:56:16 AM
! freq[Hz]                re:S11                  im:S11                  re:S21                  im:S21                  re:S12                  im:S12                  re:S22                  im:S22
 6.500902400000000E9    -4.242539858080945E-1   -3.119934298127501E-1   -1.497242996261357E-2    2.977019884588305E-2   -1.327405314469375E-2    2.980115670578004E-2   -4.880443797346475E-1   -1.593194884281179E-1
 6.500915052625000E9    -4.248749190119848E-1   -3.111490955682720E-1   -1.493286194272780E-2    2.981811890510894E-2   -1.321775330834434E-2    3.003663561860278E-2   -4.881202568161568E-1   -1.580544459924265E-1
 6.500927705250000E9    -4.255451242491234E-1   -3.103280957963829E-1   -1.488206755852062E-2    3.006870915476151E-2   -1.331583312855930E-2    3.026583965364395E-2   -4.887921375785104E-1   -1.570554020084338E-1
 6.500940357875000E9    -4.260199186100397E-1   -3.093741902997636E-1   -1.490310164652764E-2    3.048808970576438E-2   -1.317784117401906E-2    3.038875884494408E-2   -4.889975552730600E-1   -1.557853801170037E-1
 6.500953010500000E9    -4.266224128997613E-1   -3.086020871071968E-1   -1.494169698598849E-2    3.052366147621259E-2   -1.319206326840628E-2    3.055792933675386E-2   -4.892335327526849E-1   -1.546947889432404E-1
 6.500965663125000E9    -4.272332889955204E-1   -3.077762955085223E-1   -1.496441963226266E-2    3.058802940755109E-2   -1.325720467742812E-2    3.074635719648487E-2   -4.895457128255619E-1   -1.533202506958470E-1
 6.500978315750000E9    -4.277794245488453E-1   -3.069505850366127E-1   -1.487112839548169E-2    3.085106698428676E-2   -1.318265868075231E-2    3.091540494359351E-2   -4.898373112770029E-1   -1.523212617183312E-1
 6.500990968375000E9    -4.282908725805833E-1   -3.060098030545892E-1   -1.480915142439303E-2    3.105021988965561E-2   -1.314958676152116E-2    3.121972241235514E-2   -4.901016579822156E-1   -1.509663378945716E-1
 6.501003621000000E9    -4.290184422210120E-1   -3.050739663945847E-1   -1.502363263102884E-2    3.111753467095544E-2   -1.323123114871111E-2    3.125943743167100E-2   -4.903897119163718E-1   -1.499809853830609E-1
 6.501016273625000E9    -4.295439597288441E-1   -3.042287052663984E-1   -1.511021529501763E-2    3.143458382380260E-2   -1.319472573203684E-2    3.143587871726574E-2   -4.906469184404252E-1   -1.485771760100426E-1
 6.501028926250000E9    -4.300533289981762E-1   -3.033322933614199E-1   -1.496543512630867E-2    3.159053323802096E-2   -1.309040897425979E-2    3.170966501681274E-2   -4.907402947542686E-1   -1.475007710965969E-1
 6.501041578875000E9    -4.307571745575473E-1   -3.025383309106723E-1   -1.501096963986895E-2    3.182292451541661E-2   -1.314640877273779E-2    3.182022989879110E-2   -4.913687251272688E-1   -1.462322545506290E-1
 6.501054231500000E9    -4.313094801598705E-1   -3.016466406206652E-1   -1.493254304662481E-2    3.204536194814644E-2   -1.319111914032138E-2    3.211135856084651E-2   -4.915861401876330E-1   -1.451010103725601E-1
 6.501066884125000E9    -4.318854604826317E-1   -3.006682268252902E-1   -1.510371235617365E-2    3.209374702097806E-2   -1.316628395547302E-2    3.239863242760963E-2   -4.918541435246979E-1   -1.437280999613113E-1
 6.501079536750000E9    -4.325002454009931E-1   -2.998558840201456E-1   -1.503166322236846E-2    3.239290751309985E-2   -1.316733057453837E-2    3.251318407312812E-2   -4.920661679444401E-1   -1.425065338434625E-1
 6.501092189375000E9    -4.330125570170629E-1   -2.989998066204316E-1   -1.498542782885132E-2    3.251102561155313E-2   -1.315361954548923E-2    3.268530982892624E-2   -4.924364952302789E-1   -1.412575534250400E-1
 6.501104842000000E9    -4.334783673476281E-1   -2.980677582139011E-1   -1.496440865795708E-2    3.278138258965421E-2   -1.322072344686280E-2    3.290375029417092E-2   -4.925882698017851E-1   -1.400488753558082E-1
 6.501117494625000E9    -4.342622872395829E-1   -2.971897059547026E-1   -1.494785679321781E-2    3.305752671076842E-2   -1.317180960678720E-2    3.304409974353786E-2   -4.927379490731256E-1   -1.388459060749220E-1
 6.501130147250000E9    -4.347637866408399E-1   -2.963569895400805E-1   -1.495564570354848E-2    3.344397818748093E-2   -1.319120884385499E-2    3.331463626644646E-2   -4.932794409045403E-1   -1.376204970929051E-1
 6.501142799875000E9    -4.353121085014753E-1   -2.954207454454306E-1   -1.499737871938480E-2    3.350327893551978E-2   -1.314794016099793E-2    3.359427887653212E-2   -4.934795729127732E-1   -1.363085695954364E-1
 6.501155452500000E9    -4.359299016402833E-1   -2.945608611776186E-1   -1.497035526484015E-2    3.366088650373218E-2   -1.316811948228588E-2    3.368018286167322E-2   -4.937075991349257E-1   -1.351069952629753E-1
 6.501168105125000E9    -4.364554892527903E-1   -2.937017538103777E-1   -1.502335003327344E-2    3.391886413529386E-2   -1.312204260149959E-2    3.402821351469461E-2   -4.938974248121428E-1   -1.339755317445885E-1
 6.501180757750000E9    -4.371308020080111E-1   -2.927696843821040E-1   -1.494984358751196E-2    3.421796458644343E-2   -1.311831976976635E-2    3.416000639242270E-2   -4.943372114064156E-1   -1.325645887525844E-1
 6.501193410375000E9    -4.376422603320373E-1   -2.918227925074781E-1   -1.494588401692551E-2    3.435455800811577E-2   -1.297463942999118E-2    3.435513793652764E-2   -4.944192751291853E-1   -1.313245100872687E-1
 6.501206063000000E9    -4.381234402828606E-1   -2.910062772049180E-1   -1.499829537158318E-2    3.447687939140736E-2   -1.306874591900851E-2    3.458229604885900E-2   -4.947652615506353E-1   -1.300053938313098E-1
 6.501218715625000E9    -4.386822926243258E-1   -2.900342504937268E-1   -1.509041021913617E-2    3.476607759880145E-2   -1.312372523258533E-2    3.479353125938892E-2   -4.949589717688720E-1   -1.287141763494593E-1
 6.501231368250000E9    -4.393429491103650E-1   -2.890902519082470E-1   -1.503084623282920E-2    3.518607054515416E-2   -1.300395276834740E-2    3.513338918005903E-2   -4.951737718481752E-1   -1.274786521537768E-1
 6.501244020875000E9    -4.398686368802427E-1   -2.881631733551310E-1   -1.503970100674180E-2    3.536309076194008E-2   -1.308445788045297E-2    3.527204015521654E-2   -4.954550856999526E-1   -1.262736864404590E-1
 6.501256673500000E9    -4.404568494934653E-1   -2.872863710519501E-1   -1.488572628032007E-2    3.546928841095649E-2   -1.295340187395553E-2    3.552197019196725E-2   -4.958107759556274E-1   -1.250095252336774E-1
 6.501269326125000E9    -4.409963075653882E-1   -2.863446642663204E-1   -1.501284993246140E-2    3.582935193983781E-2   -1.295628837708587E-2    3.566595415365704E-2   -4.958858212292729E-1   -1.236897130288137E-1
 6.501281978750000E9    -4.415296897155200E-1   -2.855049569907370E-1   -1.492376193213646E-2    3.602861931234669E-2   -1.292435602651966E-2    3.596756513108620E-2   -4.961183249780490E-1   -1.224148058533980E-1
 6.501294631375000E9    -4.422152888733651E-1   -2.845354781841468E-1   -1.499414378587079E-2    3.635298890600058E-2   -1.308001864406083E-2    3.628303669909651E-2   -4.962319908719756E-1   -1.211221498738433E-1
 6.501307284000000E9    -4.426909905965095E-1   -2.835860053253082E-1   -1.498141525216409E-2    3.644785360527646E-2   -1.296125213733416E-2    3.650671246083747E-2   -4.965949072953863E-1   -1.197025373137178E-1
 6.501319936625000E9    -4.432916810476760E-1   -2.827072967107326E-1   -1.495307057290409E-2    3.682881518335606E-2   -1.287720868689709E-2    3.663657934545873E-2   -4.967505716074361E-1   -1.184783587339734E-1
 6.501332589250000E9    -4.438316496387507E-1   -2.817942325868288E-1   -1.505076332947924E-2    3.700410290153092E-2   -1.296528946768425E-2    3.691814972919410E-2   -4.970597747756546E-1   -1.170461702056471E-1
 6.501345241875000E9    -4.443796719652121E-1   -2.809417980167189E-1   -1.494181769702847E-2    3.715278283065502E-2   -1.294867700901122E-2    3.707838414241546E-2   -4.973682386866199E-1   -1.158032190733816E-1
 6.501357894500000E9    -4.449136743227327E-1   -2.800012984136782E-1   -1.498753368738021E-2    3.757666711949797E-2   -1.286545025582107E-2    3.749991224905858E-2   -4.975392199106394E-1   -1.144019862462635E-1
 6.501370547125000E9    -4.452925962526298E-1   -2.789695663706062E-1   -1.493310406963108E-2    3.759025043948498E-2   -1.293285637487497E-2    3.771039009412266E-2   -4.977582611569203E-1   -1.132088056226828E-1
 6.501383199750000E9    -4.460146330271345E-1   -2.780662103285120E-1   -1.493819519087938E-2    3.800859023266132E-2   -1.286293558291987E-2    3.793139288571027E-2   -4.977824601347957E-1   -1.118014908187979E-1
 6.501395852375000E9    -4.465030062062630E-1   -2.771871092752243E-1   -1.479908207923062E-2    3.838638072759889E-2   -1.286601943028461E-2    3.827788014461694E-2   -4.980915518458722E-1   -1.104825939922121E-1
 6.501408505000000E9    -4.470936717936980E-1   -2.761375653602710E-1   -1.494286111268378E-2    3.850940995144948E-2   -1.282086243543984E-2    3.850291350582807E-2   -4.983043854436757E-1   -1.091084936831093E-1
 6.501421157625000E9    -4.475528572232977E-1   -2.752797958677247E-1   -1.481423593312098E-2    3.879979630232335E-2   -1.285744401388580E-2    3.876107625200050E-2   -4.983312801480640E-1   -1.076846974065800E-1
 6.501433810250000E9    -4.480175003848029E-1   -2.742463584476629E-1   -1.478691477987512E-2    3.905486439883696E-2   -1.268246962998714E-2    3.901561272165048E-2   -4.987305887173877E-1   -1.063555651792102E-1
 6.501446462875000E9    -4.486598080445527E-1   -2.734327198225350E-1   -1.490732397733119E-2    3.953405750187997E-2   -1.279006456730629E-2    3.924285145964605E-2   -4.986556779639864E-1   -1.049397680654511E-1
 6.501459115500000E9    -4.491704879624477E-1   -2.723544694224299E-1   -1.487188523516070E-2    3.981481424366867E-2   -1.273655483917386E-2    3.962761017234427E-2   -4.991229121927355E-1   -1.036399814908355E-1
 6.501471768125000E9    -4.496818172201420E-1   -2.714382318734270E-1   -1.486876692463884E-2    3.991674644322993E-2   -1.274265694146976E-2    3.990219583585617E-2   -4.993038628289108E-1   -1.023017970746065E-1
 6.501484420750000E9    -4.503297476528481E-1   -2.704975963954582E-1   -1.477715007940150E-2    4.030399218286926E-2   -1.267353711295807E-2    4.020796153794844E-2   -4.993322440592281E-1   -1.008800822534532E-1
 6.501497073375000E9    -4.507521319315107E-1   -2.694860267318540E-1   -1.480033881243975E-2    4.069495474236555E-2   -1.274422298373800E-2    4.041481207152049E-2   -4.995687813429047E-1   -9.950564445787485E-2
 6.501509726000000E9    -4.513150734192753E-1   -2.685770920157344E-1   -1.476459431866820E-2    4.087851820668856E-2   -1.262577507020990E-2    4.074513508634383E-2   -4.997044218054573E-1   -9.801852885375462E-2
 6.501522378625000E9    -4.518620004360722E-1   -2.675925686335083E-1   -1.478096151106078E-2    4.111772092984723E-2   -1.255783927048968E-2    4.097666941748491E-2   -4.998042231612106E-1   -9.669312152198875E-2
 6.501535031250000E9    -4.523527786884686E-1   -2.666559589755126E-1   -1.483316524453621E-2    4.137209434969087E-2   -1.258246225502433E-2    4.138347834080791E-2   -4.999268970757101E-1   -9.506012168009847E-2
 6.501547683875000E9    -4.528938400587382E-1   -2.656814006814337E-1   -1.482108839776096E-2    4.174663476883570E-2   -1.249635924045096E-2    4.159419544758209E-2   -5.002033820217716E-1   -9.384471854644987E-2
 6.501560336500000E9    -4.534548324523949E-1   -2.647036303286721E-1   -1.474602318063382E-2    4.217022879402895E-2   -1.248219205840653E-2    4.188734511221411E-2   -5.003224642896110E-1   -9.237113673703778E-2
 6.501572989125000E9    -4.538534584448995E-1   -2.637096686628318E-1   -1.466521652354572E-2    4.237798500923459E-2   -1.248874535840792E-2    4.221616845221287E-2   -5.005728117722943E-1   -9.093997879806019E-2
 6.501585641750000E9    -4.543586607048980E-1   -2.628266035068892E-1   -1.467567093164645E-2    4.277929142196638E-2   -1.249135708371871E-2    4.250773499170229E-2   -5.006339262042804E-1   -8.948785958927045E-2
 6.501598294375000E9    -4.548963593392549E-1   -2.618001514500753E-1   -1.461044996697580E-2    4.310634607190518E-2   -1.248831497896049E-2    4.292324991922720E-2   -5.007746193267134E-1   -8.821358490466454E-2
 6.501610947000000E9    -4.555240762634092E-1   -2.608093572914871E-1   -1.462188452468612E-2    4.350696699550911E-2   -1.239745841081427E-2    4.308489361702886E-2   -5.009570044139857E-1   -8.664362765123217E-2
 6.501623599625000E9    -4.560502035493832E-1   -2.598137849498532E-1   -1.467418178101181E-2    4.376581129621418E-2   -1.240897867165017E-2    4.358154182244420E-2   -5.009461497251215E-1   -8.521643157938856E-2
 6.501636252250000E9    -4.564149097595334E-1   -2.588344647251865E-1   -1.464915882145332E-2    4.396274094153913E-2   -1.223076503034265E-2    4.385658402066175E-2   -5.011570015662689E-1   -8.372215120690547E-2
 6.501648904875000E9    -4.569974633756703E-1   -2.577491408593768E-1   -1.452334747177188E-2    4.425429305035612E-2   -1.228320267205592E-2    4.413146390244493E-2   -5.012331782746290E-1   -8.221174781404553E-2
 6.501661557500000E9    -4.575073932733898E-1   -2.568189730275193E-1   -1.457500868849025E-2    4.478986414843159E-2   -1.226942799493525E-2    4.451357573675394E-2   -5.013993651337469E-1   -8.075911215027380E-2
 6.501674210125000E9    -4.579812335161123E-1   -2.556970729363608E-1   -1.458579060080138E-2    4.522186033781197E-2   -1.222759615159254E-2    4.489416628278355E-2   -5.013918080783341E-1   -7.923554022526512E-2
 6.501686862750000E9    -4.584047752304823E-1   -2.548463787341823E-1   -1.436631167529821E-2    4.544890599025308E-2   -1.218786082230634E-2    4.514735186261336E-2   -5.016207716045450E-1   -7.774245907849284E-2
 6.501699515375000E9    -4.589984429446004E-1   -2.537316368335187E-1   -1.456503385010969E-2    4.587707097109082E-2   -1.222305417405464E-2    4.553304263472752E-2   -5.017560487660860E-1   -7.636868935128742E-2
 6.501712168000000E9    -4.595745936717234E-1   -2.527434398203733E-1   -1.440274226529305E-2    4.634018140501534E-2   -1.202336502473423E-2    4.580467245520007E-2   -5.018189895198304E-1   -7.457400601539091E-2
 6.501724820625000E9    -4.599701175672297E-1   -2.517327877673746E-1   -1.440909477732084E-2    4.668114425439004E-2   -1.205357417046167E-2    4.619221301105973E-2   -5.019451092908509E-1   -7.309280705796362E-2
 6.501737473250000E9    -4.604448987239501E-1   -2.506356514874432E-1   -1.451313249385113E-2    4.698243169050253E-2   -1.199209798997510E-2    4.663241473788438E-2   -5.019815704353412E-1   -7.167835612807419E-2
 6.501750125875000E9    -4.608562175259867E-1   -2.496837328258796E-1   -1.421440007325578E-2    4.731224322281759E-2   -1.205125760196846E-2    4.698550068352970E-2   -5.019756654103793E-1   -7.012467365560474E-2
 6.501762778500000E9    -4.614998045691390E-1   -2.486075401249904E-1   -1.432364738677832E-2    4.778955296445598E-2   -1.194832457292538E-2    4.742093916536558E-2   -5.021021221009480E-1   -6.847933058901724E-2
 6.501775431125000E9    -4.619889284683273E-1   -2.477087332065465E-1   -1.433908933509657E-2    4.814801000587886E-2   -1.193748890008457E-2    4.775722983339378E-2   -5.021744756604609E-1   -6.694181497126472E-2
 6.501788083750000E9    -4.623782195757884E-1   -2.466283269189564E-1   -1.414561943234189E-2    4.855206561856203E-2   -1.169735871238718E-2    4.811592158640916E-2   -5.022832567075128E-1   -6.534741436928992E-2
 6.501800736375000E9    -4.629664429678332E-1   -2.455081811025252E-1   -1.427626975869109E-2    4.908114610615902E-2   -1.178408580278362E-2    4.860826445158723E-2   -5.023430053964471E-1   -6.365315374784207E-2
 6.501813389000000E9    -4.634131013324563E-1   -2.445321558817010E-1   -1.417001386268783E-2    4.943216936782680E-2   -1.171337254033226E-2    4.888600020304736E-2   -5.024091966025860E-1   -6.232568541731723E-2
 6.501826041625000E9    -4.638757006975563E-1   -2.434633328004173E-1   -1.411790226373669E-2    4.974076265855242E-2   -1.162083997484534E-2    4.936218740413404E-2   -5.025118036405753E-1   -6.062956611874381E-2
 6.501838694250000E9    -4.644105910095380E-1   -2.423930754988521E-1   -1.406954682947310E-2    5.021782158897492E-2   -1.163835157097967E-2    4.979814391156251E-2   -5.024164420880810E-1   -5.896258531874599E-2
 6.501851346875000E9    -4.648803108457254E-1   -2.414163435989313E-1   -1.409818182249639E-2    5.079721337518672E-2   -1.152583068458350E-2    5.025052701463133E-2   -5.024715747100024E-1   -5.726337242079847E-2
 6.501863999500000E9    -4.653049824031178E-1   -2.403421176149618E-1   -1.405800487930647E-2    5.110507004920287E-2   -1.147917310436830E-2    5.064906634860731E-2   -5.025742526067957E-1   -5.574600765849756E-2
 6.501876652125000E9    -4.658233836125706E-1   -2.391791402272367E-1   -1.396087808380862E-2    5.152905558964896E-2   -1.143616347910519E-2    5.101042471773655E-2   -5.024927372599052E-1   -5.414871528520678E-2
 6.501889304750000E9    -4.662075267133198E-1   -2.381770462963199E-1   -1.391816664318200E-2    5.197877534850018E-2   -1.136930036319322E-2    5.140933419870451E-2   -5.026256247701255E-1   -5.240226371689365E-2
 6.501901957375000E9    -4.667176200505932E-1   -2.370805196338442E-1   -1.387316769831007E-2    5.244285821126310E-2   -1.125668643386302E-2    5.181667335930254E-2   -5.024438987299167E-1   -5.077148577439369E-2
 6.501914610000000E9    -4.672600995513119E-1   -2.359692737763432E-1   -1.375532343792536E-2    5.286407337122364E-2   -1.125653287918202E-2    5.234472326922638E-2   -5.025305476551422E-1   -4.898986842797696E-2
 6.501927262625000E9    -4.676891650327675E-1   -2.348639560746428E-1   -1.368732266873143E-2    5.342876192755461E-2   -1.106801928171943E-2    5.279592898650409E-2   -5.024505811316995E-1   -4.732227274686009E-2
 6.501939915250000E9    -4.679945563981397E-1   -2.338871145409057E-1   -1.370479916810316E-2    5.378113951372664E-2   -1.097430107063622E-2    5.330027933829600E-2   -5.024988123217087E-1   -4.558524720187497E-2
 6.501952567875000E9    -4.685261055539781E-1   -2.327767680020042E-1   -1.365963885283593E-2    5.427408161229872E-2   -1.097178727924927E-2    5.372558862999050E-2   -5.024491389491255E-1   -4.393758138566686E-2
 6.501965220500000E9    -4.690026082436870E-1   -2.316123708337268E-1   -1.352769863242114E-2    5.474871111708472E-2   -1.089667265801669E-2    5.424482377459253E-2   -5.023216652022757E-1   -4.221766067217931E-2
 6.501977873125000E9    -4.695002216919442E-1   -2.306012419037170E-1   -1.357432643651067E-2    5.525650873975069E-2   -1.077573212658247E-2    5.461704126175423E-2   -5.024172187723939E-1   -4.034109006817211E-2
 6.501990525750000E9    -4.699682557438707E-1   -2.293695033084215E-1   -1.337838623904769E-2    5.602749431205360E-2   -1.068866954091684E-2    5.521340998972726E-2   -5.022316350773440E-1   -3.864140960384331E-2
 6.502003178375000E9    -4.704233573370677E-1   -2.284141121943453E-1   -1.317498892962008E-2    5.645383532803277E-2   -1.061636380241348E-2    5.568069220198531E-2   -5.021641969588002E-1   -3.678663679171305E-2
 6.502015831000000E9    -4.709294242180100E-1   -2.271802360004768E-1   -1.322509668229783E-2    5.692600468840851E-2   -1.057564452104907E-2    5.618569605486153E-2   -5.022026224885788E-1   -3.514019088977910E-2
 6.502028483625000E9    -4.712750522732061E-1   -2.260578976015074E-1   -1.318200415880751E-2    5.744108601963137E-2   -1.027857630434006E-2    5.667288742034975E-2   -5.020422198367028E-1   -3.339563641371438E-2
 6.502041136250000E9    -4.717570277363810E-1   -2.250013849832411E-1   -1.305068737899361E-2    5.791508053684547E-2   -1.035997462622536E-2    5.726126302053417E-2   -5.019184841164406E-1   -3.139882608382014E-2
