#  HZ   S   RI   R     50.00 
! Rohde & Schwarz Vector Network Analyzer 
! Rohde-Schwarz,ZNB20-2Port,1311601062101988,3.16
! Created: UTC 3/20/2024, 11:56:19 AM
! freq[Hz]                re:S11                  im:S11                  re:S21                  im:S21                  re:S12                  im:S12                  re:S22                  im:S22
 6.500904828000000E9    -4.244549336255421E-1   -3.119612592015885E-1   -1.496223288178714E-2    2.972715026596547E-2   -1.330638044758743E-2    2.979429159415128E-2   -4.880438565901811E-1   -1.592596428744338E-1
 6.500917471675000E9    -4.250034121351030E-1   -3.110050874345897E-1   -1.503967288179436E-2    2.979550157651240E-2   -1.331889593110178E-2    3.010789436622772E-2   -4.884244890425337E-1   -1.580405995163763E-1
 6.500930115350000E9    -4.255233307029151E-1   -3.101702929612655E-1   -1.506205988279138E-2    3.013269080582624E-2   -1.315840161312437E-2    3.016251350987549E-2   -4.888307410527701E-1   -1.568053600523686E-1
 6.500942759025000E9    -4.260892750326886E-1   -3.094202974869114E-1   -1.499339996557207E-2    3.021254885837808E-2   -1.314528400034707E-2    3.044705989023612E-2   -4.889096151757857E-1   -1.555859474084603E-1
 6.500955402700000E9    -4.267853213830468E-1   -3.085371961419295E-1   -1.498747657815077E-2    3.049455147816781E-2   -1.320500722607607E-2    3.053063298383677E-2   -4.893929633882451E-1   -1.543634804379910E-1
 6.500968046375000E9    -4.272330678459351E-1   -3.075311716457236E-1   -1.489666540410205E-2    3.061406058992904E-2   -1.320348603519392E-2    3.082213773872345E-2   -4.896270432599303E-1   -1.532337109488783E-1
 6.500980690050000E9    -4.279243036508188E-1   -3.066714081474675E-1   -1.507138991508080E-2    3.091644872573217E-2   -1.311189852769229E-2    3.100950403269864E-2   -4.898888689021600E-1   -1.521611445450251E-1
 6.500993333725000E9    -4.284424883230324E-1   -3.058195161314278E-1   -1.496040707113084E-2    3.101603325022780E-2   -1.326782310573004E-2    3.117246752784925E-2   -4.901727882260012E-1   -1.507560423133599E-1
 6.501005977400000E9    -4.291572549396310E-1   -3.049164814542831E-1   -1.485980367725497E-2    3.119636667959828E-2   -1.335301198080500E-2    3.134024934686099E-2   -4.904712169104284E-1   -1.496508845788452E-1
 6.501018621075000E9    -4.295789706795340E-1   -3.040815768098857E-1   -1.494913071111204E-2    3.140210095861724E-2   -1.326530724214046E-2    3.157987764067485E-2   -4.908329163292816E-1   -1.483979528457793E-1
 6.501031264750000E9    -4.302471717779143E-1   -3.031595988670682E-1   -1.487718803148843E-2    3.153795715657979E-2   -1.313262359162938E-2    3.168167998171124E-2   -4.909869499934072E-1   -1.471673633213915E-1
 6.501043908425000E9    -4.308521082528020E-1   -3.024678464424333E-1   -1.510188505892437E-2    3.178203826475601E-2   -1.318433395525314E-2    3.199933402202412E-2   -4.913812564905429E-1   -1.460040979605824E-1
 6.501056552100000E9    -4.313758207900896E-1   -3.015045130987781E-1   -1.504706601068007E-2    3.203198311210806E-2   -1.321950358274679E-2    3.211234837392842E-2   -4.917343343033982E-1   -1.447798908880967E-1
 6.501069195775000E9    -4.320334524149775E-1   -3.006110489620834E-1   -1.494817175795145E-2    3.236927901356686E-2   -1.314280217774309E-2    3.230242634054578E-2   -4.919546219828528E-1   -1.436676653329143E-1
 6.501081839450000E9    -4.324977818410472E-1   -2.997876646230876E-1   -1.497313703142288E-2    3.256264370433835E-2   -1.322273202174989E-2    3.254119456043256E-2   -4.921522890493761E-1   -1.423011958673296E-1
 6.501094483125000E9    -4.331604667847296E-1   -2.988582019723429E-1   -1.494177200658524E-2    3.282173596089225E-2   -1.321897294032150E-2    3.270084215966879E-2   -4.923684740481301E-1   -1.412576216851965E-1
 6.501107126800000E9    -4.337871758236214E-1   -2.979514007253418E-1   -1.488519572297020E-2    3.297298076247642E-2   -1.310938807153733E-2    3.291442018853079E-2   -4.926660391872066E-1   -1.400376935094108E-1
 6.501119770475000E9    -4.342735647336530E-1   -2.970611341785667E-1   -1.486490560085588E-2    3.300874024423597E-2   -1.315550105710586E-2    3.317619317431996E-2   -4.929978161572685E-1   -1.386469706509187E-1
 6.501132414150000E9    -4.349136607770278E-1   -2.961927879386190E-1   -1.488233811807283E-2    3.344637073697619E-2   -1.306567671861864E-2    3.335387900006173E-2   -4.931406518021692E-1   -1.375061132281557E-1
 6.501145057825000E9    -4.354447600227191E-1   -2.953392766803365E-1   -1.500050049464992E-2    3.354637801820731E-2   -1.311504921562559E-2    3.353583745477234E-2   -4.934978178030792E-1   -1.361657719645143E-1
 6.501157701500000E9    -4.360021764786106E-1   -2.944094760355020E-1   -1.501769391586973E-2    3.378874808164179E-2   -1.311880811985384E-2    3.373736997989127E-2   -4.937710738394710E-1   -1.349038410028098E-1
 6.501170345175000E9    -4.366123579551574E-1   -2.935673858622658E-1   -1.496924048956116E-2    3.396100359170539E-2   -1.311904901292772E-2    3.400031839264327E-2   -4.939673746221470E-1   -1.337542504853543E-1
 6.501182988850000E9    -4.371200798606467E-1   -2.925927923175470E-1   -1.499830532553750E-2    3.426545558446598E-2   -1.303966030695260E-2    3.420067602541200E-2   -4.942235999634975E-1   -1.324906958010277E-1
 6.501195632525000E9    -4.376804327326603E-1   -2.917165692627164E-1   -1.507744562850748E-2    3.430841060996846E-2   -1.308535693699345E-2    3.446744685697379E-2   -4.944457874352619E-1   -1.310802176885456E-1
 6.501208276200000E9    -4.383289583277187E-1   -2.908238163411684E-1   -1.496760040518404E-2    3.454786823083619E-2   -1.310930921229177E-2    3.462040114083514E-2   -4.947882108829021E-1   -1.300154062219474E-1
 6.501220919875000E9    -4.389922688713107E-1   -2.898931195274426E-1   -1.502094550212543E-2    3.497927319032138E-2   -1.303954805888522E-2    3.489387725964066E-2   -4.950202098396617E-1   -1.286204572188008E-1
 6.501233563550000E9    -4.394136369648854E-1   -2.890525135156949E-1   -1.506987812278273E-2    3.507666097144460E-2   -1.305985741152978E-2    3.502204055472790E-2   -4.952799964640779E-1   -1.275369654491662E-1
 6.501246207225000E9    -4.399429069360815E-1   -2.880241099711461E-1   -1.488351811916984E-2    3.538505635312519E-2   -1.307367494350810E-2    3.535059777647045E-2   -4.955671728692015E-1   -1.259467020893199E-1
 6.501258850900000E9    -4.406116002582052E-1   -2.872428644339782E-1   -1.497003965375487E-2    3.556475150946489E-2   -1.295687818422455E-2    3.553268605993601E-2   -4.958337771555521E-1   -1.248144624538818E-1
 6.501271494575000E9    -4.409999071001252E-1   -2.862948308148694E-1   -1.496203427202984E-2    3.579125194253980E-2   -1.303452126725929E-2    3.575710061986675E-2   -4.958510248392046E-1   -1.234357018767860E-1
 6.501284138250000E9    -4.416551958312397E-1   -2.852916518064121E-1   -1.503928919269827E-2    3.604955322752692E-2   -1.300702480607993E-2    3.603110057550352E-2   -4.962678179211024E-1   -1.221917585434834E-1
 6.501296781925000E9    -4.422579860993806E-1   -2.845864333307204E-1   -1.494849370055907E-2    3.631867388595988E-2   -1.304122995702446E-2    3.631131576510700E-2   -4.964335943470082E-1   -1.208039457286667E-1
 6.501309425600000E9    -4.427369024892987E-1   -2.835107616150696E-1   -1.499596193837515E-2    3.652084513730008E-2   -1.294944419891373E-2    3.650949022623624E-2   -4.966223151157834E-1   -1.195734183291493E-1
 6.501322069275000E9    -4.433734650593146E-1   -2.826058759106509E-1   -1.503993544493233E-2    3.672881126254868E-2   -1.293981564779855E-2    3.674869048575477E-2   -4.970112772347020E-1   -1.183096547301951E-1
 6.501334712950000E9    -4.438485024036163E-1   -2.817948242700796E-1   -1.499331667150257E-2    3.712025711870767E-2   -1.288276632160959E-2    3.695807031964395E-2   -4.971180659473477E-1   -1.170084398136039E-1
 6.501347356625000E9    -4.443349956572797E-1   -2.807166862815871E-1   -1.487281464855192E-2    3.743314347894462E-2   -1.292471970280199E-2    3.727051783561962E-2   -4.972966092344570E-1   -1.155900324873882E-1
 6.501360000300000E9    -4.449413603592750E-1   -2.798440926739854E-1   -1.498066056127414E-2    3.766607387533809E-2   -1.298220624182105E-2    3.746226489325347E-2   -4.975539669101964E-1   -1.142802386485442E-1
 6.501372643975000E9    -4.455335437023718E-1   -2.789958644101664E-1   -1.497375055890096E-2    3.770556403822106E-2   -1.280355560816568E-2    3.775293878871873E-2   -4.976079563812592E-1   -1.128837618648160E-1
 6.501385287650000E9    -4.460434786112218E-1   -2.779087838710128E-1   -1.500767283751413E-2    3.805244432276661E-2   -1.278925282936146E-2    3.797083741065249E-2   -4.978859941004676E-1   -1.114528086374127E-1
 6.501397931325000E9    -4.465980534483611E-1   -2.770081838094292E-1   -1.489476779320612E-2    3.848150811819256E-2   -1.283701535041721E-2    3.830511112525982E-2   -4.980942315078987E-1   -1.102451864168998E-1
 6.501410575000000E9    -4.470549780775221E-1   -2.760389487395296E-1   -1.499105649888296E-2    3.870065641840241E-2   -1.275553944087313E-2    3.850503932287662E-2   -4.983930990328274E-1   -1.088729751789856E-1
 6.501423218675000E9    -4.475879300940636E-1   -2.750689428955508E-1   -1.494290901161147E-2    3.903670319501145E-2   -1.275383191895106E-2    3.874420144568277E-2   -4.984555995388620E-1   -1.076563620420735E-1
 6.501435862350000E9    -4.481757737642853E-1   -2.741939636386573E-1   -1.476515632449315E-2    3.920667354508204E-2   -1.280939044507070E-2    3.909358945778232E-2   -4.987623926273209E-1   -1.061086996164409E-1
 6.501448506025000E9    -4.486451663990314E-1   -2.732617696719941E-1   -1.487850552840784E-2    3.948024573606543E-2   -1.280508742690682E-2    3.929990590569035E-2   -4.988046330504888E-1   -1.047209205806166E-1
 6.501461149700000E9    -4.492951891084379E-1   -2.723132594179171E-1   -1.482960811290400E-2    3.968245287808805E-2   -1.275110554541124E-2    3.958371877725263E-2   -4.991638549626410E-1   -1.034555746338476E-1
 6.501473793375000E9    -4.497996171837709E-1   -2.713943257246478E-1   -1.480299526733590E-2    4.001156528892399E-2   -1.275679966541376E-2    3.989522254428138E-2   -4.992049826936580E-1   -1.020849850650135E-1
 6.501486437050000E9    -4.502682149553946E-1   -2.703679693904160E-1   -1.486993342336682E-2    4.030946051868298E-2   -1.272350155269990E-2    4.021977962607941E-2   -4.994903978075151E-1   -1.006603745017859E-1
 6.501499080725000E9    -4.509081896246900E-1   -2.695013398690396E-1   -1.477271016768133E-2    4.064599663240324E-2   -1.269293122004114E-2    4.055930000979892E-2   -4.995245750668288E-1   -9.934053715272244E-2
 6.501511724400000E9    -4.514329313958918E-1   -2.684025045567808E-1   -1.474068321854500E-2    4.083220068735769E-2   -1.266798810988293E-2    4.072112892603538E-2   -4.998774428358240E-1   -9.783201022303778E-2
 6.501524368075000E9    -4.518809103452539E-1   -2.674446422281140E-1   -1.476482644590484E-2    4.118590074377141E-2   -1.259342123554331E-2    4.099703159517270E-2   -4.999702391146859E-1   -9.657683565718095E-2
 6.501537011750000E9    -4.524355287767289E-1   -2.665969988467868E-1   -1.457100690136711E-2    4.166050196677023E-2   -1.254096589820153E-2    4.139589254701907E-2   -5.000501851965364E-1   -9.512465780665534E-2
 6.501549655425000E9    -4.529698801357669E-1   -2.656156248714734E-1   -1.477780995311555E-2    4.172260473182163E-2   -1.262084110250002E-2    4.165656796731239E-2   -5.001392044032914E-1   -9.368085238811025E-2
 6.501562299100000E9    -4.535376103009119E-1   -2.645687466960626E-1   -1.473225238965245E-2    4.228882326209819E-2   -1.253518627827216E-2    4.193985713546308E-2   -5.003909960108512E-1   -9.212848066690929E-2
 6.501574942775000E9    -4.540042273121091E-1   -2.635887299153319E-1   -1.472833620471335E-2    4.248710525521950E-2   -1.260108068156427E-2    4.214783676748921E-2   -5.006175281767372E-1   -9.075906937171480E-2
 6.501587586450000E9    -4.545158306532921E-1   -2.625482943163948E-1   -1.468611054754721E-2    4.290897613351757E-2   -1.254015586312064E-2    4.250278570948159E-2   -5.006564648401308E-1   -8.936787211722111E-2
 6.501600230125000E9    -4.550362208890834E-1   -2.615979611201201E-1   -1.472175427069584E-2    4.308891522529693E-2   -1.240360208563202E-2    4.299700964927831E-2   -5.008485775904065E-1   -8.781774788746080E-2
 6.501612873800000E9    -4.555129339825487E-1   -2.606144971791399E-1   -1.453173096998443E-2    4.348864712443283E-2   -1.238533640742603E-2    4.319398655150934E-2   -5.008697408928623E-1   -8.640980531651304E-2
 6.501625517475000E9    -4.560547323203160E-1   -2.596134148979471E-1   -1.459366952095283E-2    4.386471660475504E-2   -1.230183102901571E-2    4.353119038083340E-2   -5.011092139271487E-1   -8.496242753763343E-2
 6.501638161150000E9    -4.566124346663164E-1   -2.586394641992333E-1   -1.471741453998242E-2    4.422827446514400E-2   -1.234368419022555E-2    4.383178608042596E-2   -5.011261826188487E-1   -8.353263179425727E-2
 6.501650804825000E9    -4.571693319670908E-1   -2.576571149455988E-1   -1.460552604659072E-2    4.454174711025882E-2   -1.226193692895582E-2    4.421100384371231E-2   -5.012509906946300E-1   -8.195186732052302E-2
 6.501663448500000E9    -4.576016985524005E-1   -2.566070308456651E-1   -1.446941727887570E-2    4.480526809616499E-2   -1.222626969999632E-2    4.459582580943718E-2   -5.013670441324614E-1   -8.049494492762124E-2
 6.501676092175000E9    -4.581215761767178E-1   -2.556469475594777E-1   -1.464833501399696E-2    4.521678725886201E-2   -1.222050840446113E-2    4.486401807273614E-2   -5.014818073188054E-1   -7.908058939490956E-2
 6.501688735850000E9    -4.585879344416796E-1   -2.546833277620736E-1   -1.453975589932831E-2    4.561696707208954E-2   -1.222731716192797E-2    4.519947375117635E-2   -5.016237079880187E-1   -7.752654216673893E-2
 6.501701379525000E9    -4.591956664882417E-1   -2.537240131851848E-1   -1.446008970564089E-2    4.587010098714309E-2   -1.213750146643006E-2    4.548782076306011E-2   -5.017519869879249E-1   -7.597882425863917E-2
 6.501714023200000E9    -4.596078201618798E-1   -2.526292130947755E-1   -1.444862087925072E-2    4.623569425181003E-2   -1.224383387770235E-2    4.592007431711025E-2   -5.017420674515559E-1   -7.458527158588711E-2
 6.501726666875000E9    -4.601265490570493E-1   -2.515818381606837E-1   -1.441418666210909E-2    4.673474727434699E-2   -1.204009152553084E-2    4.628418876958792E-2   -5.019310275703134E-1   -7.292676804361804E-2
 6.501739310550000E9    -4.605615187225155E-1   -2.505877179418964E-1   -1.443038871772669E-2    4.707681017606509E-2   -1.195587288815623E-2    4.662730329531620E-2   -5.019442905539080E-1   -7.148535905640235E-2
 6.501751954225000E9    -4.610516806812219E-1   -2.496575630046269E-1   -1.430046899131063E-2    4.751509117295544E-2   -1.198887192831700E-2    4.699807351038891E-2   -5.021561759218464E-1   -6.990456710101442E-2
 6.501764597900000E9    -4.615471137928435E-1   -2.485029168356373E-1   -1.427060961251727E-2    4.776460296123140E-2   -1.196073230099913E-2    4.745179048649027E-2   -5.020288895237645E-1   -6.828373867408050E-2
 6.501777241575000E9    -4.620209336568619E-1   -2.475315626576484E-1   -1.436477195801594E-2    4.819377126296681E-2   -1.185934002075587E-2    4.778459708405886E-2   -5.023591359085595E-1   -6.675635743597941E-2
 6.501789885250000E9    -4.624988255369648E-1   -2.464649002083449E-1   -1.425561229634636E-2    4.850645668055775E-2   -1.181222004994405E-2    4.816291631431966E-2   -5.021963822909185E-1   -6.508567737262930E-2
 6.501802528925000E9    -4.630030941091840E-1   -2.455279353074990E-1   -1.416099108430369E-2    4.905063597643883E-2   -1.171730933095936E-2    4.857381048603852E-2   -5.022654631750670E-1   -6.361706086335904E-2
 6.501815172600000E9    -4.635058679941257E-1   -2.444034028406517E-1   -1.431831211464013E-2    4.942047471407533E-2   -1.175592980967665E-2    4.888736234652394E-2   -5.023648993505767E-1   -6.209940652124760E-2
 6.501827816275000E9    -4.639987288206187E-1   -2.433927088121127E-1   -1.408286542734400E-2    4.988784176734882E-2   -1.159709657009069E-2    4.938222332124218E-2   -5.024651834497260E-1   -6.035980722904737E-2
 6.501840459950000E9    -4.644578911429518E-1   -2.422705181947722E-1   -1.409671509785571E-2    5.018344440488218E-2   -1.158385719430032E-2    4.976060543074369E-2   -5.024395261834296E-1   -5.868528573030905E-2
 6.501853103625000E9    -4.649986089750601E-1   -2.413514925654173E-1   -1.402374468176750E-2    5.077094146096309E-2   -1.149686971746524E-2    5.021237761209962E-2   -5.023720397029986E-1   -5.718470144760456E-2
 6.501865747300000E9    -4.656413664436252E-1   -2.401083737261707E-1   -1.400141407406234E-2    5.113946894666013E-2   -1.142881022195624E-2    5.063298563984742E-2   -5.024966956499379E-1   -5.549665545985021E-2
 6.501878390975000E9    -4.658006138563169E-1   -2.390808706250829E-1   -1.411893667213315E-2    5.160345865480818E-2   -1.146995770093382E-2    5.103036157282667E-2   -5.025654225601767E-1   -5.380623010066906E-2
 6.501891034650000E9    -4.662682616131100E-1   -2.379927163434599E-1   -1.383684660548431E-2    5.205241884009478E-2   -1.136109696962574E-2    5.146486681185175E-2   -5.025244667229537E-1   -5.215169132146825E-2
 6.501903678325000E9    -4.668417356457266E-1   -2.370637055211965E-1   -1.375866072914411E-2    5.250881942562589E-2   -1.124340338888992E-2    5.197013859623833E-2   -5.026094700305782E-1   -5.046170769094484E-2
 6.501916322000000E9    -4.672458742180735E-1   -2.358751640097839E-1   -1.389262482494832E-2    5.295624826442832E-2   -1.125719831804469E-2    5.239722449069402E-2   -5.025236125010630E-1   -4.882670605781918E-2
 6.501928965675000E9    -4.676870441142591E-1   -2.348188429480223E-1   -1.363336349626825E-2    5.341353045306475E-2   -1.108516889894272E-2    5.287412338708480E-2   -5.025173201140332E-1   -4.707455680788678E-2
 6.501941609350000E9    -4.682126403009410E-1   -2.338562044929945E-1   -1.364319648293737E-2    5.397729132638667E-2   -1.106754109278171E-2    5.335027919765263E-2   -5.025870262816805E-1   -4.544023868563434E-2
 6.501954253025000E9    -4.687166730152581E-1   -2.325429259194154E-1   -1.354846450280643E-2    5.440414299114174E-2   -1.095269440705586E-2    5.383683405087018E-2   -5.023714233910774E-1   -4.369565663494204E-2
 6.501966896700000E9    -4.691593723007974E-1   -2.315526805783197E-1   -1.354687367566794E-2    5.490826847786467E-2   -1.085273350640666E-2    5.421796931766714E-2   -5.023389868366827E-1   -4.192613644796932E-2
 6.501979540375000E9    -4.695549056846801E-1   -2.304073687277357E-1   -1.353989263382529E-2    5.540739076112427E-2   -1.082715574430694E-2    5.475385578166942E-2   -5.022249794200029E-1   -4.032865532943049E-2
 6.501992184050000E9    -4.699087955626267E-1   -2.292976457383801E-1   -1.332373913412251E-2    5.585923093913741E-2   -1.066956025397947E-2    5.526900461847039E-2   -5.023659883600523E-1   -3.858295773250517E-2
 6.502004827725000E9    -4.703129852177554E-1   -2.281481812624234E-1   -1.332813412844084E-2    5.633029227118914E-2   -1.066238415569077E-2    5.572359501704939E-2   -5.022386024341383E-1   -3.668479128677297E-2
 6.502017471400000E9    -4.708056608314029E-1   -2.271297540905543E-1   -1.321782688073375E-2    5.695942814103243E-2   -1.047276683810270E-2    5.625785905332602E-2   -5.022440389268262E-1   -3.480402063096335E-2
 6.502030115075000E9    -4.713444949985263E-1   -2.260412116998081E-1   -1.316774428842512E-2    5.737723985546347E-2   -1.038151717593056E-2    5.667011849913946E-2   -5.019409512542111E-1   -3.312476441352442E-2
 6.502042758750000E9    -4.717757487679968E-1   -2.248383845546482E-1   -1.300432128976068E-2    5.797750817860394E-2   -1.035552866671506E-2    5.726569767075201E-2   -5.019677700636367E-1   -3.123248314961447E-2
