#  HZ   S   RI   R     50.00 
! Rohde & Schwarz Vector Network Analyzer 
! Rohde-Schwarz,ZNB20-2Port,1311601062101988,3.16
! Created: UTC 3/20/2024, 11:57:04 AM
! freq[Hz]                re:S11                  im:S11                  re:S21                  im:S21                  re:S12                  im:S12                  re:S22                  im:S22
 6.500924440000000E9    -4.256815662652383E-1   -3.097729912143466E-1   -1.482803041937862E-2    2.991436210654014E-2   -1.315557351471890E-2    3.007365894605432E-2   -4.886210928501601E-1   -1.575091709572999E-1
 6.500937032475000E9    -4.263527915209904E-1   -3.090115822686577E-1   -1.490027931596925E-2    3.004680056468319E-2   -1.320112695291966E-2    3.025588393744874E-2   -4.888665815246105E-1   -1.562615817227756E-1
 6.500949624950000E9    -4.268722865413464E-1   -3.081189388547188E-1   -1.490226870377458E-2    3.036644430115869E-2   -1.318394197682341E-2    3.052421514805363E-2   -4.891945311580088E-1   -1.552190942668065E-1
 6.500962217425000E9    -4.275417414332755E-1   -3.073071647532539E-1   -1.500951991446026E-2    3.048120803733938E-2   -1.322838310843763E-2    3.053850731114199E-2   -4.895711865938218E-1   -1.539417868136242E-1
 6.500974809900000E9    -4.280627813050862E-1   -3.064231628516025E-1   -1.495729633294189E-2    3.073263394485777E-2   -1.315024860641834E-2    3.077771457699686E-2   -4.898594691223012E-1   -1.526537732078507E-1
 6.500987402375000E9    -4.288082661093314E-1   -3.055044118469026E-1   -1.486971675973531E-2    3.093208506397630E-2   -1.315985179928692E-2    3.101217697709794E-2   -4.902120369201526E-1   -1.513827519892552E-1
 6.500999994850000E9    -4.292902342507906E-1   -3.047969327724863E-1   -1.496537050692095E-2    3.122084500005507E-2   -1.313059576989867E-2    3.111468051304959E-2   -4.903457301877947E-1   -1.504516378616321E-1
 6.501012587325000E9    -4.298945592880970E-1   -3.038923042401160E-1   -1.498528865882917E-2    3.125741658084764E-2   -1.309537572082682E-2    3.132954664118776E-2   -4.907794430017717E-1   -1.492390961653336E-1
 6.501025179800000E9    -4.303781376660996E-1   -3.028826960204754E-1   -1.488794893990258E-2    3.140550226772246E-2   -1.309214162970822E-2    3.150793538800468E-2   -4.909345616732249E-1   -1.479340440293097E-1
 6.501037772275000E9    -4.310108387245892E-1   -3.021317634100657E-1   -1.495131132531516E-2    3.158453073471508E-2   -1.310394720775513E-2    3.172374607514373E-2   -4.911677028486254E-1   -1.467587490173375E-1
 6.501050364750000E9    -4.315627629615418E-1   -3.012194935030346E-1   -1.496308526664202E-2    3.188762885538673E-2   -1.308222313268004E-2    3.190090447759869E-2   -4.917123634357232E-1   -1.455453185066308E-1
 6.501062957225000E9    -4.320818649344356E-1   -3.001701117994739E-1   -1.486739036752080E-2    3.205360746538320E-2   -1.312863249670756E-2    3.212697772913895E-2   -4.918364376726382E-1   -1.444330662839467E-1
 6.501075549700000E9    -4.327862417687618E-1   -2.996007819587524E-1   -1.494321960196583E-2    3.222509403244912E-2   -1.309176947028546E-2    3.230932766753618E-2   -4.920893094967750E-1   -1.432259759354437E-1
 6.501088142175000E9    -4.333588877440013E-1   -2.985721047120482E-1   -1.491949020004602E-2    3.240340330881065E-2   -1.312518762368499E-2    3.252104663240312E-2   -4.923976101662541E-1   -1.419516659957979E-1
 6.501100734650000E9    -4.338804092358663E-1   -2.977383212416284E-1   -1.495028675329999E-2    3.249736189381007E-2   -1.308237197668031E-2    3.259051643555277E-2   -4.926853904930281E-1   -1.406271219855528E-1
 6.501113327125000E9    -4.344135741765424E-1   -2.967852537657149E-1   -1.487140502020259E-2    3.292638030792946E-2   -1.311147481003710E-2    3.284073369013097E-2   -4.928857856031041E-1   -1.394916013028203E-1
 6.501125919600000E9    -4.350175297714286E-1   -2.959613939174034E-1   -1.492635459242123E-2    3.298297775235422E-2   -1.308240186826378E-2    3.310577075323441E-2   -4.931442832360478E-1   -1.382063943577471E-1
 6.501138512075000E9    -4.355480702882714E-1   -2.950374104524345E-1   -1.486619979465396E-2    3.311771304341488E-2   -1.306327041815055E-2    3.329303350621605E-2   -4.934193781394867E-1   -1.370972154144206E-1
 6.501151104550000E9    -4.362154230741875E-1   -2.942464067269127E-1   -1.496664064738414E-2    3.355071740361829E-2   -1.308658941400457E-2    3.353735377545639E-2   -4.937330003143682E-1   -1.358480011591024E-1
 6.501163697025000E9    -4.367141022091489E-1   -2.933526601706523E-1   -1.495645766573812E-2    3.364495178017915E-2   -1.304415602742983E-2    3.384320279085041E-2   -4.940667631719380E-1   -1.345648622867177E-1
 6.501176289500000E9    -4.372892962494547E-1   -2.924478559677234E-1   -1.501597099247773E-2    3.384484149284570E-2   -1.313056651929920E-2    3.395172633077404E-2   -4.941378895961328E-1   -1.332306986309252E-1
 6.501188881975000E9    -4.377635036314568E-1   -2.914952198853745E-1   -1.496638702050497E-2    3.405592559317271E-2   -1.299954571933590E-2    3.416093736575156E-2   -4.945091346425259E-1   -1.318223109387705E-1
 6.501201474450000E9    -4.385328405019936E-1   -2.906109124313240E-1   -1.478917266269207E-2    3.443294714436410E-2   -1.307390808812179E-2    3.428576051684985E-2   -4.946476339260060E-1   -1.307914038763301E-1
 6.501214066925000E9    -4.389896466808051E-1   -2.897316274653951E-1   -1.494573528337704E-2    3.458547775844232E-2   -1.301200686098201E-2    3.451083247161613E-2   -4.950264734660620E-1   -1.295381768241848E-1
 6.501226659400000E9    -4.395573046959572E-1   -2.888236333269744E-1   -1.503464576254149E-2    3.476386697731684E-2   -1.294153748705435E-2    3.485039225035576E-2   -4.952529493436710E-1   -1.282268480940204E-1
 6.501239251875000E9    -4.400276681369113E-1   -2.878825109755622E-1   -1.492306440924389E-2    3.485897420037162E-2   -1.300246522570811E-2    3.509717425552455E-2   -4.955011067207337E-1   -1.269256946535932E-1
 6.501251844350000E9    -4.406438726590541E-1   -2.869273654652089E-1   -1.487728441256179E-2    3.525112577521982E-2   -1.282524381685907E-2    3.525546617197483E-2   -4.957813240310253E-1   -1.255781487059880E-1
 6.501264436825000E9    -4.412095927289321E-1   -2.861764643078871E-1   -1.489167059128380E-2    3.542699131229547E-2   -1.288607064867978E-2    3.553008399942721E-2   -4.960230823474125E-1   -1.244078427902889E-1
 6.501277029300000E9    -4.418158032669356E-1   -2.851393879282602E-1   -1.492359055664921E-2    3.573694960305918E-2   -1.295485927428366E-2    3.576833738385728E-2   -4.961777956179102E-1   -1.231608395890721E-1
 6.501289621775000E9    -4.422507773564853E-1   -2.842132447354933E-1   -1.488845391046782E-2    3.597230954563159E-2   -1.288839343175745E-2    3.603116464091775E-2   -4.964778569956463E-1   -1.218716147075073E-1
 6.501302214250000E9    -4.428276891743437E-1   -2.833922027919759E-1   -1.494253440134091E-2    3.624175314178792E-2   -1.288651449477246E-2    3.623898221896010E-2   -4.965634596949132E-1   -1.206111176893872E-1
 6.501314806725000E9    -4.433303758793402E-1   -2.824941299602736E-1   -1.490673483679429E-2    3.655948740831181E-2   -1.293133719343278E-2    3.632250184401279E-2   -4.965970407318628E-1   -1.191540357265763E-1
 6.501327399200000E9    -4.439673490743689E-1   -2.814612709394023E-1   -1.494345489331691E-2    3.674787244852885E-2   -1.285078107928271E-2    3.664258044526083E-2   -4.970194568209050E-1   -1.179263139625684E-1
 6.501339991675000E9    -4.445087064636168E-1   -2.806084870123379E-1   -1.484248406560105E-2    3.694340821510145E-2   -1.284586742728104E-2    3.686654152103470E-2   -4.972807669418405E-1   -1.165956969369535E-1
 6.501352584150000E9    -4.450454736033755E-1   -2.796956460153745E-1   -1.499812276222749E-2    3.723604413549797E-2   -1.282106823149817E-2    3.711089781362308E-2   -4.975436175460267E-1   -1.153049863162434E-1
 6.501365176625000E9    -4.455813588145967E-1   -2.787632236181120E-1   -1.488610813330909E-2    3.736101528026845E-2   -1.287036054393128E-2    3.740531558441853E-2   -4.977240553606886E-1   -1.140404997539589E-1
 6.501377769100000E9    -4.461265949863705E-1   -2.777842055043432E-1   -1.483217283604617E-2    3.769990073633641E-2   -1.279657106963161E-2    3.771779072386836E-2   -4.980385739852234E-1   -1.126597209141754E-1
 6.501390361575000E9    -4.466767679545440E-1   -2.769111624619026E-1   -1.486098525311374E-2    3.800737044501515E-2   -1.280555875110445E-2    3.793590783696127E-2   -4.980651728349630E-1   -1.114056252064197E-1
 6.501402954050000E9    -4.470939550971632E-1   -2.759633058774464E-1   -1.482076402213510E-2    3.822583968806387E-2   -1.284610090399202E-2    3.821084530593120E-2   -4.984926973700686E-1   -1.100658251539760E-1
 6.501415546525000E9    -4.477703518022556E-1   -2.749388992974959E-1   -1.474933840350668E-2    3.852079924835177E-2   -1.278485710733178E-2    3.844285412378617E-2   -4.984716234196440E-1   -1.086843301168079E-1
 6.501428139000000E9    -4.482834968078160E-1   -2.739395355580856E-1   -1.480587099885932E-2    3.874046755394912E-2   -1.269981263374310E-2    3.870349311268600E-2   -4.988013095107669E-1   -1.072780621522514E-1
 6.501440731475000E9    -4.487948918587854E-1   -2.731295819456686E-1   -1.491008798166866E-2    3.906115896002034E-2   -1.268143036139673E-2    3.899663302612646E-2   -4.988901223082549E-1   -1.058057032088484E-1
 6.501453323950000E9    -4.493297655352810E-1   -2.722009032636347E-1   -1.479261429372508E-2    3.934112858092224E-2   -1.274126922965720E-2    3.932082943932325E-2   -4.990639486964653E-1   -1.045247377055367E-1
 6.501465916425000E9    -4.499258789967677E-1   -2.712559811351163E-1   -1.480853067559189E-2    3.958010221433524E-2   -1.276936708914773E-2    3.952524866838405E-2   -4.992782487383797E-1   -1.033099327112019E-1
 6.501478508900000E9    -4.504651340700677E-1   -2.702167999192746E-1   -1.489414831583973E-2    3.993051765132939E-2   -1.261713193167829E-2    3.969939191268391E-2   -4.993821427021349E-1   -1.018423875509114E-1
 6.501491101375000E9    -4.509951413147444E-1   -2.693149915446346E-1   -1.479657227156620E-2    4.028307742851427E-2   -1.255921163100683E-2    4.007790354193266E-2   -4.996094836527448E-1   -1.003570824760005E-1
 6.501503693850000E9    -4.513826463929875E-1   -2.683842809089266E-1   -1.473603445744767E-2    4.059522906943226E-2   -1.259870483682680E-2    4.037063769719292E-2   -4.998179444482240E-1   -9.902944006659682E-2
 6.501516286325000E9    -4.519667403906148E-1   -2.674505699074018E-1   -1.479674208668364E-2    4.077010610226053E-2   -1.257131716347884E-2    4.068246860279778E-2   -5.000693267490079E-1   -9.762579011867285E-2
 6.501528878800000E9    -4.524747497463755E-1   -2.664214544171207E-1   -1.475948080979059E-2    4.114037695252236E-2   -1.252690530204769E-2    4.101081142823940E-2   -5.000663351696357E-1   -9.626335098078305E-2
 6.501541471275000E9    -4.529709611808850E-1   -2.653524474374572E-1   -1.467662963660576E-2    4.147703740769106E-2   -1.246141911159280E-2    4.130769647625247E-2   -5.002484265647555E-1   -9.479541305420994E-2
 6.501554063750000E9    -4.534322138545366E-1   -2.644452726314495E-1   -1.477578353914543E-2    4.165882744792313E-2   -1.249585819525681E-2    4.157176700622769E-2   -5.004791405741952E-1   -9.349584239710355E-2
 6.501566656225000E9    -4.540990371375009E-1   -2.636466646198651E-1   -1.469910545618762E-2    4.211443428615783E-2   -1.238936738908380E-2    4.192475278448464E-2   -5.006057385901819E-1   -9.199764681602279E-2
 6.501579248700000E9    -4.545686637218468E-1   -2.626489635815177E-1   -1.468492162243949E-2    4.238064601414464E-2   -1.238518881467761E-2    4.222737731472642E-2   -5.007849540755823E-1   -9.060505332431280E-2
 6.501591841175000E9    -4.550850092077438E-1   -2.616651978514923E-1   -1.472889528270046E-2    4.274427741693273E-2   -1.242927435815703E-2    4.246749193469034E-2   -5.008970538986136E-1   -8.913022386567601E-2
 6.501604433650000E9    -4.555504065144830E-1   -2.605099296879188E-1   -1.454464561816576E-2    4.301284334753804E-2   -1.229336035178330E-2    4.267368921786704E-2   -5.009910340241109E-1   -8.780197255819665E-2
 6.501617026125000E9    -4.560356015759618E-1   -2.595503921504266E-1   -1.466983147670951E-2    4.331071690032406E-2   -1.233936052799272E-2    4.300813847571772E-2   -5.011347226258031E-1   -8.620588112214857E-2
 6.501629618600000E9    -4.565245652918564E-1   -2.586139439681159E-1   -1.467325575748044E-2    4.364290649608426E-2   -1.223915259576569E-2    4.349770410806598E-2   -5.012797701085125E-1   -8.475428810071439E-2
 6.501642211075000E9    -4.571694421929120E-1   -2.577021608120491E-1   -1.466335805515774E-2    4.394462624725209E-2   -1.218728206045609E-2    4.376642691631736E-2   -5.014627831168752E-1   -8.341847038651193E-2
 6.501654803550000E9    -4.575558298933481E-1   -2.567356757384657E-1   -1.460497600260729E-2    4.424830912220677E-2   -1.223230179398219E-2    4.395821883996591E-2   -5.015203163661887E-1   -8.196177585270080E-2
 6.501667396025000E9    -4.580710355762728E-1   -2.555792057832770E-1   -1.446106043968011E-2    4.473881469413195E-2   -1.214382548370473E-2    4.434255381291220E-2   -5.016334459291844E-1   -8.027685770090259E-2
 6.501679988500000E9    -4.586200224677003E-1   -2.547585732536601E-1   -1.448123687072886E-2    4.492277582845414E-2   -1.203753835583772E-2    4.468842220856314E-2   -5.017495715760565E-1   -7.896688847493073E-2
 6.501692580975000E9    -4.590860857530728E-1   -2.537757746391247E-1   -1.462528176688642E-2    4.533080119841176E-2   -1.210039001285371E-2    4.515472295984744E-2   -5.018527854814410E-1   -7.747913903548909E-2
 6.501705173450000E9    -4.595101977028371E-1   -2.526245128343208E-1   -1.452658447897076E-2    4.590747652257909E-2   -1.202553384508979E-2    4.539479292847843E-2   -5.019439517836601E-1   -7.593251703344712E-2
 6.501717765925000E9    -4.601069265056469E-1   -2.516551059549232E-1   -1.445859831659228E-2    4.612394150830815E-2   -1.201343790812977E-2    4.579031728268957E-2   -5.019336389398840E-1   -7.439134304817754E-2
 6.501730358400000E9    -4.605282300656426E-1   -2.506705218787972E-1   -1.433384406829335E-2    4.643380196414413E-2   -1.198425144168999E-2    4.612083493976420E-2   -5.020333998828386E-1   -7.286122089666167E-2
 6.501742950875000E9    -4.610930437039971E-1   -2.497131558250121E-1   -1.424083272247251E-2    4.678573287165559E-2   -1.196221085033699E-2    4.654473771295003E-2   -5.021725059171893E-1   -7.135511621564418E-2
 6.501755543350000E9    -4.615716372936354E-1   -2.486216955307889E-1   -1.443030673311206E-2    4.729388972610148E-2   -1.178401054344880E-2    4.694757524512166E-2   -5.023573220933810E-1   -6.966260555064453E-2
 6.501768135825000E9    -4.620794657428631E-1   -2.475630946067422E-1   -1.432334450802199E-2    4.769792366836765E-2   -1.179201726292231E-2    4.721621183627516E-2   -5.023100379877243E-1   -6.815937096242997E-2
 6.501780728300000E9    -4.624699425217487E-1   -2.464755916119676E-1   -1.434332112368710E-2    4.807633567035041E-2   -1.179600838257625E-2    4.763150438250209E-2   -5.023730876217393E-1   -6.665823717667413E-2
 6.501793320775000E9    -4.629652368081664E-1   -2.455046734105869E-1   -1.414587873054372E-2    4.837228140181442E-2   -1.180677433341577E-2    4.790774762377564E-2   -5.024790113378369E-1   -6.504826562198485E-2
 6.501805913250000E9    -4.634749860389125E-1   -2.445938574651897E-1   -1.411529022437581E-2    4.888534354393265E-2   -1.170583559032301E-2    4.836305137073749E-2   -5.025101944010201E-1   -6.369475228711934E-2
 6.501818505725000E9    -4.639616622229190E-1   -2.434868164318966E-1   -1.411633553882144E-2    4.919421022862942E-2   -1.156990397415150E-2    4.878588945295032E-2   -5.025503978199137E-1   -6.180708063673779E-2
 6.501831098200000E9    -4.643694615124621E-1   -2.424463019417788E-1   -1.411579580658337E-2    4.967235881424326E-2   -1.159719373782576E-2    4.930588192725043E-2   -5.025949835471666E-1   -6.040247355655810E-2
 6.501843690675000E9    -4.650129609735627E-1   -2.413905724787932E-1   -1.408652240636207E-2    5.009684546735295E-2   -1.147637552767924E-2    4.950554025805234E-2   -5.025590720025112E-1   -5.870171331081354E-2
 6.501856283150000E9    -4.652980378033443E-1   -2.403751128420955E-1   -1.403157931568550E-2    5.049305219298395E-2   -1.145597132356574E-2    5.007436919512904E-2   -5.026763222541664E-1   -5.712980592354865E-2
 6.501868875625000E9    -4.659080371499497E-1   -2.392138467983646E-1   -1.401693509322874E-2    5.101215217660043E-2   -1.133492956745866E-2    5.040523561901533E-2   -5.026343859286320E-1   -5.552328410835334E-2
 6.501881468100000E9    -4.662866726029765E-1   -2.381836240348668E-1   -1.390438012079626E-2    5.136781930751379E-2   -1.132788770368701E-2    5.093441737029830E-2   -5.027005767993782E-1   -5.395626346243498E-2
 6.501894060575000E9    -4.667783355763960E-1   -2.371491244913070E-1   -1.389941632953054E-2    5.192912936002084E-2   -1.131652700413428E-2    5.134722045991006E-2   -5.026708465267109E-1   -5.220451530138824E-2
 6.501906653050000E9    -4.672517334831468E-1   -2.359873476274271E-1   -1.379300018947522E-2    5.219943475284201E-2   -1.121058515823953E-2    5.174850876537455E-2   -5.025883897253672E-1   -5.070314245716053E-2
 6.501919245525000E9    -4.677548905233599E-1   -2.349692041019528E-1   -1.385217331314999E-2    5.280809365418507E-2   -1.097553618884927E-2    5.220867927983229E-2   -5.027321076096274E-1   -4.883581228065663E-2
 6.501931838000000E9    -4.682048623793400E-1   -2.339139389712443E-1   -1.362118109804980E-2    5.329819090036404E-2   -1.107263861625764E-2    5.255381298721378E-2   -5.026890563740314E-1   -4.725539754991440E-2
 6.501944430475000E9    -4.685105547967057E-1   -2.327921038874772E-1   -1.354804369869734E-2    5.371699602764422E-2   -1.092045196082893E-2    5.313418369920388E-2   -5.026462474363125E-1   -4.546356326704659E-2
 6.501957022950000E9    -4.690516143380157E-1   -2.317184621912398E-1   -1.358352505198610E-2    5.418786975675724E-2   -1.081627436376288E-2    5.343317108545571E-2   -5.027540366236065E-1   -4.377224073559902E-2
 6.501969615425000E9    -4.694658881372524E-1   -2.306133519692968E-1   -1.354756310283611E-2    5.456075092204089E-2   -1.085730465571995E-2    5.391005709607768E-2   -5.025274894317110E-1   -4.208162458714849E-2
 6.501982207900000E9    -4.699603451027449E-1   -2.294590119079535E-1   -1.340747431933225E-2    5.508939744599924E-2   -1.064548631810330E-2    5.458495678781003E-2   -5.025011142680443E-1   -4.030873274696253E-2
 6.501994800375000E9    -4.704218238509373E-1   -2.284393138137472E-1   -1.337072337137427E-2    5.558995000512418E-2   -1.058280053317352E-2    5.505146788716769E-2   -5.026244402710076E-1   -3.849522021040032E-2
 6.502007392850000E9    -4.709669264590554E-1   -2.272932660271110E-1   -1.337815741080142E-2    5.624499290628327E-2   -1.047525679825764E-2    5.552212665368374E-2   -5.025859602658960E-1   -3.684390442960309E-2
 6.502019985325000E9    -4.713849421122007E-1   -2.262541360703145E-1   -1.320523973448309E-2    5.657369326098249E-2   -1.047572533589673E-2    5.594080753289050E-2   -5.024167198450572E-1   -3.508321833145073E-2
 6.502032577800000E9    -4.716215580605653E-1   -2.250799531379839E-1   -1.315659390955008E-2    5.727312808652997E-2   -1.032044516219052E-2    5.653534312665876E-2   -5.023309066914619E-1   -3.337498135133496E-2
 6.502045170275000E9    -4.722768265091215E-1   -2.239625489313739E-1   -1.306009314643161E-2    5.774600986542046E-2   -1.021442799916739E-2    5.702010507805836E-2   -5.022232615813632E-1   -3.155231747752067E-2
 6.502057762750000E9    -4.725570810020219E-1   -2.228657071262849E-1   -1.292626040758557E-2    5.837190725871286E-2   -1.017449870572308E-2    5.747730641023824E-2   -5.021360740935029E-1   -2.964164068761560E-2
