#  HZ   S   RI   R     50.00 
! Rohde & Schwarz Vector Network Analyzer 
! Rohde-Schwarz,ZNB20-2Port,1311601062101988,3.16
! Created: UTC 3/20/2024, 11:57:13 AM
! freq[Hz]                re:S11                  im:S11                  re:S21                  im:S21                  re:S12                  im:S12                  re:S22                  im:S22
 6.500926098000000E9    -4.255067863301730E-1   -3.105925105074214E-1   -1.489326366298401E-2    2.993914222921230E-2   -1.316118126053033E-2    3.007637978651470E-2   -4.887175342408726E-1   -1.573532182227893E-1
 6.500938692675000E9    -4.260507901550276E-1   -3.098709131480684E-1   -1.498279580257068E-2    3.005351991361702E-2   -1.323931384493545E-2    3.031075839091292E-2   -4.890107279353562E-1   -1.560651139470506E-1
 6.500951287350000E9    -4.265279136267294E-1   -3.088054705898973E-1   -1.511966833409251E-2    3.022399508888728E-2   -1.329150930430291E-2    3.041618086448860E-2   -4.893037955027341E-1   -1.549631129454789E-1
 6.500963882025000E9    -4.272560782839375E-1   -3.080213143880932E-1   -1.489567365957505E-2    3.054893136316328E-2   -1.321956024873970E-2    3.064326344163281E-2   -4.896351584157911E-1   -1.538694688999643E-1
 6.500976476700000E9    -4.278302625335346E-1   -3.072075190646791E-1   -1.491344876600047E-2    3.074580723647105E-2   -1.327647477676058E-2    3.074201807426970E-2   -4.899751077990411E-1   -1.526224931324742E-1
 6.500989071375000E9    -4.284639900976111E-1   -3.063541374931301E-1   -1.489789149196696E-2    3.098825084050482E-2   -1.323616709200752E-2    3.103811322172738E-2   -4.903057355146473E-1   -1.513725073990636E-1
 6.501001666050000E9    -4.291247930729827E-1   -3.054060668689318E-1   -1.483953916442065E-2    3.104210010737681E-2   -1.316402823043795E-2    3.118694148854735E-2   -4.905457207011123E-1   -1.500649597874620E-1
 6.501014260725000E9    -4.296377721736304E-1   -3.045758304187365E-1   -1.489831886359481E-2    3.113331163695075E-2   -1.319492486768104E-2    3.126031649892581E-2   -4.908051547863366E-1   -1.490653137250552E-1
 6.501026855400000E9    -4.302206598833010E-1   -3.038418681654816E-1   -1.497203031589840E-2    3.140265194919650E-2   -1.316338415386628E-2    3.154900686986662E-2   -4.910793731992892E-1   -1.479271271384503E-1
 6.501039450075000E9    -4.306918391859837E-1   -3.028164395817724E-1   -1.503167223876258E-2    3.164508176782817E-2   -1.310489384019986E-2    3.179423627359960E-2   -4.913580032296905E-1   -1.467220966370277E-1
 6.501052044750000E9    -4.312949383872602E-1   -3.019859477003278E-1   -1.503881376666200E-2    3.183766773778149E-2   -1.314848891934515E-2    3.184972228060955E-2   -4.916367304203077E-1   -1.453320547943668E-1
 6.501064639425000E9    -4.318700137239110E-1   -3.011140521594637E-1   -1.497055369027219E-2    3.202635613432085E-2   -1.322439663602362E-2    3.213991348196079E-2   -4.919901789377600E-1   -1.441381516924695E-1
 6.501077234100000E9    -4.325228014040797E-1   -3.003833990893571E-1   -1.491575255852967E-2    3.219312602363988E-2   -1.311189004435399E-2    3.228900179928636E-2   -4.921616526390047E-1   -1.429269695813299E-1
 6.501089828775000E9    -4.330959439389984E-1   -2.993118494609304E-1   -1.493928331024675E-2    3.248890800526258E-2   -1.316108420898854E-2    3.255459919589430E-2   -4.925300861362961E-1   -1.416903236490547E-1
 6.501102423450000E9    -4.336458810041387E-1   -2.984985749053955E-1   -1.485680664339253E-2    3.261345891753456E-2   -1.321756983131648E-2    3.268245860638802E-2   -4.927870726009604E-1   -1.405254818505883E-1
 6.501115018125000E9    -4.341962222586840E-1   -2.976243198537715E-1   -1.498710670040687E-2    3.275476117437705E-2   -1.314874909652060E-2    3.289158252717278E-2   -4.930701828646611E-1   -1.393204360986669E-1
 6.501127612800000E9    -4.347517968726964E-1   -2.967590025143014E-1   -1.506711732690114E-2    3.296551088917449E-2   -1.317831808187668E-2    3.311745204731827E-2   -4.932812155507404E-1   -1.380194999603525E-1
 6.501140207475000E9    -4.353234379846299E-1   -2.958103829713062E-1   -1.498796648117029E-2    3.318932249779543E-2   -1.311102174307965E-2    3.327353816267563E-2   -4.934246597982981E-1   -1.367075712674216E-1
 6.501152802150000E9    -4.358709437947724E-1   -2.949165502602645E-1   -1.503853879220805E-2    3.361186112937645E-2   -1.313407633013335E-2    3.357815618432067E-2   -4.937200029646768E-1   -1.356835766193459E-1
 6.501165396825000E9    -4.364418152932416E-1   -2.940403680095798E-1   -1.495342166976897E-2    3.363781960845130E-2   -1.307519729703710E-2    3.375304081050971E-2   -4.939744755630480E-1   -1.343260090607812E-1
 6.501177991500000E9    -4.370593418720863E-1   -2.931575736197420E-1   -1.491802204934138E-2    3.385369043549312E-2   -1.313674930095126E-2    3.398012241484839E-2   -4.943980920057937E-1   -1.330618367081186E-1
 6.501190586175000E9    -4.376158862000309E-1   -2.923200321031630E-1   -1.498951793088618E-2    3.412264217332629E-2   -1.306183472525498E-2    3.418682881008323E-2   -4.944416873979424E-1   -1.318301131842999E-1
 6.501203180850000E9    -4.381582105701699E-1   -2.913660108431640E-1   -1.481269356947487E-2    3.446917135452840E-2   -1.309017258189043E-2    3.443489007537669E-2   -4.948645991127534E-1   -1.306776559745981E-1
 6.501215775525000E9    -4.386744429447457E-1   -2.904945748293145E-1   -1.492586466959173E-2    3.449504862404999E-2   -1.296069825993913E-2    3.461834395577513E-2   -4.950007993112006E-1   -1.294348164499829E-1
 6.501228370200000E9    -4.394138251341219E-1   -2.896308656817475E-1   -1.503663569291378E-2    3.483039483236994E-2   -1.302045134985786E-2    3.480167526403822E-2   -4.952282519219487E-1   -1.281531699491801E-1
 6.501240964875000E9    -4.398376872294653E-1   -2.886272886058637E-1   -1.500739373784302E-2    3.501021770086774E-2   -1.302223825540322E-2    3.504635891506332E-2   -4.956251255744146E-1   -1.267566314916632E-1
 6.501253559550000E9    -4.403783946866012E-1   -2.877422847990124E-1   -1.500427903537671E-2    3.522223723648182E-2   -1.297469475354607E-2    3.526688599834605E-2   -4.957731948990938E-1   -1.255920659375615E-1
 6.501266154225000E9    -4.409961876931745E-1   -2.868087306642878E-1   -1.495446592413943E-2    3.549495113669067E-2   -1.295910199177708E-2    3.549732216846712E-2   -4.960997053613291E-1   -1.241514340757206E-1
 6.501278748900000E9    -4.415826842752632E-1   -2.859503128731510E-1   -1.495144493038757E-2    3.573646626469038E-2   -1.297722135163084E-2    3.560495799712644E-2   -4.962011022604860E-1   -1.229655919008910E-1
 6.501291343575000E9    -4.421104745105156E-1   -2.850047011205806E-1   -1.499428860712608E-2    3.587325297157652E-2   -1.294211572966596E-2    3.601649931186520E-2   -4.965003706592079E-1   -1.215511985683523E-1
 6.501303938250000E9    -4.426372230280498E-1   -2.840913882207763E-1   -1.481309769164352E-2    3.623217029400696E-2   -1.291232483573706E-2    3.616094117148027E-2   -4.966084805849134E-1   -1.204439333803139E-1
 6.501316532925000E9    -4.432091145021589E-1   -2.832031644818796E-1   -1.497657326355049E-2    3.647936144820706E-2   -1.300057876028563E-2    3.648288329039895E-2   -4.969683430350832E-1   -1.190906590978189E-1
 6.501329127600000E9    -4.436987729220651E-1   -2.822670309533289E-1   -1.485544844178194E-2    3.677518423104708E-2   -1.292556158556220E-2    3.666485402444732E-2   -4.972567079970036E-1   -1.177305574139900E-1
 6.501341722275000E9    -4.441892972550339E-1   -2.815223349670465E-1   -1.470815025040713E-2    3.685366409683992E-2   -1.291299309996300E-2    3.694136221897062E-2   -4.974273696942885E-1   -1.163853106469406E-1
 6.501354316950000E9    -4.448059914246331E-1   -2.804977815255555E-1   -1.490748017008591E-2    3.727934541884648E-2   -1.290019723172303E-2    3.717720170389119E-2   -4.975570880969035E-1   -1.151924260220865E-1
 6.501366911625000E9    -4.453460508819639E-1   -2.796073380105191E-1   -1.496302493501938E-2    3.748462263010242E-2   -1.282666617348847E-2    3.752463533354072E-2   -4.977718052417275E-1   -1.138561696869335E-1
 6.501379506300000E9    -4.458679934709072E-1   -2.785210196233357E-1   -1.483890346982381E-2    3.777178698272807E-2   -1.294567381687934E-2    3.758571538976614E-2   -4.979346365009216E-1   -1.124753234614676E-1
 6.501392100975000E9    -4.465425701341971E-1   -2.776285815058984E-1   -1.476194334037336E-2    3.799563027896730E-2   -1.280392147669568E-2    3.798019362359054E-2   -4.981716677502800E-1   -1.111244051125519E-1
 6.501404695650000E9    -4.469312004723673E-1   -2.766817573645743E-1   -1.490410429122189E-2    3.822943318965970E-2   -1.286645489833181E-2    3.811998403847706E-2   -4.983110056827724E-1   -1.098290977265023E-1
 6.501417290325000E9    -4.474404604929558E-1   -2.758138649048665E-1   -1.488152034203764E-2    3.851245007935045E-2   -1.278996244792271E-2    3.846477192016071E-2   -4.985342231330468E-1   -1.085088210924435E-1
 6.501429885000000E9    -4.480755808782534E-1   -2.748727360911728E-1   -1.492066234392685E-2    3.877990398503881E-2   -1.279286402778659E-2    3.870837411773347E-2   -4.988623719003538E-1   -1.071093426937878E-1
 6.501442479675000E9    -4.485511153041069E-1   -2.739158660712879E-1   -1.479625929969944E-2    3.898697624189806E-2   -1.273563372146046E-2    3.904550501086441E-2   -4.991234570208211E-1   -1.055931410892184E-1
 6.501455074350000E9    -4.491274721212213E-1   -2.729793045320080E-1   -1.485529171173211E-2    3.942937257916222E-2   -1.272736808153980E-2    3.931218480715636E-2   -4.990759441744692E-1   -1.044794843325168E-1
 6.501467669025000E9    -4.496197478513975E-1   -2.720709478597612E-1   -1.483571362963814E-2    3.963968857284289E-2   -1.272172366721653E-2    3.964019730443611E-2   -4.993954459227367E-1   -1.029913537928998E-1
 6.501480263700000E9    -4.501747139641058E-1   -2.710295446912628E-1   -1.492041854447935E-2    3.993453180066139E-2   -1.275445996464155E-2    3.977026626416040E-2   -4.994893584598029E-1   -1.017010081022428E-1
 6.501492858375000E9    -4.506730296106990E-1   -2.701801498302983E-1   -1.467668920766065E-2    4.032035010360799E-2   -1.269627411437950E-2    4.000517175826436E-2   -4.996820098693562E-1   -1.002141455220801E-1
 6.501505453050000E9    -4.512747274966937E-1   -2.691612194933948E-1   -1.477153836284880E-2    4.061734980592175E-2   -1.266635060527816E-2    4.041250785367521E-2   -4.999342116862989E-1   -9.881431050904024E-2
 6.501518047725000E9    -4.518372240157869E-1   -2.682709410105444E-1   -1.471379695848259E-2    4.082915416969100E-2   -1.264445592055076E-2    4.072109061363186E-2   -5.000353873828076E-1   -9.748379961614101E-2
 6.501530642400000E9    -4.521651765138833E-1   -2.672415809363729E-1   -1.460439860536468E-2    4.115533547471073E-2   -1.265738995115941E-2    4.090259764396656E-2   -5.002115089953370E-1   -9.609406406883941E-2
 6.501543237075000E9    -4.527208155383381E-1   -2.662997145419196E-1   -1.474188359871469E-2    4.143909195720363E-2   -1.253986644558204E-2    4.123891180671129E-2   -5.001975998882717E-1   -9.471196907307598E-2
 6.501555831750000E9    -4.533943029253044E-1   -2.653568650688989E-1   -1.467437088666869E-2    4.183250639454487E-2   -1.248837848320934E-2    4.153947415354699E-2   -5.005150756116621E-1   -9.329643671637626E-2
 6.501568426425000E9    -4.538715170630355E-1   -2.643330754579496E-1   -1.462200039524825E-2    4.219508089279172E-2   -1.252139950958993E-2    4.187220045295111E-2   -5.006239437350529E-1   -9.183865446892206E-2
 6.501581021100000E9    -4.542477630705609E-1   -2.633430923690238E-1   -1.488356881801815E-2    4.231109148814895E-2   -1.250471322076719E-2    4.226035384352098E-2   -5.009198877434926E-1   -9.041821439278430E-2
 6.501593615775000E9    -4.549215894799920E-1   -2.624272070646745E-1   -1.459868849792494E-2    4.272118339905751E-2   -1.247461020991001E-2    4.244241963174566E-2   -5.009396132157417E-1   -8.890345007390348E-2
 6.501606210450000E9    -4.553724482345934E-1   -2.613829818620980E-1   -1.468173415953038E-2    4.313043360821296E-2   -1.236185163016133E-2    4.278652385282847E-2   -5.011274452640240E-1   -8.739838655001304E-2
 6.501618805125000E9    -4.559250136526302E-1   -2.603759568607675E-1   -1.462601865725152E-2    4.348145022616671E-2   -1.239162714897696E-2    4.307457180894506E-2   -5.011784020335436E-1   -8.617200543236565E-2
 6.501631399800000E9    -4.563667736839472E-1   -2.594553890186925E-1   -1.460241719768917E-2    4.365997648127218E-2   -1.236634588530632E-2    4.343569220718064E-2   -5.013509435538612E-1   -8.446097708886603E-2
 6.501643994475000E9    -4.567858478639580E-1   -2.584422280071817E-1   -1.455633111711374E-2    4.398086039445852E-2   -1.223081248602768E-2    4.367374639721424E-2   -5.015087270830925E-1   -8.316246109387862E-2
 6.501656589150000E9    -4.573662196628661E-1   -2.574543858896693E-1   -1.454702183482210E-2    4.431464085362214E-2   -1.228274344811867E-2    4.407630125584300E-2   -5.015628587428727E-1   -8.176045520582111E-2
 6.501669183825000E9    -4.578976480740429E-1   -2.564337090177641E-1   -1.455640121792264E-2    4.467718855225990E-2   -1.217847419588391E-2    4.439602409538120E-2   -5.016997896769307E-1   -8.027640965251766E-2
 6.501681778500000E9    -4.584235922944859E-1   -2.554253448772268E-1   -1.457095066431095E-2    4.510194662211404E-2   -1.229490267269687E-2    4.475044354000647E-2   -5.017849363380262E-1   -7.874297981706918E-2
 6.501694373175000E9    -4.588440640908434E-1   -2.545701726258474E-1   -1.442170741031256E-2    4.541783706286861E-2   -1.215939039084230E-2    4.502324569733997E-2   -5.018814377635975E-1   -7.720361689253487E-2
 6.501706967850000E9    -4.594733128219033E-1   -2.534234220621363E-1   -1.456001675154387E-2    4.573842466995750E-2   -1.204711304728329E-2    4.544511160671683E-2   -5.019157630131651E-1   -7.565433427381700E-2
 6.501719562525000E9    -4.598842318003786E-1   -2.524704654582967E-1   -1.435734221556071E-2    4.612618395670176E-2   -1.203914903509230E-2    4.578566152842357E-2   -5.021603398063840E-1   -7.419743585145226E-2
 6.501732157200000E9    -4.604099725168427E-1   -2.514507716459196E-1   -1.438770939377367E-2    4.643543735402621E-2   -1.202178202929726E-2    4.615331201806733E-2   -5.021945840816606E-1   -7.260205410226966E-2
 6.501744751875000E9    -4.609321264182009E-1   -2.503702308561590E-1   -1.416934239996055E-2    4.677170550858937E-2   -1.198213558660607E-2    4.647938097673050E-2   -5.021667043010878E-1   -7.124768280502239E-2
 6.501757346550000E9    -4.613580490886923E-1   -2.495199098710719E-1   -1.423448629191250E-2    4.729835494132387E-2   -1.192463898666605E-2    4.688480164733912E-2   -5.025823482618659E-1   -6.969681921641209E-2
 6.501769941225000E9    -4.618050970702344E-1   -2.484959185965074E-1   -1.432602144901784E-2    4.766436123698480E-2   -1.199179043392787E-2    4.726830635590751E-2   -5.023877972202873E-1   -6.795582610497629E-2
 6.501782535900000E9    -4.624236403904990E-1   -2.473557996165908E-1   -1.431001571396574E-2    4.816928799072599E-2   -1.190868386092376E-2    4.766021904020184E-2   -5.025351162747036E-1   -6.645883551628425E-2
 6.501795130575000E9    -4.628498970638443E-1   -2.463058191475983E-1   -1.419391386222368E-2    4.844512248607485E-2   -1.176802241067199E-2    4.806452340847089E-2   -5.025883091702061E-1   -6.507937490243350E-2
 6.501807725250000E9    -4.633288842994392E-1   -2.452500889037786E-1   -1.420426342760326E-2    4.870693666990429E-2   -1.181082758276930E-2    4.842028697344024E-2   -5.026358108335919E-1   -6.337192851319763E-2
 6.501820319925000E9    -4.638744136214396E-1   -2.442730727819061E-1   -1.411064101794899E-2    4.928622545191958E-2   -1.170405723668670E-2    4.878441845852280E-2   -5.026669476869390E-1   -6.178238318461345E-2
 6.501832914600000E9    -4.643428740577333E-1   -2.432432081073459E-1   -1.422317207046664E-2    4.958995638850723E-2   -1.162468596404065E-2    4.912862848433102E-2   -5.027471559157571E-1   -6.018739559695475E-2
 6.501845509275000E9    -4.647458868205174E-1   -2.421250014669838E-1   -1.409483416408216E-2    5.006471287492822E-2   -1.152514292981216E-2    4.963704337667281E-2   -5.027232565894099E-1   -5.865920086672891E-2
 6.501858103950000E9    -4.652148423418508E-1   -2.410510363569094E-1   -1.385303287623985E-2    5.043121504385884E-2   -1.153236168886675E-2    5.002959844125324E-2   -5.028719827588793E-1   -5.698037930894707E-2
 6.501870698625000E9    -4.657016515609725E-1   -2.401109451266641E-1   -1.394435108518054E-2    5.098157684424746E-2   -1.145076648956100E-2    5.047057578208109E-2   -5.027486334113781E-1   -5.532269961056589E-2
 6.501883293300000E9    -4.661457831847170E-1   -2.389571544182487E-1   -1.383946342281128E-2    5.126984283198036E-2   -1.143628138679591E-2    5.082427380129233E-2   -5.027510861075518E-1   -5.360451972620581E-2
 6.501895887975000E9    -4.666483363665038E-1   -2.379587933818097E-1   -1.387124532525093E-2    5.185399807762605E-2   -1.130928588999281E-2    5.132959188823830E-2   -5.027011375011703E-1   -5.207627391949157E-2
 6.501908482650000E9    -4.670912091786253E-1   -2.368933764153908E-1   -1.384469515231484E-2    5.217068711355585E-2   -1.120022698177683E-2    5.177785884911218E-2   -5.028438121990860E-1   -5.044693580427085E-2
 6.501921077325000E9    -4.675833651846187E-1   -2.357539296401867E-1   -1.376176003192733E-2    5.281510333831397E-2   -1.113543233376491E-2    5.222252590730520E-2   -5.028225983467903E-1   -4.875870058707980E-2
 6.501933672000000E9    -4.681297440875757E-1   -2.346773106818957E-1   -1.367664806213948E-2    5.321458337490732E-2   -1.106898216713052E-2    5.257131794334937E-2   -5.028067498223048E-1   -4.705047993483120E-2
 6.501946266675000E9    -4.685457168499084E-1   -2.335367065202031E-1   -1.358870413537024E-2    5.363083987982134E-2   -1.096196810893747E-2    5.310698111742985E-2   -5.028783633887394E-1   -4.527724800222842E-2
 6.501958861350000E9    -4.689627840057283E-1   -2.323886410104500E-1   -1.356711294600261E-2    5.404865177362501E-2   -1.087793002984811E-2    5.353611827591073E-2   -5.028449404940357E-1   -4.359500343263711E-2
 6.501971456025000E9    -4.693515533229248E-1   -2.316041563627315E-1   -1.363518321990744E-2    5.466518252971495E-2   -1.082634417644922E-2    5.404306548345995E-2   -5.027289536895849E-1   -4.213988886168697E-2
 6.501984050700000E9    -4.698220914591089E-1   -2.303725846470970E-1   -1.336758989254610E-2    5.521686434854121E-2   -1.072422685492478E-2    5.454527923495328E-2   -5.027451312179133E-1   -4.020801548174559E-2
 6.501996645375000E9    -4.703533680613206E-1   -2.292902941447920E-1   -1.329971386720474E-2    5.561431307189628E-2   -1.059934582480799E-2    5.490006934369814E-2   -5.026261187166614E-1   -3.838251096450620E-2
 6.502009240050000E9    -4.708308746292421E-1   -2.281874459663165E-1   -1.328429232114978E-2    5.627078694853681E-2   -1.055339198121653E-2    5.551245530608263E-2   -5.026633723662030E-1   -3.675851331372185E-2
 6.502021834725000E9    -4.710893901317339E-1   -2.269827132951292E-1   -1.313825879644864E-2    5.676273732466144E-2   -1.047869583883569E-2    5.598767648793976E-2   -5.025496465372459E-1   -3.481231759094699E-2
 6.502034429400000E9    -4.716045857044738E-1   -2.259141798145383E-1   -1.317171808337032E-2    5.723180306828813E-2   -1.043914529238874E-2    5.654364178000065E-2   -5.026514604388568E-1   -3.325702575250184E-2
 6.502047024075000E9    -4.720638698370172E-1   -2.247741188727135E-1   -1.299596541577620E-2    5.775339964792912E-2   -1.037652140712036E-2    5.695575160247791E-2   -5.021900695238106E-1   -3.119343349066459E-2
 6.502059618750000E9    -4.725612235022212E-1   -2.236195198868908E-1   -1.302397788546042E-2    5.833054695613991E-2   -1.016934840837546E-2    5.753907869709359E-2   -5.021684115669739E-1   -2.942434078373504E-2
