#  HZ   S   RI   R     50.00 
! Rohde & Schwarz Vector Network Analyzer 
! Rohde-Schwarz,ZNB20-2Port,1311601062101988,3.16
! Created: UTC 3/20/2024, 11:57:16 AM
! freq[Hz]                re:S11                  im:S11                  re:S21                  im:S21                  re:S12                  im:S12                  re:S22                  im:S22
 6.500926548000000E9    -4.254482494546773E-1   -3.105996298495766E-1   -1.503877728167413E-2    2.992297084727622E-2   -1.325605054098425E-2    3.012188260140849E-2   -4.886365764300008E-1   -1.572943929344910E-1
 6.500939142850000E9    -4.260554906716891E-1   -3.098758854745082E-1   -1.493941254721871E-2    3.007613029453875E-2   -1.322324872086310E-2    3.019687687808894E-2   -4.889842940677607E-1   -1.561686600699198E-1
 6.500951737700000E9    -4.265994838316270E-1   -3.090974713007008E-1   -1.490507861923980E-2    3.038017692319671E-2   -1.332386186796861E-2    3.048954337684304E-2   -4.893001136151796E-1   -1.550244173907395E-1
 6.500964332550000E9    -4.271632404790681E-1   -3.081218602980905E-1   -1.497799281366084E-2    3.048512299670722E-2   -1.319370649703849E-2    3.057316091160638E-2   -4.895988266180096E-1   -1.538134033133944E-1
 6.500976927400000E9    -4.278717312007981E-1   -3.073645587412182E-1   -1.493063663618233E-2    3.071490347385434E-2   -1.320636880168022E-2    3.074328673912254E-2   -4.898279104719769E-1   -1.525553728277212E-1
 6.500989522250000E9    -4.283933723510800E-1   -3.065107035530550E-1   -1.505627032376807E-2    3.076757799685372E-2   -1.313638607563389E-2    3.090911795448127E-2   -4.901878210230197E-1   -1.513665822561324E-1
 6.501002117100000E9    -4.289674655332144E-1   -3.055211548445166E-1   -1.500838000982646E-2    3.096846467589869E-2   -1.322903215482494E-2    3.114801609108044E-2   -4.905546203345195E-1   -1.502860610955065E-1
 6.501014711950000E9    -4.295114015879177E-1   -3.046770399137199E-1   -1.481953920958687E-2    3.113902130636011E-2   -1.324406272939327E-2    3.134322114733094E-2   -4.908014901179884E-1   -1.489426714193828E-1
 6.501027306800000E9    -4.300997106861441E-1   -3.037509232532939E-1   -1.496562370368505E-2    3.131297300967271E-2   -1.316018094476959E-2    3.154449134276595E-2   -4.910306826399444E-1   -1.477426860451284E-1
 6.501039901650000E9    -4.306989578855706E-1   -3.030035701785169E-1   -1.485084447484457E-2    3.174315755740143E-2   -1.318760970783352E-2    3.164348783133664E-2   -4.912857763916456E-1   -1.467534567888492E-1
 6.501052496500000E9    -4.312905197387840E-1   -3.020254897532910E-1   -1.496323947369228E-2    3.176330009301466E-2   -1.316308540444430E-2    3.195243580800729E-2   -4.915863040246410E-1   -1.452788827699446E-1
 6.501065091350000E9    -4.318722043843922E-1   -3.013385291209931E-1   -1.500047242660989E-2    3.214517864262150E-2   -1.313195691270435E-2    3.206194787025472E-2   -4.920387813574499E-1   -1.441715612347645E-1
 6.501077686200000E9    -4.324621358532635E-1   -3.003107916246342E-1   -1.494761594315029E-2    3.227251764809039E-2   -1.317464364820844E-2    3.234401388159337E-2   -4.922208844783113E-1   -1.428281366865176E-1
 6.501090281050000E9    -4.329847517489040E-1   -2.993547778127366E-1   -1.498004008855907E-2    3.241978721042623E-2   -1.314368964556906E-2    3.247973036664155E-2   -4.924563404651667E-1   -1.416042972184538E-1
 6.501102875900000E9    -4.335298745878166E-1   -2.985901107297261E-1   -1.495296330207623E-2    3.268769404632092E-2   -1.320902445826407E-2    3.272352616620407E-2   -4.927815612850326E-1   -1.404954645304055E-1
 6.501115470750000E9    -4.341288938883963E-1   -2.977452433380837E-1   -1.488331228249574E-2    3.272222369734048E-2   -1.315255958207912E-2    3.288610755273306E-2   -4.929289087327740E-1   -1.392393127707546E-1
 6.501128065600000E9    -4.347680362715200E-1   -2.968635587931373E-1   -1.488070573312825E-2    3.302819249467896E-2   -1.318389990530525E-2    3.310849385122457E-2   -4.933123826483732E-1   -1.380039447481313E-1
 6.501140660450000E9    -4.352556495242577E-1   -2.959534214122481E-1   -1.493923453372627E-2    3.333994432116231E-2   -1.310293320785616E-2    3.331006830181401E-2   -4.933995611842579E-1   -1.367519162270484E-1
 6.501153255300000E9    -4.359813613607803E-1   -2.950407552521884E-1   -1.494489431950408E-2    3.351318142172606E-2   -1.311938370451468E-2    3.355215773447470E-2   -4.938759716604741E-1   -1.354868874891512E-1
 6.501165850150000E9    -4.364812729883284E-1   -2.940665151497948E-1   -1.502443222399531E-2    3.378961854641376E-2   -1.307849397863503E-2    3.372157948027435E-2   -4.942084526885334E-1   -1.341422010543456E-1
 6.501178445000000E9    -4.369879067087995E-1   -2.932359077302198E-1   -1.490390032719000E-2    3.384230608402827E-2   -1.319456629207953E-2    3.395695344726912E-2   -4.942765212372521E-1   -1.331326643937799E-1
 6.501191039850000E9    -4.377003149327303E-1   -2.923555712623211E-1   -1.494650372028689E-2    3.415977130233240E-2   -1.315224901729381E-2    3.397115452816661E-2   -4.946868538044268E-1   -1.318697508592531E-1
 6.501203634700000E9    -4.381390767413760E-1   -2.914999809707842E-1   -1.492048244901748E-2    3.432169990946657E-2   -1.305504358902424E-2    3.435304751659847E-2   -4.948749021566832E-1   -1.305094904063085E-1
 6.501216229550000E9    -4.386917105254551E-1   -2.906166425199967E-1   -1.495392964682049E-2    3.459529917814165E-2   -1.311431622110827E-2    3.458426130417444E-2   -4.951048575482717E-1   -1.293267401778555E-1
 6.501228824400000E9    -4.392737762567059E-1   -2.896985895109617E-1   -1.489612988045134E-2    3.469659803387058E-2   -1.312149568489131E-2    3.478329107022159E-2   -4.954575619444526E-1   -1.280218884656183E-1
 6.501241419250000E9    -4.398273630886148E-1   -2.887886780123987E-1   -1.499590139438716E-2    3.499009802051040E-2   -1.294844310172360E-2    3.509424537957090E-2   -4.955308145406798E-1   -1.267319872095057E-1
 6.501254014100000E9    -4.403814174635604E-1   -2.879970742950886E-1   -1.484793295817501E-2    3.527853949003976E-2   -1.295583847251538E-2    3.527273309840901E-2   -4.958826598957649E-1   -1.254786526425275E-1
 6.501266608950000E9    -4.409546300410268E-1   -2.870045360854168E-1   -1.490837815956814E-2    3.549859969172565E-2   -1.298889577796462E-2    3.551213581582319E-2   -4.959792231075149E-1   -1.242844149618165E-1
 6.501279203800000E9    -4.415536611880180E-1   -2.860892402678121E-1   -1.488365557267316E-2    3.584792563457467E-2   -1.301316948352713E-2    3.577366095447217E-2   -4.963252696083974E-1   -1.230271390271342E-1
 6.501291798650000E9    -4.421133417565506E-1   -2.851106838915645E-1   -1.499166749979233E-2    3.597604511980128E-2   -1.297536000576403E-2    3.590047469702627E-2   -4.964482948957644E-1   -1.216249193478010E-1
 6.501304393500000E9    -4.425455138231878E-1   -2.841539042749052E-1   -1.493348180876626E-2    3.628282110059381E-2   -1.298000591394677E-2    3.621178521890925E-2   -4.968195169218689E-1   -1.202894597863224E-1
 6.501316988350000E9    -4.431030006278181E-1   -2.833107380912933E-1   -1.492070795921706E-2    3.647669890478126E-2   -1.299187144382776E-2    3.645052235334813E-2   -4.969183144877000E-1   -1.190683466353466E-1
 6.501329583200000E9    -4.437065919684206E-1   -2.823462452804483E-1   -1.502737373030712E-2    3.687229608071241E-2   -1.297649528051897E-2    3.670656176055142E-2   -4.971008233800935E-1   -1.176421078893589E-1
 6.501342178050000E9    -4.442311977942148E-1   -2.814401025979850E-1   -1.482189706991017E-2    3.700619600225177E-2   -1.285102516534434E-2    3.693246266831145E-2   -4.973088114060596E-1   -1.162996681101727E-1
 6.501354772900000E9    -4.447646468843488E-1   -2.804940494904474E-1   -1.482166956331006E-2    3.731052024441234E-2   -1.297078718887248E-2    3.719602402601128E-2   -4.976695417580045E-1   -1.151245694068133E-1
 6.501367367750000E9    -4.453312075905102E-1   -2.795998442176439E-1   -1.481962036601597E-2    3.752688577456458E-2   -1.306302185438974E-2    3.740742754427922E-2   -4.977315543933363E-1   -1.138741984944566E-1
 6.501379962600000E9    -4.458701927099742E-1   -2.786840943601374E-1   -1.501557339055540E-2    3.773780637398688E-2   -1.286963780238462E-2    3.772677489514513E-2   -4.979809624240167E-1   -1.123771984411293E-1
 6.501392557450000E9    -4.464028668034430E-1   -2.778329439713690E-1   -1.485960994101237E-2    3.791750884436146E-2   -1.283921573188222E-2    3.783629627920532E-2   -4.981442032292395E-1   -1.110610908819454E-1
 6.501405152300000E9    -4.470070320005792E-1   -2.768577819202354E-1   -1.493891241420399E-2    3.828225000773012E-2   -1.286696650942956E-2    3.822950949912379E-2   -4.983871426529382E-1   -1.096997181513566E-1
 6.501417747150000E9    -4.475210456861960E-1   -2.758929521850299E-1   -1.477210001789065E-2    3.861309650621573E-2   -1.272374237032759E-2    3.843406113741079E-2   -4.986577038104016E-1   -1.084129772675649E-1
 6.501430342000000E9    -4.479779878284423E-1   -2.749355854580970E-1   -1.489411274129802E-2    3.877552998846584E-2   -1.278138555993327E-2    3.870136296712560E-2   -4.988722450127243E-1   -1.069531208468270E-1
 6.501442936850000E9    -4.485583828619616E-1   -2.740358383680249E-1   -1.492501940803239E-2    3.904104520330370E-2   -1.275608236016358E-2    3.891613540346044E-2   -4.990187430309308E-1   -1.056943764024780E-1
 6.501455531700000E9    -4.491042923316712E-1   -2.730790213749097E-1   -1.475018227455020E-2    3.937307247179354E-2   -1.276031625830803E-2    3.925418932721341E-2   -4.991756435751367E-1   -1.044393983257221E-1
 6.501468126550000E9    -4.495835236240693E-1   -2.721214921002627E-1   -1.484001366350098E-2    3.955790238470978E-2   -1.270949547945042E-2    3.954759765349047E-2   -4.992605140509894E-1   -1.028484209602059E-1
 6.501480721400000E9    -4.501387633913792E-1   -2.710821982287523E-1   -1.473790092923912E-2    4.006382427035925E-2   -1.267889937936113E-2    3.983005264353194E-2   -4.995378575585636E-1   -1.015569058542278E-1
 6.501493316250000E9    -4.507752684992195E-1   -2.701640568561912E-1   -1.465583987670433E-2    4.024356151728323E-2   -1.265967776386762E-2    4.006808890260209E-2   -4.997909139195139E-1   -1.003459880345164E-1
 6.501505911100000E9    -4.511748847931529E-1   -2.692312917398169E-1   -1.486978118889716E-2    4.041158688565499E-2   -1.265746012005548E-2    4.036040700133901E-2   -4.998619703031346E-1   -9.880269750023844E-2
 6.501518505950000E9    -4.516633758266733E-1   -2.683531697920937E-1   -1.469979914552434E-2    4.089578857665691E-2   -1.263295092591976E-2    4.061805772028236E-2   -5.000064881302785E-1   -9.739927321401944E-2
 6.501531100800000E9    -4.522324163065473E-1   -2.672754832856210E-1   -1.471554636932724E-2    4.104223363080834E-2   -1.265774461129902E-2    4.097925169601328E-2   -5.001287578306055E-1   -9.595652026778262E-2
 6.501543695650000E9    -4.527797663524218E-1   -2.664274172036747E-1   -1.480007908307002E-2    4.149060113737826E-2   -1.257850379816275E-2    4.122664975289593E-2   -5.003416333173605E-1   -9.462045754147559E-2
 6.501556290500000E9    -4.533770402302669E-1   -2.654117092456815E-1   -1.470180261945140E-2    4.182868861784712E-2   -1.257130271925880E-2    4.144277554430034E-2   -5.006168548197105E-1   -9.328856480935387E-2
 6.501568885350000E9    -4.539045068677088E-1   -2.644439771044477E-1   -1.462978226995886E-2    4.212163279823963E-2   -1.252955255893286E-2    4.181202505883713E-2   -5.007572158921064E-1   -9.174918093766446E-2
 6.501581480200000E9    -4.543432362335236E-1   -2.635028718895890E-1   -1.471912459139581E-2    4.236030122661368E-2   -1.251098899272571E-2    4.217740830585068E-2   -5.007194818246790E-1   -9.049784947731691E-2
 6.501594075050000E9    -4.548421444641778E-1   -2.624520794263140E-1   -1.461282961898412E-2    4.271299498235510E-2   -1.249084885448322E-2    4.246098840806307E-2   -5.009590741983641E-1   -8.896808493012845E-2
 6.501606669900000E9    -4.554324569308019E-1   -2.616173794373839E-1   -1.472064570460126E-2    4.310909669077547E-2   -1.236871468473114E-2    4.281231333328901E-2   -5.010992688043279E-1   -8.758521448984873E-2
 6.501619264750000E9    -4.559329080293386E-1   -2.604579665679057E-1   -1.461044514531117E-2    4.321810497397978E-2   -1.241432535146301E-2    4.300299335146184E-2   -5.012267252479065E-1   -8.612334534504971E-2
 6.501631859600000E9    -4.563077322440490E-1   -2.595949593768618E-1   -1.470472884241282E-2    4.367927418575025E-2   -1.225263064161920E-2    4.341220666769240E-2   -5.013829880817933E-1   -8.460772643505803E-2
 6.501644454450000E9    -4.568458826658656E-1   -2.585886925716671E-1   -1.453991802726510E-2    4.404481524031267E-2   -1.238247266329990E-2    4.374687193332408E-2   -5.014392216116798E-1   -8.311394746703975E-2
 6.501657049300000E9    -4.574043874446895E-1   -2.575808992235292E-1   -1.451657312636291E-2    4.436411281868852E-2   -1.229777924536925E-2    4.407459525214052E-2   -5.015307415257576E-1   -8.178558993189178E-2
 6.501669644150000E9    -4.578470612901017E-1   -2.565904469089993E-1   -1.445252184318925E-2    4.471993321713002E-2   -1.223190225114226E-2    4.436210794796171E-2   -5.016811122865303E-1   -8.018439198520486E-2
 6.501682239000000E9    -4.583539675192550E-1   -2.555358196406911E-1   -1.454300131757474E-2    4.519931483486545E-2   -1.208485904650429E-2    4.465642112346641E-2   -5.017786272694313E-1   -7.874318888088853E-2
 6.501694833850000E9    -4.588693013512826E-1   -2.546041249130500E-1   -1.450793002384511E-2    4.536615264899269E-2   -1.214439663748374E-2    4.506836295277880E-2   -5.018845532883309E-1   -7.721985620359709E-2
 6.501707428700000E9    -4.593713150364384E-1   -2.535428125051525E-1   -1.456352902092879E-2    4.567711857431946E-2   -1.217876095303649E-2    4.538885918746528E-2   -5.020763527870485E-1   -7.558387284944236E-2
 6.501720023550000E9    -4.599126348915584E-1   -2.525799725913129E-1   -1.438504303207591E-2    4.609089356164760E-2   -1.205754892449617E-2    4.576917892419306E-2   -5.021069424761253E-1   -7.428394923585055E-2
 6.501732618400000E9    -4.603178105561678E-1   -2.515958964246353E-1   -1.449955562016877E-2    4.650129817841865E-2   -1.207947413770026E-2    4.621320552242301E-2   -5.022163705847310E-1   -7.261000856404727E-2
 6.501745213250000E9    -4.608626904226705E-1   -2.505858518332730E-1   -1.431088261659916E-2    4.683631096008950E-2   -1.200241315824175E-2    4.655915450673810E-2   -5.022158260491304E-1   -7.110134159608285E-2
 6.501757808100000E9    -4.614298405459283E-1   -2.495039216651821E-1   -1.445497126465393E-2    4.698864429270687E-2   -1.198518765726419E-2    4.685281722050114E-2   -5.024759713740791E-1   -6.957169611980445E-2
 6.501770402950000E9    -4.618077193618737E-1   -2.485693830317174E-1   -1.424432196356058E-2    4.772174243910494E-2   -1.194654005925141E-2    4.719689008698967E-2   -5.023820912735741E-1   -6.816218662912583E-2
 6.501782997800000E9    -4.622803023553677E-1   -2.475359546916495E-1   -1.424009937068598E-2    4.794496684507023E-2   -1.188522735064897E-2    4.759070579247467E-2   -5.023703035950295E-1   -6.645973939567210E-2
 6.501795592650000E9    -4.627019693569047E-1   -2.464475781538905E-1   -1.422686196988983E-2    4.849992109313053E-2   -1.176587444015674E-2    4.798283724138879E-2   -5.024776669681293E-1   -6.503001811234567E-2
 6.501808187500000E9    -4.633109937920090E-1   -2.454791785221817E-1   -1.413357532482384E-2    4.875003093596247E-2   -1.168856072419494E-2    4.840711796304385E-2   -5.025886344528177E-1   -6.327922494700278E-2
 6.501820782350000E9    -4.637782933825628E-1   -2.444342491836735E-1   -1.426678637491731E-2    4.925534721483257E-2   -1.173819279944555E-2    4.883879353767260E-2   -5.026166287378969E-1   -6.182217292762364E-2
 6.501833377200000E9    -4.641443320161406E-1   -2.433610195727849E-1   -1.411095398528375E-2    4.965702538429154E-2   -1.170187794948044E-2    4.923042486291130E-2   -5.026048877767858E-1   -6.029071925826455E-2
 6.501845972050000E9    -4.647519509683589E-1   -2.422360787028708E-1   -1.405508166098879E-2    5.015567136649662E-2   -1.162880311211697E-2    4.956909321525136E-2   -5.026689048750738E-1   -5.863793539039578E-2
 6.501858566900000E9    -4.652509733235760E-1   -2.410906558997353E-1   -1.392109457820915E-2    5.054064481243242E-2   -1.150418718344232E-2    5.002353949696028E-2   -5.026695422654321E-1   -5.684404081937955E-2
 6.501871161750000E9    -4.657391046028206E-1   -2.401263724398623E-1   -1.392182430722530E-2    5.093753831045367E-2   -1.161726494801535E-2    5.042880044143146E-2   -5.026815807027004E-1   -5.532957021917575E-2
 6.501883756600000E9    -4.661168461610178E-1   -2.390190150841908E-1   -1.388448048913432E-2    5.138083343196902E-2   -1.142898225087848E-2    5.082941400039503E-2   -5.028701343473222E-1   -5.371083604257683E-2
 6.501896351450000E9    -4.666655912282311E-1   -2.380009489664336E-1   -1.376913584752345E-2    5.179393677599991E-2   -1.135672136252801E-2    5.127396529276848E-2   -5.028754273779965E-1   -5.199910859951452E-2
 6.501908946300000E9    -4.670426621080117E-1   -2.370128574019013E-1   -1.383765689269336E-2    5.232280973594498E-2   -1.118663285441613E-2    5.165844678706040E-2   -5.027838234506173E-1   -5.030424889350388E-2
 6.501921541150000E9    -4.674837727334222E-1   -2.359167989888613E-1   -1.380668555641599E-2    5.271420172024444E-2   -1.125964851298389E-2    5.219115501601183E-2   -5.029048629469041E-1   -4.865802383364772E-2
 6.501934136000000E9    -4.680234455005172E-1   -2.348079778331810E-1   -1.373430685161847E-2    5.327073223532244E-2   -1.108858258386301E-2    5.260214823648011E-2   -5.027288101568834E-1   -4.711545081072189E-2
 6.501946730850000E9    -4.685748836370653E-1   -2.336373142576881E-1   -1.373832543495763E-2    5.362495326844415E-2   -1.104061082475369E-2    5.309301508766568E-2   -5.027756527929239E-1   -4.526507701932209E-2
 6.501959325700000E9    -4.690068956631905E-1   -2.326367500590211E-1   -1.350984298121584E-2    5.406787986050150E-2   -1.100165689043482E-2    5.359587663244757E-2   -5.026999801867816E-1   -4.361495522492970E-2
 6.501971920550000E9    -4.693998811587784E-1   -2.315416276093526E-1   -1.348943853248000E-2    5.456862948163087E-2   -1.095622256476685E-2    5.397668197474587E-2   -5.026758326651751E-1   -4.188313636199990E-2
 6.501984515400000E9    -4.699061905060379E-1   -2.304640024136972E-1   -1.332396885168426E-2    5.518612590893465E-2   -1.072540951129127E-2    5.451458979665880E-2   -5.025843096118654E-1   -4.022031475077897E-2
 6.501997110250000E9    -4.703625953289556E-1   -2.293561062114460E-1   -1.344153871411550E-2    5.564009947348663E-2   -1.069708321558863E-2    5.500696369114288E-2   -5.025872598469801E-1   -3.829695491698512E-2
 6.502009705100000E9    -4.706643762440135E-1   -2.282939858910981E-1   -1.331786208230015E-2    5.615794415644922E-2   -1.066793861813005E-2    5.543538259464943E-2   -5.026932683190505E-1   -3.669982760749185E-2
 6.502022299950000E9    -4.711748927789329E-1   -2.272526074995014E-1   -1.326872635597591E-2    5.664636752620814E-2   -1.056273097497844E-2    5.583959449467190E-2   -5.024583619368613E-1   -3.472154962595615E-2
 6.502034894800000E9    -4.715423526877800E-1   -2.260347447023714E-1   -1.317168218831512E-2    5.729265478648891E-2   -1.042069807935237E-2    5.643371971896307E-2   -5.023378728682804E-1   -3.294888203770966E-2
 6.502047489650000E9    -4.720837495227285E-1   -2.248972945159023E-1   -1.317697346443838E-2    5.781149829806611E-2   -1.039111117929398E-2    5.703485066771798E-2   -5.022636156997413E-1   -3.118715757842962E-2
 6.502060084500000E9    -4.725169720242018E-1   -2.236924920099058E-1   -1.299568974656593E-2    5.835545853287258E-2   -1.030182766282944E-2    5.760034082803663E-2   -5.021721087698404E-1   -2.944281613279502E-2
