#  HZ   S   RI   R     50.00 
! Rohde & Schwarz Vector Network Analyzer 
! Rohde-Schwarz,ZNB20-2Port,1311601062101988,3.16
! Created: UTC 3/20/2024, 11:57:44 AM
! freq[Hz]                re:S11                  im:S11                  re:S21                  im:S21                  re:S12                  im:S12                  re:S22                  im:S22
 6.500941203000000E9    -4.257843653220645E-1   -3.106720860096741E-1   -1.480271830698905E-2    3.011113658497303E-2   -1.317339311180267E-2    3.019529047560271E-2   -4.893090767903862E-1   -1.560377669744042E-1
 6.500953753850000E9    -4.263850465196000E-1   -3.098658397472551E-1   -1.503363916699631E-2    3.024372887513436E-2   -1.324511431338043E-2    3.034930623167961E-2   -4.895688330858847E-1   -1.549727078469475E-1
 6.500966304700000E9    -4.269045240236607E-1   -3.089326137074703E-1   -1.484067859811552E-2    3.043110156508171E-2   -1.324488313348023E-2    3.063152570263625E-2   -4.898412138628878E-1   -1.536697805099992E-1
 6.500978855550000E9    -4.274839371835214E-1   -3.081388420437289E-1   -1.487218428161996E-2    3.071019767797024E-2   -1.330889856838932E-2    3.065363915202803E-2   -4.901187798625350E-1   -1.524446060497284E-1
 6.500991406400000E9    -4.280207957286252E-1   -3.072196806476975E-1   -1.490801305016009E-2    3.083733743323344E-2   -1.318185810267012E-2    3.090436004499597E-2   -4.905001690666763E-1   -1.512353257067054E-1
 6.501003957250000E9    -4.287543978775849E-1   -3.063862994536616E-1   -1.499612735766392E-2    3.095017784202652E-2   -1.331840953105103E-2    3.111327694504796E-2   -4.907437244683042E-1   -1.500485249480336E-1
 6.501016508100000E9    -4.291989749066475E-1   -3.055220708759229E-1   -1.469421444718515E-2    3.119267813279736E-2   -1.324622329603923E-2    3.130189942223707E-2   -4.910789834141819E-1   -1.490624113463355E-1
 6.501029058950000E9    -4.297550524901940E-1   -3.046665991716628E-1   -1.503372249956731E-2    3.123307001173636E-2   -1.319857508565622E-2    3.149891599022753E-2   -4.911831758141774E-1   -1.477563781692162E-1
 6.501041609800000E9    -4.304172376877322E-1   -3.037388428551488E-1   -1.497893373317135E-2    3.152824194948180E-2   -1.313724882488923E-2    3.170366968111847E-2   -4.916085456750260E-1   -1.465551420559263E-1
 6.501054160650000E9    -4.309906337511549E-1   -3.029157031127953E-1   -1.492432760207156E-2    3.180724276806625E-2   -1.324892112517066E-2    3.180665198814445E-2   -4.917595194465983E-1   -1.453398368939020E-1
 6.501066711500000E9    -4.315494831462778E-1   -3.020591101068172E-1   -1.504350302911808E-2    3.183572661096681E-2   -1.312845990299123E-2    3.196919074050087E-2   -4.921434631263328E-1   -1.441101392599213E-1
 6.501079262350000E9    -4.321508762685298E-1   -3.011619693689865E-1   -1.500266671035454E-2    3.217031508814638E-2   -1.322040141334157E-2    3.230047290681547E-2   -4.924126377575055E-1   -1.428836595461588E-1
 6.501091813200000E9    -4.328012071422623E-1   -3.003104117705628E-1   -1.488473529861374E-2    3.230699706610516E-2   -1.321014511185031E-2    3.248118018892804E-2   -4.927124159734952E-1   -1.415900698736430E-1
 6.501104364050000E9    -4.333367360941831E-1   -2.993681811074986E-1   -1.490697381818406E-2    3.267740062484684E-2   -1.318725474111459E-2    3.263732054557874E-2   -4.928623376879055E-1   -1.405109782308151E-1
 6.501116914900000E9    -4.339277782684525E-1   -2.985223004327767E-1   -1.495616491135186E-2    3.280460232839138E-2   -1.311391495534700E-2    3.281626957195191E-2   -4.930002744035193E-1   -1.393933966371729E-1
 6.501129465750000E9    -4.344935029954047E-1   -2.976567214673476E-1   -1.487713185442397E-2    3.299689004290833E-2   -1.322686235879309E-2    3.297232279230108E-2   -4.934305654831072E-1   -1.380279835366955E-1
 6.501142016600000E9    -4.349541850159088E-1   -2.968193340150866E-1   -1.492704311638376E-2    3.326653047469616E-2   -1.313970810298020E-2    3.324106746256478E-2   -4.937135660842454E-1   -1.368066678288393E-1
 6.501154567450000E9    -4.356336225040632E-1   -2.958564233240598E-1   -1.494305097776998E-2    3.341882452509449E-2   -1.316621718800466E-2    3.348642978168740E-2   -4.940081104299269E-1   -1.355975494460797E-1
 6.501167118300000E9    -4.361471362137576E-1   -2.949844174181225E-1   -1.481025687878329E-2    3.350017400257587E-2   -1.309571661357363E-2    3.380436341718214E-2   -4.942715177693334E-1   -1.342867337160461E-1
 6.501179669150000E9    -4.367257137154722E-1   -2.941021171986324E-1   -1.500045973743262E-2    3.388151878709089E-2   -1.314411887876990E-2    3.388827045660505E-2   -4.944344960718657E-1   -1.330544003343950E-1
 6.501192220000000E9    -4.372740884639656E-1   -2.931561116589072E-1   -1.487288848092978E-2    3.403741135288827E-2   -1.323867475068230E-2    3.409618944666246E-2   -4.947203975823657E-1   -1.319456366041556E-1
 6.501204770850000E9    -4.379746322117056E-1   -2.923401858236873E-1   -1.488174213904734E-2    3.431036989393400E-2   -1.319754459789872E-2    3.429868175117307E-2   -4.948966990953541E-1   -1.305986663782994E-1
 6.501217321700000E9    -4.384451180137461E-1   -2.914308963906609E-1   -1.497468437449574E-2    3.454120394160436E-2   -1.310210103110092E-2    3.454911561769695E-2   -4.952058474599683E-1   -1.293390572573561E-1
 6.501229872550000E9    -4.389893010047549E-1   -2.906547694859291E-1   -1.481654833437203E-2    3.466697223453177E-2   -1.303704014208020E-2    3.474121758510200E-2   -4.955668136352290E-1   -1.280974786125450E-1
 6.501242423400000E9    -4.395560609511027E-1   -2.896943952157347E-1   -1.499671238237225E-2    3.500526829426415E-2   -1.312520328754646E-2    3.502494896941347E-2   -4.957406695093584E-1   -1.268607623011805E-1
 6.501254974250000E9    -4.400584073814645E-1   -2.888003285401063E-1   -1.492857742899811E-2    3.519702620944895E-2   -1.311366455100744E-2    3.514618306620148E-2   -4.959570464531391E-1   -1.255004707731685E-1
 6.501267525100000E9    -4.406624134321943E-1   -2.878802815396979E-1   -1.488285801686350E-2    3.537388119050959E-2   -1.301515461699077E-2    3.533437186728740E-2   -4.961173476400189E-1   -1.242029949149362E-1
 6.501280075950000E9    -4.412078438460400E-1   -2.870160489624355E-1   -1.496811617261455E-2    3.574069844671263E-2   -1.303985468375325E-2    3.567058231894020E-2   -4.963416750633682E-1   -1.229346426099805E-1
 6.501292626800000E9    -4.417117017470509E-1   -2.859457095948290E-1   -1.499410476390852E-2    3.599350853378184E-2   -1.302642118848869E-2    3.588441281141365E-2   -4.965975973062620E-1   -1.216047863653374E-1
 6.501305177650000E9    -4.422888643881822E-1   -2.851547380201701E-1   -1.492266179639922E-2    3.601145667958108E-2   -1.299694574786960E-2    3.603069855612689E-2   -4.967701365417971E-1   -1.203369383108703E-1
 6.501317728500000E9    -4.428315890469281E-1   -2.841964656942236E-1   -1.482207953849777E-2    3.644639606126035E-2   -1.302111994719649E-2    3.635512765584990E-2   -4.971403069947327E-1   -1.190408676987456E-1
 6.501330279350000E9    -4.433174918807948E-1   -2.833178867414724E-1   -1.490419280651302E-2    3.654855828852755E-2   -1.306112763135264E-2    3.662072377199887E-2   -4.973728692134861E-1   -1.177847311329074E-1
 6.501342830200000E9    -4.440035172370755E-1   -2.823079746780104E-1   -1.486870920142875E-2    3.685379712062361E-2   -1.306229331082093E-2    3.680193583423844E-2   -4.976271019378122E-1   -1.165346722589046E-1
 6.501355381050000E9    -4.445614799367393E-1   -2.815394853840752E-1   -1.481089482167624E-2    3.706564318857741E-2   -1.295850025791833E-2    3.706538525572257E-2   -4.978298328225822E-1   -1.151596445195354E-1
 6.501367931900000E9    -4.450307273631648E-1   -2.805717740042985E-1   -1.485087761420020E-2    3.741134330047601E-2   -1.288118681196983E-2    3.733888197640971E-2   -4.979451755270193E-1   -1.138275053925878E-1
 6.501380482750000E9    -4.455533258925136E-1   -2.796101030001882E-1   -1.487092609050979E-2    3.770207770134231E-2   -1.299535834641970E-2    3.746301814302733E-2   -4.981805827865962E-1   -1.124977575426811E-1
 6.501393033600000E9    -4.460415828089977E-1   -2.787154358901354E-1   -1.472078530788633E-2    3.788525865113714E-2   -1.285928287820674E-2    3.778491409478277E-2   -4.983611903715495E-1   -1.112400919590690E-1
 6.501405584450000E9    -4.466333349042597E-1   -2.777835672614330E-1   -1.482048091797469E-2    3.817470522154992E-2   -1.285079144966002E-2    3.799978657204667E-2   -4.986488752408042E-1   -1.098712314214925E-1
 6.501418135300000E9    -4.471334411206755E-1   -2.767430104340836E-1   -1.484131581991056E-2    3.851701668373625E-2   -1.286581103760817E-2    3.836573413420052E-2   -4.987781204115464E-1   -1.085057902137735E-1
 6.501430686150000E9    -4.477961052249206E-1   -2.759748030143669E-1   -1.488229073516949E-2    3.866343805079529E-2   -1.283096005518393E-2    3.856398792199702E-2   -4.990806695252726E-1   -1.072702413772811E-1
 6.501443237000000E9    -4.482264181469909E-1   -2.750049449296386E-1   -1.495304002839306E-2    3.902480919570568E-2   -1.286914082243924E-2    3.881663700532720E-2   -4.990938880842346E-1   -1.058563937813406E-1
 6.501455787850000E9    -4.486496589967613E-1   -2.740466146977750E-1   -1.466869059700305E-2    3.925205995765499E-2   -1.292623295347760E-2    3.917603225428080E-2   -4.992287969129381E-1   -1.044663218755003E-1
 6.501468338700000E9    -4.492772855100334E-1   -2.731113498444297E-1   -1.489309816111647E-2    3.956475513915556E-2   -1.277580397529728E-2    3.932691973645852E-2   -4.995385403591810E-1   -1.031567881227034E-1
 6.501480889550000E9    -4.499057952440172E-1   -2.721190933529509E-1   -1.490074359911437E-2    3.986713702646456E-2   -1.272114615249536E-2    3.960285537202290E-2   -4.995094327249323E-1   -1.016638543782747E-1
 6.501493440400000E9    -4.503414096890679E-1   -2.710845336114120E-1   -1.493038103977612E-2    4.006885747922376E-2   -1.274165639948464E-2    3.992161263465657E-2   -4.997939050073866E-1   -1.003094086733622E-1
 6.501505991250000E9    -4.508467152938025E-1   -2.701485107616003E-1   -1.466358241400973E-2    4.046199363413710E-2   -1.272108537136632E-2    4.010614834481556E-2   -5.000977202111370E-1   -9.893240606333149E-2
 6.501518542100000E9    -4.514913267181730E-1   -2.692823600639858E-1   -1.488430484080189E-2    4.073076627205457E-2   -1.269778789446526E-2    4.060525496381513E-2   -5.002228555380056E-1   -9.761585163886204E-2
 6.501531092950000E9    -4.519520057574200E-1   -2.682291086265316E-1   -1.480016620748391E-2    4.105204489057040E-2   -1.266173395295674E-2    4.084623574951431E-2   -5.004987933032080E-1   -9.614698978698070E-2
 6.501543643800000E9    -4.525411264182345E-1   -2.673612838819787E-1   -1.470564252553837E-2    4.128438666999990E-2   -1.267635795617101E-2    4.119004960323230E-2   -5.003194788436481E-1   -9.485505742922024E-2
 6.501556194650000E9    -4.528735189545945E-1   -2.662985026167961E-1   -1.464126620469467E-2    4.160033152101229E-2   -1.270564569922433E-2    4.139541505106187E-2   -5.005474775520207E-1   -9.340712363214423E-2
 6.501568745500000E9    -4.534562928851925E-1   -2.654189032388724E-1   -1.465813621137661E-2    4.190470058827529E-2   -1.261311332428804E-2    4.173995866194725E-2   -5.007600768128643E-1   -9.216124960782392E-2
 6.501581296350000E9    -4.539548669835881E-1   -2.644454140202863E-1   -1.467544011785612E-2    4.230894923941551E-2   -1.260697834667602E-2    4.207147767268690E-2   -5.009873741234399E-1   -9.055024337102720E-2
 6.501593847200000E9    -4.544996703259522E-1   -2.634425860431913E-1   -1.467540260060581E-2    4.254247764691709E-2   -1.243807321226206E-2    4.230362032847036E-2   -5.010011562510598E-1   -8.927583623042043E-2
 6.501606398050000E9    -4.550184836163475E-1   -2.625411550315213E-1   -1.463059538016460E-2    4.284273718860507E-2   -1.249606253300349E-2    4.260251460722494E-2   -5.012488503533022E-1   -8.782101560429781E-2
 6.501618948900000E9    -4.555036514118411E-1   -2.616011507463679E-1   -1.465540747829062E-2    4.312163576784008E-2   -1.251191416788550E-2    4.300167899113454E-2   -5.013725646419284E-1   -8.626952727869243E-2
 6.501631499750000E9    -4.560682124657626E-1   -2.604864579923377E-1   -1.461437666076333E-2    4.337145351438736E-2   -1.255980710100415E-2    4.329177202473117E-2   -5.014248709455317E-1   -8.469391923676439E-2
 6.501644050600000E9    -4.565986902715924E-1   -2.595161778323087E-1   -1.465461331601454E-2    4.393843225122913E-2   -1.243761052767362E-2    4.362442793402775E-2   -5.016889049083236E-1   -8.340406911033388E-2
 6.501656601450000E9    -4.569762973271725E-1   -2.587757811323296E-1   -1.460540294352246E-2    4.409042914735965E-2   -1.233158482986333E-2    4.387357365878956E-2   -5.017930971543664E-1   -8.195216216654684E-2
 6.501669152300000E9    -4.576633588602240E-1   -2.576019680042917E-1   -1.456019479077161E-2    4.454585575295521E-2   -1.235654022152176E-2    4.424401955757733E-2   -5.018197953019855E-1   -8.052840450988108E-2
 6.501681703150000E9    -4.580411624330946E-1   -2.565737921204952E-1   -1.444867541333256E-2    4.480379803579349E-2   -1.227416234644412E-2    4.457583200554646E-2   -5.018719357328774E-1   -7.897120040034068E-2
 6.501694254000000E9    -4.585140473239825E-1   -2.555768174249385E-1   -1.437772358562968E-2    4.535985703174758E-2   -1.220157344674179E-2    4.491826788542292E-2   -5.022833947852076E-1   -7.746931330812720E-2
 6.501706804850000E9    -4.590366778656714E-1   -2.546049143594202E-1   -1.452553370810829E-2    4.552795434665829E-2   -1.213763966196126E-2    4.523926033237315E-2   -5.021877939034685E-1   -7.598619546511311E-2
 6.501719355700000E9    -4.596373865790493E-1   -2.535488212231281E-1   -1.438149281692361E-2    4.598743689630753E-2   -1.216331232733263E-2    4.562237247177686E-2   -5.022605636055163E-1   -7.442247827602659E-2
 6.501731906550000E9    -4.600092638301984E-1   -2.526500773508060E-1   -1.453367881322770E-2    4.634390550744895E-2   -1.211702656308023E-2    4.596440251667164E-2   -5.023586767992482E-1   -7.309824518660887E-2
 6.501744457400000E9    -4.606624760767385E-1   -2.517308302029130E-1   -1.429980446214886E-2    4.680047114969905E-2   -1.206675143576369E-2    4.639828765043125E-2   -5.024169793933054E-1   -7.141736214412128E-2
 6.501757008250000E9    -4.610664234895819E-1   -2.505872738033824E-1   -1.431311090182700E-2    4.699814407593229E-2   -1.198059762858626E-2    4.666122107683693E-2   -5.024825330733775E-1   -6.994208478372049E-2
 6.501769559100000E9    -4.615167553586897E-1   -2.496595017806641E-1   -1.419930422848659E-2    4.743765658883098E-2   -1.206611472778413E-2    4.703092222163769E-2   -5.026356612552025E-1   -6.855942487040305E-2
 6.501782109950000E9    -4.619725159165049E-1   -2.485853359812963E-1   -1.425976225742308E-2    4.784032826096300E-2   -1.197795780416062E-2    4.749635676665869E-2   -5.027452712691818E-1   -6.690315913972025E-2
 6.501794660800000E9    -4.624471693341339E-1   -2.475639103844386E-1   -1.422519510503697E-2    4.820098804860390E-2   -1.191679620850629E-2    4.775611903984281E-2   -5.026290822577597E-1   -6.532549095966100E-2
 6.501807211650000E9    -4.629563036984254E-1   -2.464504221166157E-1   -1.420150243724656E-2    4.872135048154314E-2   -1.187859315172574E-2    4.819846289123723E-2   -5.027798694907682E-1   -6.378477124502870E-2
 6.501819762500000E9    -4.633716686278476E-1   -2.453168379819972E-1   -1.417142315085047E-2    4.903054591989592E-2   -1.172555746931195E-2    4.851829390033089E-2   -5.028916241286088E-1   -6.210592192637310E-2
 6.501832313350000E9    -4.640047339182601E-1   -2.444483862982827E-1   -1.400505979784713E-2    4.948969773447567E-2   -1.173367009178997E-2    4.910905367086587E-2   -5.028486627079456E-1   -6.056917191952178E-2
 6.501844864200000E9    -4.644071670231766E-1   -2.433160537094965E-1   -1.417319735808906E-2    4.983437496063256E-2   -1.165230366230550E-2    4.940810428278464E-2   -5.029033091720299E-1   -5.898052975114684E-2
 6.501857415050000E9    -4.648720575141295E-1   -2.422348912729125E-1   -1.389533862129839E-2    5.026539988014147E-2   -1.157202042540984E-2    4.990127188778665E-2   -5.029184452440504E-1   -5.730213500834515E-2
 6.501869965900000E9    -4.653809149429307E-1   -2.411789750171293E-1   -1.404307932110931E-2    5.070043697579747E-2   -1.157104745514768E-2    5.016993175766576E-2   -5.029740524701029E-1   -5.569887007374491E-2
 6.501882516750000E9    -4.658838365738375E-1   -2.401292028577148E-1   -1.388753420530671E-2    5.112975449155056E-2   -1.146109384289458E-2    5.063338375948299E-2   -5.028792494076302E-1   -5.415212061199113E-2
 6.501895067600000E9    -4.663602843279862E-1   -2.391414058642499E-1   -1.380865094272737E-2    5.170289422731702E-2   -1.148276762620083E-2    5.098844497495175E-2   -5.029951482767435E-1   -5.255834851809124E-2
 6.501907618450000E9    -4.669026608094071E-1   -2.380798176930985E-1   -1.385975510530146E-2    5.198263224292134E-2   -1.131362938772521E-2    5.150776775364187E-2   -5.030413120274192E-1   -5.074025598187844E-2
 6.501920169300000E9    -4.672274882683308E-1   -2.370329822895484E-1   -1.377882190759505E-2    5.262545600433604E-2   -1.127169498607733E-2    5.188123733392668E-2   -5.028805894727206E-1   -4.925821197713273E-2
 6.501932720150000E9    -4.677724015977654E-1   -2.359403131703023E-1   -1.368761474933166E-2    5.304801232328905E-2   -1.111610209669273E-2    5.237193029456193E-2   -5.029807056901500E-1   -4.740495315478978E-2
 6.501945271000000E9    -4.682009111715074E-1   -2.348994675006121E-1   -1.373267899163515E-2    5.337971328128222E-2   -1.115984056496025E-2    5.279582777507972E-2   -5.030955395733182E-1   -4.576205427900108E-2
 6.501957821850000E9    -4.685713659624359E-1   -2.337238987082613E-1   -1.363882701539212E-2    5.390119026237021E-2   -1.105685528538109E-2    5.328826036825763E-2   -5.029831764786766E-1   -4.406746083655990E-2
 6.501970372700000E9    -4.691652251863492E-1   -2.327122911451600E-1   -1.359261984008418E-2    5.433817012008064E-2   -1.103977383405027E-2    5.382115440864212E-2   -5.028918758819684E-1   -4.240941062805199E-2
 6.501982923550000E9    -4.695238246634891E-1   -2.317602029049552E-1   -1.345906294975181E-2    5.491506720508273E-2   -1.092486511981769E-2    5.428737076183951E-2   -5.028977597958268E-1   -4.062606195997334E-2
 6.501995474400000E9    -4.699924180912046E-1   -2.305175759061840E-1   -1.343685604350638E-2    5.539914114900873E-2   -1.084180279524860E-2    5.475166456404092E-2   -5.027965201999466E-1   -3.903990133657736E-2
 6.502008025250000E9    -4.704367131100541E-1   -2.293807726497558E-1   -1.325083347997150E-2    5.575802534166225E-2   -1.067509329616446E-2    5.521544391875104E-2   -5.027804124467082E-1   -3.725632558796045E-2
 6.502020576100000E9    -4.707696920551635E-1   -2.283076265370781E-1   -1.324490985197681E-2    5.640207050649595E-2   -1.059024291396374E-2    5.574672538096286E-2   -5.026308955696294E-1   -3.552469965814431E-2
 6.502033126950000E9    -4.712874444761835E-1   -2.271695559825605E-1   -1.309451456889333E-2    5.684272290437402E-2   -1.054924722261549E-2    5.622834697666517E-2   -5.025282573173370E-1   -3.352570514773124E-2
 6.502045677800000E9    -4.718393813872478E-1   -2.260833658541377E-1   -1.306836861583028E-2    5.751540755783521E-2   -1.046797109249728E-2    5.672704533264163E-2   -5.025349157500038E-1   -3.194045385571367E-2
 6.502058228650000E9    -4.721810879075473E-1   -2.249632117267312E-1   -1.294253134903677E-2    5.797373269830715E-2   -1.037131687369305E-2    5.725314079128921E-2   -5.023093098668584E-1   -2.997286036922040E-2
 6.502070779500000E9    -4.727675098991415E-1   -2.237840629302529E-1   -1.283465110211473E-2    5.857436235084518E-2   -1.024195941196552E-2    5.778870691459121E-2   -5.023441862515269E-1   -2.830108305386126E-2
