#  HZ   S   RI   R     50.00 
! Rohde & Schwarz Vector Network Analyzer 
! Rohde-Schwarz,ZNB20-2Port,1311601062101988,3.16
! Created: UTC 3/20/2024, 11:58:01 AM
! freq[Hz]                re:S11                  im:S11                  re:S21                  im:S21                  re:S12                  im:S12                  re:S22                  im:S22
 6.500952101000000E9    -4.261501277123875E-1   -3.100070788657931E-1   -1.487061192395071E-2    3.022329720764202E-2   -1.338240447568542E-2    3.031085961030393E-2   -4.895682876006621E-1   -1.550858530014705E-1
 6.500964615725000E9    -4.267806796571212E-1   -3.092265542268288E-1   -1.485365316445593E-2    3.033248259376925E-2   -1.328439589514069E-2    3.054135849907553E-2   -4.898772682509873E-1   -1.539258283288836E-1
 6.500977130450000E9    -4.274544250247180E-1   -3.083546297929145E-1   -1.485899196975543E-2    3.060440355318135E-2   -1.329909408946755E-2    3.061532109893354E-2   -4.901158633959763E-1   -1.527602897094526E-1
 6.500989645175000E9    -4.280490602896643E-1   -3.075397627636452E-1   -1.480829866980374E-2    3.070051838349803E-2   -1.319065016606968E-2    3.089949406561644E-2   -4.904437734648740E-1   -1.514853764665418E-1
 6.501002159900000E9    -4.284465568055018E-1   -3.066186238434127E-1   -1.494824390239201E-2    3.085177985981300E-2   -1.316565169123596E-2    3.105832485641134E-2   -4.907066817346462E-1   -1.502789499122372E-1
 6.501014674625000E9    -4.291373735201958E-1   -3.057713931807775E-1   -1.477850925688051E-2    3.120335039277648E-2   -1.328257374233612E-2    3.125638878996587E-2   -4.910275215556921E-1   -1.492002268641031E-1
 6.501027189350000E9    -4.296284136000489E-1   -3.049838636969942E-1   -1.490762560271210E-2    3.132684565116534E-2   -1.315763843360173E-2    3.135269333657460E-2   -4.912124674199682E-1   -1.480142270900950E-1
 6.501039704075000E9    -4.303753749199332E-1   -3.041239532980112E-1   -1.489783140766084E-2    3.144642376679015E-2   -1.322256244958409E-2    3.155294841068833E-2   -4.915154952233650E-1   -1.467241294914682E-1
 6.501052218800000E9    -4.309397203839393E-1   -3.032407631321961E-1   -1.486809350968479E-2    3.165055354957294E-2   -1.326996018596143E-2    3.184374632329472E-2   -4.919840538522592E-1   -1.455170953716218E-1
 6.501064733525000E9    -4.314380778661838E-1   -3.023627537947234E-1   -1.487315269155181E-2    3.205138746742316E-2   -1.328309683962056E-2    3.199439836914433E-2   -4.919803276313485E-1   -1.443159744016090E-1
 6.501077248250000E9    -4.320507597228229E-1   -3.015165728986000E-1   -1.493852761750058E-2    3.197669429946444E-2   -1.310939892758555E-2    3.219570158527314E-2   -4.921639374311183E-1   -1.431949619297437E-1
 6.501089762975000E9    -4.326723892598190E-1   -3.007080376904127E-1   -1.481519171910070E-2    3.242737998821282E-2   -1.326573257068281E-2    3.233415498732434E-2   -4.926319812933695E-1   -1.418366921051870E-1
 6.501102277700000E9    -4.331542846077876E-1   -2.997309009375851E-1   -1.495577357247422E-2    3.243167871712104E-2   -1.316049957950600E-2    3.247883324513347E-2   -4.929610865789633E-1   -1.407621027161990E-1
 6.501114792425000E9    -4.337577236355721E-1   -2.987210610918434E-1   -1.479185710955948E-2    3.264919400747952E-2   -1.322145568169297E-2    3.275800752290602E-2   -4.930898931229256E-1   -1.395845189926909E-1
 6.501127307150000E9    -4.343233020128856E-1   -2.980509847360842E-1   -1.494540921419806E-2    3.290174583239876E-2   -1.303241565593307E-2    3.290342219628361E-2   -4.933630866381892E-1   -1.383974583003271E-1
 6.501139821875000E9    -4.350093952353380E-1   -2.972119151125706E-1   -1.490386572321530E-2    3.315511883637087E-2   -1.318779818256224E-2    3.322015799919397E-2   -4.936307032553783E-1   -1.370488580238470E-1
 6.501152336600000E9    -4.354673487881993E-1   -2.962459015576991E-1   -1.498566518079181E-2    3.336692632200548E-2   -1.313077620589733E-2    3.335997063045326E-2   -4.939442946986638E-1   -1.358388227085753E-1
 6.501164851325000E9    -4.360408393378187E-1   -2.952524996326590E-1   -1.503206859843628E-2    3.351989668555116E-2   -1.321312259628145E-2    3.355884620080792E-2   -4.942092111340610E-1   -1.345564543061978E-1
 6.501177366050000E9    -4.365672126692987E-1   -2.944087388413238E-1   -1.494904352165961E-2    3.370296946724973E-2   -1.311371520453032E-2    3.380377265367720E-2   -4.944837820190876E-1   -1.332799613362691E-1
 6.501189880775000E9    -4.370946190498161E-1   -2.936414594918351E-1   -1.491637517517785E-2    3.407141025465590E-2   -1.313264231768002E-2    3.396138387688200E-2   -4.947348540707313E-1   -1.322607118423897E-1
 6.501202395500000E9    -4.376657354642410E-1   -2.925693019768167E-1   -1.493361987908021E-2    3.419464322283691E-2   -1.310177231857433E-2    3.425839651266916E-2   -4.949645433452928E-1   -1.308088140077398E-1
 6.501214910225000E9    -4.382265067931923E-1   -2.917567814686211E-1   -1.504146610087645E-2    3.445688328819400E-2   -1.311060990670392E-2    3.439074219876248E-2   -4.951657980158920E-1   -1.295439497028231E-1
 6.501227424950000E9    -4.388576270099944E-1   -2.908119876391362E-1   -1.489974085538998E-2    3.464859878355504E-2   -1.309117877490763E-2    3.461478825752062E-2   -4.953459125478102E-1   -1.284138519224891E-1
 6.501239939675000E9    -4.394524545732333E-1   -2.899787643865904E-1   -1.486883627620397E-2    3.490887358243866E-2   -1.309084300351285E-2    3.485617356545112E-2   -4.957969547408050E-1   -1.271763513981518E-1
 6.501252454400000E9    -4.399449867160085E-1   -2.890901977519731E-1   -1.501400240461137E-2    3.498247505924938E-2   -1.308288731664036E-2    3.506358614372643E-2   -4.959550437752939E-1   -1.259611798557823E-1
 6.501264969125000E9    -4.405222013696155E-1   -2.882381342105551E-1   -1.486197290231946E-2    3.533032981744639E-2   -1.309520660557163E-2    3.534713236183089E-2   -4.962607182783479E-1   -1.244984198570955E-1
 6.501277483850000E9    -4.410284226343310E-1   -2.872649508622765E-1   -1.483176877503146E-2    3.562320761091466E-2   -1.305003510148886E-2    3.556459258754423E-2   -4.963029899096159E-1   -1.232255058007547E-1
 6.501289998575000E9    -4.416366014709437E-1   -2.863495155714749E-1   -1.492062851442335E-2    3.578690333544204E-2   -1.304286804432509E-2    3.579347598325219E-2   -4.965698746013280E-1   -1.221055002375395E-1
 6.501302513300000E9    -4.421770199566471E-1   -2.854042462729214E-1   -1.488529661963945E-2    3.600292829131563E-2   -1.301171536102621E-2    3.606167761864400E-2   -4.969269392309012E-1   -1.207407091408375E-1
 6.501315028025000E9    -4.426101381639338E-1   -2.845756886729818E-1   -1.485459517667850E-2    3.628358759876241E-2   -1.300982827199731E-2    3.627540330656331E-2   -4.971368978604137E-1   -1.195001692522875E-1
 6.501327542750000E9    -4.432338975727212E-1   -2.837000941951754E-1   -1.501656900710128E-2    3.653688711875699E-2   -1.300231634659649E-2    3.645417705595638E-2   -4.973274927324311E-1   -1.181581261061751E-1
 6.501340057475000E9    -4.438814995255573E-1   -2.828075508150042E-1   -1.492169270312614E-2    3.675393966663069E-2   -1.295178863735486E-2    3.662796638387050E-2   -4.973783234588796E-1   -1.169405854595991E-1
 6.501352572200000E9    -4.443495310697261E-1   -2.817904285250619E-1   -1.494243981826110E-2    3.710591604668864E-2   -1.298839281661747E-2    3.698136522221612E-2   -4.977308908879749E-1   -1.154612779533386E-1
 6.501365086925000E9    -4.448655081084458E-1   -2.809165100887074E-1   -1.489006205915408E-2    3.731187070470195E-2   -1.294034452916898E-2    3.719918811787562E-2   -4.979239639072223E-1   -1.142175622169644E-1
 6.501377601650000E9    -4.453615336932658E-1   -2.800951997474748E-1   -1.483792493985337E-2    3.748432528122619E-2   -1.285768455176426E-2    3.743724316707026E-2   -4.980753870406255E-1   -1.129178604662317E-1
 6.501390116375000E9    -4.460283350813077E-1   -2.790363675722818E-1   -1.486810705216907E-2    3.775491404296501E-2   -1.294296902200736E-2    3.763990236342948E-2   -4.984045649374116E-1   -1.116377720651397E-1
 6.501402631100000E9    -4.464915908972135E-1   -2.781377804930020E-1   -1.471927544425352E-2    3.801219281412899E-2   -1.294304309030329E-2    3.795497878891012E-2   -4.986361277235799E-1   -1.102652611546092E-1
 6.501415145825000E9    -4.470661557740478E-1   -2.771648036380334E-1   -1.487007093993327E-2    3.827065794060373E-2   -1.287824861361278E-2    3.820408946014470E-2   -4.987161058467756E-1   -1.089398119788917E-1
 6.501427660550000E9    -4.474443717995469E-1   -2.761965165300558E-1   -1.478269596027064E-2    3.849729877436567E-2   -1.292220076572378E-2    3.846131101239527E-2   -4.988506371874127E-1   -1.076111253889198E-1
 6.501440175275000E9    -4.481367778409688E-1   -2.753668331492646E-1   -1.474659886992832E-2    3.884315485229906E-2   -1.278128379027536E-2    3.872005511172310E-2   -4.992095576097271E-1   -1.062268771258791E-1
 6.501452690000000E9    -4.486317888098997E-1   -2.744175457160023E-1   -1.484595396255128E-2    3.917918480598188E-2   -1.280862101811315E-2    3.897579871768927E-2   -4.992645933990695E-1   -1.048235753848831E-1
 6.501465204725000E9    -4.491406042748917E-1   -2.735450459485009E-1   -1.479749760201058E-2    3.931871670438668E-2   -1.279012136399508E-2    3.931392734523708E-2   -4.994542980602438E-1   -1.035632989351845E-1
 6.501477719450000E9    -4.496505220232982E-1   -2.724493453246643E-1   -1.490051597831183E-2    3.959942973076278E-2   -1.277389582126006E-2    3.966375652984355E-2   -4.996607510858552E-1   -1.022695069051269E-1
 6.501490234175000E9    -4.502092246486842E-1   -2.716078276739440E-1   -1.482119025646941E-2    3.990118365789861E-2   -1.279521420313311E-2    3.977771651195295E-2   -4.998251387368635E-1   -1.008253955841499E-1
 6.501502748900000E9    -4.507186150918513E-1   -2.706786911504226E-1   -1.491313937008241E-2    4.024063508909617E-2   -1.281015953500599E-2    4.013897780999625E-2   -5.000051429145975E-1   -9.956718837283297E-2
 6.501515263625000E9    -4.513036275223539E-1   -2.696131349086210E-1   -1.473985214926799E-2    4.052534838388205E-2   -1.269918569473273E-2    4.033377577930577E-2   -5.001713981444761E-1   -9.824048287096671E-2
 6.501527778350000E9    -4.517355859902452E-1   -2.688095947370440E-1   -1.483096775181496E-2    4.080825149927697E-2   -1.266997803853207E-2    4.068665861999853E-2   -5.003122114469158E-1   -9.672290607298530E-2
 6.501540293075000E9    -4.522885078110005E-1   -2.677659820923340E-1   -1.457002490714307E-2    4.114242484772147E-2   -1.263676244032308E-2    4.099755573244825E-2   -5.005479093252390E-1   -9.532782804564058E-2
 6.501552807800000E9    -4.528068221132091E-1   -2.668255981986813E-1   -1.474470103494958E-2    4.149344529769011E-2   -1.262980823655028E-2    4.128545499547894E-2   -5.005705974867110E-1   -9.384368962006777E-2
 6.501565322525000E9    -4.533947110293201E-1   -2.658974787440178E-1   -1.466581647566251E-2    4.167858116664526E-2   -1.262003825906657E-2    4.149869734902444E-2   -5.008557904593920E-1   -9.258865068370611E-2
 6.501577837250000E9    -4.538308299840026E-1   -2.650078530081635E-1   -1.467608423434702E-2    4.218808317366263E-2   -1.253157945046518E-2    4.182905471744908E-2   -5.008494969781985E-1   -9.109146162063347E-2
 6.501590351975000E9    -4.543765358816635E-1   -2.639453955411133E-1   -1.473001418930124E-2    4.230616459619010E-2   -1.262075975700471E-2    4.215935831595076E-2   -5.011532913921770E-1   -8.968133903949754E-2
 6.501602866700000E9    -4.548345191639901E-1   -2.629581006049173E-1   -1.459917456788062E-2    4.272257751436211E-2   -1.256313905638773E-2    4.244470454747165E-2   -5.011952023990053E-1   -8.828763936037450E-2
 6.501615381425000E9    -4.554611729314764E-1   -2.620568152988778E-1   -1.462662098349778E-2    4.302444313010559E-2   -1.249638267829210E-2    4.278185440571948E-2   -5.014772010616922E-1   -8.694148657466166E-2
 6.501627896150000E9    -4.559574039040892E-1   -2.610377450420180E-1   -1.464659594581400E-2    4.336863467656368E-2   -1.249104275057974E-2    4.308895864962312E-2   -5.015400564564367E-1   -8.536429698660654E-2
 6.501640410875000E9    -4.563749918740874E-1   -2.600468994013433E-1   -1.467411501247507E-2    4.365631842187122E-2   -1.237349178322812E-2    4.344592106386917E-2   -5.016969876970794E-1   -8.399960117984061E-2
 6.501652925600000E9    -4.569709363414464E-1   -2.590299934020944E-1   -1.457364751255185E-2    4.410302880260182E-2   -1.233169263053213E-2    4.366891357715225E-2   -5.017572376031850E-1   -8.260492270917724E-2
 6.501665440325000E9    -4.573551826755496E-1   -2.580819794849274E-1   -1.453847633168124E-2    4.441029471209759E-2   -1.232526168731944E-2    4.407350068325874E-2   -5.018881957520864E-1   -8.104629639169571E-2
 6.501677955050000E9    -4.579554633490239E-1   -2.570184919399268E-1   -1.447939722540785E-2    4.472866906903265E-2   -1.224361469087877E-2    4.438148362532129E-2   -5.019874585173562E-1   -7.972822766921921E-2
 6.501690469775000E9    -4.584324004255119E-1   -2.560614734664616E-1   -1.449799756656680E-2    4.499788102852886E-2   -1.222749053563780E-2    4.477481030750789E-2   -5.021409049489707E-1   -7.796994401223940E-2
 6.501702984500000E9    -4.589295475284439E-1   -2.551022022577026E-1   -1.449671028107031E-2    4.553410820339327E-2   -1.225455574015752E-2    4.506251208777978E-2   -5.022383581199952E-1   -7.667720398858410E-2
 6.501715499225000E9    -4.594255574701996E-1   -2.540746732536216E-1   -1.441465120228148E-2    4.581137171327204E-2   -1.217740827698465E-2    4.543588030319230E-2   -5.024011102044419E-1   -7.514352528172082E-2
 6.501728013950000E9    -4.599719012767440E-1   -2.531451608531372E-1   -1.436610405186935E-2    4.602660516340393E-2   -1.210420725177805E-2    4.579136648647495E-2   -5.022240176811651E-1   -7.353071217317009E-2
 6.501740528675000E9    -4.603737705119317E-1   -2.521668674006470E-1   -1.431969953793328E-2    4.650329713174934E-2   -1.218476930504481E-2    4.613091626180432E-2   -5.024984488776761E-1   -7.206328862112472E-2
 6.501753043400000E9    -4.608918183499736E-1   -2.511188474655170E-1   -1.440699748561410E-2    4.681983282526331E-2   -1.204478485549223E-2    4.655535551333376E-2   -5.025289953305251E-1   -7.055328944682118E-2
 6.501765558125000E9    -4.613694354655808E-1   -2.500402197245229E-1   -1.420835370020276E-2    4.724453918655213E-2   -1.213742215437804E-2    4.676998876293202E-2   -5.025676521914558E-1   -6.917046896746289E-2
 6.501778072850000E9    -4.618594279214293E-1   -2.490716150261101E-1   -1.417757262401981E-2    4.762599541421636E-2   -1.200464645767339E-2    4.716351771896966E-2   -5.026313377375622E-1   -6.747246911544652E-2
 6.501790587575000E9    -4.624088232742178E-1   -2.481089644066451E-1   -1.426957740724041E-2    4.809593359445102E-2   -1.182201481319178E-2    4.758943400201173E-2   -5.027987974961134E-1   -6.598571601538256E-2
 6.501803102300000E9    -4.628106425458073E-1   -2.469564529827759E-1   -1.426698379253649E-2    4.833540243946299E-2   -1.180119637211246E-2    4.790458457873788E-2   -5.028708982198901E-1   -6.432779960849337E-2
 6.501815617025000E9    -4.633165644494373E-1   -2.459999273320392E-1   -1.410744432073626E-2    4.880262419762162E-2   -1.182654858894553E-2    4.834322420142761E-2   -5.028252865895710E-1   -6.289513054345794E-2
 6.501828131750000E9    -4.637895504384994E-1   -2.448724693646793E-1   -1.421219985831464E-2    4.920848742964280E-2   -1.176949243748131E-2    4.876274926283224E-2   -5.029547787640429E-1   -6.123222429190042E-2
 6.501840646475000E9    -4.643510321188077E-1   -2.438554689730980E-1   -1.407335670615211E-2    4.957911605695287E-2   -1.175815213042307E-2    4.905628283084534E-2   -5.028495392892176E-1   -5.980990718447669E-2
 6.501853161200000E9    -4.647860730165058E-1   -2.428582701827905E-1   -1.404305288573272E-2    5.002562883065468E-2   -1.155975227564871E-2    4.955127710793601E-2   -5.029884158285798E-1   -5.809039943239015E-2
 6.501865675925000E9    -4.652464905977502E-1   -2.418526421024429E-1   -1.387598906811436E-2    5.035922076615079E-2   -1.159576323691491E-2    5.000877187813415E-2   -5.030731004382857E-1   -5.644557445469221E-2
 6.501878190650000E9    -4.658383881401585E-1   -2.407833689973119E-1   -1.409341725875540E-2    5.090397097035343E-2   -1.152314177899970E-2    5.037191679963818E-2   -5.030448860474663E-1   -5.483665235280485E-2
 6.501890705375000E9    -4.661490313557404E-1   -2.396791552440279E-1   -1.388397168700730E-2    5.128092065807792E-2   -1.145891843536699E-2    5.084280864788671E-2   -5.030419900295182E-1   -5.308468024895702E-2
 6.501903220100000E9    -4.666889301272736E-1   -2.387103240297570E-1   -1.369275434075614E-2    5.182138686354899E-2   -1.143323326519035E-2    5.123843647196839E-2   -5.032017643293412E-1   -5.169063704688952E-2
 6.501915734825000E9    -4.670133496053542E-1   -2.376324650369164E-1   -1.385677139288861E-2    5.219578041432656E-2   -1.130891579889413E-2    5.163434127060862E-2   -5.030873978862979E-1   -4.994288012693899E-2
 6.501928249550000E9    -4.675720567771005E-1   -2.365732422510206E-1   -1.368939166611551E-2    5.268964885309908E-2   -1.127029048959731E-2    5.210834433893775E-2   -5.031868930401315E-1   -4.818217087128332E-2
 6.501940764275000E9    -4.680406491481680E-1   -2.354791687433286E-1   -1.369752799638803E-2    5.315403849962502E-2   -1.123722024078613E-2    5.251794318523162E-2   -5.030942832619005E-1   -4.654010793494160E-2
 6.501953279000000E9    -4.685237008717063E-1   -2.343783318243232E-1   -1.359052277267651E-2    5.361850197380622E-2   -1.110310536357639E-2    5.297115292390056E-2   -5.030045965222177E-1   -4.493514948087015E-2
 6.501965793725000E9    -4.688131616137972E-1   -2.332558902785651E-1   -1.355743247429532E-2    5.407827959255110E-2   -1.099501873273685E-2    5.338238640166579E-2   -5.030491397074823E-1   -4.321345836646654E-2
 6.501978308450000E9    -4.692899494013814E-1   -2.322288462073131E-1   -1.348898516107542E-2    5.456864418193526E-2   -1.100942165777744E-2    5.392305440204226E-2   -5.029485858204570E-1   -4.141873578866907E-2
 6.501990823175000E9    -4.698513783861846E-1   -2.311205345608795E-1   -1.349047375912492E-2    5.519304780168164E-2   -1.090526154629962E-2    5.453414989639679E-2   -5.028890223142055E-1   -3.982874973017635E-2
 6.502003337900000E9    -4.702659647903910E-1   -2.300516393963488E-1   -1.338751302820703E-2    5.552160782071885E-2   -1.078462905760124E-2    5.489363444995341E-2   -5.029611770500181E-1   -3.813947895306714E-2
 6.502015852625000E9    -4.706865297095620E-1   -2.288739323290461E-1   -1.318154015260214E-2    5.614137071712039E-2   -1.072585531900870E-2    5.539461718715379E-2   -5.029610320873541E-1   -3.632507744611984E-2
 6.502028367350000E9    -4.711582456485889E-1   -2.278490255832872E-1   -1.322618495606176E-2    5.657739781456164E-2   -1.054116330757379E-2    5.587496626276550E-2   -5.028235646775819E-1   -3.446588958781031E-2
 6.502040882075000E9    -4.715921601101999E-1   -2.267219203512383E-1   -1.318765480886699E-2    5.704267252089432E-2   -1.057310983500950E-2    5.636392306211722E-2   -5.026051301735331E-1   -3.268519290801374E-2
 6.502053396800000E9    -4.721229454390131E-1   -2.256531502255989E-1   -1.314072742926012E-2    5.778550417307998E-2   -1.045839849864771E-2    5.681758224934989E-2   -5.027064653239176E-1   -3.100692760703263E-2
 6.502065911525000E9    -4.724926607957585E-1   -2.245292686781900E-1   -1.302519475951368E-2    5.820716690528702E-2   -1.024856022595829E-2    5.742414526454192E-2   -5.024994183512052E-1   -2.912178889935265E-2
 6.502078426250000E9    -4.730078154126425E-1   -2.234440014099282E-1   -1.298812263023615E-2    5.880655936862280E-2   -1.021897707444473E-2    5.799394602251116E-2   -5.024419368164651E-1   -2.745787773028483E-2
