#  HZ   S   RI   R     50.00 
! Rohde & Schwarz Vector Network Analyzer 
! Rohde-Schwarz,ZNB20-2Port,1311601062101988,3.16
! Created: UTC 3/20/2024, 11:58:06 AM
! freq[Hz]                re:S11                  im:S11                  re:S21                  im:S21                  re:S12                  im:S12                  re:S22                  im:S22
 6.500952749000000E9    -4.264160315344267E-1   -3.098719280788895E-1   -1.491824659193919E-2    3.009505057210381E-2   -1.326033731012208E-2    3.031140908579308E-2   -4.895279108462018E-1   -1.549538698802052E-1
 6.500965264925000E9    -4.268844576574877E-1   -3.089904107129807E-1   -1.476824911338651E-2    3.033751313443419E-2   -1.317424515434129E-2    3.046024241186824E-2   -4.896441207197197E-1   -1.538732531422785E-1
 6.500977780850000E9    -4.276124910940524E-1   -3.081455271680259E-1   -1.480525126653421E-2    3.042345318505147E-2   -1.324531427617812E-2    3.067412016625680E-2   -4.900564030896200E-1   -1.527031772975626E-1
 6.500990296775000E9    -4.280559284533078E-1   -3.072422705152154E-1   -1.490153877050110E-2    3.071120975793921E-2   -1.306616068482810E-2    3.076032179006663E-2   -4.903965526098703E-1   -1.515091132940148E-1
 6.501002812700000E9    -4.288224808645065E-1   -3.065253579884655E-1   -1.496184763161916E-2    3.104568441743675E-2   -1.323136654583141E-2    3.096308713129547E-2   -4.907452868074234E-1   -1.502749737502110E-1
 6.501015328625000E9    -4.293022929983985E-1   -3.056212516374304E-1   -1.483740131680229E-2    3.106601930978498E-2   -1.321381133702627E-2    3.120403762688135E-2   -4.908955408860272E-1   -1.490302345952935E-1
 6.501027844550000E9    -4.299334209152763E-1   -3.047209544341800E-1   -1.497056583672744E-2    3.123222148958948E-2   -1.321900053352018E-2    3.135612070133362E-2   -4.911955995806439E-1   -1.479280929953514E-1
 6.501040360475000E9    -4.304173447222263E-1   -3.037769049319378E-1   -1.482110395040856E-2    3.142922495721771E-2   -1.321019421478757E-2    3.149308284864263E-2   -4.914727971737234E-1   -1.466114342287408E-1
 6.501052876400000E9    -4.310253181058959E-1   -3.030010099448077E-1   -1.494262098488102E-2    3.169590915787018E-2   -1.321116856985589E-2    3.166163243962190E-2   -4.918828063150016E-1   -1.456635728408884E-1
 6.501065392325000E9    -4.316481533004938E-1   -3.021359309006248E-1   -1.507871020839930E-2    3.188272438438119E-2   -1.324351662591818E-2    3.205681327274915E-2   -4.920494983271017E-1   -1.444081687703985E-1
 6.501077908250000E9    -4.321892951605974E-1   -3.013577330435425E-1   -1.485009569122661E-2    3.199548930478305E-2   -1.321087545883915E-2    3.213482083459406E-2   -4.922248072910905E-1   -1.431551671103311E-1
 6.501090424175000E9    -4.326997935288603E-1   -3.003736650730541E-1   -1.498572801449040E-2    3.226804142445586E-2   -1.321239290196304E-2    3.230222866485126E-2   -4.927143139511770E-1   -1.420334724968405E-1
 6.501102940100000E9    -4.334464192226380E-1   -2.995636583049818E-1   -1.501665313116300E-2    3.247552989584136E-2   -1.312863577222136E-2    3.253642181219581E-2   -4.929247636494642E-1   -1.406857030390071E-1
 6.501115456025000E9    -4.338659991856991E-1   -2.986448282130081E-1   -1.487677887950965E-2    3.265711330238960E-2   -1.299330521345283E-2    3.273409135989418E-2   -4.931905175964475E-1   -1.394356290526875E-1
 6.501127971950000E9    -4.344770208480433E-1   -2.978256855802692E-1   -1.488242991313529E-2    3.303039164599274E-2   -1.317010828080975E-2    3.292097473013895E-2   -4.933993978587842E-1   -1.381852477197012E-1
 6.501140487875000E9    -4.350934536618978E-1   -2.969409093030361E-1   -1.501292431332932E-2    3.306620613257227E-2   -1.308932335449555E-2    3.311509043286469E-2   -4.937301312429078E-1   -1.370043875352145E-1
 6.501153003800000E9    -4.354899052126575E-1   -2.959241542464507E-1   -1.498627994419247E-2    3.337175150526329E-2   -1.316551922375770E-2    3.325495846346289E-2   -4.940192021872393E-1   -1.358230912257070E-1
 6.501165519725000E9    -4.362097741250499E-1   -2.950214361781091E-1   -1.494280349009904E-2    3.359686616000550E-2   -1.314329083484534E-2    3.356543892670037E-2   -4.941584447362562E-1   -1.345825290509751E-1
 6.501178035650000E9    -4.367894342442280E-1   -2.941983447720939E-1   -1.493876219756895E-2    3.383092486733759E-2   -1.319494541681147E-2    3.378809202468826E-2   -4.944837541914263E-1   -1.332386580388859E-1
 6.501190551575000E9    -4.372627928091768E-1   -2.934544693961847E-1   -1.496456881113741E-2    3.388799601073114E-2   -1.315348012048350E-2    3.399987788227605E-2   -4.948340109492243E-1   -1.320958731569925E-1
 6.501203067500000E9    -4.378000265985982E-1   -2.925191927783759E-1   -1.501182306039581E-2    3.422171394786896E-2   -1.306987237170150E-2    3.418322205063452E-2   -4.949529994598680E-1   -1.309176684075984E-1
 6.501215583425000E9    -4.384336013532576E-1   -2.915370855147838E-1   -1.487650609522082E-2    3.441636954323239E-2   -1.304260638876334E-2    3.439495285708374E-2   -4.952578938863259E-1   -1.295817544866372E-1
 6.501228099350000E9    -4.389225974316180E-1   -2.906442965832233E-1   -1.487818114644397E-2    3.464762384735096E-2   -1.312198286163123E-2    3.463580210624757E-2   -4.953928903772676E-1   -1.283228292741496E-1
 6.501240615275000E9    -4.396099418684864E-1   -2.898558155570055E-1   -1.486004410090582E-2    3.497902449650779E-2   -1.309856816179460E-2    3.489253690956120E-2   -4.956742924357491E-1   -1.271412179435630E-1
 6.501253131200000E9    -4.400482185908014E-1   -2.889224315843270E-1   -1.484188131849332E-2    3.495823284790241E-2   -1.303156036571474E-2    3.513984473102272E-2   -4.959920225942386E-1   -1.258408180390305E-1
 6.501265647125000E9    -4.405317714339373E-1   -2.879479016755893E-1   -1.492448105258004E-2    3.526203053799190E-2   -1.305999409694932E-2    3.526887638599382E-2   -4.961489595532311E-1   -1.244675252513651E-1
 6.501278163050000E9    -4.411346560399002E-1   -2.870010307927002E-1   -1.484999097436439E-2    3.552771762938275E-2   -1.308817649199502E-2    3.552161927201854E-2   -4.963511630622666E-1   -1.232683377361422E-1
 6.501290678975000E9    -4.416975969643297E-1   -2.861279897875162E-1   -1.483553208013211E-2    3.579645879125699E-2   -1.313268309672006E-2    3.578424217203086E-2   -4.966841018248523E-1   -1.219862805647507E-1
 6.501303194900000E9    -4.422227427110743E-1   -2.852899671002071E-1   -1.479835377276676E-2    3.603873788202152E-2   -1.303344790320713E-2    3.608673417346051E-2   -4.968684628500694E-1   -1.208554919904150E-1
 6.501315710825000E9    -4.427618106703070E-1   -2.843465967087304E-1   -1.498575665947570E-2    3.634420494322687E-2   -1.298116783908247E-2    3.628984562661324E-2   -4.970882639685072E-1   -1.193993501357959E-1
 6.501328226750000E9    -4.433843114910401E-1   -2.835032826969467E-1   -1.485579007460125E-2    3.652642423647909E-2   -1.308446728182608E-2    3.645826908446883E-2   -4.974180230470784E-1   -1.181991744515784E-1
 6.501340742675000E9    -4.439876752712660E-1   -2.826573143669435E-1   -1.488867766902299E-2    3.682559734746144E-2   -1.297566633141529E-2    3.680820729667165E-2   -4.976044824748552E-1   -1.168616911028449E-1
 6.501353258600000E9    -4.444544982461350E-1   -2.816829754971413E-1   -1.473058149997243E-2    3.706523027977575E-2   -1.299469167493772E-2    3.687172569745124E-2   -4.977643374279124E-1   -1.156549653031528E-1
 6.501365774525000E9    -4.449430281229952E-1   -2.806667089880057E-1   -1.485990784628534E-2    3.730041235237396E-2   -1.289801350340680E-2    3.715918479836539E-2   -4.979574008081329E-1   -1.141617212067617E-1
 6.501378290450000E9    -4.455333141390966E-1   -2.798781418431641E-1   -1.479678056353742E-2    3.742130822095247E-2   -1.295892054327164E-2    3.744207288141826E-2   -4.981948345574995E-1   -1.129268375588654E-1
 6.501390806375000E9    -4.461125862917533E-1   -2.788835080756072E-1   -1.474364098474414E-2    3.790607407229819E-2   -1.294060845171858E-2    3.763564473343515E-2   -4.983544076030666E-1   -1.114373649887247E-1
 6.501403322300000E9    -4.465431987981087E-1   -2.779481020643066E-1   -1.480406856474981E-2    3.808133435485522E-2   -1.287249223867755E-2    3.797009828590555E-2   -4.984891888242474E-1   -1.101483020015074E-1
 6.501415838225000E9    -4.472192018772128E-1   -2.769759786193085E-1   -1.487285154834510E-2    3.825149742909377E-2   -1.295328410398397E-2    3.816793588162971E-2   -4.987640610172744E-1   -1.091209136903919E-1
 6.501428354150000E9    -4.475966310237973E-1   -2.760628751633149E-1   -1.490745949966535E-2    3.861648435220711E-2   -1.290221468362713E-2    3.840740493512078E-2   -4.989127137475816E-1   -1.075889711239480E-1
 6.501440870075000E9    -4.482752723814131E-1   -2.751330592691271E-1   -1.470969591912915E-2    3.895776241943734E-2   -1.275352371588582E-2    3.877997332525122E-2   -4.990499669477950E-1   -1.063298602784270E-1
 6.501453386000000E9    -4.488033470283911E-1   -2.742357193940850E-1   -1.478526586568221E-2    3.908729178736308E-2   -1.269715451273713E-2    3.894493959882318E-2   -4.993910477948693E-1   -1.049778790125257E-1
 6.501465901925000E9    -4.492460593990745E-1   -2.732807589950495E-1   -1.484152775586532E-2    3.932394162984478E-2   -1.275048929966474E-2    3.922497381970180E-2   -4.995127031372014E-1   -1.033878716745598E-1
 6.501478417850000E9    -4.497750266149659E-1   -2.723067880911054E-1   -1.464066096456183E-2    3.955696209643984E-2   -1.278932121862684E-2    3.949996000466117E-2   -4.996169889079374E-1   -1.021534017647608E-1
 6.501490933775000E9    -4.503076564177123E-1   -2.714538573948609E-1   -1.483157937305461E-2    3.996329060758938E-2   -1.277132150420222E-2    3.982002228091646E-2   -4.997829435548343E-1   -1.008443477891661E-1
 6.501503449700000E9    -4.509061394961544E-1   -2.705416558879321E-1   -1.464623396030364E-2    4.031676697485629E-2   -1.266025663071594E-2    4.004701189326904E-2   -5.001015570286528E-1   -9.937361921687460E-2
 6.501515965625000E9    -4.513683303177848E-1   -2.695592609477745E-1   -1.474947631319334E-2    4.056415554619599E-2   -1.274824644917217E-2    4.028903433818012E-2   -5.002454172723604E-1   -9.801361457023612E-2
 6.501528481550000E9    -4.518810751490603E-1   -2.684848115791101E-1   -1.475620106443637E-2    4.065767985133021E-2   -1.269186813746240E-2    4.058528359172114E-2   -5.003772164567966E-1   -9.657926409923903E-2
 6.501540997475000E9    -4.524754292184556E-1   -2.676057840365412E-1   -1.463327767632626E-2    4.121999633619478E-2   -1.272947631666120E-2    4.093473982236919E-2   -5.006056229937577E-1   -9.524332129420673E-2
 6.501553513400000E9    -4.529172849826161E-1   -2.666201085411972E-1   -1.461677541799822E-2    4.131942173846659E-2   -1.260601929567500E-2    4.120618499141600E-2   -5.006005329798322E-1   -9.397020939720896E-2
 6.501566029325000E9    -4.534462353293193E-1   -2.656947621028080E-1   -1.467192871795770E-2    4.182312491032283E-2   -1.255960870413808E-2    4.151614316084243E-2   -5.008068614416236E-1   -9.244450703445650E-2
 6.501578545250000E9    -4.539730031142302E-1   -2.646947156237421E-1   -1.456366164208724E-2    4.202135054247928E-2   -1.261338802717924E-2    4.181000902494426E-2   -5.009350487268518E-1   -9.113491107577217E-2
 6.501591061175000E9    -4.545792380550936E-1   -2.636321488999100E-1   -1.472185544238951E-2    4.240851953525004E-2   -1.262192245258577E-2    4.212404613321168E-2   -5.010779092427634E-1   -8.964166724155244E-2
 6.501603577100000E9    -4.550103897255348E-1   -2.627646281152606E-1   -1.462935213197115E-2    4.269310223140527E-2   -1.249759411125473E-2    4.251267685689482E-2   -5.013039505863143E-1   -8.813110258463236E-2
 6.501616093025000E9    -4.555431300419560E-1   -2.618580274163863E-1   -1.476731691477705E-2    4.293749179362596E-2   -1.254906317553203E-2    4.269831062812527E-2   -5.013624632709935E-1   -8.678347007904437E-2
 6.501628608950000E9    -4.559453086173104E-1   -2.608030519007905E-1   -1.463901641589806E-2    4.338804263343009E-2   -1.246300137835904E-2    4.302447729413068E-2   -5.015123816904474E-1   -8.531778319579179E-2
 6.501641124875000E9    -4.565421059613879E-1   -2.597543825675182E-1   -1.451294616492848E-2    4.374513038752063E-2   -1.236229286482477E-2    4.335709196338812E-2   -5.016445390498100E-1   -8.389281671765765E-2
 6.501653640800000E9    -4.570626920401141E-1   -2.588859104450051E-1   -1.459973452690052E-2    4.400238467095732E-2   -1.238751306018897E-2    4.379973967343288E-2   -5.018683166306006E-1   -8.249755634603242E-2
 6.501666156725000E9    -4.575482293689371E-1   -2.578168310510327E-1   -1.451336363770285E-2    4.432783921468910E-2   -1.237275860732062E-2    4.409075477513879E-2   -5.018206982038694E-1   -8.094175368559607E-2
 6.501678672650000E9    -4.579965362257034E-1   -2.568679652257159E-1   -1.453413239089066E-2    4.474811180683961E-2   -1.233855652615295E-2    4.442806637690913E-2   -5.019627770715346E-1   -7.951228460803897E-2
 6.501691188575000E9    -4.585417490417504E-1   -2.558563120095003E-1   -1.442874242858830E-2    4.513258421132298E-2   -1.229532460804884E-2    4.474430272098291E-2   -5.022230646795423E-1   -7.812897402085466E-2
 6.501703704500000E9    -4.590048287941194E-1   -2.549023422943720E-1   -1.453471084450808E-2    4.547937263490998E-2   -1.224043794150709E-2    4.506783123022329E-2   -5.022071428438335E-1   -7.661713241715874E-2
 6.501716220425000E9    -4.594867038326467E-1   -2.539162655361532E-1   -1.446814110052026E-2    4.579448358788459E-2   -1.221389129676655E-2    4.543379308701642E-2   -5.023421782324377E-1   -7.518744128101479E-2
 6.501728736350000E9    -4.600164632937336E-1   -2.528152078174511E-1   -1.440127129346226E-2    4.601519500685682E-2   -1.214826686535008E-2    4.584546259050351E-2   -5.023701289417660E-1   -7.355238142405696E-2
 6.501741252275000E9    -4.605545983982284E-1   -2.517839668333246E-1   -1.431683550895904E-2    4.641249109017724E-2   -1.211884963482962E-2    4.610950277046939E-2   -5.024485418681276E-1   -7.215710898993845E-2
 6.501753768200000E9    -4.609303329717748E-1   -2.507497232626990E-1   -1.424815704271447E-2    4.686717640357380E-2   -1.204835860867036E-2    4.647809167957283E-2   -5.024907313646286E-1   -7.042727195628226E-2
 6.501766284125000E9    -4.614246163729530E-1   -2.498413479595961E-1   -1.434288873981253E-2    4.719297253603928E-2   -1.202115627579744E-2    4.680675892789142E-2   -5.026872965137038E-1   -6.898801297624101E-2
 6.501778800050000E9    -4.619322143335615E-1   -2.488290308916294E-1   -1.431972230445677E-2    4.763808483751411E-2   -1.201458346238764E-2    4.721895343076472E-2   -5.027152593879070E-1   -6.756595437016540E-2
 6.501791315975000E9    -4.625352695300864E-1   -2.478504042043307E-1   -1.408601284614357E-2    4.812764877121315E-2   -1.186685171016927E-2    4.766024731873656E-2   -5.027731168550595E-1   -6.588750691151063E-2
 6.501803831900000E9    -4.629147599475492E-1   -2.468221597546928E-1   -1.421621274260963E-2    4.840579398489495E-2   -1.188315891154461E-2    4.796306436710045E-2   -5.028735251097208E-1   -6.438026699444835E-2
 6.501816347825000E9    -4.633741768058039E-1   -2.458097638260521E-1   -1.426143914259717E-2    4.883884810231601E-2   -1.185785827303577E-2    4.837014046220064E-2   -5.029103078230803E-1   -6.287184715708162E-2
 6.501828863750000E9    -4.638735008598044E-1   -2.447882225127717E-1   -1.413899078123901E-2    4.916390094855520E-2   -1.185039625218652E-2    4.876267779678176E-2   -5.028899388106272E-1   -6.111590612108093E-2
 6.501841379675000E9    -4.644719840874530E-1   -2.437019582583338E-1   -1.409161133694148E-2    4.956198139869136E-2   -1.160398021480234E-2    4.913213455712160E-2   -5.029919978266794E-1   -5.962381760871063E-2
 6.501853895600000E9    -4.648541570388727E-1   -2.426110052946753E-1   -1.412349227195287E-2    5.009173438144138E-2   -1.165415889422030E-2    4.950150907487803E-2   -5.030034822475086E-1   -5.789500252143436E-2
 6.501866411525000E9    -4.653236321520416E-1   -2.415465338731773E-1   -1.404036147061555E-2    5.044926415767041E-2   -1.158478349412648E-2    4.996735773582674E-2   -5.031339612334312E-1   -5.641933046587001E-2
 6.501878927450000E9    -4.657923221542484E-1   -2.405669959275863E-1   -1.387672095370973E-2    5.075052188551311E-2   -1.152448447627211E-2    5.045902120061984E-2   -5.031466183482436E-1   -5.472377018503932E-2
 6.501891443375000E9    -4.662587771268049E-1   -2.395569689260643E-1   -1.378078724447585E-2    5.131913026416294E-2   -1.145013897781430E-2    5.085847943145060E-2   -5.029878759697501E-1   -5.316701722602959E-2
 6.501903959300000E9    -4.667764961074037E-1   -2.385180388241450E-1   -1.385039880501134E-2    5.172153577705273E-2   -1.138396119959257E-2    5.122431147717559E-2   -5.030481672179861E-1   -5.145885640875981E-2
 6.501916475225000E9    -4.672385937995802E-1   -2.373418938932496E-1   -1.374774969377215E-2    5.220373700641687E-2   -1.129182203029757E-2    5.161083130974072E-2   -5.030844648295821E-1   -4.992352360370718E-2
 6.501928991150000E9    -4.675312856774193E-1   -2.363183784346531E-1   -1.386864142135249E-2    5.271124586975761E-2   -1.127082939177302E-2    5.208254576281563E-2   -5.031617995466173E-1   -4.822775269181417E-2
 6.501941507075000E9    -4.681773373195744E-1   -2.352296289049003E-1   -1.374614868529553E-2    5.316521811395199E-2   -1.120670227571683E-2    5.259214194644150E-2   -5.030199182882554E-1   -4.669601939578410E-2
 6.501954023000000E9    -4.685434477057656E-1   -2.341760837613981E-1   -1.373762854466265E-2    5.366516281647637E-2   -1.106182399090448E-2    5.295657554050500E-2   -5.030122790535072E-1   -4.486681116368656E-2
 6.501966538925000E9    -4.690688106882703E-1   -2.330266818180249E-1   -1.355804144511159E-2    5.417955055815240E-2   -1.106121340601331E-2    5.344101385442825E-2   -5.031132949172846E-1   -4.343579818549259E-2
 6.501979054850000E9    -4.695781172244020E-1   -2.320344202897676E-1   -1.344214491458468E-2    5.460244741866695E-2   -1.099027513031772E-2    5.385028364398660E-2   -5.030137062420247E-1   -4.142974679270896E-2
 6.501991570775000E9    -4.698591196458894E-1   -2.308441118953959E-1   -1.346052014679451E-2    5.506664486863284E-2   -1.086951148356780E-2    5.435829757681376E-2   -5.027770951773309E-1   -3.965897043900972E-2
 6.502004086700000E9    -4.703698736492447E-1   -2.298837118527613E-1   -1.341301800145010E-2    5.558109780760668E-2   -1.073910240755077E-2    5.495148731417899E-2   -5.029475625606485E-1   -3.807275596756871E-2
 6.502016602625000E9    -4.708123962840680E-1   -2.287762513581238E-1   -1.332430446824344E-2    5.607044576754307E-2   -1.076339499290665E-2    5.530976762212898E-2   -5.029711060259695E-1   -3.630556703999439E-2
 6.502029118550000E9    -4.713695967450799E-1   -2.276957656713109E-1   -1.326640723463089E-2    5.657018539427301E-2   -1.055742179221414E-2    5.589604085024326E-2   -5.026994619812561E-1   -3.438806935497381E-2
 6.502041634475000E9    -4.716868563887464E-1   -2.265198239992901E-1   -1.321723557114567E-2    5.712016346726220E-2   -1.049617676418437E-2    5.651157380847713E-2   -5.026165689423588E-1   -3.271824585450275E-2
 6.502054150400000E9    -4.720946450825133E-1   -2.253417519118009E-1   -1.308155099395193E-2    5.741197674163365E-2   -1.035052029901213E-2    5.701763940283743E-2   -5.026534610090980E-1   -3.097340717768279E-2
 6.502066666325000E9    -4.727075156405627E-1   -2.243466412767168E-1   -1.303162174169481E-2    5.814978903666041E-2   -1.041631314037426E-2    5.744376702005299E-2   -5.025725126470767E-1   -2.907376371485075E-2
 6.502079182250000E9    -4.730919903771008E-1   -2.232214468215576E-1   -1.281663190968740E-2    5.876362228335716E-2   -1.019754259209637E-2    5.795881860733430E-2   -5.024591959102457E-1   -2.723994389398524E-2
