#  HZ   S   RI   R     50.00 
! Rohde & Schwarz Vector Network Analyzer 
! Rohde-Schwarz,ZNB20-2Port,1311601062101988,3.16
! Created: UTC 3/20/2024, 11:58:23 AM
! freq[Hz]                re:S11                  im:S11                  re:S21                  im:S21                  re:S12                  im:S12                  re:S22                  im:S22
 6.500959771000000E9    -4.264731481856345E-1   -3.099761873568538E-1   -1.481643950458611E-2    3.027489874323382E-2   -1.322082120345991E-2    3.036531843206675E-2   -4.896836722815049E-1   -1.544174017972645E-1
 6.500972270375000E9    -4.271388373442296E-1   -3.089787685668121E-1   -1.478707308510324E-2    3.039123874705030E-2   -1.326160326316298E-2    3.044745287051339E-2   -4.900407541382510E-1   -1.533426942144340E-1
 6.500984769750000E9    -4.275814576115265E-1   -3.082496440257076E-1   -1.497150727135342E-2    3.064934811529173E-2   -1.312437614690951E-2    3.064666353499581E-2   -4.903936436238804E-1   -1.521240264001679E-1
 6.500997269125000E9    -4.282152344400217E-1   -3.072824486565613E-1   -1.497269500590658E-2    3.083744266776265E-2   -1.317053761269249E-2    3.090928978004376E-2   -4.904889377067752E-1   -1.509706824914781E-1
 6.501009768500000E9    -4.287986366533261E-1   -3.064176665766827E-1   -1.496680802938292E-2    3.098730475933694E-2   -1.323495072918300E-2    3.106039626759740E-2   -4.908975560919321E-1   -1.498290436298704E-1
 6.501022267875000E9    -4.293426770312426E-1   -3.054948272735359E-1   -1.489379266931958E-2    3.123109469509299E-2   -1.316406493532712E-2    3.119184686506558E-2   -4.911293392568403E-1   -1.485327060155305E-1
 6.501034767250000E9    -4.300170692844892E-1   -3.046861094294191E-1   -1.479480528780136E-2    3.133858759034037E-2   -1.326604753309613E-2    3.146195106836942E-2   -4.914827629987922E-1   -1.473417889179115E-1
 6.501047266625000E9    -4.306248180856702E-1   -3.038428008301695E-1   -1.490440313836991E-2    3.151300469882830E-2   -1.319544431653991E-2    3.166636693677430E-2   -4.917656148159939E-1   -1.461154148787185E-1
 6.501059766000000E9    -4.310636796220060E-1   -3.029905690124990E-1   -1.504380867855034E-2    3.162467928782027E-2   -1.318182041569145E-2    3.183203159962145E-2   -4.919350797674647E-1   -1.449778663439569E-1
 6.501072265375000E9    -4.316245552573076E-1   -3.021384878912178E-1   -1.496852319122555E-2    3.200230219819326E-2   -1.334618467448727E-2    3.203039876971378E-2   -4.921771901437770E-1   -1.437610760009890E-1
 6.501084764750000E9    -4.322145974788070E-1   -3.012019937070088E-1   -1.493701248856397E-2    3.216993348784962E-2   -1.322275810952690E-2    3.231389254284401E-2   -4.925915921397375E-1   -1.425759994245363E-1
 6.501097264125000E9    -4.329233532711692E-1   -3.004029999323648E-1   -1.479402360401627E-2    3.235855393414776E-2   -1.319378753808846E-2    3.243064920551277E-2   -4.928982053743987E-1   -1.413823617734998E-1
 6.501109763500000E9    -4.334213361946940E-1   -2.993964702586724E-1   -1.483753018480597E-2    3.232565044189521E-2   -1.321026820084898E-2    3.256061885269754E-2   -4.931180654598866E-1   -1.401941514982527E-1
 6.501122262875000E9    -4.340184682945994E-1   -2.986449495889369E-1   -1.490273309237734E-2    3.272642013628178E-2   -1.319319633692318E-2    3.276792444064758E-2   -4.934527659307823E-1   -1.389679168013594E-1
 6.501134762250000E9    -4.345731045216301E-1   -2.978192371212308E-1   -1.494251139076438E-2    3.303406173080466E-2   -1.319687157532747E-2    3.303787751128079E-2   -4.936654576251007E-1   -1.376608849973530E-1
 6.501147261625000E9    -4.351486527230902E-1   -2.968682764010807E-1   -1.491870142706324E-2    3.304400256306771E-2   -1.313899012384120E-2    3.322595213883440E-2   -4.938194684935238E-1   -1.364945834600052E-1
 6.501159761000000E9    -4.357377011128211E-1   -2.961319787918053E-1   -1.480773286507423E-2    3.326306126616693E-2   -1.312982017799965E-2    3.331793955301394E-2   -4.941357991672078E-1   -1.351671951134712E-1
 6.501172260375000E9    -4.362816413051879E-1   -2.951749713192002E-1   -1.483281440008467E-2    3.354166190848570E-2   -1.310257557920548E-2    3.364958884684295E-2   -4.944249378109149E-1   -1.341119761335055E-1
 6.501184759750000E9    -4.368775952382193E-1   -2.941374693703054E-1   -1.494741926114201E-2    3.384654279166405E-2   -1.316749839645893E-2    3.388126571577943E-2   -4.946039718381264E-1   -1.328112899236148E-1
 6.501197259125000E9    -4.373063217543677E-1   -2.933298441439854E-1   -1.502697269493187E-2    3.403748253617267E-2   -1.311505984599434E-2    3.414267515429199E-2   -4.950572120756315E-1   -1.314169420370467E-1
 6.501209758500000E9    -4.379555953138827E-1   -2.924935760100364E-1   -1.491919576218768E-2    3.430011737904615E-2   -1.312234667663473E-2    3.422730682208764E-2   -4.950682273516370E-1   -1.301750142051726E-1
 6.501222257875000E9    -4.384861992375420E-1   -2.916201958778597E-1   -1.481622649660271E-2    3.453487239395076E-2   -1.303579930500984E-2    3.445186027573980E-2   -4.953902697929358E-1   -1.289803725032970E-1
 6.501234757250000E9    -4.391015195524555E-1   -2.907506463076519E-1   -1.488848021992208E-2    3.461787195602734E-2   -1.308235663445615E-2    3.469130948156131E-2   -4.954476994522175E-1   -1.277737628040963E-1
 6.501247256625000E9    -4.395799398126995E-1   -2.897800078711716E-1   -1.479761308292004E-2    3.495177232044391E-2   -1.315902540155412E-2    3.491204523886339E-2   -4.958675445759816E-1   -1.265602629010145E-1
 6.501259756000000E9    -4.401222004224238E-1   -2.889048274768221E-1   -1.492331445337257E-2    3.521929594144421E-2   -1.322458542158599E-2    3.507875940976340E-2   -4.960583324253846E-1   -1.252644334738371E-1
 6.501272255375000E9    -4.407223264906593E-1   -2.879875124289739E-1   -1.486534187651241E-2    3.532973049133079E-2   -1.298600171019277E-2    3.532789725895689E-2   -4.962677320616176E-1   -1.239875862928368E-1
 6.501284754750000E9    -4.412034330018637E-1   -2.870541999086780E-1   -1.498046209134511E-2    3.567483135358842E-2   -1.311887768468512E-2    3.567089926716526E-2   -4.966054530181818E-1   -1.226433377598442E-1
 6.501297254125000E9    -4.417519353815023E-1   -2.862164633129678E-1   -1.492889747663279E-2    3.592450403855756E-2   -1.302449504681365E-2    3.583676913154776E-2   -4.966703368996904E-1   -1.215062798779553E-1
 6.501309753500000E9    -4.423053367448632E-1   -2.853210734083984E-1   -1.481849644084734E-2    3.617488289729769E-2   -1.296335018870349E-2    3.602455916488097E-2   -4.970715409653040E-1   -1.201255750548116E-1
 6.501322252875000E9    -4.428617489316813E-1   -2.844656099308491E-1   -1.507755947052993E-2    3.634314122975767E-2   -1.305511028127538E-2    3.627608498954041E-2   -4.971844702440268E-1   -1.189801702274606E-1
 6.501334752250000E9    -4.435203110881798E-1   -2.834591592033278E-1   -1.489136374960375E-2    3.663109363693239E-2   -1.297761107953273E-2    3.648419377879292E-2   -4.973959513561785E-1   -1.175983003162637E-1
 6.501347251625000E9    -4.440190491334757E-1   -2.825847971993479E-1   -1.481280070920523E-2    3.682474304626513E-2   -1.295673794676966E-2    3.671923117891326E-2   -4.976759933278859E-1   -1.162786799149046E-1
 6.501359751000000E9    -4.445074769909976E-1   -2.815439448592435E-1   -1.495108090291982E-2    3.705944938166773E-2   -1.294640174266532E-2    3.691892695434338E-2   -4.979023367974236E-1   -1.150395800252139E-1
 6.501372250375000E9    -4.450554908145611E-1   -2.807360810739392E-1   -1.478948132429604E-2    3.737135312517983E-2   -1.295291977578866E-2    3.722768505840652E-2   -4.981101765595026E-1   -1.137099782539040E-1
 6.501384749750000E9    -4.457081836309320E-1   -2.798510672199475E-1   -1.484778750265564E-2    3.765424913648600E-2   -1.294674791789963E-2    3.750704478529866E-2   -4.982804517987901E-1   -1.123666418340279E-1
 6.501397249125000E9    -4.461807228134588E-1   -2.788388803634125E-1   -1.485742922276775E-2    3.786959865539728E-2   -1.301201113246908E-2    3.774510496849506E-2   -4.986851702346716E-1   -1.110087037552386E-1
 6.501409748500000E9    -4.467546698888831E-1   -2.779651226812425E-1   -1.479776903010523E-2    3.818443518775089E-2   -1.282303512252667E-2    3.805502290806370E-2   -4.986275468031318E-1   -1.097947983990994E-1
 6.501422247875000E9    -4.472716782305303E-1   -2.769630668853540E-1   -1.492301458946974E-2    3.815245722010455E-2   -1.283258316328148E-2    3.824595676253702E-2   -4.988757785550803E-1   -1.084558964396142E-1
 6.501434747250000E9    -4.479100860520397E-1   -2.760623499880213E-1   -1.491388675252841E-2    3.877549443114308E-2   -1.289229114367836E-2    3.856150773138235E-2   -4.990274529382583E-1   -1.070306296943859E-1
 6.501447246625000E9    -4.483668306425436E-1   -2.752003915319052E-1   -1.485152490943772E-2    3.882740512056373E-2   -1.281497403386375E-2    3.879862707239673E-2   -4.993128619064832E-1   -1.057717052650421E-1
 6.501459746000000E9    -4.488036339533080E-1   -2.741589315170509E-1   -1.476481114252881E-2    3.917313115633361E-2   -1.282283100006026E-2    3.906176776477965E-2   -4.994538581961112E-1   -1.044004809113357E-1
 6.501472245375000E9    -4.492863887096841E-1   -2.732429828066150E-1   -1.479376272600583E-2    3.960106006610800E-2   -1.282628524074820E-2    3.933541106162409E-2   -4.996195349605906E-1   -1.029858942755220E-1
 6.501484744750000E9    -4.499244818840226E-1   -2.723746469581683E-1   -1.481651270032985E-2    3.971717704508494E-2   -1.273881838870066E-2    3.951186301487159E-2   -4.996496976046725E-1   -1.015219090283311E-1
 6.501497244125000E9    -4.504098440331424E-1   -2.714461586896076E-1   -1.468060867295620E-2    4.015369429306302E-2   -1.277480702028388E-2    3.990008200753339E-2   -5.000422970832717E-1   -1.001839697555777E-1
 6.501509743500000E9    -4.509071563244273E-1   -2.704253395718344E-1   -1.489890314712601E-2    4.046081017385472E-2   -1.266870535836598E-2    4.011197390054821E-2   -5.001778193501735E-1   -9.885727128780772E-2
 6.501522242875000E9    -4.514365458332961E-1   -2.694533326449370E-1   -1.472074175120412E-2    4.063463757166393E-2   -1.269002565787196E-2    4.040743387621473E-2   -5.002475137488431E-1   -9.742328579234392E-2
 6.501534742250000E9    -4.519524802327166E-1   -2.687138576605488E-1   -1.473247816717217E-2    4.092212915045657E-2   -1.270951060092188E-2    4.066560169518930E-2   -5.005457824719864E-1   -9.619386307231229E-2
 6.501547241625000E9    -4.524855307841859E-1   -2.676050020258388E-1   -1.478190990703573E-2    4.117505301996846E-2   -1.266644106757772E-2    4.099574681117000E-2   -5.005795805867029E-1   -9.482360673468572E-2
 6.501559741000000E9    -4.530501784729013E-1   -2.665643444377643E-1   -1.461896179745955E-2    4.157261618676558E-2   -1.257423959488359E-2    4.127726933724573E-2   -5.007341102325691E-1   -9.327167343101926E-2
 6.501572240375000E9    -4.535839174350055E-1   -2.657397456604469E-1   -1.469793117576203E-2    4.188386687464617E-2   -1.254063701987770E-2    4.168148684229637E-2   -5.010042273353827E-1   -9.201590200236082E-2
 6.501584739750000E9    -4.539405238247516E-1   -2.647122311741624E-1   -1.464759485940908E-2    4.214192867123110E-2   -1.256156519311766E-2    4.189015716052991E-2   -5.012500316261203E-1   -9.065546587805273E-2
 6.501597239125000E9    -4.546245409671642E-1   -2.637690501971281E-1   -1.457711141128642E-2    4.239450205771734E-2   -1.256030352197412E-2    4.219601555543581E-2   -5.012404994340945E-1   -8.909809420209056E-2
 6.501609738500000E9    -4.550625969584903E-1   -2.627652756082184E-1   -1.463821337891397E-2    4.275682923557963E-2   -1.247195357117340E-2    4.249713089842516E-2   -5.013253731867905E-1   -8.755294900659123E-2
 6.501622237875000E9    -4.555592938703192E-1   -2.618117457484579E-1   -1.463370849737836E-2    4.299946027561447E-2   -1.242176766866087E-2    4.283329018863570E-2   -5.014423818321665E-1   -8.630621704737154E-2
 6.501634737250000E9    -4.559659324165302E-1   -2.607632979331566E-1   -1.465788333155242E-2    4.336782895612817E-2   -1.236586721101249E-2    4.309842685779663E-2   -5.015354847426102E-1   -8.481480743303707E-2
 6.501647236625000E9    -4.566089375378268E-1   -2.598704117715891E-1   -1.459863056042543E-2    4.364983963860195E-2   -1.248469100177472E-2    4.349091296960814E-2   -5.017553954117256E-1   -8.330045938487131E-2
 6.501659736000000E9    -4.571622258420862E-1   -2.588311455346723E-1   -1.455626142282681E-2    4.399153029132736E-2   -1.245339971230957E-2    4.382910471387874E-2   -5.018608056144502E-1   -8.194798852216467E-2
 6.501672235375000E9    -4.576263634040565E-1   -2.579121163869804E-1   -1.465553642628039E-2    4.438170684714660E-2   -1.236408506055533E-2    4.416369584187309E-2   -5.020488637851496E-1   -8.058137135812028E-2
 6.501684734750000E9    -4.581843313744595E-1   -2.568823631610147E-1   -1.446618044739350E-2    4.478016461520049E-2   -1.232189285072244E-2    4.439806014121343E-2   -5.020419782815096E-1   -7.897053247515755E-2
 6.501697234125000E9    -4.586046049758928E-1   -2.559148812075244E-1   -1.447580277206760E-2    4.505388088844103E-2   -1.222622780613502E-2    4.474242191103589E-2   -5.021007622838500E-1   -7.751414720731427E-2
 6.501709733500000E9    -4.591714262164237E-1   -2.549002914644863E-1   -1.447009291368523E-2    4.544785154364449E-2   -1.219330867599079E-2    4.510849570092990E-2   -5.023369265911648E-1   -7.592691057180349E-2
 6.501722232875000E9    -4.596503626552841E-1   -2.539793523945198E-1   -1.451302942233880E-2    4.582131648817783E-2   -1.212085541765569E-2    4.546924266332546E-2   -5.025097349389444E-1   -7.441925048575346E-2
 6.501734732250000E9    -4.601295866411159E-1   -2.530318015914754E-1   -1.439648846445109E-2    4.614203102264364E-2   -1.210475728623738E-2    4.587097731578851E-2   -5.025532816296087E-1   -7.311964315518352E-2
 6.501747231625000E9    -4.606221191399587E-1   -2.519607556700902E-1   -1.441260204380277E-2    4.663598372642866E-2   -1.209143215863447E-2    4.618486588605291E-2   -5.025088833129896E-1   -7.160613208463343E-2
 6.501759731000000E9    -4.610692543212235E-1   -2.508959430535718E-1   -1.431536651585741E-2    4.688025740778294E-2   -1.209556975989284E-2    4.656892846330591E-2   -5.027272710258630E-1   -7.005805501512134E-2
 6.501772230375000E9    -4.615589850063231E-1   -2.499357385679313E-1   -1.423924717266957E-2    4.739528398934789E-2   -1.191546631270063E-2    4.691080824620734E-2   -5.026957871455235E-1   -6.839861024709352E-2
 6.501784729750000E9    -4.621582012006985E-1   -2.488118259286209E-1   -1.425417963246487E-2    4.772047553007256E-2   -1.196729913676611E-2    4.731494239825026E-2   -5.028064002346688E-1   -6.689332176200226E-2
 6.501797229125000E9    -4.624922895605537E-1   -2.477318494819305E-1   -1.419822487798719E-2    4.810054407329067E-2   -1.181976503520114E-2    4.769621129705189E-2   -5.029029050379453E-1   -6.537169446766956E-2
 6.501809728500000E9    -4.629970270258651E-1   -2.469244423414899E-1   -1.422274327922367E-2    4.840983458383935E-2   -1.190983278780512E-2    4.804599266734438E-2   -5.027521701783551E-1   -6.389410466655120E-2
 6.501822227875000E9    -4.635149973610408E-1   -2.457961324610029E-1   -1.418151277625309E-2    4.883162453740155E-2   -1.180548435707715E-2    4.842613637168475E-2   -5.028963570458793E-1   -6.239444359817745E-2
 6.501834727250000E9    -4.639534241467086E-1   -2.447367148384923E-1   -1.416396855444361E-2    4.929741926817920E-2   -1.182254295091384E-2    4.886554956565467E-2   -5.030708850336192E-1   -6.069786470041301E-2
 6.501847226625000E9    -4.644131977746457E-1   -2.436870791644349E-1   -1.403584264178821E-2    4.959369741041447E-2   -1.164033290867711E-2    4.921912505877706E-2   -5.030344783593982E-1   -5.911393388972002E-2
 6.501859726000000E9    -4.649433725699681E-1   -2.425429597746530E-1   -1.406967177097518E-2    5.003564398641205E-2   -1.165410242586784E-2    4.966816386740704E-2   -5.031320795554635E-1   -5.748864687976540E-2
 6.501872225375000E9    -4.653551943937894E-1   -2.416451200078873E-1   -1.403751705390868E-2    5.044244790797377E-2   -1.158717106984580E-2    5.004047336795948E-2   -5.030276395304080E-1   -5.577290475572683E-2
 6.501884724750000E9    -4.659239092244006E-1   -2.406533132948871E-1   -1.391565165853269E-2    5.098961576478228E-2   -1.155868822984231E-2    5.046980594130625E-2   -5.031231413756994E-1   -5.427810838563426E-2
 6.501897224125000E9    -4.663350306283309E-1   -2.395437829013949E-1   -1.381031253768273E-2    5.141436021871511E-2   -1.149413895483232E-2    5.091903842961199E-2   -5.032004579481790E-1   -5.270444066930846E-2
 6.501909723500000E9    -4.668528197105142E-1   -2.384747066779624E-1   -1.397475829944906E-2    5.183877350688447E-2   -1.136663106700643E-2    5.132074746600244E-2   -5.033338862305170E-1   -5.090900538817257E-2
 6.501922222875000E9    -4.672814666293117E-1   -2.374324603551348E-1   -1.378263348125622E-2    5.231714169017250E-2   -1.135841603013985E-2    5.181394727544461E-2   -5.031950672400776E-1   -4.950672112914127E-2
 6.501934722250000E9    -4.676823925419397E-1   -2.364206620975025E-1   -1.368597265346934E-2    5.276951008651261E-2   -1.130810218972482E-2    5.217569582439036E-2   -5.031141337538088E-1   -4.764984593061995E-2
 6.501947221625000E9    -4.681873791732948E-1   -2.352495408758102E-1   -1.367811072466422E-2    5.331525988367541E-2   -1.112538911092422E-2    5.261542001742663E-2   -5.030851885378419E-1   -4.594857861254879E-2
 6.501959721000000E9    -4.686189849869374E-1   -2.341682268092778E-1   -1.360313783883950E-2    5.363719710045434E-2   -1.119511695193836E-2    5.308369470560591E-2   -5.030879815350811E-1   -4.437049277888062E-2
 6.501972220375000E9    -4.690638104229966E-1   -2.331156146626253E-1   -1.339289588814271E-2    5.416290877800645E-2   -1.113101339424335E-2    5.351960161275372E-2   -5.030402659527923E-1   -4.263430884597992E-2
 6.501984719750000E9    -4.696172069600529E-1   -2.319609290753049E-1   -1.368132671281001E-2    5.469725670441727E-2   -1.093743321345357E-2    5.401704472748393E-2   -5.030491236428123E-1   -4.103093624216528E-2
 6.501997219125000E9    -4.699509467861962E-1   -2.309593560513231E-1   -1.348252056528159E-2    5.515547333926938E-2   -1.088645934141439E-2    5.446550018438409E-2   -5.030014375907751E-1   -3.926552248070367E-2
 6.502009718500000E9    -4.704147221155223E-1   -2.298363867187406E-1   -1.337829778307063E-2    5.551588225195126E-2   -1.083744938743533E-2    5.501236360130347E-2   -5.029959885729290E-1   -3.748683316534233E-2
 6.502022217875000E9    -4.709495748480934E-1   -2.287031814478187E-1   -1.332198864264586E-2    5.613627501730137E-2   -1.070998373571855E-2    5.542091435796834E-2   -5.029437749116134E-1   -3.578315245217820E-2
 6.502034717250000E9    -4.713349554823010E-1   -2.277593979317839E-1   -1.314232726712888E-2    5.665753917083331E-2   -1.063365935655910E-2    5.585666029883432E-2   -5.027171899321681E-1   -3.395260942266087E-2
 6.502047216625000E9    -4.718732252963715E-1   -2.264925725493208E-1   -1.313995238290120E-2    5.715368299118823E-2   -1.050020010144645E-2    5.646854667319919E-2   -5.026800675907265E-1   -3.222027079766438E-2
 6.502059716000000E9    -4.722498316062242E-1   -2.253973139458861E-1   -1.301940008441501E-2    5.765454304248912E-2   -1.054322021347144E-2    5.692988667264035E-2   -5.026259421428317E-1   -3.046498661627509E-2
 6.502072215375000E9    -4.726648208513409E-1   -2.242983424813430E-1   -1.304793506243316E-2    5.820113719194874E-2   -1.026361309182767E-2    5.754673535692389E-2   -5.024968899247894E-1   -2.861359305094805E-2
 6.502084714750000E9    -4.730424708436575E-1   -2.231856155587143E-1   -1.292637795979555E-2    5.878169989008775E-2   -1.030492834067682E-2    5.802386190111285E-2   -5.024953540428212E-1   -2.682216890023122E-2
