#  HZ   S   RI   R     50.00 
! Rohde & Schwarz Vector Network Analyzer 
! Rohde-Schwarz,ZNB20-2Port,1311601062101988,3.16
! Created: UTC 3/20/2024, 11:59:03 AM
! freq[Hz]                re:S11                  im:S11                  re:S21                  im:S21                  re:S12                  im:S12                  re:S22                  im:S22
 6.500979855000000E9    -4.274112555714327E-1   -3.086615411557074E-1   -1.491200340370526E-2    3.037140373709320E-2   -1.323799842499377E-2    3.054733394309457E-2   -4.901168142900826E-1   -1.527061553131965E-1
 6.500992294600000E9    -4.280045918672137E-1   -3.076852323787509E-1   -1.485508533851408E-2    3.053029904590569E-2   -1.316266755715140E-2    3.062755617216648E-2   -4.904630950176764E-1   -1.515033717474429E-1
 6.501004734200000E9    -4.285354280046047E-1   -3.068352131938575E-1   -1.488083629160262E-2    3.076745154119071E-2   -1.322515315524911E-2    3.080455587810382E-2   -4.907122835971761E-1   -1.504383464984713E-1
 6.501017173800000E9    -4.290902919655020E-1   -3.059203224079210E-1   -1.501946881714154E-2    3.090943386634083E-2   -1.318704135121552E-2    3.105419436208125E-2   -4.910487052359666E-1   -1.493086171768101E-1
 6.501029613400000E9    -4.297051839281907E-1   -3.051528704486948E-1   -1.488997384949421E-2    3.108740780216421E-2   -1.327875878968874E-2    3.122810405165914E-2   -4.913214930277978E-1   -1.482091709132696E-1
 6.501042053000000E9    -4.303676049685746E-1   -3.043323535207065E-1   -1.486654008364309E-2    3.119373840170656E-2   -1.329064747292837E-2    3.154454121327200E-2   -4.916005987331311E-1   -1.468831732496718E-1
 6.501054492600000E9    -4.308117234843520E-1   -3.035323428715626E-1   -1.484866734990904E-2    3.155958873382326E-2   -1.316232373137056E-2    3.163440371584322E-2   -4.919954996507267E-1   -1.457169980598997E-1
 6.501066932200000E9    -4.314903769845375E-1   -3.025651164480623E-1   -1.487410673396476E-2    3.172742502041460E-2   -1.318484906754255E-2    3.173479875404786E-2   -4.921499997802330E-1   -1.444872315167839E-1
 6.501079371800000E9    -4.319738172484077E-1   -3.018392022883922E-1   -1.487150510228576E-2    3.190433759703529E-2   -1.323170625468634E-2    3.201351710454049E-2   -4.924959772643424E-1   -1.433658830705946E-1
 6.501091811400000E9    -4.325298488862509E-1   -3.008488713147501E-1   -1.473817675763780E-2    3.209114948584146E-2   -1.319408466170677E-2    3.224030424298569E-2   -4.925865805502140E-1   -1.420068205005868E-1
 6.501104251000000E9    -4.331467846931190E-1   -2.999929398993495E-1   -1.498740774039093E-2    3.237576445956548E-2   -1.315770668771407E-2    3.236999055967136E-2   -4.929929466343014E-1   -1.409211278711252E-1
 6.501116690600000E9    -4.336990491861084E-1   -2.991420524211729E-1   -1.488470924950456E-2    3.256734191223008E-2   -1.325531380398652E-2    3.254394140102865E-2   -4.932270681066014E-1   -1.397045151245761E-1
 6.501129130200000E9    -4.342338567195833E-1   -2.982616683820065E-1   -1.490900842568160E-2    3.255807516080857E-2   -1.311488390284221E-2    3.282258207522396E-2   -4.935585843746838E-1   -1.384447572215035E-1
 6.501141569800000E9    -4.349098392924180E-1   -2.973620505448371E-1   -1.479108920018380E-2    3.284734458326252E-2   -1.324407515337710E-2    3.297192716650377E-2   -4.937645407626021E-1   -1.373875373310758E-1
 6.501154009400000E9    -4.353552741811410E-1   -2.964867441875382E-1   -1.488443266729701E-2    3.309017072344100E-2   -1.319268543262398E-2    3.316526720638946E-2   -4.941657370102164E-1   -1.360631036537372E-1
 6.501166449000000E9    -4.359209144144238E-1   -2.956761470423432E-1   -1.496504308255613E-2    3.345804665133634E-2   -1.310573393807894E-2    3.346183754822962E-2   -4.943762984265828E-1   -1.348918195409651E-1
 6.501178888600000E9    -4.365287655466915E-1   -2.948028894636185E-1   -1.485284710186607E-2    3.359106379698149E-2   -1.315370862524739E-2    3.360405782120355E-2   -4.945528577601390E-1   -1.336794504021571E-1
 6.501191328200000E9    -4.370849451720319E-1   -2.938291216695274E-1   -1.497147402330562E-2    3.371101832316525E-2   -1.304138998515385E-2    3.378007352906242E-2   -4.947949808537066E-1   -1.324454637945179E-1
 6.501203767800000E9    -4.377425193006268E-1   -2.929930260851425E-1   -1.485254357970846E-2    3.406139981257721E-2   -1.310374559575161E-2    3.402158019088508E-2   -4.950181078031141E-1   -1.311270564413260E-1
 6.501216207400000E9    -4.382499570116772E-1   -2.920664645368852E-1   -1.494391120530743E-2    3.414415254466837E-2   -1.302684311558848E-2    3.417934820717632E-2   -4.952352842961155E-1   -1.298675090504573E-1
 6.501228647000000E9    -4.388196120466047E-1   -2.911767309120549E-1   -1.497132240607367E-2    3.433081829603967E-2   -1.312009213102140E-2    3.439546109487501E-2   -4.955470667245452E-1   -1.287778061019772E-1
 6.501241086600000E9    -4.393430418219857E-1   -2.903407586037230E-1   -1.483446915525287E-2    3.459099391677005E-2   -1.300422578722089E-2    3.460024111937598E-2   -4.958179264976745E-1   -1.274081323884902E-1
 6.501253526200000E9    -4.397989216830942E-1   -2.894191870007006E-1   -1.482343611417254E-2    3.477713952000418E-2   -1.312853475307128E-2    3.486074664425352E-2   -4.960088373895227E-1   -1.260659933769331E-1
 6.501265965800000E9    -4.403936677608756E-1   -2.886188928465555E-1   -1.483334109066282E-2    3.513237077162076E-2   -1.307211317688872E-2    3.505286248305418E-2   -4.962681630876138E-1   -1.249610309384619E-1
 6.501278405400000E9    -4.409603078642931E-1   -2.876180667683576E-1   -1.479875326545443E-2    3.535599409445233E-2   -1.299963045677467E-2    3.544160706236615E-2   -4.966005212514033E-1   -1.236951303506200E-1
 6.501290845000000E9    -4.414138221695727E-1   -2.867299074816805E-1   -1.485329203014527E-2    3.567024323053141E-2   -1.296524164279513E-2    3.556162528263718E-2   -4.967467780484295E-1   -1.223985527469834E-1
 6.501303284600000E9    -4.420410870942712E-1   -2.858662697723941E-1   -1.475765508925334E-2    3.587546301368763E-2   -1.305550954080992E-2    3.573587887113040E-2   -4.967949307708022E-1   -1.208978980117264E-1
 6.501315724200000E9    -4.426008422570050E-1   -2.850042971422053E-1   -1.482172962975777E-2    3.619379431966446E-2   -1.302338891864906E-2    3.593399754528406E-2   -4.971865489031848E-1   -1.197573461462565E-1
 6.501328163800000E9    -4.431914271971886E-1   -2.841039685456195E-1   -1.478936170167277E-2    3.638866531974957E-2   -1.295936111693069E-2    3.620813508285313E-2   -4.975366952671502E-1   -1.186078944226516E-1
 6.501340603400000E9    -4.437161600598767E-1   -2.830881438475116E-1   -1.483839534847844E-2    3.667084822542722E-2   -1.301671635076762E-2    3.654521845432161E-2   -4.974703580846945E-1   -1.172272879832096E-1
 6.501353043000000E9    -4.443168078892503E-1   -2.822343403989034E-1   -1.482522249333680E-2    3.678277371852335E-2   -1.289730364367477E-2    3.673845497950577E-2   -4.977012522448891E-1   -1.159595021562326E-1
 6.501365482600000E9    -4.448165325967881E-1   -2.812747960011066E-1   -1.483903932373879E-2    3.707995583399182E-2   -1.296403076664456E-2    3.693482584293217E-2   -4.980192129158808E-1   -1.146452270759081E-1
 6.501377922200000E9    -4.453099182427814E-1   -2.803975079445795E-1   -1.479499027040764E-2    3.720620259523646E-2   -1.290031875989586E-2    3.717718990812396E-2   -4.981125173831057E-1   -1.133357110032773E-1
 6.501390361800000E9    -4.458711618599173E-1   -2.795397600787720E-1   -1.483467053499593E-2    3.756789194751967E-2   -1.296086124550293E-2    3.743313134839158E-2   -4.983582721780250E-1   -1.120741411558770E-1
 6.501402801400000E9    -4.464427314920684E-1   -2.785469572599588E-1   -1.483740350744160E-2    3.778767214269039E-2   -1.293126731085621E-2    3.764413028243989E-2   -4.985393109835676E-1   -1.108120079526145E-1
 6.501415241000000E9    -4.468808269404781E-1   -2.776460733443948E-1   -1.488078764424839E-2    3.799445408898047E-2   -1.284087766689481E-2    3.792621798893100E-2   -4.988165409116828E-1   -1.094334253495648E-1
 6.501427680600000E9    -4.474567014636326E-1   -2.765989300235797E-1   -1.465720066459955E-2    3.841498144335096E-2   -1.276605476915736E-2    3.815954847242325E-2   -4.990786395689654E-1   -1.081135727244157E-1
 6.501440120200000E9    -4.479887938795512E-1   -2.758008243458184E-1   -1.472726219088024E-2    3.850868468274438E-2   -1.279042143004128E-2    3.863177463757119E-2   -4.993127371612526E-1   -1.066753961985352E-1
 6.501452559800000E9    -4.485957330773476E-1   -2.748503058409718E-1   -1.486979281399949E-2    3.882813288107680E-2   -1.269287254144784E-2    3.873563081546345E-2   -4.994146095964510E-1   -1.054416579185848E-1
 6.501464999400000E9    -4.490437368413581E-1   -2.738981140222844E-1   -1.481867605876423E-2    3.915986612742624E-2   -1.272921071714733E-2    3.899469786821383E-2   -4.995068864537447E-1   -1.040795203059426E-1
 6.501477439000000E9    -4.495426471081495E-1   -2.729471177313585E-1   -1.478516741518054E-2    3.941814290465109E-2   -1.276420605659571E-2    3.930086217922688E-2   -4.998230896070566E-1   -1.025478252793658E-1
 6.501489878600000E9    -4.501274259519519E-1   -2.720096258336238E-1   -1.483895287473681E-2    3.963395665590084E-2   -1.274473038841182E-2    3.962552824313762E-2   -4.998986109573272E-1   -1.013929412535168E-1
 6.501502318200000E9    -4.507108338856280E-1   -2.712336008424337E-1   -1.473514415553117E-2    3.996396205303815E-2   -1.264996910220937E-2    3.989448764468317E-2   -5.000927286309201E-1   -1.000321387915071E-1
 6.501514757800000E9    -4.511647865127882E-1   -2.702034438001029E-1   -1.465158940612481E-2    4.026216146645629E-2   -1.260036941328215E-2    4.016211506042162E-2   -5.002119285967417E-1   -9.872931721741435E-2
 6.501527197400000E9    -4.516662664787949E-1   -2.692757491330952E-1   -1.475363717276496E-2    4.051958480686313E-2   -1.268690364590761E-2    4.038261008670582E-2   -5.005651691722901E-1   -9.727385730137218E-2
 6.501539637000000E9    -4.522651744159609E-1   -2.682716503648948E-1   -1.476875878715773E-2    4.088779497861275E-2   -1.255949271451098E-2    4.061910743026222E-2   -5.006126193906607E-1   -9.597175899319034E-2
 6.501552076600000E9    -4.527374285200055E-1   -2.674133511954131E-1   -1.463490880466370E-2    4.140590155851474E-2   -1.256035119995722E-2    4.091588231345812E-2   -5.007211547630734E-1   -9.435065313830744E-2
 6.501564516200000E9    -4.532090479258182E-1   -2.663966503108585E-1   -1.462287504617039E-2    4.138472441143309E-2   -1.269387547900571E-2    4.119294130572957E-2   -5.008516165983535E-1   -9.319317788982431E-2
 6.501576955800000E9    -4.537507665504808E-1   -2.653525659786872E-1   -1.478579451097329E-2    4.176470088164252E-2   -1.252918986695725E-2    4.155457103009909E-2   -5.011103661752674E-1   -9.176723816084259E-2
 6.501589395400000E9    -4.542202114081754E-1   -2.644036238524823E-1   -1.469736025175203E-2    4.205302311628131E-2   -1.253731362379923E-2    4.180447941939061E-2   -5.011801178538690E-1   -9.036059096170314E-2
 6.501601835000000E9    -4.548012375658378E-1   -2.634358988030595E-1   -1.472867516343610E-2    4.248395741110342E-2   -1.250377210497758E-2    4.210333371301558E-2   -5.013244009755803E-1   -8.893481395434034E-2
 6.501614274600000E9    -4.551657314720361E-1   -2.625142816685179E-1   -1.460715241619705E-2    4.263957379477232E-2   -1.245917726053835E-2    4.247141668387945E-2   -5.015097407411371E-1   -8.760805347841710E-2
 6.501626714200000E9    -4.558213961068618E-1   -2.615223337102184E-1   -1.468723794193812E-2    4.297830080335058E-2   -1.251597116320197E-2    4.276024121640139E-2   -5.015547355231448E-1   -8.613224428457855E-2
 6.501639153800000E9    -4.561892933515363E-1   -2.605727529265027E-1   -1.461113372035386E-2    4.327816098820174E-2   -1.244094114204813E-2    4.303586140195361E-2   -5.016378517196534E-1   -8.469692185882439E-2
 6.501651593400000E9    -4.567426691481545E-1   -2.595924843165749E-1   -1.454950700397209E-2    4.367798679377522E-2   -1.235578090851225E-2    4.334835314326101E-2   -5.018621491535263E-1   -8.319537683040637E-2
 6.501664033000000E9    -4.573043165325235E-1   -2.585762804569793E-1   -1.457487523346626E-2    4.388599276292882E-2   -1.230928794060392E-2    4.372485557786125E-2   -5.019890752199113E-1   -8.182673857188601E-2
 6.501676472600000E9    -4.578577866389172E-1   -2.576572201728958E-1   -1.445124323468854E-2    4.433075265184531E-2   -1.236415715071484E-2    4.397353424851289E-2   -5.021071440514310E-1   -8.042059369547987E-2
 6.501688912200000E9    -4.581988349632717E-1   -2.567154354271069E-1   -1.463376879280650E-2    4.463383646223917E-2   -1.230502425559831E-2    4.437719888319941E-2   -5.021742024613881E-1   -7.889644561160976E-2
 6.501701351800000E9    -4.588058475575050E-1   -2.556547252130270E-1   -1.453062774770525E-2    4.506661178355190E-2   -1.228180146422333E-2    4.467385677281199E-2   -5.021827481295045E-1   -7.742731030461532E-2
 6.501713791400000E9    -4.593705068823269E-1   -2.546564189202629E-1   -1.437214156066324E-2    4.518207188735476E-2   -1.218643480320600E-2    4.499544133560229E-2   -5.024221273178856E-1   -7.586305629454589E-2
 6.501726231000000E9    -4.597780318583763E-1   -2.537220884331383E-1   -1.443134227202702E-2    4.566643496984633E-2   -1.211678542094437E-2    4.536137457179849E-2   -5.025814884766239E-1   -7.459452089650041E-2
 6.501738670600000E9    -4.602267485193544E-1   -2.526612423543539E-1   -1.447325530687484E-2    4.598858456079440E-2   -1.217796239732609E-2    4.578219822510739E-2   -5.025048095891886E-1   -7.309566864996321E-2
 6.501751110200000E9    -4.606973294881682E-1   -2.516398860406237E-1   -1.442054875970071E-2    4.645414115038046E-2   -1.207501723165292E-2    4.619071328636116E-2   -5.026898560070532E-1   -7.162572692870456E-2
 6.501763549800000E9    -4.611958619100823E-1   -2.506502575840686E-1   -1.423823493336794E-2    4.686099101378053E-2   -1.203683245093055E-2    4.640752062360720E-2   -5.027531177775597E-1   -6.998087609168577E-2
 6.501775989400000E9    -4.617469499623203E-1   -2.496799281253434E-1   -1.420572846197307E-2    4.717232237920622E-2   -1.208794772779518E-2    4.678394029020181E-2   -5.029129602414844E-1   -6.844638671556197E-2
 6.501788429000000E9    -4.622178727994726E-1   -2.487506802208707E-1   -1.418425173087655E-2    4.752987308932674E-2   -1.208856288805309E-2    4.714297506115759E-2   -5.029666419660731E-1   -6.692762197227221E-2
 6.501800868600000E9    -4.627111552307733E-1   -2.477002574389073E-1   -1.423027207011019E-2    4.787431587132036E-2   -1.189014117979745E-2    4.753832523739281E-2   -5.030389766368235E-1   -6.536027608441337E-2
 6.501813308200000E9    -4.632838430104491E-1   -2.467281993901718E-1   -1.417498961151627E-2    4.827291162409874E-2   -1.181988999620197E-2    4.790886043901457E-2   -5.030446684809304E-1   -6.377141661635656E-2
 6.501825747800000E9    -4.636918857130807E-1   -2.456631657062986E-1   -1.417771841697537E-2    4.873008837140800E-2   -1.176684049950262E-2    4.827757662412257E-2   -5.030455195387370E-1   -6.225944078790705E-2
 6.501838187400000E9    -4.641408894742284E-1   -2.446147319490020E-1   -1.405340488354000E-2    4.901094954317076E-2   -1.178828652854162E-2    4.869061206249477E-2   -5.031366433704312E-1   -6.069426577246249E-2
 6.501850627000000E9    -4.646331987067558E-1   -2.435148607583166E-1   -1.409538483250754E-2    4.963200772074595E-2   -1.172165039599897E-2    4.908483926451805E-2   -5.031943815407909E-1   -5.911018205658033E-2
 6.501863066600000E9    -4.650421427808150E-1   -2.425107878898334E-1   -1.397881724199660E-2    4.999151054497837E-2   -1.162532982013266E-2    4.941628308176899E-2   -5.033173182240998E-1   -5.751137991635685E-2
 6.501875506200000E9    -4.655744643001438E-1   -2.414964354121730E-1   -1.400748600681906E-2    5.032721263861745E-2   -1.159149671951858E-2    4.996009997773315E-2   -5.032701309680393E-1   -5.593678456409357E-2
 6.501887945800000E9    -4.660099163324412E-1   -2.405085435212326E-1   -1.387641507967836E-2    5.071822136523388E-2   -1.151318183277475E-2    5.027805171959345E-2   -5.032877986415042E-1   -5.439162567430034E-2
 6.501900385400000E9    -4.664617800615007E-1   -2.394432994199846E-1   -1.382922940462705E-2    5.117969808291242E-2   -1.142841708184354E-2    5.074325697905634E-2   -5.032985120851290E-1   -5.267769037010051E-2
 6.501912825000000E9    -4.668290019170657E-1   -2.383588631991341E-1   -1.388228982519309E-2    5.167544303732962E-2   -1.143584822655113E-2    5.117561665868942E-2   -5.033165231148328E-1   -5.112241939919034E-2
 6.501925264600000E9    -4.673305766113782E-1   -2.373209562388433E-1   -1.383305377239549E-2    5.222661659227300E-2   -1.128250289990773E-2    5.147862306330597E-2   -5.032709896784745E-1   -4.944438555317943E-2
 6.501937704200000E9    -4.679309977550148E-1   -2.361431774756096E-1   -1.369649258454187E-2    5.265015362046147E-2   -1.129170196907632E-2    5.205508619010942E-2   -5.032611020959353E-1   -4.781431849069123E-2
 6.501950143800000E9    -4.683335602868710E-1   -2.352322277105039E-1   -1.364725267463622E-2    5.297786945960152E-2   -1.119133682313218E-2    5.246737562021419E-2   -5.033141468727810E-1   -4.605417251990353E-2
 6.501962583400000E9    -4.687929702485072E-1   -2.341386063494025E-1   -1.367941749134027E-2    5.352298307971761E-2   -1.123183075440672E-2    5.288654968719413E-2   -5.032514575130572E-1   -4.455610122709641E-2
 6.501975023000000E9    -4.693119969937184E-1   -2.331311118838850E-1   -1.361410281391325E-2    5.411737934048458E-2   -1.108864377563088E-2    5.328227498491675E-2   -5.031458185496501E-1   -4.278000326039374E-2
 6.501987462600000E9    -4.696099887530637E-1   -2.319984327610298E-1   -1.352991076765993E-2    5.446883162479974E-2   -1.098983581280782E-2    5.384865135604067E-2   -5.031446492114247E-1   -4.112794884218705E-2
 6.501999902200000E9    -4.701467619641278E-1   -2.307269450456051E-1   -1.351527503768080E-2    5.483265508752606E-2   -1.096188252173666E-2    5.419669514759103E-2   -5.031063121946550E-1   -3.936629561737250E-2
 6.502012341800000E9    -4.706869468978404E-1   -2.297247029153501E-1   -1.337642358040056E-2    5.549349475988220E-2   -1.078767688009941E-2    5.473100215074118E-2   -5.030941738637889E-1   -3.775562140229693E-2
 6.502024781400000E9    -4.710458766777054E-1   -2.286196264378394E-1   -1.322012064165975E-2    5.589625221782821E-2   -1.082747660520743E-2    5.530754724586198E-2   -5.030053220293648E-1   -3.600390839526199E-2
 6.502037221000000E9    -4.714604911776089E-1   -2.276384847197485E-1   -1.328444196774311E-2    5.638205782217544E-2   -1.074252291747234E-2    5.585223720695343E-2   -5.030471666562305E-1   -3.418483776721772E-2
 6.502049660600000E9    -4.720272849300921E-1   -2.264980988849774E-1   -1.306931418707683E-2    5.694283116750570E-2   -1.057258611155704E-2    5.618061635872512E-2   -5.027030491318126E-1   -3.233412193656745E-2
 6.502062100200000E9    -4.723520432535477E-1   -2.254646491897776E-1   -1.309111497651368E-2    5.739667853707917E-2   -1.051847862412140E-2    5.678805305787598E-2   -5.029637120684736E-1   -3.063612942520895E-2
 6.502074539800000E9    -4.727054674773838E-1   -2.243251331215674E-1   -1.301164673064682E-2    5.801660643549700E-2   -1.033875022196353E-2    5.725318024121337E-2   -5.027780307223031E-1   -2.881825225371142E-2
 6.502086979400000E9    -4.731976404624540E-1   -2.231392172309680E-1   -1.288624758615499E-2    5.847438989471196E-2   -1.025598294098228E-2    5.779019025673177E-2   -5.026756928847207E-1   -2.718787874183133E-2
 6.502099419000000E9    -4.736885028414232E-1   -2.220606087656605E-1   -1.282345227318177E-2    5.903858089578999E-2   -1.013949298528390E-2    5.837448831578684E-2   -5.024285745246428E-1   -2.520925861094835E-2
