#  HZ   S   RI   R     50.00 
! Rohde & Schwarz Vector Network Analyzer 
! Rohde-Schwarz,ZNB20-2Port,1311601062101988,3.16
! Created: UTC 3/20/2024, 11:59:22 AM
! freq[Hz]                re:S11                  im:S11                  re:S21                  im:S21                  re:S12                  im:S12                  re:S22                  im:S22
 6.500989649000000E9    -4.277014211811651E-1   -3.080112931875593E-1   -1.491646119466708E-2    3.054340596852187E-2   -1.320648701595069E-2    3.056131207455818E-2   -4.904723595935390E-1   -1.519032981636093E-1
 6.501002059325000E9    -4.283409154502010E-1   -3.072044164291827E-1   -1.494914218041118E-2    3.072569065126824E-2   -1.321969024286661E-2    3.078217143192839E-2   -4.906617695651564E-1   -1.507763382610796E-1
 6.501014469650000E9    -4.289715605377511E-1   -3.063684774609714E-1   -1.478559078603191E-2    3.075372356840208E-2   -1.314379868653833E-2    3.092385227848545E-2   -4.911992108902300E-1   -1.497144851179757E-1
 6.501026879975000E9    -4.295367338538437E-1   -3.053663902987652E-1   -1.504082377786488E-2    3.103036650669528E-2   -1.323197693381745E-2    3.110924045299721E-2   -4.912344688171464E-1   -1.484975907824732E-1
 6.501039290300000E9    -4.301300511959178E-1   -3.045810462501065E-1   -1.487725336456034E-2    3.127168178310418E-2   -1.319370112377777E-2    3.130248040608843E-2   -4.914199587653529E-1   -1.471252691733997E-1
 6.501051700625000E9    -4.307139844740349E-1   -3.037312649719108E-1   -1.488549416822501E-2    3.148931189852817E-2   -1.324394632871028E-2    3.152913525151125E-2   -4.919197359609442E-1   -1.461919411153074E-1
 6.501064110950000E9    -4.312679720836636E-1   -3.028091897466032E-1   -1.486116104363802E-2    3.169847944851587E-2   -1.317789591000106E-2    3.168880357633360E-2   -4.921312599247282E-1   -1.448678344743314E-1
 6.501076521275000E9    -4.318877085861085E-1   -3.019359739283465E-1   -1.481912548195131E-2    3.183063476903072E-2   -1.315586782832526E-2    3.197968752378970E-2   -4.924363122027583E-1   -1.436549664990331E-1
 6.501088931600000E9    -4.324098365842279E-1   -3.011772375481531E-1   -1.487771040993022E-2    3.203375442252422E-2   -1.314518550578799E-2    3.205369140173078E-2   -4.927234705582760E-1   -1.425278331959155E-1
 6.501101341925000E9    -4.330161606404279E-1   -3.003578317420976E-1   -1.489681629772016E-2    3.225372714104886E-2   -1.316258485814600E-2    3.227667515893251E-2   -4.929258059802594E-1   -1.412672150308793E-1
 6.501113752250000E9    -4.335729554519905E-1   -2.994178744560516E-1   -1.477093804783302E-2    3.232538828993294E-2   -1.316797504863820E-2    3.250514600216448E-2   -4.931799854241065E-1   -1.399643511210572E-1
 6.501126162575000E9    -4.341143990002722E-1   -2.985671171990957E-1   -1.488493074717075E-2    3.259612631414632E-2   -1.322825556824680E-2    3.265150346795374E-2   -4.933621544019820E-1   -1.390076179924473E-1
 6.501138572900000E9    -4.346383224117568E-1   -2.977166119191926E-1   -1.485194038692478E-2    3.280166888470233E-2   -1.309199443663347E-2    3.281616699156943E-2   -4.936938144970984E-1   -1.376076946109427E-1
 6.501150983225000E9    -4.352560769772313E-1   -2.967771255090085E-1   -1.485598070374258E-2    3.310799781499417E-2   -1.318408981563341E-2    3.301136695988807E-2   -4.940248411630873E-1   -1.364524233938349E-1
 6.501163393550000E9    -4.357335940411026E-1   -2.958790799305717E-1   -1.486412978370279E-2    3.324301434795429E-2   -1.320988625936225E-2    3.331658167540415E-2   -4.944026061844945E-1   -1.352449035899258E-1
 6.501175803875000E9    -4.363969576530830E-1   -2.950881622372755E-1   -1.493977109273240E-2    3.332453484742656E-2   -1.311171006752219E-2    3.363100938609348E-2   -4.945582624323721E-1   -1.339188587406048E-1
 6.501188214200000E9    -4.369454669215929E-1   -2.942782075922118E-1   -1.488579835744718E-2    3.373484577246935E-2   -1.316319529637714E-2    3.370735712214670E-2   -4.947929625277270E-1   -1.326963161551579E-1
 6.501200624525000E9    -4.374809298498919E-1   -2.933665601242790E-1   -1.484717499392682E-2    3.386640276847832E-2   -1.310983773479803E-2    3.384934323795780E-2   -4.950465404406069E-1   -1.315960413571008E-1
 6.501213034850000E9    -4.380683252606270E-1   -2.924340315627385E-1   -1.488436848787772E-2    3.408934942225235E-2   -1.314913249416913E-2    3.411878616886619E-2   -4.952666952954461E-1   -1.302041403912882E-1
 6.501225445175000E9    -4.385988027820282E-1   -2.916066323147096E-1   -1.488591291001122E-2    3.433942816845512E-2   -1.310486269917547E-2    3.426519134249306E-2   -4.954794772024105E-1   -1.289537736849755E-1
 6.501237855500000E9    -4.391584335386384E-1   -2.906403860915684E-1   -1.482601724272652E-2    3.460346728053744E-2   -1.301530435712277E-2    3.453360462616555E-2   -4.959182037356720E-1   -1.278040119711707E-1
 6.501250265825000E9    -4.398051029672018E-1   -2.898113132981817E-1   -1.496096005408931E-2    3.483041551777866E-2   -1.317102961516046E-2    3.480276364537106E-2   -4.959650218483850E-1   -1.266340881593846E-1
 6.501262676150000E9    -4.403048828586684E-1   -2.889187100935627E-1   -1.472173902201813E-2    3.497667794965664E-2   -1.307050025950820E-2    3.505075345238469E-2   -4.962000781193802E-1   -1.253674082886126E-1
 6.501275086475000E9    -4.408792184324622E-1   -2.879532251466969E-1   -1.496576502986941E-2    3.531418384718074E-2   -1.305415110960521E-2    3.515577041277765E-2   -4.965534961752214E-1   -1.239886103014127E-1
 6.501287496800000E9    -4.414290163269012E-1   -2.871254890292251E-1   -1.505271456798364E-2    3.544178771487694E-2   -1.297427222321753E-2    3.546080836414958E-2   -4.965159458704507E-1   -1.227825665364208E-1
 6.501299907125000E9    -4.419387034868527E-1   -2.860657490717292E-1   -1.496980986296939E-2    3.568812763006154E-2   -1.308235044175188E-2    3.567820246923430E-2   -4.968596365912095E-1   -1.216003645719674E-1
 6.501312317450000E9    -4.424910694986375E-1   -2.854597024508495E-1   -1.471564460121667E-2    3.604724183372325E-2   -1.296916934998138E-2    3.579588250373236E-2   -4.971879502589843E-1   -1.201759637728945E-1
 6.501324727775000E9    -4.429664851992240E-1   -2.843704895000306E-1   -1.474019701742233E-2    3.618467902738831E-2   -1.300776058175612E-2    3.611182420217542E-2   -4.974850785079994E-1   -1.188863895713398E-1
 6.501337138100000E9    -4.435569923265062E-1   -2.834228512697263E-1   -1.484419413344819E-2    3.644511739319555E-2   -1.302769273934216E-2    3.629499259332864E-2   -4.975256183106614E-1   -1.176211833740943E-1
 6.501349548425000E9    -4.440855825494091E-1   -2.826029130952980E-1   -1.484620459111117E-2    3.676390712695338E-2   -1.293569509242448E-2    3.669826675396402E-2   -4.977899370515049E-1   -1.163983553021188E-1
 6.501361958750000E9    -4.446271076986065E-1   -2.817080410978104E-1   -1.488051523363442E-2    3.678897139170926E-2   -1.300598919923577E-2    3.695242345802800E-2   -4.980579448104899E-1   -1.150514881521957E-1
 6.501374369075000E9    -4.453102027350257E-1   -2.807704116904606E-1   -1.489831526428537E-2    3.720904893542258E-2   -1.283972248996411E-2    3.708254655977913E-2   -4.981850229801029E-1   -1.138671413590227E-1
 6.501386779400000E9    -4.456217971525761E-1   -2.797850858712408E-1   -1.480650838782315E-2    3.734835053889832E-2   -1.291861501014090E-2    3.738056916117290E-2   -4.984265633630910E-1   -1.124572642683218E-1
 6.501399189725000E9    -4.462559984759475E-1   -2.789144642958555E-1   -1.477439568131250E-2    3.771467999424413E-2   -1.292117188915062E-2    3.755708432717655E-2   -4.986834240195854E-1   -1.111941824747695E-1
 6.501411600050000E9    -4.468070541635375E-1   -2.778969679090795E-1   -1.500810367890859E-2    3.799242779823445E-2   -1.285129633154691E-2    3.784465191343766E-2   -4.988841671619573E-1   -1.099522843863599E-1
 6.501424010375000E9    -4.472936941897925E-1   -2.772010225163052E-1   -1.478526772751585E-2    3.821019895078325E-2   -1.294850366227269E-2    3.813668852401441E-2   -4.989326267195416E-1   -1.086746037970938E-1
 6.501436420700000E9    -4.478281828700290E-1   -2.761353484568166E-1   -1.472805625739788E-2    3.842620225852161E-2   -1.295042558280131E-2    3.832352413321070E-2   -4.992592945708210E-1   -1.071260546032513E-1
 6.501448831025000E9    -4.482784509684800E-1   -2.752237421885477E-1   -1.480664207906143E-2    3.864343055334310E-2   -1.282082964629753E-2    3.855011327243706E-2   -4.994411175542966E-1   -1.058693307094804E-1
 6.501461241350000E9    -4.488484670894254E-1   -2.742599789432477E-1   -1.479335559420991E-2    3.904819114066754E-2   -1.281979931219546E-2    3.888198010987810E-2   -4.995335753692174E-1   -1.046826353750071E-1
 6.501473651675000E9    -4.494417487749229E-1   -2.733827793598052E-1   -1.472430197645874E-2    3.920940374725253E-2   -1.276302644220354E-2    3.903519039010262E-2   -4.997978100857525E-1   -1.033092229279723E-1
 6.501486062000000E9    -4.499469538263832E-1   -2.724647406276893E-1   -1.465993496683696E-2    3.965063577020540E-2   -1.266099777739634E-2    3.940237913761151E-2   -4.998776132215183E-1   -1.019401020875245E-1
 6.501498472325000E9    -4.503298979977562E-1   -2.716299312483796E-1   -1.472027681844575E-2    3.982036662690720E-2   -1.264729291567834E-2    3.963408594973072E-2   -5.001572975516961E-1   -1.005414189796829E-1
 6.501510882650000E9    -4.510034649107572E-1   -2.705611080677034E-1   -1.461130520713028E-2    4.007297882299585E-2   -1.269049795012873E-2    3.993794633734888E-2   -5.002299348553183E-1   -9.925051426178447E-2
 6.501523292975000E9    -4.514516704008216E-1   -2.696477990628743E-1   -1.477780249189354E-2    4.030724110336746E-2   -1.268398864820737E-2    4.013785398760986E-2   -5.003695278938961E-1   -9.795051229361522E-2
 6.501535703300000E9    -4.520396882930300E-1   -2.687321109741619E-1   -1.473731460698271E-2    4.061506338025275E-2   -1.274503784336605E-2    4.050399332181755E-2   -5.005152489489828E-1   -9.659656763888427E-2
 6.501548113625000E9    -4.526383187025429E-1   -2.677372718704999E-1   -1.462748359159514E-2    4.095287320316589E-2   -1.272936979959531E-2    4.071944360924620E-2   -5.006669225198477E-1   -9.513964170889404E-2
 6.501560523950000E9    -4.530308308065155E-1   -2.667679600828660E-1   -1.465290362235929E-2    4.129766931199540E-2   -1.269071731376906E-2    4.103445739039882E-2   -5.009345604132532E-1   -9.374632135694241E-2
 6.501572934275000E9    -4.536088510095328E-1   -2.658969902973007E-1   -1.457467310062169E-2    4.152315933892035E-2   -1.267562994756080E-2    4.133129878698409E-2   -5.009966087442654E-1   -9.243517091541011E-2
 6.501585344600000E9    -4.540364402740567E-1   -2.648903299368051E-1   -1.465362254728324E-2    4.192963521482013E-2   -1.255061358131539E-2    4.163947123405174E-2   -5.011865024581222E-1   -9.088971930494645E-2
 6.501597754925000E9    -4.545174971307265E-1   -2.638268571814764E-1   -1.458108347957686E-2    4.220463576482508E-2   -1.255145176769279E-2    4.192690076483003E-2   -5.013184788070693E-1   -8.953243259822416E-2
 6.501610165250000E9    -4.550533225279925E-1   -2.629759650362783E-1   -1.473390750984946E-2    4.243004112373550E-2   -1.250140214455990E-2    4.227200306104520E-2   -5.014460329736460E-1   -8.807882620609259E-2
 6.501622575575000E9    -4.555885711070721E-1   -2.620478445067189E-1   -1.452131974199919E-2    4.282637818264566E-2   -1.244802607699261E-2    4.257789277538970E-2   -5.016321786723271E-1   -8.676231248674501E-2
 6.501634985900000E9    -4.561117676492715E-1   -2.609897562093920E-1   -1.469014761980744E-2    4.324729408431317E-2   -1.239513951596573E-2    4.287769665497699E-2   -5.017439824757224E-1   -8.535879313938230E-2
 6.501647396225000E9    -4.565995264681793E-1   -2.601308445988772E-1   -1.455053666201107E-2    4.341335289384068E-2   -1.240058603465694E-2    4.314453409037747E-2   -5.018913295987730E-1   -8.387372554606078E-2
 6.501659806550000E9    -4.571169015477429E-1   -2.591038774869638E-1   -1.447331624716526E-2    4.384044157738350E-2   -1.236935379911403E-2    4.349970897438288E-2   -5.018517849850046E-1   -8.227847073804495E-2
 6.501672216875000E9    -4.574893813030892E-1   -2.581189545367742E-1   -1.455246752307051E-2    4.409852908233075E-2   -1.240708930926215E-2    4.388171645883549E-2   -5.021090136578337E-1   -8.096767701743521E-2
 6.501684627200000E9    -4.580300275535085E-1   -2.571330854438810E-1   -1.449125677021682E-2    4.451934343941442E-2   -1.235851942251667E-2    4.404158218142774E-2   -5.021975915461249E-1   -7.966409011448877E-2
 6.501697037525000E9    -4.585199508851400E-1   -2.561747708879905E-1   -1.453716522912268E-2    4.490443808375137E-2   -1.226458079080991E-2    4.441074452537444E-2   -5.023227115072516E-1   -7.809133294304189E-2
 6.501709447850000E9    -4.590918597358791E-1   -2.552199949724067E-1   -1.455617922320687E-2    4.511979566107437E-2   -1.223484197907748E-2    4.484205350771824E-2   -5.024675502905993E-1   -7.664379348137959E-2
 6.501721858175000E9    -4.595305206177532E-1   -2.542487378646031E-1   -1.442792634725844E-2    4.547454281589178E-2   -1.220323626954546E-2    4.518675506649931E-2   -5.025444303856632E-1   -7.509452749853665E-2
 6.501734268500000E9    -4.600043568535707E-1   -2.532148357932837E-1   -1.450820425791761E-2    4.591142757867397E-2   -1.211374933048999E-2    4.552909918962342E-2   -5.026751115715699E-1   -7.375604434862928E-2
 6.501746678825000E9    -4.604501810950214E-1   -2.522907763720019E-1   -1.438677474316291E-2    4.615871430898934E-2   -1.209554206502632E-2    4.573064333549447E-2   -5.026922978365648E-1   -7.205564234058463E-2
 6.501759089150000E9    -4.610954575122025E-1   -2.511842401749943E-1   -1.431916042861615E-2    4.652514554483229E-2   -1.209064528073632E-2    4.616318589428240E-2   -5.027550020596261E-1   -7.064701934311896E-2
 6.501771499475000E9    -4.614499597427897E-1   -2.502587483687959E-1   -1.424406792555212E-2    4.693161714278642E-2   -1.200507488381716E-2    4.660719437253719E-2   -5.029026152614723E-1   -6.916610398098311E-2
 6.501783909800000E9    -4.621006578507054E-1   -2.491552847456173E-1   -1.423266211958590E-2    4.741394122459459E-2   -1.195352137487632E-2    4.688407709274686E-2   -5.029180856045674E-1   -6.765792848756379E-2
 6.501796320125000E9    -4.625812057467054E-1   -2.482318023334951E-1   -1.420143162209428E-2    4.773069170648997E-2   -1.191388114249519E-2    4.729769595731630E-2   -5.029966103879946E-1   -6.616496127726640E-2
 6.501808730450000E9    -4.630058970617398E-1   -2.471686528768463E-1   -1.426059640744102E-2    4.815082158244689E-2   -1.184142489161591E-2    4.761943724847004E-2   -5.031661753222755E-1   -6.459577707763162E-2
 6.501821140775000E9    -4.635226631253790E-1   -2.461784154522063E-1   -1.410554098934765E-2    4.856614869901895E-2   -1.188529128182381E-2    4.805083268612340E-2   -5.031699417660966E-1   -6.303920051658718E-2
 6.501833551100000E9    -4.638839011972530E-1   -2.450845998740596E-1   -1.412966250094414E-2    4.878151927341058E-2   -1.176288415107252E-2    4.849713297919833E-2   -5.031783672166864E-1   -6.142449297296453E-2
 6.501845961425000E9    -4.643886490987788E-1   -2.441126477968051E-1   -1.398854654097074E-2    4.922456912107877E-2   -1.168052383868278E-2    4.878832788507424E-2   -5.032956895493585E-1   -5.992365467327816E-2
 6.501858371750000E9    -4.648135268267831E-1   -2.431748012149299E-1   -1.391735874249345E-2    4.966820575809869E-2   -1.174926394277483E-2    4.914133941998236E-2   -5.032462597411109E-1   -5.827098462415110E-2
 6.501870782075000E9    -4.653419468899548E-1   -2.420810737172993E-1   -1.401958387200108E-2    5.004567920384607E-2   -1.166362425303218E-2    4.958248608789998E-2   -5.033710840862990E-1   -5.671591719593264E-2
 6.501883192400000E9    -4.658146159629065E-1   -2.409983854235894E-1   -1.390646609827522E-2    5.042223608587091E-2   -1.152592888761804E-2    4.996013258952117E-2   -5.033477127082794E-1   -5.506328692962834E-2
 6.501895602725000E9    -4.662718839252849E-1   -2.399226804290822E-1   -1.394466449770203E-2    5.096108648409844E-2   -1.147267765494019E-2    5.038112677522118E-2   -5.032582817051684E-1   -5.361311830820632E-2
 6.501908013050000E9    -4.666933606786623E-1   -2.388564998864149E-1   -1.393619541352367E-2    5.145615950483370E-2   -1.150274436399366E-2    5.079120983497678E-2   -5.034034016305969E-1   -5.207164746524606E-2
 6.501920423375000E9    -4.672777261167745E-1   -2.378559861621100E-1   -1.372986683592652E-2    5.192605061564315E-2   -1.142737083095698E-2    5.126878243911656E-2   -5.033805889976141E-1   -5.029528333786257E-2
 6.501932833700000E9    -4.677384020171376E-1   -2.369393515523265E-1   -1.371914563220078E-2    5.225280114327732E-2   -1.133478915828735E-2    5.170961385086528E-2   -5.032601890804094E-1   -4.868608730931769E-2
 6.501945244025000E9    -4.681180442933236E-1   -2.357500837286352E-1   -1.371602553671011E-2    5.266637164091979E-2   -1.127081780701334E-2    5.218604978314755E-2   -5.033244121837765E-1   -4.704297106607314E-2
 6.501957654350000E9    -4.685959797463238E-1   -2.347960400189974E-1   -1.370192714225928E-2    5.306157830786555E-2   -1.116611135671119E-2    5.267512731564675E-2   -5.035062922769669E-1   -4.537904067017683E-2
 6.501970064675000E9    -4.690824361925030E-1   -2.337629232080234E-1   -1.359078360111327E-2    5.354818564103554E-2   -1.123641992712161E-2    5.310820397924670E-2   -5.031950784209763E-1   -4.375061290911578E-2
 6.501982475000000E9    -4.693878557459551E-1   -2.325875878139399E-1   -1.350103002534552E-2    5.398276160708240E-2   -1.102904935717245E-2    5.353985951826885E-2   -5.032582103304065E-1   -4.201326043432457E-2
 6.501994885325000E9    -4.698816554456350E-1   -2.315457478190076E-1   -1.342368679441223E-2    5.459250624488472E-2   -1.098161109533819E-2    5.396071013958179E-2   -5.033306136051634E-1   -4.026823198913341E-2
 6.502007295650000E9    -4.704593873168370E-1   -2.303715045375347E-1   -1.336861068411538E-2    5.501454506827246E-2   -1.083861208423444E-2    5.437237405248603E-2   -5.032853785212434E-1   -3.870185829619625E-2
 6.502019705975000E9    -4.707832970200912E-1   -2.293030156771511E-1   -1.337621092975037E-2    5.545071384860070E-2   -1.073496856001920E-2    5.490497707066500E-2   -5.030991878449691E-1   -3.688810324350709E-2
 6.502032116300000E9    -4.712955306536445E-1   -2.282847352602807E-1   -1.320705936494777E-2    5.608860960598980E-2   -1.067059162737019E-2    5.535940327290467E-2   -5.031314033932192E-1   -3.534030100731994E-2
 6.502044526625000E9    -4.716385235248843E-1   -2.271007243790458E-1   -1.307754768361466E-2    5.656721151316196E-2   -1.064302566576820E-2    5.591004380584212E-2   -5.030000095093123E-1   -3.334939263214930E-2
 6.502056936950000E9    -4.722495954649014E-1   -2.260442169677701E-1   -1.310451346144400E-2    5.709546298083818E-2   -1.051722691981473E-2    5.635142487966383E-2   -5.028903547771643E-1   -3.157642967106081E-2
 6.502069347275000E9    -4.725302145795317E-1   -2.249041122328020E-1   -1.298668240305513E-2    5.752694529350359E-2   -1.039952152104664E-2    5.692584548376209E-2   -5.029043589141891E-1   -2.992002935727177E-2
 6.502081757600000E9    -4.730276794933435E-1   -2.237566261767336E-1   -1.288651950301458E-2    5.816846099764049E-2   -1.027569157876961E-2    5.745820897142163E-2   -5.026953152994407E-1   -2.799988251672791E-2
 6.502094167925000E9    -4.732829314919194E-1   -2.227444265288112E-1   -1.286764024509212E-2    5.871691546802157E-2   -1.024020971423312E-2    5.800060944348393E-2   -5.026444609934092E-1   -2.618705119513935E-2
 6.502106578250000E9    -4.738224346362802E-1   -2.216271262597216E-1   -1.271924016157287E-2    5.933061144505644E-2   -1.020183404184726E-2    5.848184064399944E-2   -5.025869088709983E-1   -2.449462169066424E-2
