#  HZ   S   RI   R     50.00 
! Rohde & Schwarz Vector Network Analyzer 
! Rohde-Schwarz,ZNB20-2Port,1311601062101988,3.16
! Created: UTC 3/20/2024, 11:59:40 AM
! freq[Hz]                re:S11                  im:S11                  re:S21                  im:S21                  re:S12                  im:S12                  re:S22                  im:S22
 6.501000822000000E9    -4.283520597068661E-1   -3.071926123207676E-1   -1.494558183330597E-2    3.054158493319734E-2   -1.322793446720000E-2    3.063103105617299E-2   -4.907349070790074E-1   -1.510025183953713E-1
 6.501013193375000E9    -4.289184447843762E-1   -3.064793028124057E-1   -1.500090404042595E-2    3.078766907244177E-2   -1.320437746582990E-2    3.092794907104279E-2   -4.909032264622257E-1   -1.498853989692901E-1
 6.501025564750000E9    -4.294525812156013E-1   -3.054639907525895E-1   -1.491781531715091E-2    3.099943082323734E-2   -1.325460002821151E-2    3.105201573035013E-2   -4.912600575924767E-1   -1.487666183404081E-1
 6.501037936125000E9    -4.301049125418415E-1   -3.047104249773982E-1   -1.478005126130070E-2    3.128661645527872E-2   -1.326073401212653E-2    3.122546827380198E-2   -4.916026334976087E-1   -1.474139357474237E-1
 6.501050307500000E9    -4.306582784790107E-1   -3.038376720841537E-1   -1.481542907264929E-2    3.145874260373635E-2   -1.312728101174876E-2    3.144690079088286E-2   -4.918673540391591E-1   -1.462095234439697E-1
 6.501062678875000E9    -4.311629459538565E-1   -3.030742402058259E-1   -1.483668202120613E-2    3.146148924622685E-2   -1.314614944174270E-2    3.161664767479106E-2   -4.921028455778771E-1   -1.450549567429590E-1
 6.501075050250000E9    -4.317895597516082E-1   -3.021306852428794E-1   -1.478252195671630E-2    3.171245674345734E-2   -1.310663259423902E-2    3.185168724194834E-2   -4.923339924819665E-1   -1.437945051466527E-1
 6.501087421625000E9    -4.323985454725440E-1   -3.013370325121305E-1   -1.490284643200440E-2    3.209331023057490E-2   -1.320749655059972E-2    3.200206382553511E-2   -4.926047487207084E-1   -1.427039658976229E-1
 6.501099793000000E9    -4.329933680210676E-1   -3.005085692313380E-1   -1.480194803906985E-2    3.210671044841869E-2   -1.299993823479096E-2    3.223091402359565E-2   -4.929397812283274E-1   -1.414975001967007E-1
 6.501112164375000E9    -4.334989397437327E-1   -2.995212402820340E-1   -1.486357231627987E-2    3.226457066163869E-2   -1.309679489453828E-2    3.235991215500438E-2   -4.932628827809870E-1   -1.403828125795463E-1
 6.501124535750000E9    -4.339854638439291E-1   -2.987957655545754E-1   -1.485289206915091E-2    3.260556683264865E-2   -1.306014020845949E-2    3.248256775039321E-2   -4.936384903093241E-1   -1.390116089026189E-1
 6.501136907125000E9    -4.346408101301778E-1   -2.978285785430577E-1   -1.487620544363285E-2    3.268463497922883E-2   -1.316188960778389E-2    3.283922270652382E-2   -4.937568271773873E-1   -1.379610217672517E-1
 6.501149278500000E9    -4.351376428210054E-1   -2.970314465485145E-1   -1.485384695730224E-2    3.291983067941384E-2   -1.320328932527217E-2    3.296810159075447E-2   -4.940487802564619E-1   -1.365760664751044E-1
 6.501161649875000E9    -4.357472377470686E-1   -2.960713126915187E-1   -1.489768881375054E-2    3.309971636769947E-2   -1.309070052719919E-2    3.311831131546800E-2   -4.941639652955844E-1   -1.354069816788725E-1
 6.501174021250000E9    -4.362255966456869E-1   -2.952002201162447E-1   -1.486903710300035E-2    3.342342846674855E-2   -1.317294718625294E-2    3.335769828674588E-2   -4.945158756509530E-1   -1.340827949292660E-1
 6.501186392625000E9    -4.368799113094430E-1   -2.943691959607005E-1   -1.492344661993978E-2    3.366349720744919E-2   -1.306547108382368E-2    3.357833381086214E-2   -4.948756832504662E-1   -1.330563470140606E-1
 6.501198764000000E9    -4.375409080384420E-1   -2.935351224589697E-1   -1.494639344015925E-2    3.372818674113846E-2   -1.309119272030283E-2    3.378406337056433E-2   -4.949176052096350E-1   -1.317501284737942E-1
 6.501211135375000E9    -4.379290771722898E-1   -2.926179285548069E-1   -1.491026340176677E-2    3.403789235659165E-2   -1.314163105650137E-2    3.402492189864271E-2   -4.953064116762438E-1   -1.306441942132542E-1
 6.501223506750000E9    -4.385918768466522E-1   -2.915872708281080E-1   -1.503653221195394E-2    3.421367640633700E-2   -1.314243615425104E-2    3.418066656025533E-2   -4.955698128830330E-1   -1.293585956390638E-1
 6.501235878125000E9    -4.390673171141456E-1   -2.907934124905607E-1   -1.486315997855422E-2    3.442325218019109E-2   -1.314269398269156E-2    3.441750513311143E-2   -4.957248458091670E-1   -1.279727015102787E-1
 6.501248249500000E9    -4.395490194822434E-1   -2.899354665224947E-1   -1.485401740646126E-2    3.468493045473416E-2   -1.305901675990580E-2    3.468811874450149E-2   -4.959964924922031E-1   -1.270110085987180E-1
 6.501260620875000E9    -4.400794981014259E-1   -2.890699240917399E-1   -1.481078498291692E-2    3.492058368791104E-2   -1.311348663689290E-2    3.490160929614625E-2   -4.962079866582419E-1   -1.257087564915908E-1
 6.501272992250000E9    -4.407206937486949E-1   -2.882292678722689E-1   -1.482778641425064E-2    3.503548449714479E-2   -1.304844811769747E-2    3.511545265317746E-2   -4.965169123294048E-1   -1.243798883213822E-1
 6.501285363625000E9    -4.413147989114843E-1   -2.873133081681484E-1   -1.476970661860758E-2    3.536102139498752E-2   -1.306664457578494E-2    3.542196274145738E-2   -4.966730116272746E-1   -1.231195162834826E-1
 6.501297735000000E9    -4.418839068107925E-1   -2.864474501166623E-1   -1.487233718988196E-2    3.553263875044439E-2   -1.310900390084081E-2    3.556344502553890E-2   -4.969770189319822E-1   -1.219669120578534E-1
 6.501310106375000E9    -4.423805785922061E-1   -2.855180425932269E-1   -1.487610140146082E-2    3.584680666600681E-2   -1.298808144704168E-2    3.571771798018751E-2   -4.971867587628263E-1   -1.206298910897287E-1
 6.501322477750000E9    -4.428932722097349E-1   -2.847026785395815E-1   -1.482249419368661E-2    3.599973752670641E-2   -1.296379510766124E-2    3.591383102162447E-2   -4.973083608606174E-1   -1.194166053576389E-1
 6.501334849125000E9    -4.434029993457171E-1   -2.837287153137770E-1   -1.470535414274356E-2    3.637767422481104E-2   -1.298956135483166E-2    3.623533916638887E-2   -4.976208435278505E-1   -1.180146883572379E-1
 6.501347220500000E9    -4.439115652481892E-1   -2.827663146218341E-1   -1.479686981045480E-2    3.653702555977647E-2   -1.294480695474369E-2    3.643318323860523E-2   -4.976800679585405E-1   -1.166884734669016E-1
 6.501359591875000E9    -4.444637657745072E-1   -2.819469923254713E-1   -1.479046531945975E-2    3.685536978646559E-2   -1.289719497131155E-2    3.677479468764168E-2   -4.980275072927732E-1   -1.154479590025889E-1
 6.501371963250000E9    -4.450446458364419E-1   -2.810018481158378E-1   -1.483414998111014E-2    3.698775266234080E-2   -1.292692101857449E-2    3.693536501606082E-2   -4.982254047864258E-1   -1.141439762346704E-1
 6.501384334625000E9    -4.456095175652107E-1   -2.800828727728273E-1   -1.491288410132461E-2    3.722861658703323E-2   -1.292011174745689E-2    3.728829541968154E-2   -4.984194060843487E-1   -1.128986227219790E-1
 6.501396706000000E9    -4.460720574638748E-1   -2.791837629491462E-1   -1.474753338280244E-2    3.750712192261543E-2   -1.285717309081753E-2    3.744330779838539E-2   -4.987297598023712E-1   -1.115808811725936E-1
 6.501409077375000E9    -4.465631380131822E-1   -2.782707930975483E-1   -1.474529404069517E-2    3.776247804562425E-2   -1.284587385283718E-2    3.773118897541618E-2   -4.987440890589094E-1   -1.103390114320460E-1
 6.501421448750000E9    -4.472073481398653E-1   -2.773989701135397E-1   -1.484092400933696E-2    3.802377069290497E-2   -1.278209211965253E-2    3.793556315883229E-2   -4.989764926690610E-1   -1.090546869403259E-1
 6.501433820125000E9    -4.476899687697812E-1   -2.764673816542222E-1   -1.472652052510806E-2    3.838241712645494E-2   -1.274730207215944E-2    3.824521894942486E-2   -4.991231532752749E-1   -1.078130108271661E-1
 6.501446191500000E9    -4.482490712086824E-1   -2.754872314746696E-1   -1.470637335553512E-2    3.856727357832743E-2   -1.275199541127609E-2    3.837099224456716E-2   -4.994459631388287E-1   -1.061751674777227E-1
 6.501458562875000E9    -4.488276817458028E-1   -2.745814198485606E-1   -1.473032843351341E-2    3.878109364765230E-2   -1.285160035865869E-2    3.869858221921588E-2   -4.995882758578388E-1   -1.050009711083718E-1
 6.501470934250000E9    -4.492668053271169E-1   -2.737012393909014E-1   -1.475575559758931E-2    3.904911981718857E-2   -1.280255056222546E-2    3.898294909042745E-2   -4.998063875572292E-1   -1.036109902795191E-1
 6.501483305625000E9    -4.497543014311193E-1   -2.727376905762651E-1   -1.480851223106409E-2    3.936374173030591E-2   -1.273159454000168E-2    3.920014785831395E-2   -4.999682939109128E-1   -1.023174695340436E-1
 6.501495677000000E9    -4.502836877378517E-1   -2.718288405846779E-1   -1.469757825855479E-2    3.959165900323668E-2   -1.276069650124418E-2    3.951089723592040E-2   -5.001196608878986E-1   -1.010737353495707E-1
 6.501508048375000E9    -4.508469692082735E-1   -2.708472838624609E-1   -1.472322107090521E-2    3.999264292609756E-2   -1.267635332647516E-2    3.979518195288047E-2   -5.003994249228708E-1   -9.955413772026009E-2
 6.501520419750000E9    -4.513853667063873E-1   -2.700341564686905E-1   -1.461246403683848E-2    4.028336123097371E-2   -1.270649280289119E-2    4.004138941977464E-2   -5.003918526760703E-1   -9.828267471478840E-2
 6.501532791125000E9    -4.518505816895415E-1   -2.690125723176984E-1   -1.470662000210166E-2    4.047563670610264E-2   -1.270368334815055E-2    4.034328294154781E-2   -5.006556219032003E-1   -9.694534427029006E-2
 6.501545162500000E9    -4.524455660365880E-1   -2.680041056353668E-1   -1.475371820490325E-2    4.085378128483477E-2   -1.263906054568447E-2    4.059985312005127E-2   -5.007515738055355E-1   -9.564513018078190E-2
 6.501557533875000E9    -4.529015165837983E-1   -2.671228826719691E-1   -1.481432676420254E-2    4.116034828795020E-2   -1.259045066451019E-2    4.086782933148117E-2   -5.009100663798389E-1   -9.418534793517519E-2
 6.501569905250000E9    -4.534038498314454E-1   -2.661006195633165E-1   -1.460193689650513E-2    4.145599136633405E-2   -1.267252659358861E-2    4.116743977250530E-2   -5.009510926922602E-1   -9.279302364499238E-2
 6.501582276625000E9    -4.539236850736297E-1   -2.651898228309648E-1   -1.454641933842079E-2    4.165901167604424E-2   -1.255246070830136E-2    4.144592353117973E-2   -5.011767402728549E-1   -9.142501988588494E-2
 6.501594648000000E9    -4.544010275859474E-1   -2.642879073711307E-1   -1.466877463888817E-2    4.181953766690595E-2   -1.254260823407814E-2    4.180008750146017E-2   -5.014394955683845E-1   -9.000915117410840E-2
 6.501607019375000E9    -4.549234392510911E-1   -2.632262352871824E-1   -1.453784116823562E-2    4.236994535577817E-2   -1.256280318286050E-2    4.210729938564536E-2   -5.014513265589119E-1   -8.853776965724817E-2
 6.501619390750000E9    -4.555239011145974E-1   -2.623530008981951E-1   -1.465844924418764E-2    4.270743131669433E-2   -1.250809357175561E-2    4.244796190970713E-2   -5.015564137572038E-1   -8.714270264556322E-2
 6.501631762125000E9    -4.559420764056160E-1   -2.613583472440618E-1   -1.468057484183490E-2    4.302475502802643E-2   -1.249228133799467E-2    4.266766933742450E-2   -5.018048509975779E-1   -8.579515229855851E-2
 6.501644133500000E9    -4.563460736495345E-1   -2.603272045202916E-1   -1.456669826473411E-2    4.317315714809134E-2   -1.244249287526976E-2    4.304907477903575E-2   -5.017947811838157E-1   -8.430715888285102E-2
 6.501656504875000E9    -4.569517596283755E-1   -2.595194915437446E-1   -1.464342172965583E-2    4.364105917180310E-2   -1.245417419312208E-2    4.328442593566725E-2   -5.020208806112328E-1   -8.300614335167240E-2
 6.501668876250000E9    -4.574926738242242E-1   -2.584606776940371E-1   -1.450010044644785E-2    4.407186240045846E-2   -1.236085767876139E-2    4.355247109378384E-2   -5.022732424312426E-1   -8.156820836844433E-2
 6.501681247625000E9    -4.578843552238012E-1   -2.574507171686881E-1   -1.452600183136562E-2    4.434583877753644E-2   -1.231098880352300E-2    4.397412439365975E-2   -5.023509973573613E-1   -8.007492807803458E-2
 6.501693619000000E9    -4.583649160201442E-1   -2.564694775494039E-1   -1.447239602479630E-2    4.458916865333863E-2   -1.223978791506766E-2    4.430895754216457E-2   -5.023058177849571E-1   -7.866370251974160E-2
 6.501705990375000E9    -4.589045415812823E-1   -2.555070522453777E-1   -1.436270158992372E-2    4.482517425281856E-2   -1.226439903609608E-2    4.463023972043698E-2   -5.025070120058731E-1   -7.712672792130823E-2
 6.501718361750000E9    -4.594013756191497E-1   -2.545572060411497E-1   -1.438748584695297E-2    4.531823062912681E-2   -1.212143922774774E-2    4.508130856078789E-2   -5.026229514244471E-1   -7.562982563949885E-2
 6.501730733125000E9    -4.598683945126759E-1   -2.536486523275175E-1   -1.440652716806275E-2    4.561785630826363E-2   -1.213625385685623E-2    4.528618655363749E-2   -5.027772870009389E-1   -7.415356010504555E-2
 6.501743104500000E9    -4.604367395119441E-1   -2.524654162086439E-1   -1.447671196009907E-2    4.602086735324665E-2   -1.213436926050914E-2    4.569535569207553E-2   -5.027555030174377E-1   -7.280653242084321E-2
 6.501755475875000E9    -4.608677892805204E-1   -2.515410126692320E-1   -1.428680519699443E-2    4.625938999705743E-2   -1.214718970947115E-2    4.609967278151819E-2   -5.027345354392199E-1   -7.125683970518230E-2
 6.501767847250000E9    -4.613221181384558E-1   -2.506268067223507E-1   -1.428218648386163E-2    4.669621999175386E-2   -1.210670552245458E-2    4.625815206187277E-2   -5.029043473394751E-1   -6.973548006969267E-2
 6.501780218625000E9    -4.617715782066772E-1   -2.496187454336595E-1   -1.438611209387400E-2    4.708300273279830E-2   -1.198793829129216E-2    4.664560963401255E-2   -5.030893835823411E-1   -6.824893530635286E-2
 6.501792590000000E9    -4.622954969078294E-1   -2.485186392987716E-1   -1.428781681907212E-2    4.748251970644986E-2   -1.192565866215314E-2    4.708837276636737E-2   -5.032220663237363E-1   -6.667020690402529E-2
 6.501804961375000E9    -4.628256962391608E-1   -2.476309185475220E-1   -1.427945000870854E-2    4.796302625262159E-2   -1.195722247006264E-2    4.754759742466760E-2   -5.031299034028960E-1   -6.515097957252186E-2
 6.501817332750000E9    -4.633500247217050E-1   -2.466177247847232E-1   -1.424483164950111E-2    4.822664282456488E-2   -1.194995629582943E-2    4.777287373288533E-2   -5.030845388001074E-1   -6.353822200586549E-2
 6.501829704125000E9    -4.637815757090016E-1   -2.454608339284813E-1   -1.410283064439985E-2    4.867685475273068E-2   -1.173398838242880E-2    4.822317131551677E-2   -5.031460069766106E-1   -6.202702817131644E-2
 6.501842075500000E9    -4.642883972105857E-1   -2.445192330036032E-1   -1.407471870680096E-2    4.908026104639428E-2   -1.175160624712247E-2    4.866191873339283E-2   -5.032239305140636E-1   -6.058600967257616E-2
 6.501854446875000E9    -4.647501071546796E-1   -2.433730732998397E-1   -1.399681808911195E-2    4.955261065468460E-2   -1.162948672104016E-2    4.898720512721014E-2   -5.032753031976738E-1   -5.906363989035475E-2
 6.501866818250000E9    -4.652116913354606E-1   -2.423665914413644E-1   -1.403010203539945E-2    4.979058825426673E-2   -1.162544347355634E-2    4.933466673685506E-2   -5.033829098724855E-1   -5.741582796937901E-2
 6.501879189625000E9    -4.656838370240209E-1   -2.414204474847028E-1   -1.404373989650689E-2    5.028367476038757E-2   -1.158423874699605E-2    4.986842166640050E-2   -5.034119996269643E-1   -5.579293567201344E-2
 6.501891561000000E9    -4.661136349911505E-1   -2.404184443285865E-1   -1.384870578033983E-2    5.058245078154058E-2   -1.155555906042653E-2    5.017451774044294E-2   -5.035258732834054E-1   -5.418672352345113E-2
 6.501903932375000E9    -4.665556346802691E-1   -2.394664940316888E-1   -1.383305443109303E-2    5.111656747255963E-2   -1.148946168512110E-2    5.057893315584166E-2   -5.034804821210352E-1   -5.266140602823492E-2
 6.501916303750000E9    -4.669964229255384E-1   -2.383504204642691E-1   -1.393249267638332E-2    5.157252902093331E-2   -1.136622228922470E-2    5.102670531949521E-2   -5.033861302739526E-1   -5.110873645512405E-2
 6.501928675125000E9    -4.676004331170966E-1   -2.372447760744865E-1   -1.374991218922856E-2    5.213891865399464E-2   -1.139902422149119E-2    5.139823291465759E-2   -5.033506861793304E-1   -4.942026134377851E-2
 6.501941046500000E9    -4.679424299313323E-1   -2.362592021503029E-1   -1.385453425281372E-2    5.252266301450747E-2   -1.139999614942455E-2    5.184441647113970E-2   -5.035132836876386E-1   -4.772915324680708E-2
 6.501953417875000E9    -4.684003055312442E-1   -2.350544188676029E-1   -1.364303879001965E-2    5.293116319933237E-2   -1.121999610513203E-2    5.233088579353443E-2   -5.034825716321834E-1   -4.620056611589690E-2
 6.501965789250000E9    -4.690056845317081E-1   -2.341182536032168E-1   -1.361505362310499E-2    5.345199733751883E-2   -1.106534477826627E-2    5.278798332565292E-2   -5.034721273202101E-1   -4.448228263056869E-2
 6.501978160625000E9    -4.693441434132986E-1   -2.329682383767129E-1   -1.353623809613605E-2    5.381804229074770E-2   -1.110784348846596E-2    5.320834936743296E-2   -5.034316651234968E-1   -4.280240699902547E-2
 6.501990532000000E9    -4.697292139811797E-1   -2.320471193120026E-1   -1.353458309046451E-2    5.432477639506306E-2   -1.099025263238292E-2    5.367886011284206E-2   -5.033678967579798E-1   -4.110412126523780E-2
 6.502002903375000E9    -4.703358254674102E-1   -2.309499285789757E-1   -1.339157641731222E-2    5.460972593858211E-2   -1.093612235560717E-2    5.413515862259728E-2   -5.033784665815459E-1   -3.944621674348506E-2
 6.502015274750000E9    -4.706027618186619E-1   -2.297502683847776E-1   -1.333341947954173E-2    5.517257526417929E-2   -1.080709100543050E-2    5.455061630330481E-2   -5.032327153734268E-1   -3.767192555380788E-2
 6.502027646125000E9    -4.711513505050854E-1   -2.287777731973535E-1   -1.322302563589962E-2    5.588471341592731E-2   -1.076616027399697E-2    5.504811586380792E-2   -5.031353129092373E-1   -3.597435440607830E-2
 6.502040017500000E9    -4.715034492055292E-1   -2.275705011364942E-1   -1.326503412750860E-2    5.632570272590843E-2   -1.066030176239232E-2    5.548849529277720E-2   -5.030597564946506E-1   -3.430196179251028E-2
 6.502052388875000E9    -4.718820797335040E-1   -2.265482248582252E-1   -1.320178414087108E-2    5.674220327140893E-2   -1.055078361326513E-2    5.611325849270982E-2   -5.030467731505081E-1   -3.246022218518820E-2
 6.502064760250000E9    -4.724054454487122E-1   -2.254794857278342E-1   -1.308688835037739E-2    5.718650431306666E-2   -1.051801215401602E-2    5.658154580790575E-2   -5.029994416513220E-1   -3.083041461027908E-2
 6.502077131625000E9    -4.727570860676472E-1   -2.242639094254790E-1   -1.307936736287475E-2    5.782543416915036E-2   -1.043607639240511E-2    5.710920281456667E-2   -5.029886126050148E-1   -2.897357221400767E-2
 6.502089503000000E9    -4.732428342912187E-1   -2.232934374574076E-1   -1.288881922394077E-2    5.829164566994022E-2   -1.035785538844816E-2    5.755497957464802E-2   -5.027861310152215E-1   -2.716221328679261E-2
 6.502101874375000E9    -4.737093583974377E-1   -2.220370104596316E-1   -1.277456560840351E-2    5.889444523111464E-2   -1.021113816345057E-2    5.807988034884535E-2   -5.027540669233773E-1   -2.532226806256063E-2
 6.502114245750000E9    -4.740579819727285E-1   -2.209457589501762E-1   -1.267194671092316E-2    5.953673642148819E-2   -1.007249779245611E-2    5.864720968588197E-2   -5.026053144611334E-1   -2.343077927772036E-2
