#  HZ   S   RI   R     50.00 
! Rohde & Schwarz Vector Network Analyzer 
! Rohde-Schwarz,ZNB20-2Port,1311601062101988,3.16
! Created: UTC 3/20/2024, 11:59:57 AM
! freq[Hz]                re:S11                  im:S11                  re:S21                  im:S21                  re:S12                  im:S12                  re:S22                  im:S22
 6.501008492000000E9    -4.286844977669087E-1   -3.066867573559283E-1   -1.494588993842873E-2    3.070528332327699E-2   -1.314097989614044E-2    3.081962046880664E-2   -4.908251079427254E-1   -1.502086729360380E-1
 6.501020842800000E9    -4.293087352511676E-1   -3.058175779977634E-1   -1.481346368171951E-2    3.094427213882270E-2   -1.322481696749649E-2    3.094615449456408E-2   -4.912392437346512E-1   -1.491251789829875E-1
 6.501033193600000E9    -4.298091912771390E-1   -3.049455017300256E-1   -1.479662177940720E-2    3.115697228513390E-2   -1.326099726829713E-2    3.122201489708201E-2   -4.914189906663227E-1   -1.479651688702471E-1
 6.501045544400000E9    -4.303531551497747E-1   -3.041476396842172E-1   -1.478718480442190E-2    3.131527503371348E-2   -1.318561943792171E-2    3.134963023726695E-2   -4.917701799904703E-1   -1.467502581441064E-1
 6.501057895200000E9    -4.309472529521829E-1   -3.032355064786124E-1   -1.481454765045800E-2    3.147454233248300E-2   -1.316588813286405E-2    3.152474760581226E-2   -4.922035402176080E-1   -1.456838528555746E-1
 6.501070246000000E9    -4.315615705785469E-1   -3.024887811795031E-1   -1.482133741593558E-2    3.158113302701065E-2   -1.323284716911792E-2    3.163410261622786E-2   -4.922271571150107E-1   -1.443267367241564E-1
 6.501082596800000E9    -4.321104759998164E-1   -3.016989819126900E-1   -1.483809261181364E-2    3.182727706024350E-2   -1.314813663895589E-2    3.204757044233110E-2   -4.926710837968986E-1   -1.432300307655117E-1
 6.501094947600000E9    -4.326853875727729E-1   -3.007464846308533E-1   -1.482395654765024E-2    3.197602093637348E-2   -1.315713709339961E-2    3.199450463755981E-2   -4.928186318077803E-1   -1.420584579695488E-1
 6.501107298400000E9    -4.333129299552425E-1   -2.998818469368739E-1   -1.479878150292049E-2    3.223864913437557E-2   -1.317134476746480E-2    3.228950094920890E-2   -4.930861192077464E-1   -1.408215835227354E-1
 6.501119649200000E9    -4.338476961149575E-1   -2.990130138981988E-1   -1.490145955242303E-2    3.232034255927341E-2   -1.306221025373145E-2    3.244597116331514E-2   -4.934241012688862E-1   -1.396936081050029E-1
 6.501132000000000E9    -4.344270826460260E-1   -2.981421640707726E-1   -1.494993472567174E-2    3.258035169276081E-2   -1.318418004167971E-2    3.262440879838549E-2   -4.936499196777200E-1   -1.384168699410687E-1
 6.501144350800000E9    -4.348956383065017E-1   -2.971842464928213E-1   -1.484000268240581E-2    3.274149866683217E-2   -1.306430843433796E-2    3.291670425517465E-2   -4.938445614841022E-1   -1.372331514003503E-1
 6.501156701600000E9    -4.355126430020821E-1   -2.965593723342192E-1   -1.475818930982528E-2    3.303362620798228E-2   -1.307811054784000E-2    3.309785875606951E-2   -4.940691861120946E-1   -1.361261301545482E-1
 6.501169052400000E9    -4.360353611604594E-1   -2.954705940132393E-1   -1.499719191496374E-2    3.325249533394112E-2   -1.309477674113915E-2    3.327414937652104E-2   -4.944588518928643E-1   -1.347434769410237E-1
 6.501181403200000E9    -4.365564335203858E-1   -2.947440901229819E-1   -1.460789734239678E-2    3.357228333478201E-2   -1.310780564145284E-2    3.342472603762497E-2   -4.945179915016515E-1   -1.337221871267018E-1
 6.501193754000000E9    -4.371772460152451E-1   -2.937833092468665E-1   -1.482973476838776E-2    3.363995214336386E-2   -1.302590465129578E-2    3.365081332956706E-2   -4.948569526334356E-1   -1.322684057733743E-1
 6.501206104800000E9    -4.376615026864656E-1   -2.928587474317584E-1   -1.488335620632614E-2    3.386997900005154E-2   -1.308131942173408E-2    3.388525418030226E-2   -4.953129804447357E-1   -1.310384574894040E-1
 6.501218455600000E9    -4.381836730522397E-1   -2.920581767208801E-1   -1.488021266634761E-2    3.400498579386567E-2   -1.311488317871873E-2    3.410302978507501E-2   -4.953171442725620E-1   -1.299952511926203E-1
 6.501230806400000E9    -4.388845018856741E-1   -2.912417700154631E-1   -1.488881925239148E-2    3.423144822249357E-2   -1.312597121577131E-2    3.421705671079232E-2   -4.957977919983694E-1   -1.286391475215013E-1
 6.501243157200000E9    -4.394192035183711E-1   -2.902558410918761E-1   -1.487421972062659E-2    3.450203828159169E-2   -1.303925378911254E-2    3.446440939276790E-2   -4.958508541212486E-1   -1.273744377339812E-1
 6.501255508000000E9    -4.398827855648006E-1   -2.894245300315834E-1   -1.473876837056251E-2    3.488859132316639E-2   -1.306513792676210E-2    3.473086185261218E-2   -4.960689144050017E-1   -1.261983388734427E-1
 6.501267858800000E9    -4.404649886055043E-1   -2.885842348183184E-1   -1.491744829370291E-2    3.503033551451228E-2   -1.298075534316454E-2    3.496376268357415E-2   -4.963718305873592E-1   -1.249861462592400E-1
 6.501280209600000E9    -4.410497913223148E-1   -2.876143439196337E-1   -1.490137882137539E-2    3.528774569686233E-2   -1.294005184026596E-2    3.511862896442476E-2   -4.967030061056046E-1   -1.237606483601306E-1
 6.501292560400000E9    -4.415376389838628E-1   -2.867694852553965E-1   -1.489697750622918E-2    3.532881262694944E-2   -1.299413388584983E-2    3.536536054772062E-2   -4.969150566258880E-1   -1.223709474375640E-1
 6.501304911200000E9    -4.420778664332299E-1   -2.858798134271590E-1   -1.478509788858648E-2    3.561842625647519E-2   -1.301356209454512E-2    3.559098010260527E-2   -4.970637413644142E-1   -1.212461608029005E-1
 6.501317262000000E9    -4.425177319328272E-1   -2.848740858452763E-1   -1.478812115499062E-2    3.597011134204275E-2   -1.294485424074042E-2    3.581972121125765E-2   -4.973201288316538E-1   -1.199939411396791E-1
 6.501329612800000E9    -4.431569156460516E-1   -2.840547340240747E-1   -1.485723953546784E-2    3.616308508619374E-2   -1.301095349978909E-2    3.607751821368042E-2   -4.974518046837293E-1   -1.186334348482781E-1
 6.501341963600000E9    -4.437159888868457E-1   -2.830854420527644E-1   -1.484036461652973E-2    3.627581501196229E-2   -1.296899035205297E-2    3.635678897134864E-2   -4.977223014816105E-1   -1.173709246353557E-1
 6.501354314400000E9    -4.442120592944324E-1   -2.822890861884745E-1   -1.482186866132740E-2    3.671369783533881E-2   -1.292413926361029E-2    3.662336296435869E-2   -4.980503922127618E-1   -1.161609956199156E-1
 6.501366665200000E9    -4.448332375421734E-1   -2.813475298513003E-1   -1.482043696428325E-2    3.694489592391411E-2   -1.295509668344060E-2    3.672356479150314E-2   -4.981130025642684E-1   -1.148326015347748E-1
 6.501379016000000E9    -4.453080972041947E-1   -2.804530216683080E-1   -1.494350685556319E-2    3.722134548853406E-2   -1.286557584458510E-2    3.697158566480797E-2   -4.982709391672699E-1   -1.134817434446328E-1
 6.501391366800000E9    -4.458382352098612E-1   -2.795796100930275E-1   -1.488638203876121E-2    3.732785150138255E-2   -1.283390077556995E-2    3.729711374016090E-2   -4.985275219726935E-1   -1.122853213335828E-1
 6.501403717600000E9    -4.463349036270700E-1   -2.787079896919133E-1   -1.489037081290743E-2    3.763587067915622E-2   -1.286636313966601E-2    3.754384699137445E-2   -4.987564556401935E-1   -1.110360975547098E-1
 6.501416068400000E9    -4.468528574039319E-1   -2.777117394993369E-1   -1.474695724654227E-2    3.786077706115765E-2   -1.277842131760834E-2    3.777786703490667E-2   -4.989157515916797E-1   -1.095170487238655E-1
 6.501428419200000E9    -4.474795017218873E-1   -2.767931460026982E-1   -1.476495284450288E-2    3.818028752875766E-2   -1.288711733554571E-2    3.806981726360971E-2   -4.991678624383915E-1   -1.083130624615897E-1
 6.501440770000000E9    -4.479583148347908E-1   -2.758513149245282E-1   -1.473741821108254E-2    3.838786992994612E-2   -1.285903743833237E-2    3.822845626803874E-2   -4.992804820663978E-1   -1.069851292652673E-1
 6.501453120800000E9    -4.485240279358733E-1   -2.749410032405954E-1   -1.475751484846906E-2    3.873988997781341E-2   -1.276974744973171E-2    3.855869546937844E-2   -4.994907330090813E-1   -1.056395878569793E-1
 6.501465471600000E9    -4.490608046897804E-1   -2.740131718950740E-1   -1.472534534489416E-2    3.885088741254489E-2   -1.278263135099244E-2    3.879403197300590E-2   -4.996783560688788E-1   -1.043029273475677E-1
 6.501477822400000E9    -4.495373739342713E-1   -2.730788993970173E-1   -1.472926873451301E-2    3.916240525870848E-2   -1.284375467813972E-2    3.909293633128249E-2   -4.998288795468177E-1   -1.031393859583249E-1
 6.501490173200000E9    -4.500470849357424E-1   -2.722248906740832E-1   -1.470409076379374E-2    3.947572708138877E-2   -1.275935723820989E-2    3.935637353510860E-2   -5.000423706924347E-1   -1.017952669549421E-1
 6.501502524000000E9    -4.506409760476913E-1   -2.712115466465849E-1   -1.474513015611846E-2    3.981739446602117E-2   -1.284749749467360E-2    3.948772285579912E-2   -5.001714926468156E-1   -1.002974598785684E-1
 6.501514874800000E9    -4.510859000866952E-1   -2.704069119064293E-1   -1.475288157784597E-2    4.002155170674852E-2   -1.274900494610537E-2    3.986406563947080E-2   -5.004576004217025E-1   -9.902922272430013E-2
 6.501527225600000E9    -4.515692496780112E-1   -2.694736636635466E-1   -1.473296151189032E-2    4.032996795551989E-2   -1.267249541295787E-2    4.015462720818289E-2   -5.004472885617726E-1   -9.756131211002669E-2
 6.501539576400000E9    -4.520664897988123E-1   -2.684928127903847E-1   -1.479350507932780E-2    4.054204925003818E-2   -1.260688587047837E-2    4.043703814340802E-2   -5.007406298777620E-1   -9.627963687740039E-2
 6.501551927200000E9    -4.526396212614559E-1   -2.675008303194878E-1   -1.470145634298751E-2    4.097589624582729E-2   -1.267450473349062E-2    4.068699506182897E-2   -5.008642243458231E-1   -9.486799533411291E-2
 6.501564278000000E9    -4.532283451037231E-1   -2.664898928843956E-1   -1.475492074959606E-2    4.127776077860658E-2   -1.253456252394106E-2    4.096274423916275E-2   -5.010553276271287E-1   -9.353127483320028E-2
 6.501576628800000E9    -4.536914893349454E-1   -2.656221946463594E-1   -1.467328932944225E-2    4.151591472751731E-2   -1.257478552355648E-2    4.136216233608188E-2   -5.011305958620663E-1   -9.222363283765316E-2
 6.501588979600000E9    -4.542588691199877E-1   -2.647321314865290E-1   -1.476347194061942E-2    4.185367197363594E-2   -1.254598318254822E-2    4.162695403960184E-2   -5.013406493215019E-1   -9.079587000377733E-2
 6.501601330400000E9    -4.547023671622083E-1   -2.637633547853982E-1   -1.444480205809675E-2    4.199440508600507E-2   -1.250953909067259E-2    4.193387372042592E-2   -5.014566257975924E-1   -8.926801101135201E-2
 6.501613681200000E9    -4.552325181961659E-1   -2.628161583452444E-1   -1.446500154386389E-2    4.242790462972013E-2   -1.249740839400924E-2    4.213305783224863E-2   -5.016520986749141E-1   -8.803848155719574E-2
 6.501626032000000E9    -4.556039947862872E-1   -2.617617474709072E-1   -1.459191213032765E-2    4.273879021515452E-2   -1.255657813897625E-2    4.245133502443799E-2   -5.018167414838549E-1   -8.654582881671415E-2
 6.501638382800000E9    -4.561598866011305E-1   -2.607786757148658E-1   -1.450123563142172E-2    4.300061145283095E-2   -1.238376986664767E-2    4.279894574830375E-2   -5.018151121798271E-1   -8.512988865381649E-2
 6.501650733600000E9    -4.566108880214655E-1   -2.600071073154185E-1   -1.443836888407008E-2    4.333023344557481E-2   -1.241576814650656E-2    4.311598716923379E-2   -5.020256770361196E-1   -8.383733300654829E-2
 6.501663084400000E9    -4.571634369879157E-1   -2.589229222190169E-1   -1.453103979164922E-2    4.380087172630654E-2   -1.241055050510589E-2    4.341914339581361E-2   -5.020849131123118E-1   -8.224238752061504E-2
 6.501675435200000E9    -4.577552924362979E-1   -2.579585914034311E-1   -1.447468551281110E-2    4.402124190319646E-2   -1.229970036522516E-2    4.372514889013934E-2   -5.023348621562396E-1   -8.089060520198810E-2
 6.501687786000000E9    -4.581992476869799E-1   -2.569265415876375E-1   -1.440206467893509E-2    4.438018696699254E-2   -1.242659226645201E-2    4.400367765318070E-2   -5.024296897450861E-1   -7.944929888020129E-2
 6.501700136800000E9    -4.586714421725154E-1   -2.559473704028792E-1   -1.441976335788538E-2    4.465260751649575E-2   -1.227018765956050E-2    4.437105654112939E-2   -5.023720743781273E-1   -7.796731138669395E-2
 6.501712487600000E9    -4.591680175841782E-1   -2.549866990508176E-1   -1.443935843041285E-2    4.507821883804914E-2   -1.222971903442703E-2    4.468601626617753E-2   -5.025876503038643E-1   -7.653164549687996E-2
 6.501724838400000E9    -4.595975769375630E-1   -2.539870344558489E-1   -1.446962471303472E-2    4.547771941248283E-2   -1.221138216177299E-2    4.502891904485096E-2   -5.026547069541640E-1   -7.487974871581803E-2
 6.501737189200000E9    -4.601861548267845E-1   -2.530122036603766E-1   -1.439623880259849E-2    4.569914203182154E-2   -1.215818456081407E-2    4.538338074602011E-2   -5.027436573334290E-1   -7.358254698109359E-2
 6.501749540000000E9    -4.606588182496203E-1   -2.520963396665315E-1   -1.427047589483354E-2    4.607000932472004E-2   -1.210555527070677E-2    4.578651444797222E-2   -5.028258471994507E-1   -7.209176585345199E-2
 6.501761890800000E9    -4.611157713994559E-1   -2.509967099016541E-1   -1.433839913090604E-2    4.648991151680362E-2   -1.208421672130096E-2    4.603089397914736E-2   -5.030406525005620E-1   -7.066437261442024E-2
 6.501774241600000E9    -4.616147533452623E-1   -2.501356458448278E-1   -1.422398787653631E-2    4.682898832572433E-2   -1.209434323226093E-2    4.643570200071241E-2   -5.029740313599949E-1   -6.907737135762353E-2
 6.501786592400000E9    -4.620909289337243E-1   -2.490935711239280E-1   -1.422155123680226E-2    4.720629056492851E-2   -1.202632358818547E-2    4.682011306791026E-2   -5.031204660256315E-1   -6.743520565715613E-2
 6.501798943200000E9    -4.625092426170370E-1   -2.479480820130295E-1   -1.416556542073596E-2    4.751704579506631E-2   -1.194999210640135E-2    4.720430920483457E-2   -5.032767046134698E-1   -6.618169305016414E-2
 6.501811294000000E9    -4.630076065227423E-1   -2.470538061562268E-1   -1.428939052238995E-2    4.796838521213683E-2   -1.191835294231411E-2    4.757490857695559E-2   -5.032681277426366E-1   -6.457266606163753E-2
 6.501823644800000E9    -4.634540535417976E-1   -2.461276444185669E-1   -1.406740159296931E-2    4.831782829597728E-2   -1.185791943204939E-2    4.789033617721664E-2   -5.032498414144808E-1   -6.301873799151497E-2
 6.501835995600000E9    -4.640016483360703E-1   -2.449351135711895E-1   -1.407881892406459E-2    4.873036574458738E-2   -1.184846617824192E-2    4.824941314534370E-2   -5.033185894726995E-1   -6.146405006762341E-2
 6.501848346400000E9    -4.644855179366210E-1   -2.439867455927665E-1   -1.418307084274361E-2    4.907101739116344E-2   -1.175391643084505E-2    4.862516111659147E-2   -5.032993975876190E-1   -5.980790798334280E-2
 6.501860697200000E9    -4.649176529902149E-1   -2.429830210021217E-1   -1.407636953873930E-2    4.946451521987268E-2   -1.169029429128315E-2    4.914406356779235E-2   -5.035259680352805E-1   -5.836564547420828E-2
 6.501873048000000E9    -4.653055792640874E-1   -2.419708456807212E-1   -1.374903038497180E-2    4.988871572682929E-2   -1.177652965040597E-2    4.954835660549326E-2   -5.035079612588191E-1   -5.677446083289399E-2
 6.501885398800000E9    -4.658569844308492E-1   -2.408981404333462E-1   -1.404047693797766E-2    5.033963643241298E-2   -1.165653982870481E-2    4.991295749877993E-2   -5.034658994799659E-1   -5.518524237689722E-2
 6.501897749600000E9    -4.662989658199591E-1   -2.397954178050235E-1   -1.390554505078371E-2    5.075234630466907E-2   -1.148858710434105E-2    5.035526945335011E-2   -5.036052110809571E-1   -5.374164619942966E-2
 6.501910100400000E9    -4.667919425823068E-1   -2.387999985396075E-1   -1.378662799450792E-2    5.119888149867271E-2   -1.144697532897814E-2    5.065561226880921E-2   -5.034327725758045E-1   -5.199095176298131E-2
 6.501922451200000E9    -4.671551532034217E-1   -2.377949534528931E-1   -1.383800258897685E-2    5.165804075513725E-2   -1.128953921984837E-2    5.107141188397477E-2   -5.034574126073097E-1   -5.039453765698822E-2
 6.501934802000000E9    -4.677748987352002E-1   -2.366945139408530E-1   -1.376007127824183E-2    5.208776899415386E-2   -1.129471861317853E-2    5.150438400663197E-2   -5.035487655694254E-1   -4.875138641114924E-2
 6.501947152800000E9    -4.681619898754447E-1   -2.358302528857651E-1   -1.368685394112507E-2    5.253308185763538E-2   -1.115837361210193E-2    5.206557063526039E-2   -5.035837384681161E-1   -4.701714383452644E-2
 6.501959503600000E9    -4.686160505099015E-1   -2.346593075127348E-1   -1.362090481353380E-2    5.304123685072218E-2   -1.122655197572539E-2    5.236973721828672E-2   -5.034612319579999E-1   -4.549707321522613E-2
 6.501971854400000E9    -4.690546823183065E-1   -2.335337713971809E-1   -1.357317622232603E-2    5.347940930229140E-2   -1.112043910454224E-2    5.282630577509393E-2   -5.035901523522510E-1   -4.377910161480669E-2
 6.501984205200000E9    -4.694775621003369E-1   -2.325197981319306E-1   -1.348826625870260E-2    5.389631791700534E-2   -1.106243917568924E-2    5.331938711118939E-2   -5.034186264224337E-1   -4.218837432026391E-2
 6.501996556000000E9    -4.699404105553556E-1   -2.315041751339413E-1   -1.351915193715247E-2    5.440580630277220E-2   -1.099334929693815E-2    5.381476547764213E-2   -5.034421588116329E-1   -4.056660132850531E-2
 6.502008906800000E9    -4.703617770101291E-1   -2.303741482720308E-1   -1.347785323410645E-2    5.483504089099762E-2   -1.086212086058536E-2    5.419710816507853E-2   -5.035070724154624E-1   -3.892298035678511E-2
 6.502021257600000E9    -4.708929744083745E-1   -2.293175042306889E-1   -1.329707649896182E-2    5.527131457878198E-2   -1.080732741045688E-2    5.466253490264870E-2   -5.032785792821172E-1   -3.710174016767945E-2
 6.502033608400000E9    -4.713324781883196E-1   -2.282483807830140E-1   -1.332665406761297E-2    5.583339789267604E-2   -1.066174534735409E-2    5.509638642283507E-2   -5.032995480410588E-1   -3.534798555231201E-2
 6.502045959200000E9    -4.717299929178633E-1   -2.270802551811693E-1   -1.319283994464811E-2    5.626924304723928E-2   -1.066610802654128E-2    5.558227347067177E-2   -5.031464673795426E-1   -3.365258610749323E-2
 6.502058310000000E9    -4.721098770136010E-1   -2.260498879085847E-1   -1.306043405800016E-2    5.682396862379162E-2   -1.053622779507988E-2    5.623317433266730E-2   -5.030673605460851E-1   -3.194576494873639E-2
 6.502070660800000E9    -4.725942245407863E-1   -2.248283095278970E-1   -1.303428076831629E-2    5.725187242952088E-2   -1.043533127594294E-2    5.674797568689820E-2   -5.029618741964572E-1   -3.002887398864071E-2
 6.502083011600000E9    -4.730694564082967E-1   -2.238260276349739E-1   -1.305237087600348E-2    5.801439021133049E-2   -1.024139544163387E-2    5.727562749780504E-2   -5.029832939098107E-1   -2.825624049493228E-2
 6.502095362400000E9    -4.733463410105576E-1   -2.227269300076251E-1   -1.284192673293982E-2    5.840057353366453E-2   -1.025292620503574E-2    5.773137267135352E-2   -5.028424151150410E-1   -2.659534874702773E-2
 6.502107713200000E9    -4.737942058401792E-1   -2.216672242091491E-1   -1.287088539100814E-2    5.896523782215308E-2   -1.022837548547220E-2    5.820754257496877E-2   -5.026700169798942E-1   -2.482567556529668E-2
 6.502120064000000E9    -4.743169050445924E-1   -2.204962677302700E-1   -1.270200419202017E-2    5.971798333107963E-2   -1.009300447256557E-2    5.885600546713755E-2   -5.026992405209081E-1   -2.293244711265448E-2
