#  HZ   S   RI   R     50.00 
! Rohde & Schwarz Vector Network Analyzer 
! Rohde-Schwarz,ZNB20-2Port,1311601062101988,3.16
! Created: UTC 3/20/2024, 12:00:00 PM
! freq[Hz]                re:S11                  im:S11                  re:S21                  im:S21                  re:S12                  im:S12                  re:S22                  im:S22
 6.501005737000000E9    -4.285240177682180E-1   -3.069791320724018E-1   -1.474053658978926E-2    3.074118690350233E-2   -1.321106345880611E-2    3.073025029917466E-2   -4.908423014647997E-1   -1.505261737777973E-1
 6.501018103150000E9    -4.290182252128943E-1   -3.061649476246461E-1   -1.484635069070042E-2    3.068994216437906E-2   -1.324065915439700E-2    3.094898032052398E-2   -4.911768543375009E-1   -1.493710735907330E-1
 6.501030469300000E9    -4.297072964812389E-1   -3.052560246230862E-1   -1.480862644688547E-2    3.101573503346268E-2   -1.324037212535747E-2    3.097784427761897E-2   -4.916139277374671E-1   -1.482630643659605E-1
 6.501042835450000E9    -4.302888850055650E-1   -3.043718426683320E-1   -1.487010658716484E-2    3.114027715736497E-2   -1.321821049933274E-2    3.131622954348978E-2   -4.918645057601896E-1   -1.470609445038412E-1
 6.501055201600000E9    -4.308075806935223E-1   -3.035341792006807E-1   -1.478855782063204E-2    3.144555627252602E-2   -1.320521419424448E-2    3.147812674844373E-2   -4.918893447528912E-1   -1.458294112010255E-1
 6.501067567750000E9    -4.313820896177781E-1   -3.026744781007590E-1   -1.487139134886585E-2    3.156797397717886E-2   -1.313410174941232E-2    3.170283057779165E-2   -4.923448923739311E-1   -1.447867446411898E-1
 6.501079933900000E9    -4.319981699214951E-1   -3.017380267942546E-1   -1.488226418075909E-2    3.173763211902476E-2   -1.309916919311046E-2    3.176841626154465E-2   -4.925981957728925E-1   -1.434728031891745E-1
 6.501092300050000E9    -4.325257294729499E-1   -3.009767060072309E-1   -1.494160466183960E-2    3.205218227738539E-2   -1.322847420673781E-2    3.203818750406983E-2   -4.927406440345495E-1   -1.423750271250283E-1
 6.501104666200000E9    -4.330820039575476E-1   -3.001795053201944E-1   -1.493118644400642E-2    3.216770574389050E-2   -1.316513090183214E-2    3.221804189569587E-2   -4.931133187699949E-1   -1.410600398066582E-1
 6.501117032350000E9    -4.336275196348650E-1   -2.992749520362106E-1   -1.481204502965810E-2    3.253872681364096E-2   -1.305961064491580E-2    3.242608075470903E-2   -4.932917151266397E-1   -1.399127700656000E-1
 6.501129398500000E9    -4.342687662692445E-1   -2.983330408199344E-1   -1.485015188864905E-2    3.257190248939588E-2   -1.312771124359774E-2    3.265056442416985E-2   -4.935408656389779E-1   -1.386385585425180E-1
 6.501141764650000E9    -4.347334966806020E-1   -2.975193281103369E-1   -1.487549923831772E-2    3.278603401020846E-2   -1.315985709323970E-2    3.280828275122064E-2   -4.938499744854644E-1   -1.376463399224097E-1
 6.501154130800000E9    -4.353872158026191E-1   -2.966880725689065E-1   -1.488506936376515E-2    3.304689747001070E-2   -1.311618578854559E-2    3.301509755637967E-2   -4.942265981274301E-1   -1.363613474898572E-1
 6.501166496950000E9    -4.359573499525596E-1   -2.958721848023053E-1   -1.493653079263141E-2    3.318416762685707E-2   -1.317044298280882E-2    3.324164218337796E-2   -4.944976439844665E-1   -1.351289071679784E-1
 6.501178863100000E9    -4.365256046018747E-1   -2.949016329007390E-1   -1.490738063882016E-2    3.340318214321730E-2   -1.306929508081158E-2    3.340452657811781E-2   -4.945410315821623E-1   -1.338357705047695E-1
 6.501191229250000E9    -4.370165236645944E-1   -2.940430543053549E-1   -1.485604378738243E-2    3.359854936931097E-2   -1.306287347955094E-2    3.368115879792822E-2   -4.948895247320620E-1   -1.326068949163917E-1
 6.501203595400000E9    -4.375712355092530E-1   -2.931738110084010E-1   -1.489426423287839E-2    3.395329580981595E-2   -1.310201437447860E-2    3.382107627662685E-2   -4.952008059510284E-1   -1.313668265382754E-1
 6.501215961550000E9    -4.381321348833722E-1   -2.922548837272949E-1   -1.482019812268308E-2    3.406253353690385E-2   -1.304781426862570E-2    3.410465681939056E-2   -4.955012516782222E-1   -1.301166006038443E-1
 6.501228327700000E9    -4.385251874330428E-1   -2.914529356701698E-1   -1.490376905355896E-2    3.428770216782357E-2   -1.304668744744518E-2    3.418579059486634E-2   -4.955522259431575E-1   -1.291877556994580E-1
 6.501240693850000E9    -4.391551272126026E-1   -2.904803040093099E-1   -1.486399149244755E-2    3.454084002423979E-2   -1.312619343914857E-2    3.446355482195803E-2   -4.957969536872389E-1   -1.277176323054724E-1
 6.501253060000000E9    -4.398012345484890E-1   -2.896342646106958E-1   -1.477399382912598E-2    3.459645621645839E-2   -1.307885221362821E-2    3.459929946076740E-2   -4.960322429429172E-1   -1.265467924892806E-1
 6.501265426150000E9    -4.404051196794659E-1   -2.887498329188316E-1   -1.478044184552782E-2    3.484912876230253E-2   -1.296105251748287E-2    3.490774171493581E-2   -4.963073000075774E-1   -1.252273219638095E-1
 6.501277792300000E9    -4.408168412820050E-1   -2.879416646801453E-1   -1.478775114323636E-2    3.518395841481123E-2   -1.295010139713832E-2    3.509209051005506E-2   -4.965095084566551E-1   -1.240165962535467E-1
 6.501290158450000E9    -4.413562401426311E-1   -2.870415694892515E-1   -1.478998543020458E-2    3.531050336739890E-2   -1.307709302790696E-2    3.533167749970476E-2   -4.968572666960369E-1   -1.227262002494956E-1
 6.501302524600000E9    -4.419375618017152E-1   -2.860621433446316E-1   -1.473272034508430E-2    3.563376984914313E-2   -1.296185851525219E-2    3.554091344432293E-2   -4.969141578757071E-1   -1.214372102958151E-1
 6.501314890750000E9    -4.423947118980394E-1   -2.852639964073347E-1   -1.487744782738072E-2    3.582613222519454E-2   -1.303171581636537E-2    3.574065478514610E-2   -4.972759651049235E-1   -1.202243836654662E-1
 6.501327256900000E9    -4.431566453956700E-1   -2.843047836204733E-1   -1.498412085785709E-2    3.612163177989886E-2   -1.301886093415317E-2    3.604580418350565E-2   -4.976648062784594E-1   -1.189425307414875E-1
 6.501339623050000E9    -4.435571140981504E-1   -2.834489868220308E-1   -1.486904102128584E-2    3.641760917397394E-2   -1.300581830012250E-2    3.633032872874175E-2   -4.977357229657499E-1   -1.177203501283540E-1
 6.501351989200000E9    -4.442532267504031E-1   -2.824703765738911E-1   -1.481467061717737E-2    3.663487036384073E-2   -1.291047345170347E-2    3.662258873046991E-2   -4.977674204713505E-1   -1.163501414207863E-1
 6.501364355350000E9    -4.446373500013720E-1   -2.815880178512413E-1   -1.478252424026546E-2    3.670001271621483E-2   -1.292286147067985E-2    3.669881649288395E-2   -4.979968985960492E-1   -1.150622736327419E-1
 6.501376721500000E9    -4.452060549626839E-1   -2.807089759168835E-1   -1.486888193223347E-2    3.706767438189081E-2   -1.292929596637820E-2    3.705160177887946E-2   -4.982708292368157E-1   -1.137434338033973E-1
 6.501389087650000E9    -4.457603680153510E-1   -2.798071409140523E-1   -1.486582187474478E-2    3.730825532984771E-2   -1.298883653411910E-2    3.720481981160738E-2   -4.985387976591445E-1   -1.124446583165550E-1
 6.501401453800000E9    -4.462192408149015E-1   -2.787864919786285E-1   -1.484086654397760E-2    3.758311790587662E-2   -1.287682331202988E-2    3.741552741415227E-2   -4.987015122742852E-1   -1.111821943805862E-1
 6.501413819950000E9    -4.467785951382415E-1   -2.778952919196395E-1   -1.474354170322020E-2    3.785706112582699E-2   -1.289805328966064E-2    3.776330005189768E-2   -4.990386033398764E-1   -1.099906198723093E-1
 6.501426186100000E9    -4.472477722717851E-1   -2.771310717144170E-1   -1.475993769484168E-2    3.814146779886244E-2   -1.277391513192985E-2    3.796396941186792E-2   -4.991656247641765E-1   -1.086375692269513E-1
 6.501438552250000E9    -4.478516622361842E-1   -2.761592909100993E-1   -1.476079971283109E-2    3.834381162839721E-2   -1.282685262423699E-2    3.820295058333420E-2   -4.993288923527310E-1   -1.072536068115560E-1
 6.501450918400000E9    -4.483476085069909E-1   -2.752688761088052E-1   -1.473683687009637E-2    3.855359327741264E-2   -1.286309906251178E-2    3.850645770437330E-2   -4.995716929196827E-1   -1.058413323550762E-1
 6.501463284550000E9    -4.488307851282506E-1   -2.743134351208367E-1   -1.465686222510468E-2    3.888581240011276E-2   -1.279399663720598E-2    3.880010157005574E-2   -4.996114499566086E-1   -1.047005138954676E-1
 6.501475650700000E9    -4.494306810961390E-1   -2.733491726117472E-1   -1.472165040612006E-2    3.909325798541887E-2   -1.281585397605492E-2    3.904114236428270E-2   -4.997704598832960E-1   -1.033670512478228E-1
 6.501488016850000E9    -4.498976937352392E-1   -2.724995120469831E-1   -1.475181251968979E-2    3.948157909334030E-2   -1.269808695656891E-2    3.919280311730530E-2   -5.000818905794752E-1   -1.020215195687108E-1
 6.501500383000000E9    -4.505230609250719E-1   -2.713867640767169E-1   -1.461543685882500E-2    3.970557582510352E-2   -1.280887370910162E-2    3.955310311952885E-2   -5.002832973623365E-1   -1.004814194116760E-1
 6.501512749150000E9    -4.509437520867500E-1   -2.705965044159942E-1   -1.462688906091163E-2    3.996658844509508E-2   -1.260564829073382E-2    3.979419252924762E-2   -5.003565588389195E-1   -9.926081024758006E-2
 6.501525115300000E9    -4.515018039036102E-1   -2.695975094690234E-1   -1.472370112454105E-2    4.018715095552491E-2   -1.277140570298755E-2    4.001782240898211E-2   -5.004927114319286E-1   -9.777999778146389E-2
 6.501537481450000E9    -4.520370949487061E-1   -2.687160410077820E-1   -1.478087769339251E-2    4.055590800030623E-2   -1.266583581755125E-2    4.037073576406053E-2   -5.006819524980165E-1   -9.645938288881958E-2
 6.501549847600000E9    -4.525552589568241E-1   -2.676556996908093E-1   -1.461597673504118E-2    4.087069679093683E-2   -1.266258451342870E-2    4.065374537594361E-2   -5.008605936417395E-1   -9.518094155939202E-2
 6.501562213750000E9    -4.530016424979575E-1   -2.667493958290363E-1   -1.458661361183863E-2    4.115668519481699E-2   -1.256585899574227E-2    4.095610897700513E-2   -5.011324378599286E-1   -9.379186032938333E-2
 6.501574579900000E9    -4.536078038703337E-1   -2.658074680236924E-1   -1.459453699766419E-2    4.142434930023114E-2   -1.245506162428114E-2    4.116201464369649E-2   -5.011696112751929E-1   -9.236746493546358E-2
 6.501586946050000E9    -4.540717298383243E-1   -2.648760065306816E-1   -1.462674692470129E-2    4.175495818952920E-2   -1.260327886729061E-2    4.149907892581416E-2   -5.014186345345678E-1   -9.098877171666926E-2
 6.501599312200000E9    -4.546474431127030E-1   -2.639299574893260E-1   -1.455166219292330E-2    4.206850849095394E-2   -1.253697855933471E-2    4.184305324660174E-2   -5.014338672754418E-1   -8.967452885025184E-2
 6.501611678350000E9    -4.549860853707881E-1   -2.631614403040498E-1   -1.456271834952776E-2    4.235330279848468E-2   -1.243792004288752E-2    4.215854814667992E-2   -5.015821714709409E-1   -8.828060361805963E-2
 6.501624044500000E9    -4.555263956990823E-1   -2.620471320731647E-1   -1.448450713319440E-2    4.266199583139832E-2   -1.243230907326312E-2    4.244849972749574E-2   -5.018464077713298E-1   -8.675293282271634E-2
 6.501636410650000E9    -4.560598274812637E-1   -2.610634548589583E-1   -1.464657553816880E-2    4.298875450212860E-2   -1.253383404099363E-2    4.269085885665738E-2   -5.018124679814184E-1   -8.537469765679447E-2
 6.501648776800000E9    -4.565274002837371E-1   -2.601547355340034E-1   -1.456460374807348E-2    4.325849754946941E-2   -1.241693674234641E-2    4.297282646700536E-2   -5.020181363177950E-1   -8.409801616895916E-2
 6.501661142950000E9    -4.571127038730293E-1   -2.591572724725946E-1   -1.457625363751092E-2    4.364822294829847E-2   -1.239144722844562E-2    4.327169012136923E-2   -5.020604549616071E-1   -8.251293561108183E-2
 6.501673509100000E9    -4.575570378929271E-1   -2.583380211545463E-1   -1.453184075564345E-2    4.397755053399323E-2   -1.235151096964614E-2    4.366966040592401E-2   -5.021747512273296E-1   -8.105789142131337E-2
 6.501685875250000E9    -4.580906200482567E-1   -2.573003741416444E-1   -1.443762389194249E-2    4.417928196329211E-2   -1.225647485952594E-2    4.396710304690792E-2   -5.023602784505292E-1   -7.968195508480641E-2
 6.501698241400000E9    -4.586174738878614E-1   -2.562003717614458E-1   -1.449713781238682E-2    4.464390544387414E-2   -1.221891687172881E-2    4.426354503102227E-2   -5.025167251947756E-1   -7.818779463430459E-2
 6.501710607550000E9    -4.591732344617263E-1   -2.552011407373351E-1   -1.431044684601435E-2    4.489784885067884E-2   -1.215453772107748E-2    4.459547195684278E-2   -5.024621289753423E-1   -7.674726626600008E-2
 6.501722973700000E9    -4.595535306556391E-1   -2.542657698071377E-1   -1.437098673701338E-2    4.523016270333914E-2   -1.217843185317640E-2    4.495183436288739E-2   -5.027746466710840E-1   -7.528622420005286E-2
 6.501735339850000E9    -4.600600682238913E-1   -2.533084806254701E-1   -1.438284432765324E-2    4.560262369991027E-2   -1.211231815763192E-2    4.527782907946348E-2   -5.026972511546629E-1   -7.382177437014810E-2
 6.501747706000000E9    -4.605166529117837E-1   -2.521925377733432E-1   -1.439773091622834E-2    4.602577029271469E-2   -1.208864538523073E-2    4.572411590166713E-2   -5.028550468714892E-1   -7.238522990759698E-2
 6.501760072150000E9    -4.610561841517907E-1   -2.513296435621057E-1   -1.447821358034664E-2    4.635520931569979E-2   -1.207693199502729E-2    4.603678786010763E-2   -5.029319577304517E-1   -7.097501029488396E-2
 6.501772438300000E9    -4.615457235843795E-1   -2.502290562183718E-1   -1.435043383597339E-2    4.672468824518063E-2   -1.204818673143801E-2    4.639347380703655E-2   -5.030415409804492E-1   -6.940235827360068E-2
 6.501784804450000E9    -4.620716024976848E-1   -2.493626034356564E-1   -1.424825289383998E-2    4.715756272586373E-2   -1.203870337456679E-2    4.678158286088413E-2   -5.031508078013083E-1   -6.786233817644774E-2
 6.501797170600000E9    -4.625625928617444E-1   -2.483317986775166E-1   -1.424752965849238E-2    4.749013327577878E-2   -1.194563371571741E-2    4.718288780843901E-2   -5.030385555865871E-1   -6.630348254730055E-2
 6.501809536750000E9    -4.629555777489552E-1   -2.471610619119765E-1   -1.435049663756038E-2    4.784748802071168E-2   -1.198729573851629E-2    4.748960613980364E-2   -5.032855013229299E-1   -6.477209107186091E-2
 6.501821902900000E9    -4.634396973684478E-1   -2.462333295797344E-1   -1.420273302068608E-2    4.827218460440263E-2   -1.178994200879528E-2    4.788820401992167E-2   -5.032748613615149E-1   -6.321914563326289E-2
 6.501834269050000E9    -4.638497109448647E-1   -2.452586545657901E-1   -1.410097051702977E-2    4.865422468783731E-2   -1.179140293175646E-2    4.826560051706991E-2   -5.033355113544081E-1   -6.159239008228679E-2
 6.501846635200000E9    -4.643538496490955E-1   -2.442411618945335E-1   -1.409184589693322E-2    4.908218939864774E-2   -1.166408892342622E-2    4.851399743234885E-2   -5.033399857032734E-1   -6.015255177270811E-2
 6.501859001350000E9    -4.648532036347743E-1   -2.431841766168609E-1   -1.401247142732124E-2    4.940522848424437E-2   -1.164562892793077E-2    4.906688417813074E-2   -5.034668708421111E-1   -5.864244289118144E-2
 6.501871367500000E9    -4.653377702828179E-1   -2.421914327850186E-1   -1.413516295043617E-2    4.985003006237983E-2   -1.166744257521605E-2    4.938006646694926E-2   -5.035459017468911E-1   -5.704093459678644E-2
 6.501883733650000E9    -4.658466996527564E-1   -2.411559607087928E-1   -1.400240313262108E-2    5.028651446800636E-2   -1.160180927807676E-2    4.973923217092101E-2   -5.035461114902040E-1   -5.545025422866010E-2
 6.501896099800000E9    -4.662232028204107E-1   -2.401587328014033E-1   -1.389027733975805E-2    5.069965849400844E-2   -1.156307811347660E-2    5.026216904532003E-2   -5.035212477247764E-1   -5.371898112786088E-2
 6.501908465950000E9    -4.667000442605510E-1   -2.391426577079027E-1   -1.394008250850588E-2    5.116299263260336E-2   -1.149253521219788E-2    5.070099974610972E-2   -5.036046295183191E-1   -5.228275062929031E-2
 6.501920832100000E9    -4.671276331179507E-1   -2.381160975354923E-1   -1.386064934313257E-2    5.157548238945445E-2   -1.137219672285028E-2    5.105138571646832E-2   -5.034937841872801E-1   -5.084259974510371E-2
 6.501933198250000E9    -4.676217008473663E-1   -2.369915719901605E-1   -1.377257604715516E-2    5.199648459003339E-2   -1.135860754836160E-2    5.142277555421355E-2   -5.035725916432113E-1   -4.893522071233884E-2
 6.501945564400000E9    -4.680699005152691E-1   -2.359291067523261E-1   -1.376223754326373E-2    5.244083079403079E-2   -1.124707268497003E-2    5.189234136261856E-2   -5.034132323456453E-1   -4.739561189235969E-2
 6.501957930550000E9    -4.685414389522505E-1   -2.348554316528662E-1   -1.379566057225212E-2    5.301090975725896E-2   -1.115927743407105E-2    5.233126708187175E-2   -5.034835843752978E-1   -4.582293163757609E-2
 6.501970296700000E9    -4.688627145337544E-1   -2.337758396624867E-1   -1.364395406932571E-2    5.344506611205646E-2   -1.102907074433899E-2    5.284974904458008E-2   -5.035626132626331E-1   -4.402713299052987E-2
 6.501982662850000E9    -4.694188476585767E-1   -2.327369950975356E-1   -1.347430396306258E-2    5.367858719383024E-2   -1.115659925827562E-2    5.324551851555460E-2   -5.034630495295256E-1   -4.235554945613128E-2
 6.501995029000000E9    -4.699166418824603E-1   -2.317181101844857E-1   -1.342076708272899E-2    5.428464507390149E-2   -1.098677767593930E-2    5.360140888647985E-2   -5.034725685826916E-1   -4.083404328925687E-2
 6.502007395150000E9    -4.704269084320687E-1   -2.305586059050141E-1   -1.349902592616341E-2    5.477132136218247E-2   -1.094122216651775E-2    5.413808763131923E-2   -5.034889459993882E-1   -3.919428426670863E-2
 6.502019761300000E9    -4.706858626569114E-1   -2.294957645538355E-1   -1.335477669033024E-2    5.534772941779138E-2   -1.087602472450876E-2    5.457598145531253E-2   -5.034035088224743E-1   -3.732766587926507E-2
 6.502032127450000E9    -4.712035887794686E-1   -2.285020053674979E-1   -1.337114270416641E-2    5.576925042934304E-2   -1.080920088958268E-2    5.518662782971741E-2   -5.034538416066179E-1   -3.575441182805357E-2
 6.502044493600000E9    -4.715527874006627E-1   -2.272458175291313E-1   -1.317056151406596E-2    5.635720165742571E-2   -1.053755731223981E-2    5.552849330187418E-2   -5.032696632282302E-1   -3.377651720314488E-2
 6.502056859750000E9    -4.721324824739259E-1   -2.262190821921058E-1   -1.309108442651422E-2    5.670848112041545E-2   -1.047716409396066E-2    5.611152963856138E-2   -5.030785717794088E-1   -3.212252617324591E-2
 6.502069225900000E9    -4.725550928491103E-1   -2.250789213676882E-1   -1.302182733138227E-2    5.733111167851875E-2   -1.051417161893390E-2    5.664673344188838E-2   -5.030787531389794E-1   -3.034458220815153E-2
 6.502081592050000E9    -4.729424202853182E-1   -2.240833970608485E-1   -1.300459679201313E-2    5.777398556626106E-2   -1.037955615006663E-2    5.712668680741381E-2   -5.029575897727280E-1   -2.864283161334068E-2
 6.502093958200000E9    -4.733725468361651E-1   -2.229066564979066E-1   -1.295054339986301E-2    5.845140563931345E-2   -1.030168578472877E-2    5.771005580025088E-2   -5.029341543891168E-1   -2.676770789051792E-2
 6.502106324350000E9    -4.737941509386996E-1   -2.218955332552997E-1   -1.286536387950597E-2    5.889049137330695E-2   -1.013479639584273E-2    5.812248705085754E-2   -5.027734650552492E-1   -2.499111169287004E-2
 6.502118690500000E9    -4.741301859363429E-1   -2.206975427237319E-1   -1.276817418876383E-2    5.956407592128624E-2   -9.994674690413831E-3    5.866154233851455E-2   -5.027189086825155E-1   -2.310147142811179E-2
