#  HZ   S   RI   R     50.00 
! Rohde & Schwarz Vector Network Analyzer 
! Rohde-Schwarz,ZNB20-2Port,1311601062101988,3.16
! Created: UTC 3/20/2024, 12:00:04 PM
! freq[Hz]                re:S11                  im:S11                  re:S21                  im:S21                  re:S12                  im:S12                  re:S22                  im:S22
 6.501010788000000E9    -4.287128495786666E-1   -3.065865838067640E-1   -1.476269588977000E-2    3.058967613134758E-2   -1.327778131747239E-2    3.080869152954900E-2   -4.909339555333191E-1   -1.500098016345678E-1
 6.501023134875000E9    -4.293274922663862E-1   -3.058433985032927E-1   -1.480501495918957E-2    3.090666462225814E-2   -1.317804683260881E-2    3.094852682141653E-2   -4.913399985042982E-1   -1.489694265444185E-1
 6.501035481750000E9    -4.298828331030233E-1   -3.049134834965364E-1   -1.488507770305065E-2    3.103668568912434E-2   -1.323617314969264E-2    3.116686932516428E-2   -4.916384792850558E-1   -1.476937751682842E-1
 6.501047828625000E9    -4.304844614500385E-1   -3.041183719277427E-1   -1.489848876074144E-2    3.113916364797059E-2   -1.321979297640598E-2    3.133502206095251E-2   -4.917235055789709E-1   -1.466486045380834E-1
 6.501060175500000E9    -4.309985618534508E-1   -3.032592136277282E-1   -1.475322080244162E-2    3.148296248243147E-2   -1.316343743379677E-2    3.157279273117050E-2   -4.922055386551659E-1   -1.454157817827882E-1
 6.501072522375000E9    -4.316081469088299E-1   -3.024369628377502E-1   -1.482131346153950E-2    3.179802005122698E-2   -1.316570172029794E-2    3.175306655475665E-2   -4.925106614035667E-1   -1.441333778109887E-1
 6.501084869250000E9    -4.321787202693049E-1   -3.014843199982368E-1   -1.489397408788004E-2    3.182106004950497E-2   -1.309969985304690E-2    3.189527120729375E-2   -4.926372832574587E-1   -1.430175100804628E-1
 6.501097216125000E9    -4.326924624034219E-1   -3.007046660279964E-1   -1.485707424971899E-2    3.201265761559672E-2   -1.317562836206402E-2    3.210171532252271E-2   -4.928834632438301E-1   -1.418502554507463E-1
 6.501109563000000E9    -4.333140376199580E-1   -2.998313740069311E-1   -1.478822382261109E-2    3.222819083280756E-2   -1.311082525989691E-2    3.229400088991007E-2   -4.931701389180120E-1   -1.407282709645693E-1
 6.501121909875000E9    -4.337222332319863E-1   -2.988162017009271E-1   -1.507352484498299E-2    3.247560058988356E-2   -1.323743267079278E-2    3.262076786999073E-2   -4.936402404703157E-1   -1.394620854524641E-1
 6.501134256750000E9    -4.344474226360209E-1   -2.981915033433136E-1   -1.485424186341744E-2    3.253903388374907E-2   -1.306951541191604E-2    3.269451431596730E-2   -4.937774794626871E-1   -1.383389089718593E-1
 6.501146603625000E9    -4.349713229427650E-1   -2.972886065782513E-1   -1.485070314730390E-2    3.278060269971726E-2   -1.317576998026161E-2    3.284495329399846E-2   -4.940379372887481E-1   -1.370497912695927E-1
 6.501158950500000E9    -4.355532656071382E-1   -2.963837971207158E-1   -1.485583737296032E-2    3.293242068673832E-2   -1.309060020623869E-2    3.310725252011152E-2   -4.943389433347852E-1   -1.359069579490030E-1
 6.501171297375000E9    -4.360710550181873E-1   -2.956051972812018E-1   -1.476089238127947E-2    3.323536340783536E-2   -1.306358811470753E-2    3.324290756425612E-2   -4.945249364096197E-1   -1.346430848682713E-1
 6.501183644250000E9    -4.366570269331106E-1   -2.946154624210508E-1   -1.482799988054425E-2    3.353924419831894E-2   -1.315278651102445E-2    3.340737904735360E-2   -4.947841207267938E-1   -1.334490061772306E-1
 6.501195991125000E9    -4.372718225420602E-1   -2.937862412488073E-1   -1.496874259356913E-2    3.369951625792844E-2   -1.310032987180688E-2    3.358684369745649E-2   -4.949754858747238E-1   -1.322419962737003E-1
 6.501208338000000E9    -4.377575920295550E-1   -2.929742986938444E-1   -1.486622743451242E-2    3.391909407337654E-2   -1.316692293523047E-2    3.389137728491365E-2   -4.952113910978977E-1   -1.308999112618899E-1
 6.501220684875000E9    -4.383803500418235E-1   -2.920263607141294E-1   -1.482112572517715E-2    3.422695242885355E-2   -1.310283452382442E-2    3.410861423398124E-2   -4.956188355957772E-1   -1.295765047892862E-1
 6.501233031750000E9    -4.389035048305298E-1   -2.910552417629002E-1   -1.480997458752094E-2    3.428716596307320E-2   -1.306552247922293E-2    3.438120589607072E-2   -4.958162038032818E-1   -1.284934695629438E-1
 6.501245378625000E9    -4.394332849810529E-1   -2.902737276717078E-1   -1.475103309186421E-2    3.447153518015932E-2   -1.310824957343571E-2    3.456409619732755E-2   -4.960896184288688E-1   -1.272745241143118E-1
 6.501257725500000E9    -4.399603449732230E-1   -2.893727082917781E-1   -1.484447784286756E-2    3.477371903889608E-2   -1.304776850951539E-2    3.481469341011904E-2   -4.961636619562493E-1   -1.261399938829223E-1
 6.501270072375000E9    -4.404984307417834E-1   -2.885588757192112E-1   -1.497373081195703E-2    3.506271803512794E-2   -1.302067891896303E-2    3.493658220373729E-2   -4.965012656529978E-1   -1.248695662259981E-1
 6.501282419250000E9    -4.410756641219877E-1   -2.875832826090530E-1   -1.475955465504660E-2    3.517105863898387E-2   -1.295944384917784E-2    3.523253110153696E-2   -4.966839802742552E-1   -1.235673561936344E-1
 6.501294766125000E9    -4.416086135182993E-1   -2.868144798064013E-1   -1.472404693623578E-2    3.554564010752730E-2   -1.302214503139570E-2    3.539924344709552E-2   -4.969354082642087E-1   -1.222874807253596E-1
 6.501307113000000E9    -4.422008256729804E-1   -2.858551388115417E-1   -1.487573543503456E-2    3.573614181437785E-2   -1.295636963133192E-2    3.569657034429316E-2   -4.972283914531108E-1   -1.211498953054365E-1
 6.501319459875000E9    -4.427195703136831E-1   -2.849023458167827E-1   -1.475367598201834E-2    3.606873388935351E-2   -1.301287853206490E-2    3.592204551116947E-2   -4.973823788915059E-1   -1.197945015763406E-1
 6.501331806750000E9    -4.432230139658346E-1   -2.840580151112208E-1   -1.481011221527494E-2    3.629142370902880E-2   -1.303805130291868E-2    3.608093426774032E-2   -4.976262325639759E-1   -1.184952565775509E-1
 6.501344153625000E9    -4.437399397944917E-1   -2.832536027353306E-1   -1.487834170806732E-2    3.650512476906639E-2   -1.302723853451237E-2    3.631995169894769E-2   -4.977897651755551E-1   -1.172685542072728E-1
 6.501356500500000E9    -4.443155835414956E-1   -2.822795622053685E-1   -1.468868000702644E-2    3.669221111812328E-2   -1.288464679753659E-2    3.655865098504873E-2   -4.979852521293191E-1   -1.157660388100516E-1
 6.501368847375000E9    -4.448947535807203E-1   -2.813581421399547E-1   -1.478569126925864E-2    3.696444833165311E-2   -1.298317564808222E-2    3.674108632846990E-2   -4.981598637049148E-1   -1.147123894828452E-1
 6.501381194250000E9    -4.453866013189368E-1   -2.804072918743769E-1   -1.484749570083095E-2    3.709124375569368E-2   -1.294263349059485E-2    3.709439506892719E-2   -4.983398337357596E-1   -1.133983569937562E-1
 6.501393541125000E9    -4.458628146186585E-1   -2.796169751425543E-1   -1.479148101615520E-2    3.746325125044857E-2   -1.280784211448772E-2    3.728158066726185E-2   -4.985950538439710E-1   -1.119689782987912E-1
 6.501405888000000E9    -4.464393391618798E-1   -2.787146224442263E-1   -1.484563581259730E-2    3.761930028093757E-2   -1.294532887564746E-2    3.762525152171192E-2   -4.987949274510212E-1   -1.107845152840763E-1
 6.501418234875000E9    -4.469269311676902E-1   -2.777926736551419E-1   -1.481604501865714E-2    3.792520731414501E-2   -1.285327006883696E-2    3.788606403057818E-2   -4.989047508311089E-1   -1.094209654148878E-1
 6.501430581750000E9    -4.474698822122962E-1   -2.768451787730842E-1   -1.487027802355487E-2    3.813467336563784E-2   -1.285977916889164E-2    3.800920705078534E-2   -4.991085360344634E-1   -1.082065755390919E-1
 6.501442928625000E9    -4.480009334447997E-1   -2.758599175459084E-1   -1.471630672823327E-2    3.844837664070037E-2   -1.285740742200172E-2    3.824481417831345E-2   -4.993238579946435E-1   -1.068382205392119E-1
 6.501455275500000E9    -4.484866916764849E-1   -2.749990377549899E-1   -1.478142936042041E-2    3.859536305146596E-2   -1.282280163332930E-2    3.854328109116917E-2   -4.996643772407297E-1   -1.054789056868339E-1
 6.501467622375000E9    -4.490429150385054E-1   -2.739916044070858E-1   -1.477150349521526E-2    3.893553632591851E-2   -1.287177317002563E-2    3.883435965664237E-2   -4.998732943013822E-1   -1.042395629296379E-1
 6.501479969250000E9    -4.495278652118619E-1   -2.730636811158229E-1   -1.475257679191341E-2    3.930069915472548E-2   -1.275000896404231E-2    3.904318846533419E-2   -4.998573735543319E-1   -1.027759012533158E-1
 6.501492316125000E9    -4.500290588866121E-1   -2.721922621129303E-1   -1.473834494582764E-2    3.952821752330898E-2   -1.274351629044075E-2    3.944863816117988E-2   -5.000861497164023E-1   -1.013660107094493E-1
 6.501504663000000E9    -4.505840213603684E-1   -2.713023519990886E-1   -1.468124256249925E-2    3.979475536227080E-2   -1.270935300145539E-2    3.957630455485717E-2   -5.003346031597512E-1   -1.000431685314321E-1
 6.501517009875000E9    -4.510903780763799E-1   -2.703207124539800E-1   -1.470782628251377E-2    4.013551124296136E-2   -1.275503946937403E-2    3.983941920789391E-2   -5.004095168007907E-1   -9.894519646212720E-2
 6.501529356750000E9    -4.516724838616811E-1   -2.692953520241045E-1   -1.470606693909875E-2    4.031702988619449E-2   -1.270982812721730E-2    4.005336190696817E-2   -5.005025388789393E-1   -9.738963335594944E-2
 6.501541703625000E9    -4.522263162664590E-1   -2.684364388014956E-1   -1.472523190253334E-2    4.067823874528901E-2   -1.266093492670441E-2    4.041734625491268E-2   -5.006602374137407E-1   -9.601466711486910E-2
 6.501554050500000E9    -4.526039453879165E-1   -2.674094090243560E-1   -1.473855768700249E-2    4.094048147654069E-2   -1.253010351432972E-2    4.065443259463763E-2   -5.008860417366795E-1   -9.463185985095014E-2
 6.501566397375000E9    -4.531681341724481E-1   -2.665510235423504E-1   -1.473024648241719E-2    4.123140100835097E-2   -1.250181102244788E-2    4.089601658649577E-2   -5.010145101081681E-1   -9.339548799645810E-2
 6.501578744250000E9    -4.537316585044763E-1   -2.656730652371946E-1   -1.469146266530798E-2    4.141807874231922E-2   -1.253112977660500E-2    4.132526949800181E-2   -5.012671932835516E-1   -9.203793148513896E-2
 6.501591091125000E9    -4.542907392584250E-1   -2.646858801602773E-1   -1.465217007907448E-2    4.182686180321187E-2   -1.258624528554706E-2    4.155979625444104E-2   -5.014261870708714E-1   -9.045529739516206E-2
 6.501603438000000E9    -4.547729787631338E-1   -2.636356507780987E-1   -1.450410365042917E-2    4.217205681521275E-2   -1.253743400192970E-2    4.190495522148813E-2   -5.014914710051770E-1   -8.914695752105163E-2
 6.501615784875000E9    -4.552009966965413E-1   -2.627709718763733E-1   -1.460346234488154E-2    4.247437685056302E-2   -1.260413725682410E-2    4.219980000194727E-2   -5.016443741610030E-1   -8.767690594883412E-2
 6.501628131750000E9    -4.556488049033866E-1   -2.617529499951256E-1   -1.459888331379953E-2    4.274510109824797E-2   -1.249472317308241E-2    4.252584444211755E-2   -5.017747045337142E-1   -8.641367716330955E-2
 6.501640478625000E9    -4.562857784033995E-1   -2.609040993609157E-1   -1.455255533408090E-2    4.307883649668793E-2   -1.242976642385906E-2    4.279194880694401E-2   -5.018134560503447E-1   -8.494049131199985E-2
 6.501652825500000E9    -4.566761696294289E-1   -2.598294239543803E-1   -1.449473779428833E-2    4.338681833044072E-2   -1.233443183900867E-2    4.310728462808713E-2   -5.020721338592645E-1   -8.353012563490497E-2
 6.501665172375000E9    -4.572627069732786E-1   -2.588913688763814E-1   -1.445181652086878E-2    4.379171749004212E-2   -1.239081629632546E-2    4.342347604035129E-2   -5.021838910779223E-1   -8.216248548076981E-2
 6.501677519250000E9    -4.577559362701559E-1   -2.578264588735593E-1   -1.453747426417537E-2    4.397156305105791E-2   -1.225465614177255E-2    4.374095766706054E-2   -5.022768983493536E-1   -8.076476992902057E-2
 6.501689866125000E9    -4.582417563259029E-1   -2.569596456781980E-1   -1.450119842144205E-2    4.436132617357424E-2   -1.225898509664851E-2    4.409193652137068E-2   -5.024476272263275E-1   -7.937485209104427E-2
 6.501702213000000E9    -4.587445964895055E-1   -2.559897593515378E-1   -1.442752178477408E-2    4.482439772819688E-2   -1.223082349577512E-2    4.436630349072834E-2   -5.024685857934049E-1   -7.774578664448778E-2
 6.501714559875000E9    -4.592301997500309E-1   -2.549709581998302E-1   -1.442657346469819E-2    4.507317092624721E-2   -1.233937199495841E-2    4.476070355040404E-2   -5.025908001062324E-1   -7.625401172980399E-2
 6.501726906750000E9    -4.597551687977297E-1   -2.539760689105435E-1   -1.448000964717833E-2    4.535611464246588E-2   -1.211345583095540E-2    4.505430549226418E-2   -5.027076044151387E-1   -7.484447640683566E-2
 6.501739253625000E9    -4.601461152743369E-1   -2.529917899108116E-1   -1.436740590035364E-2    4.582666406420981E-2   -1.210875270757501E-2    4.544292984464435E-2   -5.029229722384670E-1   -7.349728119948809E-2
 6.501751600500000E9    -4.605693770362757E-1   -2.520515002820533E-1   -1.451667395056355E-2    4.605797356063075E-2   -1.208827378759954E-2    4.576194123203377E-2   -5.028193638314602E-1   -7.192508389160369E-2
 6.501763947375000E9    -4.611199208857899E-1   -2.510832511993515E-1   -1.429645259511123E-2    4.651084674762932E-2   -1.205739897794559E-2    4.609268589651206E-2   -5.029203818628002E-1   -7.053367549960073E-2
 6.501776294250000E9    -4.616112869776247E-1   -2.500221833813834E-1   -1.434852112725509E-2    4.681212143240593E-2   -1.200486132200969E-2    4.652425761569987E-2   -5.030411611338130E-1   -6.901033913541306E-2
 6.501788641125000E9    -4.621832855087871E-1   -2.490938594339364E-1   -1.414328580333441E-2    4.730222883736492E-2   -1.188932718925060E-2    4.678131272919495E-2   -5.031513726517544E-1   -6.742978743487074E-2
 6.501800988000000E9    -4.625405074489923E-1   -2.479974583597143E-1   -1.422284033949128E-2    4.759790342731993E-2   -1.179854869959178E-2    4.715066591024658E-2   -5.032129745696632E-1   -6.595138446565829E-2
 6.501813334875000E9    -4.629850179970456E-1   -2.469995830631925E-1   -1.416473550630125E-2    4.793732666269964E-2   -1.185873891322391E-2    4.748028891132288E-2   -5.031713403516674E-1   -6.434757484776762E-2
 6.501825681750000E9    -4.635667968066130E-1   -2.460478505656356E-1   -1.423331232680595E-2    4.845746425031070E-2   -1.181732910325283E-2    4.799360291183862E-2   -5.032881301581542E-1   -6.293018313806853E-2
 6.501838028625000E9    -4.640000810105184E-1   -2.449205556785630E-1   -1.412245645998295E-2    4.889036072849373E-2   -1.183072194616674E-2    4.834845946284493E-2   -5.033441527543473E-1   -6.132806096260616E-2
 6.501850375500000E9    -4.646200377691171E-1   -2.439826774285422E-1   -1.404732659641326E-2    4.920381374574662E-2   -1.167489797233824E-2    4.866217410139120E-2   -5.034449190111300E-1   -5.962775652139893E-2
 6.501862722375000E9    -4.650512831083107E-1   -2.429539257829272E-1   -1.410610439723287E-2    4.961245258724865E-2   -1.170273002623346E-2    4.903997061943098E-2   -5.035328488596852E-1   -5.815510785985531E-2
 6.501875069250000E9    -4.655961007395631E-1   -2.418694985532632E-1   -1.398828989890914E-2    4.998102078070470E-2   -1.171172191659076E-2    4.941336706642056E-2   -5.034242434414028E-1   -5.663246096128474E-2
 6.501887416125000E9    -4.659402818035160E-1   -2.409633506185962E-1   -1.385389378582394E-2    5.043676659262605E-2   -1.159249559950327E-2    4.997248134603247E-2   -5.034241750950312E-1   -5.506060049315164E-2
 6.501899763000000E9    -4.663339250653413E-1   -2.398516336796308E-1   -1.391588029643442E-2    5.075243462661556E-2   -1.165509634463281E-2    5.033600586061031E-2   -5.035525916054349E-1   -5.348483667513832E-2
 6.501912109875000E9    -4.668207454278035E-1   -2.388010981139701E-1   -1.387800850864392E-2    5.125707234659721E-2   -1.143901783795103E-2    5.072983682829710E-2   -5.034983087563871E-1   -5.180721701207170E-2
 6.501924456750000E9    -4.672797557780878E-1   -2.377208945975456E-1   -1.384791351512383E-2    5.177136280843993E-2   -1.147460795476886E-2    5.117781029848384E-2   -5.035104393571170E-1   -5.034629176608252E-2
 6.501936803625000E9    -4.676421504630785E-1   -2.367255845305743E-1   -1.376140646535232E-2    5.216482758582740E-2   -1.124647152314703E-2    5.156504743915614E-2   -5.034755190989136E-1   -4.865884164997458E-2
 6.501949150500000E9    -4.682482709646678E-1   -2.356671622462579E-1   -1.367409502330153E-2    5.252553570483189E-2   -1.127303988295248E-2    5.205123658167497E-2   -5.034928331828300E-1   -4.682010049396655E-2
 6.501961497375000E9    -4.687018942150857E-1   -2.345874711612313E-1   -1.373521433286851E-2    5.297524593180971E-2   -1.131679978510235E-2    5.241034937709912E-2   -5.035766897503038E-1   -4.532461765456756E-2
 6.501973844250000E9    -4.691115773080243E-1   -2.335877280398463E-1   -1.366250838198717E-2    5.341482178150821E-2   -1.112997738295367E-2    5.295493884958159E-2   -5.035031874736076E-1   -4.364648027947600E-2
 6.501986191125000E9    -4.696093121781410E-1   -2.323521917541261E-1   -1.357569912512649E-2    5.392396743596288E-2   -1.097506247483435E-2    5.325461120827353E-2   -5.033873783511656E-1   -4.200722428285729E-2
 6.501998538000000E9    -4.699521986541855E-1   -2.314183530103191E-1   -1.342404981677353E-2    5.435299790328142E-2   -1.096788933136682E-2    5.371162262158755E-2   -5.034483460881861E-1   -4.025711104648075E-2
 6.502010884875000E9    -4.704224444484546E-1   -2.303800838490409E-1   -1.333655038397184E-2    5.484862187204786E-2   -1.090044487148286E-2    5.422752020358439E-2   -5.034060592664683E-1   -3.861300288841296E-2
 6.502023231750000E9    -4.709030958992394E-1   -2.292665978298532E-1   -1.328564771671813E-2    5.546198299745845E-2   -1.079722220994943E-2    5.476672617729510E-2   -5.032970202727675E-1   -3.687540177524289E-2
 6.502035578625000E9    -4.713136205385228E-1   -2.282082343443789E-1   -1.340220319343996E-2    5.580185704144938E-2   -1.079655943861670E-2    5.521955135581925E-2   -5.034107149648873E-1   -3.510512592409851E-2
 6.502047925500000E9    -4.716364588920218E-1   -2.271360968550006E-1   -1.326103358495648E-2    5.639499181914093E-2   -1.069751848243589E-2    5.570323255701702E-2   -5.032817757300099E-1   -3.346354722238998E-2
 6.502060272375000E9    -4.721957260843448E-1   -2.259694568178321E-1   -1.308060726605103E-2    5.700717892090860E-2   -1.057269501319922E-2    5.618717240220734E-2   -5.030795322297802E-1   -3.161786365606029E-2
 6.502072619250000E9    -4.725514035437870E-1   -2.249190827077024E-1   -1.308192667592182E-2    5.747115932956961E-2   -1.048270601619768E-2    5.672157221246328E-2   -5.029101826864284E-1   -3.006425769183524E-2
 6.502084966125000E9    -4.730202208364934E-1   -2.237460730729895E-1   -1.294816432007096E-2    5.799829789519452E-2   -1.035212091065392E-2    5.724165821570713E-2   -5.030567134635606E-1   -2.823571055877711E-2
 6.502097313000000E9    -4.734176100365420E-1   -2.226933191591338E-1   -1.284881606862987E-2    5.832163104547891E-2   -1.026622613641589E-2    5.776819369909482E-2   -5.028236224902499E-1   -2.629362135863183E-2
 6.502109659875000E9    -4.739684982656258E-1   -2.215408823293345E-1   -1.270294555943240E-2    5.903463108038080E-2   -1.013236668883651E-2    5.831336575565000E-2   -5.027983088036796E-1   -2.452356148295897E-2
 6.502122006750000E9    -4.743431968886566E-1   -2.203729609592377E-1   -1.273339053480484E-2    5.953450490288111E-2   -1.012622690687272E-2    5.882522914289907E-2   -5.025666954773433E-1   -2.272763645090843E-2
