#  HZ   S   RI   R     50.00 
! Rohde & Schwarz Vector Network Analyzer 
! Rohde-Schwarz,ZNB20-2Port,1311601062101988,3.16
! Created: UTC 3/20/2024, 11:38:21 AM
! freq[Hz]                re:S11                  im:S11                  re:S21                  im:S21                  re:S12                  im:S12                  re:S22                  im:S22
 6.501153521000000E9    -4.354539334086936E-1   -2.959219619251632E-1   -1.482491435631747E-2    3.247868881415684E-2   -1.296649418747090E-2    3.243479805417743E-2   -4.948992879944770E-1   -1.347097494373795E-1
 6.501165332350000E9    -4.358142891792336E-1   -2.950545101032711E-1   -1.481521120965323E-2    3.263287752850684E-2   -1.298730869121461E-2    3.264312020553457E-2   -4.951414417233532E-1   -1.334702220630845E-1
 6.501177143700000E9    -4.364969595930547E-1   -2.942457673372767E-1   -1.471946481277180E-2    3.280440830501222E-2   -1.302582550946561E-2    3.291357763903836E-2   -4.954558992778366E-1   -1.322314913622266E-1
 6.501188955050000E9    -4.370405891673180E-1   -2.934746936399463E-1   -1.478317944585129E-2    3.301831369396228E-2   -1.291158293135659E-2    3.308560394251363E-2   -4.956204092420203E-1   -1.311903765860688E-1
 6.501200766400000E9    -4.374740882054240E-1   -2.925925330193347E-1   -1.480120643867978E-2    3.319482357301777E-2   -1.289539703288923E-2    3.320136016940946E-2   -4.958973167805287E-1   -1.299691381944123E-1
 6.501212577750000E9    -4.380312816797381E-1   -2.918296792190658E-1   -1.470730860722041E-2    3.340676514258840E-2   -1.296820417573970E-2    3.342076381542711E-2   -4.962060505750737E-1   -1.288485509218718E-1
 6.501224389100000E9    -4.386557652653192E-1   -2.909392613475623E-1   -1.483531885973926E-2    3.365789382658713E-2   -1.291077877225186E-2    3.358833305199258E-2   -4.963344681832438E-1   -1.277174092754831E-1
 6.501236200450000E9    -4.391773725342216E-1   -2.901430978860554E-1   -1.470675955877969E-2    3.384430492479003E-2   -1.298620741685226E-2    3.384940180643158E-2   -4.964803207115218E-1   -1.264715528622019E-1
 6.501248011800000E9    -4.395717351272362E-1   -2.893618156995341E-1   -1.478399470170207E-2    3.418268599594861E-2   -1.297989466927011E-2    3.400572528220119E-2   -4.967535872078533E-1   -1.252748221152709E-1
 6.501259823150000E9    -4.400921420924027E-1   -2.884793908169201E-1   -1.484450797675902E-2    3.421214563436007E-2   -1.289468057651742E-2    3.418579611852870E-2   -4.969057429844274E-1   -1.240629958234504E-1
 6.501271634500000E9    -4.406230546345860E-1   -2.876402288300052E-1   -1.476173430837690E-2    3.450731365890480E-2   -1.289443145605921E-2    3.443532771426053E-2   -4.973705450097783E-1   -1.229829387623298E-1
 6.501283445850000E9    -4.412457324546575E-1   -2.867569537349924E-1   -1.477567533569185E-2    3.456859908900541E-2   -1.290278391367326E-2    3.473469881480520E-2   -4.974539344749254E-1   -1.217294035776936E-1
 6.501295257200000E9    -4.416554542160858E-1   -2.860194521394171E-1   -1.478842502991999E-2    3.488163075676044E-2   -1.290055137205339E-2    3.501405575408326E-2   -4.976859239483241E-1   -1.205700811840864E-1
 6.501307068550000E9    -4.422693130786575E-1   -2.850348664169437E-1   -1.478972064419657E-2    3.513349377579422E-2   -1.296071004572566E-2    3.502820882337448E-2   -4.979899578324971E-1   -1.192447058893578E-1
 6.501318879900000E9    -4.427557509732263E-1   -2.842610972015777E-1   -1.487987793986157E-2    3.523212282517903E-2   -1.294630792410076E-2    3.532993733761811E-2   -4.981879635023392E-1   -1.182364934937557E-1
 6.501330691250000E9    -4.432804843299464E-1   -2.833982498071876E-1   -1.472881747233960E-2    3.548949433815718E-2   -1.275329278975695E-2    3.548733068241826E-2   -4.982268409295841E-1   -1.169170523619779E-1
 6.501342502600000E9    -4.438534933655081E-1   -2.824823507533032E-1   -1.486464854911941E-2    3.580977621456786E-2   -1.285736998991995E-2    3.569318159503754E-2   -4.984921311171544E-1   -1.157731200121204E-1
 6.501354313950000E9    -4.442752999910622E-1   -2.816717826057118E-1   -1.475500569372023E-2    3.598849249484971E-2   -1.284418943802326E-2    3.587620472734099E-2   -4.987539030147665E-1   -1.144634991708505E-1
 6.501366125300000E9    -4.447988127367136E-1   -2.808783617350568E-1   -1.479131443288695E-2    3.618466539041863E-2   -1.283448308289331E-2    3.611101256773025E-2   -4.989873327923351E-1   -1.132538184511124E-1
 6.501377936650000E9    -4.453246100379801E-1   -2.798766765186219E-1   -1.488578968964323E-2    3.649679976908521E-2   -1.284369999889665E-2    3.642133010360932E-2   -4.991106132797097E-1   -1.120270926450245E-1
 6.501389748000000E9    -4.457334681580798E-1   -2.791004731178326E-1   -1.476150437518818E-2    3.679999760566874E-2   -1.273797258232609E-2    3.662740261580324E-2   -4.992706244375369E-1   -1.108420629022019E-1
 6.501401559350000E9    -4.463081120489157E-1   -2.782631716310358E-1   -1.477483609143392E-2    3.681898998036345E-2   -1.271876431998736E-2    3.681096030267086E-2   -4.994344994973254E-1   -1.096465083313925E-1
 6.501413370700000E9    -4.468022144256000E-1   -2.773004098179179E-1   -1.473307606278587E-2    3.711353303566414E-2   -1.278130882797657E-2    3.708069921958065E-2   -4.996929600749337E-1   -1.083024307654665E-1
 6.501425182050000E9    -4.474037658168235E-1   -2.764459456025289E-1   -1.471542302093951E-2    3.745545462842093E-2   -1.271423824832244E-2    3.726392239186047E-2   -4.998750981021409E-1   -1.070624388220843E-1
 6.501436993400000E9    -4.478012598094164E-1   -2.755891510225996E-1   -1.471371697928062E-2    3.772585651113784E-2   -1.287087087580413E-2    3.752680147530287E-2   -5.000111464745208E-1   -1.058972185355928E-1
 6.501448804750000E9    -4.482806023658226E-1   -2.746807765857595E-1   -1.481282676434600E-2    3.778759214657181E-2   -1.263710033001224E-2    3.780223573343672E-2   -5.002066651766548E-1   -1.046669643469653E-1
 6.501460616100000E9    -4.488545093274666E-1   -2.738424613155475E-1   -1.469192089173017E-2    3.800693873610280E-2   -1.266496121581514E-2    3.790796703094731E-2   -5.003222024180168E-1   -1.033668306351305E-1
 6.501472427450000E9    -4.492292456249259E-1   -2.729806206322473E-1   -1.476828911314356E-2    3.830878582634280E-2   -1.261423708583405E-2    3.826316169763479E-2   -5.005123037180661E-1   -1.021381100962297E-1
 6.501484238800000E9    -4.497414426305945E-1   -2.721594727617730E-1   -1.458018938849948E-2    3.878863013616082E-2   -1.271820850104528E-2    3.849206369061683E-2   -5.007520971918635E-1   -1.008923879152821E-1
 6.501496050150000E9    -4.503846907262142E-1   -2.712063265971332E-1   -1.464782758609393E-2    3.892595725031098E-2   -1.256742167722328E-2    3.873782324242708E-2   -5.009768433661350E-1   -9.973670034828909E-2
 6.501507861500000E9    -4.509039581209671E-1   -2.701940600413525E-1   -1.466628648861183E-2    3.927748639265621E-2   -1.268190654262665E-2    3.891506105357322E-2   -5.010722554184348E-1   -9.839873849419346E-2
 6.501519672850000E9    -4.513306337207731E-1   -2.694741381464409E-1   -1.461913196509162E-2    3.957010217116495E-2   -1.260276664960827E-2    3.918687478119089E-2   -5.012301161132289E-1   -9.702942556105547E-2
 6.501531484200000E9    -4.517564745960106E-1   -2.685602103788363E-1   -1.476879588878885E-2    3.968024343101088E-2   -1.260918669617690E-2    3.950544216724459E-2   -5.013866597853346E-1   -9.573918975528491E-2
 6.501543295550000E9    -4.523808609305979E-1   -2.676810082082264E-1   -1.456610103721379E-2    3.996788982189753E-2   -1.253094737227300E-2    3.968588959010359E-2   -5.015278902431884E-1   -9.446141059774342E-2
 6.501555106900000E9    -4.528113858514076E-1   -2.668072955709687E-1   -1.468965177530973E-2    4.014358049088433E-2   -1.249454743869844E-2    3.997088030284313E-2   -5.017963742505328E-1   -9.312826217616196E-2
 6.501566918250000E9    -4.532692088138359E-1   -2.659275593178541E-1   -1.464074007820392E-2    4.054703114751091E-2   -1.253671777016739E-2    4.028524558921485E-2   -5.019189621213827E-1   -9.185096828116442E-2
 6.501578729600000E9    -4.537543467266174E-1   -2.649626934494699E-1   -1.455184136954582E-2    4.075062153527485E-2   -1.248936108298159E-2    4.050562189931585E-2   -5.019985827341561E-1   -9.052607872878558E-2
 6.501590540950000E9    -4.542357332754175E-1   -2.639835646047413E-1   -1.463521212499052E-2    4.091923511446627E-2   -1.252146542518688E-2    4.087710916167425E-2   -5.021789593776883E-1   -8.921684184251290E-2
 6.501602352300000E9    -4.547751798559560E-1   -2.631836813189307E-1   -1.456343396602532E-2    4.131733211922872E-2   -1.242845840153119E-2    4.104689898052997E-2   -5.023424823100778E-1   -8.794502019125791E-2
 6.501614163650000E9    -4.552574496286098E-1   -2.622201713625344E-1   -1.457166413487079E-2    4.169571223203685E-2   -1.237378898365419E-2    4.135223331623740E-2   -5.024970052455537E-1   -8.672770732794680E-2
 6.501625975000000E9    -4.556969484750229E-1   -2.613081903263278E-1   -1.459469577339645E-2    4.197828563911931E-2   -1.243297073643646E-2    4.159958917416432E-2   -5.025584210798018E-1   -8.531426438264086E-2
 6.501637786350000E9    -4.561904868346482E-1   -2.603663029108080E-1   -1.470452605839637E-2    4.226528764902335E-2   -1.236813755047564E-2    4.198392933153895E-2   -5.027042292157655E-1   -8.386857108130648E-2
 6.501649597700000E9    -4.566167205137102E-1   -2.594500277279412E-1   -1.443375778893356E-2    4.253704018218729E-2   -1.229040564859037E-2    4.223071725938160E-2   -5.027386914970582E-1   -8.260114832825742E-2
 6.501661409050000E9    -4.571722726165697E-1   -2.586418302203123E-1   -1.458426425359459E-2    4.271879246058993E-2   -1.232434964612647E-2    4.257756203096683E-2   -5.028989062798574E-1   -8.143811018955274E-2
 6.501673220400000E9    -4.575330375910843E-1   -2.575562807133509E-1   -1.437255881620656E-2    4.320074045510874E-2   -1.224587276439580E-2    4.271079024278030E-2   -5.031314874721957E-1   -7.984266985739348E-2
 6.501685031750000E9    -4.580082425785151E-1   -2.567215472697741E-1   -1.443031944735681E-2    4.334740843975091E-2   -1.229893093500666E-2    4.315702501907331E-2   -5.030357067722201E-1   -7.836479876958273E-2
 6.501696843100000E9    -4.585563056640392E-1   -2.558849473221502E-1   -1.428298653950555E-2    4.355772648313597E-2   -1.223309696002758E-2    4.340245653235841E-2   -5.032514939343213E-1   -7.707462071653481E-2
 6.501708654450000E9    -4.590181224188609E-1   -2.549411275308684E-1   -1.441203559156178E-2    4.397118585259795E-2   -1.223203848696876E-2    4.372576688797374E-2   -5.032917339068339E-1   -7.575053556426030E-2
 6.501720465800000E9    -4.594708489527649E-1   -2.539561853504630E-1   -1.438858174279432E-2    4.437147945725191E-2   -1.220658321513357E-2    4.398735084670131E-2   -5.035110878180595E-1   -7.440732395083620E-2
 6.501732277150000E9    -4.599283663563385E-1   -2.529779248881252E-1   -1.439539889480208E-2    4.462881897088913E-2   -1.216028179889806E-2    4.438493946286745E-2   -5.035836153322830E-1   -7.308347346812023E-2
 6.501744088500000E9    -4.603987161297010E-1   -2.520644718647376E-1   -1.437797483264184E-2    4.505447184864363E-2   -1.214262256498023E-2    4.470463064600925E-2   -5.036915351112792E-1   -7.160691843035660E-2
 6.501755899850000E9    -4.610254630780072E-1   -2.511006011260815E-1   -1.437627668903399E-2    4.534564641371652E-2   -1.208645764121195E-2    4.500759258743820E-2   -5.036881664179949E-1   -7.022004937919842E-2
 6.501767711200000E9    -4.613144022099304E-1   -2.502182788352091E-1   -1.433875061024431E-2    4.570986921746004E-2   -1.195611375674364E-2    4.531062822322719E-2   -5.036875539053888E-1   -6.872746418519773E-2
 6.501779522550000E9    -4.618152618154113E-1   -2.491504872396235E-1   -1.419139715155609E-2    4.598077435130573E-2   -1.202569106597689E-2    4.554178499863187E-2   -5.037605458378555E-1   -6.735621116873791E-2
 6.501791333900000E9    -4.623776649996911E-1   -2.482317976988488E-1   -1.423293002641535E-2    4.648888537529110E-2   -1.198805645754589E-2    4.589669887216133E-2   -5.039212701511487E-1   -6.580923447170581E-2
 6.501803145250000E9    -4.627629338809277E-1   -2.473515420858591E-1   -1.426055557410689E-2    4.666269426020151E-2   -1.193318562291401E-2    4.638131407495447E-2   -5.041080036638951E-1   -6.453303335942441E-2
 6.501814956600000E9    -4.631739026837614E-1   -2.463608237039972E-1   -1.417412257841568E-2    4.704940793508910E-2   -1.185793888421015E-2    4.671495789603142E-2   -5.041037875854831E-1   -6.305446995010136E-2
 6.501826767950000E9    -4.636960643360657E-1   -2.454090971647929E-1   -1.429828449403624E-2    4.733862293748325E-2   -1.177794577488432E-2    4.694460462403682E-2   -5.041479771930280E-1   -6.166809168187404E-2
 6.501838579300000E9    -4.640893970636407E-1   -2.443862884254314E-1   -1.416061472931600E-2    4.770194430811201E-2   -1.175307668505097E-2    4.745941088106295E-2   -5.044029117893946E-1   -6.013873569507905E-2
 6.501850390650000E9    -4.645898481445934E-1   -2.433816073865050E-1   -1.412575299810464E-2    4.812306337136226E-2   -1.169804169871746E-2    4.773871761003829E-2   -5.043363003214705E-1   -5.871521499886918E-2
 6.501862202000000E9    -4.650888101471311E-1   -2.425324224309723E-1   -1.401123786673345E-2    4.853910022402268E-2   -1.173204210006861E-2    4.796404659056260E-2   -5.042845965732203E-1   -5.721696615524877E-2
 6.501874013350000E9    -4.655294858653373E-1   -2.415657375427409E-1   -1.411302587647223E-2    4.886507621528502E-2   -1.158314266720006E-2    4.845679347799337E-2   -5.045112252762131E-1   -5.569515680473022E-2
 6.501885824700000E9    -4.659159094779692E-1   -2.404355660603442E-1   -1.403426269484654E-2    4.925809262601594E-2   -1.158091912543015E-2    4.880125461824261E-2   -5.043552818293933E-1   -5.424161354402133E-2
 6.501897636050000E9    -4.663229095057168E-1   -2.395961478201072E-1   -1.397470236167642E-2    4.955216674277885E-2   -1.160975382750545E-2    4.908097660617640E-2   -5.045309436707507E-1   -5.268933055768495E-2
 6.501909447400000E9    -4.667174730509941E-1   -2.386233840325869E-1   -1.398378196412429E-2    4.999522374415648E-2   -1.149265941992020E-2    4.945088892769049E-2   -5.044221230548673E-1   -5.118912883185771E-2
 6.501921258750000E9    -4.672743611828771E-1   -2.376172907006061E-1   -1.384081476093954E-2    5.049639436461374E-2   -1.128685535719037E-2    4.998281676158252E-2   -5.045172687942734E-1   -4.967953007250629E-2
 6.501933070100000E9    -4.676380356515509E-1   -2.365282700265264E-1   -1.372036515670387E-2    5.090234393869256E-2   -1.137816877017810E-2    5.031628982812680E-2   -5.044710123995249E-1   -4.809088271449206E-2
 6.501944881450000E9    -4.681025287366372E-1   -2.354930788123661E-1   -1.386792270275079E-2    5.115113457824121E-2   -1.138815031833974E-2    5.064959094689294E-2   -5.044186446478361E-1   -4.667476873070719E-2
 6.501956692800000E9    -4.685205650240840E-1   -2.344736066277721E-1   -1.378590711569154E-2    5.172265440086339E-2   -1.121563076719737E-2    5.108744276031594E-2   -5.045050368527889E-1   -4.519714567683680E-2
 6.501968504150000E9    -4.690611448001265E-1   -2.336614096643293E-1   -1.377400606744420E-2    5.211758488225015E-2   -1.125734582056422E-2    5.144711042963720E-2   -5.045621931784736E-1   -4.350039374235363E-2
 6.501980315500000E9    -4.694138861914617E-1   -2.325447756144024E-1   -1.382888074571453E-2    5.251702318245987E-2   -1.120039909857728E-2    5.189644630592048E-2   -5.046252317612909E-1   -4.190691273502152E-2
 6.501992126850000E9    -4.698858658930463E-1   -2.315554223962826E-1   -1.364200932384447E-2    5.301365407454761E-2   -1.109930481410850E-2    5.232449367378377E-2   -5.045331569293963E-1   -4.026617896031627E-2
 6.502003938200000E9    -4.702694075951780E-1   -2.305099058138566E-1   -1.359556486140573E-2    5.325503397131375E-2   -1.107222391757558E-2    5.272829805452316E-2   -5.044985526949703E-1   -3.890576896802853E-2
 6.502015749550000E9    -4.706981520298136E-1   -2.295781800872907E-1   -1.349729578476490E-2    5.388812851780721E-2   -1.100121409133220E-2    5.320349743896796E-2   -5.043359197661582E-1   -3.709654103570157E-2
 6.502027560900000E9    -4.711556869112674E-1   -2.286433330742304E-1   -1.342705157573871E-2    5.425271501586320E-2   -1.083109082048187E-2    5.360224977296729E-2   -5.043388268194594E-1   -3.554163198954891E-2
 6.502039372250000E9    -4.716210938350144E-1   -2.274972458436700E-1   -1.340296375429037E-2    5.469263711207284E-2   -1.085058851851931E-2    5.409512482667882E-2   -5.044679925607368E-1   -3.402555458581624E-2
 6.502051183600000E9    -4.719502553742699E-1   -2.264760835383695E-1   -1.333618274483276E-2    5.515761024152722E-2   -1.072804194750160E-2    5.445016382136916E-2   -5.042952692437019E-1   -3.224746276121047E-2
 6.502062994950000E9    -4.723306286952880E-1   -2.254684110154089E-1   -1.341245241581895E-2    5.571860745808175E-2   -1.062916614512530E-2    5.496273330916331E-2   -5.041591604141975E-1   -3.060983138462843E-2
 6.502074806300000E9    -4.728036992665814E-1   -2.243586020358313E-1   -1.330533283840723E-2    5.624068562222041E-2   -1.058696070405783E-2    5.551034061951546E-2   -5.042844350251448E-1   -2.896772882607034E-2
 6.502086617650000E9    -4.732615049361609E-1   -2.233586934017454E-1   -1.312944229864047E-2    5.657998928620672E-2   -1.053942647409795E-2    5.596768493689762E-2   -5.039876238527343E-1   -2.732226879009843E-2
 6.502098429000000E9    -4.735820000438599E-1   -2.223080289115863E-1   -1.305265198176468E-2    5.714543586077762E-2   -1.049136446738712E-2    5.648884951312029E-2   -5.039722055388810E-1   -2.564287107885453E-2
 6.502110240350000E9    -4.741420268543440E-1   -2.212006463784450E-1   -1.298383241297682E-2    5.762168015333483E-2   -1.030230288699349E-2    5.687574429350275E-2   -5.040144393432912E-1   -2.396613704885346E-2
 6.502122051700000E9    -4.743762354838527E-1   -2.201577000219620E-1   -1.291499735669344E-2    5.825688529506486E-2   -1.025997879130182E-2    5.741430410280812E-2   -5.038305017416376E-1   -2.221594697164991E-2
 6.502133863050000E9    -4.749018463788002E-1   -2.191596012557654E-1   -1.291461921840972E-2    5.871255420463790E-2   -1.016869620770326E-2    5.792706431714623E-2   -5.038606658958266E-1   -2.044368094143776E-2
 6.502145674400000E9    -4.752499887121249E-1   -2.179648220941696E-1   -1.283181372609761E-2    5.909905750440862E-2   -1.014157570681028E-2    5.839797651954438E-2   -5.036622789113464E-1   -1.873434653576908E-2
 6.502157485750000E9    -4.755896383856342E-1   -2.168734382930547E-1   -1.268833119131244E-2    5.976854846267905E-2   -9.970403247186753E-3    5.886770845217364E-2   -5.035149207758747E-1   -1.698673026600886E-2
 6.502169297100000E9    -4.760580546714555E-1   -2.158447525384084E-1   -1.260927808776930E-2    6.024864808430908E-2   -9.824542428859254E-3    5.937760964939014E-2   -5.034810339327058E-1   -1.525821476291413E-2
 6.502181108450000E9    -4.763294574916599E-1   -2.148247213370212E-1   -1.251919788045239E-2    6.075877735268541E-2   -9.793256498032641E-3    5.994944307349843E-2   -5.031881509134586E-1   -1.360502142746746E-2
 6.502192919800000E9    -4.769094987930395E-1   -2.137567524891798E-1   -1.243796478284885E-2    6.138458016310933E-2   -9.721206234550648E-3    6.050144510539632E-2   -5.029697635313853E-1   -1.169423148182314E-2
 6.502204731150000E9    -4.771567544418405E-1   -2.126125184600534E-1   -1.232320783560601E-2    6.212852012758181E-2   -9.580103467826662E-3    6.099307690875571E-2   -5.029349998222663E-1   -9.928076210034185E-3
 6.502216542500000E9    -4.775842832049853E-1   -2.115071611938106E-1   -1.224017197369273E-2    6.266640002613695E-2   -9.428204860453846E-3    6.152327998495500E-2   -5.026901058869366E-1   -8.107969111244112E-3
