#  HZ   S   RI   R     50.00 
! Rohde & Schwarz Vector Network Analyzer 
! Rohde-Schwarz,ZNB20-2Port,1311601062101988,3.16
! Created: UTC 3/20/2024, 12:00:44 PM
! freq[Hz]                re:S11                  im:S11                  re:S21                  im:S21                  re:S12                  im:S12                  re:S22                  im:S22
 6.501029567000000E9    -4.297226486864594E-1   -3.051726583744767E-1   -1.483806593442880E-2    3.098334562886038E-2   -1.322311019697476E-2    3.096559766499933E-2   -4.914567750826060E-1   -1.485672170937578E-1
 6.501041856525000E9    -4.302687586290010E-1   -3.043524685927174E-1   -1.487888216142795E-2    3.108482269585931E-2   -1.311384833764711E-2    3.110636144327925E-2   -4.917983580182515E-1   -1.472886209370469E-1
 6.501054146050000E9    -4.308634365238549E-1   -3.033682852680344E-1   -1.481039545907416E-2    3.120279877160181E-2   -1.314635118533265E-2    3.134806457442120E-2   -4.920044269530359E-1   -1.461615859504617E-1
 6.501066435575000E9    -4.313128745019539E-1   -3.025745564958535E-1   -1.489190009340340E-2    3.141672498587658E-2   -1.323061296822841E-2    3.150926328906053E-2   -4.922269750529132E-1   -1.449310187223500E-1
 6.501078725100000E9    -4.319319791099828E-1   -3.018486444135827E-1   -1.492915660048974E-2    3.174410942877628E-2   -1.318162621880729E-2    3.176771168070948E-2   -4.925517324396399E-1   -1.436511871154222E-1
 6.501091014625000E9    -4.326076773956852E-1   -3.009361097074491E-1   -1.473769309282218E-2    3.191555922478432E-2   -1.319367415367460E-2    3.190803032696283E-2   -4.927826634596435E-1   -1.425913408135824E-1
 6.501103304150000E9    -4.330925585704657E-1   -3.000138447811013E-1   -1.482966156837555E-2    3.205819217529717E-2   -1.307062809305006E-2    3.216635659478154E-2   -4.930236247689691E-1   -1.413259776964635E-1
 6.501115593675000E9    -4.336122082715270E-1   -2.992132265329429E-1   -1.492747985376008E-2    3.231468882778908E-2   -1.311111284200835E-2    3.221275170893948E-2   -4.934352850733388E-1   -1.402306074311278E-1
 6.501127883200000E9    -4.341775297511583E-1   -2.982918376719010E-1   -1.475471609201835E-2    3.251501510557395E-2   -1.309298439058081E-2    3.252459149090940E-2   -4.936877472400320E-1   -1.391356556534682E-1
 6.501140172725000E9    -4.348271265483638E-1   -2.974956079349205E-1   -1.487836857715160E-2    3.266609469070900E-2   -1.304225228241301E-2    3.269644923438756E-2   -4.938537813009644E-1   -1.377455809127632E-1
 6.501152462250000E9    -4.354127310135305E-1   -2.966038015789653E-1   -1.484726391662721E-2    3.282785643881611E-2   -1.305905776967799E-2    3.283109031987627E-2   -4.941430630189066E-1   -1.367477469978221E-1
 6.501164751775000E9    -4.358996279310597E-1   -2.957848552593594E-1   -1.485447530030189E-2    3.303429493471766E-2   -1.305735499105348E-2    3.299968940954059E-2   -4.943897703340340E-1   -1.354609884823751E-1
 6.501177041300000E9    -4.363929497504240E-1   -2.948713208910490E-1   -1.479447726747652E-2    3.325489561947765E-2   -1.302425061302044E-2    3.324196445768806E-2   -4.946690404226896E-1   -1.342143694048871E-1
 6.501189330825000E9    -4.369227339823468E-1   -2.940644310303144E-1   -1.484510365787546E-2    3.337304491659800E-2   -1.305675530773658E-2    3.340554180213665E-2   -4.948355918379038E-1   -1.330041581353535E-1
 6.501201620350000E9    -4.375339827379101E-1   -2.931009567353346E-1   -1.482378664344335E-2    3.354906574592688E-2   -1.306669293219494E-2    3.367503541542265E-2   -4.951153443526322E-1   -1.317710450259448E-1
 6.501213909875000E9    -4.379951339378044E-1   -2.922834141164959E-1   -1.490169193694360E-2    3.388605874012556E-2   -1.314218881759581E-2    3.388188242364924E-2   -4.954706162890546E-1   -1.306139481051326E-1
 6.501226199400000E9    -4.386756445083072E-1   -2.914104674533142E-1   -1.477745288616607E-2    3.408755851329949E-2   -1.316451661029378E-2    3.405851220274757E-2   -4.958131377213336E-1   -1.293912115825017E-1
 6.501238488925000E9    -4.391399515256147E-1   -2.905639165935021E-1   -1.486717851135895E-2    3.439217085641436E-2   -1.306805740602683E-2    3.434982018739463E-2   -4.958775837277729E-1   -1.281205575817214E-1
 6.501250778450000E9    -4.396908831592357E-1   -2.895984134424006E-1   -1.486981443708029E-2    3.447964604201804E-2   -1.308512951699255E-2    3.446441920154285E-2   -4.961455807353228E-1   -1.269534128597239E-1
 6.501263067975000E9    -4.403767294750001E-1   -2.887916477600678E-1   -1.489712002042665E-2    3.478842171857209E-2   -1.302880620898659E-2    3.468610472167836E-2   -4.963684098362642E-1   -1.256912568588472E-1
 6.501275357500000E9    -4.407537556152843E-1   -2.878647750614789E-1   -1.491316603284233E-2    3.485827305755573E-2   -1.303257615442067E-2    3.497440567855409E-2   -4.966398210295197E-1   -1.243609136413504E-1
 6.501287647025000E9    -4.413215663487995E-1   -2.870062006378666E-1   -1.482991755700554E-2    3.526989967791160E-2   -1.299722799095025E-2    3.524072327174563E-2   -4.967794545750238E-1   -1.231400001990411E-1
 6.501299936550000E9    -4.419114914233994E-1   -2.861026667894292E-1   -1.472370625745462E-2    3.542437283246387E-2   -1.294570981394055E-2    3.535032316043383E-2   -4.970091933129376E-1   -1.218933753401541E-1
 6.501312226075000E9    -4.423917202950363E-1   -2.851920874037029E-1   -1.492895051334947E-2    3.566824775408249E-2   -1.293983087535780E-2    3.563249971801010E-2   -4.973377261202988E-1   -1.206456042419127E-1
 6.501324515600000E9    -4.430759156440650E-1   -2.842850158384567E-1   -1.496128647529064E-2    3.580184715096225E-2   -1.302395360726266E-2    3.582032359413220E-2   -4.974620121079795E-1   -1.193179813501250E-1
 6.501336805125000E9    -4.435345244310686E-1   -2.834549780305067E-1   -1.482823266399144E-2    3.617865082088813E-2   -1.294160739869647E-2    3.606204650438170E-2   -4.976464124650185E-1   -1.180981284448230E-1
 6.501349094650000E9    -4.440463320582295E-1   -2.826651043058414E-1   -1.480534816486004E-2    3.649049758969492E-2   -1.283076892817107E-2    3.626197750859590E-2   -4.979620517919201E-1   -1.168327641707974E-1
 6.501361384175000E9    -4.445751483999151E-1   -2.816958198475230E-1   -1.481056584130210E-2    3.667416067688755E-2   -1.290969312408353E-2    3.656162648099397E-2   -4.982616320587481E-1   -1.155706763494279E-1
 6.501373673700000E9    -4.452302416976942E-1   -2.807726979764629E-1   -1.472818681404094E-2    3.680073149300739E-2   -1.289840991432278E-2    3.676166440579367E-2   -4.983975271883365E-1   -1.143040359188172E-1
 6.501385963225000E9    -4.456975784644325E-1   -2.799472351585319E-1   -1.476211624235307E-2    3.718300322256677E-2   -1.287839854455978E-2    3.689750745502771E-2   -4.986513144941685E-1   -1.130828064903735E-1
 6.501398252750000E9    -4.462005732988443E-1   -2.789483375602977E-1   -1.483525774616656E-2    3.738743012923153E-2   -1.287905153941224E-2    3.725980562837612E-2   -4.987975702408980E-1   -1.118215004398074E-1
 6.501410542275000E9    -4.467606218853834E-1   -2.780464790265796E-1   -1.483349665849004E-2    3.756628385928823E-2   -1.279348787090686E-2    3.747235247560077E-2   -4.988606055227715E-1   -1.106261660266211E-1
 6.501422831800000E9    -4.472219395961804E-1   -2.770073105910545E-1   -1.483686574385663E-2    3.776141921188429E-2   -1.283644974205885E-2    3.766835866477901E-2   -4.990623825288533E-1   -1.093296777596564E-1
 6.501435121325000E9    -4.477407433444474E-1   -2.762908358591977E-1   -1.490715060956588E-2    3.827582634923116E-2   -1.283168535246848E-2    3.802180295823963E-2   -4.994308575020696E-1   -1.078851717106619E-1
 6.501447410850000E9    -4.482996297152827E-1   -2.752753489340201E-1   -1.476702473677539E-2    3.844292480807669E-2   -1.277916954469143E-2    3.830610446963585E-2   -4.994698329453268E-1   -1.065148586227067E-1
 6.501459700375000E9    -4.488490290513560E-1   -2.744070293128764E-1   -1.472533408428446E-2    3.862878846238101E-2   -1.269691631253990E-2    3.856296945051493E-2   -4.997768241173710E-1   -1.053357519199250E-1
 6.501471989900000E9    -4.493624141281147E-1   -2.734775776151187E-1   -1.486046417192225E-2    3.888313415412548E-2   -1.281620550154076E-2    3.869262700658602E-2   -4.998967857960889E-1   -1.040779032310369E-1
 6.501484279425000E9    -4.497905243984833E-1   -2.725338576860664E-1   -1.466905230605225E-2    3.910175626716440E-2   -1.271750317153953E-2    3.906546511113168E-2   -5.001611004279379E-1   -1.025930844226834E-1
 6.501496568950000E9    -4.503743248250049E-1   -2.716739197926338E-1   -1.465571013553250E-2    3.927816641872529E-2   -1.266119045290608E-2    3.920492113933213E-2   -5.002158704519900E-1   -1.012922187859088E-1
 6.501508858475000E9    -4.508610894904484E-1   -2.707101798625000E-1   -1.458078961922199E-2    3.966707740645244E-2   -1.264975209270081E-2    3.953647212716947E-2   -5.004281015203093E-1   -9.989797378622045E-2
 6.501521148000000E9    -4.513936034764248E-1   -2.697387442487797E-1   -1.458258275891224E-2    3.991334824548732E-2   -1.270852225951674E-2    3.975984027158636E-2   -5.007395196756764E-1   -9.855658553462701E-2
 6.501533437525000E9    -4.520039424396076E-1   -2.689074580811144E-1   -1.469201915758794E-2    4.037789560722201E-2   -1.261443632115635E-2    4.014419304075580E-2   -5.006095947087774E-1   -9.733994510555567E-2
 6.501545727050000E9    -4.524760716070416E-1   -2.678712132557931E-1   -1.464070340940001E-2    4.042616347838754E-2   -1.255772436366469E-2    4.034126260449553E-2   -5.009320189350205E-1   -9.575677357633110E-2
 6.501558016575000E9    -4.529527153418565E-1   -2.670255857981760E-1   -1.459827485229137E-2    4.077755671824149E-2   -1.257364889339043E-2    4.060143757969065E-2   -5.009948301207143E-1   -9.455976599386327E-2
 6.501570306100000E9    -4.534761027252995E-1   -2.660907494112637E-1   -1.468571580607870E-2    4.101882055656872E-2   -1.246281381459671E-2    4.093096882727473E-2   -5.013622695639948E-1   -9.320536322113129E-2
 6.501582595625000E9    -4.539339678757155E-1   -2.651310741312197E-1   -1.467650124967167E-2    4.154910645827836E-2   -1.250893511921705E-2    4.122837969763563E-2   -5.013302251655821E-1   -9.184778420118490E-2
 6.501594885150000E9    -4.545125923633002E-1   -2.641357766890486E-1   -1.460031979896958E-2    4.176783068849179E-2   -1.252989415226727E-2    4.162141659650501E-2   -5.014273372482692E-1   -9.040498439171524E-2
 6.501607174675000E9    -4.548976249833797E-1   -2.631033803326239E-1   -1.455748592889600E-2    4.207206500215870E-2   -1.246141076186228E-2    4.187424024574204E-2   -5.016263727069435E-1   -8.898503019261091E-2
 6.501619464200000E9    -4.553855025106967E-1   -2.621981678462642E-1   -1.443506447202360E-2    4.234584713894446E-2   -1.244244265112374E-2    4.211157628821018E-2   -5.018288292146507E-1   -8.763819123555742E-2
 6.501631753725000E9    -4.559141560263542E-1   -2.613145587729948E-1   -1.465806823017218E-2    4.265143422377612E-2   -1.244389901617544E-2    4.236919553144695E-2   -5.019920538352831E-1   -8.615457691836675E-2
 6.501644043250000E9    -4.565853604865402E-1   -2.603800345963449E-1   -1.452597318977177E-2    4.300122161741718E-2   -1.239259633611582E-2    4.265848932845050E-2   -5.020247789343895E-1   -8.497001796687942E-2
 6.501656332775000E9    -4.569360551952449E-1   -2.593752663754076E-1   -1.449792964952206E-2    4.317470938950623E-2   -1.237777304146636E-2    4.297376909881140E-2   -5.021043067771003E-1   -8.339790400738767E-2
 6.501668622300000E9    -4.574440409054994E-1   -2.584057901689894E-1   -1.454972096524573E-2    4.361655928022622E-2   -1.229076703951998E-2    4.337059031211113E-2   -5.022669871399000E-1   -8.200240846193720E-2
 6.501680911825000E9    -4.579114480644299E-1   -2.573963253963936E-1   -1.450517429999271E-2    4.385687120900757E-2   -1.228965144272959E-2    4.363818337181190E-2   -5.024337556866750E-1   -8.065861354693288E-2
 6.501693201350000E9    -4.583386035437649E-1   -2.564672798018394E-1   -1.453087352221451E-2    4.439790509215914E-2   -1.222792949120727E-2    4.392461994940758E-2   -5.024237034384726E-1   -7.920291418693032E-2
 6.501705490875000E9    -4.588904994394092E-1   -2.555647583218635E-1   -1.454117842351547E-2    4.457442397735757E-2   -1.232374271403468E-2    4.431822981138964E-2   -5.026431800780145E-1   -7.774523030500562E-2
 6.501717780400000E9    -4.594141154265844E-1   -2.545403546894192E-1   -1.445780232985506E-2    4.492528139509974E-2   -1.218603892396332E-2    4.462640657179042E-2   -5.027604162110322E-1   -7.607281548724723E-2
 6.501730069925000E9    -4.598615507627560E-1   -2.535925651125791E-1   -1.449369211858442E-2    4.527385610206027E-2   -1.208216881662477E-2    4.504041300452266E-2   -5.029026044374380E-1   -7.479963385122430E-2
 6.501742359450000E9    -4.604156624278085E-1   -2.524905666763376E-1   -1.428904138718155E-2    4.579675127507286E-2   -1.215185815232244E-2    4.528693636169769E-2   -5.030059810307063E-1   -7.341001867805869E-2
 6.501754648975000E9    -4.608121940436692E-1   -2.515784104928190E-1   -1.445863391717975E-2    4.588074868190398E-2   -1.209757314299255E-2    4.568655407330108E-2   -5.030938464354378E-1   -7.189026744952295E-2
 6.501766938500000E9    -4.613403164582036E-1   -2.505878909375048E-1   -1.436456763184409E-2    4.639778660277910E-2   -1.211007878011285E-2    4.592713647964576E-2   -5.031703358523266E-1   -7.027589002549064E-2
 6.501779228025000E9    -4.617803485076058E-1   -2.495803486660568E-1   -1.430516168346573E-2    4.672619871220050E-2   -1.195058582603191E-2    4.639335938947745E-2   -5.031469230569869E-1   -6.893115947288457E-2
 6.501791517550000E9    -4.623511670643234E-1   -2.485914934478635E-1   -1.429063779300690E-2    4.716739711064118E-2   -1.194808330373292E-2    4.675258329274492E-2   -5.032632446244422E-1   -6.740209215353378E-2
 6.501803807075000E9    -4.627870826859476E-1   -2.476902103560603E-1   -1.428068353880496E-2    4.737705549293626E-2   -1.186579223393514E-2    4.716126776355158E-2   -5.033871219556173E-1   -6.585737885089596E-2
 6.501816096600000E9    -4.633002709569255E-1   -2.465741738403329E-1   -1.407242470677287E-2    4.770416441822709E-2   -1.186904766614150E-2    4.746992841172597E-2   -5.035300603449979E-1   -6.433451110364190E-2
 6.501828386125000E9    -4.637953877554850E-1   -2.455564768147308E-1   -1.417079668164995E-2    4.812117570446195E-2   -1.177001659061791E-2    4.788140040376667E-2   -5.034924823045104E-1   -6.276662444164706E-2
 6.501840675650000E9    -4.642577805898342E-1   -2.445417119466078E-1   -1.395579966040656E-2    4.857953629414317E-2   -1.182384774482934E-2    4.820308697372139E-2   -5.034383513524753E-1   -6.131472369594198E-2
 6.501852965175000E9    -4.647185935574333E-1   -2.435734510561602E-1   -1.396288861426782E-2    4.908601109547168E-2   -1.159638313813843E-2    4.858249616876043E-2   -5.035044231919782E-1   -5.976654204846136E-2
 6.501865254700000E9    -4.651264650035568E-1   -2.425468709345084E-1   -1.397373980213521E-2    4.950896962401553E-2   -1.164843715890433E-2    4.888104032855240E-2   -5.036509912013371E-1   -5.816692929858597E-2
 6.501877544225000E9    -4.656569084451816E-1   -2.415675697367167E-1   -1.396207062131007E-2    4.981772725774809E-2   -1.157902043425228E-2    4.933788981438176E-2   -5.036787024174766E-1   -5.660847616636881E-2
 6.501889833750000E9    -4.659482389126816E-1   -2.405907497694918E-1   -1.389576431589831E-2    5.021952669635785E-2   -1.150351838656734E-2    4.966784524707129E-2   -5.037332266818605E-1   -5.502871590173673E-2
 6.501902123275000E9    -4.664902458667930E-1   -2.396353456220552E-1   -1.392263787615825E-2    5.059435828429072E-2   -1.145693886795516E-2    5.015308705292967E-2   -5.037030092332976E-1   -5.353671884372375E-2
 6.501914412800000E9    -4.670629338971822E-1   -2.384325450153414E-1   -1.390315938204664E-2    5.110162293329439E-2   -1.144807858749848E-2    5.061144638868654E-2   -5.035718586657831E-1   -5.194348136021423E-2
 6.501926702325000E9    -4.674542105561723E-1   -2.374049995152179E-1   -1.387999040420036E-2    5.143409956748415E-2   -1.138930258749248E-2    5.101422487118552E-2   -5.036839370896377E-1   -5.044966446609169E-2
 6.501938991850000E9    -4.679130795556476E-1   -2.364393587325857E-1   -1.374778401568426E-2    5.193019486753742E-2   -1.133027013577697E-2    5.141298513519351E-2   -5.036637466893132E-1   -4.861144818253639E-2
 6.501951281375000E9    -4.683033941659770E-1   -2.354045325218351E-1   -1.392386269408332E-2    5.235478633181914E-2   -1.128846890726865E-2    5.185147318169880E-2   -5.036557933662141E-1   -4.708721926031541E-2
 6.501963570900000E9    -4.688215423692174E-1   -2.343568367490124E-1   -1.370802517773878E-2    5.286769212058504E-2   -1.109575214177660E-2    5.222921575335281E-2   -5.037288795618738E-1   -4.530456651384727E-2
 6.501975860425000E9    -4.692364984889326E-1   -2.332081050695100E-1   -1.354466261313891E-2    5.325198661191362E-2   -1.104276677712805E-2    5.260834404530849E-2   -5.036333110122206E-1   -4.393664755506102E-2
 6.501988149950000E9    -4.698033928891879E-1   -2.321448525114263E-1   -1.353188510102161E-2    5.370461455942443E-2   -1.102473200341479E-2    5.319351745594876E-2   -5.036111368815215E-1   -4.211631136122832E-2
 6.502000439475000E9    -4.701697067638217E-1   -2.311120776127726E-1   -1.356683411477212E-2    5.421186825426066E-2   -1.093680205913703E-2    5.357541524739839E-2   -5.036507706441209E-1   -4.030795799653753E-2
 6.502012729000000E9    -4.705092451674008E-1   -2.301212862385676E-1   -1.334667692342789E-2    5.476171157875884E-2   -1.092367829545302E-2    5.407622114559769E-2   -5.036169817798501E-1   -3.878895646864031E-2
 6.502025018525000E9    -4.710340462272176E-1   -2.289740125955699E-1   -1.336968151039852E-2    5.512776881789581E-2   -1.072047781604981E-2    5.454457098386724E-2   -5.035313928954630E-1   -3.722350791481659E-2
 6.502037308050000E9    -4.713505671431684E-1   -2.279069147344585E-1   -1.322086765434586E-2    5.568223919013972E-2   -1.078220927314751E-2    5.503017955017941E-2   -5.035498432110543E-1   -3.533378603217568E-2
 6.502049597575000E9    -4.718412101219019E-1   -2.266953160171401E-1   -1.321558986300957E-2    5.616725933983783E-2   -1.061760683901056E-2    5.536930329071928E-2   -5.034089566961827E-1   -3.363058782236666E-2
 6.502061887100000E9    -4.723647001028857E-1   -2.256579486398093E-1   -1.301427519937460E-2    5.662464998720458E-2   -1.059628148926977E-2    5.596899300283401E-2   -5.033286132914883E-1   -3.187031487425086E-2
 6.502074176625000E9    -4.727428023950676E-1   -2.246074494543078E-1   -1.306908462324259E-2    5.715423363672529E-2   -1.048575192183991E-2    5.644181411477983E-2   -5.032342862793495E-1   -3.017931369934468E-2
 6.502086466150000E9    -4.732453338141225E-1   -2.235814048507156E-1   -1.294003721951426E-2    5.772692710486231E-2   -1.027692337261019E-2    5.704145693821039E-2   -5.031228492580427E-1   -2.832283199188931E-2
 6.502098755675000E9    -4.736386841356147E-1   -2.224548739686804E-1   -1.290639163080404E-2    5.828069357583927E-2   -1.031758580897676E-2    5.741075953473568E-2   -5.030567293807305E-1   -2.666074321933630E-2
 6.502111045200000E9    -4.739704478129650E-1   -2.213600855503403E-1   -1.290698598171785E-2    5.872811606545549E-2   -1.019994763444290E-2    5.805772841690590E-2   -5.031640813782265E-1   -2.485624786914224E-2
 6.502123334725000E9    -4.745064639647565E-1   -2.201573281948105E-1   -1.276653923876416E-2    5.931476495104613E-2   -1.004901556747953E-2    5.851502681977953E-2   -5.027932919500144E-1   -2.303202215983417E-2
 6.502135624250000E9    -4.749231486358813E-1   -2.190110050808128E-1   -1.263627492332836E-2    5.991049422578600E-2   -9.899701364646548E-3    5.908889875458655E-2   -5.027112219457930E-1   -2.128460822348741E-2
