#  HZ   S   RI   R     50.00 
! Rohde & Schwarz Vector Network Analyzer 
! Rohde-Schwarz,ZNB20-2Port,1311601062101988,3.16
! Created: UTC 3/20/2024, 11:38:31 AM
! freq[Hz]                re:S11                  im:S11                  re:S21                  im:S21                  re:S12                  im:S12                  re:S22                  im:S22
 6.501145969000000E9    -4.350768630715503E-1   -2.962465196698992E-1   -1.474755613792489E-2    3.230090904010690E-2   -1.295970938880647E-2    3.229912592922116E-2   -4.946679100342692E-1   -1.352352890638574E-1
 6.501157808750000E9    -4.356849103780667E-1   -2.955760404356557E-1   -1.472259498653968E-2    3.266761033012077E-2   -1.296906136848240E-2    3.260275755410059E-2   -4.949628968185584E-1   -1.340461071509495E-1
 6.501169648500000E9    -4.361450950808688E-1   -2.946443810006538E-1   -1.476141053175781E-2    3.283104614800771E-2   -1.293843545808603E-2    3.282750003686977E-2   -4.952311196937472E-1   -1.329596743402058E-1
 6.501181488250000E9    -4.367186762638175E-1   -2.939077937212051E-1   -1.470900984277609E-2    3.293313161018776E-2   -1.290352540982243E-2    3.299541200010647E-2   -4.953934660558324E-1   -1.317996479222917E-1
 6.501193328000000E9    -4.371595822729345E-1   -2.931461275412981E-1   -1.473875822197361E-2    3.317413557989475E-2   -1.292310635274851E-2    3.313000283852496E-2   -4.956944265633683E-1   -1.307681044059216E-1
 6.501205167750000E9    -4.376428986584519E-1   -2.920906377810623E-1   -1.477668429727297E-2    3.329489212149368E-2   -1.298820072282743E-2    3.336656108250349E-2   -4.960256365107190E-1   -1.293167735610180E-1
 6.501217007500000E9    -4.382271021572972E-1   -2.913460254376106E-1   -1.485836492434515E-2    3.355762594293005E-2   -1.299810278281991E-2    3.348517572640558E-2   -4.962133106521267E-1   -1.282560154950754E-1
 6.501228847250000E9    -4.387629015052393E-1   -2.905100801868116E-1   -1.472001348030689E-2    3.378685241545112E-2   -1.293482102792533E-2    3.368564619243145E-2   -4.965127996141159E-1   -1.271626279005031E-1
 6.501240687000000E9    -4.394102504610861E-1   -2.896925931658820E-1   -1.479097714241087E-2    3.393513613847343E-2   -1.299599195916402E-2    3.390871779445004E-2   -4.967496829804514E-1   -1.259575867601883E-1
 6.501252526750000E9    -4.397929018053668E-1   -2.888456093091534E-1   -1.487725364962725E-2    3.422624054211586E-2   -1.292801681686042E-2    3.415132160697391E-2   -4.969852411518604E-1   -1.247310262601933E-1
 6.501264366500000E9    -4.404225750082474E-1   -2.879202021830233E-1   -1.461586208451863E-2    3.441384736627927E-2   -1.287728131591877E-2    3.427901314822860E-2   -4.970965863590670E-1   -1.235077711034294E-1
 6.501276206250000E9    -4.408894207039660E-1   -2.870101361653394E-1   -1.468081749619716E-2    3.461287570558805E-2   -1.290393845625859E-2    3.446802701871635E-2   -4.973380755707679E-1   -1.223707376565909E-1
 6.501288046000000E9    -4.413745181773681E-1   -2.863057065849880E-1   -1.472020734775041E-2    3.486760397989842E-2   -1.292178094745620E-2    3.480482834808203E-2   -4.975201465826953E-1   -1.212540122449651E-1
 6.501299885750000E9    -4.419462868070481E-1   -2.854415107119971E-1   -1.467447263885383E-2    3.506592271595201E-2   -1.285853205629351E-2    3.490791359850912E-2   -4.976602439307108E-1   -1.200073663679440E-1
 6.501311725500000E9    -4.424568635684545E-1   -2.845197180880324E-1   -1.481422177114120E-2    3.509650108061614E-2   -1.281248828249291E-2    3.520770180619216E-2   -4.981043437392141E-1   -1.187683562372406E-1
 6.501323565250000E9    -4.428294317170638E-1   -2.837459945402921E-1   -1.474811483433029E-2    3.537556600262792E-2   -1.282990148899993E-2    3.550112762944162E-2   -4.982197379585843E-1   -1.175418042348901E-1
 6.501335405000000E9    -4.434921007794405E-1   -2.828825019588498E-1   -1.471054717446866E-2    3.572029113666753E-2   -1.285735674091884E-2    3.567207377281865E-2   -4.985028130765896E-1   -1.162258054080265E-1
 6.501347244750000E9    -4.438556098735327E-1   -2.819293169593154E-1   -1.473372496689902E-2    3.596497550369833E-2   -1.284139424945110E-2    3.581237383542802E-2   -4.985884744006442E-1   -1.152578929848391E-1
 6.501359084500000E9    -4.445656979121357E-1   -2.812176080165886E-1   -1.481729438987238E-2    3.615542433175464E-2   -1.278391241341994E-2    3.598713993083518E-2   -4.987844126496868E-1   -1.139055068169674E-1
 6.501370924250000E9    -4.450876807472003E-1   -2.802516501000009E-1   -1.467979111224367E-2    3.635637686894417E-2   -1.275627092566163E-2    3.625133277265059E-2   -4.989568476497798E-1   -1.125570929493965E-1
 6.501382764000000E9    -4.456281001713925E-1   -2.794512754222177E-1   -1.477791990290110E-2    3.649017693268908E-2   -1.281171118407587E-2    3.644491853418409E-2   -4.993150124725831E-1   -1.115402588038918E-1
 6.501394603750000E9    -4.459549695911855E-1   -2.785949542141311E-1   -1.488672423225219E-2    3.677571051663208E-2   -1.280218847963655E-2    3.667683985008927E-2   -4.993779436190730E-1   -1.102208754150794E-1
 6.501406443500000E9    -4.464680704003819E-1   -2.775355354041480E-1   -1.470944653849549E-2    3.702570954528836E-2   -1.276555114105289E-2    3.685694273923178E-2   -4.995769154138422E-1   -1.090560678245733E-1
 6.501418283250000E9    -4.469995728402712E-1   -2.767761626277238E-1   -1.475984872615783E-2    3.727539540957973E-2   -1.267478584877875E-2    3.722570282547080E-2   -4.998673664864967E-1   -1.077653436125454E-1
 6.501430123000000E9    -4.475818704652499E-1   -2.758518639716112E-1   -1.453121805263491E-2    3.751482112428851E-2   -1.268562447164506E-2    3.740179174173271E-2   -5.002110258141310E-1   -1.065111456393426E-1
 6.501441962750000E9    -4.480444651517589E-1   -2.750252336575150E-1   -1.469954406095422E-2    3.779395940288405E-2   -1.270030115001190E-2    3.765774088999022E-2   -5.002308879316567E-1   -1.052683511933944E-1
 6.501453802500000E9    -4.485809380346674E-1   -2.742353540365055E-1   -1.468327362343131E-2    3.809472346182529E-2   -1.267601135452698E-2    3.791323959546748E-2   -5.003503691745486E-1   -1.040658775402786E-1
 6.501465642250000E9    -4.490343478571813E-1   -2.733813841058038E-1   -1.477795892510039E-2    3.836325337211387E-2   -1.273635292814676E-2    3.819798337913632E-2   -5.004934677663203E-1   -1.028019347437514E-1
 6.501477482000000E9    -4.495390398245134E-1   -2.724835924143720E-1   -1.467313031707498E-2    3.861840850211104E-2   -1.270198767313243E-2    3.831075799887596E-2   -5.006801253872281E-1   -1.015123382231442E-1
 6.501489321750000E9    -4.500930834452981E-1   -2.715275191201170E-1   -1.464585914688473E-2    3.882666931370694E-2   -1.266932453121847E-2    3.871359874985178E-2   -5.007745176200655E-1   -1.001683464069251E-1
 6.501501161500000E9    -4.505858731520070E-1   -2.706742273072110E-1   -1.459110049251114E-2    3.913442439434853E-2   -1.267938923555072E-2    3.893078729067607E-2   -5.010337408390871E-1   -9.890852209641732E-2
 6.501513001250000E9    -4.510524443742263E-1   -2.697985970687229E-1   -1.465892189613868E-2    3.931662116631946E-2   -1.269759958954675E-2    3.914325682643465E-2   -5.011773254939076E-1   -9.774568053876813E-2
 6.501524841000000E9    -4.514664278103367E-1   -2.689042763367210E-1   -1.474984396236273E-2    3.954216406524325E-2   -1.253762652595256E-2    3.935415585426751E-2   -5.014132945708546E-1   -9.627134070995640E-2
 6.501536680750000E9    -4.520652277531945E-1   -2.679554754558455E-1   -1.462717512395665E-2    3.978490894236108E-2   -1.260556237785045E-2    3.966917607424563E-2   -5.015257564415673E-1   -9.503387325781537E-2
 6.501548520500000E9    -4.525266457263442E-1   -2.670863909447130E-1   -1.465361103098548E-2    4.005799629052484E-2   -1.249145025671588E-2    3.986997705385766E-2   -5.017942756050543E-1   -9.377039486641602E-2
 6.501560360250000E9    -4.530021635150442E-1   -2.662491479563937E-1   -1.467280839298170E-2    4.036958434056601E-2   -1.249529101146810E-2    4.011899109135537E-2   -5.017914111870595E-1   -9.248141484637540E-2
 6.501572200000000E9    -4.535176918015652E-1   -2.653295236301378E-1   -1.459222960094336E-2    4.055547072463962E-2   -1.240771559088643E-2    4.036851501735509E-2   -5.020510446102746E-1   -9.111136583512208E-2
 6.501584039750000E9    -4.540283083835699E-1   -2.644189872380693E-1   -1.448729322231719E-2    4.079152575687036E-2   -1.244189238650572E-2    4.066278472196278E-2   -5.022128896055259E-1   -8.985398205350362E-2
 6.501595879500000E9    -4.544611872611156E-1   -2.635293666770736E-1   -1.452072500674072E-2    4.123667997329600E-2   -1.249928764061826E-2    4.091323212682958E-2   -5.023097792051868E-1   -8.852989310217207E-2
 6.501607719250000E9    -4.549403586427885E-1   -2.625164133535353E-1   -1.440913314789644E-2    4.145889207742975E-2   -1.231378576215043E-2    4.131220128023420E-2   -5.023703958172792E-1   -8.726675169444227E-2
 6.501619559000000E9    -4.554423421358862E-1   -2.615930947533262E-1   -1.450393977311240E-2    4.183489827217222E-2   -1.239247464713644E-2    4.158535184514979E-2   -5.025223610873980E-1   -8.593331225507179E-2
 6.501631398750000E9    -4.557843297537564E-1   -2.607386104402766E-1   -1.457803184882978E-2    4.213047338387187E-2   -1.240976743351684E-2    4.183856075463542E-2   -5.025557888199499E-1   -8.458910811530587E-2
 6.501643238500000E9    -4.564825029589080E-1   -2.597717406213946E-1   -1.451743430797580E-2    4.236657380170919E-2   -1.232306023152855E-2    4.208420132410876E-2   -5.028535308366238E-1   -8.331180673982974E-2
 6.501655078250000E9    -4.568936466940435E-1   -2.589657487958900E-1   -1.462423269231078E-2    4.268035106683003E-2   -1.231907069332756E-2    4.245642680620076E-2   -5.028275937503612E-1   -8.193844159578681E-2
 6.501666918000000E9    -4.573334048436464E-1   -2.579478311362004E-1   -1.447229670978776E-2    4.293851535835653E-2   -1.233122449102886E-2    4.270644624157848E-2   -5.029927994834321E-1   -8.040261329332390E-2
 6.501678757750000E9    -4.578615118395907E-1   -2.571410143413100E-1   -1.440657166013132E-2    4.329595204915153E-2   -1.219822253257951E-2    4.300129509260275E-2   -5.031450509749577E-1   -7.903706293025954E-2
 6.501690597500000E9    -4.583255582356559E-1   -2.560758400518067E-1   -1.438951795180957E-2    4.366235192095611E-2   -1.223925830226612E-2    4.327282829153677E-2   -5.032487544661143E-1   -7.779540420073870E-2
 6.501702437250000E9    -4.587853632257641E-1   -2.552031687887784E-1   -1.441974767484424E-2    4.382050846217727E-2   -1.218901055660358E-2    4.355169991620741E-2   -5.033885664107814E-1   -7.633215701153495E-2
 6.501714277000000E9    -4.592429094082280E-1   -2.542500401203310E-1   -1.435873511668255E-2    4.430043440098103E-2   -1.218886400495313E-2    4.395434137728454E-2   -5.034274598158948E-1   -7.501163475547071E-2
 6.501726116750000E9    -4.597462237819641E-1   -2.533400806853998E-1   -1.445276798244916E-2    4.457270115968424E-2   -1.212441739667632E-2    4.419627253277193E-2   -5.035232276689546E-1   -7.349760804625545E-2
 6.501737956500000E9    -4.602159160060954E-1   -2.523871539380391E-1   -1.429991581663112E-2    4.491173406904023E-2   -1.216425048341803E-2    4.452702701464996E-2   -5.036339378704769E-1   -7.227106912484281E-2
 6.501749796250000E9    -4.606825082301539E-1   -2.515057097596405E-1   -1.443228632977312E-2    4.531153372680579E-2   -1.202758261637779E-2    4.483635624331379E-2   -5.038325683418325E-1   -7.075164896834360E-2
 6.501761636000000E9    -4.610465527400367E-1   -2.504466811738726E-1   -1.432461083700788E-2    4.552968280908568E-2   -1.201841811316801E-2    4.512183471273689E-2   -5.037011733272170E-1   -6.930863635127575E-2
 6.501773475750000E9    -4.616294814610808E-1   -2.495935089327403E-1   -1.433932523838507E-2    4.574996938998159E-2   -1.196619023167650E-2    4.542824586095775E-2   -5.038990622349258E-1   -6.803899724880468E-2
 6.501785315500000E9    -4.620382978632595E-1   -2.486076251824531E-1   -1.421739146174906E-2    4.630820190191141E-2   -1.191120623587497E-2    4.584977303651953E-2   -5.038945735072865E-1   -6.646648914085444E-2
 6.501797155250000E9    -4.625050181611782E-1   -2.477755940544658E-1   -1.426194414510595E-2    4.658050452515966E-2   -1.202757309146706E-2    4.610360265058942E-2   -5.040880272384123E-1   -6.513650289426610E-2
 6.501808995000000E9    -4.629540451601433E-1   -2.465470449859154E-1   -1.416339330502068E-2    4.695453896099284E-2   -1.186731252642259E-2    4.649262316536145E-2   -5.042095880232884E-1   -6.367748724706276E-2
 6.501820834750000E9    -4.634268338787027E-1   -2.458175720819967E-1   -1.418616696999119E-2    4.732406487111403E-2   -1.180724479802915E-2    4.688974744672315E-2   -5.041884333605361E-1   -6.223888258599339E-2
 6.501832674500000E9    -4.639768622780054E-1   -2.448180211404240E-1   -1.410607966713353E-2    4.766847483974096E-2   -1.179101698621279E-2    4.715130769449725E-2   -5.042165207929676E-1   -6.073417069477233E-2
 6.501844514250000E9    -4.642702102965227E-1   -2.437825789373328E-1   -1.422627778632597E-2    4.790026418216910E-2   -1.179276603543635E-2    4.756090832326874E-2   -5.042117578332126E-1   -5.921938947506712E-2
 6.501856354000000E9    -4.647263061745807E-1   -2.429012597938353E-1   -1.408826693840061E-2    4.838937405468106E-2   -1.167154081473524E-2    4.790192202580060E-2   -5.044058324031208E-1   -5.777881670671785E-2
 6.501868193750000E9    -4.653079135228567E-1   -2.418107817737131E-1   -1.406216271517923E-2    4.873058327656688E-2   -1.168935993810342E-2    4.827304076567595E-2   -5.044265758283406E-1   -5.636890412679059E-2
 6.501880033500000E9    -4.656742810483170E-1   -2.408566668009993E-1   -1.414481136825132E-2    4.920081963046487E-2   -1.170773069753950E-2    4.857080261224819E-2   -5.043440499053050E-1   -5.482204258626502E-2
 6.501891873250000E9    -4.661020025102641E-1   -2.400055060032144E-1   -1.387158200428965E-2    4.961839603788468E-2   -1.159026044104271E-2    4.898856038685346E-2   -5.044060546573479E-1   -5.334005450588238E-2
 6.501903713000000E9    -4.665899899834105E-1   -2.389450149360466E-1   -1.392085331366425E-2    5.001919521263405E-2   -1.144150589948874E-2    4.940877030814565E-2   -5.045089384246332E-1   -5.182400348486047E-2
 6.501915552750000E9    -4.670177660455900E-1   -2.379584523705170E-1   -1.391268625328372E-2    5.022775784560884E-2   -1.151247575884688E-2    4.971567807536230E-2   -5.046296527561607E-1   -5.021527651083806E-2
 6.501927392500000E9    -4.674798994001620E-1   -2.369529805556127E-1   -1.395583501707558E-2    5.075206392745418E-2   -1.144070777015042E-2    5.023303579190350E-2   -5.045959784260839E-1   -4.875566407787187E-2
 6.501939232250000E9    -4.678908801470569E-1   -2.358900099008724E-1   -1.371862209762094E-2    5.104101880094927E-2   -1.135504324401328E-2    5.059903533317869E-2   -5.045310218204097E-1   -4.719972439240350E-2
 6.501951072000000E9    -4.682673366844645E-1   -2.348958506989830E-1   -1.380215322988849E-2    5.149396562163213E-2   -1.128238330827402E-2    5.100383727070265E-2   -5.044963613284307E-1   -4.567321360354892E-2
 6.501962911750000E9    -4.687558302810873E-1   -2.340570591509024E-1   -1.382490783231092E-2    5.196006051194963E-2   -1.113106373109766E-2    5.140195045281826E-2   -5.045046674674971E-1   -4.417100446625613E-2
 6.501974751500000E9    -4.692169820907053E-1   -2.329191916238425E-1   -1.365209625658828E-2    5.224517975290487E-2   -1.116060442175955E-2    5.179815594438605E-2   -5.044326563582637E-1   -4.271051567514615E-2
 6.501986591250000E9    -4.695290979223743E-1   -2.318825946025549E-1   -1.354635689784720E-2    5.276327488402656E-2   -1.112281832739448E-2    5.216452058279911E-2   -5.045520870554235E-1   -4.095516928185822E-2
 6.501998431000000E9    -4.701648101992786E-1   -2.309299516309626E-1   -1.362842409371239E-2    5.332073981069149E-2   -1.098267387794226E-2    5.266637703995713E-2   -5.045103756468688E-1   -3.951397672933649E-2
 6.502010270750000E9    -4.705544776729816E-1   -2.299329254255138E-1   -1.352456783906568E-2    5.376051104767705E-2   -1.105420745394651E-2    5.305945889706911E-2   -5.044559673410848E-1   -3.790964801604464E-2
 6.502022110500000E9    -4.708563928046964E-1   -2.288302317300105E-1   -1.343267793249300E-2    5.406110835672032E-2   -1.091119043196454E-2    5.355163095634263E-2   -5.043338128584681E-1   -3.607405499616608E-2
 6.502033950250000E9    -4.712821312301579E-1   -2.278221858890076E-1   -1.342642908969676E-2    5.455017238319180E-2   -1.091481115369426E-2    5.395429524890314E-2   -5.043826599572586E-1   -3.451240034696665E-2
 6.502045790000000E9    -4.717526055291047E-1   -2.268334997191476E-1   -1.336343417035162E-2    5.511226818261065E-2   -1.072267558358595E-2    5.446264805536431E-2   -5.043082602839916E-1   -3.287488865463081E-2
 6.502057629750000E9    -4.721134239425535E-1   -2.256922494686684E-1   -1.326988646559447E-2    5.552232560624661E-2   -1.063898909647183E-2    5.491610264079969E-2   -5.043368748835956E-1   -3.129279745499966E-2
 6.502069469500000E9    -4.725481678090272E-1   -2.247234124791457E-1   -1.330712934411844E-2    5.608587207023097E-2   -1.056781874415301E-2    5.535785035039520E-2   -5.042012135798021E-1   -2.961211995343679E-2
 6.502081309250000E9    -4.730541239314501E-1   -2.237494298086254E-1   -1.320491335667717E-2    5.658049349970470E-2   -1.056965554219790E-2    5.570522858036425E-2   -5.041522334079165E-1   -2.798699505159274E-2
 6.502093149000000E9    -4.734771443030662E-1   -2.226610777287475E-1   -1.317848459795173E-2    5.683188732168462E-2   -1.042291750111810E-2    5.625404562435948E-2   -5.040621489428059E-1   -2.628435450546897E-2
 6.502104988750000E9    -4.738082149584282E-1   -2.215061753147320E-1   -1.306382917294870E-2    5.753170913024740E-2   -1.037707546644346E-2    5.664682288816868E-2   -5.038626864592556E-1   -2.461581410101171E-2
 6.502116828500000E9    -4.742301672586968E-1   -2.203992257268196E-1   -1.288221921990444E-2    5.804206154928333E-2   -1.023885866329750E-2    5.724919180789356E-2   -5.039015567217736E-1   -2.281080078858167E-2
 6.502128668250000E9    -4.747280005605526E-1   -2.194495132041268E-1   -1.288146287063098E-2    5.860709124842245E-2   -1.023051813117057E-2    5.761225147878938E-2   -5.038521449677842E-1   -2.109014082128773E-2
 6.502140508000000E9    -4.749763711760972E-1   -2.182758605316223E-1   -1.270435563118028E-2    5.912052481025244E-2   -1.005821604523729E-2    5.818842408901576E-2   -5.036052173054459E-1   -1.943799062906494E-2
 6.502152347750000E9    -4.754698393367341E-1   -2.173121356643271E-1   -1.268183160767471E-2    5.948347787096812E-2   -9.980343014112216E-3    5.876720776263644E-2   -5.036991663156759E-1   -1.770393989611514E-2
 6.502164187500000E9    -4.759350821768760E-1   -2.162501983144912E-1   -1.258290349534432E-2    6.004443672471804E-2   -9.926017468325193E-3    5.923024280171068E-2   -5.033691110007427E-1   -1.587916480432229E-2
 6.502176027250000E9    -4.762363852283802E-1   -2.152126332090780E-1   -1.257088741609247E-2    6.068808673081585E-2   -9.779904358203069E-3    5.979348053210978E-2   -5.032703991178906E-1   -1.421742688024225E-2
 6.502187867000000E9    -4.766680448093764E-1   -2.140314775111102E-1   -1.242047550732544E-2    6.130960048192338E-2   -9.625577103720005E-3    6.036129079769611E-2   -5.031332009780763E-1   -1.233752116731274E-2
 6.502199706750000E9    -4.770799553226034E-1   -2.129410241377201E-1   -1.242010840970907E-2    6.184183774444665E-2   -9.580997776457672E-3    6.096223551182978E-2   -5.028908574767443E-1   -1.047347088657103E-2
 6.502211546500000E9    -4.774443285810656E-1   -2.118973962687671E-1   -1.221960956309800E-2    6.238624124566831E-2   -9.471755257756138E-3    6.155903645986603E-2   -5.027967999672962E-1   -8.743714409624863E-3
