#  HZ   S   RI   R     50.00 
! Rohde & Schwarz Vector Network Analyzer 
! Rohde-Schwarz,ZNB20-2Port,1311601062101988,3.16
! Created: UTC 3/20/2024, 12:01:08 PM
! freq[Hz]                re:S11                  im:S11                  re:S21                  im:S21                  re:S12                  im:S12                  re:S22                  im:S22
 6.501042948000000E9    -4.305106654030712E-1   -3.039529342478707E-1   -1.482308192849177E-2    3.103091358850470E-2   -1.317229465137972E-2    3.111626755594227E-2   -4.919027921238667E-1   -1.472189153537815E-1
 6.501055193825000E9    -4.309005706691902E-1   -3.032227748254266E-1   -1.478405699406452E-2    3.125187736934940E-2   -1.311088698021364E-2    3.124975902037285E-2   -4.922766826782101E-1   -1.460521231697287E-1
 6.501067439650000E9    -4.315820420137021E-1   -3.024365074371599E-1   -1.490584456002271E-2    3.140396758780763E-2   -1.313889507400670E-2    3.152392201482904E-2   -4.923630236592622E-1   -1.449636426097716E-1
 6.501079685475000E9    -4.321794881171691E-1   -3.014409173875874E-1   -1.483972479860191E-2    3.158272711255038E-2   -1.314585084624998E-2    3.171333550573521E-2   -4.927461870701307E-1   -1.438088123661202E-1
 6.501091931300000E9    -4.326726888460618E-1   -3.006719364097590E-1   -1.477427734374787E-2    3.184524340809886E-2   -1.306630160970122E-2    3.182876876695361E-2   -4.929258655624290E-1   -1.425636929957226E-1
 6.501104177125000E9    -4.331865571319425E-1   -2.998706583793319E-1   -1.487111006476105E-2    3.177773415041556E-2   -1.317248718075762E-2    3.206952827817450E-2   -4.931936768341847E-1   -1.414578301301556E-1
 6.501116422950000E9    -4.337579999039821E-1   -2.989355786211683E-1   -1.482847494476076E-2    3.215978620354031E-2   -1.311180180337577E-2    3.222935199414559E-2   -4.934477324857874E-1   -1.401820209927884E-1
 6.501128668775000E9    -4.344118259990248E-1   -2.981526801980376E-1   -1.485594408127909E-2    3.229491775382606E-2   -1.292792540307912E-2    3.243944354171160E-2   -4.937090211780182E-1   -1.390317119138763E-1
 6.501140914600000E9    -4.349593360455082E-1   -2.972479196712490E-1   -1.495033110146417E-2    3.252877237185692E-2   -1.312522981903131E-2    3.265383100658325E-2   -4.939286896549186E-1   -1.379890007962709E-1
 6.501153160425000E9    -4.354318892592051E-1   -2.964016098415368E-1   -1.483978700506333E-2    3.272432132434847E-2   -1.302719415310666E-2    3.282265794686979E-2   -4.943119359091295E-1   -1.366613238706806E-1
 6.501165406250000E9    -4.360634988598916E-1   -2.955416504760264E-1   -1.489796012206841E-2    3.291354364214202E-2   -1.312443183981337E-2    3.301896266405809E-2   -4.945512637855952E-1   -1.355029605978298E-1
 6.501177652075000E9    -4.365247540453134E-1   -2.946165474248957E-1   -1.482495541873178E-2    3.320964281101413E-2   -1.303789502801153E-2    3.313022299298065E-2   -4.947011969469151E-1   -1.342106771030487E-1
 6.501189897900000E9    -4.371622323369120E-1   -2.938537290677871E-1   -1.483742962128101E-2    3.338745641970160E-2   -1.311278414817728E-2    3.345101807030901E-2   -4.950034358623173E-1   -1.330775318714306E-1
 6.501202143725000E9    -4.376812691433173E-1   -2.929454437968065E-1   -1.485235250964047E-2    3.363442387212787E-2   -1.302342152244245E-2    3.356374055643629E-2   -4.952761753795044E-1   -1.319507847660003E-1
 6.501214389550000E9    -4.382080381711626E-1   -2.920275466096227E-1   -1.494946741774028E-2    3.373936911724349E-2   -1.301562044089971E-2    3.380528654063285E-2   -4.954598900873379E-1   -1.306304630559521E-1
 6.501226635375000E9    -4.387547887126645E-1   -2.912610556054773E-1   -1.497784832519642E-2    3.403737126375458E-2   -1.301785538075719E-2    3.401567548488714E-2   -4.957433448671462E-1   -1.294167979058087E-1
 6.501238881200000E9    -4.393416423115146E-1   -2.904362732633594E-1   -1.493526260562209E-2    3.426468752650491E-2   -1.310518539204608E-2    3.420090512441576E-2   -4.959825738597062E-1   -1.282384018986004E-1
 6.501251127025000E9    -4.398896468885719E-1   -2.894386064947392E-1   -1.490587503381664E-2    3.442272842670559E-2   -1.291163045740924E-2    3.434315397190563E-2   -4.962829820873569E-1   -1.269929397956067E-1
 6.501263372850000E9    -4.403745434282865E-1   -2.885540382230598E-1   -1.477921599308568E-2    3.467516285495083E-2   -1.306986760840962E-2    3.469062548647301E-2   -4.963235816739687E-1   -1.257344501553700E-1
 6.501275618675000E9    -4.409430402262941E-1   -2.877775269071672E-1   -1.483308744292350E-2    3.485775516173190E-2   -1.297074657363254E-2    3.495345458770583E-2   -4.967487212772365E-1   -1.246189215728625E-1
 6.501287864500000E9    -4.414972116678824E-1   -2.868174102723039E-1   -1.490990432843592E-2    3.510215497908588E-2   -1.295237581525541E-2    3.511369267954534E-2   -4.968768521598819E-1   -1.232532629788406E-1
 6.501300110325000E9    -4.419921457727272E-1   -2.859041498416687E-1   -1.476680703476022E-2    3.526532893512526E-2   -1.302636342852171E-2    3.523642406029173E-2   -4.971965674535837E-1   -1.221288076223717E-1
 6.501312356150000E9    -4.424965695715059E-1   -2.850110180317519E-1   -1.492282558292487E-2    3.560912297928685E-2   -1.292511596213583E-2    3.555190455347417E-2   -4.974031738394912E-1   -1.208259390641911E-1
 6.501324601975000E9    -4.430988797673169E-1   -2.841329832264493E-1   -1.479823188649010E-2    3.579837813336902E-2   -1.294412273493970E-2    3.575878113223857E-2   -4.976244377801197E-1   -1.195781770733053E-1
 6.501336847800000E9    -4.436316439750479E-1   -2.833681687290074E-1   -1.481592434307996E-2    3.594236026351003E-2   -1.283198964883562E-2    3.595652516500695E-2   -4.977665555268220E-1   -1.181763812083819E-1
 6.501349093625000E9    -4.441033433634101E-1   -2.824122472115171E-1   -1.476034189623754E-2    3.630157459509287E-2   -1.283303360978763E-2    3.624011578129655E-2   -4.978142446492670E-1   -1.170989867438859E-1
 6.501361339450000E9    -4.447110642304433E-1   -2.815135717441029E-1   -1.485582562359452E-2    3.659715487645654E-2   -1.286419000772294E-2    3.647167491032466E-2   -4.982446257641240E-1   -1.158567631037209E-1
 6.501373585275000E9    -4.453482240970763E-1   -2.804995261191028E-1   -1.486675641914795E-2    3.690440704738281E-2   -1.280024832587895E-2    3.672330784764206E-2   -4.983176211281162E-1   -1.144100940863423E-1
 6.501385831100000E9    -4.458093784859730E-1   -2.797369089946123E-1   -1.493206922307569E-2    3.695231540457972E-2   -1.277126946803291E-2    3.690208735370771E-2   -4.985799871518367E-1   -1.131300614643704E-1
 6.501398076925000E9    -4.463152675855450E-1   -2.788105521655038E-1   -1.488596396619290E-2    3.726508822596621E-2   -1.286206191241461E-2    3.718516259716965E-2   -4.986972025136620E-1   -1.119340668532396E-1
 6.501410322750000E9    -4.468389150046496E-1   -2.778870840269356E-1   -1.475187910462637E-2    3.752225459566673E-2   -1.280306237345141E-2    3.741075766968765E-2   -4.991185269435269E-1   -1.105824557766629E-1
 6.501422568575000E9    -4.473219469314730E-1   -2.769595690306218E-1   -1.473277029503076E-2    3.764088112202341E-2   -1.291530937335590E-2    3.775963556645031E-2   -4.992705649130126E-1   -1.092527687775593E-1
 6.501434814400000E9    -4.478545318631139E-1   -2.761052892348491E-1   -1.476712642255888E-2    3.801095012575447E-2   -1.277274789576864E-2    3.794760856528299E-2   -4.994416488224499E-1   -1.080053501218385E-1
 6.501447060225000E9    -4.482804345024244E-1   -2.751414751753352E-1   -1.478961458823558E-2    3.820678641274724E-2   -1.274158405696888E-2    3.818038193604262E-2   -4.996407936914218E-1   -1.067149362543510E-1
 6.501459306050000E9    -4.489224636980532E-1   -2.741393862612518E-1   -1.478901965972677E-2    3.840306527281416E-2   -1.275081590660391E-2    3.850884298153177E-2   -4.997403674664468E-1   -1.053792425188694E-1
 6.501471551875000E9    -4.493981836196011E-1   -2.733322956634142E-1   -1.483935097255074E-2    3.876650540759775E-2   -1.267148450847009E-2    3.867829517011596E-2   -4.999574335136973E-1   -1.040644384191491E-1
 6.501483797700000E9    -4.499650299166331E-1   -2.723404128339066E-1   -1.479350716895301E-2    3.914124163275458E-2   -1.260337820232649E-2    3.894946850389117E-2   -5.003144196742584E-1   -1.027340865136935E-1
 6.501496043525000E9    -4.504464558290161E-1   -2.715163231294856E-1   -1.465496973722665E-2    3.946840538219224E-2   -1.273991530835158E-2    3.926335268904715E-2   -5.003151467557568E-1   -1.013553430019942E-1
 6.501508289350000E9    -4.509461630487626E-1   -2.705646777923675E-1   -1.473309034715941E-2    3.958769199251757E-2   -1.259851755147061E-2    3.949388224325746E-2   -5.005680123605006E-1   -1.002509032336851E-1
 6.501520535175000E9    -4.514914625811105E-1   -2.696473164535866E-1   -1.471054997346855E-2    3.979498233131078E-2   -1.263878927742551E-2    3.977919455603984E-2   -5.005970860796142E-1   -9.874662555708537E-2
 6.501532781000000E9    -4.519551884976648E-1   -2.688384579739940E-1   -1.464449314172592E-2    4.019962500653606E-2   -1.262808517131287E-2    4.005214700466261E-2   -5.009162370402758E-1   -9.744360624939162E-2
 6.501545026825000E9    -4.525172185500347E-1   -2.678433709064371E-1   -1.465337815123588E-2    4.048219307718496E-2   -1.265933903352521E-2    4.026100562806709E-2   -5.010710347150387E-1   -9.612605275220068E-2
 6.501557272650000E9    -4.529125523491244E-1   -2.669409601290172E-1   -1.462629271333746E-2    4.065961140227328E-2   -1.254454529105430E-2    4.040582792322193E-2   -5.012184524897045E-1   -9.469051994117333E-2
 6.501569518475000E9    -4.535308072022378E-1   -2.660221345907267E-1   -1.461984845743975E-2    4.098828073389747E-2   -1.251998191674673E-2    4.082042816207360E-2   -5.013869312148143E-1   -9.339063428130938E-2
 6.501581764300000E9    -4.540412327135817E-1   -2.649506059456610E-1   -1.469779225247699E-2    4.135130694049129E-2   -1.243975149646090E-2    4.122921145731369E-2   -5.014541426707907E-1   -9.215245087665541E-2
 6.501594010125000E9    -4.544794499052087E-1   -2.640069364208400E-1   -1.457082192828326E-2    4.162217452029796E-2   -1.248665279276108E-2    4.146265953703870E-2   -5.016766942409778E-1   -9.068632824958960E-2
 6.501606255950000E9    -4.550639565727135E-1   -2.631516304908390E-1   -1.470400715191813E-2    4.186976795845527E-2   -1.239973525524047E-2    4.168188701393741E-2   -5.017185534286093E-1   -8.925145941195592E-2
 6.501618501775000E9    -4.555104507777306E-1   -2.621739376092171E-1   -1.456867772787645E-2    4.217886187482029E-2   -1.247536083692074E-2    4.195744350039524E-2   -5.019290086822774E-1   -8.795289470364008E-2
 6.501630747600000E9    -4.560031899408277E-1   -2.612079560723362E-1   -1.460250994170400E-2    4.249412528275613E-2   -1.245771078442700E-2    4.231272049614569E-2   -5.019496932933932E-1   -8.661254631531849E-2
 6.501642993425000E9    -4.566169948437262E-1   -2.602410976383683E-1   -1.457234440506577E-2    4.290374852728344E-2   -1.246746916876583E-2    4.255789958009067E-2   -5.021592569903348E-1   -8.503325613558467E-2
 6.501655239250000E9    -4.569427953333860E-1   -2.592833153895143E-1   -1.462691913664624E-2    4.319605879579277E-2   -1.232951511640545E-2    4.288584476697024E-2   -5.022338258526233E-1   -8.372799397636965E-2
 6.501667485075000E9    -4.574302414910619E-1   -2.582571266215745E-1   -1.451893851952067E-2    4.343433511154039E-2   -1.227738252566897E-2    4.312520597116104E-2   -5.024862716814270E-1   -8.228327575472065E-2
 6.501679730900000E9    -4.580006157085985E-1   -2.573785910697619E-1   -1.450365192477401E-2    4.381771223240270E-2   -1.226954014601961E-2    4.348077372306899E-2   -5.024323261299634E-1   -8.080427447765914E-2
 6.501691976725000E9    -4.584465200796902E-1   -2.564339010898820E-1   -1.443119583369378E-2    4.404383304684268E-2   -1.225572984948207E-2    4.379268157052593E-2   -5.025947855153756E-1   -7.953275361597849E-2
 6.501704222550000E9    -4.590051171527836E-1   -2.554426108075847E-1   -1.442394406877282E-2    4.434224929967472E-2   -1.228612846772086E-2    4.416314163514444E-2   -5.027404492516848E-1   -7.803775769249226E-2
 6.501716468375000E9    -4.594495100189179E-1   -2.545640567851580E-1   -1.437974173849545E-2    4.471935487601023E-2   -1.220362753885390E-2    4.444200538666106E-2   -5.027835922799587E-1   -7.658932205158074E-2
 6.501728714200000E9    -4.599072906651641E-1   -2.535911124702558E-1   -1.434006423461411E-2    4.513675086813237E-2   -1.211557174170398E-2    4.483504156517133E-2   -5.028305265492258E-1   -7.523441242758748E-2
 6.501740960025000E9    -4.604519926905201E-1   -2.524189919059242E-1   -1.440753293876535E-2    4.534779377607771E-2   -1.217928056066345E-2    4.514293006008478E-2   -5.029165146965198E-1   -7.379211533575457E-2
 6.501753205850000E9    -4.609671899768725E-1   -2.514941853943464E-1   -1.428523102480722E-2    4.584437037607453E-2   -1.205247048281307E-2    4.551686272262213E-2   -5.030669523467278E-1   -7.219537821129982E-2
 6.501765451675000E9    -4.612824575311251E-1   -2.505594532502546E-1   -1.431513113002315E-2    4.623039321676822E-2   -1.208703155844272E-2    4.582626395054919E-2   -5.030940266923118E-1   -7.082490268417713E-2
 6.501777697500000E9    -4.619500695073976E-1   -2.495380186929765E-1   -1.426373751480131E-2    4.654009007622055E-2   -1.202727030544940E-2    4.618161594175890E-2   -5.032727577455501E-1   -6.923439044840457E-2
 6.501789943325000E9    -4.623043595843929E-1   -2.486815988754975E-1   -1.417516060636810E-2    4.694221239470405E-2   -1.194012129840803E-2    4.653312834854001E-2   -5.032463340050111E-1   -6.779296430456593E-2
 6.501802189150000E9    -4.629159122343216E-1   -2.476782579153245E-1   -1.427939350126413E-2    4.735496065004234E-2   -1.186941803005618E-2    4.689141153854583E-2   -5.032970544291866E-1   -6.622466387788480E-2
 6.501814434975000E9    -4.633186595475336E-1   -2.466737188400799E-1   -1.429023630016145E-2    4.767832185657940E-2   -1.187346590150493E-2    4.730730285991543E-2   -5.036831776003715E-1   -6.482426230526557E-2
 6.501826680800000E9    -4.637979108033375E-1   -2.456804776736388E-1   -1.414304834045174E-2    4.814756044768865E-2   -1.184773524886346E-2    4.764904722747097E-2   -5.035398264796180E-1   -6.322512976679585E-2
 6.501838926625000E9    -4.642805314379616E-1   -2.446521990848070E-1   -1.409457959414207E-2    4.855137416258992E-2   -1.170165999175855E-2    4.793936737668887E-2   -5.036760681508543E-1   -6.170082473436915E-2
 6.501851172450000E9    -4.646627721217143E-1   -2.436203380200438E-1   -1.401532033150471E-2    4.882613318187647E-2   -1.177508233488636E-2    4.845367526972706E-2   -5.036683404444369E-1   -6.024375609041179E-2
 6.501863418275000E9    -4.651939378211980E-1   -2.426438235351887E-1   -1.400685626311569E-2    4.913463231442181E-2   -1.171160208640375E-2    4.873454088174695E-2   -5.037059894626515E-1   -5.864190206562579E-2
 6.501875664100000E9    -4.655818636192501E-1   -2.416530923892026E-1   -1.391227158394711E-2    4.958556330625818E-2   -1.161847288383658E-2    4.908025300409696E-2   -5.037928225120677E-1   -5.722133962525961E-2
 6.501887909925000E9    -4.661603221600188E-1   -2.406133321578599E-1   -1.402656837680463E-2    5.013795652309151E-2   -1.147467688400676E-2    4.960263727198262E-2   -5.037939518573004E-1   -5.560503232439948E-2
 6.501900155750000E9    -4.664294828035443E-1   -2.395312186489936E-1   -1.399091910869180E-2    5.039100042967750E-2   -1.148790409850576E-2    4.992239949089283E-2   -5.037145529166848E-1   -5.413839113127118E-2
 6.501912401575000E9    -4.669548962412570E-1   -2.385208528338475E-1   -1.389501140232635E-2    5.085940008774369E-2   -1.145655219018692E-2    5.037384405564719E-2   -5.037946168007372E-1   -5.245230928856964E-2
 6.501924647400000E9    -4.673914039134021E-1   -2.375018567255371E-1   -1.384644369421913E-2    5.130647854799526E-2   -1.139776987061929E-2    5.070795841327690E-2   -5.039417760261774E-1   -5.076916549912166E-2
 6.501936893225000E9    -4.678877144786665E-1   -2.364076373005093E-1   -1.382967003221801E-2    5.177731359971372E-2   -1.138502568405824E-2    5.122859879712333E-2   -5.038595210489645E-1   -4.932332668588380E-2
 6.501949139050000E9    -4.683874684759177E-1   -2.354431237089958E-1   -1.368333193561339E-2    5.214089178850149E-2   -1.132680513252138E-2    5.155490940651405E-2   -5.038185705802224E-1   -4.755628096397883E-2
 6.501961384875000E9    -4.687893439288556E-1   -2.343199408730132E-1   -1.368191468652260E-2    5.251362451327357E-2   -1.116758819792385E-2    5.211689799917686E-2   -5.038312008685205E-1   -4.594471377491920E-2
 6.501973630700000E9    -4.691914064083628E-1   -2.333020890530982E-1   -1.372248950803762E-2    5.289892251558997E-2   -1.111972061481046E-2    5.246057049656058E-2   -5.037854122524658E-1   -4.437124751542871E-2
 6.501985876525000E9    -4.696461161755672E-1   -2.322457304401829E-1   -1.344338465539035E-2    5.352995896223891E-2   -1.098158402729563E-2    5.285624641718261E-2   -5.037414695600337E-1   -4.269674074746690E-2
 6.501998122350000E9    -4.701584282009680E-1   -2.312229741055759E-1   -1.357735978479086E-2    5.401603849706350E-2   -1.086758611186650E-2    5.327735005514056E-2   -5.036875688873659E-1   -4.106864929797834E-2
 6.502010368175000E9    -4.705880951744851E-1   -2.301163568698482E-1   -1.346057827186557E-2    5.431520078032510E-2   -1.084297276008375E-2    5.375803656511841E-2   -5.036338839262895E-1   -3.934948315011508E-2
 6.502022614000000E9    -4.710940505196768E-1   -2.290432066119934E-1   -1.336285802913779E-2    5.490691208421788E-2   -1.074517982487165E-2    5.424458568114329E-2   -5.036382507176503E-1   -3.771412989936623E-2
 6.502034859825000E9    -4.715137743194835E-1   -2.279064850153330E-1   -1.329275932931533E-2    5.529938322363974E-2   -1.075970588370528E-2    5.472470542963470E-2   -5.036861847940072E-1   -3.599960698396852E-2
 6.502047105650000E9    -4.718565000933991E-1   -2.269238369888960E-1   -1.319282537544065E-2    5.578546476037719E-2   -1.060847796201088E-2    5.515951756866418E-2   -5.035345644479691E-1   -3.430866485218579E-2
 6.502059351475000E9    -4.722297038801923E-1   -2.259570460811152E-1   -1.307966733170616E-2    5.635546816726528E-2   -1.049419962954990E-2    5.567599113721915E-2   -5.035028485492380E-1   -3.246183544389633E-2
 6.502071597300000E9    -4.727977953649545E-1   -2.246940836823307E-1   -1.325773522089139E-2    5.685078423426614E-2   -1.043505363502402E-2    5.614024356261914E-2   -5.035032932035162E-1   -3.090620145072372E-2
 6.502083843125000E9    -4.731920743722489E-1   -2.237067003413323E-1   -1.302970701228835E-2    5.743395387280170E-2   -1.047335953439354E-2    5.671728893088638E-2   -5.032943205911135E-1   -2.920017344816115E-2
 6.502096088950000E9    -4.736347708690877E-1   -2.225953492712162E-1   -1.290276830135979E-2    5.792384331324116E-2   -1.025269574764591E-2    5.722747164124559E-2   -5.033840992199929E-1   -2.728606078878192E-2
 6.502108334775000E9    -4.738916721389358E-1   -2.214450120926127E-1   -1.296958228891819E-2    5.849226037984315E-2   -1.020995915680660E-2    5.766876241829609E-2   -5.032206198238894E-1   -2.545853801702691E-2
 6.502120580600000E9    -4.745099134311251E-1   -2.203852742641615E-1   -1.279727903221451E-2    5.904956834222395E-2   -1.017177175066653E-2    5.836536692092755E-2   -5.029772847170673E-1   -2.382021164869084E-2
 6.502132826425000E9    -4.748445504545519E-1   -2.191855053725618E-1   -1.273396784562319E-2    5.961949333006773E-2   -1.007438335451178E-2    5.875929046372649E-2   -5.029944907295378E-1   -2.193945757752716E-2
 6.502145072250000E9    -4.752243687869722E-1   -2.180268170075467E-1   -1.261423589122359E-2    6.004704917333250E-2   -9.816836481100932E-3    5.932361140453753E-2   -5.027828508925641E-1   -2.012015582286453E-2
