#  HZ   S   RI   R     50.00 
! Rohde & Schwarz Vector Network Analyzer 
! Rohde-Schwarz,ZNB20-2Port,1311601062101988,3.16
! Created: UTC 3/20/2024, 12:01:16 PM
! freq[Hz]                re:S11                  im:S11                  re:S21                  im:S21                  re:S12                  im:S12                  re:S22                  im:S22
 6.501045457000000E9    -4.306129657047887E-1   -3.036654760424969E-1   -1.482255136059537E-2    3.095453811346580E-2   -1.323470689066406E-2    3.109980699228503E-2   -4.918362394101083E-1   -1.469837067732032E-1
 6.501057698900000E9    -4.311580852996952E-1   -3.029323359812566E-1   -1.472108008549370E-2    3.125525060909395E-2   -1.308553445700922E-2    3.131051852342741E-2   -4.921254114082035E-1   -1.457740452581938E-1
 6.501069940800000E9    -4.316971748120576E-1   -3.019652384826447E-1   -1.486795249695496E-2    3.131459806569643E-2   -1.320011431721114E-2    3.147986707029746E-2   -4.924427904063065E-1   -1.447103673865464E-1
 6.501082182700000E9    -4.323724232160873E-1   -3.011863183416308E-1   -1.490121892694234E-2    3.160252762480199E-2   -1.306638798294945E-2    3.158242650871897E-2   -4.927154564349645E-1   -1.436439239172793E-1
 6.501094424600000E9    -4.329497909759737E-1   -3.003134918120586E-1   -1.477843577296700E-2    3.181107694516307E-2   -1.318228343909053E-2    3.184991997188049E-2   -4.930421117863586E-1   -1.423598987448220E-1
 6.501106666500000E9    -4.333059258083096E-1   -2.994637040993048E-1   -1.491204332545921E-2    3.205289035401122E-2   -1.312413715227598E-2    3.206780459055476E-2   -4.931331476102790E-1   -1.413272736410383E-1
 6.501118908400000E9    -4.340045551404119E-1   -2.986970251807512E-1   -1.491912593536132E-2    3.209462111255691E-2   -1.314389911653760E-2    3.223872742778262E-2   -4.935108804916548E-1   -1.400347992120045E-1
 6.501131150300000E9    -4.345353931972192E-1   -2.977421440330495E-1   -1.490568231609839E-2    3.245213192539782E-2   -1.311782959099704E-2    3.244200861874743E-2   -4.938090229017704E-1   -1.388295538058907E-1
 6.501143392200000E9    -4.351548804653553E-1   -2.968642714678281E-1   -1.485772900325772E-2    3.246798774675669E-2   -1.310135986719823E-2    3.261527506573842E-2   -4.940433834214812E-1   -1.377339570443732E-1
 6.501155634100000E9    -4.356771824684521E-1   -2.960348998123030E-1   -1.483973458329307E-2    3.280847684990831E-2   -1.303487883857495E-2    3.287891494354983E-2   -4.942993602224215E-1   -1.364450985924238E-1
 6.501167876000000E9    -4.362653980237755E-1   -2.952031190424601E-1   -1.492163631247300E-2    3.296583392658625E-2   -1.305773703438958E-2    3.297657076550768E-2   -4.944861153938125E-1   -1.351615600902059E-1
 6.501180117900000E9    -4.367494638072524E-1   -2.943668166631959E-1   -1.484850402228633E-2    3.328970043875619E-2   -1.306220999332166E-2    3.317057314788403E-2   -4.948309847707258E-1   -1.339429760812378E-1
 6.501192359800000E9    -4.373301245110530E-1   -2.934942994621016E-1   -1.478231172776515E-2    3.343342281893063E-2   -1.316624866782921E-2    3.342429662112954E-2   -4.950076660235188E-1   -1.328482169553150E-1
 6.501204601700000E9    -4.379157022573252E-1   -2.926354062136753E-1   -1.480440810147173E-2    3.356715068138576E-2   -1.303005615002888E-2    3.360994150854044E-2   -4.952830413491346E-1   -1.315201599196593E-1
 6.501216843600000E9    -4.383576963168000E-1   -2.917856080983500E-1   -1.475644673213423E-2    3.379796242815825E-2   -1.302222180327351E-2    3.396308591908760E-2   -4.954767059921910E-1   -1.304998924782573E-1
 6.501229085500000E9    -4.389549943697307E-1   -2.908645615630281E-1   -1.480594873701399E-2    3.411899438518858E-2   -1.310329423363565E-2    3.411312472756736E-2   -4.957851123926505E-1   -1.292850662002314E-1
 6.501241327400000E9    -4.395138490283015E-1   -2.900479102666815E-1   -1.491442105358971E-2    3.423416020628379E-2   -1.305580093081611E-2    3.421094604973906E-2   -4.959994389923829E-1   -1.279825879169798E-1
 6.501253569300000E9    -4.399513036492856E-1   -2.891154038566335E-1   -1.481768053084434E-2    3.440026977843574E-2   -1.286434535542701E-2    3.448321902403162E-2   -4.963170203148391E-1   -1.267257164438132E-1
 6.501265811200000E9    -4.405909722633610E-1   -2.882676310839529E-1   -1.486630992153546E-2    3.455745815274271E-2   -1.297055756184900E-2    3.465107219018844E-2   -4.965285044017655E-1   -1.255824463037606E-1
 6.501278053100000E9    -4.411185392290477E-1   -2.874420779554251E-1   -1.480779057680523E-2    3.487550513414081E-2   -1.296784378566958E-2    3.485199828584489E-2   -4.967084134521448E-1   -1.242584275326369E-1
 6.501290295000000E9    -4.416510383754865E-1   -2.866292352368357E-1   -1.481344765422423E-2    3.504756708705672E-2   -1.289959845067670E-2    3.509283784712854E-2   -4.970113123876860E-1   -1.231337689269337E-1
 6.501302536900000E9    -4.422292365432172E-1   -2.855663491883285E-1   -1.476936685496139E-2    3.535753412401146E-2   -1.289048833163984E-2    3.530145935795878E-2   -4.971452758850664E-1   -1.216713615907979E-1
 6.501314778800000E9    -4.428309896964512E-1   -2.847514761593738E-1   -1.475784401145080E-2    3.557176606324440E-2   -1.286972952445290E-2    3.552749358003512E-2   -4.974292347249486E-1   -1.205125975570719E-1
 6.501327020700000E9    -4.432678977678550E-1   -2.839380177908727E-1   -1.470853936449963E-2    3.586257515622655E-2   -1.291991270944784E-2    3.585018443764460E-2   -4.976225338025774E-1   -1.194104465339505E-1
 6.501339262600000E9    -4.437467016421971E-1   -2.829751379992205E-1   -1.491606307464393E-2    3.582738265275402E-2   -1.289753205718185E-2    3.602764435663302E-2   -4.978115047426173E-1   -1.179852418285984E-1
 6.501351504500000E9    -4.443377990987469E-1   -2.821283877904284E-1   -1.480575652069359E-2    3.623315586453597E-2   -1.292385779377412E-2    3.631766056168040E-2   -4.981140801733727E-1   -1.168144110578563E-1
 6.501363746400000E9    -4.448581246070328E-1   -2.811112763547399E-1   -1.477388475673041E-2    3.651916286033804E-2   -1.289819989958526E-2    3.646185318411014E-2   -4.982452087382467E-1   -1.156435129843656E-1
 6.501375988300000E9    -4.454263462474380E-1   -2.802862915429058E-1   -1.476156683947348E-2    3.680241707544519E-2   -1.291851674642438E-2    3.665023616621947E-2   -4.984326140513543E-1   -1.143010018137076E-1
 6.501388230200000E9    -4.458953908686126E-1   -2.793626512847356E-1   -1.481539042256470E-2    3.695469336975125E-2   -1.285349239074352E-2    3.693790844582388E-2   -4.987090082278738E-1   -1.128984647748099E-1
 6.501400472100000E9    -4.464799334624297E-1   -2.785704362507088E-1   -1.487503398565406E-2    3.727719415504462E-2   -1.283386553850260E-2    3.722248147198030E-2   -4.990016836194034E-1   -1.117267856655313E-1
 6.501412714000000E9    -4.470881704440888E-1   -2.774894764147210E-1   -1.487313215337549E-2    3.764657906795148E-2   -1.273275115743376E-2    3.751957903772290E-2   -4.989974005635641E-1   -1.103634746660410E-1
 6.501424955900000E9    -4.474979088976815E-1   -2.765533121983655E-1   -1.472160066110948E-2    3.784700422539179E-2   -1.283588481765155E-2    3.764382204308973E-2   -4.993007086737257E-1   -1.092004822435058E-1
 6.501437197800000E9    -4.480730418869347E-1   -2.757740026516048E-1   -1.479556371660809E-2    3.798085141996210E-2   -1.272902976837006E-2    3.789088681826897E-2   -4.995246418158223E-1   -1.079291681858872E-1
 6.501449439700000E9    -4.485106986811807E-1   -2.747942087292046E-1   -1.481551330979918E-2    3.828663413084493E-2   -1.267049334221952E-2    3.816035525877088E-2   -4.996772856479927E-1   -1.065465239938394E-1
 6.501461681600000E9    -4.491509223842557E-1   -2.738747834638385E-1   -1.489852506752311E-2    3.850971105502948E-2   -1.273685614786406E-2    3.841830486738676E-2   -4.997781177116553E-1   -1.050564047079982E-1
 6.501473923500000E9    -4.495818303417521E-1   -2.730217649780023E-1   -1.469975652306116E-2    3.878373113670835E-2   -1.278944954791518E-2    3.868639580377844E-2   -4.999779044198752E-1   -1.039595030009153E-1
 6.501486165400000E9    -4.501471111815480E-1   -2.721597028354806E-1   -1.462516978295272E-2    3.911783650591604E-2   -1.265089636819997E-2    3.892122201736259E-2   -5.002594895321587E-1   -1.026238957391941E-1
 6.501498407300000E9    -4.505972826697375E-1   -2.711817768002369E-1   -1.473943233427234E-2    3.935239420090279E-2   -1.267104687037540E-2    3.915961604019721E-2   -5.002769357069315E-1   -1.011919422675001E-1
 6.501510649200000E9    -4.511939506579098E-1   -2.701832556612591E-1   -1.467140464817497E-2    3.958302901934530E-2   -1.258565385355241E-2    3.948526907788829E-2   -5.004489757200611E-1   -9.989492622778327E-2
 6.501522891100000E9    -4.516667373741372E-1   -2.692495146437854E-1   -1.476184769895958E-2    3.980221983863805E-2   -1.263117112497304E-2    3.973671424410729E-2   -5.005986720414464E-1   -9.855192998147316E-2
 6.501535133000000E9    -4.521818435446776E-1   -2.684073881890776E-1   -1.474453687525889E-2    4.015007741652610E-2   -1.260616309260334E-2    4.002758171941297E-2   -5.008428797624013E-1   -9.731825724831346E-2
 6.501547374900000E9    -4.525728308834646E-1   -2.675532758683574E-1   -1.458140220133832E-2    4.037253177703182E-2   -1.252487356124551E-2    4.032828288994657E-2   -5.010906345946324E-1   -9.592904035981654E-2
 6.501559616800000E9    -4.531177175211678E-1   -2.665530777952479E-1   -1.463582164816294E-2    4.072282221173372E-2   -1.258387475008776E-2    4.058795928785908E-2   -5.012035862005489E-1   -9.456010929019465E-2
 6.501571858700000E9    -4.536691226116954E-1   -2.657747454499068E-1   -1.460650330842746E-2    4.118532822623674E-2   -1.242448273143552E-2    4.083884950720235E-2   -5.013566866628734E-1   -9.306791325532461E-2
 6.501584100600000E9    -4.541750036230227E-1   -2.647558050115077E-1   -1.465998346291830E-2    4.130945718747869E-2   -1.238362992065667E-2    4.117612412848751E-2   -5.013937404790307E-1   -9.177505341517531E-2
 6.501596342500000E9    -4.546464619666716E-1   -2.637581315043946E-1   -1.451283439551924E-2    4.159865550172392E-2   -1.262171455498300E-2    4.140698850928719E-2   -5.015514599544511E-1   -9.046011342482313E-2
 6.501608584400000E9    -4.551913864403951E-1   -2.629011753441096E-1   -1.461180466649240E-2    4.195728158620746E-2   -1.243386036587319E-2    4.170101509585355E-2   -5.017602488529693E-1   -8.906016665359413E-2
 6.501620826300000E9    -4.557011697781674E-1   -2.618416499526010E-1   -1.459552124127365E-2    4.214962759532606E-2   -1.235010522286352E-2    4.212140659393367E-2   -5.017363096420676E-1   -8.766202500761651E-2
 6.501633068200000E9    -4.561560147427650E-1   -2.608328150698546E-1   -1.448200148935421E-2    4.258768873683823E-2   -1.241140126865301E-2    4.237823598412035E-2   -5.019650009280542E-1   -8.634037877690974E-2
 6.501645310100000E9    -4.566913538913159E-1   -2.598516730268677E-1   -1.449606031025811E-2    4.272525583540066E-2   -1.250651843806921E-2    4.256841116211215E-2   -5.021482357471448E-1   -8.492311787363697E-2
 6.501657552000000E9    -4.571718640479805E-1   -2.589752277989235E-1   -1.445083400856467E-2    4.323370914206277E-2   -1.236144203407480E-2    4.297919595699251E-2   -5.023071024624844E-1   -8.341532392235917E-2
 6.501669793900000E9    -4.576231886338626E-1   -2.580231249391507E-1   -1.456905368825298E-2    4.332808577657803E-2   -1.223560804680563E-2    4.329323981532165E-2   -5.025226742573522E-1   -8.221519914521765E-2
 6.501682035800000E9    -4.581090189182000E-1   -2.570523730121287E-1   -1.459562636163144E-2    4.374245073903986E-2   -1.224216766438201E-2    4.354269631111995E-2   -5.024617379353514E-1   -8.063142791977153E-2
 6.501694277700000E9    -4.586099488321174E-1   -2.560222512392933E-1   -1.458405490607301E-2    4.404895586238310E-2   -1.229083892988143E-2    4.381280211394618E-2   -5.026119593950890E-1   -7.933131326156406E-2
 6.501706519600000E9    -4.591081985377626E-1   -2.551990326494831E-1   -1.445249856783542E-2    4.449950017369829E-2   -1.216814367298025E-2    4.420904589440523E-2   -5.027310622302318E-1   -7.788696364242570E-2
 6.501718761500000E9    -4.596035935702503E-1   -2.542032009665852E-1   -1.440755892765801E-2    4.472724806953664E-2   -1.220567092715476E-2    4.444648857260302E-2   -5.027804769264207E-1   -7.631047508572503E-2
 6.501731003400000E9    -4.601027565478919E-1   -2.531951266404061E-1   -1.428400566164181E-2    4.515832796039889E-2   -1.200025698899965E-2    4.470672979666425E-2   -5.030261628618531E-1   -7.493165687416260E-2
 6.501743245300000E9    -4.604708996529663E-1   -2.522505289756527E-1   -1.430173741937525E-2    4.560810089450602E-2   -1.206352759304983E-2    4.511469064273301E-2   -5.030047854038732E-1   -7.347093689659481E-2
 6.501755487200000E9    -4.610685448248599E-1   -2.511786846215759E-1   -1.442196285260948E-2    4.575147942165885E-2   -1.210148488936500E-2    4.560596530138156E-2   -5.031219432646350E-1   -7.201271026772617E-2
 6.501767729100000E9    -4.615934769569707E-1   -2.502740263414845E-1   -1.433530704999335E-2    4.619570233154892E-2   -1.204621112955618E-2    4.578372310886721E-2   -5.033329556087575E-1   -7.042913749474555E-2
 6.501779971000000E9    -4.619631398178393E-1   -2.492267109931091E-1   -1.436936591912000E-2    4.652904878888209E-2   -1.193502680254441E-2    4.615888077513014E-2   -5.033060599718867E-1   -6.909550498088865E-2
 6.501792212900000E9    -4.625039417684616E-1   -2.482872922481535E-1   -1.413567170194861E-2    4.688259007381090E-2   -1.190487009658145E-2    4.649224718636363E-2   -5.034598286874565E-1   -6.749750549721863E-2
 6.501804454800000E9    -4.629601968675056E-1   -2.472742568384251E-1   -1.406247572217654E-2    4.726773761792584E-2   -1.190433724184525E-2    4.692865886198543E-2   -5.035103356777627E-1   -6.613273925644020E-2
 6.501816696700000E9    -4.634901604164287E-1   -2.462953848422022E-1   -1.426942837902629E-2    4.760587946737312E-2   -1.183891083756909E-2    4.725423382388863E-2   -5.035856773305917E-1   -6.457053798259232E-2
 6.501828938600000E9    -4.639275759360006E-1   -2.452716232815313E-1   -1.430555181205456E-2    4.789398274600339E-2   -1.176663372686102E-2    4.774856220857807E-2   -5.036092516891546E-1   -6.314118890106879E-2
 6.501841180500000E9    -4.643983887417251E-1   -2.442725662248929E-1   -1.413404434270375E-2    4.839829941528125E-2   -1.168089472408706E-2    4.801513218708457E-2   -5.037752337225593E-1   -6.161277927365235E-2
 6.501853422400000E9    -4.648190459308730E-1   -2.432203574185501E-1   -1.406798793222243E-2    4.892370053161682E-2   -1.166529213665586E-2    4.834434156863367E-2   -5.036599636090461E-1   -5.999026392628599E-2
 6.501865664300000E9    -4.651984880434684E-1   -2.421618621511583E-1   -1.392685290163619E-2    4.927659422367869E-2   -1.156734515069664E-2    4.881120878621232E-2   -5.036936387933355E-1   -5.846614433530232E-2
 6.501877906200000E9    -4.657847030609364E-1   -2.412216339517075E-1   -1.398124667916724E-2    4.959853065356860E-2   -1.162211866360968E-2    4.916215636153592E-2   -5.037020194472167E-1   -5.687747912260143E-2
 6.501890148100000E9    -4.662667869503224E-1   -2.401036706032632E-1   -1.386729224446498E-2    5.007403725660573E-2   -1.146025833058278E-2    4.953767915705184E-2   -5.038567256506753E-1   -5.529824248443738E-2
 6.501902390000000E9    -4.666776058462436E-1   -2.390956648573781E-1   -1.388483247495768E-2    5.047889420708900E-2   -1.140490578578518E-2    4.995126060453028E-2   -5.038721178457640E-1   -5.383209203111209E-2
 6.501914631900000E9    -4.671074696678605E-1   -2.382129537288004E-1   -1.377671280946010E-2    5.086560613656751E-2   -1.147992105515887E-2    5.043562732402820E-2   -5.037401374869431E-1   -5.212825439613872E-2
 6.501926873800000E9    -4.675704516544301E-1   -2.371156333630540E-1   -1.377869792011000E-2    5.135867514948154E-2   -1.138148665435931E-2    5.071846313589592E-2   -5.039947950385333E-1   -5.059432794733533E-2
 6.501939115700000E9    -4.680318004914064E-1   -2.361851513072581E-1   -1.380993820341317E-2    5.164762671891619E-2   -1.122469174621579E-2    5.115820174752366E-2   -5.039755772609631E-1   -4.903981839824113E-2
 6.501951357600000E9    -4.684991848241833E-1   -2.350051141406001E-1   -1.371961440425687E-2    5.211871140202824E-2   -1.112437615572282E-2    5.170420260956587E-2   -5.038136111196198E-1   -4.741624442676862E-2
 6.501963599500000E9    -4.688925756405344E-1   -2.340246642835187E-1   -1.373183635759497E-2    5.241293222113502E-2   -1.109959786612864E-2    5.202474370828847E-2   -5.038106001102735E-1   -4.581271482524034E-2
 6.501975841400000E9    -4.693683441920150E-1   -2.329543269914833E-1   -1.359611265660726E-2    5.313795648642975E-2   -1.112188926640956E-2    5.248908027309657E-2   -5.037550875171234E-1   -4.417603546050078E-2
 6.501988083300000E9    -4.697733999506774E-1   -2.319406850902833E-1   -1.354240558700769E-2    5.343534302123370E-2   -1.101929671534669E-2    5.299380027053503E-2   -5.038810906395603E-1   -4.238472863262602E-2
 6.502000325200000E9    -4.702485641353404E-1   -2.307302101055056E-1   -1.355058926274432E-2    5.398128027741207E-2   -1.094851169154772E-2    5.337030880255945E-2   -5.038121432301133E-1   -4.078778263177378E-2
 6.502012567100000E9    -4.707378834226659E-1   -2.296884580547539E-1   -1.352418022233483E-2    5.433929779484049E-2   -1.085361087068503E-2    5.384928467119625E-2   -5.037710665726450E-1   -3.914735341092856E-2
 6.502024809000000E9    -4.711925141569587E-1   -2.286860878254854E-1   -1.331211789704698E-2    5.499814778209978E-2   -1.089883955884339E-2    5.430949353396312E-2   -5.036916027084801E-1   -3.757221582345849E-2
 6.502037050900000E9    -4.716979468100256E-1   -2.276007206832472E-1   -1.336245185391132E-2    5.535740718464502E-2   -1.075449293286672E-2    5.471697273432686E-2   -5.036051140938400E-1   -3.589209561028734E-2
 6.502049292800000E9    -4.720439129151285E-1   -2.265479109758171E-1   -1.321736383534866E-2    5.592676045491837E-2   -1.063046784802104E-2    5.521995584105208E-2   -5.036157177969347E-1   -3.409900517919880E-2
 6.502061534700000E9    -4.724934642264856E-1   -2.254468687578834E-1   -1.318582319723387E-2    5.641848153942328E-2   -1.058815705039672E-2    5.571847374680010E-2   -5.035630041787937E-1   -3.244969187934314E-2
 6.502073776600000E9    -4.728377868167536E-1   -2.244414047983397E-1   -1.314671427488411E-2    5.690398229948498E-2   -1.041466679998973E-2    5.618872295602528E-2   -5.034587934541779E-1   -3.069168403949224E-2
 6.502086018500000E9    -4.733373269089955E-1   -2.233575592638146E-1   -1.309771616290922E-2    5.741158816278161E-2   -1.030241598239113E-2    5.672185053809334E-2   -5.032956557452457E-1   -2.888304414213462E-2
 6.502098260400000E9    -4.736760173513791E-1   -2.221357852966110E-1   -1.307912442295625E-2    5.810433216412206E-2   -1.021992311881208E-2    5.727062944771819E-2   -5.032845740880192E-1   -2.704587848607084E-2
 6.502110502300000E9    -4.741753471186966E-1   -2.210879247701198E-1   -1.306054915106003E-2    5.849852202472736E-2   -1.018482766555516E-2    5.766869759224401E-2   -5.030603443395245E-1   -2.549409928127020E-2
 6.502122744200000E9    -4.746906038950037E-1   -2.200715273010922E-1   -1.273630667960152E-2    5.911209541011726E-2   -1.004279437452119E-2    5.820850455184332E-2   -5.031017225221383E-1   -2.351490214253240E-2
 6.502134986100000E9    -4.750107794377916E-1   -2.189180912380758E-1   -1.273158796919334E-2    5.961373101318986E-2   -9.957567770184486E-3    5.890277177694778E-2   -5.030164962449480E-1   -2.165511036668284E-2
 6.502147228000000E9    -4.754114818277509E-1   -2.178261915364725E-1   -1.256733537722499E-2    6.015823586240453E-2   -9.897498055658717E-3    5.923961830058926E-2   -5.028449070426259E-1   -1.982946326156328E-2
