#  HZ   S   RI   R     50.00 
! Rohde & Schwarz Vector Network Analyzer 
! Rohde-Schwarz,ZNB20-2Port,1311601062101988,3.16
! Created: UTC 3/20/2024, 12:01:41 PM
! freq[Hz]                re:S11                  im:S11                  re:S21                  im:S21                  re:S12                  im:S12                  re:S22                  im:S22
 6.501059781000000E9    -4.312221680717016E-1   -3.031392793645099E-1   -1.484880587499478E-2    3.116748729115434E-2   -1.310193973440098E-2    3.123191362967869E-2   -4.922159140195604E-1   -1.457101650205981E-1
 6.501071974975000E9    -4.317434981967700E-1   -3.021970750052980E-1   -1.480022006518068E-2    3.135032058685010E-2   -1.306853440150504E-2    3.147469323870427E-2   -4.925023470270715E-1   -1.446392449899287E-1
 6.501084168950000E9    -4.321720210487742E-1   -3.014611139765900E-1   -1.479311232826685E-2    3.144399811049232E-2   -1.295561729626644E-2    3.165431821841201E-2   -4.927794909238631E-1   -1.435927199697955E-1
 6.501096362925000E9    -4.328669740022962E-1   -3.007077230019504E-1   -1.487049397245932E-2    3.173975578283970E-2   -1.313334227160432E-2    3.175045101180488E-2   -4.931636827339982E-1   -1.423271010062314E-1
 6.501108556900000E9    -4.334068200176406E-1   -2.997104444784723E-1   -1.473139887492293E-2    3.196364711165334E-2   -1.312515607757743E-2    3.199671372349998E-2   -4.933931359354995E-1   -1.410499080327261E-1
 6.501120750875000E9    -4.338937707121875E-1   -2.989084171374063E-1   -1.474799391799407E-2    3.212876102992290E-2   -1.303647849118601E-2    3.217537627292347E-2   -4.935629223400338E-1   -1.400652349558424E-1
 6.501132944850000E9    -4.344574295713758E-1   -2.980849603809604E-1   -1.478032374832055E-2    3.234983384093160E-2   -1.297605416496956E-2    3.238342854667686E-2   -4.938291761581778E-1   -1.386763248672120E-1
 6.501145138825000E9    -4.350958670845560E-1   -2.971182822855019E-1   -1.481965334994175E-2    3.247715555925122E-2   -1.304655324630009E-2    3.260094725398084E-2   -4.941022160119822E-1   -1.375128210621100E-1
 6.501157332800000E9    -4.355514115366669E-1   -2.963062136720991E-1   -1.488567098729469E-2    3.263724407383965E-2   -1.309901380639716E-2    3.280745968368759E-2   -4.943009236748154E-1   -1.364776996463551E-1
 6.501169526775000E9    -4.360586236100616E-1   -2.954782953148314E-1   -1.473416656619890E-2    3.292981801853179E-2   -1.308790471095540E-2    3.300194898563337E-2   -4.946691503219912E-1   -1.352179182525212E-1
 6.501181720750000E9    -4.367605430900464E-1   -2.946872099611001E-1   -1.484564673970860E-2    3.300105442194965E-2   -1.304750858041574E-2    3.317256722281561E-2   -4.948125059096060E-1   -1.340319888867179E-1
 6.501193914725000E9    -4.373353240558338E-1   -2.938406062387823E-1   -1.483981145613102E-2    3.343932530037207E-2   -1.295642228474545E-2    3.341678290502001E-2   -4.952226272787731E-1   -1.328478348628417E-1
 6.501206108700000E9    -4.377970513835532E-1   -2.929241932996828E-1   -1.478497233297123E-2    3.370129813020644E-2   -1.301750768770316E-2    3.347303911467587E-2   -4.953537033525053E-1   -1.316205181006552E-1
 6.501218302675000E9    -4.383269936961636E-1   -2.921500807674809E-1   -1.485906559396754E-2    3.369976520767475E-2   -1.297976499995322E-2    3.382312338702847E-2   -4.956397193536314E-1   -1.303791240703090E-1
 6.501230496650000E9    -4.389067445536029E-1   -2.912035507813302E-1   -1.478890933656342E-2    3.396712430996964E-2   -1.304753811192757E-2    3.395624315755664E-2   -4.959624274243399E-1   -1.292416848098061E-1
 6.501242690625000E9    -4.393746044386211E-1   -2.903448688239249E-1   -1.481551495988240E-2    3.424963144911530E-2   -1.303325003377360E-2    3.427873620337052E-2   -4.960780673540664E-1   -1.280223319080463E-1
 6.501254884600000E9    -4.400211488969186E-1   -2.894732536223856E-1   -1.480661215727351E-2    3.431899855049968E-2   -1.303060082400529E-2    3.439443664423630E-2   -4.962555005311211E-1   -1.268494505846871E-1
 6.501267078575000E9    -4.405006424288508E-1   -2.885423568578076E-1   -1.475068977443422E-2    3.452146041411213E-2   -1.294455508903599E-2    3.457748644002301E-2   -4.965787067644757E-1   -1.254610781040466E-1
 6.501279272550000E9    -4.410184793933749E-1   -2.877412075859743E-1   -1.486132561881831E-2    3.494036963968653E-2   -1.294693981081819E-2    3.482659453084172E-2   -4.967185530676398E-1   -1.242505538724653E-1
 6.501291466525000E9    -4.415715493523115E-1   -2.868849480438174E-1   -1.476249550680747E-2    3.500255728209261E-2   -1.289482368091783E-2    3.507676391536922E-2   -4.970559677822488E-1   -1.231087255205718E-1
 6.501303660500000E9    -4.422318988330629E-1   -2.858858792651520E-1   -1.480478019610985E-2    3.531690405666110E-2   -1.292230310843963E-2    3.526854957608552E-2   -4.973185320426135E-1   -1.218152737413694E-1
 6.501315854475000E9    -4.426878496570525E-1   -2.850484968533351E-1   -1.477312100896472E-2    3.554147919469071E-2   -1.293799632677982E-2    3.549844191135573E-2   -4.975659514324088E-1   -1.206720219681015E-1
 6.501328048450000E9    -4.432284242404395E-1   -2.842315334260955E-1   -1.481395866141364E-2    3.567471422165370E-2   -1.287180002673110E-2    3.565198121371058E-2   -4.977037466878240E-1   -1.194601962947676E-1
 6.501340242425000E9    -4.436945247081886E-1   -2.834051179258543E-1   -1.486613570328498E-2    3.590989716004547E-2   -1.296458086733637E-2    3.594476657222420E-2   -4.979565762868728E-1   -1.179794621315092E-1
 6.501352436400000E9    -4.443127230385790E-1   -2.823689177083626E-1   -1.473936846859853E-2    3.619822000287315E-2   -1.295372254263009E-2    3.612386875103675E-2   -4.982414163669880E-1   -1.167595688000178E-1
 6.501364630375000E9    -4.449068074759449E-1   -2.814218396418147E-1   -1.477318821292509E-2    3.638974247489757E-2   -1.293862298145281E-2    3.634982980119263E-2   -4.983246123169744E-1   -1.156272345822108E-1
 6.501376824350000E9    -4.453762056423990E-1   -2.806889889125553E-1   -1.475283971998477E-2    3.668026920550128E-2   -1.284880764024698E-2    3.661064667787937E-2   -4.986137281160630E-1   -1.142697018563576E-1
 6.501389018325000E9    -4.457359036590790E-1   -2.796338536016313E-1   -1.481670896320753E-2    3.685205424339987E-2   -1.286814596068691E-2    3.686780839204527E-2   -4.988195800972172E-1   -1.130456879768633E-1
 6.501401212300000E9    -4.463119050774638E-1   -2.788568779380075E-1   -1.483161978429092E-2    3.725032966592407E-2   -1.288566797756891E-2    3.709338250746776E-2   -4.989764573106191E-1   -1.117897262209393E-1
 6.501413406275000E9    -4.467922249414412E-1   -2.779226339859439E-1   -1.476070929148512E-2    3.733176525248208E-2   -1.274980327427022E-2    3.730974521415847E-2   -4.991498101045724E-1   -1.103486735844625E-1
 6.501425600250000E9    -4.474603790622017E-1   -2.769998457129937E-1   -1.468590109937050E-2    3.779129342914179E-2   -1.271849783583946E-2    3.759326412244497E-2   -4.994194848733542E-1   -1.091613335968536E-1
 6.501437794225000E9    -4.480164779567928E-1   -2.760586076036586E-1   -1.482341732466592E-2    3.797842773115297E-2   -1.270693665970598E-2    3.784257076359637E-2   -4.994936888394078E-1   -1.080131534444576E-1
 6.501449988200000E9    -4.483713919776280E-1   -2.752740719868020E-1   -1.471294567388182E-2    3.817886898774812E-2   -1.280357360711555E-2    3.810220074398232E-2   -4.997926568078940E-1   -1.065830710072781E-1
 6.501462182175000E9    -4.489489549201541E-1   -2.742155967315287E-1   -1.489359714582889E-2    3.848663898681798E-2   -1.279742091469674E-2    3.828580383221578E-2   -4.998048541362298E-1   -1.053123902201435E-1
 6.501474376150000E9    -4.494924331484247E-1   -2.732883161898517E-1   -1.475618728057853E-2    3.880041668340076E-2   -1.274217903461643E-2    3.853210484594886E-2   -5.000105306407564E-1   -1.039881391801971E-1
 6.501486570125000E9    -4.499249833031466E-1   -2.724376413271030E-1   -1.475016319320214E-2    3.895600635830867E-2   -1.261922108488094E-2    3.885020996487411E-2   -5.002774627225414E-1   -1.026943440545092E-1
 6.501498764100000E9    -4.504203427092342E-1   -2.715870583784536E-1   -1.458188591084184E-2    3.925818513457673E-2   -1.265142230799198E-2    3.912144465670803E-2   -5.004982273813426E-1   -1.015146888269924E-1
 6.501510958075000E9    -4.509581701233569E-1   -2.707071395837407E-1   -1.468218926405022E-2    3.945168768337478E-2   -1.274686523278049E-2    3.935115918355728E-2   -5.006361454446585E-1   -1.000401591814788E-1
 6.501523152050000E9    -4.515720162114600E-1   -2.697011843037230E-1   -1.464970321391402E-2    3.977290815168151E-2   -1.267422890971517E-2    3.965587336221759E-2   -5.007696618159030E-1   -9.869287273591199E-2
 6.501535346025000E9    -4.519393927872821E-1   -2.688023283965967E-1   -1.463158253070184E-2    4.014952082495309E-2   -1.263618585825153E-2    3.998386551553412E-2   -5.009445860628103E-1   -9.740390385268734E-2
 6.501547540000000E9    -4.525777763042896E-1   -2.678879909011019E-1   -1.477848897935747E-2    4.043358094767550E-2   -1.252280472187267E-2    4.014621630895934E-2   -5.011025968760717E-1   -9.606986691176102E-2
 6.501559733975000E9    -4.531879763402211E-1   -2.669545225046461E-1   -1.453847955644854E-2    4.062989121304652E-2   -1.257754655565521E-2    4.045808997800869E-2   -5.011954606389597E-1   -9.469391181908338E-2
 6.501571927950000E9    -4.534966922755111E-1   -2.659985532698902E-1   -1.462253967983805E-2    4.097100046606482E-2   -1.249136970053033E-2    4.076253706184089E-2   -5.015223364748446E-1   -9.340979763929048E-2
 6.501584121925000E9    -4.539727153503992E-1   -2.650068731671986E-1   -1.469718341031257E-2    4.119996188615691E-2   -1.251671000748479E-2    4.106865978883895E-2   -5.016566049246782E-1   -9.211425075651695E-2
 6.501596315900000E9    -4.545714919732243E-1   -2.641265124198896E-1   -1.458580513254755E-2    4.159788172556347E-2   -1.243809895861848E-2    4.128719939130172E-2   -5.016248459707288E-1   -9.072521847610220E-2
 6.501608509875000E9    -4.551175792971903E-1   -2.631883783316001E-1   -1.473216582404149E-2    4.189171211076802E-2   -1.248949627615385E-2    4.152848921182466E-2   -5.018525783272531E-1   -8.935485817419278E-2
 6.501620703850000E9    -4.556240184675986E-1   -2.622867876453858E-1   -1.456330984547488E-2    4.211339337279001E-2   -1.240964018705186E-2    4.190572499889625E-2   -5.019796606569525E-1   -8.793988782636751E-2
 6.501632897825000E9    -4.560282466635519E-1   -2.613168827767686E-1   -1.449517067414940E-2    4.243464990106468E-2   -1.235033420560275E-2    4.212961646045614E-2   -5.021718356161451E-1   -8.644388261063399E-2
 6.501645091800000E9    -4.565180293391233E-1   -2.603548143644206E-1   -1.445839563509506E-2    4.271233133230781E-2   -1.234634960804732E-2    4.244149798397357E-2   -5.022378802358068E-1   -8.510593919203063E-2
 6.501657285775000E9    -4.569866000483566E-1   -2.593374329427277E-1   -1.443110528339214E-2    4.307809837628972E-2   -1.231178204399289E-2    4.273167124179653E-2   -5.024172577431006E-1   -8.376075351161626E-2
 6.501669479750000E9    -4.575762942700936E-1   -2.585867664126795E-1   -1.446663428158823E-2    4.326645827525785E-2   -1.235445592684364E-2    4.307361693996784E-2   -5.023395672637504E-1   -8.240031708261789E-2
 6.501681673725000E9    -4.580458310789288E-1   -2.575951781608711E-1   -1.443290845070124E-2    4.369334937300094E-2   -1.235046733881026E-2    4.344232985424212E-2   -5.026771388894116E-1   -8.093277802239734E-2
 6.501693867700000E9    -4.584456103388478E-1   -2.565908759821213E-1   -1.436159589269477E-2    4.394179334838197E-2   -1.221486616590669E-2    4.372279397116350E-2   -5.027436718153171E-1   -7.946262573970975E-2
 6.501706061675000E9    -4.591232053852173E-1   -2.556074558844501E-1   -1.439438708975652E-2    4.434467799998858E-2   -1.226143821042200E-2    4.408440977941696E-2   -5.028638509448130E-1   -7.804775565742751E-2
 6.501718255650000E9    -4.593940038761710E-1   -2.546449101974780E-1   -1.442972582508321E-2    4.455619443208891E-2   -1.224351875201210E-2    4.430342056216887E-2   -5.029226224895157E-1   -7.649159048601388E-2
 6.501730449625000E9    -4.599730238438172E-1   -2.536268571112260E-1   -1.445461134980893E-2    4.495981380125475E-2   -1.218954319476659E-2    4.475804405487286E-2   -5.029554490667951E-1   -7.512209931524361E-2
 6.501742643600000E9    -4.604487403061570E-1   -2.526137026612704E-1   -1.439420988866692E-2    4.533298252562134E-2   -1.213974542998627E-2    4.501894138955353E-2   -5.031670871330642E-1   -7.382443663403775E-2
 6.501754837575000E9    -4.609944448486489E-1   -2.516377080299213E-1   -1.431715843870115E-2    4.565943815997356E-2   -1.210122844437982E-2    4.533907560109710E-2   -5.033375224978002E-1   -7.243171993207292E-2
 6.501767031550000E9    -4.613138670951978E-1   -2.507856452074669E-1   -1.437831940630178E-2    4.604262065161917E-2   -1.208829140996743E-2    4.561708773878573E-2   -5.032858235798267E-1   -7.083437601567241E-2
 6.501779225525000E9    -4.618853565206880E-1   -2.497740527796699E-1   -1.430283996566276E-2    4.628038078198757E-2   -1.193361239334855E-2    4.610518840669570E-2   -5.034119610127703E-1   -6.933564889535392E-2
 6.501791419500000E9    -4.622976139110982E-1   -2.486777746033457E-1   -1.429417994498418E-2    4.682993991789965E-2   -1.191989154911082E-2    4.646133350611586E-2   -5.034208075284849E-1   -6.790599391269853E-2
 6.501803613475000E9    -4.628106270601968E-1   -2.478000408262416E-1   -1.432053584106764E-2    4.718418660777463E-2   -1.187957263531297E-2    4.676813656158713E-2   -5.034163838836032E-1   -6.632044022682523E-2
 6.501815807450000E9    -4.632439612916723E-1   -2.467122641283903E-1   -1.410311831274824E-2    4.749217286555352E-2   -1.187477056925575E-2    4.709573976299768E-2   -5.036885529899547E-1   -6.481079252630816E-2
 6.501828001425000E9    -4.637356293740540E-1   -2.458358075070989E-1   -1.415153746051566E-2    4.783851750047582E-2   -1.193541422658449E-2    4.748239863566778E-2   -5.036510977737931E-1   -6.341046372602792E-2
 6.501840195400000E9    -4.643964297987480E-1   -2.448721660128260E-1   -1.393848549818761E-2    4.812432805740107E-2   -1.175280355095810E-2    4.787993580083902E-2   -5.037918186841888E-1   -6.191038960676522E-2
 6.501852389375000E9    -4.647762541751708E-1   -2.437982999836040E-1   -1.408773151200647E-2    4.864142305114379E-2   -1.169772204007043E-2    4.822047208529648E-2   -5.038175871264083E-1   -6.031430346139267E-2
 6.501864583350000E9    -4.650753897598117E-1   -2.426348571531348E-1   -1.400574843625950E-2    4.911025626011187E-2   -1.161696845011705E-2    4.860287662626820E-2   -5.037896353106582E-1   -5.883960808503123E-2
 6.501876777325000E9    -4.656522412980123E-1   -2.418317710888975E-1   -1.403187992662156E-2    4.931775423567553E-2   -1.168490596553752E-2    4.895319398281377E-2   -5.039096449042564E-1   -5.715169409479549E-2
 6.501888971300000E9    -4.660433719434450E-1   -2.406930570288071E-1   -1.400393993433481E-2    4.977330514367360E-2   -1.160836918256747E-2    4.936025475601451E-2   -5.038171204786286E-1   -5.575858912048889E-2
 6.501901165275000E9    -4.664909318553822E-1   -2.397925693888531E-1   -1.392910075767779E-2    5.028830949914258E-2   -1.146817263769555E-2    4.981507420081474E-2   -5.040446622394160E-1   -5.412288727480603E-2
 6.501913359250000E9    -4.669632102458888E-1   -2.386899852316031E-1   -1.391297271170277E-2    5.068854628008723E-2   -1.153507112022810E-2    5.022204864189284E-2   -5.040476509049521E-1   -5.253932514645179E-2
 6.501925553225000E9    -4.673356529987825E-1   -2.376408356933871E-1   -1.381101617970811E-2    5.100029455474440E-2   -1.142166025798011E-2    5.056063065583917E-2   -5.040721278395269E-1   -5.094921210451383E-2
 6.501937747200000E9    -4.678799170485766E-1   -2.367200552495216E-1   -1.379365708478801E-2    5.153934949508083E-2   -1.126530496849301E-2    5.095492089442172E-2   -5.041295271302211E-1   -4.936975850324505E-2
 6.501949941175000E9    -4.682053981204564E-1   -2.355910714408072E-1   -1.383867118292169E-2    5.196429700608598E-2   -1.121564737662649E-2    5.140624489915511E-2   -5.037991999992175E-1   -4.777233482937547E-2
 6.501962135150000E9    -4.687330438287583E-1   -2.346502528518420E-1   -1.368806876789830E-2    5.224669834913588E-2   -1.128265752548716E-2    5.185996596398144E-2   -5.039285806807766E-1   -4.627498945116666E-2
 6.501974329125000E9    -4.693404887283069E-1   -2.335899138980742E-1   -1.375768831735845E-2    5.276458090708380E-2   -1.113027802926449E-2    5.219446064407182E-2   -5.040270340245330E-1   -4.449562848501015E-2
 6.501986523100000E9    -4.697049938367184E-1   -2.325594482047780E-1   -1.356046585452459E-2    5.326405120146517E-2   -1.107074421316373E-2    5.268332706497929E-2   -5.039340466613131E-1   -4.297722032836525E-2
 6.501998717075000E9    -4.701397789191148E-1   -2.313206114329646E-1   -1.352504497379433E-2    5.377820909325173E-2   -1.097443797176996E-2    5.311952324958513E-2   -5.038586207010179E-1   -4.135272628990763E-2
 6.502010911050000E9    -4.705480322699545E-1   -2.304552964405238E-1   -1.340868716746202E-2    5.412890042417391E-2   -1.091955245478376E-2    5.359849013116693E-2   -5.037848053319570E-1   -3.958392758681636E-2
 6.502023105025000E9    -4.709369356639650E-1   -2.293483302602025E-1   -1.345525791634849E-2    5.467709117266383E-2   -1.082091385081447E-2    5.392192863317122E-2   -5.037386517977545E-1   -3.798163133397315E-2
 6.502035299000000E9    -4.715073438971223E-1   -2.282598101513071E-1   -1.343399728954881E-2    5.508148978199966E-2   -1.079029033256988E-2    5.457125117143529E-2   -5.038364158698531E-1   -3.630696064662813E-2
 6.502047492975000E9    -4.718823306144457E-1   -2.271728016792506E-1   -1.335266485094948E-2    5.559241083519168E-2   -1.077204628723371E-2    5.498117827789607E-2   -5.037213718790594E-1   -3.467513567373876E-2
 6.502059686950000E9    -4.722589711536703E-1   -2.261953827504535E-1   -1.327374775614517E-2    5.609265111573406E-2   -1.057909435095394E-2    5.547949603560096E-2   -5.037554399783619E-1   -3.289917079173159E-2
 6.502071880925000E9    -4.726860575356729E-1   -2.251014807873094E-1   -1.315825344263537E-2    5.664838809606794E-2   -1.049820511689732E-2    5.593153043710077E-2   -5.036317632635905E-1   -3.120871240306617E-2
 6.502084074900000E9    -4.731667507838115E-1   -2.239256385326402E-1   -1.308572252359070E-2    5.711795149044362E-2   -1.038112107746420E-2    5.640973931259102E-2   -5.034084925566303E-1   -2.941596659872867E-2
 6.502096268875000E9    -4.736008111252239E-1   -2.229323879610397E-1   -1.306071396985257E-2    5.768835519250717E-2   -1.033409301115018E-2    5.699648300905336E-2   -5.034217406569040E-1   -2.781653301018459E-2
 6.502108462850000E9    -4.739591588842842E-1   -2.218555435941220E-1   -1.288471369788850E-2    5.813309112246273E-2   -1.031655282296825E-2    5.745142995615467E-2   -5.033695181653133E-1   -2.590433747482024E-2
 6.502120656825000E9    -4.744590148551194E-1   -2.207101786787639E-1   -1.287403104178219E-2    5.865178851902823E-2   -1.017341597728145E-2    5.803325014575968E-2   -5.032369738227150E-1   -2.410923251283133E-2
 6.502132850800000E9    -4.748836528067976E-1   -2.195231717514317E-1   -1.270572002889741E-2    5.930265025884312E-2   -1.008635699596140E-2    5.849959169061728E-2   -5.030990412253691E-1   -2.231320886981283E-2
 6.502145044775000E9    -4.751781980120767E-1   -2.185314837123404E-1   -1.274341799577064E-2    5.996649195636911E-2   -9.975036434966427E-3    5.907743185897947E-2   -5.030326224848827E-1   -2.053790310588649E-2
 6.502157238750000E9    -4.756788377332486E-1   -2.172304615600943E-1   -1.253981388687440E-2    6.038728089704538E-2   -9.806900206903110E-3    5.955157905312140E-2   -5.028926464503740E-1   -1.878057942905223E-2
