#  HZ   S   RI   R     50.00 
! Rohde & Schwarz Vector Network Analyzer 
! Rohde-Schwarz,ZNB20-2Port,1311601062101988,3.16
! Created: UTC 3/20/2024, 12:01:46 PM
! freq[Hz]                re:S11                  im:S11                  re:S21                  im:S21                  re:S12                  im:S12                  re:S22                  im:S22
 6.501060847000000E9    -4.312258760210286E-1   -3.031062616856981E-1   -1.482391105733354E-2    3.105116267299647E-2   -1.314708276238856E-2    3.115972346283392E-2   -4.922555068265242E-1   -1.458147116258733E-1
 6.501073039075000E9    -4.317112997918159E-1   -3.023394356769267E-1   -1.471362286046039E-2    3.129706316231715E-2   -1.313480434978904E-2    3.151815829784900E-2   -4.925984105577347E-1   -1.445305364475107E-1
 6.501085231150000E9    -4.322652088490716E-1   -3.014405641508296E-1   -1.466329386359585E-2    3.149431490894651E-2   -1.305443828923233E-2    3.165965326731659E-2   -4.926994909870413E-1   -1.434940729316001E-1
 6.501097423225000E9    -4.328141582220408E-1   -3.005837902175169E-1   -1.488276132290352E-2    3.174549687687734E-2   -1.314190863468635E-2    3.194369331105212E-2   -4.932243409206218E-1   -1.421516196057704E-1
 6.501109615300000E9    -4.333718905872583E-1   -2.997977678842313E-1   -1.491309158470738E-2    3.191935463873342E-2   -1.313029133916931E-2    3.198801269395948E-2   -4.934375330526592E-1   -1.410610449230337E-1
 6.501121807375000E9    -4.339284695478062E-1   -2.989804001523223E-1   -1.482985678072001E-2    3.209854906897982E-2   -1.320379765545839E-2    3.222141421949969E-2   -4.936874076827293E-1   -1.399291426498269E-1
 6.501133999450000E9    -4.344398077967083E-1   -2.980635667612146E-1   -1.480232514388835E-2    3.227273538019444E-2   -1.309663745531600E-2    3.237141912166602E-2   -4.938276895390021E-1   -1.387481839190094E-1
 6.501146191525000E9    -4.350639072653117E-1   -2.972063612370022E-1   -1.484776002984702E-2    3.251057460513070E-2   -1.298029735069823E-2    3.269665779751110E-2   -4.940028386904578E-1   -1.375284584427496E-1
 6.501158383600000E9    -4.355444769132327E-1   -2.963696991060392E-1   -1.473323960035399E-2    3.264515579932204E-2   -1.311271033049081E-2    3.279490969990032E-2   -4.943797158894173E-1   -1.363635625852483E-1
 6.501170575675000E9    -4.361124042773745E-1   -2.955791073681360E-1   -1.489803424324839E-2    3.298823631451560E-2   -1.309193539733104E-2    3.300492369871821E-2   -4.947327253599507E-1   -1.351952425821325E-1
 6.501182767750000E9    -4.367119243513286E-1   -2.946220100879956E-1   -1.489039056938596E-2    3.308927327244571E-2   -1.303669560347396E-2    3.312556727558277E-2   -4.948319433656487E-1   -1.338700448757433E-1
 6.501194959825000E9    -4.372702372777018E-1   -2.937502640968361E-1   -1.488665265510973E-2    3.329391611089854E-2   -1.304022716271025E-2    3.331665322586069E-2   -4.952620965335537E-1   -1.327332814920478E-1
 6.501207151900000E9    -4.376772875188800E-1   -2.927876279485805E-1   -1.488130367114002E-2    3.356602835802017E-2   -1.297576910282380E-2    3.347857741752839E-2   -4.953125274035882E-1   -1.315730586023979E-1
 6.501219343975000E9    -4.383299482869321E-1   -2.920558492755533E-1   -1.488562000112268E-2    3.372795790215313E-2   -1.300610817333450E-2    3.378708517525731E-2   -4.956465101495116E-1   -1.302433506527166E-1
 6.501231536050000E9    -4.389527080330480E-1   -2.912023508511718E-1   -1.466515914714494E-2    3.409304221109431E-2   -1.297294938645547E-2    3.398061958380998E-2   -4.957558058576143E-1   -1.291451729444461E-1
 6.501243728125000E9    -4.394280689503812E-1   -2.903477108929005E-1   -1.490044091523829E-2    3.422291489807337E-2   -1.300830369945266E-2    3.413130850272333E-2   -4.961472363016995E-1   -1.278684408575630E-1
 6.501255920200000E9    -4.399339344830768E-1   -2.894044724128123E-1   -1.474085948333212E-2    3.442356026609614E-2   -1.300192479269289E-2    3.446066099894968E-2   -4.962995064505701E-1   -1.267588388012610E-1
 6.501268112275000E9    -4.404227014003542E-1   -2.885480832433242E-1   -1.479048651230861E-2    3.456147795054243E-2   -1.303588039681529E-2    3.462588079835279E-2   -4.965799539094587E-1   -1.255175429670622E-1
 6.501280304350000E9    -4.410346354658402E-1   -2.876166645291804E-1   -1.462082808768226E-2    3.487280633172885E-2   -1.304827480388322E-2    3.485289904504505E-2   -4.967446614009787E-1   -1.243513956570251E-1
 6.501292496425000E9    -4.415295031312654E-1   -2.868772222741865E-1   -1.479757891558014E-2    3.509960676715778E-2   -1.299285430415762E-2    3.501818306903791E-2   -4.968922161640137E-1   -1.229388241265481E-1
 6.501304688500000E9    -4.420796217286451E-1   -2.858565234955492E-1   -1.484961482015959E-2    3.532727167148327E-2   -1.283478477485500E-2    3.528829210102460E-2   -4.972929070277296E-1   -1.219122768306352E-1
 6.501316880575000E9    -4.426188254724934E-1   -2.851077572794286E-1   -1.479443077184902E-2    3.540528002676948E-2   -1.297824228002903E-2    3.543296883547302E-2   -4.974170499550769E-1   -1.205916640541834E-1
 6.501329072650000E9    -4.431729774162879E-1   -2.840951988271364E-1   -1.480705816360223E-2    3.575997497046397E-2   -1.284969061272397E-2    3.563356560309458E-2   -4.976100129671229E-1   -1.192770565790382E-1
 6.501341264725000E9    -4.437435547762331E-1   -2.833986636308452E-1   -1.473470224944951E-2    3.588542369389972E-2   -1.281730278143136E-2    3.600780518804880E-2   -4.978675870924801E-1   -1.178692192095893E-1
 6.501353456800000E9    -4.442764554352026E-1   -2.824806973285606E-1   -1.470470305654672E-2    3.613121086193238E-2   -1.288947703631975E-2    3.606885355703590E-2   -4.981309729009061E-1   -1.169044389777168E-1
 6.501365648875000E9    -4.447770733941369E-1   -2.814633402958175E-1   -1.486644231753327E-2    3.647008821912862E-2   -1.286322110302042E-2    3.637588004113153E-2   -4.982147782186958E-1   -1.156081697240608E-1
 6.501377840950000E9    -4.453120029839237E-1   -2.805758396800849E-1   -1.492032295491427E-2    3.671168078375272E-2   -1.291321982093654E-2    3.664187157734688E-2   -4.986078408121885E-1   -1.141949316547553E-1
 6.501390033025000E9    -4.458160023498481E-1   -2.797706429348940E-1   -1.466541842814892E-2    3.705482426426820E-2   -1.281229961865506E-2    3.685665683929990E-2   -4.987305140830307E-1   -1.130025545106457E-1
 6.501402225100000E9    -4.462768963178397E-1   -2.789679888795115E-1   -1.474677017530292E-2    3.704195488151080E-2   -1.285522872778155E-2    3.702533418353146E-2   -4.989468191430873E-1   -1.115809850496016E-1
 6.501414417175000E9    -4.468957907159858E-1   -2.779051784342954E-1   -1.470898530867154E-2    3.745474293688860E-2   -1.278223791471639E-2    3.739661348403175E-2   -4.991735318230886E-1   -1.104680792225320E-1
 6.501426609250000E9    -4.474287952052186E-1   -2.771023619191129E-1   -1.470168465706468E-2    3.758500914247463E-2   -1.279359280622025E-2    3.751003289308135E-2   -4.992766211948730E-1   -1.091653341997874E-1
 6.501438801325000E9    -4.478802687280070E-1   -2.761102739480350E-1   -1.472686429427121E-2    3.796195221945554E-2   -1.281894498899307E-2    3.788724747619585E-2   -4.994177477014562E-1   -1.078738193278205E-1
 6.501450993400000E9    -4.483570786869745E-1   -2.752551960829579E-1   -1.480368725861507E-2    3.824628611828512E-2   -1.268321040315479E-2    3.814653259976823E-2   -4.997828656355519E-1   -1.066454867733500E-1
 6.501463185475000E9    -4.489304866405285E-1   -2.743503342131732E-1   -1.464569044879371E-2    3.842302366535623E-2   -1.283598208427345E-2    3.840141866500651E-2   -4.998370209235201E-1   -1.052248453166738E-1
 6.501475377550000E9    -4.494198113949247E-1   -2.734196152115711E-1   -1.476439487773164E-2    3.874446146436195E-2   -1.269142556785031E-2    3.853336485124322E-2   -5.000667621089077E-1   -1.040464309890710E-1
 6.501487569625000E9    -4.499681466570824E-1   -2.725126683145034E-1   -1.478282354311837E-2    3.886475898873375E-2   -1.272928790734148E-2    3.885474728475730E-2   -5.003295630230827E-1   -1.025649139762079E-1
 6.501499761700000E9    -4.505274537187028E-1   -2.716131990361542E-1   -1.470487170330086E-2    3.922872564202856E-2   -1.264818436366194E-2    3.910798101336847E-2   -5.004485000975804E-1   -1.012905712215736E-1
 6.501511953775000E9    -4.510349672911518E-1   -2.707174767531164E-1   -1.477689692105505E-2    3.956130987108825E-2   -1.267222237218230E-2    3.932846241086602E-2   -5.004600149176797E-1   -1.000498074224290E-1
 6.501524145850000E9    -4.515133951416546E-1   -2.697618021985171E-1   -1.470998364120210E-2    3.979045431958415E-2   -1.263793519400518E-2    3.960444293188048E-2   -5.007715726880210E-1   -9.863641646745680E-2
 6.501536337925000E9    -4.519975223767149E-1   -2.688890437425241E-1   -1.478638970373951E-2    4.011227448923324E-2   -1.265137435801786E-2    3.988355367976765E-2   -5.007832829955040E-1   -9.731238770903362E-2
 6.501548530000000E9    -4.525507960029156E-1   -2.679716711672349E-1   -1.454499187896388E-2    4.027721335899299E-2   -1.258345397867690E-2    4.016734548048902E-2   -5.011932316199339E-1   -9.602858288143158E-2
 6.501560722075000E9    -4.529805109723906E-1   -2.670378158972208E-1   -1.469180725527990E-2    4.069552927866549E-2   -1.271061670110210E-2    4.059451665565833E-2   -5.013753560556863E-1   -9.468020806538975E-2
 6.501572914150000E9    -4.534962297596293E-1   -2.660005349751720E-1   -1.459957037070787E-2    4.084521177434354E-2   -1.265853855793606E-2    4.068792434808199E-2   -5.013819269674664E-1   -9.328779688395657E-2
 6.501585106225000E9    -4.539265961051361E-1   -2.651548859871348E-1   -1.465796400445097E-2    4.120304807795806E-2   -1.256853982995135E-2    4.104630325762223E-2   -5.014242191976682E-1   -9.191256694362218E-2
 6.501597298300000E9    -4.545751268381245E-1   -2.641544753418308E-1   -1.480067001276216E-2    4.133371481304775E-2   -1.247724499053615E-2    4.127733928707941E-2   -5.016876806852979E-1   -9.051493132414890E-2
 6.501609490375000E9    -4.550366292120246E-1   -2.633241803986870E-1   -1.458394758852511E-2    4.189534809640013E-2   -1.249790246995799E-2    4.156795795884313E-2   -5.017599652638993E-1   -8.920395519498801E-2
 6.501621682450000E9    -4.555454564317045E-1   -2.622785605454062E-1   -1.462144377654409E-2    4.201951951400612E-2   -1.239731615256809E-2    4.187079278890987E-2   -5.019157281375090E-1   -8.784336864481425E-2
 6.501633874525000E9    -4.560800328651742E-1   -2.612181901924382E-1   -1.446930669962136E-2    4.246653969215564E-2   -1.245688676318431E-2    4.220329831392146E-2   -5.023054311068803E-1   -8.637603522506067E-2
 6.501646066600000E9    -4.565638768922126E-1   -2.603888182392574E-1   -1.451462952608859E-2    4.275776523572462E-2   -1.230417510236888E-2    4.239988105776570E-2   -5.022578602952236E-1   -8.507584483576568E-2
 6.501658258675000E9    -4.570218819956375E-1   -2.595117352111818E-1   -1.451254779893081E-2    4.298652479188435E-2   -1.237803815848189E-2    4.281292454086293E-2   -5.023577364852948E-1   -8.359322787029373E-2
 6.501670450750000E9    -4.575469878557998E-1   -2.584964106395415E-1   -1.441659741670298E-2    4.333360747988935E-2   -1.241503859982018E-2    4.305939236324705E-2   -5.024705262633026E-1   -8.220019025461227E-2
 6.501682642825000E9    -4.579889185619919E-1   -2.575125787059860E-1   -1.447258460104545E-2    4.375831151488295E-2   -1.225659366173897E-2    4.346291281442898E-2   -5.026471229883884E-1   -8.083306262076655E-2
 6.501694834900000E9    -4.584670033918052E-1   -2.565973159854083E-1   -1.447990788873258E-2    4.405190438975824E-2   -1.233718015916867E-2    4.371863403009047E-2   -5.027724551086407E-1   -7.939881349064386E-2
 6.501707026975000E9    -4.589359380170190E-1   -2.555545812340659E-1   -1.445869898762121E-2    4.426493634094908E-2   -1.230043409729752E-2    4.402227551221227E-2   -5.026833665627096E-1   -7.802395499450700E-2
 6.501719219050000E9    -4.594361895106518E-1   -2.545581434235218E-1   -1.440912347233318E-2    4.479255263732239E-2   -1.229488387193767E-2    4.431164595137500E-2   -5.028278931044099E-1   -7.652877685265780E-2
 6.501731411125000E9    -4.599476789736667E-1   -2.536935104503732E-1   -1.432018365296982E-2    4.497230032423544E-2   -1.221723295839196E-2    4.464350490468326E-2   -5.029952211133580E-1   -7.524673452103262E-2
 6.501743603200000E9    -4.604129236373958E-1   -2.526838663380949E-1   -1.435829859194790E-2    4.541821094565931E-2   -1.213239289249274E-2    4.503020405027995E-2   -5.031710717865955E-1   -7.373776619313539E-2
 6.501755795275000E9    -4.608600584786839E-1   -2.517570949607564E-1   -1.433206428001453E-2    4.569773065293969E-2   -1.200831874785489E-2    4.538729036325045E-2   -5.032004390382140E-1   -7.228668457744429E-2
 6.501767987350000E9    -4.613792506490403E-1   -2.505869843687139E-1   -1.435010534168822E-2    4.596607096860725E-2   -1.201264645679353E-2    4.575107384964704E-2   -5.034273664825158E-1   -7.095308151518906E-2
 6.501780179425000E9    -4.620164278832309E-1   -2.497550156937513E-1   -1.430704522092442E-2    4.641276116624918E-2   -1.198097265826294E-2    4.609268674411813E-2   -5.033029836201131E-1   -6.937942882460216E-2
 6.501792371500000E9    -4.624270108534517E-1   -2.487372105346976E-1   -1.440343472391513E-2    4.684892027752081E-2   -1.202609110238198E-2    4.634187644277456E-2   -5.034660791396777E-1   -6.785520027277477E-2
 6.501804563575000E9    -4.628022908126848E-1   -2.477429733759803E-1   -1.417172008486918E-2    4.704665687926000E-2   -1.182710079321416E-2    4.676537491796089E-2   -5.035959808169417E-1   -6.627888677576725E-2
 6.501816755650000E9    -4.633633401903201E-1   -2.468525588606185E-1   -1.407521318049594E-2    4.749840756409755E-2   -1.180333139599826E-2    4.713896991074851E-2   -5.036068204720467E-1   -6.485036526933582E-2
 6.501828947725000E9    -4.638424371642639E-1   -2.458199952045474E-1   -1.423317360189962E-2    4.786741920382226E-2   -1.181760856625710E-2    4.745529765388461E-2   -5.036517639062033E-1   -6.341760701133412E-2
 6.501841139800000E9    -4.642107194521561E-1   -2.448150939846596E-1   -1.424879600616487E-2    4.818170821991340E-2   -1.185816780471293E-2    4.789551243943015E-2   -5.038971130561428E-1   -6.168884161795820E-2
 6.501853331875000E9    -4.646751141814754E-1   -2.438190419895174E-1   -1.410976530335158E-2    4.862176546153892E-2   -1.175455413539590E-2    4.813134525810538E-2   -5.038421637015896E-1   -6.040651629696518E-2
 6.501865523950000E9    -4.651748121913458E-1   -2.428798744981118E-1   -1.406884458691804E-2    4.892915259366789E-2   -1.173727047575785E-2    4.861411843905842E-2   -5.038546029505405E-1   -5.880900346713568E-2
 6.501877716025000E9    -4.656076031345665E-1   -2.417376349230242E-1   -1.395903954320514E-2    4.942803312193336E-2   -1.157832224529111E-2    4.895181620813154E-2   -5.037544986576842E-1   -5.724360354307664E-2
 6.501889908100000E9    -4.661714834878976E-1   -2.407877597676925E-1   -1.398975809627202E-2    5.000801748458261E-2   -1.156496666289872E-2    4.936902088143150E-2   -5.038516110688580E-1   -5.571579551623068E-2
 6.501902100175000E9    -4.665562870920220E-1   -2.397226245135737E-1   -1.394932935457382E-2    5.030307657629780E-2   -1.154036763955122E-2    4.977147710970031E-2   -5.040055513753691E-1   -5.415997344777414E-2
 6.501914292250000E9    -4.670568693111637E-1   -2.387862175072256E-1   -1.381101682504278E-2    5.069372155733005E-2   -1.141518452819099E-2    5.006892678637567E-2   -5.038168752964124E-1   -5.268741614260290E-2
 6.501926484325000E9    -4.675270975298177E-1   -2.376736949455252E-1   -1.392551033286778E-2    5.102650465605429E-2   -1.139660632316811E-2    5.058680897556717E-2   -5.038835175402803E-1   -5.089012168975011E-2
 6.501938676400000E9    -4.679004881963417E-1   -2.367146690466092E-1   -1.363779940295217E-2    5.148294445010704E-2   -1.133936274727848E-2    5.096148687239532E-2   -5.038470818604014E-1   -4.938003199528945E-2
 6.501950868475000E9    -4.682923662962185E-1   -2.355931695192605E-1   -1.371653028517235E-2    5.190010699514918E-2   -1.136112851112312E-2    5.138398112910248E-2   -5.040760046236210E-1   -4.789101891286298E-2
 6.501963060550000E9    -4.687590810924033E-1   -2.345349644610914E-1   -1.366313471497934E-2    5.229742317558809E-2   -1.118856120000261E-2    5.180624070041877E-2   -5.039116531697005E-1   -4.615041303287020E-2
 6.501975252625000E9    -4.692406111849456E-1   -2.336615889375107E-1   -1.362462548697541E-2    5.288641476002928E-2   -1.114540880463351E-2    5.217574726045730E-2   -5.039633541273476E-1   -4.460105692492944E-2
 6.501987444700000E9    -4.696160172517231E-1   -2.325256762110096E-1   -1.351589673086390E-2    5.329554053970431E-2   -1.099340849423041E-2    5.271290008719062E-2   -5.039618834962416E-1   -4.290138682816133E-2
 6.501999636775000E9    -4.701131801159277E-1   -2.315005101933062E-1   -1.348631683952543E-2    5.382980934974237E-2   -1.108119397755767E-2    5.315085085387018E-2   -5.039857819557074E-1   -4.128132820329149E-2
 6.502011828850000E9    -4.705116958879293E-1   -2.303905080450807E-1   -1.345489488678313E-2    5.425220430169959E-2   -1.094791494864789E-2    5.355061837289579E-2   -5.038022304629399E-1   -3.962589557626875E-2
 6.502024020925000E9    -4.710223646071391E-1   -2.292513302546147E-1   -1.339764062358949E-2    5.462307198216587E-2   -1.085117592118821E-2    5.409430280528282E-2   -5.038877843347909E-1   -3.796869065293723E-2
 6.502036213000000E9    -4.714803783899991E-1   -2.282512454058916E-1   -1.341507241729119E-2    5.521978576834265E-2   -1.079458773996810E-2    5.449960412929106E-2   -5.037631679964669E-1   -3.628612485660727E-2
 6.502048405075000E9    -4.719119661101230E-1   -2.271907740450532E-1   -1.328977360130618E-2    5.547450028320910E-2   -1.078089235711993E-2    5.495053319235581E-2   -5.035475608483445E-1   -3.468200006059858E-2
 6.502060597150000E9    -4.722342855957969E-1   -2.261521086565993E-1   -1.322224208601820E-2    5.617068449930784E-2   -1.063164894074395E-2    5.541916336284776E-2   -5.037137505386559E-1   -3.280061296354507E-2
 6.502072789225000E9    -4.726916332830242E-1   -2.251040565932584E-1   -1.325287497464619E-2    5.673838876816333E-2   -1.051609384765325E-2    5.602953174856494E-2   -5.036685670323778E-1   -3.121029325376433E-2
 6.502084981300000E9    -4.731360925055405E-1   -2.240752230942437E-1   -1.318436206003379E-2    5.712635456576418E-2   -1.051037600535062E-2    5.646332562708546E-2   -5.035757669405131E-1   -2.943024308111597E-2
 6.502097173375000E9    -4.735522112676408E-1   -2.229436315208080E-1   -1.309964310055926E-2    5.764339259260437E-2   -1.034340143243864E-2    5.690159864283744E-2   -5.034146428019758E-1   -2.776450310891292E-2
 6.502109365450000E9    -4.739392233347362E-1   -2.218106206246709E-1   -1.298663225167410E-2    5.810419800555444E-2   -1.023520176963104E-2    5.745454592489756E-2   -5.033332526911241E-1   -2.600689697669981E-2
 6.502121557525000E9    -4.743578758180806E-1   -2.206765737700801E-1   -1.282575977585564E-2    5.891165495797716E-2   -1.019981557052477E-2    5.806574150121525E-2   -5.032830888009632E-1   -2.398008428196430E-2
 6.502133749600000E9    -4.748340480516622E-1   -2.195636861284329E-1   -1.272101840194070E-2    5.929634331421058E-2   -1.013218425472643E-2    5.850928335852990E-2   -5.031022356943302E-1   -2.244294199957023E-2
 6.502145941675000E9    -4.752244065339044E-1   -2.184429834526151E-1   -1.254441271184347E-2    5.975099884629010E-2   -1.002592385292575E-2    5.904958243523464E-2   -5.030700780644184E-1   -2.056463685591269E-2
 6.502158133750000E9    -4.756311696922444E-1   -2.172358706188907E-1   -1.262807835866336E-2    6.046296733564444E-2   -9.846200591024038E-3    5.956661169289796E-2   -5.029127734828082E-1   -1.852815812590405E-2
