#  HZ   S   RI   R     50.00 
! Rohde & Schwarz Vector Network Analyzer 
! Rohde-Schwarz,ZNB20-2Port,1311601062101988,3.16
! Created: UTC 3/20/2024, 12:02:03 PM
! freq[Hz]                re:S11                  im:S11                  re:S21                  im:S21                  re:S12                  im:S12                  re:S22                  im:S22
 6.501073575000000E9    -4.318046098503217E-1   -3.020797724702852E-1   -1.478978541282366E-2    3.118597684757551E-2   -1.303427863744089E-2    3.139274586158702E-2   -4.924798495696546E-1   -1.445752654069342E-1
 6.501085724150000E9    -4.323307412384739E-1   -3.012405827449891E-1   -1.476392714183574E-2    3.151810759143530E-2   -1.316436746222016E-2    3.156334033663270E-2   -4.928231101347865E-1   -1.435406759247185E-1
 6.501097873300000E9    -4.328839690678107E-1   -3.003230242879718E-1   -1.467869294257610E-2    3.176542804627547E-2   -1.310876425431817E-2    3.182011770961893E-2   -4.929945026616099E-1   -1.422515877359533E-1
 6.501110022450000E9    -4.335718596387645E-1   -2.995471443313972E-1   -1.482971214678418E-2    3.193051405916095E-2   -1.306786486311390E-2    3.193995324021993E-2   -4.933123339296047E-1   -1.410813127446848E-1
 6.501122171600000E9    -4.339540445597843E-1   -2.987384671284689E-1   -1.481978149570455E-2    3.208239057222066E-2   -1.300176056791804E-2    3.215356657404398E-2   -4.935947391321983E-1   -1.399532467248562E-1
 6.501134320750000E9    -4.345304349865443E-1   -2.978116078731311E-1   -1.485666081932709E-2    3.222938672157647E-2   -1.303588459181893E-2    3.229668591348027E-2   -4.937548749422166E-1   -1.388269026059325E-1
 6.501146469900000E9    -4.351904779476876E-1   -2.968979213217074E-1   -1.481677304388230E-2    3.254642319145021E-2   -1.306582929250452E-2    3.254302857490700E-2   -4.941380387123331E-1   -1.376268112572791E-1
 6.501158619050000E9    -4.356638220459328E-1   -2.961161932126729E-1   -1.484729197704936E-2    3.256234378594370E-2   -1.304267470164575E-2    3.266341417494383E-2   -4.941763374993273E-1   -1.365259557611372E-1
 6.501170768200000E9    -4.363030360477186E-1   -2.952824927741247E-1   -1.476846556732259E-2    3.291481209408984E-2   -1.302603853092698E-2    3.285690072975632E-2   -4.945831639870447E-1   -1.352265442555426E-1
 6.501182917350000E9    -4.367978944834044E-1   -2.943146907604824E-1   -1.474871250349552E-2    3.314513835464714E-2   -1.308253027894977E-2    3.307766174170844E-2   -4.947833200689257E-1   -1.340680518262775E-1
 6.501195066500000E9    -4.373561789694873E-1   -2.934757635324613E-1   -1.492882744004675E-2    3.335389850545812E-2   -1.305996912486912E-2    3.331083397869925E-2   -4.950258286067552E-1   -1.330465636715848E-1
 6.501207215650000E9    -4.378209814412345E-1   -2.926406157360654E-1   -1.480689004914737E-2    3.350706639276228E-2   -1.287744483741634E-2    3.348981198241627E-2   -4.954331177549373E-1   -1.317113446824106E-1
 6.501219364800000E9    -4.384054301069655E-1   -2.918346274135704E-1   -1.483712426558625E-2    3.354918475550845E-2   -1.304328802925298E-2    3.377020901366434E-2   -4.955389749215573E-1   -1.305804232249867E-1
 6.501231513950000E9    -4.390214812197898E-1   -2.910074354817446E-1   -1.479803138998345E-2    3.382512629560953E-2   -1.301198639069400E-2    3.390711451885730E-2   -4.958652391722074E-1   -1.292332367507091E-1
 6.501243663100000E9    -4.395075110804543E-1   -2.901242519803929E-1   -1.472610426152818E-2    3.408430836433664E-2   -1.292866239657548E-2    3.411953700813926E-2   -4.961612076372048E-1   -1.280422673282113E-1
 6.501255812250000E9    -4.400611928970737E-1   -2.891563999199028E-1   -1.477661345254231E-2    3.422961718880586E-2   -1.297078021314730E-2    3.439069936631758E-2   -4.961944120308783E-1   -1.268494457404088E-1
 6.501267961400000E9    -4.405928430163761E-1   -2.883801821217590E-1   -1.491593726034001E-2    3.455289424578016E-2   -1.292930930931376E-2    3.456052964277039E-2   -4.965412723491672E-1   -1.257214979576184E-1
 6.501280110550000E9    -4.410814438437407E-1   -2.874721970363304E-1   -1.480984412232503E-2    3.482947289824477E-2   -1.291028525092998E-2    3.483941711756109E-2   -4.967513277819187E-1   -1.244473831002949E-1
 6.501292259700000E9    -4.417254315024185E-1   -2.865514327259037E-1   -1.487210505055207E-2    3.504217394458753E-2   -1.291358611315848E-2    3.489592430449252E-2   -4.969555942400556E-1   -1.231415674820946E-1
 6.501304408850000E9    -4.421522486849392E-1   -2.856734250784747E-1   -1.477789069690187E-2    3.525345227373970E-2   -1.294358410800305E-2    3.521380600270930E-2   -4.972162059270981E-1   -1.221384679835950E-1
 6.501316558000000E9    -4.427562449149504E-1   -2.849059318424118E-1   -1.474116041323116E-2    3.539125424671867E-2   -1.290836188553003E-2    3.547551969304938E-2   -4.974213130132418E-1   -1.208872049959921E-1
 6.501328707150000E9    -4.433225122994004E-1   -2.840456035177384E-1   -1.475700175401238E-2    3.571019653507628E-2   -1.293107670338582E-2    3.567210301904963E-2   -4.976963158096000E-1   -1.195165045326028E-1
 6.501340856300000E9    -4.438261342721304E-1   -2.830990468900093E-1   -1.474397029576956E-2    3.588828201577841E-2   -1.293913198093115E-2    3.590427897524686E-2   -4.979043985302353E-1   -1.181932622086179E-1
 6.501353005450000E9    -4.442897543490719E-1   -2.822421645624152E-1   -1.483463680379281E-2    3.616004692775700E-2   -1.288308273959480E-2    3.609813071592143E-2   -4.980774769290677E-1   -1.170671426746965E-1
 6.501365154600000E9    -4.448617229372473E-1   -2.812745471336541E-1   -1.477343589699261E-2    3.638615976981806E-2   -1.285864285238741E-2    3.627600359477510E-2   -4.982660652058297E-1   -1.157609772269365E-1
 6.501377303750000E9    -4.454167096278889E-1   -2.803321642434339E-1   -1.476312420820197E-2    3.667945366896122E-2   -1.289790993182905E-2    3.650421605174606E-2   -4.984881849342234E-1   -1.146162156628746E-1
 6.501389452900000E9    -4.459958387237027E-1   -2.795260729649057E-1   -1.481491773025737E-2    3.675616324974344E-2   -1.285610502091904E-2    3.673045789846842E-2   -4.987575597061853E-1   -1.131929403035148E-1
 6.501401602050000E9    -4.463879170859865E-1   -2.787451231645877E-1   -1.465612444103104E-2    3.699981733180470E-2   -1.284016252033120E-2    3.704128393335467E-2   -4.988528817672131E-1   -1.119895862495175E-1
 6.501413751200000E9    -4.469829778900622E-1   -2.777059402119185E-1   -1.476421673765975E-2    3.750855571121919E-2   -1.276192423437445E-2    3.729199723086541E-2   -4.990405835363682E-1   -1.107752512376012E-1
 6.501425900350000E9    -4.474907682030422E-1   -2.768642675800705E-1   -1.480594815933342E-2    3.753943289911327E-2   -1.287127512244367E-2    3.743978713874226E-2   -4.992883098983438E-1   -1.093745568194879E-1
 6.501438049500000E9    -4.478422943826070E-1   -2.758984122822600E-1   -1.483923769534894E-2    3.772614765973020E-2   -1.278141806133769E-2    3.774959216981918E-2   -4.994573482123751E-1   -1.082246356221834E-1
 6.501450198650000E9    -4.484791366458390E-1   -2.750380568105330E-1   -1.474031724762492E-2    3.811439125473414E-2   -1.281459577335766E-2    3.799774122554113E-2   -4.996952033424636E-1   -1.069828767339563E-1
 6.501462347800000E9    -4.489625614787056E-1   -2.742042531513489E-1   -1.470494525906930E-2    3.830139923794107E-2   -1.277696504817311E-2    3.815471973581571E-2   -4.997854329055052E-1   -1.056146042522718E-1
 6.501474496950000E9    -4.495279054314152E-1   -2.731899778197959E-1   -1.464941766589648E-2    3.859404960781711E-2   -1.275217755593749E-2    3.841128620065302E-2   -4.999874089179679E-1   -1.043112974987192E-1
 6.501486646100000E9    -4.501398239473966E-1   -2.723491780102649E-1   -1.469386850858707E-2    3.873663891008734E-2   -1.267164699193470E-2    3.869114812324378E-2   -5.001983798264035E-1   -1.029255660039768E-1
 6.501498795250000E9    -4.505430848473145E-1   -2.714813270531575E-1   -1.479901361146893E-2    3.914353335017582E-2   -1.267694470015053E-2    3.899204662140000E-2   -5.002606804819614E-1   -1.015690038605809E-1
 6.501510944400000E9    -4.511152690662702E-1   -2.705243121132101E-1   -1.457840205798307E-2    3.933042656252665E-2   -1.261505920164771E-2    3.924355815723760E-2   -5.005538610485054E-1   -1.002306283405503E-1
 6.501523093550000E9    -4.515855699355881E-1   -2.697135036795320E-1   -1.461488122015496E-2    3.965250720124745E-2   -1.269310247649898E-2    3.961084240040553E-2   -5.007933249780314E-1   -9.896739474446509E-2
 6.501535242700000E9    -4.521543306679676E-1   -2.686087349724195E-1   -1.469168971226514E-2    4.001480032108004E-2   -1.259896314333411E-2    3.973660477850683E-2   -5.008887709930036E-1   -9.777973130600406E-2
 6.501547391850000E9    -4.525934542459665E-1   -2.677592584994109E-1   -1.458089073599036E-2    4.025513275276325E-2   -1.255033986462607E-2    3.993992421684697E-2   -5.009557547466876E-1   -9.632423438602353E-2
 6.501559541000000E9    -4.530218661850807E-1   -2.668725182218598E-1   -1.462409146495316E-2    4.055277234890507E-2   -1.258705722336630E-2    4.036453084577169E-2   -5.011186856404830E-1   -9.495990672680753E-2
 6.501571690150000E9    -4.535804139008649E-1   -2.659751322817673E-1   -1.460823658562027E-2    4.074248887607728E-2   -1.253155293199422E-2    4.060048846450593E-2   -5.013608817439742E-1   -9.372260528292359E-2
 6.501583839300000E9    -4.540894773763306E-1   -2.649334588930546E-1   -1.477246019690519E-2    4.105069590308666E-2   -1.255376976604626E-2    4.085123490441063E-2   -5.015774147296564E-1   -9.237230205393226E-2
 6.501595988450000E9    -4.546188035579706E-1   -2.640666328698627E-1   -1.461685931752714E-2    4.143417563392058E-2   -1.249496458638041E-2    4.116277425159667E-2   -5.017002225015034E-1   -9.102146588116269E-2
 6.501608137600000E9    -4.550558024975849E-1   -2.631810841491058E-1   -1.448258337168942E-2    4.163635574647428E-2   -1.249475618263442E-2    4.149673997208913E-2   -5.016639478395829E-1   -8.974164343505582E-2
 6.501620286750000E9    -4.555182786913394E-1   -2.621401853498345E-1   -1.451422856290830E-2    4.202570393996765E-2   -1.242441277892028E-2    4.177753156862507E-2   -5.019601933264978E-1   -8.824384165329872E-2
 6.501632435900000E9    -4.560866005922047E-1   -2.612213375564637E-1   -1.464398087174913E-2    4.242496268036230E-2   -1.243529727713140E-2    4.199987722441040E-2   -5.019842562494083E-1   -8.673817682356930E-2
 6.501644585050000E9    -4.565024650734034E-1   -2.603291038552416E-1   -1.453291803301026E-2    4.255336950053794E-2   -1.228918308109569E-2    4.230462590774153E-2   -5.022719752156293E-1   -8.545719873612971E-2
 6.501656734200000E9    -4.570255066093607E-1   -2.593491567837776E-1   -1.453884480475114E-2    4.285838784643342E-2   -1.231160882623334E-2    4.270369994929127E-2   -5.023083624472836E-1   -8.403344757899166E-2
 6.501668883350000E9    -4.575334081794359E-1   -2.584354072356735E-1   -1.452668817435250E-2    4.321330734835910E-2   -1.224622320994394E-2    4.287109618656384E-2   -5.023389960802684E-1   -8.271394804297698E-2
 6.501681032500000E9    -4.580198355039419E-1   -2.574389114887924E-1   -1.447044576786321E-2    4.345501469253211E-2   -1.232400714166491E-2    4.321846211221397E-2   -5.025904336644251E-1   -8.121789662573883E-2
 6.501693181650000E9    -4.585245704334492E-1   -2.563876700588383E-1   -1.446651142525939E-2    4.377915743265927E-2   -1.227483946239284E-2    4.360887454413637E-2   -5.026021591276083E-1   -7.980484711226123E-2
 6.501705330800000E9    -4.589260571544475E-1   -2.555222125677782E-1   -1.446273752520840E-2    4.410903601529475E-2   -1.219168617119603E-2    4.386671395880169E-2   -5.029141691875421E-1   -7.849999059124257E-2
 6.501717479950000E9    -4.594024883289626E-1   -2.545622997984782E-1   -1.447984723550760E-2    4.443620055325184E-2   -1.224377234767118E-2    4.417992658884531E-2   -5.029204455309461E-1   -7.703259066085895E-2
 6.501729629100000E9    -4.599211746042736E-1   -2.535490560315378E-1   -1.436872802652347E-2    4.475323709647925E-2   -1.209437043451170E-2    4.456221026845617E-2   -5.029593069692168E-1   -7.573030991717915E-2
 6.501741778250000E9    -4.604677568739123E-1   -2.526291476420937E-1   -1.436045431418607E-2    4.524175163985780E-2   -1.209589194790238E-2    4.486128912607305E-2   -5.030254582188871E-1   -7.418127282369563E-2
 6.501753927400000E9    -4.609578521270493E-1   -2.516964372461065E-1   -1.429157978270299E-2    4.553812002243032E-2   -1.205463599499396E-2    4.511846496379300E-2   -5.031837654862241E-1   -7.272055540846775E-2
 6.501766076550000E9    -4.613063852503991E-1   -2.505938010307938E-1   -1.422537635994345E-2    4.588750550518427E-2   -1.200328308613335E-2    4.552955901076250E-2   -5.031738812280396E-1   -7.117301751874006E-2
 6.501778225700000E9    -4.618818748524020E-1   -2.498171473443290E-1   -1.437837763626643E-2    4.618234980769069E-2   -1.192772815694006E-2    4.584308739406243E-2   -5.034781817050782E-1   -6.984753684112938E-2
 6.501790374850000E9    -4.623576046048235E-1   -2.487436131685385E-1   -1.441969112394011E-2    4.651564792892936E-2   -1.195617088549171E-2    4.628440397829008E-2   -5.033999281344100E-1   -6.831573503044416E-2
 6.501802524000000E9    -4.628213978601643E-1   -2.477357436283104E-1   -1.427265334923016E-2    4.688018628833636E-2   -1.188580229956040E-2    4.652883243214328E-2   -5.035448656102739E-1   -6.682028987660932E-2
 6.501814673150000E9    -4.632150699353956E-1   -2.468301282525507E-1   -1.419522876178521E-2    4.729939567761810E-2   -1.180236998039094E-2    4.691890048317057E-2   -5.035581301372490E-1   -6.538967399058221E-2
 6.501826822300000E9    -4.636874557481597E-1   -2.458539432965522E-1   -1.409686723707939E-2    4.757560537567458E-2   -1.178597810349653E-2    4.734052342982425E-2   -5.036728740275596E-1   -6.389789833991386E-2
 6.501838971450000E9    -4.641922451896865E-1   -2.448394546401888E-1   -1.420839787567560E-2    4.802902053439315E-2   -1.180669504831458E-2    4.759705778329403E-2   -5.035947752162530E-1   -6.226649185433769E-2
 6.501851120600000E9    -4.646571883289999E-1   -2.437624442919467E-1   -1.410274020880498E-2    4.834095098069205E-2   -1.175505869300965E-2    4.802731093722194E-2   -5.036659912259839E-1   -6.085058877441085E-2
 6.501863269750000E9    -4.651990128860644E-1   -2.428227664699920E-1   -1.391607056350521E-2    4.884354296649536E-2   -1.165439646095770E-2    4.837751182157853E-2   -5.037223360363571E-1   -5.935788459841666E-2
 6.501875418900000E9    -4.656344042970224E-1   -2.418873422520383E-1   -1.400955727522447E-2    4.911993351563845E-2   -1.166283671414500E-2    4.877060980408529E-2   -5.038499016974601E-1   -5.776571606100409E-2
 6.501887568050000E9    -4.660914207727320E-1   -2.407006537609745E-1   -1.390983464937260E-2    4.963320354765416E-2   -1.163755761406728E-2    4.917409857566292E-2   -5.039157488691106E-1   -5.630912889474621E-2
 6.501899717200000E9    -4.665697770050837E-1   -2.397808454967132E-1   -1.384934580289070E-2    4.997528196799950E-2   -1.143269447922783E-2    4.958182403123331E-2   -5.039309435236857E-1   -5.466212976885031E-2
 6.501911866350000E9    -4.669721142869144E-1   -2.387340511235190E-1   -1.401099559767958E-2    5.045640126939877E-2   -1.152703151447250E-2    4.993554813423435E-2   -5.038550983839297E-1   -5.309052543585392E-2
 6.501924015500000E9    -4.673646426872546E-1   -2.376437495988314E-1   -1.389274097463582E-2    5.086142449568549E-2   -1.140830491452310E-2    5.029004488079653E-2   -5.039081341691717E-1   -5.164675516597171E-2
 6.501936164650000E9    -4.679471674387785E-1   -2.365805741658211E-1   -1.363147699654628E-2    5.125045828723144E-2   -1.122313851411989E-2    5.079022960158962E-2   -5.040811921097930E-1   -5.009984783403727E-2
 6.501948313800000E9    -4.683128671992504E-1   -2.357334840747862E-1   -1.378850401064468E-2    5.177486819633497E-2   -1.128985289097336E-2    5.120995779098304E-2   -5.039745471442066E-1   -4.850480260119532E-2
 6.501960462950000E9    -4.686599625883612E-1   -2.347247686458412E-1   -1.366844769060678E-2    5.216881642011145E-2   -1.116214583797763E-2    5.160200585222569E-2   -5.039606344604670E-1   -4.677150929316088E-2
 6.501972612100000E9    -4.691896745671986E-1   -2.335661011069586E-1   -1.374742601155692E-2    5.262827794740049E-2   -1.115585065621649E-2    5.198236454069622E-2   -5.039141668885954E-1   -4.529077137028980E-2
 6.501984761250000E9    -4.696909124911766E-1   -2.325724531755989E-1   -1.358686268604634E-2    5.304966231210117E-2   -1.106350796866864E-2    5.242462606294701E-2   -5.038499499793844E-1   -4.360603719513809E-2
 6.501996910400000E9    -4.701707690354613E-1   -2.314556297146274E-1   -1.354465631485904E-2    5.343304819600778E-2   -1.098218879971058E-2    5.288854463923268E-2   -5.039222560069468E-1   -4.199378881681356E-2
 6.502009059550000E9    -4.705349012293357E-1   -2.304723362417206E-1   -1.347836886885606E-2    5.395364600363924E-2   -1.102343739483563E-2    5.346472398217609E-2   -5.038574690778126E-1   -4.025730419354363E-2
 6.502021208700000E9    -4.709707420929679E-1   -2.294214562650634E-1   -1.337076475322263E-2    5.442965256568637E-2   -1.086112411431123E-2    5.369875913240518E-2   -5.039158684158678E-1   -3.859620585722319E-2
 6.502033357850000E9    -4.714038787766840E-1   -2.282886218443319E-1   -1.346137763276587E-2    5.477216586617144E-2   -1.079313116707423E-2    5.415845204969384E-2   -5.038355709988603E-1   -3.698548701100554E-2
 6.502045507000000E9    -4.718871712007587E-1   -2.273417476221981E-1   -1.334789493486358E-2    5.536436293628386E-2   -1.066648171906736E-2    5.470782174321276E-2   -5.036928732896802E-1   -3.527502997354336E-2
 6.502057656150000E9    -4.721822165032578E-1   -2.262906434964563E-1   -1.317531329312836E-2    5.585583136178589E-2   -1.050475805048389E-2    5.520720262605399E-2   -5.036924624098974E-1   -3.374329548875588E-2
 6.502069805300000E9    -4.727496328191474E-1   -2.251661742768276E-1   -1.319738638405506E-2    5.642853606075825E-2   -1.057133695945153E-2    5.575565920533754E-2   -5.035898210489632E-1   -3.192958444112064E-2
 6.502081954450000E9    -4.731182456752163E-1   -2.240781760085316E-1   -1.306736189108938E-2    5.682330513558092E-2   -1.047424719076793E-2    5.613859944980235E-2   -5.034498474881312E-1   -3.017819531782264E-2
 6.502094103600000E9    -4.735002789512893E-1   -2.230484988662766E-1   -1.298549049450863E-2    5.733500897058286E-2   -1.041682005746069E-2    5.668064290100288E-2   -5.034375589911413E-1   -2.842442746545514E-2
 6.502106252750000E9    -4.738943034675055E-1   -2.219027457960532E-1   -1.303605025305918E-2    5.775133686162270E-2   -1.031078186781301E-2    5.721510775150671E-2   -5.033107442340379E-1   -2.667401422654894E-2
 6.502118401900000E9    -4.744645079533953E-1   -2.207512142333851E-1   -1.285915025147046E-2    5.827351436601778E-2   -1.020530652310978E-2    5.765193711896585E-2   -5.032512897820229E-1   -2.477417294371912E-2
 6.502130551050000E9    -4.748029837424081E-1   -2.196971710618130E-1   -1.286072914533688E-2    5.890389339724707E-2   -9.989103313052328E-3    5.814276028666345E-2   -5.032252206231591E-1   -2.323057264498720E-2
 6.502142700200000E9    -4.752963789415544E-1   -2.185777139160241E-1   -1.272743575454207E-2    5.943649656741704E-2   -1.002695040133460E-2    5.870969766475292E-2   -5.029666904947085E-1   -2.147837227112983E-2
 6.502154849350000E9    -4.756169068797978E-1   -2.174057833968531E-1   -1.255745759011009E-2    6.012463244330614E-2   -9.835879038829794E-3    5.923215816325334E-2   -5.029727239450628E-1   -1.955611569722258E-2
 6.502166998500000E9    -4.759932309016819E-1   -2.164137586917695E-1   -1.235594832718086E-2    6.066728583740998E-2   -9.804046674949262E-3    5.969561790366400E-2   -5.028950220527586E-1   -1.773629165484415E-2
