#  HZ   S   RI   R     50.00 
! Rohde & Schwarz Vector Network Analyzer 
! Rohde-Schwarz,ZNB20-2Port,1311601062101988,3.16
! Created: UTC 3/20/2024, 12:02:22 PM
! freq[Hz]                re:S11                  im:S11                  re:S21                  im:S21                  re:S12                  im:S12                  re:S22                  im:S22
 6.501081747000000E9    -4.321658270330933E-1   -3.014963356357606E-1   -1.483028362060763E-2    3.134587792472439E-2   -1.304950361155361E-2    3.136285693639316E-2   -4.927253533954209E-1   -1.439650438323321E-1
 6.501093875425000E9    -4.328782387115558E-1   -3.005461369799221E-1   -1.488815828253981E-2    3.157940161801879E-2   -1.315375384329231E-2    3.174006887102074E-2   -4.929748210519166E-1   -1.428566493411948E-1
 6.501106003850000E9    -4.333748925349554E-1   -2.997678742642308E-1   -1.472002241889158E-2    3.189697831659598E-2   -1.306310342560543E-2    3.174004434794431E-2   -4.931710347324497E-1   -1.416278213779632E-1
 6.501118132275000E9    -4.339920953266382E-1   -2.989348092780084E-1   -1.471027451083986E-2    3.205471779299467E-2   -1.297407760006658E-2    3.198635434245637E-2   -4.935822693432614E-1   -1.404596344571033E-1
 6.501130260700000E9    -4.344572182305423E-1   -2.980155164055237E-1   -1.479861196957724E-2    3.216775897471748E-2   -1.300740717780388E-2    3.227972703982134E-2   -4.938198772738702E-1   -1.393251938739067E-1
 6.501142389125000E9    -4.350519177587833E-1   -2.972050445881429E-1   -1.469910258164887E-2    3.236936937973034E-2   -1.312367434958970E-2    3.235868508632055E-2   -4.940704810633487E-1   -1.381661799887628E-1
 6.501154517550000E9    -4.355609865948271E-1   -2.963543087501884E-1   -1.481582412945365E-2    3.250339668005067E-2   -1.305286651782475E-2    3.264054468000251E-2   -4.942938001502217E-1   -1.369526257900935E-1
 6.501166645975000E9    -4.361224386370578E-1   -2.955925543816046E-1   -1.488077860669672E-2    3.282315871276267E-2   -1.304908073361520E-2    3.285086832641566E-2   -4.946021515639391E-1   -1.358098232209460E-1
 6.501178774400000E9    -4.367004943335105E-1   -2.947371603118056E-1   -1.472297817083025E-2    3.294728583993915E-2   -1.296436907088571E-2    3.297524248584698E-2   -4.946685989051403E-1   -1.346088083688015E-1
 6.501190902825000E9    -4.372239019663594E-1   -2.937853315900009E-1   -1.476313846253924E-2    3.323071862218343E-2   -1.304016391349701E-2    3.312118852058130E-2   -4.949819634621598E-1   -1.333903337261890E-1
 6.501203031250000E9    -4.376963669533949E-1   -2.928866799069741E-1   -1.477601462214045E-2    3.337423500732591E-2   -1.297271280672928E-2    3.348717303549834E-2   -4.951680244443417E-1   -1.322190546910261E-1
 6.501215159675000E9    -4.382936768195770E-1   -2.920005037529622E-1   -1.479628257167042E-2    3.345257402943591E-2   -1.296895305864731E-2    3.360232058438855E-2   -4.956513417246429E-1   -1.310452727273003E-1
 6.501227288100000E9    -4.388576979075829E-1   -2.911569001250549E-1   -1.474617199065527E-2    3.375690947418774E-2   -1.300369725371108E-2    3.383055254840658E-2   -4.958314954520766E-1   -1.298174201144294E-1
 6.501239416525000E9    -4.394970497860960E-1   -2.903721009623276E-1   -1.466048176148720E-2    3.391915188719484E-2   -1.300715484109834E-2    3.404304381323615E-2   -4.959787832595672E-1   -1.286034976545394E-1
 6.501251544950000E9    -4.397903828031765E-1   -2.894842520210684E-1   -1.475354899738003E-2    3.413200919968516E-2   -1.288890149627077E-2    3.422117417390429E-2   -4.962465562326677E-1   -1.274353065112778E-1
 6.501263673375000E9    -4.404659300536519E-1   -2.886154322646771E-1   -1.474110807117590E-2    3.447492135796427E-2   -1.292504908021872E-2    3.445485086634199E-2   -4.964649818035881E-1   -1.262591039315194E-1
 6.501275801800000E9    -4.410230200111542E-1   -2.876375368658276E-1   -1.480241816271667E-2    3.469236527733690E-2   -1.300028769872324E-2    3.456694037496906E-2   -4.967247641576656E-1   -1.248590415034253E-1
 6.501287930225000E9    -4.415295398949676E-1   -2.867926250773315E-1   -1.478957165659862E-2    3.481766759169897E-2   -1.286269846862749E-2    3.479226391198208E-2   -4.969650899539076E-1   -1.236296963394223E-1
 6.501300058650000E9    -4.420672465942555E-1   -2.860339313336203E-1   -1.481630136350299E-2    3.505780853428939E-2   -1.293756778025721E-2    3.504680732338677E-2   -4.970454811253509E-1   -1.225293071046813E-1
 6.501312187075000E9    -4.425819113559196E-1   -2.851085727793117E-1   -1.480718669100510E-2    3.532699312681838E-2   -1.280564298402595E-2    3.528220920345084E-2   -4.974750942787930E-1   -1.213265068002549E-1
 6.501324315500000E9    -4.431326232691007E-1   -2.842458373863164E-1   -1.478182708101958E-2    3.549331312613772E-2   -1.288963700119051E-2    3.542871129635895E-2   -4.974879507237582E-1   -1.201860161266714E-1
 6.501336443925000E9    -4.436562638890130E-1   -2.833804789063681E-1   -1.467747992834945E-2    3.577950876218987E-2   -1.278426073989301E-2    3.573352493273098E-2   -4.978049694320911E-1   -1.187968649388939E-1
 6.501348572350000E9    -4.441572891301265E-1   -2.824617781285045E-1   -1.470865769237063E-2    3.613148023148285E-2   -1.283395874860440E-2    3.588838866935268E-2   -4.980839153972826E-1   -1.176279583212684E-1
 6.501360700775000E9    -4.446685408355198E-1   -2.814828262655639E-1   -1.463322950722258E-2    3.623208229783383E-2   -1.288965083441625E-2    3.611434196035686E-2   -4.982429166778407E-1   -1.163588915916439E-1
 6.501372829200000E9    -4.452476043234344E-1   -2.807839687787387E-1   -1.475038233758151E-2    3.641911713404405E-2   -1.296893330831079E-2    3.636829579459006E-2   -4.983366595927668E-1   -1.150778821166229E-1
 6.501384957625000E9    -4.456882054993679E-1   -2.797311860128215E-1   -1.480908676784622E-2    3.667441520150880E-2   -1.271137529941260E-2    3.663928674543487E-2   -4.986538796670442E-1   -1.138346857864524E-1
 6.501397086050000E9    -4.462515089090213E-1   -2.790106994548958E-1   -1.470533223843134E-2    3.691568714473833E-2   -1.277891076287756E-2    3.685075019655367E-2   -4.989361713999426E-1   -1.124159220129721E-1
 6.501409214475000E9    -4.467839354994357E-1   -2.780479670192583E-1   -1.479338370162419E-2    3.719992255445694E-2   -1.280049406240534E-2    3.715987618444257E-2   -4.991208811925394E-1   -1.112993763671042E-1
 6.501421342900000E9    -4.472457584620104E-1   -2.771151305643020E-1   -1.478264416301111E-2    3.740069653077026E-2   -1.275216162544850E-2    3.731281598386560E-2   -4.992255220064512E-1   -1.100011094455126E-1
 6.501433471325000E9    -4.476985493555311E-1   -2.762795511533175E-1   -1.478545043808436E-2    3.765218727671796E-2   -1.291171489365511E-2    3.760011865659547E-2   -4.994037446468923E-1   -1.086665675444164E-1
 6.501445599750000E9    -4.483773629179145E-1   -2.752819646262729E-1   -1.478270229062063E-2    3.793803843397212E-2   -1.270453595960824E-2    3.774041606563980E-2   -4.995989404773102E-1   -1.073938600219860E-1
 6.501457728175000E9    -4.488085530412594E-1   -2.744371261507915E-1   -1.473623859909387E-2    3.811492016748621E-2   -1.274883113646451E-2    3.805827842728893E-2   -4.998221402985550E-1   -1.063384546888663E-1
 6.501469856600000E9    -4.492558431921506E-1   -2.733943606283559E-1   -1.477960547428155E-2    3.847420850330927E-2   -1.265687841267687E-2    3.822768663128313E-2   -4.998657822273551E-1   -1.047772044699932E-1
 6.501481985025000E9    -4.498518653756155E-1   -2.726461114575285E-1   -1.446447158376068E-2    3.865166543301242E-2   -1.271939050995253E-2    3.853403365106804E-2   -5.001557952816577E-1   -1.036302966394222E-1
 6.501494113450000E9    -4.503141634603418E-1   -2.716879594057649E-1   -1.465113543116306E-2    3.888583549949003E-2   -1.272109279879260E-2    3.877079352537747E-2   -5.003570484524870E-1   -1.022597183344108E-1
 6.501506241875000E9    -4.510272003064149E-1   -2.707971792415948E-1   -1.470731934182379E-2    3.926331645691647E-2   -1.263458912701993E-2    3.906795011817669E-2   -5.003486125290174E-1   -1.011052207818739E-1
 6.501518370300000E9    -4.514741682802858E-1   -2.699107061669601E-1   -1.469866490191879E-2    3.962898524622743E-2   -1.274482939722066E-2    3.932297328860893E-2   -5.005929246525312E-1   -9.968810765626987E-2
 6.501530498725000E9    -4.519138636202385E-1   -2.689751269542001E-1   -1.472630363233268E-2    3.970221500431453E-2   -1.264415736717941E-2    3.966137664322918E-2   -5.008947454686093E-1   -9.821600685495049E-2
 6.501542627150000E9    -4.523657452255034E-1   -2.681337854385100E-1   -1.472897527058229E-2    3.995212722326716E-2   -1.262234061674802E-2    3.987560366994013E-2   -5.011445059961084E-1   -9.696167336055266E-2
 6.501554755575000E9    -4.529295834842089E-1   -2.671193479435168E-1   -1.462366171420201E-2    4.034812293139900E-2   -1.257204211274425E-2    4.009329074968302E-2   -5.012132814813158E-1   -9.559876981532797E-2
 6.501566884000000E9    -4.533572606685048E-1   -2.661443925880930E-1   -1.474944002954439E-2    4.057724375360212E-2   -1.264225015630798E-2    4.041717662735436E-2   -5.013348320085084E-1   -9.428508880356429E-2
 6.501579012425000E9    -4.538467724546316E-1   -2.652170818040240E-1   -1.460710014079695E-2    4.091579562908498E-2   -1.250434842615544E-2    4.075892709039834E-2   -5.014722093800045E-1   -9.292405812794707E-2
 6.501591140850000E9    -4.543337014542477E-1   -2.642379288113800E-1   -1.456737752227821E-2    4.119290454190382E-2   -1.246597350655114E-2    4.095109760582422E-2   -5.016906560629991E-1   -9.160085166394985E-2
 6.501603269275000E9    -4.549555202695620E-1   -2.635088357224979E-1   -1.448158520881435E-2    4.138247697350896E-2   -1.248263210300973E-2    4.127028893846486E-2   -5.017991318554538E-1   -9.026196186175263E-2
 6.501615397700000E9    -4.554203242355500E-1   -2.624188022134715E-1   -1.455457948516750E-2    4.170673440627334E-2   -1.247847003108855E-2    4.153024535166323E-2   -5.018699127935680E-1   -8.895884475129337E-2
 6.501627526125000E9    -4.558919717771602E-1   -2.614987255652583E-1   -1.438516150715566E-2    4.215047534921581E-2   -1.243101354226011E-2    4.179531967357520E-2   -5.020666635119512E-1   -8.746484242869870E-2
 6.501639654550000E9    -4.563615924558630E-1   -2.605845884077441E-1   -1.461756780455906E-2    4.231073103764663E-2   -1.240284012729105E-2    4.219063152532051E-2   -5.021816584925911E-1   -8.617834973793723E-2
 6.501651782975000E9    -4.569304917660894E-1   -2.597082216143752E-1   -1.456709278387753E-2    4.257616680385841E-2   -1.235763948742116E-2    4.245670066562083E-2   -5.023885711240863E-1   -8.480715983681721E-2
 6.501663911400000E9    -4.573015167479858E-1   -2.587633048228042E-1   -1.442581235374420E-2    4.295948772168334E-2   -1.225292914014963E-2    4.279177047932838E-2   -5.023824480657313E-1   -8.346164530130532E-2
 6.501676039825000E9    -4.578431511009338E-1   -2.578412843975942E-1   -1.456514807177801E-2    4.320817619103291E-2   -1.229119842702877E-2    4.308479974017801E-2   -5.025372481819040E-1   -8.208561388508824E-2
 6.501688168250000E9    -4.582422529250447E-1   -2.568426304872951E-1   -1.447915059729918E-2    4.358031443902433E-2   -1.230094384252552E-2    4.342413825434752E-2   -5.026638014781490E-1   -8.054238223419562E-2
 6.501700296675000E9    -4.588453825474432E-1   -2.558385674223633E-1   -1.441503567536266E-2    4.401021025117968E-2   -1.219756077206142E-2    4.361340077815939E-2   -5.027206044862375E-1   -7.915898951505281E-2
 6.501712425100000E9    -4.593722701685931E-1   -2.549234998105124E-1   -1.431970765177635E-2    4.421143514203169E-2   -1.218787727678800E-2    4.396578687343049E-2   -5.028737410431633E-1   -7.776212764040358E-2
 6.501724553525000E9    -4.597160699131599E-1   -2.538966811146938E-1   -1.442492529535061E-2    4.476074377322220E-2   -1.214140764792578E-2    4.423818926515231E-2   -5.030379133668920E-1   -7.645072325232644E-2
 6.501736681950000E9    -4.603087305106001E-1   -2.529689916860158E-1   -1.443905930368798E-2    4.498164326570131E-2   -1.211383750201285E-2    4.456335961144629E-2   -5.031452477148296E-1   -7.485689539846858E-2
 6.501748810375000E9    -4.607433856101910E-1   -2.519754440402045E-1   -1.426316320224748E-2    4.515981873220516E-2   -1.210785328086313E-2    4.496903981339428E-2   -5.032877127636532E-1   -7.352195808565623E-2
 6.501760938800000E9    -4.613131865788452E-1   -2.510676155141443E-1   -1.420236228742927E-2    4.563359055555022E-2   -1.210058762998479E-2    4.527560247663921E-2   -5.033438046809883E-1   -7.204119868306688E-2
 6.501773067225000E9    -4.617341112814354E-1   -2.500796149229992E-1   -1.434780388622264E-2    4.600233868346893E-2   -1.202090003431949E-2    4.564904893868666E-2   -5.034216411538496E-1   -7.050501994345834E-2
 6.501785195650000E9    -4.621520822380647E-1   -2.491215585005717E-1   -1.421570236954849E-2    4.632887869874984E-2   -1.195586249666750E-2    4.596637205879273E-2   -5.035185364535195E-1   -6.922154479861634E-2
 6.501797324075000E9    -4.626952495733173E-1   -2.481271927861485E-1   -1.427973007938162E-2    4.680611227663199E-2   -1.185208332872434E-2    4.637258429498178E-2   -5.034747849431557E-1   -6.765260131094787E-2
 6.501809452500000E9    -4.632641422619564E-1   -2.470299023597634E-1   -1.407282694724783E-2    4.702168389259041E-2   -1.190128336411039E-2    4.665009379861027E-2   -5.034945344622728E-1   -6.624844747819800E-2
 6.501821580925000E9    -4.636167019569384E-1   -2.461143018186076E-1   -1.418166554531287E-2    4.746983176263788E-2   -1.179374797248742E-2    4.706990644605472E-2   -5.036777550423709E-1   -6.467474286132482E-2
 6.501833709350000E9    -4.640288550045591E-1   -2.452152251183671E-1   -1.410785621363303E-2    4.775551194882084E-2   -1.188111673321218E-2    4.730625634309838E-2   -5.037472525012787E-1   -6.317008628459754E-2
 6.501845837775000E9    -4.645975740185077E-1   -2.440770728043308E-1   -1.415133447827800E-2    4.804481929604718E-2   -1.168372688956896E-2    4.778346726412881E-2   -5.036898113420034E-1   -6.179477307224424E-2
 6.501857966200000E9    -4.649096075619589E-1   -2.430791978051820E-1   -1.407704419709835E-2    4.858602645357202E-2   -1.172350557625132E-2    4.811880033237238E-2   -5.038512886534618E-1   -6.020044088398920E-2
 6.501870094625000E9    -4.654522555984260E-1   -2.421046535077840E-1   -1.399263627673179E-2    4.876569009738533E-2   -1.170363954277550E-2    4.845951856259109E-2   -5.039462862736673E-1   -5.852686554085801E-2
 6.501882223050000E9    -4.658734734198111E-1   -2.411356666583896E-1   -1.401680325154977E-2    4.919834157681557E-2   -1.158634441448290E-2    4.888060146300982E-2   -5.038893131487073E-1   -5.702455439033394E-2
 6.501894351475000E9    -4.663404664632572E-1   -2.402468990834413E-1   -1.397989010443241E-2    4.979727070810554E-2   -1.157846382920503E-2    4.920160676967079E-2   -5.037928501015454E-1   -5.563599973173784E-2
 6.501906479900000E9    -4.667651732706143E-1   -2.391851082010702E-1   -1.390957651008167E-2    5.023514506499403E-2   -1.145828074935652E-2    4.963815867257231E-2   -5.038722044863918E-1   -5.413128925648394E-2
 6.501918608325000E9    -4.672685436450788E-1   -2.380699455655496E-1   -1.381845275714541E-2    5.053196635072228E-2   -1.153844534820829E-2    5.001594053580935E-2   -5.040024806601168E-1   -5.245783095245072E-2
 6.501930736750000E9    -4.677291213781757E-1   -2.370176210721084E-1   -1.391924767210242E-2    5.098915061236795E-2   -1.138458823592693E-2    5.044862628963057E-2   -5.040399321106620E-1   -5.088383923948297E-2
 6.501942865175000E9    -4.680943576042719E-1   -2.359639834995586E-1   -1.381549605246588E-2    5.147557049911184E-2   -1.126606383639456E-2    5.090981220102763E-2   -5.039315852371410E-1   -4.938923857647359E-2
 6.501954993600000E9    -4.686545528505907E-1   -2.351546288864526E-1   -1.373747112442005E-2    5.182723475932628E-2   -1.132839621292735E-2    5.131837883187972E-2   -5.041693585899746E-1   -4.782087267047743E-2
 6.501967122025000E9    -4.690303036339447E-1   -2.340257401839993E-1   -1.365879147459012E-2    5.212434866680497E-2   -1.123548566662774E-2    5.162329331914775E-2   -5.041881038530478E-1   -4.620830969587245E-2
 6.501979250450000E9    -4.694105768187085E-1   -2.330100216426848E-1   -1.360017750532875E-2    5.264361367055407E-2   -1.108928311293339E-2    5.211528052253729E-2   -5.040471957813942E-1   -4.454198595946732E-2
 6.501991378875000E9    -4.698889498865860E-1   -2.318884551524439E-1   -1.358781900412261E-2    5.305937354901768E-2   -1.102695631129719E-2    5.248535157851315E-2   -5.040021140125009E-1   -4.296669606265581E-2
 6.502003507300000E9    -4.703668886003130E-1   -2.308242943572519E-1   -1.350089604804272E-2    5.356903909282813E-2   -1.094951869525585E-2    5.299780726111947E-2   -5.040285764054546E-1   -4.137428853246394E-2
 6.502015635725000E9    -4.708071156892952E-1   -2.298717084959910E-1   -1.348303245481877E-2    5.403987804543483E-2   -1.088827030488958E-2    5.336818549847298E-2   -5.038442046014604E-1   -3.964953277705478E-2
 6.502027764150000E9    -4.712826931111940E-1   -2.287730698193627E-1   -1.338908454617845E-2    5.457348564419751E-2   -1.081589983405489E-2    5.388430305363591E-2   -5.037763308264904E-1   -3.788193002980888E-2
 6.502039892575000E9    -4.715728812664169E-1   -2.276931768017184E-1   -1.337185982252196E-2    5.495960913533868E-2   -1.077911167440737E-2    5.428745397911323E-2   -5.038558910417785E-1   -3.626064929331387E-2
 6.502052021000000E9    -4.720888040755317E-1   -2.266963731300326E-1   -1.328401976682495E-2    5.539647208464280E-2   -1.064985696631790E-2    5.483802047163449E-2   -5.037513555478864E-1   -3.472936088027664E-2
 6.502064149425000E9    -4.724402425490479E-1   -2.255344154662777E-1   -1.318897320966824E-2    5.591056371756113E-2   -1.057366832945216E-2    5.528747142383078E-2   -5.038870785556548E-1   -3.294434572612405E-2
 6.502076277850000E9    -4.729280254530465E-1   -2.245901662131344E-1   -1.315917257295205E-2    5.647670335615860E-2   -1.055136790117477E-2    5.576906220620893E-2   -5.036896850828630E-1   -3.123379552605773E-2
 6.502088406275000E9    -4.733934893965938E-1   -2.234761602181360E-1   -1.309532660218252E-2    5.687445800477461E-2   -1.041360158338381E-2    5.618857860903883E-2   -5.037017310929679E-1   -2.955721986578201E-2
 6.502100534700000E9    -4.737593020935707E-1   -2.224015199220089E-1   -1.289384916671717E-2    5.750260718123342E-2   -1.030199367218288E-2    5.673592754398724E-2   -5.036378084903473E-1   -2.776704213968488E-2
 6.502112663125000E9    -4.742086690353470E-1   -2.213039597700830E-1   -1.291343469106518E-2    5.798378790488416E-2   -1.028274360966107E-2    5.717296740017175E-2   -5.033673747802527E-1   -2.593339705463391E-2
 6.502124791550000E9    -4.745600594828764E-1   -2.201494428723369E-1   -1.285553129177636E-2    5.842241389113678E-2   -1.019932428488412E-2    5.775027478840922E-2   -5.032988489780490E-1   -2.431597652299780E-2
 6.502136919975000E9    -4.750537556558371E-1   -2.191131125505402E-1   -1.283910331578362E-2    5.911232878476912E-2   -1.005962581993053E-2    5.828824886499559E-2   -5.032214003039216E-1   -2.253771449555826E-2
 6.502149048400000E9    -4.755134258612955E-1   -2.180827711776276E-1   -1.267021990607189E-2    5.967714775729165E-2   -9.948201597308035E-3    5.878533263711959E-2   -5.030851455868274E-1   -2.070709926383206E-2
 6.502161176825000E9    -4.757931959761315E-1   -2.169201059338937E-1   -1.259474832820896E-2    6.021093898322536E-2   -9.793778506400621E-3    5.934392204862351E-2   -5.029983072192374E-1   -1.888863175559327E-2
 6.502173305250000E9    -4.762265524619631E-1   -2.157921373436659E-1   -1.244416134465981E-2    6.079269940118347E-2   -9.782352368933628E-3    5.990673138245863E-2   -5.028147520277978E-1   -1.699041692262956E-2
