#  HZ   S   RI   R     50.00 
! Rohde & Schwarz Vector Network Analyzer 
! Rohde-Schwarz,ZNB20-2Port,1311601062101988,3.16
! Created: UTC 3/20/2024, 12:02:55 PM
! freq[Hz]                re:S11                  im:S11                  re:S21                  im:S21                  re:S12                  im:S12                  re:S22                  im:S22
 6.501102411000000E9    -4.330491995062679E-1   -3.004651647179420E-1   -1.481524030227436E-2    3.162567145250125E-2   -1.306610351020189E-2    3.167582137336040E-2   -4.931653092642684E-1   -1.421462514513995E-1
 6.501114469725000E9    -4.334857304238821E-1   -2.997077953495363E-1   -1.477282642794044E-2    3.184255612130748E-2   -1.300031692710569E-2    3.177313494132282E-2   -4.935577936550275E-1   -1.409896010998469E-1
 6.501126528450000E9    -4.339802128541915E-1   -2.987291606935735E-1   -1.465903705198038E-2    3.207274793575166E-2   -1.299548075902574E-2    3.212213539157775E-2   -4.939290684610383E-1   -1.397809520593749E-1
 6.501138587175000E9    -4.346768343955619E-1   -2.979932177448015E-1   -1.481017343171980E-2    3.223379971397269E-2   -1.313777854420483E-2    3.222109221191041E-2   -4.940585798192120E-1   -1.387515810155509E-1
 6.501150645900000E9    -4.352007784034941E-1   -2.972798428391843E-1   -1.476714447115817E-2    3.242482250578369E-2   -1.303019287396457E-2    3.246026335319979E-2   -4.942996745201517E-1   -1.373950453177016E-1
 6.501162704625000E9    -4.356460520617793E-1   -2.963558907306535E-1   -1.484618169352979E-2    3.255008862580804E-2   -1.300294032109827E-2    3.257103271915268E-2   -4.944615401361173E-1   -1.363373623844826E-1
 6.501174763350000E9    -4.362604826501106E-1   -2.954475314411710E-1   -1.473726429863679E-2    3.277036573281236E-2   -1.303082424321890E-2    3.281360211486797E-2   -4.947142927802392E-1   -1.351879855810751E-1
 6.501186822075000E9    -4.368653278533565E-1   -2.946309361574663E-1   -1.469281109007278E-2    3.300213900332075E-2   -1.305368507034449E-2    3.296036541142492E-2   -4.950361762458248E-1   -1.338195648851607E-1
 6.501198880800000E9    -4.373078865620619E-1   -2.938159925070463E-1   -1.480755930798938E-2    3.326329081466547E-2   -1.306476284308504E-2    3.320777731811962E-2   -4.952817873745154E-1   -1.327650740421240E-1
 6.501210939525000E9    -4.379055346508152E-1   -2.930092301454616E-1   -1.485205637903436E-2    3.332790084397294E-2   -1.306697723367111E-2    3.337529167309418E-2   -4.956818292235611E-1   -1.316326966677507E-1
 6.501222998250000E9    -4.383934624853854E-1   -2.920967500490272E-1   -1.476044614700024E-2    3.363132491952572E-2   -1.300667662523418E-2    3.351338655152886E-2   -4.956990454768018E-1   -1.303791365589634E-1
 6.501235056975000E9    -4.390379943204323E-1   -2.912809955319702E-1   -1.472944023208593E-2    3.383409983604552E-2   -1.300700229588193E-2    3.377392337069847E-2   -4.961295126276601E-1   -1.291770011634006E-1
 6.501247115700000E9    -4.395246097700910E-1   -2.904218931692421E-1   -1.477691821674034E-2    3.399047350068272E-2   -1.305604981284098E-2    3.390034469974758E-2   -4.962517192885166E-1   -1.279797068976397E-1
 6.501259174425000E9    -4.401123782588546E-1   -2.895444979219483E-1   -1.483928595269306E-2    3.430528775775636E-2   -1.298254524011207E-2    3.424945232754353E-2   -4.962724584837968E-1   -1.267371387194174E-1
 6.501271233150000E9    -4.405796289284283E-1   -2.885941888517516E-1   -1.472647328511146E-2    3.444193020806024E-2   -1.302646650159292E-2    3.443260531130139E-2   -4.967475100074504E-1   -1.256734875920727E-1
 6.501283291875000E9    -4.410401133978451E-1   -2.878381342252664E-1   -1.487544670983956E-2    3.463748821514870E-2   -1.296491853136143E-2    3.466744702879405E-2   -4.969119932343006E-1   -1.244210815691471E-1
 6.501295350600000E9    -4.416046426895902E-1   -2.869680303966331E-1   -1.475720837574511E-2    3.492891075459201E-2   -1.295166381992953E-2    3.490480605304817E-2   -4.969668415531796E-1   -1.231429951081597E-1
 6.501307409325000E9    -4.421076067215785E-1   -2.860768592218471E-1   -1.476648974250206E-2    3.514478265889080E-2   -1.298183491236753E-2    3.503037720366071E-2   -4.974091789620176E-1   -1.219331545242581E-1
 6.501319468050000E9    -4.426080243332193E-1   -2.852739918233669E-1   -1.481335911254202E-2    3.521339763239906E-2   -1.296726720091871E-2    3.532520878724759E-2   -4.976100060052960E-1   -1.205720456184398E-1
 6.501331526775000E9    -4.432859456128274E-1   -2.844565808548046E-1   -1.479927757380188E-2    3.545389165516171E-2   -1.300724608651650E-2    3.549525100735509E-2   -4.977325517956212E-1   -1.194515478279848E-1
 6.501343585500000E9    -4.437496279082470E-1   -2.835254960362091E-1   -1.467509886660438E-2    3.568390400281166E-2   -1.290752640382453E-2    3.571538895488264E-2   -4.979096077635832E-1   -1.182210347323620E-1
 6.501355644225000E9    -4.442509404018218E-1   -2.825312012087173E-1   -1.482462464143767E-2    3.595153988453406E-2   -1.291468385541550E-2    3.583374574875371E-2   -4.982292543918607E-1   -1.170080986663261E-1
 6.501367702950000E9    -4.447951630086697E-1   -2.817905547686206E-1   -1.480106197145200E-2    3.620248301749540E-2   -1.284426161952457E-2    3.615440461134201E-2   -4.984668598261851E-1   -1.158673859386218E-1
 6.501379761675000E9    -4.453422470914646E-1   -2.807937213589692E-1   -1.481263072041178E-2    3.638783712113829E-2   -1.281482387110981E-2    3.643709146571601E-2   -4.986160688992282E-1   -1.144542494491319E-1
 6.501391820400000E9    -4.458927007625250E-1   -2.800200453013919E-1   -1.473335945167810E-2    3.664421642308071E-2   -1.283640288753212E-2    3.664817810038398E-2   -4.988163840181678E-1   -1.131684678737762E-1
 6.501403879125000E9    -4.464181239432107E-1   -2.790575572569244E-1   -1.475491370277281E-2    3.695727237722983E-2   -1.283350054435202E-2    3.689176282018961E-2   -4.990764869639940E-1   -1.119145153790025E-1
 6.501415937850000E9    -4.469549340648222E-1   -2.781107879680322E-1   -1.487119834783393E-2    3.725639843500118E-2   -1.282703182392335E-2    3.707917682495800E-2   -4.992928598573528E-1   -1.106888978819812E-1
 6.501427996575000E9    -4.474277830235850E-1   -2.773329415795157E-1   -1.455541554994363E-2    3.741655416339023E-2   -1.281476647437640E-2    3.734644239160988E-2   -4.994913370239640E-1   -1.094162138001248E-1
 6.501440055300000E9    -4.479774648764112E-1   -2.763196825361670E-1   -1.469096635079689E-2    3.759765420118770E-2   -1.279636523556957E-2    3.768649002263293E-2   -4.997191729567802E-1   -1.081142251596804E-1
 6.501452114025000E9    -4.485162168539979E-1   -2.754377191804061E-1   -1.468663188487557E-2    3.792487646122981E-2   -1.270739948918025E-2    3.779060898972484E-2   -4.997755278370533E-1   -1.069224693044336E-1
 6.501464172750000E9    -4.488864323219665E-1   -2.747171824624727E-1   -1.474984298581498E-2    3.825812962851292E-2   -1.265114835328063E-2    3.795150047059496E-2   -5.000391935787357E-1   -1.056368295836662E-1
 6.501476231475000E9    -4.494246918957547E-1   -2.737024142886940E-1   -1.466044888438089E-2    3.846818502651016E-2   -1.269429638541863E-2    3.825570299437386E-2   -5.002285286332988E-1   -1.043576501455120E-1
 6.501488290200000E9    -4.500075685589505E-1   -2.727872792364256E-1   -1.471673011888359E-2    3.856153783565761E-2   -1.266959333519137E-2    3.854373390373676E-2   -5.002983592040384E-1   -1.029538014044269E-1
 6.501500348925000E9    -4.505472656976508E-1   -2.718406261015716E-1   -1.458219339676944E-2    3.883561813772518E-2   -1.272558430149316E-2    3.881347982113445E-2   -5.005183287599577E-1   -1.016592195275749E-1
 6.501512407650000E9    -4.509262804459405E-1   -2.709002631433965E-1   -1.469155511908548E-2    3.921678382151203E-2   -1.268547239115307E-2    3.904899625139873E-2   -5.006328533409877E-1   -1.004357473034120E-1
 6.501524466375000E9    -4.513722702867955E-1   -2.700084793852067E-1   -1.459342936117027E-2    3.936409080154973E-2   -1.265897305500728E-2    3.944343297252622E-2   -5.008932362018840E-1   -9.906578955499290E-2
 6.501536525100000E9    -4.520111898888158E-1   -2.691638076967016E-1   -1.465354668800461E-2    3.963530209667431E-2   -1.270302783222777E-2    3.956490255573306E-2   -5.010132082728349E-1   -9.787484980003466E-2
 6.501548583825000E9    -4.525077813999415E-1   -2.682333328192827E-1   -1.473840665800114E-2    4.010098327398001E-2   -1.260585796744110E-2    3.982693345265084E-2   -5.011994472021198E-1   -9.667070885929382E-2
 6.501560642550000E9    -4.529788723755850E-1   -2.672032067661612E-1   -1.456654735467560E-2    4.021607145575642E-2   -1.260603537360136E-2    4.022229678225522E-2   -5.014133077814030E-1   -9.519019601643365E-2
 6.501572701275000E9    -4.534432171560794E-1   -2.664339020641963E-1   -1.454657918886986E-2    4.053251829007324E-2   -1.255883001612868E-2    4.045820072081904E-2   -5.014397512359616E-1   -9.380332438839523E-2
 6.501584760000000E9    -4.540207966691026E-1   -2.655513911986526E-1   -1.464352441297576E-2    4.090759040737443E-2   -1.246645043353017E-2    4.069584814243866E-2   -5.016406939816342E-1   -9.241059649495729E-2
 6.501596818725000E9    -4.545217993345727E-1   -2.644857054546054E-1   -1.453017001435971E-2    4.112428972748517E-2   -1.246269244960009E-2    4.105767783468463E-2   -5.018694425682011E-1   -9.124930426769974E-2
 6.501608877450000E9    -4.549149112750193E-1   -2.636028822337217E-1   -1.456577194170927E-2    4.130509745834265E-2   -1.241749779874095E-2    4.130945764637579E-2   -5.018504941262447E-1   -8.981607174871814E-2
 6.501620936175000E9    -4.554287928528837E-1   -2.627453716859533E-1   -1.449839653162650E-2    4.176486850377644E-2   -1.241359825005109E-2    4.157540532448206E-2   -5.020285339037824E-1   -8.850864721873361E-2
 6.501632994900000E9    -4.559603013927283E-1   -2.618321545994031E-1   -1.452382231795612E-2    4.214422080740503E-2   -1.247095460307897E-2    4.186257562420693E-2   -5.022802199391783E-1   -8.713471110929345E-2
 6.501645053625000E9    -4.565609680548587E-1   -2.608309424273347E-1   -1.450843252208863E-2    4.231659312254930E-2   -1.241203369900294E-2    4.208211821909134E-2   -5.024078718370086E-1   -8.582587488958221E-2
 6.501657112350000E9    -4.570588870170638E-1   -2.597586272476735E-1   -1.450451686333360E-2    4.268985981873388E-2   -1.231651224710430E-2    4.231152190924633E-2   -5.025325490286142E-1   -8.427332345644654E-2
 6.501669171075000E9    -4.574923281501437E-1   -2.589343020043958E-1   -1.461382600835449E-2    4.284419071977807E-2   -1.242316535934250E-2    4.268364920292207E-2   -5.026460278821618E-1   -8.296267316376903E-2
 6.501681229800000E9    -4.579262598276566E-1   -2.580585830297501E-1   -1.440151364416521E-2    4.320931714772618E-2   -1.221391102727886E-2    4.297918702269966E-2   -5.026952700796455E-1   -8.166621669152528E-2
 6.501693288525000E9    -4.584354506210478E-1   -2.570969815108322E-1   -1.439598213140993E-2    4.353961783578547E-2   -1.228091292342200E-2    4.324236710071486E-2   -5.028263178144849E-1   -8.022607043630507E-2
 6.501705347250000E9    -4.588518648336229E-1   -2.560998115874792E-1   -1.460160910157174E-2    4.403322208948419E-2   -1.227747966416328E-2    4.358818580304900E-2   -5.029117327980550E-1   -7.872367029283490E-2
 6.501717405975000E9    -4.593726022404748E-1   -2.551349370075902E-1   -1.424902380926486E-2    4.428158346709778E-2   -1.226091690245603E-2    4.394395325973698E-2   -5.030168591937128E-1   -7.737392079066321E-2
 6.501729464700000E9    -4.599307802031872E-1   -2.542034182467297E-1   -1.436852650157037E-2    4.464465161874176E-2   -1.220261402223213E-2    4.426890231869795E-2   -5.031021892588805E-1   -7.597502264823720E-2
 6.501741523425000E9    -4.602577381582834E-1   -2.532922794549832E-1   -1.437322598617409E-2    4.479108825179579E-2   -1.214871251504081E-2    4.457160355736726E-2   -5.032040278016988E-1   -7.456453202466773E-2
 6.501753582150000E9    -4.607864699199201E-1   -2.522150222515757E-1   -1.428442435808021E-2    4.517526534140943E-2   -1.214242705740702E-2    4.491574038325481E-2   -5.032601951375592E-1   -7.309387151752697E-2
 6.501765640875000E9    -4.612275153530547E-1   -2.512920866030533E-1   -1.424892139444264E-2    4.545633367851490E-2   -1.210045553679906E-2    4.512259232918609E-2   -5.033754444093065E-1   -7.168038817565259E-2
 6.501777699600000E9    -4.618172018088273E-1   -2.502883914029910E-1   -1.426836364402733E-2    4.599197267500594E-2   -1.204264091620827E-2    4.552938195404076E-2   -5.035691851667357E-1   -7.028361011273668E-2
 6.501789758325000E9    -4.622297283325593E-1   -2.493523671295364E-1   -1.422758057817972E-2    4.629643673206221E-2   -1.201033351919341E-2    4.582038931703585E-2   -5.036618404342317E-1   -6.870902752693690E-2
 6.501801817050000E9    -4.627056904369233E-1   -2.485407275158841E-1   -1.427738634822918E-2    4.666649641918674E-2   -1.200943617397931E-2    4.624488727732303E-2   -5.036770948949300E-1   -6.737137299361694E-2
 6.501813875775000E9    -4.631024566979698E-1   -2.473678869981933E-1   -1.415432120452020E-2    4.697145429752082E-2   -1.185797810400882E-2    4.673825817072098E-2   -5.037647923034779E-1   -6.586974608861552E-2
 6.501825934500000E9    -4.636148851004301E-1   -2.463920252310280E-1   -1.424132185571733E-2    4.731159222614331E-2   -1.186714546935281E-2    4.693389820882347E-2   -5.037879681634987E-1   -6.440713443104031E-2
 6.501837993225000E9    -4.640618984276395E-1   -2.455506979861820E-1   -1.405938833702384E-2    4.769044487282231E-2   -1.183163505333351E-2    4.722853461466690E-2   -5.038544951317157E-1   -6.294658443767844E-2
 6.501850051950000E9    -4.644010277401550E-1   -2.445835770482152E-1   -1.410837826428656E-2    4.816513950092435E-2   -1.170051447753663E-2    4.768547372088280E-2   -5.039076859652453E-1   -6.146950911666132E-2
 6.501862110675000E9    -4.649899269713309E-1   -2.434532439070329E-1   -1.401224192578303E-2    4.835633895839059E-2   -1.171808518021220E-2    4.805314665305857E-2   -5.039480855020300E-1   -5.993656222356843E-2
 6.501874169400000E9    -4.653803589906835E-1   -2.424564782079035E-1   -1.406468146504232E-2    4.886772597555864E-2   -1.164545982372762E-2    4.837903822429828E-2   -5.039218169421386E-1   -5.837066933220587E-2
 6.501886228125000E9    -4.658637035901667E-1   -2.415170252792266E-1   -1.407383195896142E-2    4.922297406118305E-2   -1.160910234253076E-2    4.885135191093376E-2   -5.041186004414487E-1   -5.701629301730925E-2
 6.501898286850000E9    -4.663623366168017E-1   -2.404211681918444E-1   -1.396569407567551E-2    4.969469617598019E-2   -1.159129960316212E-2    4.917717085592175E-2   -5.040669743048245E-1   -5.543810179643262E-2
 6.501910345575000E9    -4.668998965360849E-1   -2.395461284005588E-1   -1.390030438659683E-2    5.000441828823125E-2   -1.160213137332227E-2    4.969146258702803E-2   -5.041648571811630E-1   -5.386348455980011E-2
 6.501922404300000E9    -4.672559369382829E-1   -2.385357551089412E-1   -1.384609448641948E-2    5.038131132783621E-2   -1.153743376045748E-2    4.998086850074260E-2   -5.042728765034090E-1   -5.236435058365607E-2
 6.501934463025000E9    -4.676379085426172E-1   -2.374117959885302E-1   -1.394740062725798E-2    5.082506939870450E-2   -1.138673674961795E-2    5.027888245655585E-2   -5.042079539188151E-1   -5.081821864849522E-2
 6.501946521750000E9    -4.681168736749642E-1   -2.364625308430060E-1   -1.379787783081289E-2    5.134760570685951E-2   -1.132112903699012E-2    5.073592432337551E-2   -5.042812573009355E-1   -4.915168529712981E-2
 6.501958580475000E9    -4.685319631596662E-1   -2.355030699260173E-1   -1.375842267353346E-2    5.165868765587464E-2   -1.138593118884344E-2    5.109484712367439E-2   -5.042395428080003E-1   -4.751395086551483E-2
 6.501970639200000E9    -4.689580639913723E-1   -2.343819833708264E-1   -1.368328315401640E-2    5.210132839608465E-2   -1.128163735921942E-2    5.164312693639045E-2   -5.042179672565330E-1   -4.593312691228251E-2
 6.501982697925000E9    -4.693667351731556E-1   -2.333642086784800E-1   -1.367835875156417E-2    5.267235568030388E-2   -1.124756512663892E-2    5.196482103994138E-2   -5.041523506730146E-1   -4.449014798522150E-2
 6.501994756650000E9    -4.697449617023836E-1   -2.324301472659039E-1   -1.358674246805579E-2    5.301355994612515E-2   -1.098520591819338E-2    5.243593027593179E-2   -5.041533787197173E-1   -4.280283821760465E-2
 6.502006815375000E9    -4.703520029368536E-1   -2.313384841888370E-1   -1.359996721953763E-2    5.342387031449902E-2   -1.103700662831197E-2    5.292300558287633E-2   -5.042568778703478E-1   -4.122064210906975E-2
 6.502018874100000E9    -4.707187852814106E-1   -2.302674226073844E-1   -1.360009284431833E-2    5.396689731602869E-2   -1.102571448200288E-2    5.327514029822591E-2   -5.040564042961881E-1   -3.941440199419645E-2
 6.502030932825000E9    -4.711896310972445E-1   -2.291919504337976E-1   -1.341432193351598E-2    5.438496251625185E-2   -1.082478275440015E-2    5.379100800698734E-2   -5.041110005346009E-1   -3.777130437909161E-2
 6.502042991550000E9    -4.716476772879533E-1   -2.281591771635955E-1   -1.341954600735940E-2    5.490699124581266E-2   -1.078117931742341E-2    5.418579426898486E-2   -5.041540392445131E-1   -3.621712507396063E-2
 6.502055050275000E9    -4.719768484587580E-1   -2.271334441563869E-1   -1.328346287407983E-2    5.527143828802939E-2   -1.078521835741947E-2    5.462716238360061E-2   -5.039860650308617E-1   -3.460125373494356E-2
 6.502067109000000E9    -4.724908586674257E-1   -2.260068604479381E-1   -1.324704334636937E-2    5.584777069820437E-2   -1.067122835922713E-2    5.522122159799198E-2   -5.040058790456660E-1   -3.303403688728059E-2
 6.502079167725000E9    -4.729574743647110E-1   -2.249691894781171E-1   -1.314410564145836E-2    5.640873826671541E-2   -1.051842479251544E-2    5.560185568009580E-2   -5.039801559868958E-1   -3.128868980809238E-2
 6.502091226450000E9    -4.734087762027370E-1   -2.238255155083067E-1   -1.296117561727403E-2    5.679853593771933E-2   -1.057117041946927E-2    5.610978835855773E-2   -5.039242098330657E-1   -2.945559202862324E-2
 6.502103285175000E9    -4.737761963132142E-1   -2.227742740179903E-1   -1.305239754067338E-2    5.724844076222763E-2   -1.034826896732442E-2    5.656921472040376E-2   -5.037354261282374E-1   -2.770407563918754E-2
 6.502115343900000E9    -4.741961031575330E-1   -2.216902510354203E-1   -1.305000814614129E-2    5.794697916319442E-2   -1.022802349785206E-2    5.712363592151030E-2   -5.037076928571022E-1   -2.595734840233145E-2
 6.502127402625000E9    -4.746486104203360E-1   -2.206727801021366E-1   -1.278570167150951E-2    5.841610433387592E-2   -1.018186244251826E-2    5.761854770619367E-2   -5.034241320175092E-1   -2.431775226637556E-2
 6.502139461350000E9    -4.750008054070116E-1   -2.195727338923726E-1   -1.279752717649049E-2    5.874357413854209E-2   -1.010051874473384E-2    5.818751781381795E-2   -5.033992102861531E-1   -2.260346160931988E-2
 6.502151520075000E9    -4.754041370864308E-1   -2.186157547891965E-1   -1.266494700456464E-2    5.949538250189042E-2   -1.003621768392869E-2    5.876342153475660E-2   -5.034044145209449E-1   -2.071336246172212E-2
 6.502163578800000E9    -4.759501946418739E-1   -2.173294207368312E-1   -1.263334772140075E-2    5.989815777272500E-2   -9.994548779735870E-3    5.915872315573641E-2   -5.032008658617817E-1   -1.895357066904755E-2
 6.502175637525000E9    -4.763011448858475E-1   -2.162735849194455E-1   -1.247546918967284E-2    6.043668831404883E-2   -9.787466376250357E-3    5.974853597351448E-2   -5.029879341381910E-1   -1.711426787348996E-2
 6.502187696250000E9    -4.766716855665379E-1   -2.151088632695791E-1   -1.237412045371004E-2    6.113847271207467E-2   -9.761553953872714E-3    6.033712535254099E-2   -5.028496953720611E-1   -1.531000488412733E-2
