#  HZ   S   RI   R     50.00 
! Rohde & Schwarz Vector Network Analyzer 
! Rohde-Schwarz,ZNB20-2Port,1311601062101988,3.16
! Created: UTC 3/20/2024, 11:38:41 AM
! freq[Hz]                re:S11                  im:S11                  re:S21                  im:S21                  re:S12                  im:S12                  re:S22                  im:S22
 6.501141745000000E9    -4.348535904750225E-1   -2.968477719074852E-1   -1.487629847804488E-2    3.224614208585058E-2   -1.294945236784075E-2    3.236057524330199E-2   -4.947443249313404E-1   -1.356088169188327E-1
 6.501153598325000E9    -4.353981121831805E-1   -2.960312449605379E-1   -1.478296319264450E-2    3.257130741181383E-2   -1.298424241158830E-2    3.256573120477103E-2   -4.949684604904585E-1   -1.344920169595142E-1
 6.501165451650000E9    -4.359343361649794E-1   -2.951552982333832E-1   -1.480085876769132E-2    3.267533055379639E-2   -1.297059721894494E-2    3.272805231354845E-2   -4.951926492600118E-1   -1.332057673928380E-1
 6.501177304975000E9    -4.364156570305662E-1   -2.942654435311169E-1   -1.482957010642990E-2    3.289268812510729E-2   -1.300820631955626E-2    3.295301918347605E-2   -4.956015673437286E-1   -1.321919982658813E-1
 6.501189158300000E9    -4.370830958675314E-1   -2.934248085897520E-1   -1.477862063899380E-2    3.308430040523912E-2   -1.288630534556502E-2    3.307412530903068E-2   -4.958012648483751E-1   -1.310682227350315E-1
 6.501201011625000E9    -4.375082926192550E-1   -2.925702843952542E-1   -1.477644207520966E-2    3.339275766294438E-2   -1.289697001591871E-2    3.334162308555363E-2   -4.959838875763719E-1   -1.296768824079002E-1
 6.501212864950000E9    -4.380504626255540E-1   -2.918071612740837E-1   -1.480389440597356E-2    3.346139029615296E-2   -1.291976278131923E-2    3.352051409872565E-2   -4.962250223440445E-1   -1.286853445050144E-1
 6.501224718275000E9    -4.385778579875815E-1   -2.908501062635630E-1   -1.489402466740852E-2    3.365075801536949E-2   -1.293021876671567E-2    3.365395656759113E-2   -4.963994577761542E-1   -1.274442151747689E-1
 6.501236571600000E9    -4.391086453446331E-1   -2.900652169219059E-1   -1.479834848521574E-2    3.403234507226912E-2   -1.299881659741198E-2    3.383669522507044E-2   -4.964976365447430E-1   -1.264477382827896E-1
 6.501248424925000E9    -4.396141405486959E-1   -2.892665654640136E-1   -1.481786248739721E-2    3.407108668373198E-2   -1.287958869481343E-2    3.403433850930405E-2   -4.968605826718769E-1   -1.252465790162657E-1
 6.501260278250000E9    -4.401040205599453E-1   -2.884668433960697E-1   -1.474003716359438E-2    3.438803512267245E-2   -1.288155564146151E-2    3.435773467991140E-2   -4.971655211007678E-1   -1.239049863588276E-1
 6.501272131575000E9    -4.407131132810300E-1   -2.875169598952418E-1   -1.461138642368383E-2    3.451601683273861E-2   -1.296816689437144E-2    3.453288125904043E-2   -4.973619422465396E-1   -1.227266904615456E-1
 6.501283984900000E9    -4.412268273059309E-1   -2.867180537311263E-1   -1.477549444389905E-2    3.474035771281424E-2   -1.292775460365361E-2    3.471081409298690E-2   -4.975185775192926E-1   -1.215886256438292E-1
 6.501295838225000E9    -4.417792317968337E-1   -2.857882112254159E-1   -1.480419596779054E-2    3.496476591397184E-2   -1.286820443196058E-2    3.503295412713545E-2   -4.978000544145771E-1   -1.203019736718055E-1
 6.501307691550000E9    -4.421588064886851E-1   -2.849516194242740E-1   -1.478667958632391E-2    3.516843143490981E-2   -1.290828158202336E-2    3.509068820062452E-2   -4.980322915877338E-1   -1.191492512568003E-1
 6.501319544875000E9    -4.427778127110401E-1   -2.841008815430030E-1   -1.473533026338348E-2    3.541896267887618E-2   -1.290783145947101E-2    3.537942729886356E-2   -4.981278580668333E-1   -1.179261362896878E-1
 6.501331398200000E9    -4.432766821161935E-1   -2.834127337845652E-1   -1.475108679315066E-2    3.559519833037252E-2   -1.290050657452460E-2    3.562255545524195E-2   -4.983486244512358E-1   -1.167241988955234E-1
 6.501343251525000E9    -4.438516243634937E-1   -2.825073280185517E-1   -1.479431520688850E-2    3.572745920699952E-2   -1.279792270596680E-2    3.574471394746316E-2   -4.986063740411956E-1   -1.156211172104607E-1
 6.501355104850000E9    -4.442517523945445E-1   -2.815566294273329E-1   -1.472335669910861E-2    3.622621745198328E-2   -1.289147539485809E-2    3.598642727825317E-2   -4.987318450334139E-1   -1.141879243450060E-1
 6.501366958175000E9    -4.447266393916370E-1   -2.806786752226684E-1   -1.481768865837305E-2    3.634797224499858E-2   -1.281715790290965E-2    3.614876772067161E-2   -4.990902181154782E-1   -1.131336885570455E-1
 6.501378811500000E9    -4.452522040863777E-1   -2.798006235139385E-1   -1.473059125870325E-2    3.653333150940834E-2   -1.277243220910457E-2    3.652548690685414E-2   -4.991262724011317E-1   -1.117639314172674E-1
 6.501390664825000E9    -4.458595670361139E-1   -2.789570043436352E-1   -1.476743433222362E-2    3.672379446396795E-2   -1.283611606940747E-2    3.659547920956131E-2   -4.992168582766762E-1   -1.105643113910282E-1
 6.501402518150000E9    -4.463868780186436E-1   -2.781123506583138E-1   -1.476887448781224E-2    3.700433942515629E-2   -1.275828902981837E-2    3.688012750359294E-2   -4.995720209686368E-1   -1.093547776172712E-1
 6.501414371475000E9    -4.468120332544354E-1   -2.771029564172392E-1   -1.468222254686671E-2    3.723338655368638E-2   -1.276894821413849E-2    3.712803600728321E-2   -4.996738961272109E-1   -1.080650694927235E-1
 6.501426224800000E9    -4.473396701947221E-1   -2.763483165760393E-1   -1.476888925915427E-2    3.750531345992046E-2   -1.275724272487400E-2    3.736617161301157E-2   -4.999917624069300E-1   -1.068165623108438E-1
 6.501438078125000E9    -4.478412781087336E-1   -2.754229795500777E-1   -1.470237632989290E-2    3.779365174004263E-2   -1.272568117154658E-2    3.757638374156889E-2   -5.001874409270153E-1   -1.056678682772668E-1
 6.501449931450000E9    -4.483443089110818E-1   -2.745970948811858E-1   -1.481834487075009E-2    3.795734118381246E-2   -1.263898608786030E-2    3.775460096671973E-2   -5.003519316692520E-1   -1.042454440813945E-1
 6.501461784775000E9    -4.488705375770894E-1   -2.737502837873678E-1   -1.461912151954108E-2    3.830282932429133E-2   -1.278083004225642E-2    3.811988891528494E-2   -5.004754149558762E-1   -1.030492576264152E-1
 6.501473638100000E9    -4.493067271334034E-1   -2.728219327754746E-1   -1.473630629582118E-2    3.847082583226576E-2   -1.265810605241141E-2    3.836209032941897E-2   -5.007399025868742E-1   -1.018469524570917E-1
 6.501485491425000E9    -4.497947065173601E-1   -2.718840300991894E-1   -1.465637746708231E-2    3.869977941803957E-2   -1.269335138350588E-2    3.853511054297958E-2   -5.009123107612328E-1   -1.005402425898144E-1
 6.501497344750000E9    -4.504144825389819E-1   -2.710498804831587E-1   -1.473230574644306E-2    3.902273794713179E-2   -1.262260985823894E-2    3.884810097358325E-2   -5.009921595522939E-1   -9.921322931824916E-2
 6.501509198075000E9    -4.508746894888120E-1   -2.702103515858282E-1   -1.453834182217842E-2    3.919818591935118E-2   -1.258324083194971E-2    3.901804634045162E-2   -5.010350209843037E-1   -9.798609795964935E-2
 6.501521051400000E9    -4.513797664515989E-1   -2.693361014749985E-1   -1.466260823202335E-2    3.960012326242486E-2   -1.247987235431123E-2    3.933201207684250E-2   -5.013615197533470E-1   -9.668008947602430E-2
 6.501532904725000E9    -4.519094668462160E-1   -2.684298129228029E-1   -1.461198226076413E-2    3.973753027304214E-2   -1.258640655652388E-2    3.956313774894994E-2   -5.014164920995987E-1   -9.537957273570732E-2
 6.501544758050000E9    -4.522659827728186E-1   -2.674317147598508E-1   -1.459500707261067E-2    4.009944116337615E-2   -1.259370046194507E-2    3.990941967766543E-2   -5.015928213035357E-1   -9.401755010603123E-2
 6.501556611375000E9    -4.528115784366373E-1   -2.665162694720059E-1   -1.467398792314091E-2    4.036620270376290E-2   -1.253136681868586E-2    4.007099870033368E-2   -5.015964919711253E-1   -9.285383720916790E-2
 6.501568464700000E9    -4.533175448822324E-1   -2.656940771355804E-1   -1.450035259385911E-2    4.060648708794282E-2   -1.245666935964994E-2    4.036650674015405E-2   -5.018955702447628E-1   -9.152673556760747E-2
 6.501580318025000E9    -4.538143384185812E-1   -2.646977378851129E-1   -1.463300326204605E-2    4.082280560405634E-2   -1.249670577146121E-2    4.064842758966502E-2   -5.019817947324093E-1   -9.015883598781768E-2
 6.501592171350000E9    -4.543498882587299E-1   -2.638303618645503E-1   -1.457493049077004E-2    4.121200099259515E-2   -1.244956714268995E-2    4.097942720196514E-2   -5.020944154713314E-1   -8.877293529852318E-2
 6.501604024675000E9    -4.547676209533410E-1   -2.629833184090457E-1   -1.462130970518517E-2    4.140026916043405E-2   -1.246757350200318E-2    4.120285042458565E-2   -5.023245521960128E-1   -8.766467937390414E-2
 6.501615878000000E9    -4.552535045406463E-1   -2.619707716652751E-1   -1.459641206339480E-2    4.161176811227537E-2   -1.238799322396321E-2    4.154054935524076E-2   -5.024551427131321E-1   -8.624622061847115E-2
 6.501627731325000E9    -4.556868996236087E-1   -2.611013871525741E-1   -1.453467196881796E-2    4.212535175255385E-2   -1.239459367289312E-2    4.178979992381329E-2   -5.026497633106209E-1   -8.486855296740005E-2
 6.501639584650000E9    -4.563026266060243E-1   -2.602410121757115E-1   -1.447360687611355E-2    4.228956680386547E-2   -1.229175873411781E-2    4.210224873744416E-2   -5.026925232420028E-1   -8.354547525869224E-2
 6.501651437975000E9    -4.567710569318707E-1   -2.593652181986949E-1   -1.446223225156922E-2    4.266759229781358E-2   -1.237112707468023E-2    4.237832558434772E-2   -5.029582615951192E-1   -8.216823522208361E-2
 6.501663291300000E9    -4.571565554791522E-1   -2.583417589045978E-1   -1.455089491551871E-2    4.289531729121286E-2   -1.227024098488891E-2    4.259221201118672E-2   -5.030339574827229E-1   -8.076020407283833E-2
 6.501675144625000E9    -4.577766993219528E-1   -2.575400286055977E-1   -1.444756689392122E-2    4.322111593142697E-2   -1.228413021719774E-2    4.303124094704994E-2   -5.030937044136088E-1   -7.943112850800874E-2
 6.501686997950000E9    -4.581028321211685E-1   -2.564992121588806E-1   -1.434760587341576E-2    4.350781782272351E-2   -1.222259481722158E-2    4.321582881148137E-2   -5.033018958672826E-1   -7.812176723875978E-2
 6.501698851275000E9    -4.586786284506293E-1   -2.556112634990083E-1   -1.448661484891911E-2    4.396059559630956E-2   -1.218969858283347E-2    4.356003801992935E-2   -5.032801814591145E-1   -7.670061398556088E-2
 6.501710704600000E9    -4.591757060514970E-1   -2.546578740193125E-1   -1.454323798062117E-2    4.419719629574724E-2   -1.213741580343502E-2    4.381905273356188E-2   -5.035510995381975E-1   -7.542783809581007E-2
 6.501722557925000E9    -4.596074136905777E-1   -2.537110630889404E-1   -1.445369426461576E-2    4.459404087496612E-2   -1.209942078385750E-2    4.420655745345638E-2   -5.035226150729606E-1   -7.389704596757575E-2
 6.501734411250000E9    -4.599519587928103E-1   -2.528032330752523E-1   -1.436870342553778E-2    4.480248792402255E-2   -1.215917389164739E-2    4.444846695015167E-2   -5.035802474031030E-1   -7.249042494810984E-2
 6.501746264575000E9    -4.604914292011781E-1   -2.518259293875366E-1   -1.443574963560584E-2    4.529605142186757E-2   -1.201054832663460E-2    4.472298935014116E-2   -5.037775297504460E-1   -7.123045902498525E-2
 6.501758117900000E9    -4.609627312140055E-1   -2.509366491032890E-1   -1.438263404677922E-2    4.552671997306584E-2   -1.207358603161782E-2    4.509691711915102E-2   -5.038789464732908E-1   -6.974316194133150E-2
 6.501769971225000E9    -4.613974193408766E-1   -2.498601665671078E-1   -1.436399641087073E-2    4.579913924219992E-2   -1.203414569322274E-2    4.541847558228914E-2   -5.039234354982306E-1   -6.818418664019188E-2
 6.501781824550000E9    -4.618147393581584E-1   -2.489936824436331E-1   -1.426659066761893E-2    4.617625262972546E-2   -1.195826488839991E-2    4.582849377560032E-2   -5.040618676895141E-1   -6.706356131429914E-2
 6.501793677875000E9    -4.623600107119664E-1   -2.480994989797045E-1   -1.426752032212645E-2    4.651127619702648E-2   -1.194692029819745E-2    4.614894961777479E-2   -5.040368729528661E-1   -6.551373000285618E-2
 6.501805531200000E9    -4.628720457056216E-1   -2.470775943573387E-1   -1.437741107225667E-2    4.702014400623439E-2   -1.195459352249140E-2    4.639057248803952E-2   -5.040662701519197E-1   -6.398269993539071E-2
 6.501817384525000E9    -4.632086560193722E-1   -2.461637788548381E-1   -1.431121666738504E-2    4.719765117228656E-2   -1.180949589476867E-2    4.679957101159645E-2   -5.041639629278220E-1   -6.252583948239063E-2
 6.501829237850000E9    -4.637490922281375E-1   -2.451143282361594E-1   -1.420657502209434E-2    4.764078529727242E-2   -1.179441842183102E-2    4.716586492292640E-2   -5.042714252852141E-1   -6.111683462925432E-2
 6.501841091175000E9    -4.641409505627222E-1   -2.441241300167865E-1   -1.422590336448152E-2    4.804906850628984E-2   -1.178948168253351E-2    4.745069059555279E-2   -5.041938085230901E-1   -5.950557129392716E-2
 6.501852944500000E9    -4.645755287556743E-1   -2.431742784135832E-1   -1.405216353958261E-2    4.842605552724995E-2   -1.174411287351463E-2    4.789411305804822E-2   -5.043287500500649E-1   -5.823441379238974E-2
 6.501864797825000E9    -4.650821225200398E-1   -2.423012120886207E-1   -1.415173034447418E-2    4.875229570941826E-2   -1.166448406822550E-2    4.820325312685460E-2   -5.043514083435766E-1   -5.668376764808629E-2
 6.501876651150000E9    -4.654457675017243E-1   -2.411211771918664E-1   -1.391176392573691E-2    4.913751487950822E-2   -1.162535599223724E-2    4.856353579675611E-2   -5.043091275250697E-1   -5.523884143297947E-2
 6.501888504475000E9    -4.658965322814163E-1   -2.403532137992980E-1   -1.402737726455946E-2    4.947369146731512E-2   -1.152736691451013E-2    4.901307678260475E-2   -5.044569460231052E-1   -5.377672150473999E-2
 6.501900357800000E9    -4.664164864652364E-1   -2.392162602303865E-1   -1.403775916812495E-2    4.982341607421890E-2   -1.151200483700910E-2    4.936854109055600E-2   -5.044720965455637E-1   -5.217584633386800E-2
 6.501912211125000E9    -4.669006234867155E-1   -2.382095895248680E-1   -1.386576231135676E-2    5.028850428762652E-2   -1.147162084158716E-2    4.968490235648292E-2   -5.044225813855322E-1   -5.057925005757397E-2
 6.501924064450000E9    -4.673657332637029E-1   -2.372871296770175E-1   -1.392033193151079E-2    5.065529214830287E-2   -1.143825082897684E-2    5.006942990253477E-2   -5.045542705614404E-1   -4.916782785267217E-2
 6.501935917775000E9    -4.676966048228912E-1   -2.362326233411821E-1   -1.374000731935433E-2    5.105617421347209E-2   -1.135470101371635E-2    5.050568920515358E-2   -5.045606682450903E-1   -4.744602225016300E-2
 6.501947771100000E9    -4.681915230850722E-1   -2.352761461080328E-1   -1.385758339078639E-2    5.154573923534898E-2   -1.123477213019843E-2    5.089123859904095E-2   -5.045248468097822E-1   -4.600425238872295E-2
 6.501959624425000E9    -4.686449768066457E-1   -2.343022488032743E-1   -1.381264471600666E-2    5.197239285507638E-2   -1.126421321569245E-2    5.123451805779898E-2   -5.045417900208673E-1   -4.446644441790770E-2
 6.501971477750000E9    -4.689579944674540E-1   -2.332685975581564E-1   -1.378344293723252E-2    5.234703012208858E-2   -1.118384329800714E-2    5.180175213441723E-2   -5.045103545215207E-1   -4.295837855454090E-2
 6.501983331075000E9    -4.695505772763215E-1   -2.322571694091268E-1   -1.364476305760579E-2    5.273066579216013E-2   -1.118564956295177E-2    5.220358213310754E-2   -5.045121534409349E-1   -4.130388764348441E-2
 6.501995184400000E9    -4.698961056245989E-1   -2.313206662791828E-1   -1.355461688307460E-2    5.326349874094959E-2   -1.105334288932601E-2    5.260134901225067E-2   -5.043433328607573E-1   -3.970080584445595E-2
 6.502007037725000E9    -4.702719129124722E-1   -2.302053083236502E-1   -1.349247620056411E-2    5.371773941488852E-2   -1.100663379430160E-2    5.300586405326259E-2   -5.043269147389278E-1   -3.822642999215036E-2
 6.502018891050000E9    -4.707033600629836E-1   -2.292527801866632E-1   -1.362287967924118E-2    5.408213986445010E-2   -1.094258108717691E-2    5.350708382747283E-2   -5.045082824876774E-1   -3.644200300490685E-2
 6.502030744375000E9    -4.712216859746435E-1   -2.280579556895647E-1   -1.337978223992886E-2    5.462567564892642E-2   -1.087414143286856E-2    5.387839024188784E-2   -5.043474099426878E-1   -3.488470705257938E-2
 6.502042597700000E9    -4.716629408521965E-1   -2.270942128977761E-1   -1.352791170813809E-2    5.507092634765279E-2   -1.073764177059225E-2    5.432112149522320E-2   -5.043702447328503E-1   -3.321397002230322E-2
 6.502054451025000E9    -4.720134283023932E-1   -2.260416334180461E-1   -1.334328120175574E-2    5.545358547520558E-2   -1.075838051214142E-2    5.483764891380878E-2   -5.041962992648534E-1   -3.156520062367266E-2
 6.502066304350000E9    -4.723694860801980E-1   -2.251395116235386E-1   -1.324711450569069E-2    5.593720437941197E-2   -1.065910285905667E-2    5.522593727807621E-2   -5.041617721100665E-1   -2.992236891205691E-2
 6.502078157675000E9    -4.727675129887201E-1   -2.239780531467044E-1   -1.323661689481781E-2    5.637406273260066E-2   -1.051788040172627E-2    5.563955972390023E-2   -5.041096918850332E-1   -2.833667062516355E-2
 6.502090011000000E9    -4.732066640000321E-1   -2.230050126801793E-1   -1.316801306838208E-2    5.692584746463810E-2   -1.048026508229141E-2    5.622950911659531E-2   -5.039588365862760E-1   -2.654509526392396E-2
 6.502101864325000E9    -4.737366554873157E-1   -2.219836660715012E-1   -1.308666163472033E-2    5.755819110392069E-2   -1.040284517616684E-2    5.665701034857946E-2   -5.040085640180698E-1   -2.495453163637652E-2
 6.502113717650000E9    -4.741275113128687E-1   -2.208222404294093E-1   -1.283263700630896E-2    5.802364400073125E-2   -1.026843809684634E-2    5.717361146587394E-2   -5.038534859671476E-1   -2.307902765467346E-2
 6.502125570975000E9    -4.744985784332593E-1   -2.196848419462087E-1   -1.289742466890867E-2    5.843182052760486E-2   -1.014051091904459E-2    5.764929642057098E-2   -5.038258323672745E-1   -2.151921561423687E-2
 6.502137424300000E9    -4.749547862807115E-1   -2.186885806219460E-1   -1.278808400826388E-2    5.905807853700287E-2   -1.004691430346656E-2    5.815711906284913E-2   -5.037303126185054E-1   -1.967448764211134E-2
 6.502149277625000E9    -4.752409414660373E-1   -2.176525704544891E-1   -1.276649331659272E-2    5.964013043295729E-2   -9.950514256523841E-3    5.866569929898157E-2   -5.035172710683140E-1   -1.795723075500054E-2
 6.502161130950000E9    -4.756602683001017E-1   -2.165853391942673E-1   -1.266828535628782E-2    6.008216635253530E-2   -9.889131711140461E-3    5.926380103794719E-2   -5.033251909117389E-1   -1.621267821336871E-2
 6.502172984275000E9    -4.761065717255563E-1   -2.154541602547133E-1   -1.255042675045106E-2    6.073731265608232E-2   -9.754436607256658E-3    5.975311084216344E-2   -5.032310606532218E-1   -1.450049844099412E-2
 6.502184837600000E9    -4.764548175883392E-1   -2.142974471411725E-1   -1.250255264030683E-2    6.123798775678637E-2   -9.694485197488010E-3    6.028242071009682E-2   -5.031759318604865E-1   -1.263911054576009E-2
 6.502196690925000E9    -4.769749600745579E-1   -2.131761812816230E-1   -1.236882785278405E-2    6.190032294986043E-2   -9.463875334548925E-3    6.082588389257878E-2   -5.029927524579744E-1   -1.070700136395468E-2
 6.502208544250000E9    -4.772861742264227E-1   -2.121250390969263E-1   -1.218390725806210E-2    6.229584200763424E-2   -9.442602847765711E-3    6.132721203008792E-2   -5.027749726372823E-1   -8.907487806835873E-3
