#  HZ   S   RI   R     50.00 
! Rohde & Schwarz Vector Network Analyzer 
! Rohde-Schwarz,ZNB20-2Port,1311601062101988,3.16
! Created: UTC 3/20/2024, 11:36:11 AM
! freq[Hz]                re:S11                  im:S11                  re:S21                  im:S21                  re:S12                  im:S12                  re:S22                  im:S22
 6.501162348000000E9    -4.361322305400079E-1   -2.950240007746334E-1   -1.479443471269827E-2    3.255071364078378E-2   -1.294851925046820E-2    3.262317400939290E-2   -4.950911803867857E-1   -1.333962293818893E-1
 6.501174138725000E9    -4.366270436550130E-1   -2.942238968086553E-1   -1.479410430034212E-2    3.284753331699367E-2   -1.290125768893063E-2    3.285073290352428E-2   -4.954460349910347E-1   -1.322552422657074E-1
 6.501185929450000E9    -4.370977217200521E-1   -2.933024650692458E-1   -1.488492650133735E-2    3.295920166263789E-2   -1.284710629382503E-2    3.299992588210394E-2   -4.956244339326744E-1   -1.311825917774048E-1
 6.501197720175000E9    -4.376403572594835E-1   -2.926274232202873E-1   -1.481969956741431E-2    3.311141505423089E-2   -1.293087857593362E-2    3.320085802101810E-2   -4.959580806534364E-1   -1.299312864609344E-1
 6.501209510900000E9    -4.381269944607511E-1   -2.916285472473219E-1   -1.489607511530349E-2    3.351061767898795E-2   -1.287489326681646E-2    3.331144035432974E-2   -4.961317285855371E-1   -1.288075736965498E-1
 6.501221301625000E9    -4.387160165430768E-1   -2.908465049472155E-1   -1.467979867588372E-2    3.345799830461436E-2   -1.284177851122629E-2    3.357838133453663E-2   -4.961640997555504E-1   -1.277017972536384E-1
 6.501233092350000E9    -4.392128485524884E-1   -2.899110217143921E-1   -1.468762469026193E-2    3.372767053072252E-2   -1.289698356271657E-2    3.377670447555870E-2   -4.964896115642781E-1   -1.264611982015059E-1
 6.501244883075000E9    -4.397543165486080E-1   -2.890891217144908E-1   -1.484461748121008E-2    3.388485393713088E-2   -1.286663327346080E-2    3.389891513681532E-2   -4.967592420124126E-1   -1.252637233522784E-1
 6.501256673800000E9    -4.402534276843801E-1   -2.883488891127132E-1   -1.476942878238351E-2    3.420379334978913E-2   -1.285709161386907E-2    3.416428230172577E-2   -4.970265487466327E-1   -1.241140663660868E-1
 6.501268464525000E9    -4.407297939641193E-1   -2.874691776018521E-1   -1.476946413530609E-2    3.437436803195415E-2   -1.287586705347710E-2    3.436546822672868E-2   -4.973239894513334E-1   -1.228110877304935E-1
 6.501280255250000E9    -4.413584172116678E-1   -2.866966336158655E-1   -1.480788509548092E-2    3.455838122194489E-2   -1.297083345186808E-2    3.449941358808297E-2   -4.973622293048862E-1   -1.217970010556182E-1
 6.501292045975000E9    -4.418025371599535E-1   -2.856823588947068E-1   -1.481895173126397E-2    3.477712356417344E-2   -1.287553641669735E-2    3.473329641908358E-2   -4.977268685102918E-1   -1.205248637910642E-1
 6.501303836700000E9    -4.423128520724138E-1   -2.850585807201036E-1   -1.477385784537939E-2    3.504648339972591E-2   -1.281036028103236E-2    3.503310769967889E-2   -4.979077299484011E-1   -1.194193623922232E-1
 6.501315627425000E9    -4.428599764454307E-1   -2.840365629562893E-1   -1.461029366749360E-2    3.511895491615300E-2   -1.280731033026751E-2    3.516819296205019E-2   -4.981188897117860E-1   -1.182011028947889E-1
 6.501327418150000E9    -4.433372922183767E-1   -2.832459754087550E-1   -1.482860392014671E-2    3.550649277053532E-2   -1.282586723765552E-2    3.536442329527046E-2   -4.982803943381982E-1   -1.170385381585142E-1
 6.501339208875000E9    -4.439040241851666E-1   -2.823696886891017E-1   -1.479382169068998E-2    3.559375021242831E-2   -1.276857037604843E-2    3.566005529943128E-2   -4.985151255306516E-1   -1.157388493452534E-1
 6.501350999600000E9    -4.444414026974723E-1   -2.815376376352866E-1   -1.464474297017324E-2    3.596877989528984E-2   -1.280914145244991E-2    3.587968309905904E-2   -4.986053160870523E-1   -1.146088903337208E-1
 6.501362790325000E9    -4.449737745959501E-1   -2.805800785122240E-1   -1.482825038216007E-2    3.624370958750458E-2   -1.280994395386457E-2    3.607896650212679E-2   -4.988780810468619E-1   -1.133540966721371E-1
 6.501374581050000E9    -4.453765149806232E-1   -2.798584168582326E-1   -1.473649188430558E-2    3.633234094894737E-2   -1.267522249359973E-2    3.633346088189469E-2   -4.991051789004773E-1   -1.122234334912612E-1
 6.501386371775000E9    -4.459371978156996E-1   -2.789482073565505E-1   -1.474001733590605E-2    3.660604904378884E-2   -1.273842851827606E-2    3.643928275528099E-2   -4.993190234970794E-1   -1.110068953913769E-1
 6.501398162500000E9    -4.464092501784773E-1   -2.780713280824780E-1   -1.471822047110979E-2    3.682218104689290E-2   -1.275415748327577E-2    3.676800338455152E-2   -4.993518349839347E-1   -1.096546761568788E-1
 6.501409953225000E9    -4.469564685958219E-1   -2.771954027222749E-1   -1.474909079626752E-2    3.691460038162379E-2   -1.270505122755430E-2    3.691296549456418E-2   -4.996581828098458E-1   -1.084953652648307E-1
 6.501421743950000E9    -4.474266606440477E-1   -2.763022348263628E-1   -1.471055327431595E-2    3.724120142370314E-2   -1.267296407371933E-2    3.717586580962937E-2   -4.999590535039671E-1   -1.071227695584235E-1
 6.501433534675000E9    -4.477886236321642E-1   -2.754939379062337E-1   -1.465045743022108E-2    3.757988289329151E-2   -1.260961958617773E-2    3.732643518334040E-2   -5.001062697811510E-1   -1.059462091045743E-1
 6.501445325400000E9    -4.484291436347129E-1   -2.746656268214816E-1   -1.467788253947803E-2    3.763716104012529E-2   -1.263198840929017E-2    3.772581035621725E-2   -5.001967818669436E-1   -1.047139370784243E-1
 6.501457116125000E9    -4.488412049979396E-1   -2.736354776113999E-1   -1.473093499035314E-2    3.798845798154321E-2   -1.261977112308231E-2    3.778697416007984E-2   -5.002985034230792E-1   -1.035618832612726E-1
 6.501468906850000E9    -4.495873912673236E-1   -2.728080982218433E-1   -1.469345928650363E-2    3.820616351476725E-2   -1.268560511592843E-2    3.815082634849400E-2   -5.004074227481166E-1   -1.020562199241346E-1
 6.501480697575000E9    -4.499138404381495E-1   -2.718522163138937E-1   -1.468004463586046E-2    3.838395487803370E-2   -1.263282895384922E-2    3.839301585793854E-2   -5.007188499303196E-1   -1.009677389637862E-1
 6.501492488300000E9    -4.503749028598471E-1   -2.711564937931936E-1   -1.458384286449170E-2    3.890142481718225E-2   -1.265493473889070E-2    3.859692012344963E-2   -5.009287106950541E-1   -9.971969144712980E-2
 6.501504279025000E9    -4.509217992777474E-1   -2.702499948724087E-1   -1.456666821992179E-2    3.906839413282254E-2   -1.253197801504681E-2    3.887073292267135E-2   -5.012650096436184E-1   -9.841511624529697E-2
 6.501516069750000E9    -4.514558389174362E-1   -2.693634744201969E-1   -1.473759063230955E-2    3.935075455492682E-2   -1.256409829922952E-2    3.909682268134670E-2   -5.013687568379769E-1   -9.717619712521769E-2
 6.501527860475000E9    -4.518922270852365E-1   -2.683998323362096E-1   -1.471882609610859E-2    3.948776639779595E-2   -1.249492269139559E-2    3.932805755125609E-2   -5.014788670224317E-1   -9.578845869994274E-2
 6.501539651200000E9    -4.523353399808981E-1   -2.675972647546876E-1   -1.469645387108772E-2    3.970853844768970E-2   -1.260946233778609E-2    3.966414479585043E-2   -5.015657948590285E-1   -9.456606662069243E-2
 6.501551441925000E9    -4.527910940889514E-1   -2.666748623838944E-1   -1.460638073456002E-2    4.009574071437465E-2   -1.249205012404981E-2    3.981686586516957E-2   -5.017315415014392E-1   -9.332201564668802E-2
 6.501563232650000E9    -4.534150992049684E-1   -2.657015902025449E-1   -1.468324743606697E-2    4.032313184046022E-2   -1.241313356084002E-2    4.010492110725375E-2   -5.016681804737774E-1   -9.196861831991707E-2
 6.501575023375000E9    -4.539050355747405E-1   -2.648815982367045E-1   -1.463717903041209E-2    4.059339197794507E-2   -1.240092316627837E-2    4.035944437532663E-2   -5.020629722344158E-1   -9.070986162397360E-2
 6.501586814100000E9    -4.542977069592199E-1   -2.639761974521780E-1   -1.458123862918345E-2    4.086979324205615E-2   -1.242537340523787E-2    4.065730265256111E-2   -5.021101634440550E-1   -8.943270797234550E-2
 6.501598604825000E9    -4.547963765774773E-1   -2.631085554284529E-1   -1.463436405319149E-2    4.119463777566587E-2   -1.236978521833083E-2    4.093565251264304E-2   -5.023019482626725E-1   -8.811755518457376E-2
 6.501610395550000E9    -4.553313137806652E-1   -2.620769921629787E-1   -1.459230809849460E-2    4.150642941135336E-2   -1.239182031877568E-2    4.121673329193085E-2   -5.023785891315518E-1   -8.678663142980030E-2
 6.501622186275000E9    -4.557093988630951E-1   -2.611883661279306E-1   -1.459525336708898E-2    4.170678034125164E-2   -1.228984212989402E-2    4.147728767442968E-2   -5.024583322269299E-1   -8.551059020238148E-2
 6.501633977000000E9    -4.561652066760578E-1   -2.603817035032268E-1   -1.444924529232164E-2    4.203258988075823E-2   -1.231907159419498E-2    4.174124602192653E-2   -5.026093903319167E-1   -8.415215368330020E-2
 6.501645767725000E9    -4.566667028179108E-1   -2.593970120271762E-1   -1.445531880073790E-2    4.250982365849226E-2   -1.232360651013197E-2    4.208547724870036E-2   -5.027887929772774E-1   -8.278564134026957E-2
 6.501657558450000E9    -4.572029117153864E-1   -2.585411982958626E-1   -1.461646390321275E-2    4.271643690491950E-2   -1.232191306466917E-2    4.231248718873717E-2   -5.029568509768415E-1   -8.152683720818896E-2
 6.501669349175000E9    -4.576036218480418E-1   -2.576267580655314E-1   -1.440555871849490E-2    4.307067022502939E-2   -1.222475500596979E-2    4.268356233342600E-2   -5.029922603568674E-1   -8.017107954626000E-2
 6.501681139900000E9    -4.581610669514944E-1   -2.567074623342090E-1   -1.442329305331154E-2    4.328549098763908E-2   -1.219821302261785E-2    4.296592712776710E-2   -5.030896937999776E-1   -7.875479195505607E-2
 6.501692930625000E9    -4.587260514637750E-1   -2.557511947046459E-1   -1.438986421191437E-2    4.349930958131994E-2   -1.226957651988616E-2    4.324847999684083E-2   -5.032467246068494E-1   -7.738491420860166E-2
 6.501704721350000E9    -4.591155543320121E-1   -2.547987196070150E-1   -1.438368975449831E-2    4.388948047561754E-2   -1.222677058094186E-2    4.354028831016490E-2   -5.034026794240324E-1   -7.598876443944112E-2
 6.501716512075000E9    -4.595794705611314E-1   -2.538282159781078E-1   -1.436609169255463E-2    4.409909101966113E-2   -1.211192515038107E-2    4.382406652133101E-2   -5.034101117047636E-1   -7.455725096452526E-2
 6.501728302800000E9    -4.600718281867651E-1   -2.529890578180071E-1   -1.438804757833999E-2    4.447247389024420E-2   -1.214426743785909E-2    4.411250545396897E-2   -5.035642610517442E-1   -7.319584542425964E-2
 6.501740093525000E9    -4.604790123051456E-1   -2.520982554969479E-1   -1.419387637896057E-2    4.484781534522302E-2   -1.206426918992143E-2    4.446197336108865E-2   -5.036386217154666E-1   -7.180436333128036E-2
 6.501751884250000E9    -4.610305099771305E-1   -2.511011680629673E-1   -1.435993416109015E-2    4.518558676961467E-2   -1.192257939375989E-2    4.484970231982740E-2   -5.037046798223185E-1   -7.053713825819269E-2
 6.501763674975000E9    -4.613849810316071E-1   -2.500614545535234E-1   -1.441469699974151E-2    4.540451764067393E-2   -1.205073471590611E-2    4.510790667354555E-2   -5.038168539261506E-1   -6.902184213717918E-2
 6.501775465700000E9    -4.619730190909425E-1   -2.491948509082072E-1   -1.442676145756628E-2    4.580617838629972E-2   -1.193472042529561E-2    4.538295211439754E-2   -5.038992530162992E-1   -6.762913533128040E-2
 6.501787256425000E9    -4.623042788327597E-1   -2.482707647545357E-1   -1.433910201565607E-2    4.616460394430112E-2   -1.186068675335832E-2    4.577056828582578E-2   -5.040094426111404E-1   -6.611548044712447E-2
 6.501799047150000E9    -4.628621144288655E-1   -2.472719313509206E-1   -1.432875951081698E-2    4.652674641770508E-2   -1.189134552209290E-2    4.604921654473924E-2   -5.040314772926807E-1   -6.483184868340118E-2
 6.501810837875000E9    -4.631782434447376E-1   -2.463950861647810E-1   -1.422988322339323E-2    4.691916556056863E-2   -1.177844046464959E-2    4.640400668704465E-2   -5.041353845891390E-1   -6.338675711982170E-2
 6.501822628600000E9    -4.637553330679269E-1   -2.453934568224326E-1   -1.421544050443538E-2    4.715936998741420E-2   -1.184197985411687E-2    4.669592500230601E-2   -5.040782351948868E-1   -6.189793956439145E-2
 6.501834419325000E9    -4.642485589502924E-1   -2.444546472661565E-1   -1.404961312113480E-2    4.753063379802040E-2   -1.178894786278808E-2    4.705903715058950E-2   -5.041757111921222E-1   -6.053578590087721E-2
 6.501846210050000E9    -4.645521515225071E-1   -2.434622289688075E-1   -1.412797905321325E-2    4.794612164307471E-2   -1.164941810827485E-2    4.754525760843330E-2   -5.042347731490697E-1   -5.899344255099066E-2
 6.501858000775000E9    -4.650977867396716E-1   -2.425778951797739E-1   -1.397097652250429E-2    4.817090116118487E-2   -1.166296079593494E-2    4.788693325920381E-2   -5.044826562646249E-1   -5.749337389291048E-2
 6.501869791500000E9    -4.656273452196560E-1   -2.414329264910299E-1   -1.403102063065379E-2    4.855156043264888E-2   -1.158221953184242E-2    4.817734382181249E-2   -5.044774312239639E-1   -5.614241929807317E-2
 6.501881582225000E9    -4.659224237937575E-1   -2.405509811025351E-1   -1.398943619727845E-2    4.897649395362126E-2   -1.153041407415482E-2    4.863894160522408E-2   -5.044000191262832E-1   -5.465785841020899E-2
 6.501893372950000E9    -4.663461299649728E-1   -2.395103555587861E-1   -1.401446031658105E-2    4.954068375319624E-2   -1.146126213747736E-2    4.892985894919626E-2   -5.043565269185875E-1   -5.326854728168506E-2
 6.501905163675000E9    -4.668252598939099E-1   -2.385543414212412E-1   -1.402523290437707E-2    4.982990956918128E-2   -1.148845330616501E-2    4.925389418502211E-2   -5.045088027691201E-1   -5.164968364887226E-2
 6.501916954400000E9    -4.672708531679007E-1   -2.375763584920152E-1   -1.386787561662015E-2    5.027148312723625E-2   -1.135131413977119E-2    4.956267842023485E-2   -5.045492830346777E-1   -5.002918743828220E-2
 6.501928745125000E9    -4.677714211092431E-1   -2.366888335061480E-1   -1.394110521067675E-2    5.050927166415199E-2   -1.139071082397923E-2    5.003956663366450E-2   -5.045633118503010E-1   -4.869779327642792E-2
 6.501940535850000E9    -4.680963353201528E-1   -2.355891226946658E-1   -1.380635328153613E-2    5.102706859346918E-2   -1.124811496225819E-2    5.052219116418398E-2   -5.045578527318365E-1   -4.705839231539932E-2
 6.501952326575000E9    -4.686370466255991E-1   -2.346546105209980E-1   -1.390584677427143E-2    5.137643261532730E-2   -1.127460676875989E-2    5.089380635806798E-2   -5.045793026917854E-1   -4.555249656542826E-2
 6.501964117300000E9    -4.689764141675420E-1   -2.335431036675693E-1   -1.380954394250843E-2    5.186740071859309E-2   -1.113991852324111E-2    5.127297837312452E-2   -5.044686541686481E-1   -4.395961378026370E-2
 6.501975908025000E9    -4.694727213878500E-1   -2.327046271304267E-1   -1.380238664360543E-2    5.237781525338969E-2   -1.121214086546243E-2    5.164245684865412E-2   -5.044933944760643E-1   -4.243635504141467E-2
 6.501987698750000E9    -4.698940873220842E-1   -2.316079916727729E-1   -1.360585475568174E-2    5.266146476970045E-2   -1.108466595059561E-2    5.210015597265319E-2   -5.045491864174501E-1   -4.080068499823077E-2
 6.501999489475000E9    -4.703007606727490E-1   -2.305018289596621E-1   -1.352927118899390E-2    5.313992682923174E-2   -1.095788502108812E-2    5.257393879453626E-2   -5.045907816043532E-1   -3.922052009066276E-2
 6.502011280200000E9    -4.708349367517821E-1   -2.295646949720494E-1   -1.355571013275991E-2    5.351941118459221E-2   -1.090764893852843E-2    5.287729819188277E-2   -5.044252082915496E-1   -3.767548764326893E-2
 6.502023070925000E9    -4.712760655065319E-1   -2.285772981102671E-1   -1.342508599071534E-2    5.404197594351519E-2   -1.095174163437522E-2    5.337431047111429E-2   -5.044998777858430E-1   -3.605012612011717E-2
 6.502034861650000E9    -4.716558998556200E-1   -2.275893457988735E-1   -1.344823086395569E-2    5.440870058976700E-2   -1.078129785865465E-2    5.375164952642875E-2   -5.043595310866650E-1   -3.437259134767574E-2
 6.502046652375000E9    -4.720018527703804E-1   -2.265560689708462E-1   -1.341075112940244E-2    5.485756242962916E-2   -1.081490547248600E-2    5.430751268291530E-2   -5.042674973496042E-1   -3.284344256213580E-2
 6.502058443100000E9    -4.723892373319735E-1   -2.254402921930280E-1   -1.334584811333705E-2    5.543943185007122E-2   -1.059884155269882E-2    5.464057564200698E-2   -5.043551903228728E-1   -3.120815264760875E-2
 6.502070233825000E9    -4.728352041843594E-1   -2.245027695651426E-1   -1.331299062863040E-2    5.590652625470349E-2   -1.062180894786471E-2    5.511153637872088E-2   -5.041483634448419E-1   -2.962505514158711E-2
 6.502082024550000E9    -4.733115911350301E-1   -2.234119666863293E-1   -1.321063265086718E-2    5.634409575402213E-2   -1.047479640027046E-2    5.565116646318301E-2   -5.042118306087884E-1   -2.789239659601919E-2
 6.502093815275000E9    -4.735278723989657E-1   -2.223744432198256E-1   -1.305242692669437E-2    5.690068980788694E-2   -1.040219728242994E-2    5.602929849464214E-2   -5.040440131844324E-1   -2.622045550772739E-2
 6.502105606000000E9    -4.740935836262880E-1   -2.213572359562040E-1   -1.313744781784663E-2    5.734869966378706E-2   -1.022509566469516E-2    5.645000380056007E-2   -5.039326605189446E-1   -2.446533678009816E-2
 6.502117396725000E9    -4.745752058107129E-1   -2.202604270965854E-1   -1.289469075900030E-2    5.776598112898990E-2   -1.024189221324143E-2    5.702471364806587E-2   -5.039829581095246E-1   -2.288813974606855E-2
 6.502129187450000E9    -4.749580760406230E-1   -2.191856024865189E-1   -1.298032816536514E-2    5.847817545534720E-2   -1.028367214323341E-2    5.752592546812805E-2   -5.038084019724495E-1   -2.115725711029007E-2
 6.502140978175000E9    -4.753478385830152E-1   -2.181349034528546E-1   -1.290957721228117E-2    5.885325005811060E-2   -1.004087598656809E-2    5.804317942476526E-2   -5.037694417131733E-1   -1.942779192570276E-2
 6.502152768900000E9    -4.756668406384657E-1   -2.170021429629598E-1   -1.290935128471230E-2    5.936055079673545E-2   -9.955212026897106E-3    5.856691798629843E-2   -5.034638579461381E-1   -1.772315326322477E-2
 6.502164559625000E9    -4.760868058423293E-1   -2.159261350277909E-1   -1.280277416622106E-2    5.995135820370131E-2   -9.864286785734732E-3    5.907211530301363E-2   -5.034338314811856E-1   -1.596322858493647E-2
 6.502176350350000E9    -4.763976715228824E-1   -2.148821912395834E-1   -1.263240106350672E-2    6.050202214130493E-2   -9.723489704299268E-3    5.963219500188138E-2   -5.032840160591517E-1   -1.413407824939952E-2
 6.502188141075000E9    -4.768986958429285E-1   -2.138834450724408E-1   -1.248944261730870E-2    6.092502546152266E-2   -9.595744606537842E-3    6.008973264774643E-2   -5.032852526159743E-1   -1.238616802989632E-2
 6.502199931800000E9    -4.772536062799254E-1   -2.126861415368012E-1   -1.252286270729275E-2    6.155939253761537E-2   -9.530734344363218E-3    6.062588962368752E-2   -5.030217404404591E-1   -1.065042171581989E-2
 6.502211722525000E9    -4.776726388742861E-1   -2.116820278663849E-1   -1.228359769351317E-2    6.221393223038375E-2   -9.449172228801169E-3    6.123747601106471E-2   -5.029157626322711E-1   -8.852840033385150E-3
 6.502223513250000E9    -4.780898742802493E-1   -2.105851082121634E-1   -1.213523001170386E-2    6.271124547706271E-2   -9.242692893154244E-3    6.184248191016515E-2   -5.026895747423235E-1   -6.961798700319271E-3
