#  HZ   S   RI   R     50.00 
! Rohde & Schwarz Vector Network Analyzer 
! Rohde-Schwarz,ZNB20-2Port,1311601062101988,3.16
! Created: UTC 3/20/2024, 12:03:17 PM
! freq[Hz]                re:S11                  im:S11                  re:S21                  im:S21                  re:S12                  im:S12                  re:S22                  im:S22
 6.501114522000000E9    -4.339206948880491E-1   -2.992765383787227E-1   -1.484196071306483E-2    3.181935754619818E-2   -1.293515068566691E-2    3.190469067085778E-2   -4.936596566003519E-1   -1.409168146188385E-1
 6.501126541075000E9    -4.344659253881845E-1   -2.984617097789863E-1   -1.479009280813014E-2    3.206984413659002E-2   -1.297708596027935E-2    3.205104873256610E-2   -4.939217023201986E-1   -1.396261843992626E-1
 6.501138560150000E9    -4.350979397805348E-1   -2.976442742072151E-1   -1.469475334945658E-2    3.202560229675092E-2   -1.303013290414357E-2    3.227079643602745E-2   -4.942155617754074E-1   -1.385075607788082E-1
 6.501150579225000E9    -4.354991675235576E-1   -2.966895877428309E-1   -1.469519638917238E-2    3.231193364630863E-2   -1.298132108893060E-2    3.237181770383970E-2   -4.944604982689653E-1   -1.373780604887754E-1
 6.501162598300000E9    -4.361566129457699E-1   -2.958444382560045E-1   -1.467637800192148E-2    3.264176829169192E-2   -1.309197044284129E-2    3.268760813085687E-2   -4.947543888153870E-1   -1.362801600163911E-1
 6.501174617375000E9    -4.366473280124430E-1   -2.950082708519074E-1   -1.485025794192153E-2    3.273380856077135E-2   -1.291713100347541E-2    3.271600327995989E-2   -4.949177518938939E-1   -1.350299296062036E-1
 6.501186636450000E9    -4.371569498060249E-1   -2.941626196805502E-1   -1.472396144621408E-2    3.300224630114781E-2   -1.307522855606389E-2    3.297174165741845E-2   -4.951722529435416E-1   -1.339551071673394E-1
 6.501198655525000E9    -4.377030834476432E-1   -2.933412044993542E-1   -1.467546765115839E-2    3.317951340235113E-2   -1.294239067013493E-2    3.317430961858109E-2   -4.954290215296390E-1   -1.327836629884298E-1
 6.501210674600000E9    -4.382489524308291E-1   -2.924444386917678E-1   -1.494371379681577E-2    3.338998729419489E-2   -1.285974384428872E-2    3.339169706132036E-2   -4.955542539253182E-1   -1.316777051895522E-1
 6.501222693675000E9    -4.387527370414860E-1   -2.915625776461832E-1   -1.464780019554870E-2    3.342965747531518E-2   -1.298528624448998E-2    3.360110876398809E-2   -4.959290650137623E-1   -1.303902102901559E-1
 6.501234712750000E9    -4.393606825279240E-1   -2.908294509120963E-1   -1.480073617591936E-2    3.370474864702663E-2   -1.299275723213566E-2    3.373624425589629E-2   -4.961813351589499E-1   -1.292193690100376E-1
 6.501246731825000E9    -4.399319791035237E-1   -2.900143703107954E-1   -1.476123635506935E-2    3.395286426775284E-2   -1.292695039767393E-2    3.400044898331710E-2   -4.963866866104861E-1   -1.280466908013441E-1
 6.501258750900000E9    -4.404576032143299E-1   -2.891147984906248E-1   -1.476461533737157E-2    3.408606189324895E-2   -1.294739906701019E-2    3.424407704022130E-2   -4.966225402869957E-1   -1.269330763786975E-1
 6.501270769975000E9    -4.409693117001638E-1   -2.881659495644200E-1   -1.476484372298701E-2    3.432599254624491E-2   -1.293612851887318E-2    3.428455853397427E-2   -4.969188120568682E-1   -1.256820584240168E-1
 6.501282789050000E9    -4.415032382366648E-1   -2.873926326093083E-1   -1.478454740733879E-2    3.459380043397843E-2   -1.288291611661714E-2    3.458257637749589E-2   -4.971254396262292E-1   -1.244876056039222E-1
 6.501294808125000E9    -4.419946199287735E-1   -2.864816279036910E-1   -1.471523341190959E-2    3.471599152294548E-2   -1.289304989116787E-2    3.490201297432410E-2   -4.973186438763696E-1   -1.232745728154035E-1
 6.501306827200000E9    -4.425311232485721E-1   -2.857393352765406E-1   -1.467299778172319E-2    3.498843482510743E-2   -1.282122690461792E-2    3.497792186299550E-2   -4.974519541683083E-1   -1.219351712838777E-1
 6.501318846275000E9    -4.430580368958538E-1   -2.848093490311315E-1   -1.461884966324001E-2    3.524703058001259E-2   -1.283974553898724E-2    3.511649230727610E-2   -4.977459598932720E-1   -1.207747610638591E-1
 6.501330865350000E9    -4.435630430135534E-1   -2.838872623860431E-1   -1.473677075712823E-2    3.544999653712166E-2   -1.290444742377633E-2    3.546260570991733E-2   -4.980971812944174E-1   -1.195619594549429E-1
 6.501342884425000E9    -4.440732492600483E-1   -2.829437918671840E-1   -1.478005956159452E-2    3.567782798510335E-2   -1.293626621657866E-2    3.569393654680478E-2   -4.981345873993542E-1   -1.181732310501898E-1
 6.501354903500000E9    -4.447831602841237E-1   -2.820769245725601E-1   -1.480487906649024E-2    3.593784369063179E-2   -1.288694355292251E-2    3.578612965618456E-2   -4.984641266635620E-1   -1.170158622257296E-1
 6.501366922575000E9    -4.451462130132255E-1   -2.812404920736949E-1   -1.479631611605398E-2    3.615393289911419E-2   -1.281968534090510E-2    3.611044919056045E-2   -4.985354950154008E-1   -1.158346061309357E-1
 6.501378941650000E9    -4.457123191131838E-1   -2.803645015494873E-1   -1.479392897285712E-2    3.636063224503289E-2   -1.282648594224605E-2    3.636823457967250E-2   -4.987843947039120E-1   -1.146291798139787E-1
 6.501390960725000E9    -4.461000730509167E-1   -2.795754533997102E-1   -1.493776958600635E-2    3.660565300694447E-2   -1.275889931169862E-2    3.658197091328284E-2   -4.990419226935038E-1   -1.133607780967183E-1
 6.501402979800000E9    -4.466891997018823E-1   -2.785523695966090E-1   -1.471681910207316E-2    3.678719244130169E-2   -1.279355024385056E-2    3.685883323849659E-2   -4.991999625586159E-1   -1.120800051597605E-1
 6.501414998875000E9    -4.472064615557788E-1   -2.777806575723151E-1   -1.470398898062217E-2    3.701967954093868E-2   -1.272313622057717E-2    3.695086649323204E-2   -4.995454077014043E-1   -1.107999385691362E-1
 6.501427017950000E9    -4.476455009940267E-1   -2.769006453841422E-1   -1.464658571576364E-2    3.737784399189226E-2   -1.282199424126784E-2    3.718541310036430E-2   -4.995343349700846E-1   -1.097431598914494E-1
 6.501439037025000E9    -4.482549316575026E-1   -2.760841234065466E-1   -1.475210718207857E-2    3.746739205290477E-2   -1.273491708659224E-2    3.755580131086238E-2   -4.998036445376532E-1   -1.082628453720699E-1
 6.501451056100000E9    -4.487244834275927E-1   -2.750219872497734E-1   -1.474302373664379E-2    3.781274202397056E-2   -1.271522825668432E-2    3.767647676254429E-2   -5.001227719571012E-1   -1.071345813121983E-1
 6.501463075175000E9    -4.491833180025787E-1   -2.742804505565751E-1   -1.476220527256334E-2    3.810436894323617E-2   -1.271366581331372E-2    3.802178701922716E-2   -5.002298021177196E-1   -1.059117166502360E-1
 6.501475094250000E9    -4.497598176444766E-1   -2.732350870101635E-1   -1.472090145655267E-2    3.830576822180083E-2   -1.262169335289498E-2    3.814916411530607E-2   -5.001701111323398E-1   -1.043990229167031E-1
 6.501487113325000E9    -4.503361740291930E-1   -2.723735780702051E-1   -1.480669661423569E-2    3.860449276929351E-2   -1.267907762396646E-2    3.848540258208711E-2   -5.007070533610906E-1   -1.032543277305336E-1
 6.501499132400000E9    -4.507151823288452E-1   -2.716556284260291E-1   -1.466326167453330E-2    3.882052100232745E-2   -1.264949210747590E-2    3.881897308313511E-2   -5.006765854898084E-1   -1.019370484018884E-1
 6.501511151475000E9    -4.513471596559142E-1   -2.705550961647242E-1   -1.460100135969642E-2    3.917038553731094E-2   -1.259436295933653E-2    3.900374921137925E-2   -5.008193699378861E-1   -1.006151454561740E-1
 6.501523170550000E9    -4.517429727338022E-1   -2.697809969306666E-1   -1.465061507810901E-2    3.930956025586253E-2   -1.263288527028427E-2    3.929259379110316E-2   -5.010262036299739E-1   -9.933467348399738E-2
 6.501535189625000E9    -4.522747892740442E-1   -2.688712649717456E-1   -1.465408251883010E-2    3.958924692484005E-2   -1.257317711733590E-2    3.950602353768407E-2   -5.011283857833306E-1   -9.802336450265289E-2
 6.501547208700000E9    -4.528769758648097E-1   -2.678270005738005E-1   -1.461389023654668E-2    3.994459378957036E-2   -1.259185545986100E-2    3.980924059968086E-2   -5.012618911491685E-1   -9.676266884151043E-2
 6.501559227775000E9    -4.532468228283831E-1   -2.668878699063341E-1   -1.459438722678931E-2    4.026029137027516E-2   -1.257122347356680E-2    3.998940915981181E-2   -5.014856561748904E-1   -9.545104917045950E-2
 6.501571246850000E9    -4.537483209318407E-1   -2.660634187971537E-1   -1.471379238788490E-2    4.055384183200644E-2   -1.258047385803612E-2    4.026403006300397E-2   -5.017683917062722E-1   -9.416304059449501E-2
 6.501583265925000E9    -4.542781645162028E-1   -2.650670834716505E-1   -1.461054053424219E-2    4.081081546862686E-2   -1.245353524428197E-2    4.060551321499242E-2   -5.017584845461801E-1   -9.272888092304227E-2
 6.501595285000000E9    -4.547831017741601E-1   -2.642680746076727E-1   -1.457457947431374E-2    4.102118686275538E-2   -1.247075863406051E-2    4.085728212772424E-2   -5.020630826253103E-1   -9.139832331736861E-2
 6.501607304075000E9    -4.552314981944812E-1   -2.632650634773693E-1   -1.460421663261920E-2    4.137104921922582E-2   -1.247539761978410E-2    4.117544833111695E-2   -5.021771052553010E-1   -8.994814100460825E-2
 6.501619323150000E9    -4.556881314391493E-1   -2.623867436174817E-1   -1.459046953652639E-2    4.164540107486916E-2   -1.235173540359932E-2    4.146985385242064E-2   -5.023176568281931E-1   -8.852813683183566E-2
 6.501631342225000E9    -4.561671269125093E-1   -2.614170165924630E-1   -1.454251298383257E-2    4.193029103203032E-2   -1.242179415902480E-2    4.180867213426306E-2   -5.024680350531856E-1   -8.744306484058462E-2
 6.501643361300000E9    -4.567418188735077E-1   -2.605676908506102E-1   -1.453572961197266E-2    4.216228259931003E-2   -1.237688261811837E-2    4.202698594765970E-2   -5.024508316859632E-1   -8.595607261924043E-2
 6.501655380375000E9    -4.570894421487472E-1   -2.594400459947115E-1   -1.450772053904718E-2    4.261932399821945E-2   -1.230795037274824E-2    4.233257698707579E-2   -5.027366521122592E-1   -8.476940200281712E-2
 6.501667399450000E9    -4.576598329648141E-1   -2.586614216573319E-1   -1.444759990638854E-2    4.284690727005236E-2   -1.220801165215453E-2    4.265894164820569E-2   -5.028062103848338E-1   -8.329654118291145E-2
 6.501679418525000E9    -4.583081054627611E-1   -2.578276703815558E-1   -1.455768795295914E-2    4.308547981934323E-2   -1.230730918401552E-2    4.284595259142988E-2   -5.029487189732650E-1   -8.187731258158085E-2
 6.501691437600000E9    -4.586312524402451E-1   -2.567243308331128E-1   -1.444132918500141E-2    4.345599545722358E-2   -1.218994528249004E-2    4.326515508568248E-2   -5.030976286425198E-1   -8.051543339497520E-2
 6.501703456675000E9    -4.591182045450027E-1   -2.559137664466040E-1   -1.445115032047590E-2    4.371544037995898E-2   -1.227928076224173E-2    4.347074546094581E-2   -5.030651252412077E-1   -7.918136398091809E-2
 6.501715475750000E9    -4.596293112182838E-1   -2.549238127997305E-1   -1.437554229152541E-2    4.393167976411258E-2   -1.217613091193333E-2    4.376226883563882E-2   -5.032186293982940E-1   -7.764526257668723E-2
 6.501727494825000E9    -4.600608661448696E-1   -2.539029834270601E-1   -1.440823018511169E-2    4.436500239109332E-2   -1.208132940790264E-2    4.406842638014390E-2   -5.033480619726988E-1   -7.627449950234842E-2
 6.501739513900000E9    -4.605782228526176E-1   -2.529000061904229E-1   -1.429385839504476E-2    4.467881378713410E-2   -1.213707677429118E-2    4.438992046825944E-2   -5.034007340663946E-1   -7.493777517681896E-2
 6.501751532975000E9    -4.610348346005785E-1   -2.520026123806773E-1   -1.453090218165397E-2    4.503080342041135E-2   -1.203478796946103E-2    4.483331050310368E-2   -5.035950848521654E-1   -7.340365273990168E-2
 6.501763552050000E9    -4.614237234902481E-1   -2.511438438572707E-1   -1.426792598514662E-2    4.521714060037984E-2   -1.205196690722697E-2    4.501624636442119E-2   -5.035292074228181E-1   -7.202491608215687E-2
 6.501775571125000E9    -4.619607716849407E-1   -2.499591049743665E-1   -1.435174718026838E-2    4.579071500715197E-2   -1.202622633509482E-2    4.548848550724347E-2   -5.037569947573810E-1   -7.061205281651510E-2
 6.501787590200000E9    -4.624088506020984E-1   -2.492748372594435E-1   -1.420584040440176E-2    4.617955363256821E-2   -1.198918827468719E-2    4.570628849209060E-2   -5.037550638540180E-1   -6.914057199933882E-2
 6.501799609275000E9    -4.629574290009947E-1   -2.480948862581092E-1   -1.432693407795783E-2    4.647886466192046E-2   -1.199205494033773E-2    4.607948197188386E-2   -5.038696606000064E-1   -6.785590087686634E-2
 6.501811628350000E9    -4.634732485352963E-1   -2.472135203820184E-1   -1.419253407183664E-2    4.673687529655282E-2   -1.186061997073307E-2    4.637806978867143E-2   -5.040260202432360E-1   -6.626644403260776E-2
 6.501823647425000E9    -4.639892876142838E-1   -2.461687163788353E-1   -1.421130271244491E-2    4.711444177224144E-2   -1.185161850060931E-2    4.683126675205209E-2   -5.039566483127252E-1   -6.477980748570034E-2
 6.501835666500000E9    -4.642516239890636E-1   -2.452136104938844E-1   -1.434977797690174E-2    4.758632208896239E-2   -1.175656352925555E-2    4.707018305220519E-2   -5.041000866648772E-1   -6.343552449653982E-2
 6.501847685575000E9    -4.647377792634632E-1   -2.442859699899453E-1   -1.402904251954092E-2    4.783054963651132E-2   -1.173426068647692E-2    4.739721931414313E-2   -5.043096337117794E-1   -6.174673638424210E-2
 6.501859704650000E9    -4.652362326199482E-1   -2.432386892299264E-1   -1.401558334958215E-2    4.819008041795619E-2   -1.161114048447253E-2    4.781067482757824E-2   -5.041660836428399E-1   -6.033212644401637E-2
 6.501871723725000E9    -4.656749880090381E-1   -2.423290828236142E-1   -1.404462786514175E-2    4.864022206870693E-2   -1.167875365989627E-2    4.816244561342983E-2   -5.043365027623273E-1   -5.888875891815849E-2
 6.501883742800000E9    -4.661694998810705E-1   -2.411542711265890E-1   -1.392258209514595E-2    4.912567442859875E-2   -1.159298768388548E-2    4.860331186561578E-2   -5.043047541896624E-1   -5.732924071507019E-2
 6.501895761875000E9    -4.665445138176404E-1   -2.402430189554298E-1   -1.388603829182134E-2    4.941302197504090E-2   -1.154089637169804E-2    4.901147908015334E-2   -5.043336503114245E-1   -5.577585815235341E-2
 6.501907780950000E9    -4.669969693409167E-1   -2.392496075304472E-1   -1.400362060762835E-2    4.988209361291292E-2   -1.143700059086999E-2    4.941420480026375E-2   -5.043276280450804E-1   -5.428707275068644E-2
 6.501919800025000E9    -4.674150367150015E-1   -2.382645490392675E-1   -1.396095328401002E-2    5.028337062293015E-2   -1.143400804089440E-2    4.982523873847448E-2   -5.044171124023198E-1   -5.271232275704086E-2
 6.501931819100000E9    -4.680082941339105E-1   -2.371698665231356E-1   -1.392776891871032E-2    5.058119479422648E-2   -1.141855405780966E-2    5.008033056498869E-2   -5.043496952020931E-1   -5.116109012249390E-2
 6.501943838175000E9    -4.683624272480004E-1   -2.361251365996457E-1   -1.378438761941467E-2    5.107589809529110E-2   -1.133021272980081E-2    5.052853544005016E-2   -5.045961819342751E-1   -4.960959854883074E-2
 6.501955857250000E9    -4.688166213069754E-1   -2.352311019492504E-1   -1.385010187012562E-2    5.149040530870830E-2   -1.139244093907257E-2    5.092104952186410E-2   -5.045200739576065E-1   -4.813397868865749E-2
 6.501967876325000E9    -4.692593047504026E-1   -2.340969868201648E-1   -1.385956624107164E-2    5.198844647207915E-2   -1.116614195163447E-2    5.138630459603973E-2   -5.044428354324543E-1   -4.644590378150333E-2
 6.501979895400000E9    -4.697064333193148E-1   -2.333168966123954E-1   -1.369996412328278E-2    5.232218579933542E-2   -1.114767673577996E-2    5.184962261598965E-2   -5.042841951571164E-1   -4.478094244468712E-2
 6.501991914475000E9    -4.701956691016874E-1   -2.321428689356868E-1   -1.361665216264900E-2    5.271756738015482E-2   -1.103901400402068E-2    5.219552803838000E-2   -5.044628481248107E-1   -4.315589607025976E-2
 6.502003933550000E9    -4.705824238434470E-1   -2.310961807737564E-1   -1.349352317941121E-2    5.327580031570700E-2   -1.101660043360700E-2    5.266007823783089E-2   -5.044019551672114E-1   -4.174213578760771E-2
 6.502015952625000E9    -4.709970194786466E-1   -2.299788509498679E-1   -1.355948047875227E-2    5.366425560673983E-2   -1.097081615561640E-2    5.315373335800293E-2   -5.044179167449954E-1   -4.001608256853546E-2
 6.502027971700000E9    -4.713990253203157E-1   -2.289441086557895E-1   -1.343980744015663E-2    5.407006037879383E-2   -1.089540721732159E-2    5.351947304627851E-2   -5.044600158577609E-1   -3.838932706185388E-2
 6.502039990775000E9    -4.717808273272892E-1   -2.280755861788402E-1   -1.343004818062516E-2    5.454377724022669E-2   -1.077103128118354E-2    5.387271569679836E-2   -5.043395476721662E-1   -3.672088266796949E-2
 6.502052009850000E9    -4.723133594854858E-1   -2.270282348920314E-1   -1.322954156499739E-2    5.510042387236411E-2   -1.071964203693072E-2    5.439818961336870E-2   -5.042105228559739E-1   -3.512493080975461E-2
 6.502064028925000E9    -4.727089180832572E-1   -2.258752922156304E-1   -1.340761126041947E-2    5.543986832195772E-2   -1.065529198177445E-2    5.492909885586183E-2   -5.042276581756920E-1   -3.337987601951931E-2
 6.502076048000000E9    -4.732482498726170E-1   -2.248057872974713E-1   -1.316357644846419E-2    5.611259591040178E-2   -1.056805846089229E-2    5.537521353558367E-2   -5.042574479210673E-1   -3.176912048968304E-2
 6.502088067075000E9    -4.735457352333162E-1   -2.237400340823392E-1   -1.317123497719906E-2    5.638889184335014E-2   -1.031866066248723E-2    5.574528065008458E-2   -5.039764721225574E-1   -3.003213080767274E-2
 6.502100086150000E9    -4.739388145758364E-1   -2.225523515366721E-1   -1.307624254722146E-2    5.708360511492088E-2   -1.035428999811741E-2    5.636250814574185E-2   -5.040112657860936E-1   -2.842142109753545E-2
 6.502112105225000E9    -4.742865732598145E-1   -2.215946422518591E-1   -1.291610147287429E-2    5.749229022869203E-2   -1.029784618428359E-2    5.671883433460587E-2   -5.039555070027285E-1   -2.663216680481149E-2
 6.502124124300000E9    -4.748281284994825E-1   -2.205289711905014E-1   -1.290445275790460E-2    5.801224891458921E-2   -1.031124132883360E-2    5.730251266901243E-2   -5.038496702003817E-1   -2.484172535221152E-2
 6.502136143375000E9    -4.752896155092310E-1   -2.194293480120346E-1   -1.281988584971349E-2    5.857548132392240E-2   -1.016579189121280E-2    5.778436751405236E-2   -5.038284178548612E-1   -2.305229011966766E-2
 6.502148162450000E9    -4.756295566887035E-1   -2.184295271608097E-1   -1.274213856140899E-2    5.912899896731649E-2   -1.000850077294956E-2    5.825356215999125E-2   -5.035729344322805E-1   -2.142599952569368E-2
 6.502160181525000E9    -4.761299063772464E-1   -2.172424572395340E-1   -1.271291656802508E-2    5.964537347576974E-2   -1.000463253761426E-2    5.885525713018905E-2   -5.034529536944078E-1   -1.968564084684019E-2
 6.502172200600000E9    -4.765352885263290E-1   -2.161362559435446E-1   -1.255009930748074E-2    6.024531398111563E-2   -9.821470832069825E-3    5.937069716132973E-2   -5.033393011968046E-1   -1.774096632540190E-2
 6.502184219675000E9    -4.767248785938972E-1   -2.149964409230127E-1   -1.245950350532072E-2    6.076765871079121E-2   -9.702831133118827E-3    6.000326984580953E-2   -5.032782653973515E-1   -1.615445831125747E-2
 6.502196238750000E9    -4.772506484393630E-1   -2.139510210028455E-1   -1.245775722789080E-2    6.125877565286702E-2   -9.621603861234075E-3    6.047058453834200E-2   -5.031755770753004E-1   -1.418784691542659E-2
