#  HZ   S   RI   R     50.00 
! Rohde & Schwarz Vector Network Analyzer 
! Rohde-Schwarz,ZNB20-2Port,1311601062101988,3.16
! Created: UTC 3/20/2024, 12:03:32 PM
! freq[Hz]                re:S11                  im:S11                  re:S21                  im:S21                  re:S12                  im:S12                  re:S22                  im:S22
 6.501121847000000E9    -4.343807910314480E-1   -2.984251704063720E-1   -1.473223837512182E-2    3.186874019754503E-2   -1.294749012096288E-2    3.192327993505863E-2   -4.938711519844602E-1   -1.401980438850348E-1
 6.501133845725000E9    -4.349360214396766E-1   -2.975715949839142E-1   -1.467235713772191E-2    3.188819691090605E-2   -1.301564789596055E-2    3.205905964532316E-2   -4.940880928487740E-1   -1.391297639392036E-1
 6.501145844450000E9    -4.354518539432909E-1   -2.967079265022743E-1   -1.478044268180402E-2    3.220056132889251E-2   -1.300483138730137E-2    3.229049500479506E-2   -4.944785113580515E-1   -1.378169307156551E-1
 6.501157843175000E9    -4.360202854372850E-1   -2.959286036280314E-1   -1.472635090021549E-2    3.239244724617499E-2   -1.298497995590114E-2    3.255425174765109E-2   -4.944902530588232E-1   -1.366598938650457E-1
 6.501169841900000E9    -4.365175745023660E-1   -2.949784773335629E-1   -1.468725174133025E-2    3.270644675005842E-2   -1.293320054969355E-2    3.263798702395568E-2   -4.948265631671212E-1   -1.355130766139844E-1
 6.501181840625000E9    -4.369776211954858E-1   -2.941716349323346E-1   -1.463822409239443E-2    3.277079921655496E-2   -1.296299290790304E-2    3.291470525596287E-2   -4.952106823241805E-1   -1.343451286243803E-1
 6.501193839350000E9    -4.375845168340443E-1   -2.932934927799210E-1   -1.472838107983049E-2    3.296078839242446E-2   -1.302181998525139E-2    3.301911580988364E-2   -4.953557059274654E-1   -1.332014150791572E-1
 6.501205838075000E9    -4.381972986791134E-1   -2.925024852613891E-1   -1.470380536074794E-2    3.325176925545256E-2   -1.296099805570838E-2    3.315111192786480E-2   -4.955782880735270E-1   -1.320541641134796E-1
 6.501217836800000E9    -4.386840499691552E-1   -2.917307492410498E-1   -1.476974455713017E-2    3.326364629432710E-2   -1.290173253400428E-2    3.347740256535362E-2   -4.959367387599407E-1   -1.307758525667692E-1
 6.501229835525000E9    -4.391485770984646E-1   -2.908126099051420E-1   -1.462890231247323E-2    3.365431760807734E-2   -1.289683307455754E-2    3.363812084712499E-2   -4.960666640760308E-1   -1.296883195423717E-1
 6.501241834250000E9    -4.397696502453093E-1   -2.898942750125106E-1   -1.478050599776216E-2    3.387271071346122E-2   -1.287724444759374E-2    3.383201760112979E-2   -4.964361276885795E-1   -1.286485649179600E-1
 6.501253832975000E9    -4.402503573461672E-1   -2.892083043249979E-1   -1.478794052617168E-2    3.390802673256638E-2   -1.297105930979326E-2    3.404265009665335E-2   -4.965570937198019E-1   -1.273351153068367E-1
 6.501265831700000E9    -4.407841294253479E-1   -2.882421191400481E-1   -1.482219543959543E-2    3.424208158791198E-2   -1.285097384091807E-2    3.425090355410665E-2   -4.968402049937155E-1   -1.261675809390358E-1
 6.501277830425000E9    -4.413557744859375E-1   -2.873807341663208E-1   -1.477664959163640E-2    3.456697561574356E-2   -1.287454075863293E-2    3.445152198394649E-2   -4.970875881579721E-1   -1.249898636076455E-1
 6.501289829150000E9    -4.417190658418809E-1   -2.866246078860462E-1   -1.477656884380792E-2    3.469213714962947E-2   -1.285653704618694E-2    3.474353732633317E-2   -4.972373510803182E-1   -1.237766038765869E-1
 6.501301827875000E9    -4.424558404975933E-1   -2.856923250194390E-1   -1.471850365050242E-2    3.486548231723467E-2   -1.291223206566097E-2    3.482705414084641E-2   -4.976372149272993E-1   -1.224608056895203E-1
 6.501313826600000E9    -4.428946126790305E-1   -2.848289818968117E-1   -1.472811180634046E-2    3.510892111580860E-2   -1.284166899150245E-2    3.505630980635164E-2   -4.976210443217643E-1   -1.212681486835116E-1
 6.501325825325000E9    -4.433929029881875E-1   -2.839457229705122E-1   -1.476844865058982E-2    3.534499153889503E-2   -1.290821712980624E-2    3.530755325741775E-2   -4.978816384298305E-1   -1.200494017444664E-1
 6.501337824050000E9    -4.439827077386509E-1   -2.831499654246956E-1   -1.477069739404500E-2    3.555885572248604E-2   -1.278432158482559E-2    3.554927755198901E-2   -4.980553419935929E-1   -1.188066089081762E-1
 6.501349822775000E9    -4.444590531708983E-1   -2.823135698384927E-1   -1.480591948737089E-2    3.578213364111552E-2   -1.284206233495235E-2    3.576404297120695E-2   -4.983309892421666E-1   -1.176495968568403E-1
 6.501361821500000E9    -4.450066369232625E-1   -2.812461456887780E-1   -1.482915020577663E-2    3.599648396471952E-2   -1.279210534798848E-2    3.593188827086174E-2   -4.986079024682333E-1   -1.164463535974448E-1
 6.501373820225000E9    -4.454697864000128E-1   -2.804618942707124E-1   -1.468335108286460E-2    3.616060692458958E-2   -1.286543360117109E-2    3.618948065330378E-2   -4.986844621846326E-1   -1.151739362469506E-1
 6.501385818950000E9    -4.459631462423937E-1   -2.795967370614239E-1   -1.472991576669523E-2    3.664646731272903E-2   -1.284669876104606E-2    3.640375932833172E-2   -4.989301533923531E-1   -1.137181070596733E-1
 6.501397817675000E9    -4.465809432629138E-1   -2.787085663431783E-1   -1.477059775737512E-2    3.672416248313604E-2   -1.270771934768246E-2    3.666583222168978E-2   -4.991331270048111E-1   -1.125824893781252E-1
 6.501409816400000E9    -4.470962203577431E-1   -2.778601752175784E-1   -1.468111588835657E-2    3.692597695512558E-2   -1.274544962213821E-2    3.681138965425030E-2   -4.995900722745441E-1   -1.112005565918780E-1
 6.501421815125000E9    -4.475294999411027E-1   -2.768719249589130E-1   -1.471823114254822E-2    3.718288202602849E-2   -1.272405127515417E-2    3.707492952813633E-2   -4.995439765212951E-1   -1.101523718415379E-1
 6.501433813850000E9    -4.480866815825866E-1   -2.760472707457367E-1   -1.453016804439324E-2    3.738730958919046E-2   -1.271220511700639E-2    3.733768579309450E-2   -4.997886277005533E-1   -1.089802011306657E-1
 6.501445812575000E9    -4.485508146644110E-1   -2.752400412953476E-1   -1.480152777062952E-2    3.770618787430184E-2   -1.277416968290265E-2    3.755905541147660E-2   -5.000185226469525E-1   -1.075512937409501E-1
 6.501457811300000E9    -4.491068465275143E-1   -2.742159341287311E-1   -1.445426850644946E-2    3.778641613877749E-2   -1.264208169938775E-2    3.784415444241693E-2   -4.999713409273656E-1   -1.063888313555630E-1
 6.501469810025000E9    -4.496196056578676E-1   -2.733156731266252E-1   -1.471524463551646E-2    3.817900593437405E-2   -1.263673005356799E-2    3.808034290411854E-2   -5.003234150022348E-1   -1.051651004736412E-1
 6.501481808750000E9    -4.500827664092897E-1   -2.724713619355246E-1   -1.469928693642130E-2    3.851335726902131E-2   -1.266550518901188E-2    3.831117218470095E-2   -5.005698757023995E-1   -1.038220549666713E-1
 6.501493807475000E9    -4.505370204813232E-1   -2.716513394275852E-1   -1.468014080817976E-2    3.867627700877634E-2   -1.268635317663486E-2    3.856944153418097E-2   -5.005727738718516E-1   -1.025563799963876E-1
 6.501505806200000E9    -4.510854509339523E-1   -2.706783242409886E-1   -1.459736346089839E-2    3.888873963032318E-2   -1.266848631329017E-2    3.880128808754289E-2   -5.007316204559201E-1   -1.012553171497623E-1
 6.501517804925000E9    -4.516396393361921E-1   -2.697963921550344E-1   -1.473088229692034E-2    3.914599012499288E-2   -1.259983208720466E-2    3.897611579468737E-2   -5.009640642554762E-1   -9.989771744789532E-2
 6.501529803650000E9    -4.520658648719939E-1   -2.688550346813509E-1   -1.476795653705344E-2    3.958705598705999E-2   -1.247550218020292E-2    3.935152003051068E-2   -5.012531007529373E-1   -9.863911624503870E-2
 6.501541802375000E9    -4.526397649709466E-1   -2.679541329853708E-1   -1.465632962032298E-2    3.973641585476721E-2   -1.256286010211943E-2    3.966518709330882E-2   -5.012720831726036E-1   -9.735639397583334E-2
 6.501553801100000E9    -4.530935820141654E-1   -2.670368741659878E-1   -1.463651615568557E-2    3.999394709955018E-2   -1.252642638792716E-2    3.983214564675606E-2   -5.014215486522132E-1   -9.590111850039040E-2
 6.501565799825000E9    -4.535176404922330E-1   -2.661288906205760E-1   -1.456604701025661E-2    4.034940996606249E-2   -1.258352429970156E-2    4.008241069458684E-2   -5.016374271191086E-1   -9.470103502481378E-2
 6.501577798550000E9    -4.541589321969260E-1   -2.651543056521150E-1   -1.467216426948492E-2    4.058440390708448E-2   -1.254814683093495E-2    4.046065820402282E-2   -5.017371671756929E-1   -9.333063620248767E-2
 6.501589797275000E9    -4.545772854290522E-1   -2.643308017745022E-1   -1.462536265122581E-2    4.074060900846936E-2   -1.253537235408400E-2    4.067538440269494E-2   -5.020335776671647E-1   -9.208921790720495E-2
 6.501601796000000E9    -4.550107500694900E-1   -2.633435096158915E-1   -1.452167037375740E-2    4.113856613222816E-2   -1.245095573612913E-2    4.102317642030102E-2   -5.020966537911097E-1   -9.058592104185417E-2
 6.501613794725000E9    -4.555965075271981E-1   -2.624694943393833E-1   -1.457795962412534E-2    4.153365598442498E-2   -1.242850739618556E-2    4.120010701139043E-2   -5.021672978411368E-1   -8.942197937316322E-2
 6.501625793450000E9    -4.561252590658214E-1   -2.616386619313545E-1   -1.459874872825064E-2    4.176511445731115E-2   -1.240449141503678E-2    4.147981805626531E-2   -5.023298146657303E-1   -8.796456129735612E-2
 6.501637792175000E9    -4.564956607629547E-1   -2.606222413307762E-1   -1.451007305563223E-2    4.194937162191796E-2   -1.235137522085018E-2    4.180939178634666E-2   -5.026139176854741E-1   -8.671834619521969E-2
 6.501649790900000E9    -4.570192306460536E-1   -2.596914004440177E-1   -1.454499656507842E-2    4.238250053553332E-2   -1.228646753645182E-2    4.212667706865593E-2   -5.026117443653152E-1   -8.534470632924064E-2
 6.501661789625000E9    -4.575538520595644E-1   -2.587150872966321E-1   -1.444996305907568E-2    4.257430133803062E-2   -1.225113800691828E-2    4.244854672633389E-2   -5.028511072669629E-1   -8.390026777514861E-2
 6.501673788350000E9    -4.579943830569641E-1   -2.577623600739104E-1   -1.451502248149888E-2    4.289120030914638E-2   -1.222589984501804E-2    4.267204927046950E-2   -5.028903020687361E-1   -8.251980938489083E-2
 6.501685787075000E9    -4.584090915267171E-1   -2.568769204734748E-1   -1.448014226910426E-2    4.324000757277371E-2   -1.226823932248001E-2    4.305982181709169E-2   -5.030285170086172E-1   -8.113932194756400E-2
 6.501697785800000E9    -4.589963303935451E-1   -2.558682991943209E-1   -1.443245856718855E-2    4.336946219458859E-2   -1.230880079685607E-2    4.322121367914300E-2   -5.031691967787770E-1   -7.975299235771149E-2
 6.501709784525000E9    -4.594524416608461E-1   -2.550811081920204E-1   -1.447475276496314E-2    4.390612176925724E-2   -1.217513147188988E-2    4.356435989253275E-2   -5.032929618101969E-1   -7.845475618326044E-2
 6.501721783250000E9    -4.599212196914900E-1   -2.540467035261053E-1   -1.437177117167458E-2    4.416975299787403E-2   -1.209015861379860E-2    4.389733827880234E-2   -5.033332459671753E-1   -7.704035879794897E-2
 6.501733781975000E9    -4.603943602455237E-1   -2.531380032573802E-1   -1.434683362874978E-2    4.450928522823002E-2   -1.216245331774675E-2    4.415227755520362E-2   -5.035419947749790E-1   -7.565224460759769E-2
 6.501745780700000E9    -4.608490348821470E-1   -2.521567610572483E-1   -1.439367794482578E-2    4.484194211403394E-2   -1.201658240065525E-2    4.461739963711606E-2   -5.034791443628616E-1   -7.419474542169154E-2
 6.501757779425000E9    -4.613862664608587E-1   -2.511786815943414E-1   -1.418475276369925E-2    4.519407160689192E-2   -1.209796556548507E-2    4.492859744925971E-2   -5.035888348142169E-1   -7.274428324247394E-2
 6.501769778150000E9    -4.618231176643117E-1   -2.502467204297361E-1   -1.438477246032169E-2    4.548225375529501E-2   -1.204502326138246E-2    4.512565472707206E-2   -5.037315675560110E-1   -7.134216181512577E-2
 6.501781776875000E9    -4.622474911651959E-1   -2.493526440353587E-1   -1.430023177713331E-2    4.579088802793166E-2   -1.204795226981918E-2    4.553957227775363E-2   -5.038232245849247E-1   -6.978782631292048E-2
 6.501793775600000E9    -4.627656535095377E-1   -2.483664358661627E-1   -1.426293344635453E-2    4.615817846906191E-2   -1.203469549974338E-2    4.592786648407561E-2   -5.037913255004105E-1   -6.845439600346281E-2
 6.501805774325000E9    -4.632681205837904E-1   -2.473614074795543E-1   -1.423142902197408E-2    4.662491956277045E-2   -1.192890347879198E-2    4.620442402613712E-2   -5.039886732886015E-1   -6.693552177813628E-2
 6.501817773050000E9    -4.636991568144516E-1   -2.465604238734956E-1   -1.436541521786970E-2    4.694978843880799E-2   -1.182836271806216E-2    4.649451808888140E-2   -5.040095666090703E-1   -6.551216444260349E-2
 6.501829771775000E9    -4.642065012155857E-1   -2.455912063775051E-1   -1.418927571410429E-2    4.723840628830162E-2   -1.182566192351877E-2    4.687898974684256E-2   -5.040042687235529E-1   -6.414193053304500E-2
 6.501841770500000E9    -4.646411158358520E-1   -2.443752545435720E-1   -1.408914392099582E-2    4.752851267762927E-2   -1.173141032255729E-2    4.724873232524800E-2   -5.042109591080485E-1   -6.279972047964508E-2
 6.501853769225000E9    -4.650896250057607E-1   -2.434481940853475E-1   -1.398035796813383E-2    4.796820887759060E-2   -1.173063724650589E-2    4.760502937356947E-2   -5.042627623502977E-1   -6.125619737069511E-2
 6.501865767950000E9    -4.654453529366004E-1   -2.424311185813737E-1   -1.401500327588782E-2    4.843676384574223E-2   -1.168092970637885E-2    4.793246456363116E-2   -5.042654049295361E-1   -5.963578950823960E-2
 6.501877766675000E9    -4.659108390186899E-1   -2.416136402450492E-1   -1.409215179521369E-2    4.894664965058330E-2   -1.167713670905322E-2    4.826700687675844E-2   -5.042554518039661E-1   -5.826647085487947E-2
 6.501889765400000E9    -4.664612109940012E-1   -2.404976103465612E-1   -1.393654834030109E-2    4.919543071780185E-2   -1.160044183415563E-2    4.873790651079146E-2   -5.043293654940721E-1   -5.667000055383602E-2
 6.501901764125000E9    -4.668900194511695E-1   -2.393634825595032E-1   -1.402900150874729E-2    4.964088458106794E-2   -1.153836784926240E-2    4.903049273514323E-2   -5.042244599327708E-1   -5.512275196758711E-2
 6.501913762850000E9    -4.674076796861850E-1   -2.385642064175015E-1   -1.397573757413293E-2    5.003543648121012E-2   -1.144329416903655E-2    4.948862742782087E-2   -5.043908306503119E-1   -5.359654581260127E-2
 6.501925761575000E9    -4.677271264210973E-1   -2.374090996369251E-1   -1.383138666162533E-2    5.022289182588670E-2   -1.143380683295860E-2    4.985533432016060E-2   -5.043379289305812E-1   -5.210912786460886E-2
 6.501937760300000E9    -4.682329959236314E-1   -2.365083276384459E-1   -1.385390276675968E-2    5.083070055980309E-2   -1.129842515967619E-2    5.030244198326572E-2   -5.045716701413901E-1   -5.052904033128202E-2
 6.501949759025000E9    -4.686524737636988E-1   -2.354570111475876E-1   -1.379696722968009E-2    5.111431970363662E-2   -1.125592403063486E-2    5.063279365596145E-2   -5.045380666618089E-1   -4.898180566083093E-2
 6.501961757750000E9    -4.690713757070079E-1   -2.343487322200704E-1   -1.368250937563148E-2    5.152933385922867E-2   -1.123809692851944E-2    5.105645465343341E-2   -5.045517240198967E-1   -4.753130060556825E-2
 6.501973756475000E9    -4.695237051672499E-1   -2.335118965845252E-1   -1.376163861990098E-2    5.204152584556977E-2   -1.123822002801477E-2    5.148788963541060E-2   -5.045507143164635E-1   -4.575397540910012E-2
 6.501985755200000E9    -4.699464539853274E-1   -2.323911052791884E-1   -1.378528106348176E-2    5.223261998661167E-2   -1.109051114709755E-2    5.184243018071421E-2   -5.044499867408675E-1   -4.418789879055043E-2
 6.501997753925000E9    -4.703881912933293E-1   -2.313330985747257E-1   -1.361795375236937E-2    5.290763463598330E-2   -1.110533251480814E-2    5.230880987307169E-2   -5.044022365867206E-1   -4.264737160943746E-2
 6.502009752650000E9    -4.708245749326554E-1   -2.304002578942167E-1   -1.353349827240511E-2    5.327553935086515E-2   -1.099703690350556E-2    5.269753245698521E-2   -5.045572607512878E-1   -4.101572153541735E-2
 6.502021751375000E9    -4.711701559463125E-1   -2.292764337437221E-1   -1.358952792748475E-2    5.358152695248346E-2   -1.091757951235276E-2    5.315767890385991E-2   -5.044809055624558E-1   -3.934827919442729E-2
 6.502033750100000E9    -4.716894585504408E-1   -2.282511306764216E-1   -1.331673729093002E-2    5.432167640825269E-2   -1.080614758383170E-2    5.365803820398691E-2   -5.044393830446022E-1   -3.779621586943299E-2
 6.502045748825000E9    -4.721578469990649E-1   -2.272997542947690E-1   -1.333983418946240E-2    5.474940562894746E-2   -1.084060384303696E-2    5.406595881183565E-2   -5.043488621152908E-1   -3.615203779032701E-2
 6.502057747550000E9    -4.726356997466894E-1   -2.261959755000618E-1   -1.332826761736718E-2    5.517941199980182E-2   -1.066085637026166E-2    5.453690228521437E-2   -5.042639897501668E-1   -3.443320234750624E-2
 6.502069746275000E9    -4.729456332381715E-1   -2.251716116606469E-1   -1.330211856770650E-2    5.568692308020404E-2   -1.058851859750017E-2    5.498793938631326E-2   -5.043077792779188E-1   -3.270331700398561E-2
 6.502081745000000E9    -4.734406686686063E-1   -2.240942004672092E-1   -1.315107164749882E-2    5.618898199571936E-2   -1.048863395214785E-2    5.543187912447572E-2   -5.042068615177857E-1   -3.121013816929745E-2
 6.502093743725000E9    -4.738594029816224E-1   -2.229123250388703E-1   -1.308110966455828E-2    5.655523727021897E-2   -1.048339072811947E-2    5.590559569937634E-2   -5.040755728388837E-1   -2.953874650990961E-2
 6.502105742450000E9    -4.742011453703742E-1   -2.219684057357900E-1   -1.295633298520076E-2    5.724648668553523E-2   -1.046746577650495E-2    5.643553215813647E-2   -5.041141237845398E-1   -2.775975813683856E-2
 6.502117741175000E9    -4.746525108030550E-1   -2.208370644132158E-1   -1.300553993160723E-2    5.749950455450315E-2   -1.023536094982768E-2    5.679738177042706E-2   -5.040356230499674E-1   -2.615787684609811E-2
 6.502129739900000E9    -4.750735769021290E-1   -2.198856635167665E-1   -1.287841256316715E-2    5.810633162506129E-2   -1.023081384801598E-2    5.738006892341961E-2   -5.039794507562134E-1   -2.423905409779155E-2
 6.502141738625000E9    -4.754511899729493E-1   -2.187683283815080E-1   -1.274714970569227E-2    5.865632905369374E-2   -1.010513056415792E-2    5.795349133750655E-2   -5.037881062335806E-1   -2.267599458516214E-2
 6.502153737350000E9    -4.758920927339127E-1   -2.176245358549267E-1   -1.272951516216239E-2    5.925457989870347E-2   -1.000271880726063E-2    5.839070262752998E-2   -5.037318280044599E-1   -2.077502845541199E-2
 6.502165736075000E9    -4.762948250897982E-1   -2.166550657670886E-1   -1.273521208471464E-2    5.970183804328125E-2   -9.895875483928486E-3    5.891532395205924E-2   -5.035458980413828E-1   -1.896989094302774E-2
 6.502177734800000E9    -4.767695996649213E-1   -2.153385544778746E-1   -1.249414688733816E-2    6.027251585125768E-2   -9.739305442483335E-3    5.947947883219103E-2   -5.034222016568299E-1   -1.709645999163080E-2
 6.502189733525000E9    -4.771137263469005E-1   -2.143566783785154E-1   -1.247137084260042E-2    6.086058703182862E-2   -9.700943914226391E-3    6.007874052760252E-2   -5.031379740971103E-1   -1.526575511166058E-2
 6.502201732250000E9    -4.774838576293112E-1   -2.132080597625889E-1   -1.238418959697677E-2    6.147578115447742E-2   -9.545503926392612E-3    6.058438987900939E-2   -5.031501720900604E-1   -1.349193757046234E-2
