#  HZ   S   RI   R     50.00 
! Rohde & Schwarz Vector Network Analyzer 
! Rohde-Schwarz,ZNB20-2Port,1311601062101988,3.16
! Created: UTC 3/20/2024, 12:03:44 PM
! freq[Hz]                re:S11                  im:S11                  re:S21                  im:S21                  re:S12                  im:S12                  re:S22                  im:S22
 6.501130884000000E9    -4.347589936381507E-1   -2.978091025459911E-1   -1.484836924948456E-2    3.182119497458721E-2   -1.300909090288098E-2    3.198764533286691E-2   -4.941024102465663E-1   -1.394579577816083E-1
 6.501142849075000E9    -4.353561379273563E-1   -2.969030682717990E-1   -1.470133032733910E-2    3.216368468033746E-2   -1.295884779946913E-2    3.227493662961287E-2   -4.944418337842859E-1   -1.382401324482895E-1
 6.501154814150000E9    -4.358071439768696E-1   -2.961549079737232E-1   -1.476091847398069E-2    3.234844968737999E-2   -1.297954940911879E-2    3.244815974208864E-2   -4.947124421308733E-1   -1.371120717101590E-1
 6.501166779225000E9    -4.363372489890133E-1   -2.952284071146370E-1   -1.493966577272399E-2    3.255646158080203E-2   -1.291043118252298E-2    3.259490642808524E-2   -4.948623678296108E-1   -1.358978999776141E-1
 6.501178744300000E9    -4.369517244454119E-1   -2.943915461606584E-1   -1.471847605799984E-2    3.268841152189390E-2   -1.290818782313597E-2    3.270724884489595E-2   -4.950589040696485E-1   -1.348207643543679E-1
 6.501190709375000E9    -4.374453246440216E-1   -2.936307236232690E-1   -1.480027386474317E-2    3.285380811346905E-2   -1.297996510302936E-2    3.299731411400885E-2   -4.955339433890998E-1   -1.335975972111537E-1
 6.501202674450000E9    -4.379791754477878E-1   -2.927751540593892E-1   -1.480002595839447E-2    3.319491077070164E-2   -1.299565532695456E-2    3.310603779180367E-2   -4.956984616574599E-1   -1.324166274548340E-1
 6.501214639525000E9    -4.384151561346956E-1   -2.920430691621915E-1   -1.488155263234650E-2    3.325785291018673E-2   -1.288891707287650E-2    3.335895132572338E-2   -4.959563193586785E-1   -1.312365709544631E-1
 6.501226604600000E9    -4.389786582704608E-1   -2.911458546022265E-1   -1.472912138051501E-2    3.339130796880335E-2   -1.288624066400271E-2    3.353438348359000E-2   -4.959361743948660E-1   -1.300257302746519E-1
 6.501238569675000E9    -4.396544332320845E-1   -2.902377418779631E-1   -1.478093338465059E-2    3.369349796391944E-2   -1.283022644103970E-2    3.370044108091856E-2   -4.963763689881801E-1   -1.288097512416715E-1
 6.501250534750000E9    -4.402005096628254E-1   -2.893480499985400E-1   -1.476663864544638E-2    3.378966924509523E-2   -1.296635703812114E-2    3.399176224184097E-2   -4.965686126855374E-1   -1.277317285285894E-1
 6.501262499825000E9    -4.407427944374636E-1   -2.885127185949640E-1   -1.477543387926848E-2    3.403768139947598E-2   -1.290739548535420E-2    3.412450838515467E-2   -4.968829784847115E-1   -1.263802551073220E-1
 6.501274464900000E9    -4.412360022662143E-1   -2.875871209558742E-1   -1.481298781028068E-2    3.428431465202897E-2   -1.291255696031480E-2    3.435639935448778E-2   -4.971015640365608E-1   -1.252630978969695E-1
 6.501286429975000E9    -4.418173352566223E-1   -2.868781343987880E-1   -1.479721998554916E-2    3.453299468405269E-2   -1.287197299465705E-2    3.459889925465695E-2   -4.972075506426455E-1   -1.239878952324970E-1
 6.501298395050000E9    -4.422145983720611E-1   -2.859215304792296E-1   -1.478283457040547E-2    3.476445335025598E-2   -1.286124246029626E-2    3.481894711156956E-2   -4.976035334975440E-1   -1.228398926578453E-1
 6.501310360125000E9    -4.428084415479794E-1   -2.851105841717158E-1   -1.476030661241365E-2    3.499476032152049E-2   -1.288935631479804E-2    3.503689214472652E-2   -4.977785765737290E-1   -1.216317424535513E-1
 6.501322325200000E9    -4.432972517144564E-1   -2.842111218157687E-1   -1.472689785318650E-2    3.518051324744174E-2   -1.291939797857024E-2    3.527796276535628E-2   -4.978552141076897E-1   -1.204447814989390E-1
 6.501334290275000E9    -4.437774881493233E-1   -2.833268699760259E-1   -1.477033354260372E-2    3.547416594757716E-2   -1.275439222611210E-2    3.549292038060631E-2   -4.981703095583206E-1   -1.193500229902569E-1
 6.501346255350000E9    -4.444193684051145E-1   -2.825391612219069E-1   -1.484658609952042E-2    3.566949601780423E-2   -1.283928587123591E-2    3.565934821084436E-2   -4.983322074810444E-1   -1.182194833798788E-1
 6.501358220425000E9    -4.448578489946099E-1   -2.816592598324156E-1   -1.465952348734594E-2    3.584212550910586E-2   -1.265181105924754E-2    3.584992806631583E-2   -4.985175583080890E-1   -1.168036033840924E-1
 6.501370185500000E9    -4.454433934966814E-1   -2.808169113545663E-1   -1.468460216744467E-2    3.615304288662676E-2   -1.271225515191997E-2    3.607529947526434E-2   -4.987872100292059E-1   -1.155091240162820E-1
 6.501382150575000E9    -4.458392747598441E-1   -2.799252084388567E-1   -1.476168814398409E-2    3.632975555589987E-2   -1.280220909467129E-2    3.631067494860457E-2   -4.988889194733563E-1   -1.143092967580017E-1
 6.501394115650000E9    -4.463294184495880E-1   -2.789402713534113E-1   -1.480839714241111E-2    3.647221648119281E-2   -1.274485093060639E-2    3.650292922287832E-2   -4.991942009810709E-1   -1.130589425565177E-1
 6.501406080725000E9    -4.468545948392544E-1   -2.781565341429314E-1   -1.475773764921990E-2    3.673658620423385E-2   -1.274316513080966E-2    3.671000866743807E-2   -4.993660219438319E-1   -1.119351607101810E-1
 6.501418045800000E9    -4.474035550186735E-1   -2.771836155915040E-1   -1.468973167295409E-2    3.701731473305469E-2   -1.262329458617937E-2    3.697623862513345E-2   -4.995137634887199E-1   -1.106943276530576E-1
 6.501430010875000E9    -4.478714814390924E-1   -2.763864113035110E-1   -1.479909526420546E-2    3.731207783848835E-2   -1.264167814852562E-2    3.718030036922180E-2   -4.996760208474266E-1   -1.093873486455865E-1
 6.501441975950000E9    -4.483981194954025E-1   -2.753909171048692E-1   -1.477369431919906E-2    3.751317389047180E-2   -1.277500342589724E-2    3.749200231156139E-2   -5.000599220034005E-1   -1.081038969578541E-1
 6.501453941025000E9    -4.489016093861494E-1   -2.746462548859279E-1   -1.464129027629737E-2    3.785460032900075E-2   -1.266744567672116E-2    3.774021596303827E-2   -5.001695059309925E-1   -1.069289566124945E-1
 6.501465906100000E9    -4.493434757968024E-1   -2.737220068776124E-1   -1.472885176061866E-2    3.798185529113766E-2   -1.269499355265980E-2    3.795448308113369E-2   -5.004273820648825E-1   -1.057014068718202E-1
 6.501477871175000E9    -4.499037949377594E-1   -2.728568117327430E-1   -1.471375704782777E-2    3.826003850649279E-2   -1.262868833712660E-2    3.815606776914719E-2   -5.005269424768413E-1   -1.043095026701927E-1
 6.501489836250000E9    -4.504880773499000E-1   -2.719200026539760E-1   -1.463748883327798E-2    3.862092042034995E-2   -1.271014733817552E-2    3.842289082100531E-2   -5.008118892223913E-1   -1.030215504822544E-1
 6.501501801325000E9    -4.509990440741724E-1   -2.710087989958123E-1   -1.465209669064965E-2    3.879534119756776E-2   -1.257228425450244E-2    3.862415009622473E-2   -5.009524537966679E-1   -1.019128382381928E-1
 6.501513766400000E9    -4.514432404595327E-1   -2.700818527924827E-1   -1.463704903299791E-2    3.903285905791921E-2   -1.255898419563246E-2    3.892528736416654E-2   -5.009172539730199E-1   -1.003770523911334E-1
 6.501525731475000E9    -4.519570827729796E-1   -2.692118515108312E-1   -1.471316912457722E-2    3.943001825810927E-2   -1.260794242451422E-2    3.923187078766165E-2   -5.012459566605392E-1   -9.919809033036125E-2
 6.501537696550000E9    -4.524212686342372E-1   -2.682304047019259E-1   -1.464003621667013E-2    3.954277789689484E-2   -1.258660532792524E-2    3.944792676927018E-2   -5.013378874269222E-1   -9.771871157413776E-2
 6.501549661625000E9    -4.529578663017778E-1   -2.674552787383315E-1   -1.457674127852382E-2    3.982443212599631E-2   -1.250605044544634E-2    3.961725850469593E-2   -5.013961002656580E-1   -9.643216975816100E-2
 6.501561626700000E9    -4.535599915528585E-1   -2.665677388325644E-1   -1.476698257092796E-2    4.016034215425240E-2   -1.259880736404639E-2    3.989472796096381E-2   -5.015730984698801E-1   -9.537194069044000E-2
 6.501573591775000E9    -4.539358993049289E-1   -2.655772830034751E-1   -1.447887270106163E-2    4.026244120882378E-2   -1.237727801506985E-2    4.032756645048814E-2   -5.018469288764288E-1   -9.401439041012538E-2
 6.501585556850000E9    -4.544356216619551E-1   -2.646333840766695E-1   -1.462403060539702E-2    4.060532607287555E-2   -1.241641772860740E-2    4.055570767440878E-2   -5.019214970123330E-1   -9.259399661958197E-2
 6.501597521925000E9    -4.549167082562311E-1   -2.637791138849720E-1   -1.455143279300892E-2    4.094337629047982E-2   -1.252219199132109E-2    4.089235490504270E-2   -5.022372070552361E-1   -9.122443223673972E-2
 6.501609487000000E9    -4.553940609016268E-1   -2.627847645242448E-1   -1.459552769919844E-2    4.120966550808534E-2   -1.244201741850206E-2    4.105538185570571E-2   -5.023799128377029E-1   -8.998964108154672E-2
 6.501621452075000E9    -4.559584664816758E-1   -2.618870501471242E-1   -1.458079939592088E-2    4.143939670805202E-2   -1.246082814931981E-2    4.135748400670075E-2   -5.023982112827680E-1   -8.857869914990528E-2
 6.501633417150000E9    -4.563164584148623E-1   -2.610057745444230E-1   -1.457358806841708E-2    4.182669978835072E-2   -1.232330074928840E-2    4.163139258610365E-2   -5.025500328240390E-1   -8.714847368452967E-2
 6.501645382225000E9    -4.568511220408608E-1   -2.600075551361722E-1   -1.438678785870539E-2    4.234337510289857E-2   -1.242917626186788E-2    4.190758479932252E-2   -5.027588892457616E-1   -8.597346974203032E-2
 6.501657347300000E9    -4.573862167266233E-1   -2.591044598132161E-1   -1.451071966005496E-2    4.252999871870644E-2   -1.227949280518299E-2    4.210618859296199E-2   -5.029257793968444E-1   -8.454820378171381E-2
 6.501669312375000E9    -4.578875565067763E-1   -2.582755284791041E-1   -1.449961285909298E-2    4.268796800905496E-2   -1.233847205412278E-2    4.245939335326696E-2   -5.028918151072961E-1   -8.323267243430939E-2
 6.501681277450000E9    -4.583911210960472E-1   -2.572539525509949E-1   -1.460058358474984E-2    4.309283175143337E-2   -1.223611751941858E-2    4.275122075800427E-2   -5.031057237341493E-1   -8.187497905854402E-2
 6.501693242525000E9    -4.588673453641384E-1   -2.564008174562725E-1   -1.451241180127119E-2    4.337175187718487E-2   -1.216754030960424E-2    4.312221422490939E-2   -5.032127325377119E-1   -8.025070745992105E-2
 6.501705207600000E9    -4.592436808230577E-1   -2.553560922568178E-1   -1.459756791665360E-2    4.360982832344505E-2   -1.223347370869987E-2    4.341180987315561E-2   -5.030815676736264E-1   -7.896931381528217E-2
 6.501717172675000E9    -4.597289690999611E-1   -2.544498703247393E-1   -1.457890897672679E-2    4.401827493107123E-2   -1.220274853349439E-2    4.372673151016961E-2   -5.033461311460755E-1   -7.767472314899648E-2
 6.501729137750000E9    -4.601899648222494E-1   -2.534499494502086E-1   -1.434349936658552E-2    4.415000347529038E-2   -1.210643966486693E-2    4.404442791302633E-2   -5.034854033090126E-1   -7.623871481716003E-2
 6.501741102825000E9    -4.606961862077187E-1   -2.524616102739454E-1   -1.431026731318652E-2    4.461651743021010E-2   -1.209134154505639E-2    4.431560164534103E-2   -5.036659933042478E-1   -7.480136496030114E-2
 6.501753067900000E9    -4.611291404745909E-1   -2.516464832144470E-1   -1.439722816401221E-2    4.487513589341630E-2   -1.199086027669149E-2    4.465169100933566E-2   -5.036675728702118E-1   -7.340066291342429E-2
 6.501765032975000E9    -4.616986944051307E-1   -2.506584116092962E-1   -1.431120753254634E-2    4.528217529722763E-2   -1.207584247321399E-2    4.494869683229632E-2   -5.036930405341251E-1   -7.205294932357889E-2
 6.501776998050000E9    -4.621258516540548E-1   -2.496592812450079E-1   -1.427125095550418E-2    4.564529332927013E-2   -1.196914357728223E-2    4.527175757973733E-2   -5.038998080133501E-1   -7.045434400409760E-2
 6.501788963125000E9    -4.625917387289094E-1   -2.487795823170444E-1   -1.427089273148565E-2    4.595700154811996E-2   -1.198243166767388E-2    4.566078295565620E-2   -5.039313397038768E-1   -6.911577170270250E-2
 6.501800928200000E9    -4.630438512729197E-1   -2.476966197484490E-1   -1.420739525779071E-2    4.631251161264510E-2   -1.195263072601467E-2    4.597695286671002E-2   -5.041186906412407E-1   -6.770341405618092E-2
 6.501812893275000E9    -4.634331628989882E-1   -2.468284497190874E-1   -1.422684818005606E-2    4.673068136214760E-2   -1.182966943607400E-2    4.641995982783158E-2   -5.041781916977642E-1   -6.611435244382219E-2
 6.501824858350000E9    -4.638540304453538E-1   -2.458548796957888E-1   -1.415924594341099E-2    4.704437445923414E-2   -1.180167764548518E-2    4.661940380653024E-2   -5.042267476508048E-1   -6.474427390001754E-2
 6.501836823425000E9    -4.644484347579493E-1   -2.448572951635413E-1   -1.424537497399285E-2    4.740650037687536E-2   -1.168161359846063E-2    4.707607862921677E-2   -5.041320053220867E-1   -6.329733146319273E-2
 6.501848788500000E9    -4.648832177845687E-1   -2.438656646412193E-1   -1.423303001681645E-2    4.775647125687580E-2   -1.176426632203123E-2    4.730383454968514E-2   -5.043924937585209E-1   -6.179928670787678E-2
 6.501860753575000E9    -4.653590829592161E-1   -2.429070782110207E-1   -1.413496637886715E-2    4.816845598306867E-2   -1.166423352456177E-2    4.778795835898789E-2   -5.044718883836218E-1   -6.038879057444512E-2
 6.501872718650000E9    -4.657867946252268E-1   -2.419571037730001E-1   -1.400214504859876E-2    4.841780487689646E-2   -1.165710419913295E-2    4.812635650910437E-2   -5.044956559713746E-1   -5.878939135285363E-2
 6.501884683725000E9    -4.661511967259757E-1   -2.408376096296388E-1   -1.386730959245063E-2    4.888874260953043E-2   -1.162078367219378E-2    4.849845288275797E-2   -5.043893649452600E-1   -5.745472638370552E-2
 6.501896648800000E9    -4.667611901872794E-1   -2.399536041210791E-1   -1.401758580583137E-2    4.931730996367898E-2   -1.157567730635973E-2    4.875696051752568E-2   -5.044634914783908E-1   -5.576915444239550E-2
 6.501908613875000E9    -4.671654485882676E-1   -2.390249377392161E-1   -1.382707258012819E-2    4.977496445576051E-2   -1.157296031531466E-2    4.920261834414122E-2   -5.046279153307514E-1   -5.430207621189793E-2
 6.501920578950000E9    -4.675896503264350E-1   -2.380065471569486E-1   -1.400975667332031E-2    5.007502780528381E-2   -1.148703081495821E-2    4.965138840757866E-2   -5.044998711490132E-1   -5.276228835413237E-2
 6.501932544025000E9    -4.680494420658112E-1   -2.369200965714106E-1   -1.390106675525925E-2    5.050786569067797E-2   -1.133724450452727E-2    4.998012495311553E-2   -5.046409240062198E-1   -5.146181654834072E-2
 6.501944509100000E9    -4.684102674458277E-1   -2.360410660837044E-1   -1.377161206525046E-2    5.076810054110348E-2   -1.132621592800103E-2    5.048974755646875E-2   -5.046435585339795E-1   -4.972276921531023E-2
 6.501956474175000E9    -4.689076406818042E-1   -2.349210744132476E-1   -1.388782470748084E-2    5.133158958170900E-2   -1.133041595706986E-2    5.082793955651755E-2   -5.046001374809389E-1   -4.820194459518338E-2
 6.501968439250000E9    -4.692912916391733E-1   -2.339265129853516E-1   -1.367227266163974E-2    5.175344619184812E-2   -1.120847156572352E-2    5.113670552590562E-2   -5.046766685440944E-1   -4.658757534778690E-2
 6.501980404325000E9    -4.697169045718365E-1   -2.328682352294701E-1   -1.374342239610710E-2    5.216006504371083E-2   -1.112455041819842E-2    5.153377365421851E-2   -5.045543801557562E-1   -4.500084141284549E-2
 6.501992369400000E9    -4.701545687166595E-1   -2.318507967932194E-1   -1.367568774503223E-2    5.267185940362766E-2   -1.112991265929669E-2    5.210759635493533E-2   -5.046313988984008E-1   -4.344575024520737E-2
 6.502004334475000E9    -4.707555700968249E-1   -2.307976307429099E-1   -1.367911652422040E-2    5.301538802502012E-2   -1.097208579002663E-2    5.251118400925711E-2   -5.047051126682557E-1   -4.193307857251719E-2
 6.502016299550000E9    -4.710066175095822E-1   -2.298709767579761E-1   -1.366308593445141E-2    5.355698857701788E-2   -1.093822113611694E-2    5.291233852964974E-2   -5.045015697841748E-1   -4.035013313629909E-2
 6.502028264625000E9    -4.714897933591898E-1   -2.288144398955222E-1   -1.353028958153450E-2    5.388095061371569E-2   -1.083866983146776E-2    5.336315749287078E-2   -5.045998339311201E-1   -3.855024476301130E-2
 6.502040229700000E9    -4.718717691033613E-1   -2.276869748891480E-1   -1.337042947767450E-2    5.437357389250465E-2   -1.078162327501704E-2    5.378677465016144E-2   -5.045117964774026E-1   -3.692661957606901E-2
 6.502052194775000E9    -4.723673563649839E-1   -2.266856767835996E-1   -1.341534945009743E-2    5.492842861910058E-2   -1.073743915272501E-2    5.431101830791916E-2   -5.045203977831209E-1   -3.523578415894486E-2
 6.502064159850000E9    -4.728276011998918E-1   -2.256441770804911E-1   -1.330544200848403E-2    5.528546947096064E-2   -1.066681416960750E-2    5.465707625302357E-2   -5.043489004196644E-1   -3.387647620801863E-2
 6.502076124925000E9    -4.733048377493784E-1   -2.245738089743612E-1   -1.316450875145789E-2    5.572127441107812E-2   -1.057537871118434E-2    5.515167389756426E-2   -5.044285144702836E-1   -3.199817952014703E-2
 6.502088090000000E9    -4.737076859081188E-1   -2.236209985182606E-1   -1.327309735285936E-2    5.628593329003426E-2   -1.046441924993628E-2    5.563707888253909E-2   -5.042083116148274E-1   -3.030027305475007E-2
 6.502100055075000E9    -4.741240376119809E-1   -2.224056505421225E-1   -1.303023703097543E-2    5.679789861753435E-2   -1.042266988729114E-2    5.600607094598105E-2   -5.041676061413791E-1   -2.855991979920061E-2
 6.502112020150000E9    -4.744580197208230E-1   -2.214897575538297E-1   -1.305129545169185E-2    5.726612850916830E-2   -1.030776080052854E-2    5.656112286995551E-2   -5.040901593059883E-1   -2.686851790703812E-2
 6.502123985225000E9    -4.748005310208778E-1   -2.202925291305515E-1   -1.297425905795859E-2    5.786119885207092E-2   -1.026862626310695E-2    5.710392584490486E-2   -5.041722676100161E-1   -2.525525574126169E-2
 6.502135950300000E9    -4.753190740224849E-1   -2.192146044534990E-1   -1.283231286986258E-2    5.822696247765591E-2   -1.010118767846079E-2    5.768807294983598E-2   -5.038691981767863E-1   -2.340654537590910E-2
 6.502147915375000E9    -4.756820547763407E-1   -2.182130940844559E-1   -1.281165536017592E-2    5.882621164938047E-2   -1.002066199174874E-2    5.819681763408359E-2   -5.038142782872561E-1   -2.166056982146788E-2
 6.502159880450000E9    -4.760654077649556E-1   -2.171518507483954E-1   -1.273589139320892E-2    5.943229429561985E-2   -9.956754849396638E-3    5.859544596974674E-2   -5.038049244594573E-1   -1.989084111821269E-2
 6.502171845525000E9    -4.764976614419804E-1   -2.160437732755110E-1   -1.271920318923378E-2    6.001428516495155E-2   -9.793015226519500E-3    5.919838743405962E-2   -5.036772855371394E-1   -1.815737972384555E-2
 6.502183810600000E9    -4.768594997035104E-1   -2.148943012739394E-1   -1.247191021428827E-2    6.047759016980205E-2   -9.716901197745870E-3    5.976323387795750E-2   -5.035697366742550E-1   -1.640894443213479E-2
 6.502195775675000E9    -4.772137384296041E-1   -2.137563660833352E-1   -1.240723171685990E-2    6.103053449801794E-2   -9.571258144238686E-3    6.020291293112291E-2   -5.033736398591121E-1   -1.458545605027287E-2
 6.502207740750000E9    -4.777142882970941E-1   -2.126841970885631E-1   -1.234636169598728E-2    6.166662152316806E-2   -9.500063298360692E-3    6.079718815132839E-2   -5.031928374955259E-1   -1.281062254478757E-2
