#  HZ   S   RI   R     50.00 
! Rohde & Schwarz Vector Network Analyzer 
! Rohde-Schwarz,ZNB20-2Port,1311601062101988,3.16
! Created: UTC 3/20/2024, 12:04:09 PM
! freq[Hz]                re:S11                  im:S11                  re:S21                  im:S21                  re:S12                  im:S12                  re:S22                  im:S22
 6.501145360000000E9    -4.354331855117025E-1   -2.966121446526174E-1   -1.475166417412940E-2    3.208346183559667E-2   -1.298330179103811E-2    3.217271927645348E-2   -4.946057767249029E-1   -1.380321040834571E-1
 6.501157274675000E9    -4.360137173571453E-1   -2.957128380445508E-1   -1.472638575611788E-2    3.229077209603512E-2   -1.291514054641901E-2    3.236193289335424E-2   -4.948938572393213E-1   -1.368591160100666E-1
 6.501169189350000E9    -4.365699520693193E-1   -2.949139882773049E-1   -1.467537837544333E-2    3.259110720533499E-2   -1.305414997010249E-2    3.244663632304860E-2   -4.948963393381634E-1   -1.358297281688752E-1
 6.501181104025000E9    -4.371591099776023E-1   -2.940866953636229E-1   -1.479588370800289E-2    3.269167421668440E-2   -1.294155604540711E-2    3.274103879331384E-2   -4.951752037339709E-1   -1.347018850543909E-1
 6.501193018700000E9    -4.376031318217288E-1   -2.932474504728972E-1   -1.477244255299372E-2    3.286399025377297E-2   -1.295173138114792E-2    3.287067066525353E-2   -4.955047930420458E-1   -1.335104760371261E-1
 6.501204933375000E9    -4.381459285582864E-1   -2.923538148272744E-1   -1.471840065276672E-2    3.314806135129193E-2   -1.287791424796329E-2    3.308522100575816E-2   -4.956890576575893E-1   -1.324330866939525E-1
 6.501216848050000E9    -4.386643542794781E-1   -2.916188845045037E-1   -1.475473527639186E-2    3.321673741328718E-2   -1.294314504730952E-2    3.330236734278789E-2   -4.960781642183079E-1   -1.311607201572191E-1
 6.501228762725000E9    -4.391940107544656E-1   -2.906798571094342E-1   -1.478695649104238E-2    3.353986648668465E-2   -1.290368566478694E-2    3.350845310079383E-2   -4.963306698917346E-1   -1.299206421196430E-1
 6.501240677400000E9    -4.396902283150195E-1   -2.899097243323274E-1   -1.470849316640783E-2    3.366643213938707E-2   -1.288396493664624E-2    3.370589973571465E-2   -4.965032358894249E-1   -1.287853335943770E-1
 6.501252592075000E9    -4.402967374151454E-1   -2.891250265624964E-1   -1.481699425527183E-2    3.387934863526432E-2   -1.286523443762418E-2    3.398960828938363E-2   -4.966217409735759E-1   -1.275887926841794E-1
 6.501264506750000E9    -4.407079012891419E-1   -2.881281367500690E-1   -1.486968483613677E-2    3.404516087288768E-2   -1.284275292077896E-2    3.424020237685106E-2   -4.968805008832610E-1   -1.262777493007712E-1
 6.501276421425000E9    -4.413453811619520E-1   -2.872518559601045E-1   -1.460046847039422E-2    3.428340721084407E-2   -1.287109128460470E-2    3.417482741114192E-2   -4.972049796704751E-1   -1.251902308692175E-1
 6.501288336100000E9    -4.418541550833669E-1   -2.864527252447501E-1   -1.469615381927047E-2    3.440915988564697E-2   -1.287235029687639E-2    3.457388777929110E-2   -4.972447882975580E-1   -1.240789388203061E-1
 6.501300250775000E9    -4.423323704442274E-1   -2.855720063939710E-1   -1.475922352484289E-2    3.460401263982871E-2   -1.291513014454752E-2    3.470448596838169E-2   -4.975126438559880E-1   -1.229769844587403E-1
 6.501312165450000E9    -4.429255355155195E-1   -2.848369445921091E-1   -1.473075763996151E-2    3.492210259467227E-2   -1.285692875804377E-2    3.490560235228667E-2   -4.978306861154982E-1   -1.215284210542904E-1
 6.501324080125000E9    -4.434132147171732E-1   -2.839970044681349E-1   -1.478093244230751E-2    3.529896947529278E-2   -1.279888198854066E-2    3.511289560064697E-2   -4.981038041961716E-1   -1.203432960388389E-1
 6.501335994800000E9    -4.439095804562582E-1   -2.830299389282800E-1   -1.484595264226714E-2    3.544358977659715E-2   -1.282976631376746E-2    3.529002057846133E-2   -4.982692032427487E-1   -1.191456192629772E-1
 6.501347909475000E9    -4.444700120176581E-1   -2.822069564640374E-1   -1.483082336039590E-2    3.549769458408117E-2   -1.279959219680958E-2    3.566936870311327E-2   -4.984605734344796E-1   -1.180236280683988E-1
 6.501359824150000E9    -4.449677617374542E-1   -2.812531868156277E-1   -1.468661860019488E-2    3.594213324368588E-2   -1.270796129100408E-2    3.574550815069102E-2   -4.987136679753322E-1   -1.168373372831333E-1
 6.501371738825000E9    -4.454404220390033E-1   -2.804009877374370E-1   -1.469898530222635E-2    3.606891943043203E-2   -1.279572616181983E-2    3.602177547873684E-2   -4.988248250650544E-1   -1.155983942089171E-1
 6.501383653500000E9    -4.459601999436887E-1   -2.796489696558302E-1   -1.477740879690865E-2    3.626489690423415E-2   -1.276601525986264E-2    3.628819598162931E-2   -4.990775412379058E-1   -1.143123147901341E-1
 6.501395568175000E9    -4.465110394219254E-1   -2.787796920647821E-1   -1.466196877541394E-2    3.656893098368431E-2   -1.272510659505892E-2    3.653945071896605E-2   -4.992437144396360E-1   -1.130747981742980E-1
 6.501407482850000E9    -4.470122947985361E-1   -2.777789131831566E-1   -1.465505797328091E-2    3.669605390913063E-2   -1.270434967485625E-2    3.671379435439215E-2   -4.993523362346654E-1   -1.118962403822440E-1
 6.501419397525000E9    -4.475149620496976E-1   -2.769071850453230E-1   -1.474135725293478E-2    3.696505068540772E-2   -1.268880306775409E-2    3.695815400002295E-2   -4.996841054720412E-1   -1.104777608357489E-1
 6.501431312200000E9    -4.480419781975850E-1   -2.759390194075211E-1   -1.459942257788437E-2    3.725598088011560E-2   -1.278342835603387E-2    3.717780648293807E-2   -4.999212178308897E-1   -1.093668852922750E-1
 6.501443226875000E9    -4.485193517364035E-1   -2.752316739019825E-1   -1.473630223001012E-2    3.751497966660761E-2   -1.269476055809217E-2    3.736633202331129E-2   -5.001272371195988E-1   -1.081098869109844E-1
 6.501455141550000E9    -4.490773926707953E-1   -2.743426651171127E-1   -1.461804994840160E-2    3.764188229506679E-2   -1.275246411478444E-2    3.768739049309734E-2   -5.002242180769899E-1   -1.069180793409573E-1
 6.501467056225000E9    -4.494846413791686E-1   -2.734686408488102E-1   -1.460220324539019E-2    3.800525742976422E-2   -1.261067627351199E-2    3.792513402000640E-2   -5.004081385885011E-1   -1.055763840775617E-1
 6.501478970900000E9    -4.501508521950391E-1   -2.725667653018015E-1   -1.461245691820949E-2    3.825960254345511E-2   -1.268055054327905E-2    3.814109129368315E-2   -5.006742268673763E-1   -1.043267333797588E-1
 6.501490885575000E9    -4.506621164655919E-1   -2.716239221277587E-1   -1.479755645476691E-2    3.846327494969216E-2   -1.262628128270600E-2    3.846918797852385E-2   -5.008408959959401E-1   -1.030076140996849E-1
 6.501502800250000E9    -4.510538747226952E-1   -2.706610915732847E-1   -1.461935405354976E-2    3.866662080983685E-2   -1.265501210859979E-2    3.864176283548913E-2   -5.010455276645081E-1   -1.016962904001034E-1
 6.501514714925000E9    -4.514641386690902E-1   -2.697806585644059E-1   -1.470917142977571E-2    3.896992854841695E-2   -1.254377393140136E-2    3.887074633731479E-2   -5.011109902200743E-1   -1.004420473045693E-1
 6.501526629600000E9    -4.520778357058579E-1   -2.690128151853680E-1   -1.471587975557153E-2    3.919377405635136E-2   -1.259417623097691E-2    3.905336452276185E-2   -5.012592741000362E-1   -9.921496258868598E-2
 6.501538544275000E9    -4.526187877350506E-1   -2.680866149328547E-1   -1.467791410070529E-2    3.958517897100255E-2   -1.256676558505295E-2    3.941935745386384E-2   -5.013933563303716E-1   -9.785658594626519E-2
 6.501550458950000E9    -4.530582446852972E-1   -2.671956869148333E-1   -1.463946436362361E-2    3.974001742113120E-2   -1.252011582012120E-2    3.956362281444684E-2   -5.016094381051758E-1   -9.657231332693465E-2
 6.501562373625000E9    -4.535982886032466E-1   -2.661825802901644E-1   -1.464844756554759E-2    4.003728149821048E-2   -1.243245264897919E-2    3.993240016821857E-2   -5.017900362108458E-1   -9.529534965308623E-2
 6.501574288300000E9    -4.540559871239225E-1   -2.652617139418409E-1   -1.457230471139201E-2    4.030152624000827E-2   -1.239659897802868E-2    4.021347424921409E-2   -5.019830355555069E-1   -9.400403967750517E-2
 6.501586202975000E9    -4.544762515909866E-1   -2.644705802350944E-1   -1.454596590556697E-2    4.062024863352118E-2   -1.249286919711607E-2    4.034263127671548E-2   -5.022132206564719E-1   -9.264411217586571E-2
 6.501598117650000E9    -4.550402077763878E-1   -2.635552613887109E-1   -1.457654579951863E-2    4.091036914370157E-2   -1.244146971780289E-2    4.067301553640942E-2   -5.022758403966995E-1   -9.124963837211883E-2
 6.501610032325000E9    -4.554974791001450E-1   -2.625106977858410E-1   -1.455607809812179E-2    4.124820232283249E-2   -1.236835970734972E-2    4.097153868606351E-2   -5.024554702752725E-1   -8.998959487995337E-2
 6.501621947000000E9    -4.559322489008878E-1   -2.617245156920908E-1   -1.460454169538406E-2    4.132247891991435E-2   -1.244776131513317E-2    4.121479129043395E-2   -5.024482655674695E-1   -8.858846961135769E-2
 6.501633861675000E9    -4.564080971846398E-1   -2.607154945317231E-1   -1.455250168213645E-2    4.162459317583853E-2   -1.237992479304534E-2    4.154663493470795E-2   -5.027429561301073E-1   -8.726755093869466E-2
 6.501645776350000E9    -4.570028151304654E-1   -2.598676187673556E-1   -1.473387844873801E-2    4.201734632404266E-2   -1.229827699461148E-2    4.185790489192946E-2   -5.028120536303555E-1   -8.599882845144938E-2
 6.501657691025000E9    -4.574062804552966E-1   -2.587934559390671E-1   -1.453647612246590E-2    4.228263073679136E-2   -1.231353912271314E-2    4.214399231118095E-2   -5.029693886726131E-1   -8.473451904550296E-2
 6.501669605700000E9    -4.578405805173647E-1   -2.580247201678613E-1   -1.453245275897194E-2    4.269884253082386E-2   -1.232381774121433E-2    4.237327523133418E-2   -5.030628289426465E-1   -8.328600140580436E-2
 6.501681520375000E9    -4.581986961236065E-1   -2.571098600831817E-1   -1.441709716173133E-2    4.281465457809335E-2   -1.238536776282696E-2    4.275419567736373E-2   -5.032710698312256E-1   -8.194986853965361E-2
 6.501693435050000E9    -4.589205722652808E-1   -2.562065417050088E-1   -1.439260807312979E-2    4.319107311373205E-2   -1.219094838379880E-2    4.291608166454462E-2   -5.032457055072391E-1   -8.049093977796991E-2
 6.501705349725000E9    -4.592834751497912E-1   -2.552286814955229E-1   -1.444469524691863E-2    4.356767740836031E-2   -1.222028432226904E-2    4.337516924767421E-2   -5.034903582411907E-1   -7.914217451876353E-2
 6.501717264400000E9    -4.598225608698836E-1   -2.542560652645735E-1   -1.436378623421647E-2    4.388054714781883E-2   -1.221105710071391E-2    4.350152368848492E-2   -5.034947602016701E-1   -7.773708908398783E-2
 6.501729179075000E9    -4.603220102274361E-1   -2.532075624540958E-1   -1.436281507246840E-2    4.407080714724556E-2   -1.205693129962919E-2    4.386024889333240E-2   -5.035593653055219E-1   -7.647500158409362E-2
 6.501741093750000E9    -4.607037150596058E-1   -2.522908841253388E-1   -1.430709243099274E-2    4.453265334028016E-2   -1.217655240321665E-2    4.422856550673429E-2   -5.038007706086538E-1   -7.507458759073148E-2
 6.501753008425000E9    -4.612263872699937E-1   -2.514080155413395E-1   -1.431544380928648E-2    4.494748376693807E-2   -1.205650218066800E-2    4.451987526857244E-2   -5.038897772571873E-1   -7.367887664762135E-2
 6.501764923100000E9    -4.616717435629086E-1   -2.504699632396331E-1   -1.436483983689111E-2    4.512776137161973E-2   -1.204025453224909E-2    4.483677975529974E-2   -5.038430238109496E-1   -7.213010589195430E-2
 6.501776837775000E9    -4.620160961854222E-1   -2.494409398223292E-1   -1.438333366924892E-2    4.554883617815956E-2   -1.187715672475696E-2    4.514265000211631E-2   -5.040542935841431E-1   -7.081302310265689E-2
 6.501788752450000E9    -4.626242007804087E-1   -2.486407571348596E-1   -1.430598665686101E-2    4.589100102170547E-2   -1.191877346793794E-2    4.541451661190844E-2   -5.041555946652435E-1   -6.928996529827500E-2
 6.501800667125000E9    -4.630414674103528E-1   -2.475295317644423E-1   -1.424029341742710E-2    4.623778635359682E-2   -1.185252708272117E-2    4.591409399231696E-2   -5.042364304387579E-1   -6.779777486981489E-2
 6.501812581800000E9    -4.634946825283756E-1   -2.466225931229716E-1   -1.433889956283601E-2    4.650474542705046E-2   -1.182934683950027E-2    4.625086296680658E-2   -5.041826109381300E-1   -6.642841169765890E-2
 6.501824496475000E9    -4.640874211531189E-1   -2.457318141853846E-1   -1.417766825999467E-2    4.683509676490934E-2   -1.176914144602595E-2    4.659995728073325E-2   -5.042591280721836E-1   -6.482532426249284E-2
 6.501836411150000E9    -4.642953485160159E-1   -2.446865676045421E-1   -1.411468867657138E-2    4.729798564105513E-2   -1.178174393833992E-2    4.684475076756891E-2   -5.044736835211441E-1   -6.355851118752601E-2
 6.501848325825000E9    -4.647857531896995E-1   -2.437944375329928E-1   -1.409331180801186E-2    4.759534348506635E-2   -1.179973992635974E-2    4.727786663607783E-2   -5.044386783232053E-1   -6.201291246646224E-2
 6.501860240500000E9    -4.653539844901050E-1   -2.427146438433803E-1   -1.410808798869445E-2    4.793314673103111E-2   -1.164161050857791E-2    4.763518894847592E-2   -5.044357443108523E-1   -6.043929951476727E-2
 6.501872155175000E9    -4.657386205635604E-1   -2.417666077400344E-1   -1.397382862404879E-2    4.830602216595047E-2   -1.170014935738381E-2    4.797507757675401E-2   -5.045920294512990E-1   -5.929999839851704E-2
 6.501884069850000E9    -4.662517214056838E-1   -2.408323558479696E-1   -1.403075299648965E-2    4.863667239453296E-2   -1.156394798613592E-2    4.822045593024796E-2   -5.045471884305714E-1   -5.762190969501793E-2
 6.501895984525000E9    -4.667752808326429E-1   -2.397968199095097E-1   -1.391357705857038E-2    4.911796771607407E-2   -1.146367044493635E-2    4.867726312069843E-2   -5.046159172101545E-1   -5.603969294795200E-2
 6.501907899200000E9    -4.671431652243082E-1   -2.388354965948816E-1   -1.402250658180569E-2    4.946670210532364E-2   -1.154844302231599E-2    4.902490455141049E-2   -5.046274569482651E-1   -5.455721016564878E-2
 6.501919813875000E9    -4.675928562418495E-1   -2.379229254429758E-1   -1.394733150689968E-2    4.998970242226776E-2   -1.140176778788994E-2    4.942685053385461E-2   -5.047112119433208E-1   -5.296125152481265E-2
 6.501931728550000E9    -4.680028906374181E-1   -2.368168421099181E-1   -1.387521988658447E-2    5.025110398185454E-2   -1.131513478238771E-2    4.989146126306606E-2   -5.047707314777903E-1   -5.162055612906930E-2
 6.501943643225000E9    -4.684916885338422E-1   -2.359171520566556E-1   -1.382918337428834E-2    5.074612203322614E-2   -1.135649224622382E-2    5.035433783227797E-2   -5.046063822188650E-1   -5.007278170268731E-2
 6.501955557900000E9    -4.689634433336904E-1   -2.349372169330965E-1   -1.386254897462719E-2    5.107693775092832E-2   -1.125214381141272E-2    5.058877305914353E-2   -5.048100424244618E-1   -4.848346192957896E-2
 6.501967472575000E9    -4.693061398986040E-1   -2.337768791489630E-1   -1.392941259530822E-2    5.147494283976070E-2   -1.121757235432557E-2    5.097046450662093E-2   -5.047049044641331E-1   -4.697495945198289E-2
 6.501979387250000E9    -4.698396871837197E-1   -2.328582182349918E-1   -1.365784150155407E-2    5.208211114200028E-2   -1.113698058131384E-2    5.142269915675165E-2   -5.047620121956282E-1   -4.527019350722943E-2
 6.501991301925000E9    -4.701349378422054E-1   -2.317320809955804E-1   -1.368458718991599E-2    5.236939671981303E-2   -1.116181158668363E-2    5.182335912183727E-2   -5.048222676169839E-1   -4.372578348999277E-2
 6.502003216600000E9    -4.705415354910309E-1   -2.308167662444238E-1   -1.373114257269132E-2    5.289760044801774E-2   -1.106763901347707E-2    5.227557077532275E-2   -5.047356029266729E-1   -4.222538777407179E-2
 6.502015131275000E9    -4.710600193526249E-1   -2.297786575062415E-1   -1.361299645377402E-2    5.322005333696479E-2   -1.098910956268793E-2    5.268724183339473E-2   -5.047379280832455E-1   -4.054237461091650E-2
 6.502027045950000E9    -4.714557048733882E-1   -2.287291438343144E-1   -1.355887165583895E-2    5.372832030711796E-2   -1.092312678458790E-2    5.320001392047913E-2   -5.047529532773763E-1   -3.904704349448594E-2
 6.502038960625000E9    -4.719137860645863E-1   -2.276901769274074E-1   -1.345121425984646E-2    5.416501002042877E-2   -1.076635545093372E-2    5.353828349959020E-2   -5.045989235615275E-1   -3.733908614482032E-2
 6.502050875300000E9    -4.723577522923917E-1   -2.266575146180089E-1   -1.325000125508916E-2    5.460161694604958E-2   -1.069779751312129E-2    5.411197205654548E-2   -5.046826433952865E-1   -3.577802997072942E-2
 6.502062789975000E9    -4.727604296143603E-1   -2.256904803219753E-1   -1.344127647275311E-2    5.495237059818242E-2   -1.063570615842436E-2    5.444671696672019E-2   -5.045241407731258E-1   -3.413099817709923E-2
 6.502074704650000E9    -4.731736564596974E-1   -2.244963035538837E-1   -1.325939408158878E-2    5.551913885441102E-2   -1.064715593646823E-2    5.497382631952437E-2   -5.045558226439502E-1   -3.240207898711689E-2
 6.502086619325000E9    -4.737132121205148E-1   -2.235181279631334E-1   -1.310850365781154E-2    5.610970309052734E-2   -1.059750125682070E-2    5.532170226532337E-2   -5.045371250436711E-1   -3.088452205887156E-2
 6.502098534000000E9    -4.740500205095921E-1   -2.225451465366618E-1   -1.316656337706595E-2    5.647742415358976E-2   -1.038581662503107E-2    5.582127551861479E-2   -5.043969654052651E-1   -2.895273871578467E-2
 6.502110448675000E9    -4.744178720503765E-1   -2.214277565367734E-1   -1.315568449202487E-2    5.703449144364345E-2   -1.023934302984041E-2    5.628425586680755E-2   -5.042824292333109E-1   -2.732908887581049E-2
 6.502122363350000E9    -4.748074831151768E-1   -2.202863684170878E-1   -1.306670446483302E-2    5.756680370546299E-2   -1.025339596999104E-2    5.679431424038852E-2   -5.042334678765190E-1   -2.562838005072120E-2
 6.502134278025000E9    -4.752338629836383E-1   -2.193460359207330E-1   -1.290571008894668E-2    5.805829580843203E-2   -1.018366374789015E-2    5.735516636637239E-2   -5.041997267863404E-1   -2.407333932135742E-2
 6.502146192700000E9    -4.755404862508319E-1   -2.181712003089515E-1   -1.278979711461624E-2    5.847661944271377E-2   -1.006370084772715E-2    5.782263946040860E-2   -5.040180744360883E-1   -2.222235646204170E-2
 6.502158107375000E9    -4.760724170868601E-1   -2.171042310919461E-1   -1.271329647669415E-2    5.917413347674618E-2   -1.005906785192639E-2    5.837265535301402E-2   -5.039228791418521E-1   -2.043667552908485E-2
 6.502170022050000E9    -4.764653349819128E-1   -2.159953754706517E-1   -1.269419515591199E-2    5.958913858158885E-2   -9.830665335544862E-3    5.882081188758299E-2   -5.038825588767849E-1   -1.884095562235762E-2
 6.502181936725000E9    -4.768812207037249E-1   -2.149980639043597E-1   -1.258212436251752E-2    6.012321211529143E-2   -9.802608792748824E-3    5.940202656479993E-2   -5.037540206282498E-1   -1.689504176038528E-2
 6.502193851400000E9    -4.772296982807058E-1   -2.137816026926544E-1   -1.257087115834843E-2    6.081224623922753E-2   -9.721742543516971E-3    5.991631461457934E-2   -5.035875696056153E-1   -1.516627119823114E-2
 6.502205766075000E9    -4.777205712046685E-1   -2.127394959932913E-1   -1.244519789762180E-2    6.118965876814760E-2   -9.554830282432746E-3    6.043823617581287E-2   -5.034120732048009E-1   -1.345573234774514E-2
 6.502217680750000E9    -4.780924854546847E-1   -2.116666611802798E-1   -1.225480590590037E-2    6.188189188858083E-2   -9.468751378086523E-3    6.096066486997102E-2   -5.032189709087611E-1   -1.173023035142945E-2
