#  HZ   S   RI   R     50.00 
! Rohde & Schwarz Vector Network Analyzer 
! Rohde-Schwarz,ZNB20-2Port,1311601062101988,3.16
! Created: UTC 3/20/2024, 11:38:51 AM
! freq[Hz]                re:S11                  im:S11                  re:S21                  im:S21                  re:S12                  im:S12                  re:S22                  im:S22
 6.501132237000000E9    -4.343887696699275E-1   -2.974150959962421E-1   -1.487252465263148E-2    3.215533229729116E-2   -1.302273827682022E-2    3.215869816335181E-2   -4.944766931365203E-1   -1.365037060866317E-1
 6.501144129075000E9    -4.349462417568902E-1   -2.967133431859068E-1   -1.469107114338590E-2    3.242797194961957E-2   -1.304089726678576E-2    3.242475547415545E-2   -4.947685978775304E-1   -1.352154080847150E-1
 6.501156021150000E9    -4.354769952125511E-1   -2.957875915867977E-1   -1.487806622189402E-2    3.261799622130804E-2   -1.299474343686415E-2    3.267510897868862E-2   -4.950012231092439E-1   -1.341072907494703E-1
 6.501167913225000E9    -4.361283269903906E-1   -2.950249120035631E-1   -1.490340677194620E-2    3.280450005753638E-2   -1.300810542171668E-2    3.284530557388307E-2   -4.952770765143472E-1   -1.328784136976686E-1
 6.501179805300000E9    -4.365849872574383E-1   -2.941855572185249E-1   -1.469975423989005E-2    3.295221639264219E-2   -1.293403266602516E-2    3.302971712107405E-2   -4.955596678287041E-1   -1.319887919940858E-1
 6.501191697375000E9    -4.371703996730127E-1   -2.932276082520212E-1   -1.475598552902574E-2    3.308451232128232E-2   -1.292814623455787E-2    3.324450602130405E-2   -4.958138154411916E-1   -1.307970743281466E-1
 6.501203589450000E9    -4.375791149439927E-1   -2.924651997834720E-1   -1.478951271456575E-2    3.344582175102982E-2   -1.295272231574259E-2    3.333681486591693E-2   -4.961499116225352E-1   -1.296626252711060E-1
 6.501215481525000E9    -4.381819338167142E-1   -2.915700937789286E-1   -1.482067134926011E-2    3.365387388991445E-2   -1.297186007819128E-2    3.362286925475457E-2   -4.963748471071056E-1   -1.284165944660165E-1
 6.501227373600000E9    -4.386590830909196E-1   -2.908060501164928E-1   -1.483317944132031E-2    3.386975797233639E-2   -1.299763437324735E-2    3.375659991277050E-2   -4.964413182246621E-1   -1.271190509438009E-1
 6.501239265675000E9    -4.391198959459357E-1   -2.898733231246185E-1   -1.480991686281921E-2    3.388407499824860E-2   -1.296612130520340E-2    3.394236536347664E-2   -4.966104844942382E-1   -1.259885252157423E-1
 6.501251157750000E9    -4.397631434876046E-1   -2.890147097448159E-1   -1.486231089957943E-2    3.412754455810584E-2   -1.292104433165697E-2    3.418177767859955E-2   -4.968618910546948E-1   -1.248375146037742E-1
 6.501263049825000E9    -4.403179491407691E-1   -2.882294040234877E-1   -1.470696350536995E-2    3.441607026444816E-2   -1.285647774641764E-2    3.439059084992638E-2   -4.970926023512005E-1   -1.235054448787040E-1
 6.501274941900000E9    -4.408204691871132E-1   -2.873435671474193E-1   -1.482117689446001E-2    3.471229017412156E-2   -1.283353963185488E-2    3.463048976062691E-2   -4.973483783783355E-1   -1.223139781126540E-1
 6.501286833975000E9    -4.412705357823661E-1   -2.864409346028211E-1   -1.471776743489435E-2    3.484824381636688E-2   -1.298466963708423E-2    3.480923951947063E-2   -4.975006424506082E-1   -1.212136880150364E-1
 6.501298726050000E9    -4.419145174823044E-1   -2.856129846648543E-1   -1.476970071003951E-2    3.501182905681358E-2   -1.294715067654524E-2    3.503758869685007E-2   -4.978772242253179E-1   -1.199181268673525E-1
 6.501310618125000E9    -4.423021596529723E-1   -2.847492853072547E-1   -1.482943213809474E-2    3.520812761431694E-2   -1.286601270650227E-2    3.517492393760496E-2   -4.981971746451159E-1   -1.188469644673104E-1
 6.501322510200000E9    -4.428535321592785E-1   -2.838619470118514E-1   -1.474809566842088E-2    3.547043407075664E-2   -1.278252858430609E-2    3.547355499009042E-2   -4.981545815282247E-1   -1.176394832605368E-1
 6.501334402275000E9    -4.433875351095184E-1   -2.830457726918255E-1   -1.477433323959827E-2    3.566428810325319E-2   -1.288226620925203E-2    3.561828873256050E-2   -4.984742645709197E-1   -1.163851505187565E-1
 6.501346294350000E9    -4.439202476572745E-1   -2.820826674539317E-1   -1.490165783298353E-2    3.590929321055229E-2   -1.282328255657897E-2    3.583715284457321E-2   -4.987304679314911E-1   -1.151146636943322E-1
 6.501358186425000E9    -4.444147191546144E-1   -2.812974415284366E-1   -1.479768083764136E-2    3.613136679520633E-2   -1.278620052276564E-2    3.601992986406023E-2   -4.989715139327655E-1   -1.139113951199825E-1
 6.501370078500000E9    -4.449889628636672E-1   -2.804840011941587E-1   -1.475209594823282E-2    3.631403180931529E-2   -1.288710727876129E-2    3.630376606408158E-2   -4.990644195539072E-1   -1.127418049903959E-1
 6.501381970575000E9    -4.454384825763135E-1   -2.795714012879194E-1   -1.468150933458812E-2    3.655672198525340E-2   -1.287899145966772E-2    3.655359348912535E-2   -4.992709514859816E-1   -1.114236934680072E-1
 6.501393862650000E9    -4.459723125767018E-1   -2.787110280065828E-1   -1.468758673125030E-2    3.690990099261121E-2   -1.271699111636485E-2    3.676191015540305E-2   -4.993983129342010E-1   -1.102071537541076E-1
 6.501405754725000E9    -4.464330898888000E-1   -2.778645076700212E-1   -1.487888831586776E-2    3.716584206328273E-2   -1.275486845447187E-2    3.698584154512454E-2   -4.995970251698128E-1   -1.089191497339323E-1
 6.501417646800000E9    -4.470900004248530E-1   -2.769698146224570E-1   -1.477126173746040E-2    3.729751353757341E-2   -1.279735766167051E-2    3.722415418875431E-2   -4.997856206796763E-1   -1.077764860500930E-1
 6.501429538875000E9    -4.475672243501374E-1   -2.760402980944014E-1   -1.482801548833748E-2    3.770975116359070E-2   -1.280707176378749E-2    3.746294358657623E-2   -4.999644454728009E-1   -1.064934554559359E-1
 6.501441430950000E9    -4.480198817805274E-1   -2.752488086943357E-1   -1.475190759045721E-2    3.791964726316345E-2   -1.264691720701432E-2    3.764928820950222E-2   -5.001530629518506E-1   -1.051486595426969E-1
 6.501453323025000E9    -4.485241467721758E-1   -2.742912404023444E-1   -1.472174477410301E-2    3.807053846387964E-2   -1.274742780341892E-2    3.791361191016449E-2   -5.003669487321811E-1   -1.040194096796454E-1
 6.501465215100000E9    -4.490131850969776E-1   -2.734939958580475E-1   -1.479450334758890E-2    3.829118713620694E-2   -1.269782377894105E-2    3.818017299309383E-2   -5.004719685592923E-1   -1.026498443797027E-1
 6.501477107175000E9    -4.495580859754916E-1   -2.724867290514322E-1   -1.475980333693272E-2    3.853409486553644E-2   -1.263279025081024E-2    3.846984053894891E-2   -5.006354794754011E-1   -1.013867929812081E-1
 6.501488999250000E9    -4.499997501806199E-1   -2.715520877631364E-1   -1.478216044926221E-2    3.894010510521149E-2   -1.259611530564732E-2    3.878433540138260E-2   -5.007535011129610E-1   -1.001398146382242E-1
 6.501500891325000E9    -4.506077199567759E-1   -2.707980865288999E-1   -1.476655990120895E-2    3.906463891822010E-2   -1.254573146848160E-2    3.892746795305436E-2   -5.009375130289102E-1   -9.888326506868853E-2
 6.501512783400000E9    -4.510631160292760E-1   -2.699648083002869E-1   -1.468000438057023E-2    3.934597759450861E-2   -1.252315679713875E-2    3.908000908793521E-2   -5.012805272967452E-1   -9.769723400217145E-2
 6.501524675475000E9    -4.515743197240751E-1   -2.689517419931449E-1   -1.467960745664343E-2    3.962891134192160E-2   -1.261095493917770E-2    3.949108161545065E-2   -5.013655865868852E-1   -9.629651120927478E-2
 6.501536567550000E9    -4.520050275671830E-1   -2.681412231031098E-1   -1.463217523078625E-2    3.986499008542951E-2   -1.265122923724075E-2    3.972064800103157E-2   -5.015703762799378E-1   -9.494602853736515E-2
 6.501548459625000E9    -4.525000498498308E-1   -2.671350902298935E-1   -1.472908646970182E-2    4.020510900739731E-2   -1.249132947126062E-2    4.006261606528849E-2   -5.016791514792767E-1   -9.364146647602326E-2
 6.501560351700000E9    -4.529364246887395E-1   -2.662686352682846E-1   -1.469186146145592E-2    4.051966694092913E-2   -1.252369087832442E-2    4.024126728689215E-2   -5.018175488433337E-1   -9.237524885188549E-2
 6.501572243775000E9    -4.534586836593166E-1   -2.654057195479637E-1   -1.464310883602222E-2    4.070385632846603E-2   -1.252421898355691E-2    4.053834750914813E-2   -5.020076281122763E-1   -9.089287282821490E-2
 6.501584135850000E9    -4.540396768298635E-1   -2.644169116484492E-1   -1.458662407303597E-2    4.099215963064181E-2   -1.245521887155400E-2    4.077108661931107E-2   -5.020486086268392E-1   -8.972633165988388E-2
 6.501596027925000E9    -4.544312441951482E-1   -2.635295068581247E-1   -1.451784701552639E-2    4.137990228624305E-2   -1.251314896062903E-2    4.108369754645420E-2   -5.023828744444879E-1   -8.836264811534433E-2
 6.501607920000000E9    -4.549501778970586E-1   -2.626930389614567E-1   -1.463830355416074E-2    4.159708433398947E-2   -1.250662638685050E-2    4.133390333003027E-2   -5.025119819277428E-1   -8.704934081388876E-2
 6.501619812075000E9    -4.554540522521955E-1   -2.617033624992663E-1   -1.457638925476175E-2    4.184332453969940E-2   -1.244394041174343E-2    4.161242625120491E-2   -5.025938632215863E-1   -8.565790063586574E-2
 6.501631704150000E9    -4.560376837584268E-1   -2.609311933547113E-1   -1.447636281112043E-2    4.205018651134085E-2   -1.240922589983987E-2    4.188674523187300E-2   -5.026324082956113E-1   -8.439130830822503E-2
 6.501643596225000E9    -4.563965000971577E-1   -2.598881483858806E-1   -1.455666359628751E-2    4.255629458455294E-2   -1.230280391418807E-2    4.215518701751913E-2   -5.026434821637482E-1   -8.304780557432916E-2
 6.501655488300000E9    -4.568494046397084E-1   -2.589972873212850E-1   -1.455249452657996E-2    4.274702815211391E-2   -1.232231278519861E-2    4.247133935857358E-2   -5.029562778718647E-1   -8.154999956842962E-2
 6.501667380375000E9    -4.573688284089635E-1   -2.580792668377325E-1   -1.440740993397089E-2    4.315846384165917E-2   -1.230797634256091E-2    4.281773251250314E-2   -5.030896396787227E-1   -8.021363866606139E-2
 6.501679272450000E9    -4.578523516049218E-1   -2.571350661857885E-1   -1.448165493858986E-2    4.332698205457147E-2   -1.223129435514697E-2    4.302205813284300E-2   -5.030895884984996E-1   -7.892522542036287E-2
 6.501691164525000E9    -4.582126344241302E-1   -2.562321473674429E-1   -1.441520242313089E-2    4.374550414770798E-2   -1.234359727074532E-2    4.333874560016587E-2   -5.031150013192188E-1   -7.759824858009434E-2
 6.501703056600000E9    -4.587086025160356E-1   -2.552120659568963E-1   -1.445790745065643E-2    4.392482599691296E-2   -1.222189986732315E-2    4.378894763081252E-2   -5.033859926647848E-1   -7.616295887805703E-2
 6.501714948675000E9    -4.592337267139377E-1   -2.542836361448511E-1   -1.438224134717466E-2    4.439132347025082E-2   -1.208291253328153E-2    4.402752747095760E-2   -5.033984571933884E-1   -7.474649378606145E-2
 6.501726840750000E9    -4.597469635435059E-1   -2.532828101227111E-1   -1.434174528007357E-2    4.466836719861443E-2   -1.214179293552620E-2    4.428017741491173E-2   -5.034832538972157E-1   -7.336788207687847E-2
 6.501738732825000E9    -4.602109789184736E-1   -2.524629865391111E-1   -1.435095186079840E-2    4.512117893992175E-2   -1.206410789915473E-2    4.461642659974493E-2   -5.037348559930191E-1   -7.192714473356057E-2
 6.501750624900000E9    -4.606604440982941E-1   -2.515176012566012E-1   -1.436567937651501E-2    4.536871921833584E-2   -1.215610371745228E-2    4.486041055530803E-2   -5.037766282354024E-1   -7.042474168138427E-2
 6.501762516975000E9    -4.610955380840386E-1   -2.504439288775362E-1   -1.432707576643597E-2    4.570144399600753E-2   -1.195147409131686E-2    4.521629957943287E-2   -5.037651751830071E-1   -6.905142811061858E-2
 6.501774409050000E9    -4.614956920885777E-1   -2.494604346952199E-1   -1.438425791499561E-2    4.615697617357217E-2   -1.192424271446137E-2    4.563940048694688E-2   -5.040078912377692E-1   -6.762724730946526E-2
 6.501786301125000E9    -4.620073516685076E-1   -2.486105392176979E-1   -1.418127996703276E-2    4.636628969374491E-2   -1.194917075888331E-2    4.589921117939556E-2   -5.039307329543121E-1   -6.633855902609992E-2
 6.501798193200000E9    -4.625392305055882E-1   -2.476503113014158E-1   -1.432294874695127E-2    4.678391733107539E-2   -1.194246812578327E-2    4.633722654447062E-2   -5.041624167849750E-1   -6.483206764756523E-2
 6.501810085275000E9    -4.629704405053928E-1   -2.467516485859582E-1   -1.430861580580440E-2    4.708683115351107E-2   -1.191071823057259E-2    4.665332879822350E-2   -5.041182697700241E-1   -6.328430893599431E-2
 6.501821977350000E9    -4.634813962955238E-1   -2.457605431936613E-1   -1.407218590908215E-2    4.747885409204753E-2   -1.183304036882033E-2    4.698279198057891E-2   -5.041751555672328E-1   -6.196811656216934E-2
 6.501833869425000E9    -4.640607204351967E-1   -2.447430135545871E-1   -1.400694496044898E-2    4.771390788304045E-2   -1.174037413458740E-2    4.737576846911905E-2   -5.041379975290035E-1   -6.046375777566917E-2
 6.501845761500000E9    -4.644050093640905E-1   -2.438276039546769E-1   -1.423632031510755E-2    4.821861556505484E-2   -1.177044114507973E-2    4.776894917998276E-2   -5.043295182396442E-1   -5.896972112551936E-2
 6.501857653575000E9    -4.648057952165134E-1   -2.426628300082800E-1   -1.411980708244747E-2    4.854823591380295E-2   -1.171809351858841E-2    4.804807760393814E-2   -5.043894810532200E-1   -5.747434261102918E-2
 6.501869545650000E9    -4.652694863160038E-1   -2.417796976057125E-1   -1.416375168799522E-2    4.887294553488845E-2   -1.163202233639147E-2    4.847967440339414E-2   -5.043099001588551E-1   -5.586688625757556E-2
 6.501881437725000E9    -4.657196617523612E-1   -2.408300199331534E-1   -1.413405321061584E-2    4.925081385134829E-2   -1.157074460249221E-2    4.876656472699135E-2   -5.045380859839316E-1   -5.439058331237943E-2
 6.501893329800000E9    -4.661416339288072E-1   -2.398740977017397E-1   -1.404999619957021E-2    4.972122156749773E-2   -1.153263402859033E-2    4.917778649568942E-2   -5.045046138716738E-1   -5.297416450285462E-2
 6.501905221875000E9    -4.666316286212794E-1   -2.388759961677764E-1   -1.397134727319549E-2    5.007550582941454E-2   -1.148557138185461E-2    4.957314612672442E-2   -5.043926123648278E-1   -5.144076379016503E-2
 6.501917113950000E9    -4.670506197273684E-1   -2.377544845871258E-1   -1.400138085840118E-2    5.035140973379315E-2   -1.155827405957986E-2    4.990026515704049E-2   -5.045619059867091E-1   -4.989731428438517E-2
 6.501929006025000E9    -4.674866002857404E-1   -2.369052185531799E-1   -1.383639956421919E-2    5.087626165729006E-2   -1.137057256155904E-2    5.031868004611760E-2   -5.044888348886661E-1   -4.833426105213225E-2
 6.501940898100000E9    -4.679258854431718E-1   -2.358765718333402E-1   -1.378979195107602E-2    5.139474099106297E-2   -1.138369095197151E-2    5.083048768222926E-2   -5.045881092440512E-1   -4.686312693384823E-2
 6.501952790175000E9    -4.684126621221630E-1   -2.347940101044284E-1   -1.384846832717832E-2    5.170495856978678E-2   -1.125430563678373E-2    5.112158179693611E-2   -5.044708516246483E-1   -4.519978777269144E-2
 6.501964682250000E9    -4.688282634602771E-1   -2.338272401049557E-1   -1.375326166530102E-2    5.212890864260588E-2   -1.119485280160511E-2    5.163765746382132E-2   -5.046570245789977E-1   -4.364717612151259E-2
 6.501976574325000E9    -4.691964792016065E-1   -2.326747890018829E-1   -1.364810428854360E-2    5.252648697974920E-2   -1.118283462479765E-2    5.202884238323813E-2   -5.044912138490318E-1   -4.199849865850178E-2
 6.501988466400000E9    -4.696940400413994E-1   -2.317013801781674E-1   -1.360983012509755E-2    5.298797501628760E-2   -1.107735946108995E-2    5.239935001657840E-2   -5.045137130354340E-1   -4.053229875260508E-2
 6.502000358475000E9    -4.701498167060641E-1   -2.308050075599999E-1   -1.348048910439695E-2    5.345799356792617E-2   -1.101630751119500E-2    5.281452093618437E-2   -5.044123428584993E-1   -3.881370261245291E-2
 6.502012250550000E9    -4.704483683012299E-1   -2.297448165723493E-1   -1.350784351148841E-2    5.393967431615844E-2   -1.092177498585917E-2    5.318753428927888E-2   -5.045303103184944E-1   -3.738870407494151E-2
 6.502024142625000E9    -4.709367433321121E-1   -2.286187076230922E-1   -1.346292451756432E-2    5.427937929060466E-2   -1.091751671455671E-2    5.369318769352633E-2   -5.043283645725242E-1   -3.574889024750331E-2
 6.502036034700000E9    -4.714188309103823E-1   -2.276708722224209E-1   -1.349847058431954E-2    5.481625279356018E-2   -1.072772674810827E-2    5.415567434563617E-2   -5.045748218406810E-1   -3.406862020868721E-2
 6.502047926775000E9    -4.718328640853958E-1   -2.266651510815931E-1   -1.338216230849719E-2    5.531768289106829E-2   -1.063370340534816E-2    5.457470201026598E-2   -5.042467254459408E-1   -3.254031645858568E-2
 6.502059818850000E9    -4.722594685926221E-1   -2.255227186577652E-1   -1.324213166524407E-2    5.571094887299770E-2   -1.067477799756034E-2    5.508897384283018E-2   -5.041141212460009E-1   -3.075896016769322E-2
 6.502071710925000E9    -4.726390232022838E-1   -2.245039660183236E-1   -1.322882183083978E-2    5.619398404977707E-2   -1.058037506033943E-2    5.556274028068366E-2   -5.040997706318824E-1   -2.898166147567389E-2
 6.502083603000000E9    -4.730765252795169E-1   -2.235433284680392E-1   -1.313288349744783E-2    5.676713993116269E-2   -1.047987715361983E-2    5.602551483461077E-2   -5.040684868066494E-1   -2.747175148782574E-2
 6.502095495075000E9    -4.734780400016690E-1   -2.224081234935588E-1   -1.309682306624177E-2    5.726502508656599E-2   -1.035230874048629E-2    5.645123649260668E-2   -5.039273041745186E-1   -2.555638018605472E-2
 6.502107387150000E9    -4.739214821446398E-1   -2.212756871763324E-1   -1.287726386153015E-2    5.779669904067643E-2   -1.021616748474372E-2    5.699988682697726E-2   -5.038070957232218E-1   -2.396103863992078E-2
 6.502119279225000E9    -4.742257699634659E-1   -2.203434671222741E-1   -1.281278039855336E-2    5.827400824685002E-2   -1.017556243881143E-2    5.748148686095501E-2   -5.039195992665878E-1   -2.232529630201237E-2
 6.502131171300000E9    -4.747347532527466E-1   -2.191820165288744E-1   -1.284996627631482E-2    5.868545969569227E-2   -1.020189175231479E-2    5.800784846007025E-2   -5.036484971800380E-1   -2.042149727636798E-2
 6.502143063375000E9    -4.751680115214235E-1   -2.180853328180536E-1   -1.276283223073669E-2    5.934031155646937E-2   -1.003396477191322E-2    5.847507964724957E-2   -5.035857721674011E-1   -1.873621695751352E-2
 6.502154955450000E9    -4.756085304150360E-1   -2.169962059667610E-1   -1.275317595988726E-2    5.986381879566240E-2   -9.950397882540740E-3    5.904045046175923E-2   -5.033244611240684E-1   -1.706519714804996E-2
 6.502166847525000E9    -4.758099752242275E-1   -2.160356944115395E-1   -1.270481302906698E-2    6.028785121678022E-2   -9.856777989739537E-3    5.961270595698581E-2   -5.032657823831971E-1   -1.512322046058204E-2
 6.502178739600000E9    -4.764336263417189E-1   -2.147251154831928E-1   -1.259742795244908E-2    6.098659458879783E-2   -9.672872502520821E-3    6.005676900671953E-2   -5.031966507254106E-1   -1.332436818368230E-2
 6.502190631675000E9    -4.767240006998883E-1   -2.138229763005718E-1   -1.244966368574534E-2    6.154873068856673E-2   -9.564737814885621E-3    6.065689572262697E-2   -5.029054098845988E-1   -1.167429416415925E-2
 6.502202523750000E9    -4.770222609867439E-1   -2.126080318598473E-1   -1.227836106779548E-2    6.215450503665392E-2   -9.497764495393642E-3    6.112659753531163E-2   -5.028393708644565E-1   -9.847655483123498E-3
