#  HZ   S   RI   R     50.00 
! Rohde & Schwarz Vector Network Analyzer 
! Rohde-Schwarz,ZNB20-2Port,1311601062101988,3.16
! Created: UTC 3/20/2024, 11:38:53 AM
! freq[Hz]                re:S11                  im:S11                  re:S21                  im:S21                  re:S12                  im:S12                  re:S22                  im:S22
 6.501134496000000E9    -4.344403962009141E-1   -2.971388999512873E-1   -1.475050201449135E-2    3.228316659009688E-2   -1.299831249394300E-2    3.221009508505099E-2   -4.945270272116192E-1   -1.362255125850728E-1
 6.501146374525000E9    -4.350831051774827E-1   -2.964580981926935E-1   -1.480646647698360E-2    3.243328377628239E-2   -1.297526871811840E-2    3.239572479652074E-2   -4.948390394937060E-1   -1.351081440407300E-1
 6.501158253050000E9    -4.355429811898313E-1   -2.956579936862426E-1   -1.486329491216027E-2    3.269809421397973E-2   -1.297782282480286E-2    3.275820117962223E-2   -4.950942186585432E-1   -1.339398188157862E-1
 6.501170131575000E9    -4.361527261629124E-1   -2.948121453595037E-1   -1.469538765026974E-2    3.285883306523749E-2   -1.300862391712510E-2    3.283062683344651E-2   -4.953862255988742E-1   -1.327555343800052E-1
 6.501182010100000E9    -4.366149846315202E-1   -2.939110035391616E-1   -1.481350431701319E-2    3.304482159266305E-2   -1.298542038728485E-2    3.310159309682417E-2   -4.956345673702985E-1   -1.316396093348532E-1
 6.501193888625000E9    -4.371632352640933E-1   -2.931043135957523E-1   -1.483487067722639E-2    3.326351102670184E-2   -1.303474181859003E-2    3.319207989568409E-2   -4.957568601057387E-1   -1.304940518442966E-1
 6.501205767150000E9    -4.377270364579948E-1   -2.922719257493598E-1   -1.481472965771790E-2    3.344077109162203E-2   -1.301055409375427E-2    3.346143145857922E-2   -4.961447799086258E-1   -1.293341343270028E-1
 6.501217645675000E9    -4.382583155032279E-1   -2.913812302970065E-1   -1.471912409943570E-2    3.358905140378432E-2   -1.291357008140207E-2    3.368348364633435E-2   -4.962721809610665E-1   -1.280878397594813E-1
 6.501229524200000E9    -4.388480323947017E-1   -2.905455489698177E-1   -1.477699854584994E-2    3.391741809111944E-2   -1.292916169741181E-2    3.382651671468560E-2   -4.965931916058394E-1   -1.269959785556353E-1
 6.501241402725000E9    -4.393944527720813E-1   -2.897863538225038E-1   -1.476249799184368E-2    3.402622142792185E-2   -1.288421975561600E-2    3.400033343509341E-2   -4.967605956529095E-1   -1.256906763228764E-1
 6.501253281250000E9    -4.397948974149972E-1   -2.888812744893808E-1   -1.482436294212554E-2    3.431893587401742E-2   -1.296467358115434E-2    3.423143657892922E-2   -4.969704421421752E-1   -1.245287163117171E-1
 6.501265159775000E9    -4.403560527589103E-1   -2.880738694048950E-1   -1.486140675639016E-2    3.444462072711588E-2   -1.293927834883741E-2    3.441461085327914E-2   -4.971327330601078E-1   -1.233476375321854E-1
 6.501277038300000E9    -4.408760703251866E-1   -2.871339863489462E-1   -1.473269570047736E-2    3.462341376257316E-2   -1.293348401304254E-2    3.472585748404081E-2   -4.975266803521356E-1   -1.222136435677336E-1
 6.501288916825000E9    -4.415258419230429E-1   -2.862613360768297E-1   -1.481382639747333E-2    3.493625686975765E-2   -1.291922579564473E-2    3.484007459386358E-2   -4.976608493412989E-1   -1.209477041904784E-1
 6.501300795350000E9    -4.420906190580698E-1   -2.855043205972222E-1   -1.473724809967176E-2    3.506456337498152E-2   -1.281289518734756E-2    3.505707320501033E-2   -4.977699226496550E-1   -1.198865118792183E-1
 6.501312673875000E9    -4.423904961370237E-1   -2.846201636793111E-1   -1.482138368521224E-2    3.531823595042892E-2   -1.284191973402625E-2    3.523113136734709E-2   -4.980952437186163E-1   -1.185134692444008E-1
 6.501324552400000E9    -4.430887828121859E-1   -2.837540140515665E-1   -1.479487677784641E-2    3.552831528313377E-2   -1.281484591910134E-2    3.546412187469095E-2   -4.982783016046660E-1   -1.173971975333641E-1
 6.501336430925000E9    -4.435232206536737E-1   -2.828113968590652E-1   -1.473216937244750E-2    3.576388955456190E-2   -1.291407381340086E-2    3.571861769288151E-2   -4.985284761518623E-1   -1.161070514468145E-1
 6.501348309450000E9    -4.440818288608882E-1   -2.819894162892440E-1   -1.482589432985940E-2    3.581043909778617E-2   -1.284188501245882E-2    3.593924120882625E-2   -4.986238361822640E-1   -1.149202923458854E-1
 6.501360187975000E9    -4.444570913192581E-1   -2.810601681872659E-1   -1.470299576759640E-2    3.622037367357973E-2   -1.282474358216872E-2    3.612962119457486E-2   -4.989593192917278E-1   -1.135689291169469E-1
 6.501372066500000E9    -4.450269431592157E-1   -2.802971427863711E-1   -1.483104961359560E-2    3.646948049198317E-2   -1.286395241542656E-2    3.635828275454083E-2   -4.990879976485386E-1   -1.123887537672157E-1
 6.501383945025000E9    -4.456235389989305E-1   -2.794256126115444E-1   -1.476998918908016E-2    3.684819198946362E-2   -1.286155756394147E-2    3.662265543003886E-2   -4.992784175861443E-1   -1.111053135332132E-1
 6.501395823550000E9    -4.460197638329368E-1   -2.784952969977922E-1   -1.473466059476782E-2    3.696784660445708E-2   -1.274814975610414E-2    3.682591066413718E-2   -4.994409933020755E-1   -1.098454226321458E-1
 6.501407702075000E9    -4.466289648071475E-1   -2.777195618923296E-1   -1.484736532785579E-2    3.711152552658490E-2   -1.273379176847794E-2    3.706734014604076E-2   -4.997203206681538E-1   -1.087388745487027E-1
 6.501419580600000E9    -4.470414156523953E-1   -2.768031174030132E-1   -1.471076592564456E-2    3.734280909112911E-2   -1.279728563194760E-2    3.720368918102757E-2   -4.998912015933942E-1   -1.074833386556385E-1
 6.501431459125000E9    -4.475947645993194E-1   -2.758988580889790E-1   -1.472650573658853E-2    3.766073108606782E-2   -1.266938983926854E-2    3.740917732520111E-2   -5.000291131339109E-1   -1.062581607554891E-1
 6.501443337650000E9    -4.481133689651023E-1   -2.750381457292284E-1   -1.470037301196852E-2    3.792360393758856E-2   -1.270199976756490E-2    3.778682789950429E-2   -5.002297890923133E-1   -1.048706496352982E-1
 6.501455216175000E9    -4.485771532900854E-1   -2.742325530346410E-1   -1.465732533664411E-2    3.817966405201206E-2   -1.268243944227565E-2    3.800885068850925E-2   -5.003768490752637E-1   -1.037071566658201E-1
 6.501467094700000E9    -4.490447000294819E-1   -2.732664244436654E-1   -1.471264908467779E-2    3.851021932175562E-2   -1.275819554883381E-2    3.828282458879918E-2   -5.005558384641434E-1   -1.025228825613979E-1
 6.501478973225000E9    -4.495447594339037E-1   -2.724928665030646E-1   -1.457683500914114E-2    3.857084100532648E-2   -1.264203827806655E-2    3.844528353150093E-2   -5.007246141024311E-1   -1.012184618243379E-1
 6.501490851750000E9    -4.500709686661246E-1   -2.714437921545804E-1   -1.484857323121846E-2    3.891127768704097E-2   -1.266325224454550E-2    3.871860103294520E-2   -5.009458602328447E-1   -9.994574783265632E-2
 6.501502730275000E9    -4.505303212326636E-1   -2.706263298576034E-1   -1.471549255580989E-2    3.918069303315905E-2   -1.262136711821909E-2    3.902847958107290E-2   -5.010065824584569E-1   -9.865396380000639E-2
 6.501514608800000E9    -4.511132811586309E-1   -2.697206579544724E-1   -1.469777778286675E-2    3.953154677023715E-2   -1.266370852287609E-2    3.920701773428258E-2   -5.011219411788217E-1   -9.737433020873580E-2
 6.501526487325000E9    -4.516228196029370E-1   -2.688937761801295E-1   -1.478532609392366E-2    3.965126570253175E-2   -1.260127694164565E-2    3.946774771079736E-2   -5.013825071225853E-1   -9.604561803235830E-2
 6.501538365850000E9    -4.520509555069760E-1   -2.679590719703712E-1   -1.467281033823838E-2    3.989640844553913E-2   -1.259528160613135E-2    3.978309577764184E-2   -5.014829380872241E-1   -9.474770945240639E-2
 6.501550244375000E9    -4.524953744037521E-1   -2.670163463162665E-1   -1.458674188601735E-2    4.024428768122144E-2   -1.263526180048176E-2    4.006284952315632E-2   -5.016772199529008E-1   -9.343161474271039E-2
 6.501562122900000E9    -4.530753132759417E-1   -2.660810084091745E-1   -1.465678257940906E-2    4.054327427132794E-2   -1.248851524819775E-2    4.031385093685514E-2   -5.017892969422121E-1   -9.208783500043924E-2
 6.501574001425000E9    -4.536098086094249E-1   -2.651774532812146E-1   -1.465502756811468E-2    4.069329742570227E-2   -1.253043741830971E-2    4.056741535584353E-2   -5.019470958857767E-1   -9.068643479352902E-2
 6.501585879950000E9    -4.540352287102914E-1   -2.642948087651069E-1   -1.469208159090425E-2    4.105722446505945E-2   -1.245272325441677E-2    4.079915592034158E-2   -5.020657513955814E-1   -8.942996347466256E-2
 6.501597758475000E9    -4.545628208603363E-1   -2.633201010909594E-1   -1.465276129730851E-2    4.138724761956477E-2   -1.243115159349933E-2    4.115105811793822E-2   -5.022547193736302E-1   -8.815376892888341E-2
 6.501609637000000E9    -4.550386296263439E-1   -2.625040577183673E-1   -1.456310890473995E-2    4.175222069312261E-2   -1.251633978530340E-2    4.139517085858645E-2   -5.024791114823404E-1   -8.686290558860012E-2
 6.501621515525000E9    -4.555134379340305E-1   -2.616610894502153E-1   -1.453723780945509E-2    4.193576653590975E-2   -1.236781484198298E-2    4.167878768355968E-2   -5.025984850374663E-1   -8.532453492900478E-2
 6.501633394050000E9    -4.559111529340312E-1   -2.607033784182604E-1   -1.453440855493927E-2    4.230152050091832E-2   -1.241925533767612E-2    4.197138975943582E-2   -5.027284128470101E-1   -8.406102023344740E-2
 6.501645272575000E9    -4.565601496076982E-1   -2.596984921437184E-1   -1.454462352785634E-2    4.258995487059222E-2   -1.231717056512193E-2    4.231315602782954E-2   -5.028853139970642E-1   -8.270646875353498E-2
 6.501657151100000E9    -4.569438866177822E-1   -2.588051141661254E-1   -1.445540642628217E-2    4.269734874357962E-2   -1.231361609498339E-2    4.251380117466555E-2   -5.029537762159010E-1   -8.146580293438810E-2
 6.501669029625000E9    -4.573907939451692E-1   -2.578005509262821E-1   -1.443599654855407E-2    4.312997777483150E-2   -1.231778839580403E-2    4.282334992064447E-2   -5.030493942325966E-1   -8.004177285816133E-2
 6.501680908150000E9    -4.579242027131358E-1   -2.569787565321279E-1   -1.445752226446488E-2    4.332440325938162E-2   -1.226346330886529E-2    4.313389180481605E-2   -5.031814708414294E-1   -7.868176963342075E-2
 6.501692786675000E9    -4.583767748421503E-1   -2.560569582707534E-1   -1.452536425166735E-2    4.364286402308509E-2   -1.224710553756119E-2    4.345233705977156E-2   -5.032909396326175E-1   -7.725188190217991E-2
 6.501704665200000E9    -4.588867692399885E-1   -2.551649134784449E-1   -1.446635159140371E-2    4.409617360548565E-2   -1.215029600679435E-2    4.376017812750774E-2   -5.033360648571943E-1   -7.607444685576258E-2
 6.501716543725000E9    -4.593443725751346E-1   -2.540509355497422E-1   -1.457632028740294E-2    4.441128539470103E-2   -1.212980221696672E-2    4.396703702550279E-2   -5.033889953743169E-1   -7.457856043042227E-2
 6.501728422250000E9    -4.598157628817602E-1   -2.531751126682465E-1   -1.448829552291216E-2    4.478883249534413E-2   -1.217863859346464E-2    4.439960087036311E-2   -5.036718208170777E-1   -7.315060121301425E-2
 6.501740300775000E9    -4.601626965486287E-1   -2.522226555560141E-1   -1.435442994889249E-2    4.503151089907192E-2   -1.212026411534453E-2    4.473530851747595E-2   -5.037490066487642E-1   -7.168993330613783E-2
 6.501752179300000E9    -4.607690759174207E-1   -2.513164398015551E-1   -1.432804222730265E-2    4.535747826179484E-2   -1.204077791212284E-2    4.498730779824323E-2   -5.037000832671197E-1   -7.032841070225973E-2
 6.501764057825000E9    -4.611672544134106E-1   -2.503678123162869E-1   -1.434163927463943E-2    4.566320746359049E-2   -1.202141586094071E-2    4.528319338374692E-2   -5.038837260267109E-1   -6.884809944401868E-2
 6.501775936350000E9    -4.616645686132378E-1   -2.494082645609032E-1   -1.414636226256795E-2    4.601666909324808E-2   -1.199964831061343E-2    4.570227146734004E-2   -5.039050588572074E-1   -6.736790310203644E-2
 6.501787814875000E9    -4.621252837437901E-1   -2.484181211399816E-1   -1.433924567242065E-2    4.647481808275888E-2   -1.199160576575278E-2    4.594969820917484E-2   -5.040989078859982E-1   -6.605047623383491E-2
 6.501799693400000E9    -4.626089541461327E-1   -2.475532640323041E-1   -1.420294009503241E-2    4.681117890537501E-2   -1.183734587265656E-2    4.633618504058250E-2   -5.040555725251207E-1   -6.457704963584140E-2
 6.501811571925000E9    -4.631005202009253E-1   -2.465025680953450E-1   -1.421801158130720E-2    4.704467373561008E-2   -1.178343647059962E-2    4.666161044387327E-2   -5.040929584350663E-1   -6.308001141860396E-2
 6.501823450450000E9    -4.634927522392043E-1   -2.455856897002653E-1   -1.413018797410540E-2    4.754555834699224E-2   -1.179008059538501E-2    4.699275569530710E-2   -5.042349531274665E-1   -6.164169901602435E-2
 6.501835328975000E9    -4.638963146739954E-1   -2.446112146949354E-1   -1.406007642100928E-2    4.785174359551505E-2   -1.177480040141804E-2    4.735392185886160E-2   -5.043601177194549E-1   -6.011855350745150E-2
 6.501847207500000E9    -4.643720196707996E-1   -2.436160297433797E-1   -1.407660508822487E-2    4.815863105666686E-2   -1.175874529222585E-2    4.776493813144857E-2   -5.041983296644448E-1   -5.886771262834145E-2
 6.501859086025000E9    -4.649541516421636E-1   -2.426703175941047E-1   -1.396089055725976E-2    4.851409216817451E-2   -1.166919744409078E-2    4.813060727986443E-2   -5.042911663316927E-1   -5.728570031099609E-2
 6.501870964550000E9    -4.653675989458099E-1   -2.417279216972314E-1   -1.407844539918827E-2    4.899632395464615E-2   -1.167512473793699E-2    4.851217577917935E-2   -5.044228939153536E-1   -5.576865554831870E-2
 6.501882843075000E9    -4.656850831588363E-1   -2.406692094472688E-1   -1.397365266234915E-2    4.941654136592963E-2   -1.151816935169640E-2    4.878405055943780E-2   -5.045055030089716E-1   -5.424955810402293E-2
 6.501894721600000E9    -4.662797271565458E-1   -2.397541376945236E-1   -1.400837253787511E-2    4.972877270371100E-2   -1.156839180698293E-2    4.925013309223725E-2   -5.044122163679198E-1   -5.280303674357055E-2
 6.501906600125000E9    -4.666819318491189E-1   -2.386634118889502E-1   -1.392333960602276E-2    5.017285977718115E-2   -1.142230151896982E-2    4.958581847053527E-2   -5.044639028285463E-1   -5.118405063031903E-2
 6.501918478650000E9    -4.670965860521613E-1   -2.377029082639982E-1   -1.392564278285663E-2    5.051889289652165E-2   -1.142170376329052E-2    4.993594442977664E-2   -5.045072914316939E-1   -4.967921783192727E-2
 6.501930357175000E9    -4.674628781547831E-1   -2.366472047966366E-1   -1.377620234227534E-2    5.093572135872577E-2   -1.137045508941993E-2    5.040691756892930E-2   -5.045008429783762E-1   -4.820217462225304E-2
 6.501942235700000E9    -4.679950315420618E-1   -2.358540741633215E-1   -1.394210437148262E-2    5.134847282717462E-2   -1.135658206702176E-2    5.075420849698271E-2   -5.045199792065476E-1   -4.651705430327914E-2
 6.501954114225000E9    -4.684180079847560E-1   -2.346467785271957E-1   -1.370845539504493E-2    5.179748801619923E-2   -1.128925517822505E-2    5.118648357235189E-2   -5.045090085071472E-1   -4.495517466044171E-2
 6.501965992750000E9    -4.687665279964729E-1   -2.337294215503776E-1   -1.374051948640111E-2    5.218024934133141E-2   -1.127666559912970E-2    5.156240607268928E-2   -5.045077121358236E-1   -4.337653140483858E-2
 6.501977871275000E9    -4.693492389089312E-1   -2.326963935266767E-1   -1.366975102885509E-2    5.273181213799599E-2   -1.120817977369665E-2    5.203681311048399E-2   -5.044557768271714E-1   -4.184146415226445E-2
 6.501989749800000E9    -4.696739911961732E-1   -2.316408713587101E-1   -1.362134284525580E-2    5.305401031646536E-2   -1.108337101412399E-2    5.240674218830684E-2   -5.045944532332975E-1   -4.039509356195801E-2
 6.502001628325000E9    -4.701474641004201E-1   -2.306622364834366E-1   -1.353468459686486E-2    5.357641367818802E-2   -1.103611522055779E-2    5.286476434959653E-2   -5.043872979750563E-1   -3.883041628668570E-2
 6.502013506850000E9    -4.705411420546519E-1   -2.296516723041563E-1   -1.351199898119410E-2    5.393121552598423E-2   -1.092814650583588E-2    5.333345907044480E-2   -5.044016075082378E-1   -3.702153006792649E-2
 6.502025385375000E9    -4.710322679423615E-1   -2.286253316299458E-1   -1.340173625168346E-2    5.428783489810482E-2   -1.085763075737291E-2    5.371454036991857E-2   -5.044443070256627E-1   -3.546791393216873E-2
 6.502037263900000E9    -4.714595038795501E-1   -2.275680345619357E-1   -1.335419609663175E-2    5.488810974980944E-2   -1.070421458532929E-2    5.422427741252043E-2   -5.041917452085498E-1   -3.382751311261074E-2
 6.502049142425000E9    -4.719011056835803E-1   -2.264780486812572E-1   -1.330627480418390E-2    5.540477796430204E-2   -1.069334068056334E-2    5.473350986981356E-2   -5.044564326676868E-1   -3.223135294738267E-2
 6.502061020950000E9    -4.723970184359197E-1   -2.256007058905577E-1   -1.335940407092613E-2    5.585805043441570E-2   -1.061931096149609E-2    5.507156209213897E-2   -5.042457421562079E-1   -3.056908651932484E-2
 6.502072899475000E9    -4.727127599890825E-1   -2.244432144300748E-1   -1.342779226682557E-2    5.630369043125411E-2   -1.050136125825077E-2    5.562725910823540E-2   -5.043290243296880E-1   -2.880465095247295E-2
 6.502084778000000E9    -4.731257651323141E-1   -2.234151457697002E-1   -1.325838006931501E-2    5.673271755941281E-2   -1.054747280579899E-2    5.597250191089351E-2   -5.041178967186003E-1   -2.717467811006960E-2
 6.502096656525000E9    -4.735979556590538E-1   -2.223260263251634E-1   -1.307170158449152E-2    5.743133363008003E-2   -1.037233821354614E-2    5.659334112270736E-2   -5.040809127109910E-1   -2.541932664768078E-2
 6.502108535050000E9    -4.740005771184772E-1   -2.211548803152643E-1   -1.306978316635495E-2    5.780365545766308E-2   -1.027012286684520E-2    5.694869405361955E-2   -5.039650401531591E-1   -2.387017651148301E-2
 6.502120413575000E9    -4.743993827146522E-1   -2.202462582452107E-1   -1.294541182452217E-2    5.845268740896122E-2   -1.017397396446619E-2    5.745396455477409E-2   -5.037781020912271E-1   -2.200046763832124E-2
 6.502132292100000E9    -4.748255236459880E-1   -2.190871437528209E-1   -1.290540871319231E-2    5.887807448196679E-2   -1.015061975289379E-2    5.800987906705523E-2   -5.036619715206989E-1   -2.024173497261663E-2
 6.502144170625000E9    -4.751838673942441E-1   -2.180221932118127E-1   -1.285113382967522E-2    5.938738155009066E-2   -1.007309877876640E-2    5.854500815438092E-2   -5.036074454575383E-1   -1.860787351587327E-2
 6.502156049150000E9    -4.755688006693666E-1   -2.168744468799720E-1   -1.267529939892175E-2    5.997752079167996E-2   -9.862232516428744E-3    5.901405045316648E-2   -5.035688260961656E-1   -1.691900886221263E-2
 6.502167927675000E9    -4.759855540031639E-1   -2.158865216321978E-1   -1.270433926426158E-2    6.051804777741798E-2   -9.805197002803167E-3    5.966202466208831E-2   -5.033034393516784E-1   -1.488814311720182E-2
 6.502179806200000E9    -4.764362201348588E-1   -2.146677788855550E-1   -1.259522735873984E-2    6.111623039606562E-2   -9.696007954544231E-3    6.011098625989986E-2   -5.031735087364907E-1   -1.323448520594499E-2
 6.502191684725000E9    -4.766347840740178E-1   -2.136178988124199E-1   -1.246984685085019E-2    6.166598548573834E-2   -9.548161262253985E-3    6.060215666860010E-2   -5.029234220962782E-1   -1.132233895009674E-2
 6.502203563250000E9    -4.770642017979624E-1   -2.126372592631002E-1   -1.223648627623957E-2    6.212857988383792E-2   -9.443787027220539E-3    6.125176299619440E-2   -5.028441177889879E-1   -9.628383830943537E-3
