#  HZ   S   RI   R     50.00 
! Rohde & Schwarz Vector Network Analyzer 
! Rohde-Schwarz,ZNB20-2Port,1311601062101988,3.16
! Created: UTC 3/20/2024, 12:05:18 PM
! freq[Hz]                re:S11                  im:S11                  re:S21                  im:S21                  re:S12                  im:S12                  re:S22                  im:S22
 6.501182239000000E9    -4.373862856881917E-1   -2.929339070036351E-1   -1.472161466855682E-2    3.251573003097744E-2   -1.277144480710540E-2    3.250914978861735E-2   -4.953776668172683E-1   -1.346362495450585E-1
 6.501194031325000E9    -4.378036765657413E-1   -2.921635042575059E-1   -1.475650574672605E-2    3.266007634304676E-2   -1.290804604721428E-2    3.273920301843500E-2   -4.956360868102517E-1   -1.334887043853890E-1
 6.501205823650000E9    -4.385002570878193E-1   -2.911685044348613E-1   -1.480573659880557E-2    3.286696612887915E-2   -1.283095498415593E-2    3.291392752130018E-2   -4.958618697634314E-1   -1.323060722216759E-1
 6.501217615975000E9    -4.389494441922289E-1   -2.904624450596320E-1   -1.471999858564410E-2    3.293152453571178E-2   -1.282363709131718E-2    3.309536032022913E-2   -4.961629662376264E-1   -1.310824478578860E-1
 6.501229408300000E9    -4.395527321825110E-1   -2.895352778732546E-1   -1.468647749427301E-2    3.336481400076528E-2   -1.282445518740523E-2    3.332313048767273E-2   -4.963878445255276E-1   -1.301063841756220E-1
 6.501241200625000E9    -4.399586381552779E-1   -2.887542799572310E-1   -1.475409654984385E-2    3.340982406946422E-2   -1.285337796131591E-2    3.345229279946033E-2   -4.965703789009586E-1   -1.289305348732152E-1
 6.501252992950000E9    -4.405312376237839E-1   -2.880040685362105E-1   -1.458697245106964E-2    3.369479932742185E-2   -1.284849413117929E-2    3.371629746162719E-2   -4.969823878987272E-1   -1.278346000376552E-1
 6.501264785275000E9    -4.410257144522091E-1   -2.871144285875721E-1   -1.476622957369459E-2    3.382090544331498E-2   -1.280033598402364E-2    3.391870175013050E-2   -4.970900609120196E-1   -1.266072357940377E-1
 6.501276577600000E9    -4.415015366160837E-1   -2.863290495605031E-1   -1.464673651410632E-2    3.406008607077923E-2   -1.281673071217690E-2    3.412345956017920E-2   -4.973474210794158E-1   -1.255280766023344E-1
 6.501288369925000E9    -4.421325891691382E-1   -2.854397327981099E-1   -1.472423858104644E-2    3.431987853026639E-2   -1.279004231153864E-2    3.432835858543382E-2   -4.975765710912910E-1   -1.242799832341053E-1
 6.501300162250000E9    -4.426795878128634E-1   -2.844378440953259E-1   -1.464780598155236E-2    3.455507797794662E-2   -1.274816467278123E-2    3.453693352117975E-2   -4.977522608991839E-1   -1.230632598558444E-1
 6.501311954575000E9    -4.431169834554010E-1   -2.837348880484146E-1   -1.478174893863560E-2    3.478217798291252E-2   -1.267686693747203E-2    3.461410425890211E-2   -4.980962226364912E-1   -1.218201411421337E-1
 6.501323746900000E9    -4.435974624507121E-1   -2.828965844894718E-1   -1.478430530580737E-2    3.494733169428189E-2   -1.269341491049553E-2    3.495055835660541E-2   -4.981914178059304E-1   -1.206610433818600E-1
 6.501335539225000E9    -4.442047492197111E-1   -2.819450530117037E-1   -1.465872634559699E-2    3.515422542828844E-2   -1.273620471800995E-2    3.519070910208701E-2   -4.984632450894136E-1   -1.195857524841948E-1
 6.501347331550000E9    -4.446734437596071E-1   -2.810740497760055E-1   -1.471803836178296E-2    3.528887094449321E-2   -1.264283005514028E-2    3.526306094486024E-2   -4.984488807396826E-1   -1.181415304150988E-1
 6.501359123875000E9    -4.451865759388970E-1   -2.803324015560876E-1   -1.469561998456248E-2    3.552491327514284E-2   -1.273465363070936E-2    3.563082568977495E-2   -4.988411586409104E-1   -1.169764470648376E-1
 6.501370916200000E9    -4.457951690152132E-1   -2.794593962378237E-1   -1.475831796625092E-2    3.575248383052160E-2   -1.272345661010566E-2    3.571790813458497E-2   -4.990851163700825E-1   -1.159288429931284E-1
 6.501382708525000E9    -4.462962399442718E-1   -2.785501925714929E-1   -1.480858181493069E-2    3.605268921209368E-2   -1.265075613957225E-2    3.598058998557565E-2   -4.992420867831274E-1   -1.146419852556831E-1
 6.501394500850000E9    -4.467684385681706E-1   -2.777268857656561E-1   -1.480813858498298E-2    3.629276276827665E-2   -1.262014431374552E-2    3.622764257733301E-2   -4.993644041221553E-1   -1.133474823596896E-1
 6.501406293175000E9    -4.472036071198096E-1   -2.768135045761405E-1   -1.469187263708690E-2    3.643105697426949E-2   -1.265431194714606E-2    3.646895091923567E-2   -4.996076830893098E-1   -1.120863619303095E-1
 6.501418085500000E9    -4.476254290747427E-1   -2.759815239708727E-1   -1.476152387736636E-2    3.659800757951952E-2   -1.256428162757549E-2    3.666787676162585E-2   -4.998196247438633E-1   -1.109200269198356E-1
 6.501429877825000E9    -4.481717971250724E-1   -2.751370216592375E-1   -1.468931594297741E-2    3.689518329545415E-2   -1.257568498913013E-2    3.685419232114998E-2   -5.000242996513420E-1   -1.097698729158609E-1
 6.501441670150000E9    -4.486420631203310E-1   -2.741356843038162E-1   -1.482435021710094E-2    3.719741793294777E-2   -1.255679578978995E-2    3.721898181862274E-2   -5.002666623877525E-1   -1.084411745010114E-1
 6.501453462475000E9    -4.492060254434725E-1   -2.733744323728935E-1   -1.471146181128984E-2    3.749354229908029E-2   -1.262719788581869E-2    3.737180697502156E-2   -5.003330866373547E-1   -1.073027603116001E-1
 6.501465254800000E9    -4.496878767998217E-1   -2.725645703324633E-1   -1.464663343023029E-2    3.767589258300899E-2   -1.260302547653257E-2    3.761215051487844E-2   -5.006671341277227E-1   -1.060383027426286E-1
 6.501477047125000E9    -4.501876262876973E-1   -2.715932254592112E-1   -1.468308322932403E-2    3.804343112291083E-2   -1.256005383112090E-2    3.786615282980195E-2   -5.006796106587794E-1   -1.048249536106117E-1
 6.501488839450000E9    -4.506804933085555E-1   -2.708277394290078E-1   -1.469915254631525E-2    3.809141078651675E-2   -1.259495909145656E-2    3.818382222348267E-2   -5.009904963538595E-1   -1.035118866583554E-1
 6.501500631775000E9    -4.511853811686345E-1   -2.699509908188065E-1   -1.460741415346196E-2    3.849858374421355E-2   -1.258231520920927E-2    3.827267205943468E-2   -5.011984058167033E-1   -1.021838352005615E-1
 6.501512424100000E9    -4.516831270762198E-1   -2.690174299133015E-1   -1.468288099284673E-2    3.864024661193167E-2   -1.260030546303708E-2    3.857672664473031E-2   -5.012334879653820E-1   -1.009644923499567E-1
 6.501524216425000E9    -4.521111772403298E-1   -2.681617341502827E-1   -1.462450640995648E-2    3.896258721872756E-2   -1.242883444663452E-2    3.882382930726167E-2   -5.013250349205618E-1   -9.974897042079217E-2
 6.501536008750000E9    -4.526546450962207E-1   -2.672257036651186E-1   -1.469847084230510E-2    3.918514097290476E-2   -1.255130225764617E-2    3.897424535397578E-2   -5.016228248599675E-1   -9.849356863966771E-2
 6.501547801075000E9    -4.531397703741428E-1   -2.662973333990057E-1   -1.455040199592605E-2    3.942794311131093E-2   -1.236840990736436E-2    3.929417172800900E-2   -5.016643955966310E-1   -9.723399168071226E-2
 6.501559593400000E9    -4.536581966039809E-1   -2.654752278776185E-1   -1.459170394198343E-2    3.971482707023043E-2   -1.237454381897927E-2    3.944539382452469E-2   -5.019574399975401E-1   -9.594857704757667E-2
 6.501571385725000E9    -4.540992201073293E-1   -2.645773663456294E-1   -1.473129556463061E-2    3.994289406755104E-2   -1.243416631155694E-2    3.975413086848149E-2   -5.020186538167418E-1   -9.473129901935876E-2
 6.501583178050000E9    -4.545484069896174E-1   -2.636476729183168E-1   -1.460067170761763E-2    4.016998630865043E-2   -1.235758899837219E-2    4.008680422121211E-2   -5.022673753329860E-1   -9.344646608219008E-2
 6.501594970375000E9    -4.551322796412205E-1   -2.626805225419628E-1   -1.447654327499675E-2    4.052298396009752E-2   -1.228799612112102E-2    4.042291376203886E-2   -5.023181414461075E-1   -9.211026124129305E-2
 6.501606762700000E9    -4.555214607807894E-1   -2.618688010391921E-1   -1.459910562514381E-2    4.070468214273392E-2   -1.235227891509314E-2    4.059148893608778E-2   -5.025591627453452E-1   -9.077057195810474E-2
 6.501618555025000E9    -4.559266316748745E-1   -2.609669213514241E-1   -1.454095680791232E-2    4.108801829941040E-2   -1.223855923056976E-2    4.077023815605702E-2   -5.027502730534363E-1   -8.939010902742596E-2
 6.501630347350000E9    -4.564891238821053E-1   -2.600851319263564E-1   -1.452624231670714E-2    4.126050767765390E-2   -1.228839438607711E-2    4.112461220048990E-2   -5.027894877521358E-1   -8.807501948754233E-2
 6.501642139675000E9    -4.569240565222397E-1   -2.590333538960193E-1   -1.447746650576500E-2    4.164099008857419E-2   -1.227171822927772E-2    4.142845528300575E-2   -5.030166392438746E-1   -8.676321817461570E-2
 6.501653932000000E9    -4.574806143886128E-1   -2.582918763605674E-1   -1.452210989842714E-2    4.188853695251407E-2   -1.221059478154468E-2    4.173909674670500E-2   -5.030982994215580E-1   -8.543356937544984E-2
 6.501665724325000E9    -4.578750529961192E-1   -2.573475823919721E-1   -1.451344542540063E-2    4.211810204417175E-2   -1.219904831549612E-2    4.203250127446706E-2   -5.031804057560200E-1   -8.415398454125989E-2
 6.501677516650000E9    -4.584831732817707E-1   -2.563093674059117E-1   -1.440982212160415E-2    4.259603459876322E-2   -1.214397568770972E-2    4.226199998976822E-2   -5.034542157193661E-1   -8.291342518125988E-2
 6.501689308975000E9    -4.588559611862869E-1   -2.554510595206450E-1   -1.443472548146824E-2    4.280344086722056E-2   -1.206906316027554E-2    4.256021792782781E-2   -5.034462471405070E-1   -8.145368210534913E-2
 6.501701101300000E9    -4.593654374388232E-1   -2.545542814270627E-1   -1.445717176711096E-2    4.300050604516013E-2   -1.206694883884473E-2    4.282943942012816E-2   -5.034995033751434E-1   -8.009338493033547E-2
 6.501712893625000E9    -4.598377262385318E-1   -2.535924689398976E-1   -1.448967255725911E-2    4.349389788308435E-2   -1.208742972772319E-2    4.317790268804158E-2   -5.036714400398833E-1   -7.855966061095325E-2
 6.501724685950000E9    -4.602575815693742E-1   -2.527272098173692E-1   -1.449540514861955E-2    4.367194150204007E-2   -1.203477577744192E-2    4.345864436946849E-2   -5.037230633462452E-1   -7.727569136033870E-2
 6.501736478275000E9    -4.607295871165577E-1   -2.517115191213002E-1   -1.449127672277021E-2    4.398609330722707E-2   -1.200416150368045E-2    4.371586934459874E-2   -5.037505456175084E-1   -7.604757312961834E-2
 6.501748270600000E9    -4.611638526149865E-1   -2.507345538927915E-1   -1.433739003267948E-2    4.443684290199405E-2   -1.191532132960526E-2    4.397424243760655E-2   -5.040083255338776E-1   -7.458085887064858E-2
 6.501760062925000E9    -4.616488829778116E-1   -2.498577247399589E-1   -1.450722465179824E-2    4.475583449834979E-2   -1.203645755538029E-2    4.448108489651097E-2   -5.040499054645953E-1   -7.320050714444390E-2
 6.501771855250000E9    -4.621961678846845E-1   -2.489416002477385E-1   -1.429723503547106E-2    4.495964950175333E-2   -1.204754487283542E-2    4.466542991130241E-2   -5.041341875024018E-1   -7.183629065992435E-2
 6.501783647575000E9    -4.624972302024621E-1   -2.480665705664070E-1   -1.446684677492025E-2    4.532510458150984E-2   -1.186769210164044E-2    4.512559436945573E-2   -5.042983229528641E-1   -7.046236660365367E-2
 6.501795439900000E9    -4.630746914782090E-1   -2.470670345151336E-1   -1.433984332698844E-2    4.560074806184376E-2   -1.182114528362271E-2    4.525998508946674E-2   -5.042051602695633E-1   -6.899765857476166E-2
 6.501807232225000E9    -4.634254926886128E-1   -2.461422002790785E-1   -1.420629738890145E-2    4.590663076685709E-2   -1.168065832988701E-2    4.576667253196786E-2   -5.045048399033700E-1   -6.735570164171931E-2
 6.501819024550000E9    -4.639832612178391E-1   -2.451517968154100E-1   -1.418062588367654E-2    4.629688708485481E-2   -1.173599603873016E-2    4.603354889421763E-2   -5.045420576894044E-1   -6.610876222439745E-2
 6.501830816875000E9    -4.643720936615653E-1   -2.442253134474913E-1   -1.430960558050093E-2    4.653979905237585E-2   -1.177075158983449E-2    4.635343269222821E-2   -5.045509616601559E-1   -6.467454755662079E-2
 6.501842609200000E9    -4.648397167507928E-1   -2.432172946344139E-1   -1.423410109439183E-2    4.696712255650833E-2   -1.171410341484724E-2    4.676014547671787E-2   -5.046673558389126E-1   -6.318741175548931E-2
 6.501854401525000E9    -4.654158758947664E-1   -2.422386457115706E-1   -1.418339825133246E-2    4.733216560886120E-2   -1.160682898450825E-2    4.700412381110947E-2   -5.047086498774201E-1   -6.182426680002238E-2
 6.501866193850000E9    -4.657374074704966E-1   -2.412749642490769E-1   -1.397629815933587E-2    4.763299935282563E-2   -1.154404051644874E-2    4.736402337344228E-2   -5.047891014001437E-1   -6.036750409525535E-2
 6.501877986175000E9    -4.662094889367397E-1   -2.402456806199018E-1   -1.414530099291809E-2    4.813451609669035E-2   -1.148531189040945E-2    4.773435527717659E-2   -5.048113621547355E-1   -5.882634703197174E-2
 6.501889778500000E9    -4.666306056402902E-1   -2.393745923460548E-1   -1.398123734931127E-2    4.844058762280110E-2   -1.150292073943077E-2    4.809465598336784E-2   -5.048170222682720E-1   -5.740620360536916E-2
 6.501901570825000E9    -4.670458508009597E-1   -2.384187741614398E-1   -1.402441228195046E-2    4.888204518592963E-2   -1.150277854188849E-2    4.842176720663327E-2   -5.048999410921678E-1   -5.583174659326774E-2
 6.501913363150000E9    -4.674614618604264E-1   -2.372831937432621E-1   -1.403081759701219E-2    4.926819622461569E-2   -1.139770779459804E-2    4.880662669919082E-2   -5.049767918007695E-1   -5.455480239764762E-2
 6.501925155475000E9    -4.679228388805223E-1   -2.364253339230445E-1   -1.400181321726859E-2    4.961358864698065E-2   -1.124787662170394E-2    4.908014061585384E-2   -5.050194625123529E-1   -5.288849215332261E-2
 6.501936947800000E9    -4.683311853503982E-1   -2.353776252998797E-1   -1.382020462328266E-2    5.016287768532300E-2   -1.127125115001740E-2    4.959024798406989E-2   -5.048831791345164E-1   -5.146762987728824E-2
 6.501948740125000E9    -4.688293322314578E-1   -2.345154044487272E-1   -1.383463189204895E-2    5.052904305891741E-2   -1.137932013379394E-2    4.998679113079152E-2   -5.049797610047724E-1   -5.002465158286654E-2
 6.501960532450000E9    -4.692277169571091E-1   -2.335309527842661E-1   -1.372630075086506E-2    5.085966442719180E-2   -1.109481612743699E-2    5.030718265610464E-2   -5.051016652448311E-1   -4.857365770627319E-2
 6.501972324775000E9    -4.696419520528109E-1   -2.324903479394836E-1   -1.378177629205617E-2    5.132048667167054E-2   -1.111187555029455E-2    5.071362486865676E-2   -5.050555169104236E-1   -4.687577296657306E-2
 6.501984117100000E9    -4.700344155832398E-1   -2.315146763591626E-1   -1.365305622730027E-2    5.165934401190722E-2   -1.109214369436557E-2    5.118759419254058E-2   -5.051337807612657E-1   -4.548058308569513E-2
 6.501995909425000E9    -4.705195018243671E-1   -2.304288551522506E-1   -1.377612900423287E-2    5.199392430254476E-2   -1.092259426662054E-2    5.149679084452570E-2   -5.050708451278993E-1   -4.379283604558059E-2
 6.502007701750000E9    -4.709855228806831E-1   -2.294681091614123E-1   -1.364041787027396E-2    5.249030689252135E-2   -1.093901786952665E-2    5.202202439339443E-2   -5.050190858733599E-1   -4.221838323577335E-2
 6.502019494075000E9    -4.713357562381621E-1   -2.284647954264128E-1   -1.366833397632923E-2    5.286542927943196E-2   -1.074405819418892E-2    5.236954409066446E-2   -5.050378689093352E-1   -4.054147945440956E-2
 6.502031286400000E9    -4.718330329082744E-1   -2.274462962043388E-1   -1.355154029609485E-2    5.337696732813968E-2   -1.075465780046505E-2    5.274627797882720E-2   -5.050233103359499E-1   -3.908034052156983E-2
 6.502043078725000E9    -4.722740426975713E-1   -2.264818072091479E-1   -1.358848114604608E-2    5.386495307181256E-2   -1.075761610226780E-2    5.319932263565228E-2   -5.049651436188927E-1   -3.741837929395223E-2
 6.502054871050000E9    -4.727061289160049E-1   -2.253632248424132E-1   -1.338213964488673E-2    5.442393474020321E-2   -1.067715874333232E-2    5.358553950142729E-2   -5.050424921419880E-1   -3.594938611946958E-2
 6.502066663375000E9    -4.730697043757977E-1   -2.243553466606158E-1   -1.340505017883006E-2    5.472214091757860E-2   -1.055492437304236E-2    5.414025345669304E-2   -5.048304036079561E-1   -3.428243849760376E-2
 6.502078455700000E9    -4.734221228755073E-1   -2.232419837496566E-1   -1.335615791742094E-2    5.523372995606032E-2   -1.051167792452738E-2    5.457214524168941E-2   -5.049200717866270E-1   -3.276950369422922E-2
 6.502090248025000E9    -4.739498561635531E-1   -2.223132555106007E-1   -1.322246216992073E-2    5.571270064097496E-2   -1.039119924858033E-2    5.497306438342736E-2   -5.047826896621036E-1   -3.093343392144867E-2
 6.502102040350000E9    -4.744392483677383E-1   -2.212052947565170E-1   -1.320772564658767E-2    5.616108364318144E-2   -1.036355336339078E-2    5.546136653745883E-2   -5.047297008931191E-1   -2.930224689541780E-2
 6.502113832675000E9    -4.747105879713604E-1   -2.202524085924711E-1   -1.313393083782488E-2    5.664463809933309E-2   -1.027998099067028E-2    5.593425772569910E-2   -5.046463514461604E-1   -2.762307318610644E-2
 6.502125625000000E9    -4.751237447261911E-1   -2.191019795875372E-1   -1.296363907820139E-2    5.712010442925118E-2   -1.030202379040992E-2    5.638403025113686E-2   -5.046659206961286E-1   -2.598182034934285E-2
 6.502137417325000E9    -4.755505986724490E-1   -2.181197586111715E-1   -1.301301564384702E-2    5.757118724580924E-2   -1.011513103338882E-2    5.690180439605749E-2   -5.046214927915682E-1   -2.419913162772197E-2
 6.502149209650000E9    -4.759732520016143E-1   -2.169756337062180E-1   -1.296713170195391E-2    5.825068698786898E-2   -1.002074978798817E-2    5.736784792304658E-2   -5.044445060469170E-1   -2.259722348526097E-2
 6.502161001975000E9    -4.763352569597333E-1   -2.159256204430404E-1   -1.284260287761324E-2    5.863741383645341E-2   -9.895443479914837E-3    5.790791524199526E-2   -5.043633422296445E-1   -2.080748319145931E-2
 6.502172794300000E9    -4.767266172976204E-1   -2.149145955985557E-1   -1.273651304944029E-2    5.916044556667246E-2   -9.787873487297661E-3    5.860292785896857E-2   -5.042352377283057E-1   -1.919634997063773E-2
 6.502184586625000E9    -4.771046727171489E-1   -2.137346293594613E-1   -1.259505656310814E-2    5.972943344606679E-2   -9.744786265567861E-3    5.892571508245911E-2   -5.040406353426933E-1   -1.746555525786333E-2
 6.502196378950000E9    -4.775766154556770E-1   -2.127254937063203E-1   -1.257406147519744E-2    6.029430694381113E-2   -9.599692110071480E-3    5.941060228235457E-2   -5.038408545766384E-1   -1.568997071409041E-2
 6.502208171275000E9    -4.778884143453819E-1   -2.116164191044635E-1   -1.256938199666590E-2    6.088895614493369E-2   -9.552674145459433E-3    5.992709718629510E-2   -5.038285253022967E-1   -1.367467541759979E-2
 6.502219963600000E9    -4.783112603187191E-1   -2.105946958273869E-1   -1.242880141982286E-2    6.143639031630979E-2   -9.414230773182954E-3    6.052779230602543E-2   -5.037031443712874E-1   -1.213139556304089E-2
 6.502231755925000E9    -4.787202861943932E-1   -2.094084211567566E-1   -1.241983780132244E-2    6.202058279644074E-2   -9.343388667220115E-3    6.104701216668842E-2   -5.035311920976289E-1   -1.034188519352563E-2
 6.502243548250000E9    -4.789995047718631E-1   -2.083902007276426E-1   -1.225933789302015E-2    6.250442999463487E-2   -9.128427250253545E-3    6.160440679384897E-2   -5.033020636023587E-1   -8.385414576060334E-3
