#  HZ   S   RI   R     50.00 
! Rohde & Schwarz Vector Network Analyzer 
! Rohde-Schwarz,ZNB20-2Port,1311601062101988,3.16
! Created: UTC 3/20/2024, 11:38:56 AM
! freq[Hz]                re:S11                  im:S11                  re:S21                  im:S21                  re:S12                  im:S12                  re:S22                  im:S22
 6.501128745000000E9    -4.343411039547271E-1   -2.975796341687248E-1   -1.477521110086767E-2    3.215226836556048E-2   -1.304578070986947E-2    3.227321134917381E-2   -4.945324004503095E-1   -1.369010347634098E-1
 6.501140650875000E9    -4.347791073502755E-1   -2.967923247255010E-1   -1.490116399722493E-2    3.223668033559667E-2   -1.313473390864043E-2    3.241422699071753E-2   -4.947029923208629E-1   -1.355718104982386E-1
 6.501152556750000E9    -4.353729326312111E-1   -2.959731448836466E-1   -1.464597081098946E-2    3.249095798739452E-2   -1.301019286680481E-2    3.252586808828573E-2   -4.948858419576179E-1   -1.345463019124752E-1
 6.501164462625000E9    -4.358077849828288E-1   -2.950124635321326E-1   -1.478708892647780E-2    3.271598021643209E-2   -1.293244530776544E-2    3.268261716040670E-2   -4.951861502802705E-1   -1.333748830415776E-1
 6.501176368500000E9    -4.363266827633588E-1   -2.942527997679820E-1   -1.476192790978219E-2    3.299375142659464E-2   -1.295933685578230E-2    3.288242279929710E-2   -4.953568642403951E-1   -1.321698740571633E-1
 6.501188274375000E9    -4.368526426040288E-1   -2.934905352080852E-1   -1.475336856639191E-2    3.314061560481903E-2   -1.296944131124987E-2    3.307866094400089E-2   -4.956666490987946E-1   -1.309558613632611E-1
 6.501200180250000E9    -4.374464881650175E-1   -2.926339194781564E-1   -1.488933771283254E-2    3.332670118125013E-2   -1.294075621814967E-2    3.337752078923246E-2   -4.959317991732578E-1   -1.298459460960841E-1
 6.501212086125000E9    -4.380713826880643E-1   -2.918245732897176E-1   -1.502290720460027E-2    3.354413550375464E-2   -1.294188018310725E-2    3.353660504228100E-2   -4.962135760117450E-1   -1.287259000449698E-1
 6.501223992000000E9    -4.384083837187359E-1   -2.908731224019238E-1   -1.467448677856376E-2    3.370562278995996E-2   -1.294725003532492E-2    3.375415754441820E-2   -4.964884393101980E-1   -1.275467578916910E-1
 6.501235897875000E9    -4.392110723084816E-1   -2.901854742272753E-1   -1.479531479254035E-2    3.394859081092889E-2   -1.294750700964578E-2    3.387556362414372E-2   -4.966454265151807E-1   -1.262616950534926E-1
 6.501247803750000E9    -4.395900937877963E-1   -2.892377824512086E-1   -1.477278381523678E-2    3.411804986684002E-2   -1.292065221936031E-2    3.411976690193759E-2   -4.968655824430015E-1   -1.251781373512828E-1
 6.501259709625000E9    -4.401675103338660E-1   -2.883229191035265E-1   -1.475004980028410E-2    3.445514605730586E-2   -1.287383608987737E-2    3.429886767714648E-2   -4.970810898837568E-1   -1.239051028295310E-1
 6.501271615500000E9    -4.405881025661330E-1   -2.875122145223164E-1   -1.472440313742191E-2    3.461979853091265E-2   -1.290180218952025E-2    3.449444027422779E-2   -4.972518201759010E-1   -1.227295295369746E-1
 6.501283521375000E9    -4.413027947149006E-1   -2.867600950759759E-1   -1.484482725938804E-2    3.482591925734468E-2   -1.287400275696748E-2    3.473725775783158E-2   -4.975805778471826E-1   -1.213918185537585E-1
 6.501295427250000E9    -4.417935659456423E-1   -2.857916327669864E-1   -1.476495724914675E-2    3.501622559264134E-2   -1.279638549616882E-2    3.490095328510019E-2   -4.978154588796432E-1   -1.201772048159884E-1
 6.501307333125000E9    -4.422287087389132E-1   -2.850832385027788E-1   -1.460974702896678E-2    3.515359176431881E-2   -1.289026647666942E-2    3.517806385764491E-2   -4.979704060224331E-1   -1.191149526234769E-1
 6.501319239000000E9    -4.427196240731107E-1   -2.842458208800180E-1   -1.464465966429844E-2    3.548285534800979E-2   -1.289446464230207E-2    3.535504221077523E-2   -4.981528053226473E-1   -1.180252130523100E-1
 6.501331144875000E9    -4.433214962840476E-1   -2.833018505474907E-1   -1.475552640010977E-2    3.572908219303890E-2   -1.274328043794702E-2    3.565998654111674E-2   -4.983891770489106E-1   -1.166569697738468E-1
 6.501343050750000E9    -4.438003020595753E-1   -2.824249516044188E-1   -1.493790810294227E-2    3.593055760921952E-2   -1.280623644916174E-2    3.582298308270080E-2   -4.986551107303469E-1   -1.153367264703873E-1
 6.501354956625000E9    -4.443181922344190E-1   -2.814114324549890E-1   -1.480020354885610E-2    3.615438169986716E-2   -1.279894209163976E-2    3.600880765014466E-2   -4.987373101154141E-1   -1.143363398270428E-1
 6.501366862500000E9    -4.447775752060622E-1   -2.806776154170046E-1   -1.477539949314570E-2    3.637941396099821E-2   -1.278671819458250E-2    3.629452322199150E-2   -4.990311754838812E-1   -1.130826854104144E-1
 6.501378768375000E9    -4.453519723266788E-1   -2.798056539943111E-1   -1.478354172388493E-2    3.651415911452779E-2   -1.280691713174658E-2    3.649752082329129E-2   -4.991358624122909E-1   -1.118231524990666E-1
 6.501390674250000E9    -4.458647993490196E-1   -2.789235307384983E-1   -1.469832889719843E-2    3.694441813125397E-2   -1.278524176331941E-2    3.676467667284738E-2   -4.992843364170768E-1   -1.103385077728106E-1
 6.501402580125000E9    -4.462784075793404E-1   -2.779335894040595E-1   -1.473775033771034E-2    3.707195862570130E-2   -1.286077781385462E-2    3.700457791538918E-2   -4.995996528981638E-1   -1.093749199464783E-1
 6.501414486000000E9    -4.468093457264861E-1   -2.770975804468028E-1   -1.479177791497343E-2    3.728207972426235E-2   -1.273885032040906E-2    3.716331063894242E-2   -4.996960119727345E-1   -1.079210874709686E-1
 6.501426391875000E9    -4.474112526153703E-1   -2.762810645628547E-1   -1.476132633752120E-2    3.740622917659341E-2   -1.273405051623239E-2    3.744253519944023E-2   -5.000348664449797E-1   -1.067342253046218E-1
 6.501438297750000E9    -4.480034838295665E-1   -2.753647835289288E-1   -1.482710128286359E-2    3.774622481245871E-2   -1.266936781993583E-2    3.773672919369169E-2   -5.001172314873557E-1   -1.054810997756153E-1
 6.501450203625000E9    -4.483261723244419E-1   -2.746793971019793E-1   -1.466670174287672E-2    3.798791728542213E-2   -1.268661165135847E-2    3.786399350506096E-2   -5.001830082417018E-1   -1.041831384854320E-1
 6.501462109500000E9    -4.489668729198493E-1   -2.737392094187902E-1   -1.478950807906221E-2    3.833428195167917E-2   -1.260604529531687E-2    3.818794132632557E-2   -5.004651338672133E-1   -1.029950232265619E-1
 6.501474015375000E9    -4.493140983936441E-1   -2.727517382265432E-1   -1.473872620277202E-2    3.852516209159849E-2   -1.272941992040636E-2    3.840354002795467E-2   -5.006682322931254E-1   -1.017222544084586E-1
 6.501485921250000E9    -4.498651942767157E-1   -2.719614014594582E-1   -1.468773001977624E-2    3.884212404180752E-2   -1.256637199486124E-2    3.872006964238229E-2   -5.008537772065496E-1   -1.004480823730186E-1
 6.501497827125000E9    -4.503743620150590E-1   -2.708714011006215E-1   -1.474859236818700E-2    3.900618460242888E-2   -1.259614126991692E-2    3.892392746429541E-2   -5.010067821437247E-1   -9.905658533990928E-2
 6.501509733000000E9    -4.508410401693244E-1   -2.701137399733795E-1   -1.473299801279790E-2    3.925955636645979E-2   -1.266902287599314E-2    3.916413692055786E-2   -5.012067075447912E-1   -9.790269253005994E-2
 6.501521638875000E9    -4.513960197262838E-1   -2.691921779366950E-1   -1.474378556497935E-2    3.957629021372715E-2   -1.253503250481632E-2    3.939010385214132E-2   -5.012597980095643E-1   -9.661507568382531E-2
 6.501533544750000E9    -4.518794306121584E-1   -2.683595416554500E-1   -1.465794306326218E-2    3.998698534708969E-2   -1.256115769451981E-2    3.960821831432629E-2   -5.014357642284395E-1   -9.536213411855919E-2
 6.501545450625000E9    -4.522962920488575E-1   -2.672897024767532E-1   -1.463704234335248E-2    4.019112784723065E-2   -1.252649730865941E-2    3.998817835877518E-2   -5.016712141609874E-1   -9.390678352405137E-2
 6.501557356500000E9    -4.528275196414666E-1   -2.664446244397106E-1   -1.459313848013808E-2    4.036359065264818E-2   -1.249043916915410E-2    4.012814486930132E-2   -5.019350334317251E-1   -9.262187375623179E-2
 6.501569262375000E9    -4.534083644551274E-1   -2.656343582043777E-1   -1.464000434356944E-2    4.071788806199499E-2   -1.248274398758042E-2    4.046988000084029E-2   -5.019635504040281E-1   -9.137568099402152E-2
 6.501581168250000E9    -4.538788748264649E-1   -2.645891699629476E-1   -1.472075509349772E-2    4.105383334822730E-2   -1.248774922255901E-2    4.074392629229734E-2   -5.021071805267632E-1   -8.999452911387749E-2
 6.501593074125000E9    -4.544218432627886E-1   -2.638298426503092E-1   -1.452994715020020E-2    4.131745798431827E-2   -1.247607590853660E-2    4.102986673396312E-2   -5.022252846791987E-1   -8.866700985974353E-2
 6.501604980000000E9    -4.547874539501768E-1   -2.627047070296074E-1   -1.446861402713382E-2    4.160193795332320E-2   -1.253550399958884E-2    4.135772776934402E-2   -5.022782102893881E-1   -8.738018805631718E-2
 6.501616885875000E9    -4.552938186766568E-1   -2.618930841416144E-1   -1.447391029266054E-2    4.187252538284749E-2   -1.239213174497401E-2    4.158705019485931E-2   -5.025781209577965E-1   -8.600961128410881E-2
 6.501628791750000E9    -4.558252481497076E-1   -2.609361941484385E-1   -1.455572674885566E-2    4.208004248619340E-2   -1.238362481224363E-2    4.181643009647835E-2   -5.027760598113391E-1   -8.466501005286918E-2
 6.501640697625000E9    -4.562860885500741E-1   -2.600331603394608E-1   -1.447890829985658E-2    4.234108770270582E-2   -1.227858294214529E-2    4.218839129263430E-2   -5.026628193851745E-1   -8.334334746417821E-2
 6.501652603500000E9    -4.566868295291917E-1   -2.591046565865044E-1   -1.451183868619225E-2    4.277541884541079E-2   -1.233849778022611E-2    4.241278395366205E-2   -5.028018382366052E-1   -8.192307087545293E-2
 6.501664509375000E9    -4.572246078796911E-1   -2.583636951918312E-1   -1.454389430744048E-2    4.307598544153942E-2   -1.225354093423876E-2    4.268192036934285E-2   -5.030130660641491E-1   -8.047251559298427E-2
 6.501676415250000E9    -4.576507884443523E-1   -2.573869883261861E-1   -1.443188088167651E-2    4.325516085978499E-2   -1.228142441619552E-2    4.308154342606398E-2   -5.031395167502534E-1   -7.916200009661577E-2
 6.501688321125000E9    -4.581473856133035E-1   -2.564178641869596E-1   -1.449186734636427E-2    4.370570972649769E-2   -1.228282044665773E-2    4.332857466495556E-2   -5.031556519674540E-1   -7.790916305969543E-2
 6.501700227000000E9    -4.585584951138810E-1   -2.554684137241716E-1   -1.437320579407193E-2    4.406738396990027E-2   -1.226635739609077E-2    4.359763842553532E-2   -5.033151362087845E-1   -7.655463923103469E-2
 6.501712132875000E9    -4.590874787954222E-1   -2.544412998788850E-1   -1.446748711512893E-2    4.442029214820362E-2   -1.212673309435742E-2    4.390490272201643E-2   -5.034168595131761E-1   -7.512697796549615E-2
 6.501724038750000E9    -4.596654176188600E-1   -2.534821160505144E-1   -1.437619552371190E-2    4.459863383479623E-2   -1.214323479168127E-2    4.422332814405912E-2   -5.034800629453705E-1   -7.363214047402955E-2
 6.501735944625000E9    -4.600690425666607E-1   -2.526531801825548E-1   -1.444060965996132E-2    4.487712424373616E-2   -1.217288097179732E-2    4.458133965437752E-2   -5.037253833841743E-1   -7.221046682063387E-2
 6.501747850500000E9    -4.605797804781165E-1   -2.516114767072375E-1   -1.432916261598013E-2    4.526176468556430E-2   -1.206015763139544E-2    4.491064810129913E-2   -5.037554232906351E-1   -7.081778712704451E-2
 6.501759756375000E9    -4.610525564711134E-1   -2.506428017554834E-1   -1.433141201012997E-2    4.566532216851950E-2   -1.199867679130789E-2    4.527050001333425E-2   -5.037371814727190E-1   -6.942304652677934E-2
 6.501771662250000E9    -4.614428397918182E-1   -2.497653222289146E-1   -1.443556561121054E-2    4.596530069422305E-2   -1.193708062559870E-2    4.554519139327819E-2   -5.038725073622438E-1   -6.791644882943260E-2
 6.501783568125000E9    -4.618834336943948E-1   -2.488424443205106E-1   -1.426697856739897E-2    4.619233560583638E-2   -1.197421072257027E-2    4.586995000107763E-2   -5.039165682605902E-1   -6.660419613180182E-2
 6.501795474000000E9    -4.623393476448754E-1   -2.478535165162105E-1   -1.430241429192139E-2    4.672943919912266E-2   -1.185545899642810E-2    4.617662113575376E-2   -5.039498907803069E-1   -6.516614380887721E-2
 6.501807379875000E9    -4.628837956626750E-1   -2.467553415669818E-1   -1.410652260133040E-2    4.693222524896726E-2   -1.183302256306476E-2    4.659077011230085E-2   -5.040002979799035E-1   -6.370192734544322E-2
 6.501819285750000E9    -4.634413900043451E-1   -2.459256493971514E-1   -1.417662077303269E-2    4.737701061768805E-2   -1.187059662688240E-2    4.690411716256204E-2   -5.042245807614558E-1   -6.220977742381460E-2
 6.501831191625000E9    -4.638416789374529E-1   -2.449322202370015E-1   -1.417748778770302E-2    4.762289437021163E-2   -1.174301733820595E-2    4.738283816572077E-2   -5.042564122809350E-1   -6.047401760326333E-2
 6.501843097500000E9    -4.642114103937804E-1   -2.439273380747149E-1   -1.419359183923252E-2    4.807056794200622E-2   -1.175507628541804E-2    4.769275928997705E-2   -5.042129738252686E-1   -5.912146115082167E-2
 6.501855003375000E9    -4.646530274971661E-1   -2.428977944853953E-1   -1.419305350896705E-2    4.845130744932891E-2   -1.163644249718149E-2    4.797725621666614E-2   -5.042718819779981E-1   -5.766273995086630E-2
 6.501866909250000E9    -4.651095037359638E-1   -2.419963048981981E-1   -1.398650609976631E-2    4.879460503202356E-2   -1.168737077339100E-2    4.838655674168995E-2   -5.042410899542918E-1   -5.624393587870997E-2
 6.501878815125000E9    -4.656170604275540E-1   -2.411211819510684E-1   -1.396463767842545E-2    4.930301287073918E-2   -1.158216272757752E-2    4.881983331940552E-2   -5.042974192814614E-1   -5.475102224806537E-2
 6.501890721000000E9    -4.660745125263879E-1   -2.400287133470275E-1   -1.393471333438713E-2    4.956425410693976E-2   -1.163878117748387E-2    4.911901685595282E-2   -5.043738787370070E-1   -5.331508541576181E-2
 6.501902626875000E9    -4.665697363257538E-1   -2.390445456465427E-1   -1.392320154647013E-2    5.000183989023788E-2   -1.162739744864188E-2    4.943987320563953E-2   -5.045685477777889E-1   -5.172745892035394E-2
 6.501914532750000E9    -4.669461093943211E-1   -2.380946863845028E-1   -1.387755744132992E-2    5.031043228043004E-2   -1.151275162878960E-2    4.988209550775009E-2   -5.043402994409982E-1   -5.024670454125300E-2
 6.501926438625000E9    -4.673239041693288E-1   -2.369881932959683E-1   -1.381332815049746E-2    5.080538371994115E-2   -1.137665679628280E-2    5.019641989924752E-2   -5.044732681526404E-1   -4.860603558202096E-2
 6.501938344500000E9    -4.677984797704060E-1   -2.360421645154151E-1   -1.389371137811554E-2    5.126698152389902E-2   -1.135737029873655E-2    5.065686580799778E-2   -5.045639336366595E-1   -4.709454067406062E-2
 6.501950250375000E9    -4.682206244795580E-1   -2.350963792826797E-1   -1.386955097040811E-2    5.160783829142519E-2   -1.129324264660402E-2    5.111732387217281E-2   -5.046083371553167E-1   -4.556005051402416E-2
 6.501962156250000E9    -4.686976941867647E-1   -2.340935857066102E-1   -1.378847295103365E-2    5.191803989382898E-2   -1.124340596502152E-2    5.152495052072859E-2   -5.045928121967517E-1   -4.402671823745224E-2
 6.501974062125000E9    -4.691472037531059E-1   -2.330661431970659E-1   -1.375823073898497E-2    5.259695016755978E-2   -1.116627506356620E-2    5.181991672085463E-2   -5.044305964971864E-1   -4.236485869956621E-2
 6.501985968000000E9    -4.695573117186324E-1   -2.319580345299238E-1   -1.362401745968047E-2    5.295401092282525E-2   -1.110607550561557E-2    5.228340457990355E-2   -5.044849515318235E-1   -4.064750661116228E-2
 6.501997873875000E9    -4.700764373927716E-1   -2.310314942554651E-1   -1.350935684126523E-2    5.335770622364283E-2   -1.096822142726568E-2    5.281509499092335E-2   -5.045512357329301E-1   -3.923330428890619E-2
 6.502009779750000E9    -4.705637769586261E-1   -2.299778890364918E-1   -1.351500843649915E-2    5.388208185574819E-2   -1.090307580205753E-2    5.322816077770406E-2   -5.044722672114542E-1   -3.748400990634016E-2
 6.502021685625000E9    -4.706931612888066E-1   -2.289361143475588E-1   -1.354149072200177E-2    5.427281420973002E-2   -1.088457269430380E-2    5.357441356408381E-2   -5.042706647381323E-1   -3.593853822515068E-2
 6.502033591500000E9    -4.712893435584981E-1   -2.278564499323765E-1   -1.336184955832549E-2    5.478485709809706E-2   -1.085354835309646E-2    5.408308783133051E-2   -5.043826795496084E-1   -3.441543999301232E-2
 6.502045497375000E9    -4.716542040908641E-1   -2.269083597564066E-1   -1.336220253096371E-2    5.527588941583973E-2   -1.075616171971665E-2    5.440964738403869E-2   -5.043365607164144E-1   -3.269949837693475E-2
 6.502057403250000E9    -4.722132864032880E-1   -2.258665492602785E-1   -1.328366966686864E-2    5.576657585377422E-2   -1.065482784939035E-2    5.500424966445450E-2   -5.042702642468927E-1   -3.111572288263162E-2
 6.502069309125000E9    -4.725927493284107E-1   -2.247551427165220E-1   -1.334241270890941E-2    5.615979640522437E-2   -1.062631085516209E-2    5.548882741218000E-2   -5.042218818101407E-1   -2.937912315958734E-2
 6.502081215000000E9    -4.729902140869627E-1   -2.236664564874883E-1   -1.313321818866409E-2    5.655861570886342E-2   -1.046399410931347E-2    5.594361595285575E-2   -5.042080708337180E-1   -2.763483159255396E-2
 6.502093120875000E9    -4.733511275580886E-1   -2.226619188458563E-1   -1.304001935357590E-2    5.723094461251338E-2   -1.037459093271080E-2    5.648863742231727E-2   -5.040918054715992E-1   -2.594286459394658E-2
 6.502105026750000E9    -4.738102878539782E-1   -2.215123107366592E-1   -1.307116280269330E-2    5.776498156261530E-2   -1.036549602572479E-2    5.680438755429176E-2   -5.038903465393112E-1   -2.425953106377704E-2
 6.502116932625000E9    -4.743052214592285E-1   -2.204293917571605E-1   -1.291675911324465E-2    5.814958881352427E-2   -1.016702061984908E-2    5.738502915442369E-2   -5.039639933128363E-1   -2.245235168963483E-2
 6.502128838500000E9    -4.746186779868886E-1   -2.193740770961832E-1   -1.274071849339102E-2    5.872047439669031E-2   -1.012343479410360E-2    5.786336878433572E-2   -5.037075824135856E-1   -2.076983293114623E-2
 6.502140744375000E9    -4.750157626255856E-1   -2.182946561599033E-1   -1.283770941029194E-2    5.925354158830186E-2   -1.002885293581396E-2    5.839352477530960E-2   -5.036023705662888E-1   -1.907981411631464E-2
 6.502152650250000E9    -4.754164591423117E-1   -2.171964419141625E-1   -1.274584052485968E-2    5.984272040926149E-2   -9.929331061194162E-3    5.900873701548569E-2   -5.035144507011000E-1   -1.716821625867859E-2
 6.502164556125000E9    -4.758014799690448E-1   -2.161754080531248E-1   -1.269085701997677E-2    6.042682052771112E-2   -9.885845044184147E-3    5.958011222210469E-2   -5.033052264188478E-1   -1.552535786575460E-2
 6.502176462000000E9    -4.762560709002344E-1   -2.149932666287091E-1   -1.261178694236384E-2    6.089419719614922E-2   -9.788141459173932E-3    6.008344015074166E-2   -5.031102377963385E-1   -1.372773416851202E-2
 6.502188367875000E9    -4.765968551572594E-1   -2.139731266802047E-1   -1.242145851767136E-2    6.137657305082615E-2   -9.554720924813253E-3    6.048168636853975E-2   -5.030562845506178E-1   -1.179966846915530E-2
 6.502200273750000E9    -4.771046999164480E-1   -2.128868884594403E-1   -1.236184970205061E-2    6.204412970391471E-2   -9.475320847174855E-3    6.104615647838568E-2   -5.029057904057574E-1   -1.011458335289941E-2
