#  HZ   S   RI   R     50.00 
! Rohde & Schwarz Vector Network Analyzer 
! Rohde-Schwarz,ZNB20-2Port,1311601062101988,3.16
! Created: UTC 3/20/2024, 12:06:03 PM
! freq[Hz]                re:S11                  im:S11                  re:S21                  im:S21                  re:S12                  im:S12                  re:S22                  im:S22
 6.501194136000000E9    -4.380254224133037E-1   -2.911918308334553E-1   -1.461027405930835E-2    3.249686676797940E-2   -1.269522375613995E-2    3.261401840282133E-2   -4.957067934589581E-1   -1.336482303091361E-1
 6.501205917475000E9    -4.385762558337161E-1   -2.904221595855547E-1   -1.474165597087469E-2    3.271189456730560E-2   -1.282562585774265E-2    3.276274262309151E-2   -4.959739945715020E-1   -1.325459630782147E-1
 6.501217698950000E9    -4.390992176146362E-1   -2.895286191390104E-1   -1.463007059986455E-2    3.297455236183605E-2   -1.272046203800507E-2    3.317549577327908E-2   -4.962657608910717E-1   -1.313260852455246E-1
 6.501229480425000E9    -4.396055695322136E-1   -2.887869610018601E-1   -1.471160883207777E-2    3.305051311794265E-2   -1.269315484410785E-2    3.323792728237385E-2   -4.964164517182132E-1   -1.302082031474942E-1
 6.501241261900000E9    -4.400562372715332E-1   -2.880880902194259E-1   -1.460326433529828E-2    3.327230544130852E-2   -1.274553751335292E-2    3.325345473475916E-2   -4.966473827076027E-1   -1.289804916360154E-1
 6.501253043375000E9    -4.406176246573655E-1   -2.872879535142449E-1   -1.459542801218774E-2    3.356434626630720E-2   -1.258242461175646E-2    3.364291290394748E-2   -4.969105279946341E-1   -1.279228543738012E-1
 6.501264824850000E9    -4.411114513680234E-1   -2.862842373975151E-1   -1.471595558747385E-2    3.378782104395225E-2   -1.271579831980574E-2    3.386432633677540E-2   -4.972156606596480E-1   -1.266810205409512E-1
 6.501276606325000E9    -4.416851789790496E-1   -2.855194968201416E-1   -1.463858206793945E-2    3.385230586497513E-2   -1.273616990107105E-2    3.390607581212911E-2   -4.973889142988343E-1   -1.255081936427802E-1
 6.501288387800000E9    -4.422602947391634E-1   -2.846795088625617E-1   -1.469512306989258E-2    3.404332841287001E-2   -1.266776332621758E-2    3.417139979615524E-2   -4.977159780819431E-1   -1.243103876209575E-1
 6.501300169275000E9    -4.427665664039040E-1   -2.837786162753975E-1   -1.466545973339852E-2    3.427139574643238E-2   -1.265688452728278E-2    3.437627557774579E-2   -4.979746196844400E-1   -1.230892343484699E-1
 6.501311950750000E9    -4.432540217370262E-1   -2.829439222844925E-1   -1.475811715675377E-2    3.449578599749003E-2   -1.267001679784613E-2    3.459959750839487E-2   -4.980413208045381E-1   -1.219118288091070E-1
 6.501323732225000E9    -4.437402034083622E-1   -2.821023527394349E-1   -1.468611939079797E-2    3.476068298576468E-2   -1.263060764679002E-2    3.481511761904887E-2   -4.981663733307932E-1   -1.207881090431642E-1
 6.501335513700000E9    -4.441890626310775E-1   -2.811576167723185E-1   -1.450235542235362E-2    3.492495723502845E-2   -1.256743213468346E-2    3.491364537229285E-2   -4.985001189174285E-1   -1.196028013192521E-1
 6.501347295175000E9    -4.447681908513316E-1   -2.803548297626863E-1   -1.468822469529781E-2    3.523297648875934E-2   -1.264055810452170E-2    3.528349313975792E-2   -4.987030431330018E-1   -1.183723940720017E-1
 6.501359076650000E9    -4.451991151519482E-1   -2.795114880413195E-1   -1.481989070980853E-2    3.546905921360969E-2   -1.269440441298314E-2    3.534291174441094E-2   -4.989194231868131E-1   -1.171769365112231E-1
 6.501370858125000E9    -4.457895589835106E-1   -2.786273910602411E-1   -1.476419933787924E-2    3.569878994761508E-2   -1.258557232317727E-2    3.567050842353230E-2   -4.990625497391643E-1   -1.160109877946914E-1
 6.501382639600000E9    -4.462330484010137E-1   -2.778469932055332E-1   -1.468092181796828E-2    3.586074727389679E-2   -1.263025801943324E-2    3.587469495295519E-2   -4.992557824306947E-1   -1.146737924748993E-1
 6.501394421075000E9    -4.468506158446255E-1   -2.768998695971343E-1   -1.460163312870910E-2    3.600673811508435E-2   -1.247600492787305E-2    3.598850528449685E-2   -4.995757874468931E-1   -1.135518835984786E-1
 6.501406202550000E9    -4.473221553527459E-1   -2.760449243743437E-1   -1.462630184667319E-2    3.631489183187765E-2   -1.255090197969586E-2    3.630479313024190E-2   -4.997597986838490E-1   -1.123286559200279E-1
 6.501417984025000E9    -4.478463629621062E-1   -2.751582815679462E-1   -1.474522435543597E-2    3.648685010016067E-2   -1.257375569912313E-2    3.641707678573333E-2   -4.999435337074004E-1   -1.110953813198083E-1
 6.501429765500000E9    -4.482710373381033E-1   -2.744315223744747E-1   -1.472872652763087E-2    3.678848185063601E-2   -1.246522600965239E-2    3.678963394127122E-2   -5.001798606147131E-1   -1.098201976199599E-1
 6.501441546975000E9    -4.486820619519026E-1   -2.733917460404479E-1   -1.468745590501319E-2    3.695377167810566E-2   -1.243262140375448E-2    3.688639565804235E-2   -5.001508517826309E-1   -1.086132069073568E-1
 6.501453328450000E9    -4.492092357266367E-1   -2.725753249417240E-1   -1.456818890063490E-2    3.720508491033312E-2   -1.253139319607243E-2    3.717087689959745E-2   -5.005537670774136E-1   -1.076117013986686E-1
 6.501465109925000E9    -4.497464629704619E-1   -2.716489906832787E-1   -1.455089497103007E-2    3.750199862515532E-2   -1.247189160114428E-2    3.746476630468167E-2   -5.006128359808558E-1   -1.062565000693044E-1
 6.501476891400000E9    -4.503374018957682E-1   -2.708848660336773E-1   -1.472610752728610E-2    3.764389699434954E-2   -1.247108176632622E-2    3.758067713589101E-2   -5.009081707266241E-1   -1.049676821264660E-1
 6.501488672875000E9    -4.508544538963151E-1   -2.699617425661762E-1   -1.458851627421818E-2    3.807954336868341E-2   -1.247529612190026E-2    3.787977499116053E-2   -5.010087051017428E-1   -1.037437893820250E-1
 6.501500454350000E9    -4.512787572242141E-1   -2.690211325775512E-1   -1.449346242828886E-2    3.822801109153026E-2   -1.245848689784759E-2    3.810493464669611E-2   -5.013203790707621E-1   -1.024115069931593E-1
 6.501512235825000E9    -4.516901672409147E-1   -2.682572979523052E-1   -1.463039842650920E-2    3.843586939002568E-2   -1.233618377021862E-2    3.829644001761889E-2   -5.014009630985493E-1   -1.011491229202202E-1
 6.501524017300000E9    -4.523038558671499E-1   -2.673370706418113E-1   -1.460465203660940E-2    3.873811223331634E-2   -1.241576012772458E-2    3.862058036280037E-2   -5.015389478660603E-1   -9.993326418731494E-2
 6.501535798775000E9    -4.527041277912096E-1   -2.664189273414945E-1   -1.466024691764922E-2    3.880169084779454E-2   -1.231824049402070E-2    3.880347353654060E-2   -5.017112473492955E-1   -9.865791951766775E-2
 6.501547580250000E9    -4.532057370995480E-1   -2.655869587956721E-1   -1.464275926667623E-2    3.923212052930176E-2   -1.234873922599448E-2    3.909844138442953E-2   -5.018813570554691E-1   -9.744067584605186E-2
 6.501559361725000E9    -4.536298627701499E-1   -2.646437253918957E-1   -1.463315745013858E-2    3.944837356877395E-2   -1.225756022024626E-2    3.934451532630940E-2   -5.019917647279277E-1   -9.613772780625313E-2
 6.501571143200000E9    -4.542557593424229E-1   -2.637837375449222E-1   -1.458040812704684E-2    3.963975701184975E-2   -1.233078819412578E-2    3.962863271752445E-2   -5.022217171253638E-1   -9.482162130466257E-2
 6.501582924675000E9    -4.545603630434455E-1   -2.628890991517541E-1   -1.456404804445846E-2    4.008563849811488E-2   -1.222145103073222E-2    3.987348043568716E-2   -5.022154268132771E-1   -9.348853873601434E-2
 6.501594706150000E9    -4.550250717678946E-1   -2.621302977864924E-1   -1.454036637611168E-2    4.031833327594297E-2   -1.230210941800524E-2    4.015237117643668E-2   -5.025719226183075E-1   -9.220913431755098E-2
 6.501606487625000E9    -4.556960483200673E-1   -2.611161061892249E-1   -1.446793775172129E-2    4.054448158122523E-2   -1.223670083473727E-2    4.041561178710702E-2   -5.026894851294506E-1   -9.097828505238434E-2
 6.501618269100000E9    -4.560690606872569E-1   -2.601739407624021E-1   -1.445984916155087E-2    4.085859322092268E-2   -1.222707874296954E-2    4.072272376634472E-2   -5.027574672574971E-1   -8.968032361812141E-2
 6.501630050575000E9    -4.565872248958723E-1   -2.592709602385092E-1   -1.453231818093528E-2    4.111547368676671E-2   -1.216375898369622E-2    4.090394757314904E-2   -5.028846549333091E-1   -8.830707936827992E-2
 6.501641832050000E9    -4.569999343971526E-1   -2.583847686271654E-1   -1.437052571276047E-2    4.143948754661305E-2   -1.214139694745871E-2    4.132953787113419E-2   -5.030729464078056E-1   -8.698905648618140E-2
 6.501653613525000E9    -4.575342545627296E-1   -2.574761190543052E-1   -1.445678349543453E-2    4.182385993656856E-2   -1.210697916579132E-2    4.150216125192237E-2   -5.030925518724308E-1   -8.574803779787402E-2
 6.501665395000000E9    -4.579575574535322E-1   -2.565783037255215E-1   -1.436192182238492E-2    4.199091966287270E-2   -1.208151289123090E-2    4.186252383503542E-2   -5.032635321199854E-1   -8.437298237466517E-2
 6.501677176475000E9    -4.584005402809180E-1   -2.556103887644482E-1   -1.433437699709382E-2    4.240788765832879E-2   -1.205135091673004E-2    4.204516990745830E-2   -5.035777531802434E-1   -8.300185034528133E-2
 6.501688957950000E9    -4.589235498191002E-1   -2.547566089292369E-1   -1.427152959640453E-2    4.252616528930797E-2   -1.206141909183329E-2    4.238287844611489E-2   -5.034597651124293E-1   -8.164386388327984E-2
 6.501700739425000E9    -4.593368962491071E-1   -2.537956543537946E-1   -1.449202048218904E-2    4.293973388180161E-2   -1.198672644191755E-2    4.270739896342631E-2   -5.036501644477623E-1   -8.021784631222013E-2
 6.501712520900000E9    -4.597332568535756E-1   -2.528573321067600E-1   -1.438070674426585E-2    4.320225451965783E-2   -1.192904207572117E-2    4.291598522190473E-2   -5.038240694431858E-1   -7.906629642067198E-2
 6.501724302375000E9    -4.602820230291347E-1   -2.520084012981342E-1   -1.434766101983777E-2    4.364775031854537E-2   -1.194651971226341E-2    4.313753714239456E-2   -5.038697914399302E-1   -7.751676477193326E-2
 6.501736083850000E9    -4.608251992107403E-1   -2.510442484715256E-1   -1.429312448034480E-2    4.383290620467110E-2   -1.185911536132253E-2    4.365414180268622E-2   -5.038904480686767E-1   -7.622776967065024E-2
 6.501747865325000E9    -4.612639037396674E-1   -2.501407111684034E-1   -1.439029955963608E-2    4.412258589768523E-2   -1.181040344438265E-2    4.379808190512293E-2   -5.041264002366305E-1   -7.484485804588395E-2
 6.501759646800000E9    -4.617052945036895E-1   -2.490758835773615E-1   -1.431127951779526E-2    4.445247850742519E-2   -1.182659080303858E-2    4.421706125989099E-2   -5.041167111448531E-1   -7.353840327795703E-2
 6.501771428275000E9    -4.622162534231886E-1   -2.481637634868131E-1   -1.423491008555936E-2    4.484504989132816E-2   -1.171032246360630E-2    4.445786246529050E-2   -5.043848663988950E-1   -7.222045357255470E-2
 6.501783209750000E9    -4.626606959261294E-1   -2.472853127288131E-1   -1.434667915342096E-2    4.503482515275863E-2   -1.170339471943889E-2    4.483644603835042E-2   -5.043368036741632E-1   -7.064346609792375E-2
 6.501794991225000E9    -4.630515304539852E-1   -2.462878800959499E-1   -1.425131488244367E-2    4.532045918718747E-2   -1.171160609925597E-2    4.514409857558518E-2   -5.045011119642382E-1   -6.922242810660056E-2
 6.501806772700000E9    -4.634391772495092E-1   -2.453789169128038E-1   -1.429897498978561E-2    4.579852002369720E-2   -1.168126765201568E-2    4.530679161736795E-2   -5.046164384590257E-1   -6.794724679689831E-2
 6.501818554175000E9    -4.639521588196232E-1   -2.443653836204556E-1   -1.425219187553503E-2    4.600801764707973E-2   -1.175755827256769E-2    4.568090056806971E-2   -5.046212526255078E-1   -6.656799048027079E-2
 6.501830335650000E9    -4.643816670245914E-1   -2.435440195350219E-1   -1.415881216865711E-2    4.643938528501233E-2   -1.162348154713485E-2    4.604048467202483E-2   -5.045980548290634E-1   -6.493345155814749E-2
 6.501842117125000E9    -4.649072618510607E-1   -2.424867812857097E-1   -1.417321503351510E-2    4.681702526809889E-2   -1.161843747082294E-2    4.642798951821003E-2   -5.047744223800019E-1   -6.357481666809092E-2
 6.501853898600000E9    -4.653074502045149E-1   -2.416042248795203E-1   -1.428699948955257E-2    4.720949736931262E-2   -1.154580851346173E-2    4.670356844184429E-2   -5.048528968256150E-1   -6.229762503826927E-2
 6.501865680075000E9    -4.656910605802595E-1   -2.406035262754383E-1   -1.394729844927250E-2    4.741666453398272E-2   -1.144414815811325E-2    4.709746498272678E-2   -5.048829589854232E-1   -6.074052037148293E-2
 6.501877461550000E9    -4.661437852190251E-1   -2.395453758927238E-1   -1.403159879059214E-2    4.778479368008479E-2   -1.151405651098611E-2    4.739923756310023E-2   -5.048693401884071E-1   -5.929835829253097E-2
 6.501889243025000E9    -4.666286064177707E-1   -2.386705980474032E-1   -1.402597871438752E-2    4.832326676705503E-2   -1.151150925638113E-2    4.774533982460709E-2   -5.049329703389738E-1   -5.778488974904958E-2
 6.501901024500000E9    -4.670727476797130E-1   -2.376833147839677E-1   -1.397463085683447E-2    4.845730515346659E-2   -1.126989700325105E-2    4.815169017187336E-2   -5.050136785377739E-1   -5.637008157267229E-2
 6.501912805975000E9    -4.675264653207722E-1   -2.367361067420843E-1   -1.402209913233349E-2    4.889909831355448E-2   -1.141355624638898E-2    4.851845084582476E-2   -5.050184448224330E-1   -5.488654494644849E-2
 6.501924587450000E9    -4.680345095389321E-1   -2.357490787159298E-1   -1.392905781061287E-2    4.937048420725532E-2   -1.126417992470240E-2    4.882315116801339E-2   -5.050771263645859E-1   -5.349930313103959E-2
 6.501936368925000E9    -4.684694346707595E-1   -2.348550454300773E-1   -1.385791484902379E-2    4.970221085882583E-2   -1.119068695039978E-2    4.931112517779877E-2   -5.052361287262901E-1   -5.180325118652334E-2
 6.501948150400000E9    -4.688800287957549E-1   -2.337917689344832E-1   -1.382545963467607E-2    5.011628613707191E-2   -1.112017619269973E-2    4.965407662362380E-2   -5.051286201494606E-1   -5.041178184935430E-2
 6.501959931875000E9    -4.692769573078102E-1   -2.328256608399721E-1   -1.380367823440935E-2    5.039593186793052E-2   -1.108103117250283E-2    5.003549749171458E-2   -5.051478717111029E-1   -4.902645465700589E-2
 6.501971713350000E9    -4.697355483236883E-1   -2.318535422866079E-1   -1.375858148279269E-2    5.093442195231208E-2   -1.100223124857882E-2    5.046023149608310E-2   -5.052010720097355E-1   -4.726430618340410E-2
 6.501983494825000E9    -4.701270927750438E-1   -2.308058317761822E-1   -1.367790129901041E-2    5.137336515883009E-2   -1.093248246517319E-2    5.079076061359570E-2   -5.053299928020957E-1   -4.573091396249111E-2
 6.501995276300000E9    -4.704631800147971E-1   -2.298125597198863E-1   -1.365732727562770E-2    5.173917093158380E-2   -1.092723456233648E-2    5.118656630540178E-2   -5.051579917337699E-1   -4.427406760457490E-2
 6.502007057775000E9    -4.710057392147219E-1   -2.288015314048685E-1   -1.362386651847894E-2    5.209388830627360E-2   -1.084471603246742E-2    5.161129725213541E-2   -5.050994701725692E-1   -4.277941671153052E-2
 6.502018839250000E9    -4.713801826075876E-1   -2.278753980802849E-1   -1.352303109078000E-2    5.270621338586209E-2   -1.088216846308263E-2    5.202287613396648E-2   -5.050782482867737E-1   -4.112548141565231E-2
 6.502030620725000E9    -4.718674117814597E-1   -2.267946102491488E-1   -1.350006812106635E-2    5.302661192107497E-2   -1.073779609278539E-2    5.243622837156079E-2   -5.050594215537182E-1   -3.960219513051551E-2
 6.502042402200000E9    -4.722805213128161E-1   -2.257533496292527E-1   -1.350232711177391E-2    5.346708224264687E-2   -1.063834681815230E-2    5.285464298323016E-2   -5.051431387962811E-1   -3.791081147233140E-2
 6.502054183675000E9    -4.727152952373255E-1   -2.247540902637021E-1   -1.346374190756341E-2    5.395167971026112E-2   -1.052317506766642E-2    5.336582423411183E-2   -5.050612468319782E-1   -3.637827996371574E-2
 6.502065965150000E9    -4.730917493905873E-1   -2.236211111381948E-1   -1.332910282005889E-2    5.436737819458431E-2   -1.047155220192272E-2    5.377173330352086E-2   -5.050808002537683E-1   -3.466634661277829E-2
 6.502077746625000E9    -4.734793738470848E-1   -2.227522009887607E-1   -1.327739630016719E-2    5.492779244907560E-2   -1.040390227914356E-2    5.425831903853812E-2   -5.050688598431669E-1   -3.317698269500138E-2
 6.502089528100000E9    -4.738687482786984E-1   -2.216482091507126E-1   -1.334643793229310E-2    5.524452860234123E-2   -1.038288895315066E-2    5.457510849076407E-2   -5.050841963392193E-1   -3.138541429660932E-2
 6.502101309575000E9    -4.743385030375613E-1   -2.206188574174783E-1   -1.309684511230808E-2    5.583132084469251E-2   -1.022066290932028E-2    5.499103993471233E-2   -5.049011695538305E-1   -2.984014970886400E-2
 6.502113091050000E9    -4.746883698932455E-1   -2.195836019730002E-1   -1.302659581976762E-2    5.632511568871729E-2   -1.009306060784090E-2    5.561055817314033E-2   -5.048977723901641E-1   -2.828949079767433E-2
 6.502124872525000E9    -4.751879144816342E-1   -2.186455881357711E-1   -1.295562052035256E-2    5.667332524840345E-2   -1.016632928189603E-2    5.598478383188396E-2   -5.047493247363386E-1   -2.649430783005457E-2
 6.502136654000000E9    -4.755780355409613E-1   -2.174525567855914E-1   -1.301481777308542E-2    5.716862433102086E-2   -1.002590714804301E-2    5.641760964329869E-2   -5.046338464348269E-1   -2.488030544115544E-2
 6.502148435475000E9    -4.759612545840093E-1   -2.163783897626263E-1   -1.303618230802265E-2    5.783019160724563E-2   -9.854672417414667E-3    5.695722758471437E-2   -5.045960537467450E-1   -2.306565490320769E-2
 6.502160216950000E9    -4.763389971188053E-1   -2.153725117670770E-1   -1.285390283476059E-2    5.826565284585070E-2   -9.868658635180588E-3    5.746118843351249E-2   -5.043873056003187E-1   -2.146692849446486E-2
 6.502171998425000E9    -4.767068176982324E-1   -2.143478038297640E-1   -1.272266675727440E-2    5.889937694016218E-2   -9.723654547584094E-3    5.796839175016947E-2   -5.042822259910965E-1   -1.986206522711856E-2
 6.502183779900000E9    -4.770558325993913E-1   -2.132599647799530E-1   -1.267828386556386E-2    5.930549415786517E-2   -9.635873397501091E-3    5.854627960394803E-2   -5.043488967129867E-1   -1.811769007608241E-2
 6.502195561375000E9    -4.774996239700530E-1   -2.121312822178729E-1   -1.268202998891808E-2    5.976934809372690E-2   -9.519594304925430E-3    5.904750742973757E-2   -5.040726329907637E-1   -1.636583699437848E-2
 6.502207342850000E9    -4.778554786890709E-1   -2.110869609563839E-1   -1.250339083855415E-2    6.024827586011536E-2   -9.414813087475328E-3    5.952541727286380E-2   -5.040643424206644E-1   -1.461760581508378E-2
 6.502219124325000E9    -4.782903414686934E-1   -2.100172846578493E-1   -1.223080372694833E-2    6.093785554395835E-2   -9.326477299825593E-3    6.004656213635415E-2   -5.038402032265086E-1   -1.275468127380255E-2
 6.502230905800000E9    -4.787054813635521E-1   -2.089402423113384E-1   -1.231999372512357E-2    6.159098442460794E-2   -9.153097922277090E-3    6.061119594160562E-2   -5.038425534924897E-1   -1.096716537691240E-2
 6.502242687275000E9    -4.789882951564429E-1   -2.078229443418496E-1   -1.226429616107953E-2    6.207468809780332E-2   -9.134530588706377E-3    6.117123710075906E-2   -5.035598168182133E-1   -9.196267103081173E-3
 6.502254468750000E9    -4.793391312839689E-1   -2.066611442142010E-1   -1.207890637206892E-2    6.265274053413900E-2   -8.996617805030985E-3    6.179413678990819E-2   -5.032578138223059E-1   -7.405751023208860E-3
