#  HZ   S   RI   R     50.00 
! Rohde & Schwarz Vector Network Analyzer 
! Rohde-Schwarz,ZNB20-2Port,1311601062101988,3.16
! Created: UTC 3/20/2024, 11:39:00 AM
! freq[Hz]                re:S11                  im:S11                  re:S21                  im:S21                  re:S12                  im:S12                  re:S22                  im:S22
 6.501129585000000E9    -4.344180996498752E-1   -2.974664353727640E-1   -1.469041621564673E-2    3.212516828103567E-2   -1.299631044831546E-2    3.227960782124231E-2   -4.945750473112983E-1   -1.366206010400111E-1
 6.501141483000000E9    -4.349498556250070E-1   -2.965798433403609E-1   -1.483519912970363E-2    3.236264531234564E-2   -1.301354519607731E-2    3.240514046399275E-2   -4.948056537338081E-1   -1.356441871717899E-1
 6.501153381000000E9    -4.354644429611468E-1   -2.957265318584443E-1   -1.474512417737258E-2    3.242412069465506E-2   -1.306558840826247E-2    3.256757295615226E-2   -4.949603514186570E-1   -1.343744834352695E-1
 6.501165279000000E9    -4.359940523416110E-1   -2.948998993947495E-1   -1.491439334882835E-2    3.285509007957520E-2   -1.297163562903423E-2    3.274717695364395E-2   -4.952394895411626E-1   -1.331622918660354E-1
 6.501177177000000E9    -4.364991036304793E-1   -2.941107894902116E-1   -1.484779669812411E-2    3.303415741003329E-2   -1.296477342295734E-2    3.294398654077448E-2   -4.954149833369156E-1   -1.320376034436656E-1
 6.501189075000000E9    -4.370738389670245E-1   -2.932915695264537E-1   -1.484823554508841E-2    3.302872819322951E-2   -1.300493483213181E-2    3.317612345325577E-2   -4.957680995517167E-1   -1.309179304330297E-1
 6.501200973000000E9    -4.375344177212682E-1   -2.923462322377346E-1   -1.475504709154123E-2    3.329504453354748E-2   -1.294723045035259E-2    3.340334031805420E-2   -4.958800090110128E-1   -1.297070135326863E-1
 6.501212871000000E9    -4.381336456464549E-1   -2.916023128186654E-1   -1.480510219369641E-2    3.361665133984072E-2   -1.295134437277519E-2    3.358383098841845E-2   -4.960997611501450E-1   -1.285568738524072E-1
 6.501224769000000E9    -4.386745944028719E-1   -2.906966149765061E-1   -1.475550144018759E-2    3.374449552230640E-2   -1.293558058136864E-2    3.378787509341988E-2   -4.964624265514551E-1   -1.273530179977016E-1
 6.501236667000000E9    -4.392152773650395E-1   -2.898323688474162E-1   -1.480456005833015E-2    3.402879506647194E-2   -1.288291079151571E-2    3.395351421450964E-2   -4.965919527736330E-1   -1.262489758613524E-1
 6.501248565000000E9    -4.396772260945828E-1   -2.890740539674085E-1   -1.482254077620198E-2    3.412997003021036E-2   -1.292448120034731E-2    3.406329601721597E-2   -4.967817843722419E-1   -1.248364989746743E-1
 6.501260463000000E9    -4.402848280972078E-1   -2.881482894409652E-1   -1.488068037647221E-2    3.438579541505155E-2   -1.285642756806947E-2    3.429816780458849E-2   -4.970638266056462E-1   -1.238157172499831E-1
 6.501272361000000E9    -4.408301336736068E-1   -2.873343167968118E-1   -1.482636244451782E-2    3.468924306216199E-2   -1.285959057803146E-2    3.469505131067198E-2   -4.973278739737030E-1   -1.227077251509144E-1
 6.501284259000000E9    -4.413462505231814E-1   -2.863824572673491E-1   -1.470164041023726E-2    3.477312475935918E-2   -1.285810427831173E-2    3.468811010438107E-2   -4.976018156771904E-1   -1.213391066582512E-1
 6.501296157000000E9    -4.418061982282932E-1   -2.855372928815124E-1   -1.487381908106358E-2    3.502444302053364E-2   -1.295408305374332E-2    3.502162484808995E-2   -4.978162078379310E-1   -1.201372381415758E-1
 6.501308055000000E9    -4.423572339562273E-1   -2.848061987931515E-1   -1.468745214173165E-2    3.528069186326779E-2   -1.288277426947431E-2    3.516554979029285E-2   -4.979944616637584E-1   -1.189767760157414E-1
 6.501319953000000E9    -4.428155783618726E-1   -2.839006141476068E-1   -1.474187978841436E-2    3.540527674667823E-2   -1.291142908974260E-2    3.547543794748504E-2   -4.981982673131949E-1   -1.179105675029327E-1
 6.501331851000000E9    -4.434385120225107E-1   -2.831077109061053E-1   -1.478072539407174E-2    3.571033861404375E-2   -1.285152264815590E-2    3.566677037432062E-2   -4.983921811882317E-1   -1.166794707926695E-1
 6.501343749000000E9    -4.439400480023322E-1   -2.822443723462976E-1   -1.478350701486785E-2    3.600631065776993E-2   -1.288940647166500E-2    3.575219840647928E-2   -4.986413371818016E-1   -1.153611772661808E-1
 6.501355647000000E9    -4.444415498314195E-1   -2.813210968870968E-1   -1.475869292126048E-2    3.621021492239884E-2   -1.280177681777882E-2    3.610075594486929E-2   -4.987666774716153E-1   -1.140522458791226E-1
 6.501367545000000E9    -4.449413391795223E-1   -2.803715613090688E-1   -1.482155955099381E-2    3.637003442880381E-2   -1.282589898444950E-2    3.636753282450297E-2   -4.988978868547129E-1   -1.128543925827600E-1
 6.501379443000000E9    -4.454515742423604E-1   -2.795196239464630E-1   -1.471012842721580E-2    3.658953725565264E-2   -1.281535232034302E-2    3.656169008490696E-2   -4.991987480497053E-1   -1.116565876582322E-1
 6.501391341000000E9    -4.460491337815274E-1   -2.786805810807886E-1   -1.480853861428759E-2    3.692353604107314E-2   -1.275142107746440E-2    3.674780857875194E-2   -4.995002179677241E-1   -1.102754882874765E-1
 6.501403239000000E9    -4.464820883277891E-1   -2.778828361908681E-1   -1.460725531644811E-2    3.717357365368241E-2   -1.272308396604444E-2    3.700599831639716E-2   -4.995652530639941E-1   -1.092026601652367E-1
 6.501415137000000E9    -4.469968260027875E-1   -2.769522184841454E-1   -1.471498068669797E-2    3.735599173914292E-2   -1.268848720357792E-2    3.728717720744763E-2   -4.997439089220305E-1   -1.080173244988495E-1
 6.501427035000000E9    -4.474485048541506E-1   -2.761357773005397E-1   -1.474507027012512E-2    3.752234298046892E-2   -1.273346248259343E-2    3.746256068017799E-2   -4.998384652658547E-1   -1.067352167393438E-1
 6.501438933000000E9    -4.478586277832344E-1   -2.752040528531615E-1   -1.471707613232381E-2    3.787634397351797E-2   -1.269405803537606E-2    3.763434545055934E-2   -5.002383719248914E-1   -1.054380843837462E-1
 6.501450831000000E9    -4.484373703068559E-1   -2.743652286075091E-1   -1.475414542070368E-2    3.815092105650574E-2   -1.268615174783136E-2    3.799062357696562E-2   -5.003751301116837E-1   -1.041329895803571E-1
 6.501462729000000E9    -4.490263433039556E-1   -2.735198287033132E-1   -1.473418784325085E-2    3.823858314920618E-2   -1.272806155010663E-2    3.817226637158096E-2   -5.005647932722699E-1   -1.027857024453157E-1
 6.501474627000000E9    -4.494679057018718E-1   -2.724845202269842E-1   -1.463892383439218E-2    3.859969079744127E-2   -1.272396968963416E-2    3.839827231263004E-2   -5.006457513933786E-1   -1.017088224161683E-1
 6.501486525000000E9    -4.500830728400489E-1   -2.716641629879783E-1   -1.473941098569746E-2    3.891788755815526E-2   -1.264595936837323E-2    3.871535428643849E-2   -5.008227235243400E-1   -1.002540418134122E-1
 6.501498423000000E9    -4.504271269671931E-1   -2.706768513704051E-1   -1.475918021251371E-2    3.914648409971901E-2   -1.269267201882950E-2    3.879876789709793E-2   -5.010020927053687E-1   -9.899930715914729E-2
 6.501510321000000E9    -4.509192023368921E-1   -2.698303123574399E-1   -1.469685947705002E-2    3.942800396096391E-2   -1.265369884076616E-2    3.916798617125027E-2   -5.011920113075838E-1   -9.771324382324389E-2
 6.501522219000000E9    -4.515020867200302E-1   -2.689555597070550E-1   -1.463736342479918E-2    3.961307768986114E-2   -1.265836137267595E-2    3.944567724546413E-2   -5.014070397413329E-1   -9.644304325834203E-2
 6.501534117000000E9    -4.520297803836672E-1   -2.680401565134549E-1   -1.459559943505212E-2    3.979741309950530E-2   -1.253693732177409E-2    3.969079955587492E-2   -5.016346545840239E-1   -9.522841968066581E-2
 6.501546015000000E9    -4.524790611933553E-1   -2.671406000392152E-1   -1.464439187080176E-2    4.019107806889802E-2   -1.254118263781746E-2    3.984611035027096E-2   -5.016121597010733E-1   -9.388549836040580E-2
 6.501557913000000E9    -4.529480074220111E-1   -2.661675568215616E-1   -1.465033054252598E-2    4.052014181682927E-2   -1.249101064261134E-2    4.021953197119892E-2   -5.018272482664707E-1   -9.259709309907008E-2
 6.501569811000000E9    -4.533816278210666E-1   -2.653548391358443E-1   -1.463387390104021E-2    4.066377631258936E-2   -1.250941178150713E-2    4.053664786019229E-2   -5.019931037090980E-1   -9.128206642411162E-2
 6.501581709000000E9    -4.539432729943760E-1   -2.644256510392540E-1   -1.468605751526406E-2    4.098360738274442E-2   -1.241365509125583E-2    4.071411743891270E-2   -5.021940275147302E-1   -8.987284494874886E-2
 6.501593607000000E9    -4.544392168436366E-1   -2.635463435792645E-1   -1.459267255905012E-2    4.135625017634885E-2   -1.244228647228712E-2    4.111172963408272E-2   -5.021557048674903E-1   -8.852054733738129E-2
 6.501605505000000E9    -4.548874428455369E-1   -2.626572562705754E-1   -1.462925898195035E-2    4.164643596501854E-2   -1.245458093388573E-2    4.134635766734569E-2   -5.023736787470798E-1   -8.723896427216891E-2
 6.501617403000000E9    -4.553300544746181E-1   -2.616899964963342E-1   -1.448521482887413E-2    4.189211492550660E-2   -1.235651167863879E-2    4.158849623178706E-2   -5.024201029160491E-1   -8.593705099620659E-2
 6.501629301000000E9    -4.559395154856000E-1   -2.607961679161615E-1   -1.452704862975441E-2    4.218020652434767E-2   -1.230294169621637E-2    4.192227349393095E-2   -5.026755343367278E-1   -8.455356153300994E-2
 6.501641199000000E9    -4.563698309201129E-1   -2.599176829187976E-1   -1.466099567252515E-2    4.239444394341908E-2   -1.230382008760485E-2    4.213937908848563E-2   -5.028192763101303E-1   -8.329108612241946E-2
 6.501653097000000E9    -4.568068475921451E-1   -2.590321694700417E-1   -1.452559234590668E-2    4.281881761410035E-2   -1.229193800191441E-2    4.248316439560358E-2   -5.028306882853008E-1   -8.183889596609160E-2
 6.501664995000000E9    -4.573049848191459E-1   -2.579503816947747E-1   -1.447516554719687E-2    4.316886508944882E-2   -1.238145795513100E-2    4.279827254039294E-2   -5.030128229786274E-1   -8.049081063009889E-2
 6.501676893000000E9    -4.578022458494258E-1   -2.570095765214800E-1   -1.445767665881654E-2    4.323542405811305E-2   -1.221623313895065E-2    4.308883240095211E-2   -5.033918960816157E-1   -7.910389899196528E-2
 6.501688791000000E9    -4.582552932466990E-1   -2.560922958490859E-1   -1.447409694189729E-2    4.367464988175750E-2   -1.220470245547461E-2    4.336702998171402E-2   -5.032500597130962E-1   -7.768485223666814E-2
 6.501700689000000E9    -4.587018663194549E-1   -2.552002199579692E-1   -1.442807799609678E-2    4.398274363330740E-2   -1.217763915194772E-2    4.368532025316257E-2   -5.033551734254464E-1   -7.624251783098178E-2
 6.501712587000000E9    -4.592022361784243E-1   -2.543444534329714E-1   -1.433927305968248E-2    4.419933380315126E-2   -1.216549954000549E-2    4.400427003188693E-2   -5.033825394894503E-1   -7.496506442765266E-2
 6.501724485000000E9    -4.596393610469464E-1   -2.532573166920232E-1   -1.437421356101050E-2    4.454339559818750E-2   -1.216035224951376E-2    4.424723417073981E-2   -5.036550689223704E-1   -7.352958279258090E-2
 6.501736383000000E9    -4.602077950523472E-1   -2.524127866251221E-1   -1.437751734148694E-2    4.505591024179793E-2   -1.211505911476743E-2    4.463378525675554E-2   -5.036512198258172E-1   -7.204237516750653E-2
 6.501748281000000E9    -4.607206457500677E-1   -2.515106560177827E-1   -1.441587151363972E-2    4.536047875525842E-2   -1.203156451340642E-2    4.490461740884320E-2   -5.038518863001145E-1   -7.076815554023072E-2
 6.501760179000000E9    -4.611294783728492E-1   -2.504906642572056E-1   -1.440814969351212E-2    4.569676031216437E-2   -1.205532872548951E-2    4.526308124362120E-2   -5.038204095445812E-1   -6.926619630645967E-2
 6.501772077000000E9    -4.616128806097941E-1   -2.494955851027637E-1   -1.415474727349294E-2    4.591088244983479E-2   -1.199819461821887E-2    4.561574705254581E-2   -5.039262950274068E-1   -6.786573129609133E-2
 6.501783975000000E9    -4.620492947739875E-1   -2.485086904031532E-1   -1.419718038383538E-2    4.644901097997815E-2   -1.193529139907831E-2    4.589132823835182E-2   -5.039321391527478E-1   -6.634095337674206E-2
 6.501795873000000E9    -4.625394409805288E-1   -2.475314993274016E-1   -1.428473488334699E-2    4.666500122436349E-2   -1.184650707315712E-2    4.620194851667741E-2   -5.040987741774506E-1   -6.486484431365619E-2
 6.501807771000000E9    -4.629300491809989E-1   -2.466933711188536E-1   -1.432029059266983E-2    4.707494929209134E-2   -1.189532595005905E-2    4.658643515755288E-2   -5.040950877649170E-1   -6.338442543317023E-2
 6.501819669000000E9    -4.633882586386899E-1   -2.455880125662993E-1   -1.422582539492785E-2    4.735938970610092E-2   -1.178215391075788E-2    4.703554537541662E-2   -5.040445243409692E-1   -6.213094656892612E-2
 6.501831567000000E9    -4.640070482617621E-1   -2.447125927003345E-1   -1.416898910266979E-2    4.778491962181835E-2   -1.174027482115186E-2    4.733273090728068E-2   -5.042775301450725E-1   -6.063317892190406E-2
 6.501843465000000E9    -4.642737315014722E-1   -2.437515203041884E-1   -1.405174760530598E-2    4.814160665566939E-2   -1.177008590390116E-2    4.768845968437273E-2   -5.042252089254708E-1   -5.920198372882299E-2
 6.501855363000000E9    -4.647567237189682E-1   -2.427579184568458E-1   -1.408705949850560E-2    4.856991237085865E-2   -1.163125105510823E-2    4.810623489598546E-2   -5.042424407283854E-1   -5.763080779264360E-2
 6.501867261000000E9    -4.652866629901223E-1   -2.417650617923503E-1   -1.405452773397611E-2    4.888277665040518E-2   -1.164104419128805E-2    4.840627025736347E-2   -5.044287516839677E-1   -5.619937431923794E-2
 6.501879159000000E9    -4.657670853337275E-1   -2.408405336958798E-1   -1.404702388424684E-2    4.927448007867930E-2   -1.164466915867271E-2    4.880864806711530E-2   -5.042853816918359E-1   -5.451694944505048E-2
 6.501891057000000E9    -4.660974283852349E-1   -2.397965034511829E-1   -1.397459676646696E-2    4.961613988899586E-2   -1.158210524799584E-2    4.919006442943078E-2   -5.043570016537396E-1   -5.324930939388422E-2
 6.501902955000000E9    -4.666126644737938E-1   -2.387810717926857E-1   -1.394218450850863E-2    5.000290202941326E-2   -1.143023127693118E-2    4.951651205367945E-2   -5.044486441010694E-1   -5.168993477661486E-2
 6.501914853000000E9    -4.670220745518178E-1   -2.377500323428867E-1   -1.401590599993327E-2    5.051508425993166E-2   -1.142898708582116E-2    4.988079098157611E-2   -5.045423025924282E-1   -5.012292527733608E-2
 6.501926751000000E9    -4.674283981369541E-1   -2.368157932039032E-1   -1.382699800931016E-2    5.086677594857869E-2   -1.144457424221220E-2    5.033880903494123E-2   -5.045256585075196E-1   -4.860200508455662E-2
 6.501938649000000E9    -4.679269358842124E-1   -2.358206047012816E-1   -1.385695255371904E-2    5.135487241825543E-2   -1.144489895413994E-2    5.071464885358564E-2   -5.044479190983276E-1   -4.702504733575531E-2
 6.501950547000000E9    -4.683705686055119E-1   -2.347777302710134E-1   -1.377757864714361E-2    5.184982262982418E-2   -1.127434205511450E-2    5.114525782849454E-2   -5.044878410899577E-1   -4.547923288096903E-2
 6.501962445000000E9    -4.687319576996859E-1   -2.338447384952670E-1   -1.378906402912376E-2    5.207083259274693E-2   -1.122477588373125E-2    5.152901045540243E-2   -5.044183722778328E-1   -4.378179531643534E-2
 6.501974343000000E9    -4.692086990047866E-1   -2.328462348939748E-1   -1.367272435881751E-2    5.255135095846045E-2   -1.114859849842754E-2    5.194996062165757E-2   -5.046136104561396E-1   -4.222962660745289E-2
 6.501986241000000E9    -4.696063399048730E-1   -2.317365223697350E-1   -1.355919205708888E-2    5.293811196146050E-2   -1.108066165659602E-2    5.238070325124787E-2   -5.044033234935982E-1   -4.060807906581648E-2
 6.501998139000000E9    -4.700198349439162E-1   -2.307149281818632E-1   -1.352031394175111E-2    5.340137555046721E-2   -1.087833623723905E-2    5.286153468564253E-2   -5.044155654471162E-1   -3.903595186265447E-2
 6.502010037000000E9    -4.705742686241081E-1   -2.297177654264844E-1   -1.353461834117663E-2    5.385093923492031E-2   -1.094583329933083E-2    5.322396977568970E-2   -5.045180293196934E-1   -3.751425725143020E-2
 6.502021935000000E9    -4.709632497614010E-1   -2.287512958403356E-1   -1.356122648904237E-2    5.432191255968719E-2   -1.090027037917729E-2    5.362397532536243E-2   -5.043692028640927E-1   -3.583673137053566E-2
 6.502033833000000E9    -4.713963147350384E-1   -2.276559917178869E-1   -1.345626853047891E-2    5.495199653451383E-2   -1.075590896937084E-2    5.416444636609578E-2   -5.044060876295949E-1   -3.423725727000932E-2
 6.502045731000000E9    -4.717207276449454E-1   -2.266049450430706E-1   -1.330138110463686E-2    5.521107259487193E-2   -1.068950538010486E-2    5.460203750947536E-2   -5.042679816095075E-1   -3.247511474929173E-2
 6.502057629000000E9    -4.722251584276541E-1   -2.255194422600174E-1   -1.322581051776376E-2    5.583513474369417E-2   -1.059108272368850E-2    5.509360112284388E-2   -5.041956625941441E-1   -3.086381769390126E-2
 6.502069527000000E9    -4.727532338396904E-1   -2.244734845960322E-1   -1.329476166147713E-2    5.629020632355287E-2   -1.056598288378130E-2    5.551266677147283E-2   -5.040723919713644E-1   -2.906854245649306E-2
 6.502081425000000E9    -4.729755631633690E-1   -2.233784225313991E-1   -1.331424990802606E-2    5.677049356878738E-2   -1.051830019761289E-2    5.596885290768502E-2   -5.040977221405059E-1   -2.748559002890819E-2
 6.502093323000000E9    -4.734298031046380E-1   -2.224345290235940E-1   -1.320146686304539E-2    5.712591527473197E-2   -1.034990686028405E-2    5.646740455362986E-2   -5.040104524449941E-1   -2.583179210657186E-2
 6.502105221000000E9    -4.738118169491482E-1   -2.213718315862859E-1   -1.302092690835798E-2    5.764217200994484E-2   -1.020873509321097E-2    5.702190921899666E-2   -5.038947664301522E-1   -2.408904276216692E-2
 6.502117119000000E9    -4.743102706378861E-1   -2.202679367407588E-1   -1.288390007980760E-2    5.821839634435429E-2   -1.020967333403788E-2    5.744402108228853E-2   -5.038240414684323E-1   -2.235465943314260E-2
 6.502129017000000E9    -4.747716491585485E-1   -2.191981546427812E-1   -1.283354646459342E-2    5.874240461048041E-2   -1.012324713056218E-2    5.794270890418673E-2   -5.037025807406361E-1   -2.067296248355263E-2
 6.502140915000000E9    -4.751144935007675E-1   -2.181571752562908E-1   -1.280461035515936E-2    5.932192227234863E-2   -1.002381604597927E-2    5.844100876203769E-2   -5.035374136727623E-1   -1.885848904682423E-2
 6.502152813000000E9    -4.755034229157440E-1   -2.169707961503555E-1   -1.279132417368275E-2    5.998709104687761E-2   -9.817572792579868E-3    5.898257199040351E-2   -5.035019537895719E-1   -1.727603952012867E-2
 6.502164711000000E9    -4.759925366154653E-1   -2.159726197267957E-1   -1.259065519391719E-2    6.040467331674136E-2   -9.759365122207177E-3    5.958300579320623E-2   -5.033352119660232E-1   -1.540480858297771E-2
 6.502176609000000E9    -4.762333468551641E-1   -2.147833436660720E-1   -1.259510943707390E-2    6.095547946823419E-2   -9.815378920706446E-3    6.013596479897333E-2   -5.031081023040013E-1   -1.358470386732868E-2
 6.502188507000000E9    -4.766074152772933E-1   -2.138420475087782E-1   -1.244524383943489E-2    6.147025539128582E-2   -9.629279196208552E-3    6.068186957385936E-2   -5.030609178413621E-1   -1.180310039680755E-2
 6.502200405000000E9    -4.769818285785184E-1   -2.126337133735427E-1   -1.239414314991697E-2    6.218311380842860E-2   -9.493262381701267E-3    6.111321025432326E-2   -5.029229651756160E-1   -9.933052936085483E-3
