#  HZ   S   RI   R     50.00 
! Rohde & Schwarz Vector Network Analyzer 
! Rohde-Schwarz,ZNB20-2Port,1311601062101988,3.16
! Created: UTC 3/20/2024, 12:06:43 PM
! freq[Hz]                re:S11                  im:S11                  re:S21                  im:S21                  re:S12                  im:S12                  re:S22                  im:S22
 6.501203349000000E9    -4.387631621452125E-1   -2.897005164975662E-1   -1.463264855332582E-2    3.247106559215602E-2   -1.261805005639203E-2    3.262358441336997E-2   -4.959368206898216E-1   -1.325967762071517E-1
 6.501215135150000E9    -4.393039760007200E-1   -2.889430188002220E-1   -1.464614743943165E-2    3.282301316085800E-2   -1.268403194021599E-2    3.287013884388371E-2   -4.961786013471104E-1   -1.316607385979886E-1
 6.501226921300000E9    -4.398208345117581E-1   -2.880369689670614E-1   -1.466475678063219E-2    3.299908952217985E-2   -1.262436654627973E-2    3.300285404225610E-2   -4.964274173716726E-1   -1.303265787119055E-1
 6.501238707450000E9    -4.403402646348037E-1   -2.872694712135306E-1   -1.456298228727052E-2    3.303122532156120E-2   -1.263787388854611E-2    3.322338947830918E-2   -4.966217714009775E-1   -1.292912080815109E-1
 6.501250493600000E9    -4.408715460824291E-1   -2.864460878858309E-1   -1.465088495282992E-2    3.340782886217465E-2   -1.258691248720599E-2    3.346114421423153E-2   -4.968371153765573E-1   -1.280553678060886E-1
 6.501262279750000E9    -4.413469134489240E-1   -2.856006349633197E-1   -1.455171085336627E-2    3.359266291392875E-2   -1.255079981761644E-2    3.363804982225079E-2   -4.970744502623813E-1   -1.269591146950762E-1
 6.501274065900000E9    -4.418165513253470E-1   -2.846612418777640E-1   -1.460887934578633E-2    3.378687882520930E-2   -1.256351971364373E-2    3.384189513526770E-2   -4.973590518318358E-1   -1.258033843472049E-1
 6.501285852050000E9    -4.423139402845695E-1   -2.838407360543924E-1   -1.447562564867620E-2    3.401964127784378E-2   -1.253449606827446E-2    3.401254229539655E-2   -4.975180060638563E-1   -1.246519779262380E-1
 6.501297638200000E9    -4.428619321655044E-1   -2.830436110634773E-1   -1.477704349779640E-2    3.410967835191705E-2   -1.250410509751851E-2    3.415389283354254E-2   -4.977190675584768E-1   -1.234928817195097E-1
 6.501309424350000E9    -4.434556839341010E-1   -2.821729449352332E-1   -1.469589915386227E-2    3.429741360605897E-2   -1.251282805211898E-2    3.450308238502756E-2   -4.980114012541835E-1   -1.222333249947370E-1
 6.501321210500000E9    -4.439695675083709E-1   -2.813183062329874E-1   -1.470651388815290E-2    3.462901001036232E-2   -1.248588492406667E-2    3.457536896064938E-2   -4.983439778401298E-1   -1.211615244473464E-1
 6.501332996650000E9    -4.443243466657972E-1   -2.804441471130322E-1   -1.455624450503678E-2    3.476022625952347E-2   -1.248746228485864E-2    3.490226695486377E-2   -4.984758597714404E-1   -1.198650137204870E-1
 6.501344782800000E9    -4.449531703636605E-1   -2.796472074426091E-1   -1.479330772014154E-2    3.486050207075129E-2   -1.255090608980389E-2    3.499177058336925E-2   -4.987570148924417E-1   -1.186375225195401E-1
 6.501356568950000E9    -4.453978467158087E-1   -2.788304250476859E-1   -1.464564397551609E-2    3.521349288005354E-2   -1.240501851290048E-2    3.518702711202234E-2   -4.989973125629489E-1   -1.175859464417803E-1
 6.501368355100000E9    -4.459314999239589E-1   -2.779796316795541E-1   -1.452997088698846E-2    3.547673641863677E-2   -1.246548405535973E-2    3.543671592531916E-2   -4.991202225120268E-1   -1.162371896618578E-1
 6.501380141250000E9    -4.463467377235587E-1   -2.770920200115082E-1   -1.462035503639524E-2    3.565730790263586E-2   -1.247227849579457E-2    3.569748834064748E-2   -4.993524793466476E-1   -1.150646596805166E-1
 6.501391927400000E9    -4.469569904784372E-1   -2.761644871873175E-1   -1.461648599092760E-2    3.595961043806729E-2   -1.248236317526147E-2    3.586811190637067E-2   -4.995467240440515E-1   -1.138407807368108E-1
 6.501403713550000E9    -4.474043805201365E-1   -2.752352210129133E-1   -1.460635751494764E-2    3.620691715510532E-2   -1.244548005517436E-2    3.610684685426319E-2   -4.996647280062091E-1   -1.125793170903874E-1
 6.501415499700000E9    -4.478964052667467E-1   -2.745285989038811E-1   -1.463931047380214E-2    3.636623413349165E-2   -1.233113623324470E-2    3.630547022091032E-2   -4.998404585183440E-1   -1.113954407518802E-1
 6.501427285850000E9    -4.484002967044473E-1   -2.736099445544902E-1   -1.456416174409763E-2    3.651828455130448E-2   -1.236013718808641E-2    3.654824604800367E-2   -5.001478475169805E-1   -1.102174038470838E-1
 6.501439072000000E9    -4.489560240659868E-1   -2.727756848740677E-1   -1.462865010650675E-2    3.692783530612063E-2   -1.241702585090162E-2    3.675883403298174E-2   -5.002289490887392E-1   -1.090009149919274E-1
 6.501450858150000E9    -4.494463555685146E-1   -2.719039762976999E-1   -1.450443718188577E-2    3.701760143341225E-2   -1.247327464217259E-2    3.696959055039435E-2   -5.003946249229760E-1   -1.076033542822366E-1
 6.501462644300000E9    -4.499535746818377E-1   -2.711091585681581E-1   -1.459976171729395E-2    3.731793966582420E-2   -1.248803726921159E-2    3.718189200763972E-2   -5.006607310310707E-1   -1.064744673927878E-1
 6.501474430450000E9    -4.504502019078000E-1   -2.701542358319851E-1   -1.451310357351293E-2    3.772383974446232E-2   -1.231105075438328E-2    3.748224558160394E-2   -5.009540044489940E-1   -1.053357514445257E-1
 6.501486216600000E9    -4.508680103304301E-1   -2.691995515655748E-1   -1.460699560769748E-2    3.776723680018294E-2   -1.235294117316529E-2    3.766838403319390E-2   -5.009417115982494E-1   -1.039748775688022E-1
 6.501498002750000E9    -4.514265218284461E-1   -2.684055949995346E-1   -1.457757795896010E-2    3.796394992630428E-2   -1.232546044837380E-2    3.793820826369383E-2   -5.013060664315191E-1   -1.027146887062251E-1
 6.501509788900000E9    -4.518997095452786E-1   -2.675403009614309E-1   -1.458823478450735E-2    3.822099616487900E-2   -1.225792304776232E-2    3.820945602210429E-2   -5.013986852706036E-1   -1.015072390023602E-1
 6.501521575050000E9    -4.523391759839966E-1   -2.667176150450572E-1   -1.454841500093953E-2    3.855052196105068E-2   -1.218261033517287E-2    3.841774232052517E-2   -5.014248246550346E-1   -1.003550131202284E-1
 6.501533361200000E9    -4.529358103383661E-1   -2.658019374443435E-1   -1.461825814048729E-2    3.877942739823485E-2   -1.221785528712203E-2    3.862763140881251E-2   -5.017373151707983E-1   -9.902355884102605E-2
 6.501545147350000E9    -4.532390247744006E-1   -2.648673990619598E-1   -1.448979489046525E-2    3.906498687868288E-2   -1.223187929835877E-2    3.889808212532773E-2   -5.018880905533424E-1   -9.775703991037625E-2
 6.501556933500000E9    -4.538486561630878E-1   -2.639085534577363E-1   -1.446101947844104E-2    3.930566513871159E-2   -1.218536727504379E-2    3.913113566118158E-2   -5.020705171618264E-1   -9.650853721210365E-2
 6.501568719650000E9    -4.543408983931690E-1   -2.630687481556697E-1   -1.455313747405755E-2    3.960430077045470E-2   -1.214129793913864E-2    3.949138181438634E-2   -5.022087522877131E-1   -9.501329716657288E-2
 6.501580505800000E9    -4.548135177612755E-1   -2.621516921737737E-1   -1.449288378168427E-2    3.990376403658231E-2   -1.222083359643942E-2    3.964868449500721E-2   -5.023754808924603E-1   -9.382786182806474E-2
 6.501592291950000E9    -4.552809992345216E-1   -2.612976304070911E-1   -1.437414594942454E-2    4.009419820128813E-2   -1.209878413977992E-2    3.982807795099133E-2   -5.024803225786107E-1   -9.255756397071070E-2
 6.501604078100000E9    -4.557243727705809E-1   -2.604072450522755E-1   -1.439349709774644E-2    4.031935500106129E-2   -1.211303685657579E-2    4.016835211240025E-2   -5.027164518128290E-1   -9.116731932485318E-2
 6.501615864250000E9    -4.561975546127129E-1   -2.594430985495624E-1   -1.446421611492152E-2    4.070486021682072E-2   -1.211671781175731E-2    4.044324039660729E-2   -5.027106373504147E-1   -8.993786152507023E-2
 6.501627650400000E9    -4.566399516763034E-1   -2.585419625091330E-1   -1.442868007087928E-2    4.089681674423754E-2   -1.213734732457403E-2    4.066014717493315E-2   -5.028339258488272E-1   -8.864991269204500E-2
 6.501639436550000E9    -4.571992353811652E-1   -2.576957790120243E-1   -1.431013755796927E-2    4.113454489520575E-2   -1.204935870510954E-2    4.096498859246093E-2   -5.030559481887106E-1   -8.721591696890588E-2
 6.501651222700000E9    -4.576134767678969E-1   -2.567881828063234E-1   -1.438318472003838E-2    4.154121950654012E-2   -1.198420442861956E-2    4.124261653564076E-2   -5.032149089238575E-1   -8.602108530351230E-2
 6.501663008850000E9    -4.579508930802378E-1   -2.558112009699292E-1   -1.439774139968447E-2    4.184122476651587E-2   -1.201832053382935E-2    4.146032700533259E-2   -5.032947062183039E-1   -8.463984581453378E-2
 6.501674795000000E9    -4.585586782368757E-1   -2.549284942754580E-1   -1.444581436557259E-2    4.205931083579671E-2   -1.194062958549014E-2    4.185600049506808E-2   -5.035240079776275E-1   -8.345140693134583E-2
 6.501686581150000E9    -4.590218708205327E-1   -2.539536470218119E-1   -1.444469649088420E-2    4.232146103252560E-2   -1.193127181768858E-2    4.212326763066824E-2   -5.036301388421075E-1   -8.222737894006583E-2
 6.501698367300000E9    -4.594708110429225E-1   -2.531162661002558E-1   -1.440682000606760E-2    4.262358921108977E-2   -1.193742712488399E-2    4.241597014156474E-2   -5.036967977659526E-1   -8.072908339162695E-2
 6.501710153450000E9    -4.600881030464347E-1   -2.521359360518490E-1   -1.434962710133741E-2    4.300890879287138E-2   -1.185221438062232E-2    4.266517238473321E-2   -5.038300897565591E-1   -7.948420894865092E-2
 6.501721939600000E9    -4.604923246787131E-1   -2.512401201152858E-1   -1.428779320434025E-2    4.320603854116351E-2   -1.184557670471667E-2    4.301233429904466E-2   -5.039734917872569E-1   -7.801753067621192E-2
 6.501733725750000E9    -4.608834140274685E-1   -2.502249647672903E-1   -1.434189541395257E-2    4.353978260035871E-2   -1.179243799253211E-2    4.323916436432453E-2   -5.040692716626686E-1   -7.665849575780917E-2
 6.501745511900000E9    -4.613485109613282E-1   -2.494002697949163E-1   -1.427080075240561E-2    4.392756061331070E-2   -1.169015889836427E-2    4.350255912308258E-2   -5.040787074725837E-1   -7.527813652171952E-2
 6.501757298050000E9    -4.617326740728529E-1   -2.484834292312783E-1   -1.424258238937284E-2    4.423593814857448E-2   -1.178154304677512E-2    4.381148575972583E-2   -5.042503562094595E-1   -7.386609406742799E-2
 6.501769084200000E9    -4.622292440284538E-1   -2.475708124789864E-1   -1.427624682769320E-2    4.451636632045537E-2   -1.170600588521880E-2    4.418404903575122E-2   -5.043898750159741E-1   -7.248809114519052E-2
 6.501780870350000E9    -4.626789469284483E-1   -2.465965741165410E-1   -1.424630894080027E-2    4.489470892259845E-2   -1.163059482472393E-2    4.449205666986784E-2   -5.044024273956478E-1   -7.108445968473270E-2
 6.501792656500000E9    -4.631976018702152E-1   -2.456139327108628E-1   -1.416120131334562E-2    4.513255756134672E-2   -1.169830610040418E-2    4.478128460062312E-2   -5.044584539788619E-1   -6.972424785996104E-2
 6.501804442650000E9    -4.636324614486194E-1   -2.447124496189188E-1   -1.413106304489976E-2    4.542326566510293E-2   -1.162760689907114E-2    4.509226472646467E-2   -5.045543022689319E-1   -6.828178843488437E-2
 6.501816228800000E9    -4.640086144626367E-1   -2.437344801923914E-1   -1.406410874748386E-2    4.588814509248548E-2   -1.154135208493678E-2    4.551572378688738E-2   -5.046095508657812E-1   -6.698525981110405E-2
 6.501828014950000E9    -4.646189274005343E-1   -2.428466093560509E-1   -1.411151993184529E-2    4.620182485735769E-2   -1.145284355462767E-2    4.589122482625567E-2   -5.047812599541754E-1   -6.547972407560600E-2
 6.501839801100000E9    -4.649350971589583E-1   -2.419475820062718E-1   -1.411728879971231E-2    4.657768186419785E-2   -1.131463806185970E-2    4.618235239513243E-2   -5.048591585431750E-1   -6.418227256931351E-2
 6.501851587250000E9    -4.653833042564168E-1   -2.407659488476416E-1   -1.399463042586077E-2    4.687099025218480E-2   -1.130704745521371E-2    4.641310143059844E-2   -5.048481559761306E-1   -6.270312774736596E-2
 6.501863373400000E9    -4.657857801364581E-1   -2.399137625264184E-1   -1.416366456555722E-2    4.727513427434735E-2   -1.128309287180084E-2    4.678657557831772E-2   -5.048274675684514E-1   -6.115298350735796E-2
 6.501875159550000E9    -4.663658494121363E-1   -2.390483048066464E-1   -1.399792181683819E-2    4.750864047147421E-2   -1.137959237059197E-2    4.720219660939930E-2   -5.049811174920806E-1   -5.967681613034716E-2
 6.501886945700000E9    -4.667815783053410E-1   -2.379391187108345E-1   -1.396937165617920E-2    4.772433161653999E-2   -1.123924743875174E-2    4.755886113537124E-2   -5.050426149293803E-1   -5.835113959968257E-2
 6.501898731850000E9    -4.671074023743821E-1   -2.370411394256759E-1   -1.392971729587667E-2    4.832097713728312E-2   -1.112436687319614E-2    4.788617378972568E-2   -5.050755532856388E-1   -5.698074884742269E-2
 6.501910518000000E9    -4.676329984628148E-1   -2.360898597806308E-1   -1.393551595240555E-2    4.871545790202907E-2   -1.120244593938575E-2    4.815877192021674E-2   -5.051385746463802E-1   -5.539820348417646E-2
 6.501922304150000E9    -4.680254626537615E-1   -2.350420208292231E-1   -1.384292900738063E-2    4.901327286075931E-2   -1.103019214553600E-2    4.852399527667522E-2   -5.053292017783907E-1   -5.404061011922678E-2
 6.501934090300000E9    -4.684251900902636E-1   -2.340216447478412E-1   -1.365058135150923E-2    4.956051761780731E-2   -1.109622022134889E-2    4.905792914573200E-2   -5.050780292400419E-1   -5.232975637376507E-2
 6.501945876450000E9    -4.689037447847160E-1   -2.331517317444473E-1   -1.364453221088049E-2    4.985519672536619E-2   -1.104588622335317E-2    4.933014077566987E-2   -5.052347566598532E-1   -5.098505716210853E-2
 6.501957662600000E9    -4.692951726293617E-1   -2.320686174658383E-1   -1.373657065230128E-2    5.014500720016041E-2   -1.101106654883471E-2    4.973504538927394E-2   -5.051532980476028E-1   -4.936557120179871E-2
 6.501969448750000E9    -4.696918456469371E-1   -2.311137188589708E-1   -1.379271253189882E-2    5.061190207083006E-2   -1.093504578810897E-2    5.001306135059722E-2   -5.052131147264407E-1   -4.787717687186478E-2
 6.501981234900000E9    -4.702732397693060E-1   -2.300928030651977E-1   -1.375675545338967E-2    5.100202292539399E-2   -1.079674680588744E-2    5.046662969063460E-2   -5.053724863573577E-1   -4.637365730063975E-2
 6.501993021050000E9    -4.706428177705925E-1   -2.292627621104615E-1   -1.362957485626946E-2    5.143720580734102E-2   -1.087336763044883E-2    5.091399145158011E-2   -5.052268835732887E-1   -4.465259204415279E-2
 6.502004807200000E9    -4.710602082817756E-1   -2.281397304677430E-1   -1.354541933291596E-2    5.194291632254829E-2   -1.081779303252119E-2    5.125426500697398E-2   -5.051883192520654E-1   -4.342337415441604E-2
 6.502016593350000E9    -4.714047367589374E-1   -2.272051071410355E-1   -1.355560745422456E-2    5.218094615667456E-2   -1.071813394537235E-2    5.164752480005921E-2   -5.051661231232017E-1   -4.177235634095025E-2
 6.502028379500000E9    -4.719141100817033E-1   -2.261795667267325E-1   -1.332582786034800E-2    5.263458843250528E-2   -1.059643327622835E-2    5.207921778421385E-2   -5.052467047738157E-1   -4.012836560575737E-2
 6.502040165650000E9    -4.722733439242300E-1   -2.251612545502305E-1   -1.338564495604179E-2    5.296736501521889E-2   -1.055600579208119E-2    5.256747907695634E-2   -5.051190215011904E-1   -3.870228461638203E-2
 6.502051951800000E9    -4.726510979904711E-1   -2.240637176546974E-1   -1.341332068312749E-2    5.354365856815273E-2   -1.044907746823973E-2    5.280212576122913E-2   -5.050671460638559E-1   -3.709762351392121E-2
 6.502063737950000E9    -4.732327550586694E-1   -2.230553737169834E-1   -1.333891464675019E-2    5.393132342065339E-2   -1.042192050870402E-2    5.339225859544426E-2   -5.051792951467419E-1   -3.529009122374168E-2
 6.502075524100000E9    -4.736141432401992E-1   -2.220007576107726E-1   -1.332376778489921E-2    5.444360489314713E-2   -1.032867458398652E-2    5.377800418722340E-2   -5.051434185724735E-1   -3.371691520179138E-2
 6.502087310250000E9    -4.738862431998074E-1   -2.210239405869786E-1   -1.321266283027724E-2    5.489588127326802E-2   -1.023958395563948E-2    5.424981188202639E-2   -5.050253607282914E-1   -3.223834024972889E-2
 6.502099096400000E9    -4.744733297588378E-1   -2.199009985795650E-1   -1.318341766326374E-2    5.544729922624657E-2   -1.005506809466677E-2    5.469205496027627E-2   -5.049646841398531E-1   -3.057638122369007E-2
 6.502110882550000E9    -4.747031186948839E-1   -2.189104581537297E-1   -1.306174360091705E-2    5.588880661724820E-2   -9.995110745802513E-3    5.511698971635622E-2   -5.049412584035714E-1   -2.894183232402484E-2
 6.502122668700000E9    -4.750869921043799E-1   -2.179387544556452E-1   -1.299257671473921E-2    5.623589856333534E-2   -9.980360403453259E-3    5.560262302095431E-2   -5.048709388699441E-1   -2.709376108926219E-2
 6.502134454850000E9    -4.755603709787801E-1   -2.168907981787232E-1   -1.301881307985294E-2    5.682531663659639E-2   -9.875639333734075E-3    5.612444475613993E-2   -5.047065215543544E-1   -2.549556760102429E-2
 6.502146241000000E9    -4.759316704312016E-1   -2.157492258539072E-1   -1.289845596947912E-2    5.733638002738647E-2   -9.777844979276246E-3    5.650385271069165E-2   -5.047228974903544E-1   -2.389849252070025E-2
 6.502158027150000E9    -4.764209100520823E-1   -2.147448945907046E-1   -1.280977391450020E-2    5.786790700707632E-2   -9.735343348273917E-3    5.703275535030520E-2   -5.046929967510798E-1   -2.215150668753596E-2
 6.502169813300000E9    -4.767429318465118E-1   -2.136293433361807E-1   -1.272093594879738E-2    5.824586196126779E-2   -9.668729523521061E-3    5.757219379977713E-2   -5.044674447384785E-1   -2.049851825650487E-2
 6.502181599450000E9    -4.770811718676936E-1   -2.126125308438984E-1   -1.269238675021718E-2    5.888774999647800E-2   -9.529553667695622E-3    5.806750075945070E-2   -5.045203766090719E-1   -1.881817943653121E-2
 6.502193385600000E9    -4.775690710750061E-1   -2.116773896349860E-1   -1.269294294664503E-2    5.938144009170629E-2   -9.436651548297727E-3    5.852277521795721E-2   -5.042757627823367E-1   -1.703299495647422E-2
 6.502205171750000E9    -4.779526091760363E-1   -2.104754916863280E-1   -1.245424616730140E-2    5.982190483283015E-2   -9.277001861312174E-3    5.910260524160454E-2   -5.041570086206427E-1   -1.530520689704529E-2
 6.502216957900000E9    -4.782607660815358E-1   -2.093632679900509E-1   -1.239830224975563E-2    6.040829227679546E-2   -9.261737060227534E-3    5.963979632196850E-2   -5.039749318755428E-1   -1.353724156961181E-2
 6.502228744050000E9    -4.786434025300396E-1   -2.082813052854670E-1   -1.234561120444909E-2    6.103806236390987E-2   -9.162560537303750E-3    6.015668652750757E-2   -5.037959322263518E-1   -1.155830227544183E-2
 6.502240530200000E9    -4.790986656764178E-1   -2.071844164492816E-1   -1.217039356296632E-2    6.150601272659816E-2   -8.934612589810789E-3    6.061981758272147E-2   -5.037838739364374E-1   -9.861004395714612E-3
 6.502252316350000E9    -4.793861338790032E-1   -2.060574347325945E-1   -1.213962824094066E-2    6.218683979518850E-2   -8.897272448093263E-3    6.129119457324243E-2   -5.034889242807870E-1   -8.045915109386972E-3
 6.502264102500000E9    -4.797284498940631E-1   -2.050013001139403E-1   -1.188315267698216E-2    6.264350094217697E-2   -8.830538623393952E-3    6.181448117564083E-2   -5.034554805640167E-1   -6.395317404477320E-3
