#  HZ   S   RI   R     50.00 
! Rohde & Schwarz Vector Network Analyzer 
! Rohde-Schwarz,ZNB20-2Port,1311601062101988,3.16
! Created: UTC 3/20/2024, 11:39:33 AM
! freq[Hz]                re:S11                  im:S11                  re:S21                  im:S21                  re:S12                  im:S12                  re:S22                  im:S22
 6.501107579000000E9    -4.334361907443631E-1   -2.989467418723766E-1   -1.475626156616890E-2    3.206849442164283E-2   -1.306714457234315E-2    3.197600654798048E-2   -4.941852070270692E-1   -1.388113268092809E-1
 6.501119559775000E9    -4.340558333018944E-1   -2.982285170575292E-1   -1.472149880819834E-2    3.224442697662989E-2   -1.295230436666917E-2    3.216728373849651E-2   -4.942858100555373E-1   -1.374557938065002E-1
 6.501131540550000E9    -4.345413043764013E-1   -2.972279046219436E-1   -1.484465542356609E-2    3.220152764153651E-2   -1.305065441697286E-2    3.233669279744885E-2   -4.945993250988957E-1   -1.364462728542693E-1
 6.501143521325000E9    -4.350607031803805E-1   -2.962799972085624E-1   -1.476016456424899E-2    3.254633482984663E-2   -1.301693103835586E-2    3.250096637677475E-2   -4.948821437876540E-1   -1.353338977678175E-1
 6.501155502100000E9    -4.357221841390725E-1   -2.955816925739796E-1   -1.476110620828468E-2    3.274356796600718E-2   -1.300724107279947E-2    3.271830547713449E-2   -4.950463521569476E-1   -1.340948923002235E-1
 6.501167482875000E9    -4.361492662091411E-1   -2.946341270689324E-1   -1.492912822165557E-2    3.283752376027631E-2   -1.304990368442048E-2    3.287617807795779E-2   -4.953879710237364E-1   -1.328640368292156E-1
 6.501179463650000E9    -4.366822637602277E-1   -2.939282820017662E-1   -1.478041336028527E-2    3.308824214612961E-2   -1.307201900722222E-2    3.312227387279076E-2   -4.956022685157643E-1   -1.317250886618168E-1
 6.501191444425000E9    -4.372603205353032E-1   -2.930897253329963E-1   -1.486311542954070E-2    3.342973144405152E-2   -1.295262628345531E-2    3.333295916296550E-2   -4.957931573990236E-1   -1.304848453351818E-1
 6.501203425200000E9    -4.376472969033132E-1   -2.922531833506445E-1   -1.472734792566911E-2    3.354062016358571E-2   -1.305716708704921E-2    3.356471150145445E-2   -4.961725477418233E-1   -1.292483883216689E-1
 6.501215405975000E9    -4.383173178037632E-1   -2.913710306737136E-1   -1.480675122732737E-2    3.364227742451508E-2   -1.289740107500944E-2    3.382380479897453E-2   -4.963427510391262E-1   -1.281327724036516E-1
 6.501227386750000E9    -4.387686754747068E-1   -2.904058206270627E-1   -1.482748612816451E-2    3.390877414412523E-2   -1.287499429001450E-2    3.389822160591285E-2   -4.964956334096895E-1   -1.269896740275058E-1
 6.501239367525000E9    -4.393978721342930E-1   -2.896113957018958E-1   -1.474359447872029E-2    3.412301055292787E-2   -1.296070235639624E-2    3.410116781845518E-2   -4.967723055334179E-1   -1.257549822900263E-1
 6.501251348300000E9    -4.399375907574927E-1   -2.887712329331414E-1   -1.475781366014960E-2    3.425680545230939E-2   -1.295438928556417E-2    3.435152862466774E-2   -4.969731190296883E-1   -1.245294421399546E-1
 6.501263329075000E9    -4.404283065823886E-1   -2.879137679978827E-1   -1.464619669006307E-2    3.457231043875381E-2   -1.293579090318948E-2    3.454649875517941E-2   -4.971862622948396E-1   -1.233802579813914E-1
 6.501275309850000E9    -4.409570963635100E-1   -2.871057442706597E-1   -1.485334239995927E-2    3.480528639168375E-2   -1.295145776419565E-2    3.473064118641336E-2   -4.973595645080669E-1   -1.221430281525896E-1
 6.501287290625000E9    -4.414845692272547E-1   -2.862539749668464E-1   -1.479607647123705E-2    3.496795477889721E-2   -1.285045821373958E-2    3.490405747101953E-2   -4.977235302842333E-1   -1.209543032697010E-1
 6.501299271400000E9    -4.419699918285120E-1   -2.853745042245946E-1   -1.470986932253771E-2    3.527865002981439E-2   -1.297554059512452E-2    3.517742763382369E-2   -4.978171135992111E-1   -1.195979179716597E-1
 6.501311252175000E9    -4.424701677368514E-1   -2.843874916985081E-1   -1.478467748869289E-2    3.538829985505926E-2   -1.284492695125950E-2    3.542585865366473E-2   -4.980921598838287E-1   -1.184746233671979E-1
 6.501323232950000E9    -4.430267370069366E-1   -2.836909541894005E-1   -1.476413304081635E-2    3.560928087358627E-2   -1.284834765256554E-2    3.554512421777783E-2   -4.984515683805782E-1   -1.172717483476523E-1
 6.501335213725000E9    -4.436333806267090E-1   -2.827963655083192E-1   -1.485964486339337E-2    3.583050621345193E-2   -1.283763657160548E-2    3.583374612747393E-2   -4.985306886460871E-1   -1.159578313832956E-1
 6.501347194500000E9    -4.440102742154260E-1   -2.818912605638338E-1   -1.470866377394107E-2    3.619910864274201E-2   -1.276306890681353E-2    3.609865579659411E-2   -4.988247146475963E-1   -1.148441729323035E-1
 6.501359175275000E9    -4.446975910457480E-1   -2.809888063053299E-1   -1.467774043060883E-2    3.627779060399071E-2   -1.275316537738091E-2    3.621707420363580E-2   -4.989629719229678E-1   -1.135295913973746E-1
 6.501371156050000E9    -4.451118068988423E-1   -2.800982739570797E-1   -1.486910907434976E-2    3.660835432822056E-2   -1.280260018874307E-2    3.649444348495301E-2   -4.991776223366158E-1   -1.122215325513590E-1
 6.501383136825000E9    -4.457343629960993E-1   -2.792063635884631E-1   -1.468034335810528E-2    3.684462711562651E-2   -1.284701844093054E-2    3.665111771433435E-2   -4.993504378409932E-1   -1.110505177835752E-1
 6.501395117600000E9    -4.462007545722490E-1   -2.783912901045487E-1   -1.477802286632860E-2    3.696622854088411E-2   -1.278657720437805E-2    3.700591045678380E-2   -4.995440948037548E-1   -1.098407389491341E-1
 6.501407098375000E9    -4.466178376601044E-1   -2.775010528026892E-1   -1.479387136542481E-2    3.726750248753605E-2   -1.273953606284391E-2    3.720258863728598E-2   -4.997828371637721E-1   -1.086604008258694E-1
 6.501419079150000E9    -4.471016175430052E-1   -2.765982337845980E-1   -1.474316149503039E-2    3.763833083250793E-2   -1.274452413391716E-2    3.748866997781219E-2   -4.998364702131862E-1   -1.073094277068005E-1
 6.501431059925000E9    -4.476161680737288E-1   -2.757504624062748E-1   -1.463413591701466E-2    3.780756015067886E-2   -1.274630697269179E-2    3.763709802058056E-2   -4.999645532530517E-1   -1.060416230257188E-1
 6.501443040700000E9    -4.482534559962424E-1   -2.747450055749154E-1   -1.480619065090976E-2    3.800928314243532E-2   -1.279785014859374E-2    3.787186860647868E-2   -5.002506251150141E-1   -1.048340515160231E-1
 6.501455021475000E9    -4.486086496634852E-1   -2.738850130594036E-1   -1.466183776411877E-2    3.836677534957238E-2   -1.273328010875551E-2    3.816166636873498E-2   -5.004023155438224E-1   -1.035174692981213E-1
 6.501467002250000E9    -4.492596251010533E-1   -2.730407857611753E-1   -1.459598986272711E-2    3.851753478425175E-2   -1.283451271241208E-2    3.835846281747536E-2   -5.005875285771173E-1   -1.020825750692795E-1
 6.501478983025000E9    -4.496560458436452E-1   -2.722023840930234E-1   -1.468836237280606E-2    3.891922230715030E-2   -1.265563866368954E-2    3.866041961580426E-2   -5.009011821376238E-1   -1.009525117514214E-1
 6.501490963800000E9    -4.502419022945694E-1   -2.712967301227487E-1   -1.454598576251910E-2    3.912388872676999E-2   -1.274621095653438E-2    3.890566850818744E-2   -5.010834116892809E-1   -9.961870766649471E-2
 6.501502944575000E9    -4.506676720545135E-1   -2.703393354616743E-1   -1.468210544911331E-2    3.934510510192236E-2   -1.260174660669382E-2    3.922492192090204E-2   -5.012108782720125E-1   -9.838405905830623E-2
 6.501514925350000E9    -4.511953692587278E-1   -2.694884665009663E-1   -1.467234050902247E-2    3.965887732170795E-2   -1.253682034365966E-2    3.940179697399707E-2   -5.014181107869489E-1   -9.699789438314030E-2
 6.501526906125000E9    -4.517495738496188E-1   -2.686235948398826E-1   -1.468222189737978E-2    3.987300498550802E-2   -1.254146843389408E-2    3.964728091417689E-2   -5.015122537433121E-1   -9.575654078267586E-2
 6.501538886900000E9    -4.522147079527403E-1   -2.676514958645688E-1   -1.474387704193961E-2    4.016011343004109E-2   -1.253266694636628E-2    3.990794303255835E-2   -5.015925661176984E-1   -9.432280404903778E-2
 6.501550867675000E9    -4.528084849502825E-1   -2.668347458002007E-1   -1.474222517813013E-2    4.037234351351587E-2   -1.259553628156612E-2    4.006024524547121E-2   -5.017700478741910E-1   -9.313885385519087E-2
 6.501562848450000E9    -4.531996884369774E-1   -2.657742744219769E-1   -1.461976399347169E-2    4.071551097062395E-2   -1.247988643913916E-2    4.056754241032611E-2   -5.019079434558114E-1   -9.181898474982945E-2
 6.501574829225000E9    -4.536545725930356E-1   -2.649106122545576E-1   -1.464138122011826E-2    4.086993931338188E-2   -1.250555407637151E-2    4.063736621177087E-2   -5.021411111993330E-1   -9.046770753747943E-2
 6.501586810000000E9    -4.540873728528071E-1   -2.640884755311731E-1   -1.463303704772725E-2    4.114659825574023E-2   -1.245272933291672E-2    4.099947139556740E-2   -5.021841038039803E-1   -8.918136688884300E-2
 6.501598790775000E9    -4.546699749805629E-1   -2.630884959916933E-1   -1.453429364782993E-2    4.157417595580028E-2   -1.241221070858876E-2    4.124490597911560E-2   -5.023209304080399E-1   -8.775655179514094E-2
 6.501610771550000E9    -4.551552158880041E-1   -2.621471471201560E-1   -1.456634019980657E-2    4.180046492755812E-2   -1.236730313748066E-2    4.158929755170418E-2   -5.026089569169617E-1   -8.635862942492890E-2
 6.501622752325000E9    -4.556588840024972E-1   -2.612248664033400E-1   -1.458855713984554E-2    4.224128096265861E-2   -1.242933818454687E-2    4.186041292202600E-2   -5.026303842168481E-1   -8.510834524333927E-2
 6.501634733100000E9    -4.561024887700595E-1   -2.603439476349718E-1   -1.451462189573454E-2    4.247388689709878E-2   -1.237211327883913E-2    4.216789149073496E-2   -5.026123442415004E-1   -8.371308032243178E-2
 6.501646713875000E9    -4.565822604178570E-1   -2.594421490688991E-1   -1.459081201042656E-2    4.266256532929480E-2   -1.242514776311385E-2    4.244376161538671E-2   -5.028564320878662E-1   -8.235740342378851E-2
 6.501658694650000E9    -4.570967902142446E-1   -2.583927589692877E-1   -1.447225424139738E-2    4.301228172675546E-2   -1.231917793115528E-2    4.270516115047438E-2   -5.030214293160366E-1   -8.088890628213324E-2
 6.501670675425000E9    -4.575875300683692E-1   -2.575151915009865E-1   -1.444558630444566E-2    4.352778985705876E-2   -1.230835772150479E-2    4.314031763548289E-2   -5.031228025462232E-1   -7.953365560165138E-2
 6.501682656200000E9    -4.582198959358599E-1   -2.565205036885728E-1   -1.440155731388567E-2    4.361532750980809E-2   -1.226593232645967E-2    4.333401855384750E-2   -5.031738444767259E-1   -7.806418452948072E-2
 6.501694636975000E9    -4.585815448848710E-1   -2.556545868645327E-1   -1.446484965644851E-2    4.406738563882573E-2   -1.221700073037127E-2    4.366614694610405E-2   -5.032072130244716E-1   -7.678685105346393E-2
 6.501706617750000E9    -4.591475851790022E-1   -2.546422720038435E-1   -1.442438792440409E-2    4.426357555534842E-2   -1.214562687887892E-2    4.394487180951161E-2   -5.033849237931710E-1   -7.528534367337855E-2
 6.501718598525000E9    -4.594953393919289E-1   -2.538374563634287E-1   -1.442514361090269E-2    4.472584970807525E-2   -1.203487384223456E-2    4.422741376075440E-2   -5.036215505815492E-1   -7.392686865228093E-2
 6.501730579300000E9    -4.600292820545392E-1   -2.527460032377172E-1   -1.446917485235351E-2    4.504645581150998E-2   -1.211073024736785E-2    4.467819629927246E-2   -5.036689889947472E-1   -7.246875197742211E-2
 6.501742560075000E9    -4.603979424356222E-1   -2.518166337200129E-1   -1.442017874612818E-2    4.520322025553723E-2   -1.204185999618177E-2    4.495237595748994E-2   -5.037164099589938E-1   -7.113370259420919E-2
 6.501754540850000E9    -4.609839173622743E-1   -2.508550487864650E-1   -1.441863517050216E-2    4.566362812828732E-2   -1.208705545964946E-2    4.525960417922786E-2   -5.037322657445729E-1   -6.967072761769835E-2
 6.501766521625000E9    -4.612999300285117E-1   -2.498887300608352E-1   -1.423252936508195E-2    4.595477385027318E-2   -1.201125382248482E-2    4.559587678042949E-2   -5.037899416131829E-1   -6.828274862934067E-2
 6.501778502400000E9    -4.619458361200163E-1   -2.489152803505974E-1   -1.429011013296864E-2    4.641396224440261E-2   -1.187441556108254E-2    4.593088530483434E-2   -5.040266583357093E-1   -6.681668898018232E-2
 6.501790483175000E9    -4.623816186333720E-1   -2.479149798849430E-1   -1.419263538194678E-2    4.666019112411037E-2   -1.196966569614404E-2    4.623070748715147E-2   -5.039207921633017E-1   -6.541236254097028E-2
 6.501802463950000E9    -4.627467089712824E-1   -2.469973928930893E-1   -1.412529343677692E-2    4.708810336195653E-2   -1.189675469885004E-2    4.666978286786747E-2   -5.040905190376282E-1   -6.376679342778642E-2
 6.501814444725000E9    -4.633896251103420E-1   -2.460212044518893E-1   -1.424401753525571E-2    4.744469128249108E-2   -1.180294031730579E-2    4.696243558917815E-2   -5.040971929184501E-1   -6.253104898650921E-2
 6.501826425500000E9    -4.637008205572561E-1   -2.451061136551878E-1   -1.404761010158577E-2    4.778546166390620E-2   -1.174307597061521E-2    4.728836837102705E-2   -5.042497710675580E-1   -6.092703818241526E-2
 6.501838406275000E9    -4.641068630929968E-1   -2.440707742354920E-1   -1.429970145986310E-2    4.815765712389295E-2   -1.171005465569155E-2    4.771140387004980E-2   -5.043380343574061E-1   -5.941139432930190E-2
 6.501850387050000E9    -4.646226452750046E-1   -2.430782553177256E-1   -1.413573378517440E-2    4.854350569302007E-2   -1.176993538802966E-2    4.798547928964206E-2   -5.043968287837384E-1   -5.791634022959290E-2
 6.501862367825000E9    -4.652338012299568E-1   -2.421253440173803E-1   -1.395406072344864E-2    4.885135963003182E-2   -1.173453963101634E-2    4.845638407280590E-2   -5.044533022094601E-1   -5.646244169609236E-2
 6.501874348600000E9    -4.655467392366363E-1   -2.411133678323739E-1   -1.404347772054793E-2    4.923051195631356E-2   -1.162976864494733E-2    4.882098277769407E-2   -5.043795639385296E-1   -5.498028817385335E-2
 6.501886329375000E9    -4.659378045523770E-1   -2.400232695414569E-1   -1.395825347704957E-2    4.968331103092662E-2   -1.159480389835860E-2    4.921460898191704E-2   -5.045752595781207E-1   -5.351617896051252E-2
 6.501898310150000E9    -4.663838027492300E-1   -2.391145064169213E-1   -1.405591256495795E-2    5.012259474001149E-2   -1.155990803589621E-2    4.963094672209709E-2   -5.044215954893134E-1   -5.182729657785847E-2
 6.501910290925000E9    -4.667958391242157E-1   -2.381200092964137E-1   -1.401930607834477E-2    5.061744752152980E-2   -1.137390453247182E-2    4.992323496466156E-2   -5.045306526544256E-1   -5.034097222108826E-2
 6.501922271700000E9    -4.674360846843429E-1   -2.371179351997905E-1   -1.392177568835893E-2    5.089831951445312E-2   -1.134613961422688E-2    5.039055063663331E-2   -5.046116961679570E-1   -4.876508451505779E-2
 6.501934252475000E9    -4.677998419209221E-1   -2.361445138436835E-1   -1.387339355136329E-2    5.137293542495376E-2   -1.134780418838909E-2    5.072856260147995E-2   -5.045137664161073E-1   -4.735222032820539E-2
 6.501946233250000E9    -4.683099260384841E-1   -2.351006446324374E-1   -1.381921214281712E-2    5.181216200975579E-2   -1.127639896285395E-2    5.108353850365139E-2   -5.045119615628764E-1   -4.576290808113491E-2
 6.501958214025000E9    -4.686653894347849E-1   -2.339425731415825E-1   -1.374184887993298E-2    5.219717700364600E-2   -1.116766657144934E-2    5.169396447432636E-2   -5.045206424705346E-1   -4.415220286720795E-2
 6.501970194800000E9    -4.691357923590419E-1   -2.331273596803431E-1   -1.372560959171544E-2    5.248973118928876E-2   -1.117233441808069E-2    5.198579029062057E-2   -5.044690570262766E-1   -4.258448855945967E-2
 6.501982175575000E9    -4.695339575730352E-1   -2.320653614712877E-1   -1.371558106701339E-2    5.297718041418565E-2   -1.109380694023502E-2    5.242966835130487E-2   -5.045016418848745E-1   -4.089116380325905E-2
 6.501994156350000E9    -4.699160695918401E-1   -2.310346013043124E-1   -1.358337749380924E-2    5.347462142037992E-2   -1.102419723072476E-2    5.288296980983914E-2   -5.044565188746354E-1   -3.931108122899434E-2
 6.502006137125000E9    -4.704045689918630E-1   -2.300093857508309E-1   -1.356234278837553E-2    5.396275392706573E-2   -1.095134781918424E-2    5.332763807831153E-2   -5.044382053293529E-1   -3.767895521046275E-2
 6.502018117900000E9    -4.707703654303209E-1   -2.289599091423367E-1   -1.349749257139346E-2    5.452980804386114E-2   -1.083436066020480E-2    5.370401805997035E-2   -5.044913453130471E-1   -3.604236702535991E-2
 6.502030098675000E9    -4.712698124951465E-1   -2.278283171446872E-1   -1.347240492723841E-2    5.495556617922264E-2   -1.083351532297136E-2    5.418739553077119E-2   -5.042853799278986E-1   -3.441651928683022E-2
 6.502042079450000E9    -4.717296467220776E-1   -2.268673979742273E-1   -1.335270369878944E-2    5.529482707307812E-2   -1.069606480415804E-2    5.461711241880136E-2   -5.042210623328467E-1   -3.276397733867831E-2
 6.502054060225000E9    -4.721128360064559E-1   -2.258309511230187E-1   -1.328290286133610E-2    5.584360964888160E-2   -1.061910938340639E-2    5.515962634171492E-2   -5.043405733229608E-1   -3.104770781873559E-2
 6.502066041000000E9    -4.725171752014872E-1   -2.246556425436801E-1   -1.328824606715953E-2    5.632594943768559E-2   -1.050804635186421E-2    5.551648812451294E-2   -5.042363510100131E-1   -2.935727135831932E-2
 6.502078021775000E9    -4.729698628515731E-1   -2.236806884440451E-1   -1.300432971697335E-2    5.693239895134142E-2   -1.053539623703314E-2    5.605813955306843E-2   -5.038853071135851E-1   -2.759595916625268E-2
 6.502090002550000E9    -4.733388771035145E-1   -2.225546680966013E-1   -1.320781684954774E-2    5.722287092480529E-2   -1.035213049151740E-2    5.669794131982075E-2   -5.039137867024464E-1   -2.598401505869414E-2
 6.502101983325000E9    -4.739480476991318E-1   -2.216520434724062E-1   -1.300985159449270E-2    5.775047960562562E-2   -1.037720702992615E-2    5.704533654927366E-2   -5.039553937043958E-1   -2.417700775754701E-2
 6.502113964100000E9    -4.741486106466876E-1   -2.204610861408183E-1   -1.293888965105494E-2    5.835148624291069E-2   -1.015126649749007E-2    5.750343831939013E-2   -5.038170558779570E-1   -2.258209872569031E-2
 6.502125944875000E9    -4.746778216190369E-1   -2.193973442937457E-1   -1.279302024740372E-2    5.895700307449371E-2   -1.016144004461053E-2    5.809201142864336E-2   -5.038274616923311E-1   -2.077997183233882E-2
 6.502137925650000E9    -4.749917139444071E-1   -2.183061270071535E-1   -1.291641914516135E-2    5.941062470025619E-2   -9.985514544744835E-3    5.847341518666539E-2   -5.035856557332710E-1   -1.898439624412658E-2
 6.502149906425000E9    -4.754479575231265E-1   -2.171665374989541E-1   -1.265936230718744E-2    5.995405680907388E-2   -9.872064194903078E-3    5.910873180518429E-2   -5.035210502574574E-1   -1.706840619821099E-2
 6.502161887200000E9    -4.759310036166704E-1   -2.160917149875707E-1   -1.265561983886586E-2    6.064250258044986E-2   -9.787742242684234E-3    5.963353496069523E-2   -5.031941935289970E-1   -1.543948125744068E-2
 6.502173867975000E9    -4.761242687694647E-1   -2.149674584350895E-1   -1.256389076410295E-2    6.111957458416082E-2   -9.678298483113633E-3    6.008260627529483E-2   -5.031819904791909E-1   -1.364998247194561E-2
 6.502185848750000E9    -4.765540016258960E-1   -2.138346193916510E-1   -1.243221043252431E-2    6.183246207082305E-2   -9.549683552170066E-3    6.087130620744861E-2   -5.030307975481247E-1   -1.174540710862229E-2
