#  HZ   S   RI   R     50.00 
! Rohde & Schwarz Vector Network Analyzer 
! Rohde-Schwarz,ZNB20-2Port,1311601062101988,3.16
! Created: UTC 3/20/2024, 11:39:36 AM
! freq[Hz]                re:S11                  im:S11                  re:S21                  im:S21                  re:S12                  im:S12                  re:S22                  im:S22
 6.501108441000000E9    -4.335059605816127E-1   -2.987323211974368E-1   -1.477227434552414E-2    3.184979569829882E-2   -1.308598532101236E-2    3.191668981173146E-2   -4.941355720963193E-1   -1.385388834467160E-1
 6.501120415100000E9    -4.340054273817188E-1   -2.979348154611522E-1   -1.475482338526695E-2    3.205265904209422E-2   -1.302236341080877E-2    3.210612387009865E-2   -4.943626210687457E-1   -1.375594612609039E-1
 6.501132389200000E9    -4.345759463888352E-1   -2.971242468888948E-1   -1.482624893456288E-2    3.221410262190696E-2   -1.296956426625413E-2    3.232343084740605E-2   -4.947029182855474E-1   -1.362848311980690E-1
 6.501144363300000E9    -4.350531956825877E-1   -2.963403164853283E-1   -1.479802457452518E-2    3.243268387340411E-2   -1.301092262905818E-2    3.255545746514729E-2   -4.949192328634997E-1   -1.351544835010758E-1
 6.501156337400000E9    -4.355767205095240E-1   -2.954439519592345E-1   -1.477977996031817E-2    3.270644424251335E-2   -1.298143295832556E-2    3.282345118518275E-2   -4.951328069729917E-1   -1.339388898936185E-1
 6.501168311500000E9    -4.360963222043870E-1   -2.945272694797342E-1   -1.480883677401820E-2    3.301680224083398E-2   -1.295747383613085E-2    3.289885457525396E-2   -4.953731090306755E-1   -1.327876797794484E-1
 6.501180285600000E9    -4.367245709158453E-1   -2.937078748686796E-1   -1.481503021711775E-2    3.320050813979505E-2   -1.299026615475333E-2    3.311094657665808E-2   -4.955855807212666E-1   -1.315896986029304E-1
 6.501192259700000E9    -4.372273207865237E-1   -2.929476098150719E-1   -1.476384931589191E-2    3.332587026143009E-2   -1.292323622657558E-2    3.331840608284761E-2   -4.959204886824004E-1   -1.305086503697345E-1
 6.501204233800000E9    -4.377687474187994E-1   -2.921460218012032E-1   -1.483217539551246E-2    3.341991830081817E-2   -1.295805419475868E-2    3.351240830225178E-2   -4.960552744125079E-1   -1.292522820043467E-1
 6.501216207900000E9    -4.382885232886082E-1   -2.911875543884191E-1   -1.482179650851405E-2    3.376474016176235E-2   -1.297510572439559E-2    3.382051446195347E-2   -4.963081195716325E-1   -1.281083447758024E-1
 6.501228182000000E9    -4.388623663982125E-1   -2.903214961586435E-1   -1.484646895298607E-2    3.391226531193558E-2   -1.295350174236458E-2    3.390301787663398E-2   -4.967076104635159E-1   -1.267945679644939E-1
 6.501240156100000E9    -4.394020064153465E-1   -2.895644711022595E-1   -1.483654971177633E-2    3.405506841236020E-2   -1.290277384518764E-2    3.416414403715954E-2   -4.967884667604923E-1   -1.256373690551739E-1
 6.501252130200000E9    -4.398507404084293E-1   -2.887074666448095E-1   -1.479535582781727E-2    3.432668526208742E-2   -1.291869794705707E-2    3.438243028907285E-2   -4.971267436866307E-1   -1.243920891815334E-1
 6.501264104300000E9    -4.404402881853583E-1   -2.878656873549688E-1   -1.486371911318464E-2    3.455536290687448E-2   -1.291280330592181E-2    3.447456263933081E-2   -4.973070295593092E-1   -1.232193458991673E-1
 6.501276078400000E9    -4.408784936577186E-1   -2.869784044245139E-1   -1.482683040677276E-2    3.472396420273517E-2   -1.296028609062372E-2    3.473394230695478E-2   -4.974949650327452E-1   -1.220044412364392E-1
 6.501288052500000E9    -4.414488804991358E-1   -2.861948464184413E-1   -1.479015497250489E-2    3.498381225347382E-2   -1.290623760268941E-2    3.496730626141088E-2   -4.976470196442856E-1   -1.207921281015317E-1
 6.501300026600000E9    -4.420741891618469E-1   -2.852714317486980E-1   -1.470548602772976E-2    3.517280804010617E-2   -1.286114662111082E-2    3.517454816506056E-2   -4.978777546666697E-1   -1.195791858158665E-1
 6.501312000700000E9    -4.425799635013429E-1   -2.844675039336366E-1   -1.472748238825044E-2    3.556046876435445E-2   -1.279667116399974E-2    3.540177336911783E-2   -4.980782956991418E-1   -1.184178505917638E-1
 6.501323974800000E9    -4.430370749037955E-1   -2.834761481068137E-1   -1.478283969097056E-2    3.554165749320150E-2   -1.282634800459463E-2    3.560158769644672E-2   -4.982705140995142E-1   -1.170933496411860E-1
 6.501335948900000E9    -4.435926136521503E-1   -2.826941492909056E-1   -1.476385697725712E-2    3.578525674429948E-2   -1.285810575970708E-2    3.578376540470759E-2   -4.985123329637873E-1   -1.159473951480749E-1
 6.501347923000000E9    -4.440359845985923E-1   -2.818770007799005E-1   -1.488734217366581E-2    3.607858486810114E-2   -1.278958306763649E-2    3.612164604377538E-2   -4.987552089071317E-1   -1.147309957766780E-1
 6.501359897100000E9    -4.447158530163614E-1   -2.809282492014634E-1   -1.475968226651156E-2    3.620360504656936E-2   -1.285869203108015E-2    3.635461680955729E-2   -4.988804025923695E-1   -1.133525790355375E-1
 6.501371871200000E9    -4.452250128276947E-1   -2.799794070760087E-1   -1.482534496414160E-2    3.656702174129590E-2   -1.280262048514560E-2    3.641882694037821E-2   -4.991019613824647E-1   -1.123073170803801E-1
 6.501383845300000E9    -4.456752242573886E-1   -2.791846485495076E-1   -1.468831678668161E-2    3.699183036195702E-2   -1.278626292479769E-2    3.672300694174134E-2   -4.994370119582452E-1   -1.110774068848689E-1
 6.501395819400000E9    -4.461644011823219E-1   -2.783305344931978E-1   -1.476177523587167E-2    3.717003584218413E-2   -1.276518555428109E-2    3.696433914014363E-2   -4.994842643742631E-1   -1.096495956347352E-1
 6.501407793500000E9    -4.467211101259269E-1   -2.774070130392088E-1   -1.460162087598687E-2    3.733525130021664E-2   -1.277862015155387E-2    3.718291694327511E-2   -4.997563744788984E-1   -1.085575945812890E-1
 6.501419767600000E9    -4.471721872207491E-1   -2.764374764312353E-1   -1.480425539954956E-2    3.747612777483372E-2   -1.278833178444236E-2    3.747479381943412E-2   -4.998464727031470E-1   -1.071401852335075E-1
 6.501431741700000E9    -4.476572794157565E-1   -2.755883786787542E-1   -1.474259438861121E-2    3.782828173942456E-2   -1.279532492480641E-2    3.760902505559979E-2   -5.002540546520753E-1   -1.059966053762544E-1
 6.501443715800000E9    -4.482638815305590E-1   -2.746712416488959E-1   -1.475251317612600E-2    3.779915283694657E-2   -1.269180993599136E-2    3.788200533303988E-2   -5.002650903125067E-1   -1.046975149523344E-1
 6.501455689900000E9    -4.487136169893172E-1   -2.738616088836586E-1   -1.483078671867772E-2    3.822602281104077E-2   -1.267838458950164E-2    3.828024886383272E-2   -5.006310048938639E-1   -1.034996282898939E-1
 6.501467664000000E9    -4.492176563813183E-1   -2.729986396713585E-1   -1.476634960769602E-2    3.855248693643831E-2   -1.263852026051649E-2    3.840351477127998E-2   -5.007213219421678E-1   -1.021588928576372E-1
 6.501479638100000E9    -4.496969556837783E-1   -2.720730237408735E-1   -1.479396887381584E-2    3.872999060920537E-2   -1.259287977155877E-2    3.859788029539812E-2   -5.007502949478142E-1   -1.008674760743951E-1
 6.501491612200000E9    -4.502016309636271E-1   -2.712205649397130E-1   -1.467768086276853E-2    3.907697519631562E-2   -1.267642648791731E-2    3.893900238974386E-2   -5.009527975424991E-1   -9.951336778029046E-2
 6.501503586300000E9    -4.507542312205955E-1   -2.702898596786117E-1   -1.476601417309687E-2    3.940391941104755E-2   -1.255535409358550E-2    3.916372901826089E-2   -5.010895241566236E-1   -9.827861730456303E-2
 6.501515560400000E9    -4.512410406062607E-1   -2.693459273687734E-1   -1.469343253709121E-2    3.959490584858873E-2   -1.259892756207455E-2    3.946051653081779E-2   -5.013450516966429E-1   -9.688741696960373E-2
 6.501527534500000E9    -4.517960070691933E-1   -2.685569348821339E-1   -1.453529410260869E-2    3.988123079576781E-2   -1.262050123450043E-2    3.967295764902240E-2   -5.015342180510967E-1   -9.565553105239351E-2
 6.501539508600000E9    -4.522162001066611E-1   -2.675590391845820E-1   -1.457537810020085E-2    4.014537632320621E-2   -1.262820818656003E-2    3.995614791850377E-2   -5.015480470943410E-1   -9.437438215015274E-2
 6.501551482700000E9    -4.527012057275259E-1   -2.667406162132840E-1   -1.460018274754211E-2    4.048517875078714E-2   -1.255393538720241E-2    4.021759137540960E-2   -5.017952292723780E-1   -9.305579824425959E-2
 6.501563456800000E9    -4.531976181393885E-1   -2.657365352677063E-1   -1.463281394966214E-2    4.070219911929351E-2   -1.248782055951639E-2    4.042446609781082E-2   -5.021052311451994E-1   -9.170600187850658E-2
 6.501575430900000E9    -4.537106771525506E-1   -2.648870071845551E-1   -1.462272793918252E-2    4.088178133403927E-2   -1.242358522949767E-2    4.074681994902285E-2   -5.021807347577976E-1   -9.035362278401171E-2
 6.501587405000000E9    -4.542432907116626E-1   -2.639090516270087E-1   -1.457390956589541E-2    4.138028846290010E-2   -1.244477299453942E-2    4.109571912919665E-2   -5.021964120906131E-1   -8.905280239044744E-2
 6.501599379100000E9    -4.546955855527903E-1   -2.630346228652659E-1   -1.452753894853948E-2    4.163266285915636E-2   -1.239817442428836E-2    4.130980817783742E-2   -5.023784903843264E-1   -8.765558720436097E-2
 6.501611353200000E9    -4.552745734889009E-1   -2.620664925870780E-1   -1.472093590653263E-2    4.199660405050618E-2   -1.244124641644102E-2    4.163064948834498E-2   -5.024889675664053E-1   -8.634647158592457E-2
 6.501623327300000E9    -4.556058807670252E-1   -2.610696210435668E-1   -1.456432892197746E-2    4.209958496627066E-2   -1.230610428000265E-2    4.191431936088354E-2   -5.027484628913010E-1   -8.502145881992844E-2
 6.501635301400000E9    -4.561257173561314E-1   -2.602779188049494E-1   -1.461441646955883E-2    4.247570229882963E-2   -1.233470621533219E-2    4.218278594821620E-2   -5.026697322356688E-1   -8.358886573555983E-2
 6.501647275500000E9    -4.567152395434294E-1   -2.591359780204643E-1   -1.440230774449081E-2    4.278753775193689E-2   -1.236688646955089E-2    4.234719047342830E-2   -5.028629202345671E-1   -8.215536636499544E-2
 6.501659249600000E9    -4.572081504921569E-1   -2.583428856953629E-1   -1.453869295059703E-2    4.300634800417438E-2   -1.229659483638016E-2    4.281751056461496E-2   -5.030428489396581E-1   -8.085830505952959E-2
 6.501671223700000E9    -4.576218350277140E-1   -2.573387515247998E-1   -1.451901421975955E-2    4.348196742611275E-2   -1.232643685938888E-2    4.313400241297340E-2   -5.031787512198560E-1   -7.942264412322300E-2
 6.501683197800000E9    -4.581422443027902E-1   -2.564771564266870E-1   -1.446056925446310E-2    4.358524041514675E-2   -1.224080692254246E-2    4.335755906540864E-2   -5.032596119939191E-1   -7.801452279814118E-2
 6.501695171900000E9    -4.586069349933642E-1   -2.554820718470461E-1   -1.445353759186646E-2    4.408843791388239E-2   -1.219113446431273E-2    4.365645238920597E-2   -5.033252787453130E-1   -7.674701801103724E-2
 6.501707146000000E9    -4.590166711109032E-1   -2.546367042582949E-1   -1.444070398501798E-2    4.420423569611002E-2   -1.216532008213538E-2    4.392411542366559E-2   -5.033760516017241E-1   -7.540308372969848E-2
 6.501719120100000E9    -4.595981550084531E-1   -2.536905449699725E-1   -1.448717526648618E-2    4.467766858127913E-2   -1.210786762881544E-2    4.437128758844035E-2   -5.035138220462929E-1   -7.399015768025949E-2
 6.501731094200000E9    -4.599834312740971E-1   -2.526562561568036E-1   -1.435951980763952E-2    4.491271952999092E-2   -1.214251120098374E-2    4.466789616258220E-2   -5.035468447351579E-1   -7.242127286650991E-2
 6.501743068300000E9    -4.603706070218152E-1   -2.517548185019115E-1   -1.438396703609123E-2    4.546632543118699E-2   -1.214137825286507E-2    4.493102644841976E-2   -5.037728296574431E-1   -7.100521279619684E-2
 6.501755042400000E9    -4.609634385597775E-1   -2.507593233910693E-1   -1.440819293451452E-2    4.567733812084158E-2   -1.203179388186845E-2    4.532344742996466E-2   -5.038731034350142E-1   -6.958050739375178E-2
 6.501767016500000E9    -4.614621822545945E-1   -2.496737861843349E-1   -1.441740626164488E-2    4.611324137763709E-2   -1.204637312755947E-2    4.567367244439109E-2   -5.039192533791904E-1   -6.820555936204711E-2
 6.501778990600000E9    -4.618139066318243E-1   -2.489234727786037E-1   -1.437760965090595E-2    4.643984018743567E-2   -1.194669973938910E-2    4.591973006203565E-2   -5.039607062652520E-1   -6.676214946350653E-2
 6.501790964700000E9    -4.622966733872689E-1   -2.479103957327465E-1   -1.432272493692714E-2    4.676954345484952E-2   -1.184461018957718E-2    4.630792392710235E-2   -5.039498061884838E-1   -6.527302333465053E-2
 6.501802938800000E9    -4.627353696529414E-1   -2.469276090079543E-1   -1.416296972063879E-2    4.706792535169151E-2   -1.183123594834676E-2    4.662577058928152E-2   -5.041253000590882E-1   -6.371634476442965E-2
 6.501814912900000E9    -4.632878122580628E-1   -2.460517769404679E-1   -1.422424555520669E-2    4.736198186942853E-2   -1.180828637485496E-2    4.695748173625641E-2   -5.041887080203639E-1   -6.237740552973621E-2
 6.501826887000000E9    -4.636604993972964E-1   -2.448942272701729E-1   -1.419963626033512E-2    4.772648426882065E-2   -1.177974977921717E-2    4.729894771195994E-2   -5.043139504827845E-1   -6.081644041825376E-2
 6.501838861100000E9    -4.640321076988719E-1   -2.440628325107606E-1   -1.427200469777053E-2    4.824881328418611E-2   -1.172397446156190E-2    4.772920280475143E-2   -5.042710688038466E-1   -5.945818389320533E-2
 6.501850835200000E9    -4.647071565745013E-1   -2.429797374176221E-1   -1.411184212341462E-2    4.858919612919912E-2   -1.171554347883394E-2    4.806072161136987E-2   -5.043719870484829E-1   -5.798809147837333E-2
 6.501862809300000E9    -4.650404005794139E-1   -2.421098852681382E-1   -1.408931548672215E-2    4.898925598063588E-2   -1.160999643985267E-2    4.842569125668370E-2   -5.043548607270844E-1   -5.635161392055123E-2
 6.501874783400000E9    -4.654648751431523E-1   -2.410641627830165E-1   -1.399775614528704E-2    4.927695210263528E-2   -1.149770950967791E-2    4.883207371977176E-2   -5.044472935321362E-1   -5.497419695041725E-2
 6.501886757500000E9    -4.660554744217921E-1   -2.399776476946949E-1   -1.402758680116302E-2    4.976165951643991E-2   -1.153160998749156E-2    4.919435745855139E-2   -5.042026538688106E-1   -5.332494802265920E-2
 6.501898731600000E9    -4.664059586433033E-1   -2.389777499712670E-1   -1.394692943317970E-2    5.021984313093844E-2   -1.140816683789993E-2    4.956076684128437E-2   -5.044721264262860E-1   -5.179594538950338E-2
 6.501910705700000E9    -4.668641403514776E-1   -2.380175823512211E-1   -1.380018179080356E-2    5.053619430022345E-2   -1.143218850726216E-2    4.993495428541208E-2   -5.045576900359120E-1   -5.035203921195811E-2
 6.501922679800000E9    -4.673899681966966E-1   -2.370156665895622E-1   -1.390212656538045E-2    5.093512795153407E-2   -1.140906474720417E-2    5.046005999826671E-2   -5.045453417009946E-1   -4.870468979502708E-2
 6.501934653900000E9    -4.678346842469236E-1   -2.359374974285263E-1   -1.380708874938489E-2    5.131254852143208E-2   -1.131315939159028E-2    5.070873019499640E-2   -5.043620055766456E-1   -4.709466651297001E-2
 6.501946628000000E9    -4.682148796927310E-1   -2.349568420359242E-1   -1.386937763389458E-2    5.192090987588705E-2   -1.115980128994180E-2    5.124986723087484E-2   -5.044735781201295E-1   -4.553220464455966E-2
 6.501958602100000E9    -4.685735604552010E-1   -2.339820083357673E-1   -1.387957274043150E-2    5.215016218624597E-2   -1.121727694780558E-2    5.167819261612226E-2   -5.045360010140064E-1   -4.414140377568745E-2
 6.501970576200000E9    -4.690456605379685E-1   -2.330342535370938E-1   -1.382246367628999E-2    5.271327121497155E-2   -1.105565589067765E-2    5.208894780541228E-2   -5.043725599252529E-1   -4.236868042946956E-2
 6.501982550300000E9    -4.695228699327127E-1   -2.320229667574711E-1   -1.359130382077939E-2    5.306335506272879E-2   -1.112426293863412E-2    5.253510535808855E-2   -5.045384695513343E-1   -4.075906049845230E-2
 6.501994524400000E9    -4.700338751699806E-1   -2.310349301424906E-1   -1.345235830330921E-2    5.353249147746521E-2   -1.091159716586086E-2    5.286592432602721E-2   -5.044496768010498E-1   -3.918740325257052E-2
 6.502006498500000E9    -4.703864890064915E-1   -2.299699257603193E-1   -1.349136022724400E-2    5.392752570996938E-2   -1.089342470993472E-2    5.335969866685406E-2   -5.044338766843226E-1   -3.764278513556847E-2
 6.502018472600000E9    -4.708466802754191E-1   -2.287858592374296E-1   -1.353022961641096E-2    5.441628514582911E-2   -1.095362877073111E-2    5.372360803458495E-2   -5.043634330607701E-1   -3.598447878350597E-2
 6.502030446700000E9    -4.712185369336968E-1   -2.277564938901326E-1   -1.350803379375312E-2    5.486511753051915E-2   -1.078273783101361E-2    5.418306408384227E-2   -5.042124079214947E-1   -3.429628197928356E-2
 6.502042420800000E9    -4.717031696002068E-1   -2.267131415433782E-1   -1.334488796128199E-2    5.539042809104689E-2   -1.066861728995049E-2    5.468183480820708E-2   -5.043656988775477E-1   -3.270323796774298E-2
 6.502054394900000E9    -4.721302392228429E-1   -2.256495258668158E-1   -1.328765220519802E-2    5.595605595785245E-2   -1.058378348291571E-2    5.518113042702785E-2   -5.040747877553595E-1   -3.108670494171685E-2
 6.502066369000000E9    -4.725018936946586E-1   -2.246337290669448E-1   -1.317361419135808E-2    5.632241091609526E-2   -1.044548755474505E-2    5.560897789335258E-2   -5.041697644420515E-1   -2.924226725847781E-2
 6.502078343100000E9    -4.729895654310442E-1   -2.236095023654890E-1   -1.314399198016503E-2    5.679010645472056E-2   -1.047952049817656E-2    5.606631059852590E-2   -5.039623363572714E-1   -2.753863343637130E-2
 6.502090317200000E9    -4.734900956207856E-1   -2.225995877848549E-1   -1.313484131007479E-2    5.730304910138317E-2   -1.035903876857141E-2    5.653472210264947E-2   -5.041226582654588E-1   -2.595011785715807E-2
 6.502102291300000E9    -4.738050793047153E-1   -2.215109343204233E-1   -1.300732417279842E-2    5.796680707874374E-2   -1.027236544688452E-2    5.706075677508849E-2   -5.038464644174688E-1   -2.425228035698106E-2
 6.502114265400000E9    -4.742260457573804E-1   -2.204055464693615E-1   -1.298673486610985E-2    5.831920131944190E-2   -1.022508372146118E-2    5.766106721666141E-2   -5.037201343815658E-1   -2.244509710708992E-2
 6.502126239500000E9    -4.745714222236540E-1   -2.192669577604913E-1   -1.280184157387609E-2    5.889889344127079E-2   -1.008986871152769E-2    5.819217480833698E-2   -5.036638429528087E-1   -2.071663815774775E-2
 6.502138213600000E9    -4.750765216015095E-1   -2.181971758427408E-1   -1.269564694407551E-2    5.950726198506715E-2   -1.003938658502281E-2    5.863637704249843E-2   -5.036220102012162E-1   -1.900234754649190E-2
 6.502150187700000E9    -4.753972454862380E-1   -2.169818106734790E-1   -1.265332147079393E-2    6.008325003678183E-2   -9.885740653232587E-3    5.914550939895410E-2   -5.034357874577142E-1   -1.713889497562105E-2
 6.502162161800000E9    -4.759206213299858E-1   -2.159300693391760E-1   -1.246036929072770E-2    6.057644292829410E-2   -9.807674910795280E-3    5.974523660161293E-2   -5.033392103659726E-1   -1.534558138348196E-2
 6.502174135900000E9    -4.761847879107548E-1   -2.148518912188951E-1   -1.248823173729437E-2    6.113738589764741E-2   -9.701017250339616E-3    6.021177065498324E-2   -5.030900004755026E-1   -1.353332389179120E-2
 6.502186110000000E9    -4.765679371017961E-1   -2.137845821230744E-1   -1.247741427856026E-2    6.182338351828841E-2   -9.548063467562611E-3    6.075259096291311E-2   -5.029324917798464E-1   -1.165199042364821E-2
