#  HZ   S   RI   R     50.00 
! Rohde & Schwarz Vector Network Analyzer 
! Rohde-Schwarz,ZNB20-2Port,1311601062101988,3.16
! Created: UTC 3/20/2024, 11:39:41 AM
! freq[Hz]                re:S11                  im:S11                  re:S21                  im:S21                  re:S12                  im:S12                  re:S22                  im:S22
 6.501106429000000E9    -4.332751183811654E-1   -2.991316400692584E-1   -1.476403444815516E-2    3.197770970429033E-2   -1.307716688028004E-2    3.197026693149823E-2   -4.940296041982750E-1   -1.388806221444570E-1
 6.501118410000000E9    -4.338149228687846E-1   -2.984203135722463E-1   -1.482081329112385E-2    3.201457629737910E-2   -1.305300849889866E-2    3.206995513972431E-2   -4.943159853050046E-1   -1.376973236913408E-1
 6.501130391000000E9    -4.343247471239863E-1   -2.975433910156766E-1   -1.466094880424711E-2    3.231485143567663E-2   -1.300898148633206E-2    3.230248007920689E-2   -4.945971861934517E-1   -1.364970515884294E-1
 6.501142372000000E9    -4.349016222816153E-1   -2.968045550789412E-1   -1.481712325291489E-2    3.238311667389312E-2   -1.300893404323689E-2    3.251060693109487E-2   -4.948059760748268E-1   -1.352343172028578E-1
 6.501154353000000E9    -4.354147420119070E-1   -2.958077922042844E-1   -1.473588049748471E-2    3.271207799146419E-2   -1.303679682899339E-2    3.264291080264167E-2   -4.951455602235415E-1   -1.341751001285963E-1
 6.501166334000000E9    -4.360304907369959E-1   -2.949766043617889E-1   -1.492353163440440E-2    3.289656334614655E-2   -1.308112486247972E-2    3.289984600745712E-2   -4.952592406475740E-1   -1.329813151708749E-1
 6.501178315000000E9    -4.365272772052931E-1   -2.941187235928056E-1   -1.487701745537917E-2    3.305282146477869E-2   -1.296772194541595E-2    3.316871688747677E-2   -4.955849781508214E-1   -1.317871526325428E-1
 6.501190296000000E9    -4.371927557125259E-1   -2.933511207829841E-1   -1.481231494375199E-2    3.333223053051954E-2   -1.304710483411737E-2    3.323431711837221E-2   -4.959743150525641E-1   -1.306399773299701E-1
 6.501202277000000E9    -4.376672960722359E-1   -2.925356012832309E-1   -1.475759765804492E-2    3.351739521557740E-2   -1.289966445236153E-2    3.345028398080950E-2   -4.961287503311331E-1   -1.293751484713606E-1
 6.501214258000000E9    -4.381597703971292E-1   -2.916436034748549E-1   -1.480372493188731E-2    3.366452040845082E-2   -1.301755245860297E-2    3.374093022658368E-2   -4.963615966265156E-1   -1.282918259274375E-1
 6.501226239000000E9    -4.386079105239372E-1   -2.907104456889406E-1   -1.480631364654572E-2    3.395224031441642E-2   -1.298399770973736E-2    3.387310371317821E-2   -4.965395484213596E-1   -1.271524084829789E-1
 6.501238220000000E9    -4.391655875858730E-1   -2.899095876313731E-1   -1.478289292131802E-2    3.413288435766813E-2   -1.293546110263795E-2    3.405914650510545E-2   -4.967542160482745E-1   -1.258328841699351E-1
 6.501250201000000E9    -4.398102673053789E-1   -2.891685014523211E-1   -1.483135162285580E-2    3.436226343623117E-2   -1.298514422349507E-2    3.422803587195574E-2   -4.970982618949364E-1   -1.245996270992842E-1
 6.501262182000000E9    -4.403693901741539E-1   -2.882759663240756E-1   -1.479413255998216E-2    3.462326269799693E-2   -1.291406076437676E-2    3.449264672916425E-2   -4.972272388094438E-1   -1.235054846041038E-1
 6.501274163000000E9    -4.408208769523457E-1   -2.874206513598252E-1   -1.480658479068000E-2    3.476069829206103E-2   -1.303291507845475E-2    3.468448487259884E-2   -4.973308545549874E-1   -1.221330862720850E-1
 6.501286144000000E9    -4.413242078799930E-1   -2.866361212298486E-1   -1.482805787891536E-2    3.509165466436406E-2   -1.295392456756029E-2    3.494494244855240E-2   -4.977820886795058E-1   -1.210035681261034E-1
 6.501298125000000E9    -4.418112592958853E-1   -2.855993034184843E-1   -1.483973536243291E-2    3.520999649591929E-2   -1.283899304809590E-2    3.512901412935922E-2   -4.977294390224300E-1   -1.198025319069274E-1
 6.501310106000000E9    -4.423608478598241E-1   -2.847558905751347E-1   -1.481460478049838E-2    3.544438578382959E-2   -1.281753165730795E-2    3.536049947452896E-2   -4.982189001047984E-1   -1.184692231063631E-1
 6.501322087000000E9    -4.429128109678581E-1   -2.839781401376910E-1   -1.465257200157754E-2    3.572159962272811E-2   -1.289549064306685E-2    3.564276563584182E-2   -4.983631902569594E-1   -1.173016616303173E-1
 6.501334068000000E9    -4.433750154845235E-1   -2.831457234623667E-1   -1.477436156085946E-2    3.587859808991730E-2   -1.290721572717685E-2    3.577539693325869E-2   -4.986199233831974E-1   -1.161596080365507E-1
 6.501346049000000E9    -4.439533179533746E-1   -2.821652583919930E-1   -1.479088708260032E-2    3.606135796151370E-2   -1.280081930911459E-2    3.604759435822309E-2   -4.987950309967545E-1   -1.148493060558751E-1
 6.501358030000000E9    -4.444559962106971E-1   -2.812726439502209E-1   -1.483967676099874E-2    3.629574555225365E-2   -1.288099324670824E-2    3.623906334553797E-2   -4.988158150969235E-1   -1.138036299654807E-1
 6.501370011000000E9    -4.450018829127949E-1   -2.804945143145079E-1   -1.488005991411147E-2    3.659137448333955E-2   -1.282581754485445E-2    3.639685652994746E-2   -4.991887879276576E-1   -1.123727424460111E-1
 6.501381992000000E9    -4.454460015837402E-1   -2.795823148687198E-1   -1.489937268806063E-2    3.680345958412897E-2   -1.278050409842303E-2    3.654785291957992E-2   -4.993487246974948E-1   -1.112424550975618E-1
 6.501393973000000E9    -4.460438346041594E-1   -2.786129385645976E-1   -1.480719756117017E-2    3.705168272343599E-2   -1.277583693448552E-2    3.692519639554839E-2   -4.995013953780610E-1   -1.098673823355143E-1
 6.501405954000000E9    -4.464666493512695E-1   -2.777145300051861E-1   -1.476864375784751E-2    3.720746311867289E-2   -1.278778449819149E-2    3.716943234204013E-2   -4.997058479541289E-1   -1.086645680286917E-1
 6.501417935000000E9    -4.470452050790423E-1   -2.769590696279351E-1   -1.471530552675974E-2    3.749155071774384E-2   -1.280991014643610E-2    3.746592410191488E-2   -4.999097077372121E-1   -1.074734123503563E-1
 6.501429916000000E9    -4.476303809336775E-1   -2.759880504161125E-1   -1.471209646811897E-2    3.788000615421266E-2   -1.277051264271626E-2    3.763056444407390E-2   -5.001970955091167E-1   -1.060721511453830E-1
 6.501441897000000E9    -4.480560346293095E-1   -2.751191917942386E-1   -1.467798315488952E-2    3.804380779703691E-2   -1.279679954865112E-2    3.784978509636096E-2   -5.002890988787178E-1   -1.048100873177993E-1
 6.501453878000000E9    -4.485546148238445E-1   -2.742123368533782E-1   -1.466859825535845E-2    3.819199330031092E-2   -1.268780514812367E-2    3.812154285887772E-2   -5.005261547213888E-1   -1.035598310844472E-1
 6.501465859000000E9    -4.490746757452883E-1   -2.733510297275810E-1   -1.463089262003769E-2    3.839483406521756E-2   -1.271894114031541E-2    3.837926759875995E-2   -5.006909690171616E-1   -1.023234353193991E-1
 6.501477840000000E9    -4.495255340154137E-1   -2.724774045049633E-1   -1.470561021807993E-2    3.886006659574748E-2   -1.268291399410064E-2    3.870798409378233E-2   -5.008233746357842E-1   -1.009581062809598E-1
 6.501489821000000E9    -4.501266359787962E-1   -2.716185639935454E-1   -1.462846047742124E-2    3.906475404072046E-2   -1.267651977332621E-2    3.889776129053173E-2   -5.011478580406556E-1   -9.970024486069981E-2
 6.501501802000000E9    -4.505513268758118E-1   -2.706832825303999E-1   -1.468918546217700E-2    3.929272008962790E-2   -1.260209237815755E-2    3.912195162004663E-2   -5.010949480207458E-1   -9.838776060051227E-2
 6.501513783000000E9    -4.510827317197422E-1   -2.697024916313915E-1   -1.460937648495948E-2    3.955788099535525E-2   -1.254584230590396E-2    3.945111850957756E-2   -5.011006816936162E-1   -9.716273365331858E-2
 6.501525764000000E9    -4.515195510143709E-1   -2.689439282156197E-1   -1.465869068795358E-2    3.984599415527592E-2   -1.266340143869434E-2    3.958825908473704E-2   -5.015303720606661E-1   -9.575705153554698E-2
 6.501537745000000E9    -4.520880487016365E-1   -2.678763699946132E-1   -1.469853327826135E-2    4.004878273211333E-2   -1.261315383871066E-2    3.992520056252987E-2   -5.015215964983547E-1   -9.460166881416344E-2
 6.501549726000000E9    -4.525002010656908E-1   -2.669911146820751E-1   -1.470695204014360E-2    4.038054939050927E-2   -1.251983657777724E-2    4.019001367200861E-2   -5.018063850197885E-1   -9.335474736855291E-2
 6.501561707000000E9    -4.530230098146135E-1   -2.662412916933045E-1   -1.474043213765055E-2    4.078414773572835E-2   -1.254986145448275E-2    4.044202201164190E-2   -5.019773833203576E-1   -9.191029136567530E-2
 6.501573688000000E9    -4.535595235767901E-1   -2.651256707082064E-1   -1.465634089994871E-2    4.088487132052761E-2   -1.246900106768815E-2    4.067324649965778E-2   -5.020095988535114E-1   -9.055610851536439E-2
 6.501585669000000E9    -4.540032894314271E-1   -2.643479282470321E-1   -1.453013147270647E-2    4.119565655785691E-2   -1.252011929549389E-2    4.096523432732929E-2   -5.023366360714073E-1   -8.920819705248144E-2
 6.501597650000000E9    -4.545325845080052E-1   -2.633622146919848E-1   -1.458681146512644E-2    4.152543911749093E-2   -1.248908956167954E-2    4.120606430552896E-2   -5.023878418861852E-1   -8.794585714035701E-2
 6.501609631000000E9    -4.550658255637888E-1   -2.623667786975782E-1   -1.452536406828534E-2    4.173916888563735E-2   -1.247478406948442E-2    4.159812816894667E-2   -5.024135769805316E-1   -8.664097578221679E-2
 6.501621612000000E9    -4.555924248113436E-1   -2.615283825486234E-1   -1.468164677948152E-2    4.219045701844984E-2   -1.241975294882028E-2    4.188967191795499E-2   -5.025835553346206E-1   -8.515727566391317E-2
 6.501633593000000E9    -4.558551281464324E-1   -2.606439406547510E-1   -1.455356617014197E-2    4.237441320773451E-2   -1.237242478521211E-2    4.224716286862894E-2   -5.027561477630906E-1   -8.364656940908877E-2
 6.501645574000000E9    -4.565133454251808E-1   -2.596521688322657E-1   -1.448329948675389E-2    4.262789239585528E-2   -1.227140939040091E-2    4.249503180879203E-2   -5.029520771711757E-1   -8.241442484526322E-2
 6.501657555000000E9    -4.570221492897587E-1   -2.586723835483125E-1   -1.452013276066834E-2    4.308669329940827E-2   -1.228171143424810E-2    4.278909786664143E-2   -5.030732694781449E-1   -8.121397891194972E-2
 6.501669536000000E9    -4.574417536461927E-1   -2.578605351234937E-1   -1.449019128405292E-2    4.344491610428902E-2   -1.230455831854820E-2    4.306019462555825E-2   -5.030780715136841E-1   -7.963122645899477E-2
 6.501681517000000E9    -4.579484390515983E-1   -2.568531481135294E-1   -1.460642182237899E-2    4.363638578203657E-2   -1.232366203124571E-2    4.339322082300667E-2   -5.033556067203397E-1   -7.833725220046728E-2
 6.501693498000000E9    -4.584658059236666E-1   -2.559201642082614E-1   -1.449102747678245E-2    4.395996395570242E-2   -1.222468095852509E-2    4.359794201843236E-2   -5.034080950258182E-1   -7.687232692907593E-2
 6.501705479000000E9    -4.588384048634732E-1   -2.549470283984219E-1   -1.452473717459392E-2    4.436457529975150E-2   -1.213861403334815E-2    4.397458171008450E-2   -5.034929907094909E-1   -7.547128182540425E-2
 6.501717460000000E9    -4.593860778413053E-1   -2.539497687835300E-1   -1.447677367294609E-2    4.468155777412036E-2   -1.213291593816063E-2    4.420946881434452E-2   -5.035803530162309E-1   -7.411153922717706E-2
 6.501729441000000E9    -4.598516734926629E-1   -2.530669794530596E-1   -1.425063005387608E-2    4.506956438579060E-2   -1.203503439162872E-2    4.460440893721729E-2   -5.037395248605814E-1   -7.251556096064171E-2
 6.501741422000000E9    -4.602213527435515E-1   -2.521251495986908E-1   -1.444807918268407E-2    4.530603074281895E-2   -1.209464343033295E-2    4.492223613847215E-2   -5.036829458842446E-1   -7.110593376954481E-2
 6.501753403000000E9    -4.609720852891772E-1   -2.511688957367257E-1   -1.449362873031563E-2    4.566110716508037E-2   -1.201308176846836E-2    4.520058394034714E-2   -5.038307371902662E-1   -6.969320506752427E-2
 6.501765384000000E9    -4.613076071522741E-1   -2.502277482795608E-1   -1.426932943834165E-2    4.601780791534378E-2   -1.197523970094352E-2    4.552460562182922E-2   -5.038340866361865E-1   -6.831506595573682E-2
 6.501777365000000E9    -4.617493321954551E-1   -2.492400442635428E-1   -1.438705970395477E-2    4.634893878353492E-2   -1.190311913091114E-2    4.591501919103530E-2   -5.039552108372389E-1   -6.692725887758226E-2
 6.501789346000000E9    -4.621932333490960E-1   -2.482851903623415E-1   -1.425157107842690E-2    4.669487128401148E-2   -1.199576619995571E-2    4.634783324057468E-2   -5.039736103478656E-1   -6.551891002787612E-2
 6.501801327000000E9    -4.626787440260363E-1   -2.473187648533344E-1   -1.420839701273455E-2    4.706150432173547E-2   -1.187572840012188E-2    4.653521677746087E-2   -5.040800530297718E-1   -6.407649728237734E-2
 6.501813308000000E9    -4.631527162682443E-1   -2.463423197807235E-1   -1.418961822109672E-2    4.755448335862577E-2   -1.178409995377767E-2    4.710452094304239E-2   -5.040746509720694E-1   -6.249763350502790E-2
 6.501825289000000E9    -4.635737849547698E-1   -2.453912004515288E-1   -1.408771239575445E-2    4.785799575706491E-2   -1.173408751553155E-2    4.735125293609867E-2   -5.042094981835664E-1   -6.098116369908806E-2
 6.501837270000000E9    -4.640576541879019E-1   -2.443684553450774E-1   -1.414045766380869E-2    4.823134290972351E-2   -1.172840313748746E-2    4.769467197002734E-2   -5.042818943583249E-1   -5.970075549341635E-2
 6.501849251000000E9    -4.644844820506752E-1   -2.433460430385838E-1   -1.411330281083339E-2    4.866867561576664E-2   -1.160492013432315E-2    4.814075054723947E-2   -5.043004183450265E-1   -5.801503811035204E-2
 6.501861232000000E9    -4.649727056758126E-1   -2.422996549040812E-1   -1.409554115740235E-2    4.889376633904381E-2   -1.159765251982515E-2    4.842751434566588E-2   -5.043489425209764E-1   -5.640916274598513E-2
 6.501873213000000E9    -4.655390925692511E-1   -2.415207902079795E-1   -1.394401174103879E-2    4.923969673889848E-2   -1.172163005316406E-2    4.888573364692977E-2   -5.044560461346045E-1   -5.497934659993951E-2
 6.501885194000000E9    -4.658266278428213E-1   -2.404911133108793E-1   -1.403607647471315E-2    4.948561708109744E-2   -1.153448665700519E-2    4.925866324559135E-2   -5.044951329282332E-1   -5.350171187601489E-2
 6.501897175000000E9    -4.663442136974271E-1   -2.394649616113754E-1   -1.393151582954915E-2    5.010279468565658E-2   -1.159717710205526E-2    4.946350574891191E-2   -5.043965577508916E-1   -5.204223275453652E-2
 6.501909156000000E9    -4.668372331434714E-1   -2.384338803412419E-1   -1.385311577631817E-2    5.058871501566729E-2   -1.147706935088922E-2    4.993434046120944E-2   -5.045569276495615E-1   -5.045012053346117E-2
 6.501921137000000E9    -4.672851262854788E-1   -2.374116923370954E-1   -1.393713447790451E-2    5.089830508149084E-2   -1.140592198670750E-2    5.034810656374793E-2   -5.045381755673608E-1   -4.890909739643953E-2
 6.501933118000000E9    -4.676836427805721E-1   -2.364542419738020E-1   -1.384814237291816E-2    5.133369071778057E-2   -1.128778637586480E-2    5.088229060466694E-2   -5.044828019340226E-1   -4.730790020788254E-2
 6.501945099000000E9    -4.681738252559239E-1   -2.354232070231632E-1   -1.389679629071326E-2    5.167187286330505E-2   -1.122519426730974E-2    5.109812134535010E-2   -5.045901744905225E-1   -4.576945851229067E-2
 6.501957080000000E9    -4.686096708663769E-1   -2.343936672777457E-1   -1.382312085201061E-2    5.229012243891579E-2   -1.134785249787857E-2    5.156614040601369E-2   -5.043822961037406E-1   -4.418335984819249E-2
 6.501969061000000E9    -4.689254292538249E-1   -2.334248615856713E-1   -1.360607526141801E-2    5.265102058894973E-2   -1.117207589803221E-2    5.205347246986178E-2   -5.044394996794298E-1   -4.263291658928108E-2
 6.501981042000000E9    -4.694618771171232E-1   -2.323314673367324E-1   -1.364627527663553E-2    5.320369255397377E-2   -1.110092475987882E-2    5.253524404864464E-2   -5.044161200971249E-1   -4.108055570512644E-2
 6.501993023000000E9    -4.698657772863005E-1   -2.313056257040827E-1   -1.347330102665131E-2    5.348000192249588E-2   -1.103857374507124E-2    5.288241103900886E-2   -5.044464358645186E-1   -3.936458370095122E-2
 6.502005004000000E9    -4.703520986900532E-1   -2.302850576980955E-1   -1.348830701614600E-2    5.407146490252940E-2   -1.095707412494992E-2    5.331856295151498E-2   -5.044840396226375E-1   -3.770038377161021E-2
 6.502016985000000E9    -4.707152590337124E-1   -2.291917762601052E-1   -1.339010495675888E-2    5.450033422784239E-2   -1.091243881538988E-2    5.378207232838678E-2   -5.043989909165582E-1   -3.603887200403590E-2
 6.502028966000000E9    -4.712115114911968E-1   -2.282082253288193E-1   -1.348044109648128E-2    5.477508142644431E-2   -1.081668472694885E-2    5.416940799438387E-2   -5.043038813380684E-1   -3.455960713037640E-2
 6.502040947000000E9    -4.716340028422348E-1   -2.271641938851010E-1   -1.328612310873685E-2    5.531608587358745E-2   -1.071073299423224E-2    5.467430709739412E-2   -5.041448786415091E-1   -3.277963199687709E-2
 6.502052928000000E9    -4.720842424565397E-1   -2.262001226791309E-1   -1.335696565979443E-2    5.588878039285009E-2   -1.069759628220282E-2    5.507082919480634E-2   -5.043390213003638E-1   -3.108031397828765E-2
 6.502064909000000E9    -4.724369207842257E-1   -2.250604616032549E-1   -1.329011239474912E-2    5.626753670974200E-2   -1.054870836678199E-2    5.560845160727115E-2   -5.041784430158959E-1   -2.959694431002902E-2
 6.502076890000000E9    -4.728356518141806E-1   -2.239960342722205E-1   -1.310447227580145E-2    5.680126463853026E-2   -1.057583596900896E-2    5.607040395983492E-2   -5.040564778589636E-1   -2.767657330126974E-2
 6.502088871000000E9    -4.733324735259547E-1   -2.228934061426120E-1   -1.299325183900352E-2    5.725262405087451E-2   -1.037961866893865E-2    5.659467777607220E-2   -5.038966802109822E-1   -2.611399982832920E-2
 6.502100852000000E9    -4.737007584066929E-1   -2.219024488760284E-1   -1.303144450818802E-2    5.780853439409254E-2   -1.035683999460276E-2    5.701461547762253E-2   -5.039637454999651E-1   -2.410518364432379E-2
 6.502112833000000E9    -4.739908675427040E-1   -2.208456170437283E-1   -1.296154493142793E-2    5.843560089736145E-2   -1.020723043337690E-2    5.751242628031536E-2   -5.038969048504776E-1   -2.267358719355287E-2
 6.502124814000000E9    -4.744999185022228E-1   -2.196467572405239E-1   -1.284749795888754E-2    5.898544439725759E-2   -1.008233987432266E-2    5.803543848916500E-2   -5.036598653148026E-1   -2.088926330780488E-2
 6.502136795000000E9    -4.748766604584872E-1   -2.186094223049333E-1   -1.281725334498416E-2    5.952426131685032E-2   -9.994789430326976E-3    5.867272917122094E-2   -5.035279388101729E-1   -1.901205112366931E-2
 6.502148776000000E9    -4.753219968652042E-1   -2.174659606608837E-1   -1.269072887966365E-2    6.008146833835395E-2   -9.828573346910920E-3    5.908356479577947E-2   -5.032761674850764E-1   -1.742727955278673E-2
 6.502160757000000E9    -4.757079920779742E-1   -2.163880647718384E-1   -1.284564131906800E-2    6.051379555992432E-2   -9.787803848239145E-3    5.964514918737850E-2   -5.033998871794746E-1   -1.548482477890071E-2
 6.502172738000000E9    -4.761368845903446E-1   -2.152709412363727E-1   -1.247134638246527E-2    6.105516296108947E-2   -9.776228851934212E-3    6.025118159135136E-2   -5.032373802478067E-1   -1.367378680491560E-2
 6.502184719000000E9    -4.765074319387126E-1   -2.142650664238258E-1   -1.242529810230856E-2    6.168888342096032E-2   -9.582280497462259E-3    6.072972465558545E-2   -5.029023735363217E-1   -1.183079426684552E-2
