#  HZ   S   RI   R     50.00 
! Rohde & Schwarz Vector Network Analyzer 
! Rohde-Schwarz,ZNB20-2Port,1311601062101988,3.16
! Created: UTC 3/20/2024, 11:40:02 AM
! freq[Hz]                re:S11                  im:S11                  re:S21                  im:S21                  re:S12                  im:S12                  re:S22                  im:S22
 6.501089411000000E9    -4.326862301118368E-1   -3.001251297556752E-1   -1.479444992371850E-2    3.173860187689753E-2   -1.300453056076028E-2    3.166717304340056E-2   -4.938164447543446E-1   -1.403745908597020E-1
 6.501101460250000E9    -4.330327886984175E-1   -2.993526990114807E-1   -1.482764393870293E-2    3.183495785038519E-2   -1.300002198405968E-2    3.191434356404763E-2   -4.939157928261355E-1   -1.391792719038860E-1
 6.501113509500000E9    -4.335485780353642E-1   -2.985208798533842E-1   -1.472209078346557E-2    3.202689678861511E-2   -1.310071526549795E-2    3.215115936490672E-2   -4.944201569341501E-1   -1.380714020640093E-1
 6.501125558750000E9    -4.341807062000817E-1   -2.977218542945124E-1   -1.482684664880890E-2    3.235840532740531E-2   -1.297633108753397E-2    3.231489356345386E-2   -4.945882571381791E-1   -1.369080031755934E-1
 6.501137608000000E9    -4.348121684219761E-1   -2.966670550489439E-1   -1.484781647088710E-2    3.253313758219194E-2   -1.310490385928699E-2    3.254763993887214E-2   -4.948128693073769E-1   -1.357709303080354E-1
 6.501149657250000E9    -4.352839393434262E-1   -2.960353026913506E-1   -1.489242678207302E-2    3.259769652986631E-2   -1.309782348536243E-2    3.259622258165332E-2   -4.950502242839058E-1   -1.344813761653252E-1
 6.501161706500000E9    -4.358393078063620E-1   -2.952384944270107E-1   -1.471631493969478E-2    3.279368202613576E-2   -1.296907459872189E-2    3.288938070674020E-2   -4.952194326745811E-1   -1.334150997487652E-1
 6.501173755750000E9    -4.363296125460582E-1   -2.943048110416840E-1   -1.474321122010543E-2    3.310608926446379E-2   -1.299424429859088E-2    3.304186994153047E-2   -4.956101327758634E-1   -1.321598100905658E-1
 6.501185805000000E9    -4.368618742626286E-1   -2.933147219077327E-1   -1.474006134275557E-2    3.328167819014922E-2   -1.303361641062336E-2    3.333480424174284E-2   -4.956577462567745E-1   -1.309049690171412E-1
 6.501197854250000E9    -4.375048211676695E-1   -2.926314675199115E-1   -1.489212953018888E-2    3.346554785240757E-2   -1.297296062834222E-2    3.347527862743067E-2   -4.959860332503083E-1   -1.297693956476509E-1
 6.501209903500000E9    -4.379527686146930E-1   -2.917170475429909E-1   -1.483270122332068E-2    3.368815308444317E-2   -1.301509244079596E-2    3.357461638929554E-2   -4.962657521177025E-1   -1.284387053611666E-1
 6.501221952750000E9    -4.385450011279318E-1   -2.909445171357558E-1   -1.478512390938677E-2    3.392188387938304E-2   -1.302098869149030E-2    3.397162483564158E-2   -4.965110627310067E-1   -1.273332020343420E-1
 6.501234002000000E9    -4.390295458601393E-1   -2.900521819747410E-1   -1.483028290614356E-2    3.403446038387115E-2   -1.294786344053291E-2    3.412270538444109E-2   -4.966221288302589E-1   -1.262115631491507E-1
 6.501246051250000E9    -4.395818779733390E-1   -2.891513229300503E-1   -1.479924856524386E-2    3.427525609828050E-2   -1.293805562411358E-2    3.434998890932019E-2   -4.969199550061714E-1   -1.249701732981057E-1
 6.501258100500000E9    -4.401619917517162E-1   -2.883379998202813E-1   -1.489644270008382E-2    3.443233315577363E-2   -1.297029297550395E-2    3.446691222203740E-2   -4.970731279558390E-1   -1.237815244571431E-1
 6.501270149750000E9    -4.406723927577567E-1   -2.874419511595697E-1   -1.486261065218898E-2    3.484799677432431E-2   -1.292217194609334E-2    3.474691441475736E-2   -4.974705950756829E-1   -1.225753162794782E-1
 6.501282199000000E9    -4.412190319212250E-1   -2.865615474483725E-1   -1.481312177122872E-2    3.492865723450028E-2   -1.292177385553236E-2    3.485496573601564E-2   -4.976846202389606E-1   -1.212330817912732E-1
 6.501294248250000E9    -4.417219857445584E-1   -2.857166426103835E-1   -1.483081271675573E-2    3.514565193433432E-2   -1.292238849318773E-2    3.515832757379889E-2   -4.978287854568343E-1   -1.200906818053996E-1
 6.501306297500000E9    -4.422702924359660E-1   -2.847430755751957E-1   -1.484828862631570E-2    3.542821930323582E-2   -1.288461197779375E-2    3.529119837891501E-2   -4.981372551230410E-1   -1.189485638375757E-1
 6.501318346750000E9    -4.427825122685082E-1   -2.840020819409425E-1   -1.488531899830305E-2    3.561736996032675E-2   -1.289759688050213E-2    3.555185428700029E-2   -4.982820237015231E-1   -1.177038718472265E-1
 6.501330396000000E9    -4.432804397654073E-1   -2.830654835594364E-1   -1.484642821983729E-2    3.592403679211249E-2   -1.289049328497271E-2    3.577354648956285E-2   -4.985178562422152E-1   -1.163840345207125E-1
 6.501342445250000E9    -4.438361197014203E-1   -2.821955093072525E-1   -1.483833209156180E-2    3.618710281210201E-2   -1.285345420325587E-2    3.603150433691486E-2   -4.986999170416614E-1   -1.151796066781847E-1
 6.501354494500000E9    -4.443397161030365E-1   -2.813670116023617E-1   -1.467930328940144E-2    3.632898862585331E-2   -1.292169290379391E-2    3.627343743745524E-2   -4.989494652762445E-1   -1.139926356638917E-1
 6.501366543750000E9    -4.448181757672891E-1   -2.804619606911871E-1   -1.474544543706996E-2    3.650396726122802E-2   -1.291601939969471E-2    3.647000031751151E-2   -4.990154065786338E-1   -1.126627124789229E-1
 6.501378593000000E9    -4.453453447086347E-1   -2.795959238671505E-1   -1.465399964588924E-2    3.676381021625044E-2   -1.281516304416420E-2    3.675400392723345E-2   -4.993022926492495E-1   -1.113556562827566E-1
 6.501390642250000E9    -4.459446714763546E-1   -2.786984499264761E-1   -1.489281280909072E-2    3.697760201706381E-2   -1.280668477697287E-2    3.694918774556115E-2   -4.994375224219492E-1   -1.101625112043750E-1
 6.501402691500000E9    -4.463710409128880E-1   -2.778626739238583E-1   -1.468931050838468E-2    3.736500974498153E-2   -1.281818102124978E-2    3.724859522504947E-2   -4.997137215868329E-1   -1.087754330859558E-1
 6.501414740750000E9    -4.469492049870961E-1   -2.769446874482478E-1   -1.485285891090430E-2    3.764232246654923E-2   -1.280278559239707E-2    3.744331817908849E-2   -4.999175764707904E-1   -1.076640754976302E-1
 6.501426790000000E9    -4.474516486644557E-1   -2.760778034470227E-1   -1.468051815204432E-2    3.784628230540740E-2   -1.269194985220638E-2    3.756607854460455E-2   -5.000458679079759E-1   -1.063731089241180E-1
 6.501438839250000E9    -4.479946871514874E-1   -2.752318439555907E-1   -1.479559429261995E-2    3.812974242429971E-2   -1.263649443003939E-2    3.791085683568408E-2   -5.002567770260467E-1   -1.050873662276037E-1
 6.501450888500000E9    -4.484953909638931E-1   -2.743444625669861E-1   -1.467594610825109E-2    3.830106127588081E-2   -1.263022756076352E-2    3.820596052952944E-2   -5.005334842892452E-1   -1.038453855695592E-1
 6.501462937750000E9    -4.489886921318325E-1   -2.733831052251884E-1   -1.470469110474612E-2    3.854582812246286E-2   -1.271992758688432E-2    3.842948709956252E-2   -5.005039159210184E-1   -1.026097008710645E-1
 6.501474987000000E9    -4.494471299901365E-1   -2.723861982114052E-1   -1.465088918208416E-2    3.871470753878451E-2   -1.266777468006783E-2    3.861972350716112E-2   -5.008064536129951E-1   -1.011948809264722E-1
 6.501487036250000E9    -4.499188746308449E-1   -2.716007890553812E-1   -1.465754767323441E-2    3.898951241282599E-2   -1.254720495209090E-2    3.887361684553661E-2   -5.009857059160217E-1   -9.995844808133035E-2
 6.501499085500000E9    -4.505017438212734E-1   -2.706122848923892E-1   -1.471994707152345E-2    3.931161142737014E-2   -1.263471009693427E-2    3.913705003674578E-2   -5.011592134224535E-1   -9.870385096604467E-2
 6.501511134750000E9    -4.510119354626209E-1   -2.697011454785515E-1   -1.457866223136637E-2    3.957450234733170E-2   -1.269550320791993E-2    3.951489569138635E-2   -5.012092677664680E-1   -9.723311876303217E-2
 6.501523184000000E9    -4.515278430172283E-1   -2.688119486596567E-1   -1.465781384898870E-2    3.992607346949146E-2   -1.259715358277991E-2    3.966710998312686E-2   -5.015966834081906E-1   -9.590284463096492E-2
 6.501535233250000E9    -4.520372210389293E-1   -2.678791718488475E-1   -1.467226061286105E-2    4.022859798200967E-2   -1.261597960063294E-2    4.000419181480500E-2   -5.014620696378121E-1   -9.468809549825649E-2
 6.501547282500000E9    -4.525410533854137E-1   -2.670415275923793E-1   -1.465347709364229E-2    4.039752537771781E-2   -1.255695094303586E-2    4.020470611184849E-2   -5.017454703930070E-1   -9.342262776076073E-2
 6.501559331750000E9    -4.529581906354713E-1   -2.661050037991987E-1   -1.475612184473283E-2    4.067354028495219E-2   -1.253151079946011E-2    4.050990623026032E-2   -5.018689386800674E-1   -9.199023630438076E-2
 6.501571381000000E9    -4.535386357027524E-1   -2.652369736010479E-1   -1.467992170147386E-2    4.099117197564182E-2   -1.248247372459111E-2    4.072715303100694E-2   -5.020307817645510E-1   -9.074123434602918E-2
 6.501583430250000E9    -4.540271237739570E-1   -2.642030587499589E-1   -1.470456611207221E-2    4.123295749036800E-2   -1.250785209391297E-2    4.104898976251268E-2   -5.022246594939050E-1   -8.936639724068940E-2
 6.501595479500000E9    -4.545131854323133E-1   -2.632785843534796E-1   -1.461661095973799E-2    4.158300845913470E-2   -1.244085630576727E-2    4.126806469023932E-2   -5.023457290226834E-1   -8.794566326165223E-2
 6.501607528750000E9    -4.550453731292859E-1   -2.624729311000223E-1   -1.438242358183707E-2    4.185307567549926E-2   -1.240946127985134E-2    4.158239885799385E-2   -5.024911573245060E-1   -8.659637064754573E-2
 6.501619578000000E9    -4.555144150269461E-1   -2.615113424128132E-1   -1.454547194059515E-2    4.218748793414825E-2   -1.238302672736600E-2    4.193000910263687E-2   -5.026113523052109E-1   -8.515086276448558E-2
 6.501631627250000E9    -4.560251357958751E-1   -2.606517322868154E-1   -1.458688964327134E-2    4.255502741192457E-2   -1.238426433733454E-2    4.217689491810621E-2   -5.026910040936217E-1   -8.402095063686016E-2
 6.501643676500000E9    -4.564735690146884E-1   -2.596017439351143E-1   -1.441482436848187E-2    4.291607525107634E-2   -1.232531555138424E-2    4.254769550467482E-2   -5.028420681079596E-1   -8.249676446948742E-2
 6.501655725750000E9    -4.569232874520263E-1   -2.586956149791570E-1   -1.471386737346925E-2    4.305955702331438E-2   -1.225513591074982E-2    4.277491565359964E-2   -5.030088139428870E-1   -8.120204231951766E-2
 6.501667775000000E9    -4.573628250153810E-1   -2.577181002857153E-1   -1.450381171451394E-2    4.337906091073657E-2   -1.226538449707612E-2    4.310890321457067E-2   -5.030171449817217E-1   -7.966201936774736E-2
 6.501679824250000E9    -4.579243899491645E-1   -2.568160451754264E-1   -1.450402173647779E-2    4.362995709637163E-2   -1.228522544350811E-2    4.332828316044033E-2   -5.032306034869104E-1   -7.838724981396913E-2
 6.501691873500000E9    -4.585029186535440E-1   -2.558832257043533E-1   -1.453848086015665E-2    4.409932269731335E-2   -1.211672306297636E-2    4.370233098034524E-2   -5.032999406011707E-1   -7.689341099202386E-2
 6.501703922750000E9    -4.588503182952859E-1   -2.548768360757980E-1   -1.439486004970578E-2    4.440529344340881E-2   -1.228367531447150E-2    4.410651710326081E-2   -5.035253614359880E-1   -7.544753246290338E-2
 6.501715972000000E9    -4.593227247894930E-1   -2.538850741390337E-1   -1.449409539060985E-2    4.466709722374317E-2   -1.216830241485371E-2    4.436372964064601E-2   -5.035785598272866E-1   -7.409703947784928E-2
 6.501728021250000E9    -4.598015460944360E-1   -2.530923513590963E-1   -1.435206014676868E-2    4.492285456634049E-2   -1.209220536371191E-2    4.470031751433451E-2   -5.036247968286757E-1   -7.255573749621343E-2
 6.501740070500000E9    -4.603286415079068E-1   -2.519751065522903E-1   -1.434762583033658E-2    4.539353796951694E-2   -1.205775896099369E-2    4.505793828463431E-2   -5.037989937737132E-1   -7.136815775013253E-2
 6.501752119750000E9    -4.608670730020897E-1   -2.510656538157418E-1   -1.445062819433347E-2    4.575544853542204E-2   -1.202438973290951E-2    4.540550710939636E-2   -5.038127916371817E-1   -6.981041081521448E-2
 6.501764169000000E9    -4.611996569332640E-1   -2.501302687233159E-1   -1.431202869002890E-2    4.607800824235861E-2   -1.200235750596477E-2    4.564561495858925E-2   -5.038551049199437E-1   -6.833318886111052E-2
 6.501776218250000E9    -4.617163078179417E-1   -2.490734676374810E-1   -1.437174171540712E-2    4.638580170631423E-2   -1.194208014920799E-2    4.601811985832940E-2   -5.041220910572537E-1   -6.695087562415092E-2
 6.501788267500000E9    -4.622049318162926E-1   -2.482667517504444E-1   -1.414966769697174E-2    4.668060413286940E-2   -1.189709898340676E-2    4.634026474105821E-2   -5.040106376416533E-1   -6.550391763855942E-2
 6.501800316750000E9    -4.627086212658468E-1   -2.472288178979469E-1   -1.420152849779114E-2    4.718185591229921E-2   -1.181102856364130E-2    4.671269786934060E-2   -5.041683909659116E-1   -6.390684140941838E-2
 6.501812366000000E9    -4.631006197581520E-1   -2.462048217262199E-1   -1.436283477164332E-2    4.739494474543884E-2   -1.181570755768885E-2    4.702283758559152E-2   -5.041768065064783E-1   -6.249997255616460E-2
 6.501824415250000E9    -4.635826465913285E-1   -2.452061716404601E-1   -1.407634437197488E-2    4.792825757211359E-2   -1.177658378051052E-2    4.737048742162422E-2   -5.041269073929437E-1   -6.103271774937548E-2
 6.501836464500000E9    -4.640052670908881E-1   -2.442816150149854E-1   -1.417295959219625E-2    4.815407829189625E-2   -1.171662470562146E-2    4.774701247099741E-2   -5.042576480789506E-1   -5.952925063513063E-2
 6.501848513750000E9    -4.644747120783653E-1   -2.431933761391327E-1   -1.411477583459860E-2    4.853637923957500E-2   -1.174452244685080E-2    4.829358755914961E-2   -5.043786722575508E-1   -5.792626885309189E-2
 6.501860563000000E9    -4.650488455978753E-1   -2.422342012840626E-1   -1.419410312979444E-2    4.899433102707199E-2   -1.169661526740925E-2    4.854053429288236E-2   -5.042820406565461E-1   -5.659353722767500E-2
 6.501872612250000E9    -4.653970287794194E-1   -2.412125410282454E-1   -1.408293109137135E-2    4.942864880691142E-2   -1.167610960829454E-2    4.884092341126855E-2   -5.044865115987093E-1   -5.490884529614451E-2
 6.501884661500000E9    -4.658285251132885E-1   -2.403224189306105E-1   -1.397768638894369E-2    4.978505103334376E-2   -1.158329176387622E-2    4.926293675276236E-2   -5.043907144530902E-1   -5.324973689161220E-2
 6.501896710750000E9    -4.663054893743173E-1   -2.393171836861828E-1   -1.391930388179670E-2    5.027884000559908E-2   -1.153248379356211E-2    4.965960972080312E-2   -5.043490876244745E-1   -5.207802916710269E-2
 6.501908760000000E9    -4.667530542688580E-1   -2.381470844552399E-1   -1.385622302876915E-2    5.066853839802613E-2   -1.141599622857626E-2    5.010450660184374E-2   -5.044499482628063E-1   -5.035112365761888E-2
 6.501920809250000E9    -4.672015451154675E-1   -2.371641744624968E-1   -1.386904112714496E-2    5.102588794588613E-2   -1.141232100531931E-2    5.042721729378048E-2   -5.045692537135249E-1   -4.889199065258030E-2
 6.501932858500000E9    -4.676439529138794E-1   -2.362758923740899E-1   -1.385333333993552E-2    5.156798663868469E-2   -1.115091187485392E-2    5.084479917568639E-2   -5.044396347631845E-1   -4.727937909790195E-2
 6.501944907750000E9    -4.680723724636318E-1   -2.351664794643037E-1   -1.383212632737964E-2    5.195029381852362E-2   -1.131624151823325E-2    5.129884031498659E-2   -5.045014184920701E-1   -4.566266307558360E-2
 6.501956957000000E9    -4.685703321368152E-1   -2.341922470252602E-1   -1.364364904240911E-2    5.225623660392996E-2   -1.128473840840617E-2    5.170494991943460E-2   -5.044766086457679E-1   -4.407970240884440E-2
 6.501969006250000E9    -4.689896780919473E-1   -2.331659673573700E-1   -1.369634523729848E-2    5.266232891012535E-2   -1.115605745106042E-2    5.212668985260879E-2   -5.045988075548242E-1   -4.237183002571884E-2
 6.501981055500000E9    -4.693946352116111E-1   -2.320734919214762E-1   -1.363865392324679E-2    5.318345788461444E-2   -1.105392646346148E-2    5.247272522234023E-2   -5.044904964725266E-1   -4.072542538914774E-2
 6.501993104750000E9    -4.698404731882707E-1   -2.310517724022067E-1   -1.351064609500368E-2    5.350672968259609E-2   -1.099884069054575E-2    5.302580064741558E-2   -5.044535420018039E-1   -3.924306950132331E-2
 6.502005154000000E9    -4.703468196684805E-1   -2.300525546412980E-1   -1.341571671213002E-2    5.413983875862840E-2   -1.091890477855402E-2    5.342920749691436E-2   -5.044779990547734E-1   -3.756024752255973E-2
 6.502017203250000E9    -4.707172833840745E-1   -2.289094786108478E-1   -1.348408094688329E-2    5.455417254260998E-2   -1.085122765982686E-2    5.385608714976186E-2   -5.043292609808380E-1   -3.594284917958830E-2
 6.502029252500000E9    -4.711401938216651E-1   -2.279316309823107E-1   -1.344914849505385E-2    5.510152903712494E-2   -1.084768406918157E-2    5.433554795982930E-2   -5.042954132125106E-1   -3.417660247903653E-2
 6.502041301750000E9    -4.716095282314655E-1   -2.268623607480036E-1   -1.337000880552767E-2    5.562686465750768E-2   -1.066763574464007E-2    5.480244931495226E-2   -5.042967802059819E-1   -3.259293465943132E-2
 6.502053351000000E9    -4.720149063815865E-1   -2.258271481078310E-1   -1.328184034213231E-2    5.599920915103681E-2   -1.057188219988136E-2    5.526659252452223E-2   -5.041997861948491E-1   -3.076898683720379E-2
 6.502065400250000E9    -4.724465626426892E-1   -2.246760930075539E-1   -1.322180414448103E-2    5.645144811619109E-2   -1.052512390760434E-2    5.569123050660398E-2   -5.041133936658376E-1   -2.906203283834616E-2
 6.502077449500000E9    -4.729937902619973E-1   -2.236492106045226E-1   -1.312333571566373E-2    5.699157841872770E-2   -1.053598793268920E-2    5.631631024975291E-2   -5.040976093466603E-1   -2.746219024517146E-2
 6.502089498750000E9    -4.733568469338856E-1   -2.225102952769906E-1   -1.300926583780622E-2    5.758135425683836E-2   -1.030859056337082E-2    5.666333098701526E-2   -5.040364148996085E-1   -2.578886632445753E-2
 6.502101548000000E9    -4.737942242774260E-1   -2.215303687873895E-1   -1.294096074253599E-2    5.801264040209982E-2   -1.024179262665062E-2    5.719395583586503E-2   -5.038167910379312E-1   -2.387282432112009E-2
 6.502113597250000E9    -4.741711968820532E-1   -2.203836342600420E-1   -1.297015929774546E-2    5.859516004839557E-2   -1.018994968336122E-2    5.778801727881836E-2   -5.038295765306904E-1   -2.221608101358792E-2
 6.502125646500000E9    -4.746375631414280E-1   -2.193532164349533E-1   -1.284366456516601E-2    5.905432055306848E-2   -1.008182981131995E-2    5.819949597676358E-2   -5.036560732471563E-1   -2.036045118519893E-2
 6.502137695750000E9    -4.750411970073383E-1   -2.183156215771906E-1   -1.280884698335328E-2    5.963549291898421E-2   -9.996835147605309E-3    5.880575603998449E-2   -5.035490372423888E-1   -1.865549969367647E-2
 6.502149745000000E9    -4.753769186344015E-1   -2.172093566431681E-1   -1.266330545432936E-2    6.024676928060057E-2   -9.860932881644673E-3    5.934329386840275E-2   -5.034442453539996E-1   -1.686783076112181E-2
 6.502161794250000E9    -4.757676823101648E-1   -2.160933850767907E-1   -1.251848258224985E-2    6.060016869320649E-2   -9.799773075597972E-3    5.997273967000053E-2   -5.032765692720036E-1   -1.512958394949103E-2
 6.502173843500000E9    -4.762393794357399E-1   -2.149713611219710E-1   -1.244005508576530E-2    6.121371691463925E-2   -9.672568465778774E-3    6.040817442481741E-2   -5.030116970962837E-1   -1.312000732010368E-2
