#  HZ   S   RI   R     50.00 
! Rohde & Schwarz Vector Network Analyzer 
! Rohde-Schwarz,ZNB20-2Port,1311601062101988,3.16
! Created: UTC 3/20/2024, 11:40:15 AM
! freq[Hz]                re:S11                  im:S11                  re:S21                  im:S21                  re:S12                  im:S12                  re:S22                  im:S22
 6.501085168000000E9    -4.323402038036714E-1   -3.004193481642349E-1   -1.479833390212494E-2    3.163844687910079E-2   -1.303768392170550E-2    3.167270209640012E-2   -4.935898763319287E-1   -1.407540383844652E-1
 6.501097228150000E9    -4.328865747927300E-1   -2.996313568806201E-1   -1.482999913925098E-2    3.182559831784121E-2   -1.304707359358882E-2    3.188656317770833E-2   -4.938751012303990E-1   -1.396951671304451E-1
 6.501109288300000E9    -4.334509823999557E-1   -2.988409758336482E-1   -1.472304436402722E-2    3.218058621505837E-2   -1.298747456103911E-2    3.204591509255018E-2   -4.941855975082772E-1   -1.385583981797204E-1
 6.501121348450000E9    -4.340880241951736E-1   -2.978454252374177E-1   -1.474743236568086E-2    3.222108755655512E-2   -1.297768297279224E-2    3.228568469347948E-2   -4.943263581680579E-1   -1.373694091065709E-1
 6.501133408600000E9    -4.345305156037639E-1   -2.971322947351462E-1   -1.483047776382860E-2    3.239146044765457E-2   -1.303079480661358E-2    3.252388426933622E-2   -4.946416976348746E-1   -1.360672056378503E-1
 6.501145468750000E9    -4.351249490852663E-1   -2.962509154923961E-1   -1.480066627296225E-2    3.271908646481223E-2   -1.307803367087738E-2    3.267786305871898E-2   -4.949730070381214E-1   -1.348372822447451E-1
 6.501157528900000E9    -4.355714628561238E-1   -2.954065870097635E-1   -1.477315592905517E-2    3.280527314444485E-2   -1.300480434117882E-2    3.290908475903365E-2   -4.951877008437169E-1   -1.337207480955980E-1
 6.501169589050000E9    -4.362274677903083E-1   -2.945578419605984E-1   -1.471485954193106E-2    3.311833817189299E-2   -1.300352853735551E-2    3.302618825675838E-2   -4.953349935663882E-1   -1.325704045842087E-1
 6.501181649200000E9    -4.366933448691497E-1   -2.937134563322003E-1   -1.480079005703490E-2    3.315727612157790E-2   -1.299734753013484E-2    3.332438655772128E-2   -4.955853651468772E-1   -1.313458604102268E-1
 6.501193709350000E9    -4.372912796256596E-1   -2.928634147441945E-1   -1.483572872044408E-2    3.344892788513566E-2   -1.294555677408274E-2    3.345861787312254E-2   -4.959961695766898E-1   -1.303438959496140E-1
 6.501205769500000E9    -4.377132711152432E-1   -2.920645811321506E-1   -1.489117086725565E-2    3.367323657002834E-2   -1.292100478669343E-2    3.363433350789769E-2   -4.960444982020749E-1   -1.290537344284493E-1
 6.501217829650000E9    -4.383918422955868E-1   -2.912348486354516E-1   -1.478008232445329E-2    3.383938323661447E-2   -1.299923126014964E-2    3.374997001449194E-2   -4.963917629062766E-1   -1.277623301001637E-1
 6.501229889800000E9    -4.388760872162334E-1   -2.903241111999400E-1   -1.469209812134345E-2    3.418020844512767E-2   -1.297135820483140E-2    3.415991311528396E-2   -4.966331663069041E-1   -1.265415046859878E-1
 6.501241949950000E9    -4.394353783960730E-1   -2.893376267856201E-1   -1.491315078722253E-2    3.428953226986654E-2   -1.299424326923580E-2    3.424246654719039E-2   -4.968504200535712E-1   -1.252968195998801E-1
 6.501254010100000E9    -4.399650681259516E-1   -2.885091932861802E-1   -1.482723603794996E-2    3.453885671413084E-2   -1.294789500067929E-2    3.455203779012551E-2   -4.970518229861315E-1   -1.241121584509224E-1
 6.501266070250000E9    -4.405569929397731E-1   -2.876839884593049E-1   -1.476829171922363E-2    3.469540834375628E-2   -1.290143350664622E-2    3.469624314539677E-2   -4.974098318717249E-1   -1.229833041194588E-1
 6.501278130400000E9    -4.410761286460755E-1   -2.868138499148797E-1   -1.480443762183260E-2    3.489906030244141E-2   -1.283881175650897E-2    3.480569528416495E-2   -4.975646689357235E-1   -1.217378970755867E-1
 6.501290190550000E9    -4.414563130735148E-1   -2.858790962683345E-1   -1.490728042530347E-2    3.508624894700237E-2   -1.286942036227550E-2    3.504519698887539E-2   -4.977524862312060E-1   -1.204074635676597E-1
 6.501302250700000E9    -4.420879708313266E-1   -2.851210442312562E-1   -1.479311798127847E-2    3.538218051675375E-2   -1.287460463583094E-2    3.537121195056607E-2   -4.979043183648298E-1   -1.193352275700123E-1
 6.501314310850000E9    -4.426399877989586E-1   -2.841695750580768E-1   -1.489544936232349E-2    3.553592360423916E-2   -1.302178711728910E-2    3.546820074235718E-2   -4.982330231357168E-1   -1.181390690165423E-1
 6.501326371000000E9    -4.431439187771166E-1   -2.835126442274645E-1   -1.480917333010765E-2    3.590590046917112E-2   -1.290612132550707E-2    3.570260946490646E-2   -4.983893870243018E-1   -1.169057997202625E-1
 6.501338431150000E9    -4.436569354905776E-1   -2.824445227955205E-1   -1.483510837807945E-2    3.611027743216055E-2   -1.281299821802508E-2    3.606598587193427E-2   -4.986446604155954E-1   -1.154896111667841E-1
 6.501350491300000E9    -4.442034247724478E-1   -2.816333136182284E-1   -1.479613551540315E-2    3.634982760979930E-2   -1.282357755660971E-2    3.623777476849938E-2   -4.989756100153387E-1   -1.142924053706760E-1
 6.501362551450000E9    -4.447511980896486E-1   -2.806760158164479E-1   -1.474101165563132E-2    3.657134708211428E-2   -1.282350528411416E-2    3.658205825680512E-2   -4.989677195099522E-1   -1.129759666541712E-1
 6.501374611600000E9    -4.452597465304760E-1   -2.799208429887080E-1   -1.475000051125750E-2    3.678269870726101E-2   -1.284885637150415E-2    3.667421624767569E-2   -4.992544445636979E-1   -1.118212041171088E-1
 6.501386671750000E9    -4.457868567291132E-1   -2.789683946298537E-1   -1.478357632174973E-2    3.716805687377019E-2   -1.278696621886655E-2    3.689691490170453E-2   -4.993879837105052E-1   -1.105532064088141E-1
 6.501398731900000E9    -4.462948726562416E-1   -2.780925737534346E-1   -1.473372568217325E-2    3.725576391501954E-2   -1.282130682313001E-2    3.713314407019484E-2   -4.995377804453938E-1   -1.093238990000316E-1
 6.501410792050000E9    -4.468340572792285E-1   -2.771481229697845E-1   -1.478319554927033E-2    3.756582177212696E-2   -1.268563069039342E-2    3.744038525346734E-2   -4.998011654002695E-1   -1.081439929863123E-1
 6.501422852200000E9    -4.472809864122199E-1   -2.762572850162730E-1   -1.482076516773962E-2    3.791051751880058E-2   -1.267440469470595E-2    3.759896029886956E-2   -4.998455807111247E-1   -1.066741612521376E-1
 6.501434912350000E9    -4.477979145103451E-1   -2.753899701676073E-1   -1.466844667845140E-2    3.803437859460464E-2   -1.273810972947182E-2    3.780007081787096E-2   -5.001387111800839E-1   -1.055436911959784E-1
 6.501446972500000E9    -4.484509498795401E-1   -2.746021911881976E-1   -1.487931172362207E-2    3.832847815061903E-2   -1.272062212443829E-2    3.813185820219027E-2   -5.002855253229205E-1   -1.041340289802084E-1
 6.501459032650000E9    -4.488695368135238E-1   -2.736003809678930E-1   -1.476559356941070E-2    3.848874704478936E-2   -1.264316124265080E-2    3.843761961626359E-2   -5.005620247326626E-1   -1.028493928597785E-1
 6.501471092800000E9    -4.492245055243938E-1   -2.727920571603213E-1   -1.468371161924777E-2    3.878177171794347E-2   -1.267406209886859E-2    3.860566194909085E-2   -5.007655040916015E-1   -1.016219314895576E-1
 6.501483152950000E9    -4.497698987399926E-1   -2.717571762322922E-1   -1.470676257084956E-2    3.909320661252450E-2   -1.264312844632534E-2    3.883485333629275E-2   -5.009068661878794E-1   -1.003091231650216E-1
 6.501495213100000E9    -4.504608549027023E-1   -2.708725329441431E-1   -1.479825014218138E-2    3.920346837162025E-2   -1.267059302437942E-2    3.911269523770260E-2   -5.011210384444430E-1   -9.901384422772042E-2
 6.501507273250000E9    -4.508481884410724E-1   -2.700772238599453E-1   -1.476822699722237E-2    3.952363885150073E-2   -1.258492811143842E-2    3.938270062324570E-2   -5.012558466878890E-1   -9.763667541864676E-2
 6.501519333400000E9    -4.513319721834450E-1   -2.691048675830753E-1   -1.468561124526879E-2    3.982486626253967E-2   -1.256734238267016E-2    3.949571121807725E-2   -5.012230113377760E-1   -9.638374593586144E-2
 6.501531393550000E9    -4.518287801894696E-1   -2.682082400560348E-1   -1.465417460191106E-2    4.005035508187176E-2   -1.254383069478357E-2    3.985798832992112E-2   -5.015836826946956E-1   -9.503763340660372E-2
 6.501543453700000E9    -4.523315337452065E-1   -2.672752309589252E-1   -1.468779374720055E-2    4.036833753606191E-2   -1.246892669016489E-2    4.014642896716212E-2   -5.017085620501558E-1   -9.380171234689215E-2
 6.501555513850000E9    -4.529227566683351E-1   -2.662509958605576E-1   -1.451855909263596E-2    4.069374170708238E-2   -1.249106930814155E-2    4.048295210671832E-2   -5.018386496094308E-1   -9.240878777504080E-2
 6.501567574000000E9    -4.533542725733593E-1   -2.653737219588744E-1   -1.460276334651345E-2    4.090450756794506E-2   -1.251709018507718E-2    4.066043618284490E-2   -5.019836430197453E-1   -9.095064741470725E-2
 6.501579634150000E9    -4.537801109988349E-1   -2.645347417759491E-1   -1.469252537288264E-2    4.130575855565705E-2   -1.242507688260469E-2    4.098826765287954E-2   -5.021762816145207E-1   -8.982079553529376E-2
 6.501591694300000E9    -4.543285012914899E-1   -2.636060672795615E-1   -1.466456596303178E-2    4.141995717453085E-2   -1.247700189979498E-2    4.123217118370227E-2   -5.024037287495330E-1   -8.838935738740437E-2
 6.501603754450000E9    -4.547882103931400E-1   -2.626817674365314E-1   -1.470263176322504E-2    4.184905731341410E-2   -1.240589829580770E-2    4.158355361903745E-2   -5.024051294960410E-1   -8.707037004397354E-2
 6.501615814600000E9    -4.553440869850428E-1   -2.617297612165693E-1   -1.459919634041720E-2    4.215057303803947E-2   -1.239763898181186E-2    4.188384691576083E-2   -5.026177723160794E-1   -8.572102254433571E-2
 6.501627874750000E9    -4.558924926001967E-1   -2.607517616980177E-1   -1.448536910389650E-2    4.240129713713253E-2   -1.237085711538368E-2    4.215015621269599E-2   -5.028246041371024E-1   -8.413148781780126E-2
 6.501639934900000E9    -4.563018321855063E-1   -2.598098950440497E-1   -1.451006863371542E-2    4.280201730165389E-2   -1.241469635842749E-2    4.251094833997887E-2   -5.028519098777922E-1   -8.300423230166359E-2
 6.501651995050000E9    -4.568337899161700E-1   -2.589599113438343E-1   -1.462514856320097E-2    4.300383462852136E-2   -1.224577585120979E-2    4.273086587027729E-2   -5.027977884897762E-1   -8.150254446992995E-2
 6.501664055200000E9    -4.573038764572732E-1   -2.579412296565383E-1   -1.448679451650084E-2    4.335806425530601E-2   -1.232880050664294E-2    4.304530825359117E-2   -5.030891242461468E-1   -8.017422151750193E-2
 6.501676115350000E9    -4.578926585852852E-1   -2.570123114153755E-1   -1.447397786901652E-2    4.364773102757288E-2   -1.232217513045158E-2    4.337694619292045E-2   -5.032726962954542E-1   -7.877973742599377E-2
 6.501688175500000E9    -4.582373597704551E-1   -2.560805653819246E-1   -1.442159611140818E-2    4.389978487887348E-2   -1.223781538037114E-2    4.360943155294288E-2   -5.033549134102224E-1   -7.732763664570105E-2
 6.501700235650000E9    -4.588090617031649E-1   -2.551957929559601E-1   -1.441685662810412E-2    4.422063448493977E-2   -1.220559146798860E-2    4.405090427969062E-2   -5.033757850865694E-1   -7.579012854281136E-2
 6.501712295800000E9    -4.592853094504009E-1   -2.542463091588909E-1   -1.440351592494494E-2    4.450203429396820E-2   -1.217154138586646E-2    4.422874305821893E-2   -5.035786114498414E-1   -7.448934518407564E-2
 6.501724355950000E9    -4.596243670872266E-1   -2.531883229696945E-1   -1.449601881254842E-2    4.500019688249887E-2   -1.210419095792354E-2    4.459999036001546E-2   -5.035247621299568E-1   -7.315572168257406E-2
 6.501736416100000E9    -4.601574049888720E-1   -2.522147763574439E-1   -1.428119858524352E-2    4.535980781923075E-2   -1.207675138039254E-2    4.496823893258101E-2   -5.036699909185890E-1   -7.162655464609365E-2
 6.501748476250000E9    -4.606878513820097E-1   -2.513098594547957E-1   -1.430868989836072E-2    4.579240954799048E-2   -1.206810973379834E-2    4.528950713856126E-2   -5.037766654068879E-1   -7.028555204620116E-2
 6.501760536400000E9    -4.611534109623245E-1   -2.503057168764852E-1   -1.425175685972726E-2    4.591613820968206E-2   -1.202673094797888E-2    4.563908078904101E-2   -5.037459340896544E-1   -6.877909023096665E-2
 6.501772596550000E9    -4.615566095974339E-1   -2.494029107488419E-1   -1.429815823477743E-2    4.639020248840756E-2   -1.196510699012074E-2    4.589115735252822E-2   -5.038318816159446E-1   -6.720201666026759E-2
 6.501784656700000E9    -4.620742635409454E-1   -2.484233340832007E-1   -1.429033067500242E-2    4.682870306921103E-2   -1.192488392979411E-2    4.625993313467118E-2   -5.039946618170530E-1   -6.575091628246450E-2
 6.501796716850000E9    -4.625009631468698E-1   -2.474242268917234E-1   -1.416578777630479E-2    4.708679820581326E-2   -1.183098633825691E-2    4.665613952376420E-2   -5.039494549187593E-1   -6.444881670699071E-2
 6.501808777000000E9    -4.629728617027927E-1   -2.465008471219085E-1   -1.417919444073117E-2    4.742158616885012E-2   -1.190750914972576E-2    4.702504097668905E-2   -5.043220187453595E-1   -6.279362904733538E-2
 6.501820837150000E9    -4.633888312568052E-1   -2.453862058312110E-1   -1.415487604612772E-2    4.777189678027752E-2   -1.175424373427391E-2    4.744326084873024E-2   -5.041752160516102E-1   -6.138287624620545E-2
 6.501832897300000E9    -4.638811397558806E-1   -2.443641715388417E-1   -1.422414161938373E-2    4.816462992097512E-2   -1.168778174137200E-2    4.772538066380859E-2   -5.043583429780829E-1   -5.968527832095121E-2
 6.501844957450000E9    -4.643664544755942E-1   -2.433673990390217E-1   -1.407878017258895E-2    4.853282560097933E-2   -1.167425508592144E-2    4.803462166599799E-2   -5.042801966552766E-1   -5.840648329174643E-2
 6.501857017600000E9    -4.648907632371051E-1   -2.424594316431414E-1   -1.402488709903268E-2    4.900568252552925E-2   -1.166397710052093E-2    4.854018583375677E-2   -5.042826780604122E-1   -5.678841955204059E-2
 6.501869077750000E9    -4.652395557996014E-1   -2.415487552005421E-1   -1.395150244657742E-2    4.938970556507599E-2   -1.157253311727761E-2    4.879596363792994E-2   -5.044324016110595E-1   -5.525471257799597E-2
 6.501881137900000E9    -4.657596561248682E-1   -2.405566371999776E-1   -1.399228512115321E-2    4.984805508868188E-2   -1.150534564237934E-2    4.920310672495949E-2   -5.043307544202880E-1   -5.382772046068093E-2
 6.501893198050000E9    -4.662474674039765E-1   -2.394625017241684E-1   -1.392011583179574E-2    5.021357023926702E-2   -1.149450941120056E-2    4.964972448451899E-2   -5.044978844115122E-1   -5.234710054732691E-2
 6.501905258200000E9    -4.666657623340996E-1   -2.383988076605780E-1   -1.384899154260726E-2    5.056594917056600E-2   -1.140709579720965E-2    4.991988971369267E-2   -5.045416014526150E-1   -5.075011623944591E-2
 6.501917318350000E9    -4.670368081068279E-1   -2.373754004761304E-1   -1.383992154418023E-2    5.111347936513109E-2   -1.134381306542900E-2    5.042690469255939E-2   -5.044463854256976E-1   -4.895499249840278E-2
 6.501929378500000E9    -4.675967757249445E-1   -2.364768814031312E-1   -1.381711460571513E-2    5.143075524354337E-2   -1.136156729682827E-2    5.076346433442131E-2   -5.044078746607190E-1   -4.762765792589149E-2
 6.501941438650000E9    -4.679891781720690E-1   -2.354013327340302E-1   -1.371199433020435E-2    5.187337438733437E-2   -1.130473307251882E-2    5.123916466940803E-2   -5.044749114018892E-1   -4.594641022660699E-2
 6.501953498800000E9    -4.684575473068976E-1   -2.344484452056237E-1   -1.366606243709666E-2    5.218714252412653E-2   -1.130116646864080E-2    5.164195333577572E-2   -5.045133604052989E-1   -4.444167005787768E-2
 6.501965558950000E9    -4.689313469402772E-1   -2.332839570282276E-1   -1.368713314041209E-2    5.267077872948600E-2   -1.113640195340953E-2    5.202386778498872E-2   -5.044168582681483E-1   -4.288283810655337E-2
 6.501977619100000E9    -4.693242736721037E-1   -2.323886552149441E-1   -1.363949822346229E-2    5.316705349546517E-2   -1.100621664535757E-2    5.250352706042110E-2   -5.045166009439099E-1   -4.125018102157477E-2
 6.501989679250000E9    -4.696897275581307E-1   -2.312297091874058E-1   -1.367008088585667E-2    5.353831591920892E-2   -1.100490121848575E-2    5.285473399159252E-2   -5.044747224120766E-1   -3.951338571496373E-2
 6.502001739400000E9    -4.702167122554181E-1   -2.302777210306820E-1   -1.349718801361830E-2    5.401488594176884E-2   -1.097639641204255E-2    5.351113718246554E-2   -5.044661201967270E-1   -3.795105430517357E-2
 6.502013799550000E9    -4.705205094868246E-1   -2.291678246054775E-1   -1.338451510032834E-2    5.448873749580621E-2   -1.085968667746963E-2    5.385228770789737E-2   -5.043758383005622E-1   -3.626675582981235E-2
 6.502025859700000E9    -4.711794255628342E-1   -2.282024528148894E-1   -1.337745289740572E-2    5.494902823723818E-2   -1.080334140966312E-2    5.434127767500347E-2   -5.042516886722159E-1   -3.457400011693370E-2
 6.502037919850000E9    -4.714934598815089E-1   -2.270561256640379E-1   -1.333214058417412E-2    5.540596154761413E-2   -1.065598091222301E-2    5.479176118649148E-2   -5.043541156177850E-1   -3.299832706540595E-2
 6.502049980000000E9    -4.719386936499369E-1   -2.260375880737459E-1   -1.319343873031831E-2    5.592912892411844E-2   -1.059134615667033E-2    5.522724450113792E-2   -5.043538996387874E-1   -3.117938064001506E-2
 6.502062040150000E9    -4.723377140464554E-1   -2.249920292527778E-1   -1.315070818789559E-2    5.650257164958170E-2   -1.059381322967513E-2    5.561124788428936E-2   -5.041039728862002E-1   -2.949466583028156E-2
 6.502074100300000E9    -4.726716482769363E-1   -2.238448957555847E-1   -1.308934241502637E-2    5.695557588515093E-2   -1.048896685715716E-2    5.616221701483787E-2   -5.039913776714137E-1   -2.777381999080552E-2
 6.502086160450000E9    -4.731821408227243E-1   -2.228247925271933E-1   -1.314774565064399E-2    5.755057417193667E-2   -1.042225720728394E-2    5.668061173709467E-2   -5.038833326142764E-1   -2.612349113795802E-2
 6.502098220600000E9    -4.734764398990634E-1   -2.218372183836310E-1   -1.292764801828689E-2    5.795966339516551E-2   -1.026331455753259E-2    5.716863405482850E-2   -5.039187917196138E-1   -2.437838217354197E-2
 6.502110280750000E9    -4.739693378126509E-1   -2.206708907738077E-1   -1.300437217909661E-2    5.850855347098036E-2   -1.014078319593184E-2    5.760757273946280E-2   -5.038552261650490E-1   -2.269964390234896E-2
 6.502122340900000E9    -4.745422647699894E-1   -2.195255691455615E-1   -1.283134234161224E-2    5.896503700922164E-2   -9.993479281697918E-3    5.819183702401353E-2   -5.036644619677600E-1   -2.085784543234449E-2
 6.502134401050000E9    -4.747482369716369E-1   -2.184541947654902E-1   -1.259187270586467E-2    5.956606583340909E-2   -1.008695822555282E-2    5.871155715489670E-2   -5.034778072568168E-1   -1.908909937529689E-2
 6.502146461200000E9    -4.751757630206490E-1   -2.174046179203211E-1   -1.255254330638278E-2    6.013872518276438E-2   -9.865117045780088E-3    5.922605868225774E-2   -5.034692889816061E-1   -1.737924830603767E-2
 6.502158521350000E9    -4.755958649175456E-1   -2.162028366492676E-1   -1.258478606637540E-2    6.068516227249503E-2   -9.692969384869235E-3    5.976900291065382E-2   -5.031955851172166E-1   -1.541513172768520E-2
 6.502170581500000E9    -4.760166232145140E-1   -2.151257322647712E-1   -1.250194315690459E-2    6.121465907542251E-2   -9.637785635072947E-3    6.028454991370535E-2   -5.030213999308116E-1   -1.363919493191263E-2
