#  HZ   S   RI   R     50.00 
! Rohde & Schwarz Vector Network Analyzer 
! Rohde-Schwarz,ZNB20-2Port,1311601062101988,3.16
! Created: UTC 12/23/2023, 3:53:23 AM
! freq[Hz]                re:S11                  im:S11                  re:S21                  im:S21                  re:S12                  im:S12                  re:S22                  im:S22
 1.000959898800000E+10  -3.865867338155386E-1    3.405511139988986E-1   -1.723452271866159E-2   -1.275910908639085E-2   -1.592108350574176E-2   -1.332860332385240E-2   -2.058195557776575E-1    4.754557474982067E-1
 1.000961174942500E+10  -3.859421708316543E-1    3.412767706419980E-1   -1.736122160088403E-2   -1.283338311122771E-2   -1.618765700634498E-2   -1.321854675407636E-2   -2.049654287269474E-1    4.758253090507391E-1
 1.000962451085000E+10  -3.851773230334305E-1    3.418755009725237E-1   -1.748250137036607E-2   -1.279273260614409E-2   -1.622976371651584E-2   -1.341199155687365E-2   -2.042939780112728E-1    4.761199994481051E-1
 1.000963727227500E+10  -3.845495473941576E-1    3.428956225436872E-1   -1.763850695428466E-2   -1.282881363123073E-2   -1.619604875600263E-2   -1.322024976248821E-2   -2.033410955694679E-1    4.765102513602886E-1
 1.000965003370000E+10  -3.835823113720438E-1    3.437130836904271E-1   -1.779562386090089E-2   -1.282158237462932E-2   -1.641938972086220E-2   -1.307467968020665E-2   -2.026025292232905E-1    4.768704383858879E-1
 1.000966279512500E+10  -3.831293988475191E-1    3.445968100983693E-1   -1.777576988388135E-2   -1.278354348343422E-2   -1.653295795110256E-2   -1.306094895692441E-2   -2.019976587074893E-1    4.772141033816688E-1
 1.000967555655000E+10  -3.823845923402628E-1    3.452476445809507E-1   -1.788986726110241E-2   -1.286887025882636E-2   -1.661490726410598E-2   -1.329465464611284E-2   -2.012108510097616E-1    4.775136369895411E-1
 1.000968831797500E+10  -3.816204650383748E-1    3.460430240758576E-1   -1.796467795390315E-2   -1.287497538204162E-2   -1.670844136689766E-2   -1.321238730357256E-2   -2.003307313597808E-1    4.778296179399876E-1
 1.000970107940000E+10  -3.809222489749297E-1    3.466981709473455E-1   -1.802585411919699E-2   -1.278402876240247E-2   -1.675630499521833E-2   -1.332098799938757E-2   -1.996094761600917E-1    4.782053924037347E-1
 1.000971384082500E+10  -3.802212180958259E-1    3.474869847738860E-1   -1.819507471305710E-2   -1.300619332494526E-2   -1.682132169333128E-2   -1.327784045888867E-2   -1.988757369024301E-1    4.784348968644911E-1
 1.000972660225000E+10  -3.794110192652930E-1    3.484115777132241E-1   -1.824439386457863E-2   -1.288944344367100E-2   -1.701846353583884E-2   -1.334813915664877E-2   -1.981402057617066E-1    4.788291167410850E-1
 1.000973936367500E+10  -3.788302624937430E-1    3.489738189916418E-1   -1.838015315700064E-2   -1.291590024007641E-2   -1.712423969645990E-2   -1.342223785094957E-2   -1.972979018326006E-1    4.792113319932743E-1
 1.000975212510000E+10  -3.782209307553296E-1    3.499037700579584E-1   -1.825083361629290E-2   -1.301904138385632E-2   -1.706085863098903E-2   -1.331642871289788E-2   -1.965222079085069E-1    4.795876431253162E-1
 1.000976488652500E+10  -3.774842192456305E-1    3.507972373114629E-1   -1.858442549884746E-2   -1.298307187298180E-2   -1.720909562190502E-2   -1.341980701381069E-2   -1.957326800967738E-1    4.798413259075144E-1
 1.000977764795000E+10  -3.765435890434840E-1    3.515967310017149E-1   -1.864579136347079E-2   -1.291218413449982E-2   -1.731629238681641E-2   -1.341247785758820E-2   -1.949468454587880E-1    4.802518950428938E-1
 1.000979040937500E+10  -3.760599320256581E-1    3.521923662011515E-1   -1.874587226017925E-2   -1.309977258572530E-2   -1.731484138548255E-2   -1.331335262617848E-2   -1.942452137210789E-1    4.804623622104713E-1
 1.000980317080000E+10  -3.751351559470800E-1    3.531736059138958E-1   -1.878200305615411E-2   -1.302957452657116E-2   -1.749666405182301E-2   -1.328389657346921E-2   -1.934034738518126E-1    4.808903908106993E-1
 1.000981593222500E+10  -3.744755231026241E-1    3.538543392937941E-1   -1.892729346635304E-2   -1.313042119598802E-2   -1.770716133144800E-2   -1.345316858573090E-2   -1.926860037133245E-1    4.812677068677910E-1
 1.000982869365000E+10  -3.736020159944438E-1    3.547924694779019E-1   -1.893643226395071E-2   -1.310779552494413E-2   -1.770232465016436E-2   -1.344336138370896E-2   -1.917749847817109E-1    4.816353609015728E-1
 1.000984145507500E+10  -3.730948896005584E-1    3.555707717110478E-1   -1.916992445968721E-2   -1.317639191622714E-2   -1.780690252322457E-2   -1.345632502118127E-2   -1.910059978966607E-1    4.819517327418505E-1
 1.000985421650000E+10  -3.722494717867064E-1    3.564129302112352E-1   -1.933844714023997E-2   -1.307684430603264E-2   -1.799613806411859E-2   -1.356547241148624E-2   -1.903712879090365E-1    4.822122406298376E-1
 1.000986697792500E+10  -3.715077046549284E-1    3.570954168116072E-1   -1.932723464557290E-2   -1.309206593172972E-2   -1.800261004479951E-2   -1.352045884932718E-2   -1.895694482400468E-1    4.825098033073679E-1
 1.000987973935000E+10  -3.705769824309144E-1    3.579623106078733E-1   -1.956212044999131E-2   -1.321530701517364E-2   -1.810122018671852E-2   -1.365054928739449E-2   -1.885722926785374E-1    4.828923044312013E-1
 1.000989250077500E+10  -3.698962482082606E-1    3.586872912870368E-1   -1.962817559750064E-2   -1.303404001260340E-2   -1.827225216190214E-2   -1.351954372501889E-2   -1.880579067141006E-1    4.831290557757322E-1
 1.000990526220000E+10  -3.691853932230421E-1    3.595691696363966E-1   -1.978353788198042E-2   -1.313076510430519E-2   -1.839404555407720E-2   -1.362556360434906E-2   -1.871416503196354E-1    4.834320114126743E-1
 1.000991802362500E+10  -3.683561699873993E-1    3.602493923886377E-1   -1.988169249773547E-2   -1.303762407129004E-2   -1.841430049389264E-2   -1.356981169394034E-2   -1.864507932952194E-1    4.837743120723697E-1
 1.000993078505000E+10  -3.675289552052702E-1    3.609470908848187E-1   -1.994540323032551E-2   -1.318625558422100E-2   -1.884544466971889E-2   -1.359741543945756E-2   -1.855076705906837E-1    4.841065201080389E-1
 1.000994354647500E+10  -3.667785142202606E-1    3.618283509084884E-1   -2.013639575567865E-2   -1.309787755214958E-2   -1.880078830409470E-2   -1.363504745107930E-2   -1.847747853201252E-1    4.844040920348909E-1
 1.000995630790000E+10  -3.660968951426775E-1    3.627699606689206E-1   -2.025722086927970E-2   -1.312220704547198E-2   -1.891622876260796E-2   -1.370151438128737E-2   -1.840529248184894E-1    4.846555733228776E-1
 1.000996906932500E+10  -3.653030260130427E-1    3.634682869967432E-1   -2.026180326850132E-2   -1.317641730851118E-2   -1.904891375549032E-2   -1.368743061382270E-2   -1.830748120111703E-1    4.850282498302096E-1
 1.000998183075000E+10  -3.644217973441629E-1    3.642788788301570E-1   -2.042508722268872E-2   -1.328386516020508E-2   -1.901021927318425E-2   -1.372864947845930E-2   -1.823964545775243E-1    4.854723739504924E-1
 1.000999459217500E+10  -3.637422145257643E-1    3.650799659910660E-1   -2.059451858538950E-2   -1.329272009363276E-2   -1.919834702717906E-2   -1.379147215128144E-2   -1.815414732855395E-1    4.856374076267515E-1
 1.001000735360000E+10  -3.629080109218206E-1    3.658097631688694E-1   -2.072084366264018E-2   -1.342662814269534E-2   -1.928527925858723E-2   -1.375075091519564E-2   -1.807880046965572E-1    4.859758838208403E-1
 1.001002011502500E+10  -3.621750698319210E-1    3.667207391140889E-1   -2.083214584504582E-2   -1.338367325932007E-2   -1.944668745887956E-2   -1.368115447537326E-2   -1.800215537963926E-1    4.862919293072713E-1
 1.001003287645000E+10  -3.613390231703817E-1    3.674421825237716E-1   -2.093984666349393E-2   -1.336107426100191E-2   -1.959077548917912E-2   -1.367815909799074E-2   -1.791051457310530E-1    4.867212525712167E-1
 1.001004563787500E+10  -3.604461223136659E-1    3.682881344915203E-1   -2.115735378476499E-2   -1.340557762792010E-2   -1.970180660817336E-2   -1.376355995616921E-2   -1.783616227414714E-1    4.869901497718174E-1
 1.001005839930000E+10  -3.596839085874094E-1    3.689537830687249E-1   -2.123928504566187E-2   -1.337791935219676E-2   -1.991623542834772E-2   -1.380100780499254E-2   -1.775113544350881E-1    4.872436943112785E-1
 1.001007116072500E+10  -3.587449853773838E-1    3.698620224906872E-1   -2.134181056910381E-2   -1.328108828782858E-2   -1.999876609670568E-2   -1.387637584124501E-2   -1.768767543087063E-1    4.875227271360391E-1
 1.001008392215000E+10  -3.580504108308195E-1    3.705641964287149E-1   -2.142366386685621E-2   -1.326893146827017E-2   -2.006900340108093E-2   -1.383001960693748E-2   -1.761019902945629E-1    4.877335635308274E-1
 1.001009668357500E+10  -3.571031529310081E-1    3.713771229054790E-1   -2.171775263484800E-2   -1.327602229188202E-2   -2.020125151949754E-2   -1.399069568837822E-2   -1.750525419263797E-1    4.881525285886748E-1
 1.001010944500000E+10  -3.563552834965586E-1    3.721562296585078E-1   -2.190244332990338E-2   -1.323916328363698E-2   -2.035120100203066E-2   -1.396230628813592E-2   -1.743662768448849E-1    4.883123492639886E-1
 1.001012220642500E+10  -3.554348743371730E-1    3.730633780619574E-1   -2.195739291270336E-2   -1.334615477470133E-2   -2.044782261481896E-2   -1.390346559894186E-2   -1.736225851331117E-1    4.886892351969780E-1
 1.001013496785000E+10  -3.547037660786489E-1    3.737473269158875E-1   -2.207382117560781E-2   -1.330444061830223E-2   -2.064160266520949E-2   -1.389577833635865E-2   -1.726147789893932E-1    4.890706486075022E-1
 1.001014772927500E+10  -3.538403229423089E-1    3.746363079340542E-1   -2.227341919434517E-2   -1.336193679012170E-2   -2.066407570900042E-2   -1.402158860580406E-2   -1.719363981283873E-1    4.893411864925722E-1
 1.001016049070000E+10  -3.529428182185955E-1    3.753501038846176E-1   -2.233387137385445E-2   -1.345593266176815E-2   -2.091083354228543E-2   -1.404745155650436E-2   -1.711495517559258E-1    4.896542785688296E-1
 1.001017325212500E+10  -3.520969290856392E-1    3.761203159554339E-1   -2.243656712760675E-2   -1.343877033632012E-2   -2.103993166325567E-2   -1.389507592483926E-2   -1.704207752428066E-1    4.898726101765506E-1
 1.001018601355000E+10  -3.513948959002552E-1    3.771115672522287E-1   -2.253702535845001E-2   -1.352332839858559E-2   -2.128708782979402E-2   -1.392983539005156E-2   -1.694328359782460E-1    4.902411099710839E-1
 1.001019877497500E+10  -3.503154019716048E-1    3.778510733282090E-1   -2.276131397583123E-2   -1.354632822629444E-2   -2.138722344833086E-2   -1.412009814045155E-2   -1.687104145358340E-1    4.905163013113160E-1
 1.001021153640000E+10  -3.495309398979657E-1    3.785280622689983E-1   -2.293407206238344E-2   -1.359272622131294E-2   -2.144855130327019E-2   -1.416426780570060E-2   -1.677631799688287E-1    4.907233275022633E-1
 1.001022429782500E+10  -3.485643549085902E-1    3.794273536710477E-1   -2.300580927960840E-2   -1.348744356266637E-2   -2.146826300215618E-2   -1.414699835848746E-2   -1.670254581935343E-1    4.909828934737197E-1
 1.001023705925000E+10  -3.476112073703272E-1    3.802247235181674E-1   -2.331969025175176E-2   -1.341804879953362E-2   -2.182983076326561E-2   -1.409732104420460E-2   -1.663349595857641E-1    4.913166360029309E-1
 1.001024982067500E+10  -3.466905934764393E-1    3.809636971083019E-1   -2.349666561286039E-2   -1.354904820446430E-2   -2.175220957211847E-2   -1.414144558907427E-2   -1.655093729927950E-1    4.915802386346479E-1
 1.001026258210000E+10  -3.458349765298558E-1    3.819226638908362E-1   -2.373074240118692E-2   -1.353171443674890E-2   -2.200457726258055E-2   -1.407444709489756E-2   -1.645860172804458E-1    4.918926580608631E-1
 1.001027534352500E+10  -3.450233615980974E-1    3.826290638343516E-1   -2.376615598010648E-2   -1.351227870096887E-2   -2.213345331824007E-2   -1.418651831802557E-2   -1.637825544475526E-1    4.923128374621997E-1
 1.001028810495000E+10  -3.440668467588057E-1    3.833784180978570E-1   -2.390507012697441E-2   -1.358617543175707E-2   -2.234536016301103E-2   -1.421396647609812E-2   -1.630455362209658E-1    4.925713865174156E-1
 1.001030086637500E+10  -3.430246795968412E-1    3.843077484073676E-1   -2.412533497442152E-2   -1.356565573859260E-2   -2.259281205506965E-2   -1.420641691409873E-2   -1.623178056881605E-1    4.927364698166722E-1
 1.001031362780000E+10  -3.421882322174030E-1    3.851309186282290E-1   -2.424228199586705E-2   -1.357512873082312E-2   -2.272143395601876E-2   -1.418450791683155E-2   -1.613504278030150E-1    4.930456070445094E-1
 1.001032638922500E+10  -3.411783976915530E-1    3.858378441486437E-1   -2.437259583977495E-2   -1.376439065678958E-2   -2.292697766839982E-2   -1.408614255664958E-2   -1.605403045394558E-1    4.931681927459589E-1
 1.001033915065000E+10  -3.403045118747408E-1    3.866971843949736E-1   -2.440658561146575E-2   -1.373924671808261E-2   -2.298859987165349E-2   -1.433340357334143E-2   -1.597410189296120E-1    4.936546991490022E-1
 1.001035191207500E+10  -3.392894458532758E-1    3.874037985881146E-1   -2.464920549606387E-2   -1.370531579489962E-2   -2.314432294614757E-2   -1.432599675250273E-2   -1.587911758141303E-1    4.938646441980931E-1
 1.001036467350000E+10  -3.382836426849551E-1    3.882514999209423E-1   -2.498274889789001E-2   -1.370380635615680E-2   -2.330792690522633E-2   -1.433811071637861E-2   -1.581644783156976E-1    4.942111245315441E-1
 1.001037743492500E+10  -3.375969991702355E-1    3.890052640548260E-1   -2.496801719863057E-2   -1.374432403158500E-2   -2.351810884192141E-2   -1.437254825995824E-2   -1.572835204725206E-1    4.944166256489267E-1
 1.001039019635000E+10  -3.364508336299971E-1    3.899550212061579E-1   -2.534391566038257E-2   -1.383718734016647E-2   -2.373198120490618E-2   -1.446394768125440E-2   -1.564602926113829E-1    4.946270985349262E-1
 1.001040295777500E+10  -3.354418110276534E-1    3.908203037204866E-1   -2.542601281461252E-2   -1.375626671895580E-2   -2.390518249027020E-2   -1.438344224142709E-2   -1.555954571829934E-1    4.950143476748953E-1
 1.001041571920000E+10  -3.344536868362640E-1    3.914384659860785E-1   -2.569189957282247E-2   -1.374960301916915E-2   -2.402754202413942E-2   -1.440207150287858E-2   -1.547882525480792E-1    4.952301606933951E-1
 1.001042848062500E+10  -3.334643565505385E-1    3.922949902799349E-1   -2.587188648724685E-2   -1.374483644386029E-2   -2.428344915502618E-2   -1.435330130089357E-2   -1.539036721288810E-1    4.953985045491150E-1
 1.001044124205000E+10  -3.324244744016855E-1    3.930222876796170E-1   -2.613483602445618E-2   -1.382154653093112E-2   -2.445398804300656E-2   -1.454740543135084E-2   -1.530618930046423E-1    4.956010142882340E-1
 1.001045400347500E+10  -3.313551758596442E-1    3.940162316286384E-1   -2.612409074268749E-2   -1.368471314620965E-2   -2.463090624299125E-2   -1.446369373197956E-2   -1.522037555822272E-1    4.960006931902531E-1
 1.001046676490000E+10  -3.304250908894208E-1    3.947372189146113E-1   -2.648678015712387E-2   -1.374983360499505E-2   -2.483343197889357E-2   -1.456455096944042E-2   -1.513096120932935E-1    4.962196925515283E-1
 1.001047952632500E+10  -3.293962384896369E-1    3.955718314180708E-1   -2.665883481862277E-2   -1.370953415975321E-2   -2.503164750756560E-2   -1.465327570294341E-2   -1.505253869024034E-1    4.965121085417966E-1
 1.001049228775000E+10  -3.283492309528612E-1    3.964170372719176E-1   -2.681869989881801E-2   -1.384592142224427E-2   -2.519194447719543E-2   -1.457809054789300E-2   -1.497443090972334E-1    4.967795308069772E-1
 1.001050504917500E+10  -3.273855976340964E-1    3.969885702987820E-1   -2.713153400473048E-2   -1.374406119940422E-2   -2.543178254962337E-2   -1.453707532672478E-2   -1.489212331551674E-1    4.970174708778246E-1
 1.001051781060000E+10  -3.263122404377862E-1    3.980432484648152E-1   -2.715698481131370E-2   -1.388715195012540E-2   -2.559185439974126E-2   -1.466116066957200E-2   -1.480126501329055E-1    4.973104699658188E-1
 1.001053057202500E+10  -3.251906992398346E-1    3.986796537120039E-1   -2.729679874072550E-2   -1.398137610336228E-2   -2.581090069104084E-2   -1.459342001791377E-2   -1.471973746871335E-1    4.975382712160069E-1
 1.001054333345000E+10  -3.240732714550031E-1    3.995988809407359E-1   -2.749833038765423E-2   -1.385683079489177E-2   -2.592625418049915E-2   -1.456790844405754E-2   -1.462532236265889E-1    4.977443808269309E-1
 1.001055609487500E+10  -3.230393054194954E-1    4.003345170061449E-1   -2.777464856113674E-2   -1.395203448992863E-2   -2.621389662731380E-2   -1.446344353978419E-2   -1.454109822269353E-1    4.978829783333236E-1
 1.001056885630000E+10  -3.219345138991734E-1    4.012062845061565E-1   -2.815406091512206E-2   -1.418926378797043E-2   -2.645551690949776E-2   -1.459040314442507E-2   -1.446020200845526E-1    4.982364184297630E-1
 1.001058161772500E+10  -3.208859274002364E-1    4.019983774814308E-1   -2.821935952253692E-2   -1.404992174999614E-2   -2.654424838787913E-2   -1.462935746704878E-2   -1.439131739329735E-1    4.984233971513133E-1
 1.001059437915000E+10  -3.197488275180871E-1    4.029400090755613E-1   -2.859190127102852E-2   -1.392793134386320E-2   -2.672373056376720E-2   -1.475568051393197E-2   -1.429584947129796E-1    4.987710388895648E-1
 1.001060714057500E+10  -3.185149591007984E-1    4.037204937912272E-1   -2.887641466161459E-2   -1.398454527712477E-2   -2.708043226558080E-2   -1.477649486006909E-2   -1.421400098723225E-1    4.989612337308402E-1
 1.001061990200000E+10  -3.175129793760662E-1    4.045286351425946E-1   -2.903783065015720E-2   -1.398880337401756E-2   -2.721277313812244E-2   -1.478718979800993E-2   -1.412421049592776E-1    4.992619707872187E-1
 1.001063266342500E+10  -3.162561416807251E-1    4.053464264515753E-1   -2.926989640440647E-2   -1.386860400002952E-2   -2.748137514790968E-2   -1.484653592864893E-2   -1.404557302520639E-1    4.994762681964369E-1
 1.001064542485000E+10  -3.152061913558759E-1    4.061874795038938E-1   -2.960041470780847E-2   -1.405791384841291E-2   -2.783163601092832E-2   -1.483607310115629E-2   -1.395904412174303E-1    4.996450932762623E-1
 1.001065818627500E+10  -3.138834990062630E-1    4.071014640262116E-1   -2.980003509429421E-2   -1.387012297776038E-2   -2.794780349267368E-2   -1.481254996499233E-2   -1.386840398097987E-1    4.999143887861394E-1
 1.001067094770000E+10  -3.128661647111508E-1    4.077732986146070E-1   -3.016294885667714E-2   -1.386856201677960E-2   -2.826229225193815E-2   -1.477393045479749E-2   -1.378730121589812E-1    5.002655010665139E-1
 1.001068370912500E+10  -3.116278392371079E-1    4.086004011567415E-1   -3.038045552489077E-2   -1.410643401002498E-2   -2.843658973951917E-2   -1.480344772470515E-2   -1.369277852827181E-1    5.004857385120558E-1
 1.001069647055000E+10  -3.103887350138804E-1    4.095233862142820E-1   -3.064797739983327E-2   -1.393714429670800E-2   -2.875436823429040E-2   -1.481087255751637E-2   -1.359765851807895E-1    5.005973564894154E-1
 1.001070923197500E+10  -3.093054027033397E-1    4.102222069129420E-1   -3.082032627165165E-2   -1.417974982060744E-2   -2.892426321144852E-2   -1.484079068372786E-2   -1.352273033030564E-1    5.008698269118871E-1
 1.001072199340000E+10  -3.080829478756508E-1    4.110309331242074E-1   -3.107616319106148E-2   -1.419052417267333E-2   -2.923343513068894E-2   -1.495831453861268E-2   -1.344552570806271E-1    5.010059586883207E-1
 1.001073475482500E+10  -3.068282590812096E-1    4.119922272144463E-1   -3.141445046566874E-2   -1.419506692102501E-2   -2.937743007955513E-2   -1.500729395014067E-2   -1.333823049707768E-1    5.013111514901634E-1
 1.001074751625000E+10  -3.055304099727270E-1    4.128124217638147E-1   -3.158160269905730E-2   -1.408718918866904E-2   -2.978505929173577E-2   -1.500481074287099E-2   -1.325359983641675E-1    5.014848471796035E-1
