#  HZ   S   RI   R     50.00 
! Rohde & Schwarz Vector Network Analyzer 
! Rohde-Schwarz,ZNB20-2Port,1311601062101988,3.16
! Created: UTC 12/23/2023, 3:55:11 AM
! freq[Hz]                re:S11                  im:S11                  re:S21                  im:S21                  re:S12                  im:S12                  re:S22                  im:S22
 1.000977561900000E+10  -3.778548602942503E-1    3.507468478647835E-1   -1.840484992516786E-2   -1.279806691309144E-2   -1.696739310772517E-2   -1.333380152575794E-2   -1.953781489924357E-1    4.800556936439691E-1
 1.000978778567500E+10  -3.772736068738875E-1    3.516494139528098E-1   -1.830829331663943E-2   -1.282092656386308E-2   -1.696786234296093E-2   -1.333381025798656E-2   -1.946005511933522E-1    4.803375952501258E-1
 1.000979995235000E+10  -3.765484918234556E-1    3.523471911968596E-1   -1.839856569146714E-2   -1.280979757446362E-2   -1.720099314040021E-2   -1.335766752401316E-2   -1.939684349599900E-1    4.807405046880661E-1
 1.000981211902500E+10  -3.758262982009717E-1    3.529328447321534E-1   -1.852235388818519E-2   -1.297633650768088E-2   -1.720491570909664E-2   -1.328156480960765E-2   -1.933744826488948E-1    4.810685225637525E-1
 1.000982428570000E+10  -3.750743962638101E-1    3.536040980001802E-1   -1.853821003938330E-2   -1.290231377092734E-2   -1.735165730560138E-2   -1.332190513633638E-2   -1.925255630443325E-1    4.813452888926602E-1
 1.000983645237500E+10  -3.745246925000900E-1    3.544628257621016E-1   -1.876739201733097E-2   -1.286627969759416E-2   -1.726677429304245E-2   -1.337065828735853E-2   -1.916743709617587E-1    4.816650807285903E-1
 1.000984861905000E+10  -3.736228902853926E-1    3.552057994441544E-1   -1.873187188642892E-2   -1.290614185716435E-2   -1.753974894486612E-2   -1.330075576697232E-2   -1.909874831839886E-1    4.819396510534912E-1
 1.000986078572500E+10  -3.730266468323293E-1    3.559491544620675E-1   -1.900292262653790E-2   -1.295465861026422E-2   -1.747436393164563E-2   -1.343633574080757E-2   -1.901486904834824E-1    4.823526276263359E-1
 1.000987295240000E+10  -3.723598993033012E-1    3.566732551811553E-1   -1.914767211872103E-2   -1.298633506165963E-2   -1.779290540146547E-2   -1.351799434589128E-2   -1.894080012991527E-1    4.826695516827675E-1
 1.000988511907500E+10  -3.716774205124335E-1    3.573379270240126E-1   -1.923828480845507E-2   -1.300821543857845E-2   -1.768288599104803E-2   -1.338648039589665E-2   -1.886019651242853E-1    4.830118045445801E-1
 1.000989728575000E+10  -3.708846853268645E-1    3.582984675467014E-1   -1.926575684142582E-2   -1.289644752245752E-2   -1.787617376099527E-2   -1.335270204211391E-2   -1.879777909458726E-1    4.833496100232398E-1
 1.000990945242500E+10  -3.703115442346068E-1    3.589503867697879E-1   -1.940918689203082E-2   -1.305014698015542E-2   -1.796348360804693E-2   -1.350994724065688E-2   -1.872438620617754E-1    4.836324066698355E-1
 1.000992161910000E+10  -3.694055083680132E-1    3.597266793067672E-1   -1.943513710021183E-2   -1.299996455973981E-2   -1.808029419992145E-2   -1.345346077757567E-2   -1.864783080229918E-1    4.838418349797389E-1
 1.000993378577500E+10  -3.686968327439332E-1    3.606161720037198E-1   -1.957540611839156E-2   -1.302456732685037E-2   -1.820486837927879E-2   -1.342152062656640E-2   -1.856947472660641E-1    4.840833379319226E-1
 1.000994595245000E+10  -3.679875212509542E-1    3.611829675796339E-1   -1.952670109879085E-2   -1.307893545425595E-2   -1.838956953870016E-2   -1.341775890961966E-2   -1.847918729684087E-1    4.844590912618558E-1
 1.000995811912500E+10  -3.672402315824508E-1    3.620807083018727E-1   -1.980308606152566E-2   -1.308300089048571E-2   -1.846857234463559E-2   -1.345696493786504E-2   -1.842317375447055E-1    4.846509276533826E-1
 1.000997028580000E+10  -3.665309104103046E-1    3.627885917860101E-1   -1.974094472540394E-2   -1.319472389533367E-2   -1.850559904031555E-2   -1.355018577769444E-2   -1.835957552622733E-1    4.850253807860932E-1
 1.000998245247500E+10  -3.657103154274721E-1    3.636002475422213E-1   -1.996509075861386E-2   -1.308166915201160E-2   -1.867377056441893E-2   -1.363761771702912E-2   -1.826495570376811E-1    4.852654763579674E-1
 1.000999461915000E+10  -3.649817968352196E-1    3.643312753526021E-1   -2.010079245712429E-2   -1.315566288923837E-2   -1.877513638928842E-2   -1.357138765621442E-2   -1.820140625219807E-1    4.856397912611899E-1
 1.001000678582500E+10  -3.642991638732254E-1    3.650386106220082E-1   -2.026164842109511E-2   -1.328511888323212E-2   -1.888357993058173E-2   -1.369334435877825E-2   -1.810743498351542E-1    4.859412060173156E-1
 1.001001895250000E+10  -3.636426353907175E-1    3.658101434653778E-1   -2.018181923446682E-2   -1.307976671747558E-2   -1.893232432902500E-2   -1.363750392149527E-2   -1.804246127499419E-1    4.863000637082364E-1
 1.001003111917500E+10  -3.626775633585800E-1    3.665272158118446E-1   -2.040515830657062E-2   -1.326692244736972E-2   -1.907185103344430E-2   -1.367614819558074E-2   -1.796712196717827E-1    4.865747577064293E-1
 1.001004328585000E+10  -3.620889547162577E-1    3.672640981155899E-1   -2.049797367989008E-2   -1.313275733644151E-2   -1.924116388445445E-2   -1.369272552590499E-2   -1.788687572595991E-1    4.868258967084327E-1
 1.001005545252500E+10  -3.612346730237292E-1    3.680502265339659E-1   -2.070970339374396E-2   -1.322948440714144E-2   -1.930210246417035E-2   -1.372767290563949E-2   -1.782265682618087E-1    4.871774534076756E-1
 1.001006761920000E+10  -3.605657503498816E-1    3.688884860550536E-1   -2.080233035173221E-2   -1.318092512173460E-2   -1.935307496983022E-2   -1.371853773072344E-2   -1.772399038927318E-1    4.873507024909348E-1
 1.001007978587500E+10  -3.597138877462471E-1    3.695293860189572E-1   -2.101174196221648E-2   -1.324998129907836E-2   -1.958941057379983E-2   -1.371208334712550E-2   -1.767165013781123E-1    4.877006289559133E-1
 1.001009195255000E+10  -3.589822868584027E-1    3.702462990170511E-1   -2.110096077886457E-2   -1.328838947935720E-2   -1.966129045743373E-2   -1.378667899908766E-2   -1.758577554632316E-1    4.880307295162111E-1
 1.001010411922500E+10  -3.581584412744156E-1    3.710586376257629E-1   -2.124170709503713E-2   -1.317474794270408E-2   -1.958395742086683E-2   -1.387740263394001E-2   -1.750169391542086E-1    4.883380745207015E-1
 1.001011628590000E+10  -3.573598106916659E-1    3.718647493191793E-1   -2.140139710248028E-2   -1.317855480244334E-2   -1.988657328208391E-2   -1.386683484908611E-2   -1.741874508680234E-1    4.885750888159973E-1
 1.001012845257500E+10  -3.565272558623863E-1    3.724888902355358E-1   -2.147861482098363E-2   -1.342515308858304E-2   -2.008986477521180E-2   -1.384812807700031E-2   -1.734240861089849E-1    4.889075886978980E-1
 1.001014061925000E+10  -3.557849401547313E-1    3.732672154035333E-1   -2.148115747235000E-2   -1.330140723335766E-2   -2.010564800753233E-2   -1.376650600139961E-2   -1.727758753585980E-1    4.890770233163136E-1
 1.001015278592500E+10  -3.549289218109614E-1    3.740852035018002E-1   -2.156258243646458E-2   -1.341982589456136E-2   -2.027888765087155E-2   -1.389830198493107E-2   -1.720785653287931E-1    4.894965989816281E-1
 1.001016495260000E+10  -3.542809055992178E-1    3.748583940184740E-1   -2.188618640262576E-2   -1.351948910847110E-2   -2.044236966783403E-2   -1.371724393829855E-2   -1.713094550897705E-1    4.897524142344680E-1
 1.001017711927500E+10  -3.534181043864464E-1    3.756629012225491E-1   -2.184985593675721E-2   -1.349856833419176E-2   -2.056965527041136E-2   -1.386494693394177E-2   -1.704571633127627E-1    4.900321062157840E-1
 1.001018928595000E+10  -3.525148351285719E-1    3.764301512721181E-1   -2.210854270258989E-2   -1.338691122283898E-2   -2.067919308413825E-2   -1.385667592533309E-2   -1.697128788429718E-1    4.902273569001209E-1
 1.001020145262500E+10  -3.518134853504158E-1    3.770665636731663E-1   -2.214710018607199E-2   -1.333569666012605E-2   -2.075288022293385E-2   -1.396032836605155E-2   -1.689922944468457E-1    4.905599329057677E-1
 1.001021361930000E+10  -3.510109689342443E-1    3.778241105859355E-1   -2.238445560066582E-2   -1.342883102195955E-2   -2.090304676115672E-2   -1.392873516759626E-2   -1.682373165902668E-1    4.909239183114362E-1
 1.001022578597500E+10  -3.500606351166071E-1    3.785096683662439E-1   -2.247385603744287E-2   -1.325877729515862E-2   -2.100875307118769E-2   -1.397198739450164E-2   -1.675759371077264E-1    4.911038046643252E-1
 1.001023795265000E+10  -3.493143731580973E-1    3.794533717692486E-1   -2.265001335803737E-2   -1.346477553218084E-2   -2.102253301313125E-2   -1.398132912732943E-2   -1.666880151040991E-1    4.913482479633741E-1
 1.001025011932500E+10  -3.484846025939271E-1    3.802939096004335E-1   -2.271881147679740E-2   -1.342202168387614E-2   -2.132883412336263E-2   -1.398578091512622E-2   -1.658959130778423E-1    4.916853517958043E-1
 1.001026228600000E+10  -3.476298976890032E-1    3.810402557997897E-1   -2.300403204212940E-2   -1.347188299005368E-2   -2.143029649048772E-2   -1.397050046570435E-2   -1.650590079757019E-1    4.918601762347179E-1
 1.001027445267500E+10  -3.468031354948272E-1    3.817163764422442E-1   -2.311655193336373E-2   -1.346699375958324E-2   -2.160714967256521E-2   -1.405484692865251E-2   -1.642977718517868E-1    4.920975815515723E-1
 1.001028661935000E+10  -3.458931889421789E-1    3.822898233882321E-1   -2.335815986271879E-2   -1.352750065598604E-2   -2.168273827596640E-2   -1.397261798100763E-2   -1.635286994865300E-1    4.924781032647742E-1
 1.001029878602500E+10  -3.448891674076809E-1    3.832109119218655E-1   -2.337548564267415E-2   -1.351752479284647E-2   -2.183517202607391E-2   -1.399117112411555E-2   -1.626881564652404E-1    4.927020762182447E-1
 1.001031095270000E+10  -3.442471328358290E-1    3.840843196190609E-1   -2.361045068372540E-2   -1.363162978959669E-2   -2.196331746723516E-2   -1.404813185740521E-2   -1.618928068537010E-1    4.930080672232551E-1
 1.001032311937500E+10  -3.431953946555665E-1    3.848185384712741E-1   -2.373294569289426E-2   -1.353715254982080E-2   -2.211946064820681E-2   -1.415477088456129E-2   -1.612080790658753E-1    4.931814354683334E-1
 1.001033528605000E+10  -3.425130365366760E-1    3.855901837603239E-1   -2.372383531070109E-2   -1.363651891574591E-2   -2.213427077194757E-2   -1.420534570989488E-2   -1.604962915453696E-1    4.934935069675415E-1
 1.001034745272500E+10  -3.414561630140247E-1    3.862396932882471E-1   -2.398008560744088E-2   -1.377147731209861E-2   -2.247535425946262E-2   -1.421609505677362E-2   -1.595328623001526E-1    4.938292031891842E-1
 1.001035961940000E+10  -3.405908144108076E-1    3.870556569552794E-1   -2.413870239585500E-2   -1.363411338217057E-2   -2.255765609809579E-2   -1.433195587245244E-2   -1.587311457758424E-1    4.939341131394046E-1
 1.001037178607500E+10  -3.397309914087658E-1    3.878584512667038E-1   -2.431799588927147E-2   -1.372845858347665E-2   -2.278036240286219E-2   -1.431078357689743E-2   -1.581068965327032E-1    4.942443916960167E-1
 1.001038395275000E+10  -3.388513609856429E-1    3.885364750197118E-1   -2.454762256126684E-2   -1.354407952936439E-2   -2.284925208615820E-2   -1.414278296035838E-2   -1.572822884762957E-1    4.945293776893209E-1
 1.001039611942500E+10  -3.379072265614725E-1    3.893424972658733E-1   -2.464502947435871E-2   -1.348908113689190E-2   -2.300524527748963E-2   -1.426546790571622E-2   -1.565350121210381E-1    4.946819159095021E-1
 1.001040828610000E+10  -3.370591032207931E-1    3.901244078610532E-1   -2.481384003581976E-2   -1.373243372382040E-2   -2.318833186340939E-2   -1.424783267408869E-2   -1.557440995747669E-1    4.949964235883307E-1
 1.001042045277500E+10  -3.362416042926304E-1    3.908194227740936E-1   -2.499438488800775E-2   -1.369793947053482E-2   -2.336291325618824E-2   -1.425486646674069E-2   -1.549303521536130E-1    4.952927856702107E-1
 1.001043261945000E+10  -3.352669929932345E-1    3.915701343747644E-1   -2.515891583685684E-2   -1.365724407546173E-2   -2.363889135249506E-2   -1.440779820999156E-2   -1.541153979030195E-1    4.956924550704712E-1
 1.001044478612500E+10  -3.342840634931832E-1    3.923971444872628E-1   -2.534039671576981E-2   -1.362962593843221E-2   -2.375541888404334E-2   -1.440482110826075E-2   -1.533180535338759E-1    4.958135620164800E-1
 1.001045695280000E+10  -3.332756059753004E-1    3.931981320054135E-1   -2.539233103422875E-2   -1.350256490710523E-2   -2.387686989372794E-2   -1.448576340026447E-2   -1.525858961375071E-1    4.960143474142426E-1
 1.001046911947500E+10  -3.323390029058539E-1    3.939385215415252E-1   -2.572321676069602E-2   -1.372169017313817E-2   -2.401096578306152E-2   -1.448675142311973E-2   -1.516719545128946E-1    4.962485355465166E-1
 1.001048128615000E+10  -3.313594494596876E-1    3.947172661538036E-1   -2.581105970133008E-2   -1.377709513016989E-2   -2.416254995658540E-2   -1.452705380296635E-2   -1.510383526233140E-1    4.966707393845051E-1
 1.001049345282500E+10  -3.304917656564977E-1    3.955333341715621E-1   -2.607283488505789E-2   -1.385207626655104E-2   -2.432454428006178E-2   -1.443275767452475E-2   -1.501859599864853E-1    4.967985469842447E-1
 1.001050561950000E+10  -3.294762273505878E-1    3.963293167430686E-1   -2.620634141825256E-2   -1.388272141445136E-2   -2.459691221688843E-2   -1.445869771839894E-2   -1.493045236708254E-1    4.969942143354283E-1
 1.001051778617500E+10  -3.284328405712715E-1    3.969248710430651E-1   -2.626935293263893E-2   -1.387608364030950E-2   -2.461626090659011E-2   -1.444449986308101E-2   -1.486062582313734E-1    4.973196369300067E-1
 1.001052995285000E+10  -3.274892968860502E-1    3.976922617218848E-1   -2.653792878563636E-2   -1.395257004957274E-2   -2.497863350676518E-2   -1.439910302352914E-2   -1.477509378112548E-1    4.974809100089010E-1
 1.001054211952500E+10  -3.265871327248437E-1    3.986297862789628E-1   -2.672308199669576E-2   -1.382889326719296E-2   -2.517473221956769E-2   -1.465797338864967E-2   -1.468498861950245E-1    4.977493434153900E-1
 1.001055428620000E+10  -3.255832100144518E-1    3.994264202093312E-1   -2.699332028584081E-2   -1.387768810095781E-2   -2.526554380502984E-2   -1.458626019479633E-2   -1.461781762762354E-1    4.980752779563168E-1
 1.001056645287500E+10  -3.245936047628767E-1    4.001019903787765E-1   -2.709239203325850E-2   -1.380064911239744E-2   -2.539538220465324E-2   -1.455724888053735E-2   -1.452991351572163E-1    4.981393419651941E-1
 1.001057861955000E+10  -3.236030686232153E-1    4.007764422017979E-1   -2.745662997781153E-2   -1.382914843646538E-2   -2.572957554246538E-2   -1.459829477674528E-2   -1.445754866204155E-1    4.983134027386463E-1
 1.001059078622500E+10  -3.226236773934824E-1    4.016539102449185E-1   -2.756489266281042E-2   -1.387632608435099E-2   -2.575812890084543E-2   -1.473293227094669E-2   -1.436895839519412E-1    4.986193083972654E-1
 1.001060295290000E+10  -3.216619640272961E-1    4.024709657483707E-1   -2.781588697392775E-2   -1.380194647097700E-2   -2.615679368353180E-2   -1.472245529192053E-2   -1.429199885899227E-1    4.988485963865216E-1
 1.001061511957500E+10  -3.203424924772188E-1    4.032607018785410E-1   -2.796887258229921E-2   -1.385647940531909E-2   -2.619809913786553E-2   -1.467070561592646E-2   -1.421392048921716E-1    4.991928115532577E-1
 1.001062728625000E+10  -3.194557770486495E-1    4.041619932266370E-1   -2.819004647667736E-2   -1.390298756541822E-2   -2.648553624126889E-2   -1.463110800276614E-2   -1.412256608381116E-1    4.993426426266419E-1
 1.001063945292500E+10  -3.183114285789119E-1    4.047966447011944E-1   -2.846032296164841E-2   -1.397695361473381E-2   -2.678649818163172E-2   -1.472564813315676E-2   -1.405370292910449E-1    4.995280980358724E-1
 1.001065161960000E+10  -3.173078777991675E-1    4.056498972977405E-1   -2.866758335952424E-2   -1.391977399521330E-2   -2.695067256440669E-2   -1.464330396915828E-2   -1.395712431076973E-1    4.997980952391782E-1
 1.001066378627500E+10  -3.162109321800376E-1    4.063232081353333E-1   -2.889291226221016E-2   -1.395134238535436E-2   -2.726391304736539E-2   -1.465683303329287E-2   -1.389518979227116E-1    5.001188303615581E-1
 1.001067595295000E+10  -3.151377649166412E-1    4.071140879108021E-1   -2.901913885918609E-2   -1.397224067686956E-2   -2.725603805840231E-2   -1.485218047712443E-2   -1.380312237783613E-1    5.003076005914098E-1
 1.001068811962500E+10  -3.138846047621861E-1    4.079765441561396E-1   -2.926436797495644E-2   -1.404442920223306E-2   -2.753837658467352E-2   -1.480694451705764E-2   -1.372076632661810E-1    5.006210691484472E-1
 1.001070028630000E+10  -3.128135292238400E-1    4.087624330951211E-1   -2.950593689551629E-2   -1.405905317274206E-2   -2.764265641682921E-2   -1.482101682703587E-2   -1.363484970683985E-1    5.007751451344191E-1
 1.001071245297500E+10  -3.117533365857811E-1    4.094739800594591E-1   -2.978154190265095E-2   -1.398335208800786E-2   -2.790587371245245E-2   -1.483490294512578E-2   -1.356895635722064E-1    5.008956470340163E-1
 1.001072461965000E+10  -3.106419929393117E-1    4.102605114959829E-1   -2.998374162836669E-2   -1.388993227902603E-2   -2.815843893637077E-2   -1.486702554130601E-2   -1.347576814315698E-1    5.011359055299140E-1
 1.001073678632500E+10  -3.096542291546377E-1    4.110598740477751E-1   -3.027758504308177E-2   -1.396239641758354E-2   -2.841287552249531E-2   -1.487020910005101E-2   -1.339589115578036E-1    5.014945997615029E-1
 1.001074895300000E+10  -3.083919781708889E-1    4.118882723277761E-1   -3.055105769951522E-2   -1.390934072310778E-2   -2.885321921907456E-2   -1.497497490941431E-2   -1.329980954307795E-1    5.016001769044984E-1
 1.001076111967500E+10  -3.073393811149868E-1    4.126093157793040E-1   -3.074298151422227E-2   -1.405665222280364E-2   -2.890275755086158E-2   -1.483178429963688E-2   -1.323608849831479E-1    5.018412737735182E-1
 1.001077328635000E+10  -3.060895816175029E-1    4.135074143745179E-1   -3.115355513791751E-2   -1.406892655872458E-2   -2.922545256890818E-2   -1.482634909714709E-2   -1.313254411621084E-1    5.022356723190083E-1
 1.001078545302500E+10  -3.050048953516988E-1    4.143254244658008E-1   -3.138035958823090E-2   -1.397397174810951E-2   -2.944769648572833E-2   -1.491399248739328E-2   -1.305880790271608E-1    5.021413827074490E-1
 1.001079761970000E+10  -3.037918932133297E-1    4.149383072779862E-1   -3.154801103760692E-2   -1.386513951052566E-2   -2.971007389751275E-2   -1.495310036294185E-2   -1.297948508993082E-1    5.024428731340232E-1
 1.001080978637500E+10  -3.025452764563665E-1    4.156964639762484E-1   -3.183842358000352E-2   -1.396807026224992E-2   -2.983240970749552E-2   -1.512332128642198E-2   -1.290271907785455E-1    5.025601600038765E-1
 1.001082195305000E+10  -3.013298309838782E-1    4.165371904733229E-1   -3.200894942479188E-2   -1.408889412055003E-2   -3.007407146287776E-2   -1.499890702567029E-2   -1.280637364879096E-1    5.028048364061147E-1
 1.001083411972500E+10  -3.001490291057218E-1    4.173743399346124E-1   -3.223757892424964E-2   -1.410483816265897E-2   -3.048716932186458E-2   -1.509899383977939E-2   -1.272409387058699E-1    5.030065666378153E-1
 1.001084628640000E+10  -2.987800766728844E-1    4.180154545933636E-1   -3.255641898457103E-2   -1.405541637660992E-2   -3.075096234932334E-2   -1.511366956553509E-2   -1.265066981919492E-1    5.031735943149627E-1
 1.001085845307500E+10  -2.977430623119365E-1    4.189979007554039E-1   -3.279679915896403E-2   -1.421378568120197E-2   -3.105624786310662E-2   -1.520135502284668E-2   -1.255523585671000E-1    5.034840045614396E-1
 1.001087061975000E+10  -2.963947480367693E-1    4.197002583830906E-1   -3.324855112434342E-2   -1.419279560755786E-2   -3.126516816640987E-2   -1.503979185625116E-2   -1.246960690376657E-1    5.036391724692892E-1
