#  HZ   S   RI   R     50.00 
! Rohde & Schwarz Vector Network Analyzer 
! Rohde-Schwarz,ZNB20-2Port,1311601062101988,3.16
! Created: UTC 12/23/2023, 3:43:51 AM
! freq[Hz]                re:S11                  im:S11                  re:S21                  im:S21                  re:S12                  im:S12                  re:S22                  im:S22
 1.000983127900000E+10  -3.744144098305921E-1    3.548036303748333E-1   -1.870954910021012E-2   -1.304177435916126E-2   -1.734067007322604E-2   -1.324942092726677E-2   -1.917049859199869E-1    4.817649912930605E-1
 1.000984315960000E+10  -3.737519847740440E-1    3.556732805390251E-1   -1.878072492539133E-2   -1.302564924368009E-2   -1.747700090350362E-2   -1.338251261756564E-2   -1.910760763720123E-1    4.821137003878446E-1
 1.000985504020000E+10  -3.730315859844645E-1    3.562931111485904E-1   -1.895474210881810E-2   -1.303101286244365E-2   -1.748495562101780E-2   -1.347026351838615E-2   -1.904148851657507E-1    4.823386053531076E-1
 1.000986692080000E+10  -3.721958837159771E-1    3.570844798481296E-1   -1.903328422414964E-2   -1.278327252529564E-2   -1.772726889816571E-2   -1.345577304248996E-2   -1.895824774674804E-1    4.826331930905385E-1
 1.000987880140000E+10  -3.716234088138246E-1    3.577474001468690E-1   -1.921221102688558E-2   -1.289314865619274E-2   -1.770062899525324E-2   -1.360660547223074E-2   -1.889792533655634E-1    4.829684789520489E-1
 1.000989068200000E+10  -3.708139819714530E-1    3.585055152049320E-1   -1.925070750947895E-2   -1.289970920172288E-2   -1.785897838206926E-2   -1.343787839643057E-2   -1.881000698648766E-1    4.832243963339528E-1
 1.000990256260000E+10  -3.701556192713957E-1    3.592994929398811E-1   -1.938982001864998E-2   -1.297494082679545E-2   -1.800158196053997E-2   -1.345703295913301E-2   -1.873394457220148E-1    4.834638186217424E-1
 1.000991444320000E+10  -3.695418214722179E-1    3.599292902026362E-1   -1.941514304869291E-2   -1.308712513683512E-2   -1.804888691440230E-2   -1.333692935596108E-2   -1.867320409913532E-1    4.838885417366167E-1
 1.000992632380000E+10  -3.685986192134522E-1    3.607882075738026E-1   -1.962289944679217E-2   -1.293042209567735E-2   -1.813163118351180E-2   -1.347775815299741E-2   -1.858644703464332E-1    4.841384946166041E-1
 1.000993820440000E+10  -3.681023180744186E-1    3.615123859944266E-1   -1.966498629985883E-2   -1.298667706486635E-2   -1.821914590566425E-2   -1.349455770818022E-2   -1.852040155011171E-1    4.843826084252311E-1
 1.000995008500000E+10  -3.672097992561599E-1    3.622849423837065E-1   -1.982300956782680E-2   -1.308216061368053E-2   -1.845216975070623E-2   -1.355600180862906E-2   -1.844046248418920E-1    4.847145678195436E-1
 1.000996196560000E+10  -3.666398425438956E-1    3.628613730929749E-1   -1.988933739554733E-2   -1.310421303576529E-2   -1.844160959707608E-2   -1.358818458141876E-2   -1.837382178063938E-1    4.851272702149205E-1
 1.000997384620000E+10  -3.657820175036596E-1    3.637445786409797E-1   -1.995843069810995E-2   -1.312292626576080E-2   -1.863451837415020E-2   -1.350359741075237E-2   -1.829871149071669E-1    4.852310812839753E-1
 1.000998572680000E+10  -3.650494379275662E-1    3.644421160636137E-1   -2.013572951522768E-2   -1.295772957729182E-2   -1.875187414748720E-2   -1.360037476189229E-2   -1.822090885057722E-1    4.855614504420963E-1
 1.000999760740000E+10  -3.644746577248143E-1    3.653024769123588E-1   -2.013303361633560E-2   -1.323781548619327E-2   -1.879977597424713E-2   -1.364701068292003E-2   -1.814986297303887E-1    4.859221220639375E-1
 1.001000948800000E+10  -3.636290440458529E-1    3.659961236866340E-1   -2.022464829866190E-2   -1.322265085326013E-2   -1.894242119295483E-2   -1.358748878997819E-2   -1.808566593672491E-1    4.861674942961891E-1
 1.001002136860000E+10  -3.629758446987710E-1    3.665171521929039E-1   -2.046027598131851E-2   -1.333280490021973E-2   -1.893399822336969E-2   -1.369622409359629E-2   -1.800136616866434E-1    4.864747482991231E-1
 1.001003324920000E+10  -3.622002879875699E-1    3.674310826552788E-1   -2.046274035495078E-2   -1.322825451103803E-2   -1.909623171820071E-2   -1.367731664115599E-2   -1.793466399076482E-1    4.868289047328080E-1
 1.001004512980000E+10  -3.615082924681899E-1    3.681602616634728E-1   -2.050192619647389E-2   -1.339097223137001E-2   -1.944420891012023E-2   -1.367391174784018E-2   -1.785922654654481E-1    4.870970710294248E-1
 1.001005701040000E+10  -3.606641386797101E-1    3.689548196098662E-1   -2.081950876036849E-2   -1.309580794629193E-2   -1.952477240360887E-2   -1.369098901587584E-2   -1.777841340503812E-1    4.873394325142913E-1
 1.001006889100000E+10  -3.599493848192891E-1    3.696772436433556E-1   -2.079850847354829E-2   -1.315159978697317E-2   -1.938267023804824E-2   -1.364722278394625E-2   -1.771236090401326E-1    4.876922595757819E-1
 1.001008077160000E+10  -3.591200635059886E-1    3.702698808165626E-1   -2.099986093949534E-2   -1.312288370486654E-2   -1.957068019257297E-2   -1.381695142241865E-2   -1.763054244333765E-1    4.880188998177236E-1
 1.001009265220000E+10  -3.583474411633972E-1    3.711268761787930E-1   -2.109760322467165E-2   -1.332757840315557E-2   -1.976202711201628E-2   -1.380746203641654E-2   -1.756786310832544E-1    4.883277075628442E-1
 1.001010453280000E+10  -3.576004600029980E-1    3.719195088547231E-1   -2.124678458127239E-2   -1.335869892802143E-2   -1.978304256881043E-2   -1.385538456116324E-2   -1.748350889998887E-1    4.885919188918637E-1
 1.001011641340000E+10  -3.569033972349712E-1    3.726816570384396E-1   -2.133962620189948E-2   -1.343852885761389E-2   -1.991054892359946E-2   -1.376124033925017E-2   -1.740207750274600E-1    4.888215533701871E-1
 1.001012829400000E+10  -3.561163462951130E-1    3.732551216316388E-1   -2.135660549382281E-2   -1.346468845950675E-2   -2.007440195316990E-2   -1.368042632748476E-2   -1.732656258709661E-1    4.890624486042614E-1
 1.001014017460000E+10  -3.552512809681974E-1    3.739564758068866E-1   -2.158730839698141E-2   -1.333581284676087E-2   -2.015274173723395E-2   -1.377593250070997E-2   -1.725678621730221E-1    4.893131927561074E-1
 1.001015205520000E+10  -3.545726017425861E-1    3.747679922134083E-1   -2.162610980714895E-2   -1.354433278512058E-2   -2.034546519040866E-2   -1.377574707387851E-2   -1.718906158147555E-1    4.896059785095206E-1
 1.001016393580000E+10  -3.537532629396816E-1    3.755044857081770E-1   -2.187346196551947E-2   -1.340661368838784E-2   -2.055294302234140E-2   -1.374296158743468E-2   -1.710716424787630E-1    4.897841341186328E-1
 1.001017581640000E+10  -3.529565039033979E-1    3.763328934995875E-1   -2.182634526749648E-2   -1.356823820938602E-2   -2.047905955892469E-2   -1.397760782290506E-2   -1.703371110123651E-1    4.901051800830604E-1
 1.001018769700000E+10  -3.522013792245975E-1    3.770393771584433E-1   -2.216761119551313E-2   -1.340832154809650E-2   -2.063625952774369E-2   -1.392294719638544E-2   -1.696122822164778E-1    4.903843734566586E-1
 1.001019957760000E+10  -3.514162024777637E-1    3.777576982510221E-1   -2.225159968123779E-2   -1.351845561982771E-2   -2.070719759725744E-2   -1.397748431231038E-2   -1.687709047558489E-1    4.907214264436250E-1
 1.001021145820000E+10  -3.506340461871547E-1    3.785597117985067E-1   -2.235716687111233E-2   -1.333391722087932E-2   -2.083110297716285E-2   -1.397034713671529E-2   -1.680561309442631E-1    4.908094561081964E-1
 1.001022333880000E+10  -3.499883789975134E-1    3.792494079022381E-1   -2.256252243007933E-2   -1.337365046322338E-2   -2.091573727457875E-2   -1.399519427566686E-2   -1.673124637889856E-1    4.914246499557972E-1
 1.001023521940000E+10  -3.488968747393872E-1    3.800251914225729E-1   -2.271010043513295E-2   -1.343704662702470E-2   -2.105038540329921E-2   -1.393688162446759E-2   -1.665461304434021E-1    4.915035356995743E-1
 1.001024710000000E+10  -3.481220349233709E-1    3.807853626569467E-1   -2.281672558893705E-2   -1.346650111911218E-2   -2.133905616506006E-2   -1.400592670211153E-2   -1.657506727730218E-1    4.919244179530865E-1
 1.001025898060000E+10  -3.472083321667381E-1    3.815513509793366E-1   -2.288803774301602E-2   -1.344449093451030E-2   -2.151760317094706E-2   -1.411902508446014E-2   -1.648887794220307E-1    4.920000217994464E-1
 1.001027086120000E+10  -3.464906300812681E-1    3.823487697209758E-1   -2.324176209345068E-2   -1.349850128780141E-2   -2.164457238205849E-2   -1.409686906359036E-2   -1.642263720855064E-1    4.922680597794188E-1
 1.001028274180000E+10  -3.456799865543063E-1    3.829892096172359E-1   -2.322308907771481E-2   -1.343023225586105E-2   -2.182222313544566E-2   -1.399490376148482E-2   -1.636132557219437E-1    4.926350842012369E-1
 1.001029462240000E+10  -3.447937277432926E-1    3.836674906262477E-1   -2.320957853433888E-2   -1.351425479067582E-2   -2.180653069839097E-2   -1.417223839243797E-2   -1.627982495109280E-1    4.928338336975929E-1
 1.001030650300000E+10  -3.440392801702107E-1    3.843756402870581E-1   -2.349683116679432E-2   -1.364637934166061E-2   -2.201448341172933E-2   -1.417318034510572E-2   -1.618582657520683E-1    4.930392070290250E-1
 1.001031838360000E+10  -3.431816969528887E-1    3.852793482688344E-1   -2.373441407236856E-2   -1.359512175156957E-2   -2.206624828946712E-2   -1.423237783541352E-2   -1.611740201740998E-1    4.933120948827782E-1
 1.001033026420000E+10  -3.422593791777866E-1    3.860282643873127E-1   -2.376418090224749E-2   -1.358700571724011E-2   -2.235781710607707E-2   -1.433910250165845E-2   -1.604886174083980E-1    4.936612147079539E-1
 1.001034214480000E+10  -3.414035893853081E-1    3.867399932287032E-1   -2.391428128604094E-2   -1.375960667167810E-2   -2.238051371161311E-2   -1.430603124481432E-2   -1.596246843251091E-1    4.938584923591224E-1
 1.001035402540000E+10  -3.404392244685109E-1    3.874409312375650E-1   -2.411711292788270E-2   -1.368286161243014E-2   -2.249303907160776E-2   -1.425374099419894E-2   -1.589484295811111E-1    4.940700811829503E-1
 1.001036590600000E+10  -3.397367927500899E-1    3.882692148700327E-1   -2.434592995606084E-2   -1.373275307248861E-2   -2.272754455543051E-2   -1.420831574044376E-2   -1.581285684868983E-1    4.943789945587485E-1
 1.001037778660000E+10  -3.387844517273543E-1    3.889855291182888E-1   -2.436901610342090E-2   -1.348490975509092E-2   -2.282611609822247E-2   -1.427754154150926E-2   -1.575388976363364E-1    4.945348568921951E-1
 1.001038966720000E+10  -3.378509272025978E-1    3.897622555430404E-1   -2.458976722700683E-2   -1.366860537154390E-2   -2.301122256147890E-2   -1.422476351949756E-2   -1.567177985977294E-1    4.947770296699771E-1
 1.001040154780000E+10  -3.369762127082128E-1    3.905480751529247E-1   -2.477233859840329E-2   -1.367066792463141E-2   -2.317294049030749E-2   -1.426840056211293E-2   -1.558958151711945E-1    4.951313011937161E-1
 1.001041342840000E+10  -3.361594357302936E-1    3.911885277971988E-1   -2.491383782629614E-2   -1.369336148898346E-2   -2.320944675215763E-2   -1.435631091284495E-2   -1.550934117787562E-1    4.953808008239957E-1
 1.001042530900000E+10  -3.352378852237640E-1    3.919974965988422E-1   -2.508316017428944E-2   -1.379023472274936E-2   -2.344773858259570E-2   -1.431976637529539E-2   -1.544911891399553E-1    4.954929150164702E-1
 1.001043718960000E+10  -3.344128187812386E-1    3.927580866090816E-1   -2.529164172682987E-2   -1.367020824060581E-2   -2.359468244266388E-2   -1.444391049539681E-2   -1.535770319031680E-1    4.957812111282360E-1
 1.001044907020000E+10  -3.333521916313641E-1    3.933332494219230E-1   -2.542244568681213E-2   -1.378681876294458E-2   -2.371066337942080E-2   -1.432240894680789E-2   -1.528226169616709E-1    4.960528719643877E-1
 1.001046095080000E+10  -3.325027946301157E-1    3.942140156902770E-1   -2.552928636861201E-2   -1.373566411064496E-2   -2.383248461915134E-2   -1.438579175188301E-2   -1.518959366197050E-1    4.962436911173682E-1
 1.001047283140000E+10  -3.315215239849260E-1    3.950111747294844E-1   -2.577432174216113E-2   -1.396686650960976E-2   -2.424675745236546E-2   -1.445994205211608E-2   -1.512840939431076E-1    4.966898229088811E-1
 1.001048471200000E+10  -3.305294912859426E-1    3.957459440329157E-1   -2.582751301639595E-2   -1.382855115695441E-2   -2.436898926525191E-2   -1.445812721975171E-2   -1.503100446556533E-1    4.969425922085130E-1
 1.001049659260000E+10  -3.297494622668987E-1    3.963758814805164E-1   -2.616000662322963E-2   -1.387076839744869E-2   -2.446947550887863E-2   -1.458069168530000E-2   -1.494800773995719E-1    4.970326551451886E-1
 1.001050847320000E+10  -3.286266001791108E-1    3.972631773901718E-1   -2.625883920233216E-2   -1.377552199161476E-2   -2.468191094603321E-2   -1.450655622353829E-2   -1.488482728815471E-1    4.972974049099672E-1
 1.001052035380000E+10  -3.278418965216859E-1    3.979771271147194E-1   -2.650138136663717E-2   -1.396438874696271E-2   -2.485084636390806E-2   -1.459874226460874E-2   -1.480960778081753E-1    4.974957884345126E-1
 1.001053223440000E+10  -3.267295513301590E-1    3.987974297508597E-1   -2.662325098520829E-2   -1.394729159982777E-2   -2.501249219714168E-2   -1.451449948721899E-2   -1.472558777136003E-1    4.977567251810970E-1
 1.001054411500000E+10  -3.258994445829643E-1    3.995576129127967E-1   -2.693845932051122E-2   -1.389085894519205E-2   -2.510739605172594E-2   -1.464591867576279E-2   -1.465664608422272E-1    4.980376762567072E-1
 1.001055599560000E+10  -3.248816648460335E-1    4.003912965697985E-1   -2.708046477652793E-2   -1.378889625122222E-2   -2.543617553872569E-2   -1.457064432204469E-2   -1.456817085481418E-1    4.981847368594088E-1
 1.001056787620000E+10  -3.239106894353453E-1    4.009798578610805E-1   -2.729076761755070E-2   -1.379932952790890E-2   -2.562559819686110E-2   -1.445430970453493E-2   -1.450016469814592E-1    4.985253834801103E-1
 1.001057975680000E+10  -3.229484786987421E-1    4.018518575934105E-1   -2.743909819456383E-2   -1.384461050177307E-2   -2.580419044106530E-2   -1.468425125749047E-2   -1.441396148714287E-1    4.987914293515515E-1
 1.001059163740000E+10  -3.219014659265949E-1    4.024629887332773E-1   -2.766244424777136E-2   -1.387230772056878E-2   -2.582404589767410E-2   -1.469891277817429E-2   -1.433865130531219E-1    4.989833561829444E-1
 1.001060351800000E+10  -3.208848943324690E-1    4.032617369755795E-1   -2.771350989919506E-2   -1.396241153053217E-2   -2.606858073370226E-2   -1.474095315363612E-2   -1.425092594755120E-1    4.991425892896630E-1
 1.001061539860000E+10  -3.198017879205968E-1    4.042033362165779E-1   -2.804183499514844E-2   -1.385687581874092E-2   -2.625450860347117E-2   -1.478485208193106E-2   -1.418605094150790E-1    4.993562956097405E-1
 1.001062727920000E+10  -3.188600907760794E-1    4.048471674621063E-1   -2.820772170546731E-2   -1.396148115172745E-2   -2.659657055901740E-2   -1.463316012827197E-2   -1.409161088813173E-1    4.996173573048449E-1
 1.001063915980000E+10  -3.178167973587180E-1    4.054995958670503E-1   -2.841161218690631E-2   -1.399327449533571E-2   -2.666279198431338E-2   -1.487083102416489E-2   -1.401495620062778E-1    4.999876317230589E-1
 1.001065104040000E+10  -3.167364974292189E-1    4.064379438610077E-1   -2.866906772970352E-2   -1.406934444503551E-2   -2.691227363709804E-2   -1.488790890255724E-2   -1.393567451666508E-1    4.998546214252670E-1
 1.001066292100000E+10  -3.156508246194081E-1    4.071038183162204E-1   -2.884427831928721E-2   -1.407596491550112E-2   -2.716261091501576E-2   -1.480866252362502E-2   -1.386042927701700E-1    5.004006834544105E-1
 1.001067480160000E+10  -3.146557330578650E-1    4.080664413460465E-1   -2.911038675930082E-2   -1.402982769543179E-2   -2.729643442206442E-2   -1.483013522723793E-2   -1.380023227510490E-1    5.003304482746257E-1
 1.001068668220000E+10  -3.137196202255282E-1    4.087428374748689E-1   -2.938483989926607E-2   -1.409414799910478E-2   -2.757076810894074E-2   -1.492959632699960E-2   -1.369517360408391E-1    5.007585683217154E-1
 1.001069856280000E+10  -3.125344876231326E-1    4.094737518300257E-1   -2.950772217681677E-2   -1.392104328246399E-2   -2.782397022477418E-2   -1.476458832644641E-2   -1.362985398064193E-1    5.008389519973998E-1
 1.001071044340000E+10  -3.113303773341215E-1    4.101304472756505E-1   -2.978803137216957E-2   -1.400125030178537E-2   -2.798327667722610E-2   -1.487383480812202E-2   -1.355231093404295E-1    5.010981281975685E-1
 1.001072232400000E+10  -3.102961755802862E-1    4.109555036115853E-1   -3.001414356561484E-2   -1.405251596968561E-2   -2.817627642310081E-2   -1.491149118065914E-2   -1.346081686295111E-1    5.013532126360777E-1
 1.001073420460000E+10  -3.091318650324025E-1    4.118800729874986E-1   -3.024437778246940E-2   -1.404630117137089E-2   -2.844221390870251E-2   -1.481319652667100E-2   -1.338123773606409E-1    5.015605783567324E-1
 1.001074608520000E+10  -3.080998398938680E-1    4.125763656860384E-1   -3.054180530895113E-2   -1.406187903149712E-2   -2.868455745686794E-2   -1.509619360205267E-2   -1.330433957742858E-1    5.017146203149525E-1
 1.001075796580000E+10  -3.068674755780896E-1    4.132628241904860E-1   -3.090377217423369E-2   -1.398844467819326E-2   -2.892578067486410E-2   -1.503326168580976E-2   -1.321592463099518E-1    5.019843951177355E-1
 1.001076984640000E+10  -3.057883338496150E-1    4.140437997966634E-1   -3.108967637695519E-2   -1.396815447177920E-2   -2.909993844775566E-2   -1.501826041767455E-2   -1.313430362896204E-1    5.021503839662766E-1
 1.001078172700000E+10  -3.046680073292000E-1    4.147315147209785E-1   -3.138042047377412E-2   -1.409061923439365E-2   -2.937336266020318E-2   -1.501872024803407E-2   -1.305776033433049E-1    5.022794922010567E-1
 1.001079360760000E+10  -3.035357571007795E-1    4.156338594228736E-1   -3.163889508689442E-2   -1.399928969260786E-2   -2.969786897525236E-2   -1.505783578881314E-2   -1.297587485471564E-1    5.025071615205369E-1
 1.001080548820000E+10  -3.022767906213852E-1    4.164581440960103E-1   -3.178081879790299E-2   -1.424863930900593E-2   -2.988596655058673E-2   -1.510291983104012E-2   -1.289269200725502E-1    5.026659525881370E-1
 1.001081736880000E+10  -3.011595275573111E-1    4.171460910670304E-1   -3.203040780148583E-2   -1.424206516228287E-2   -3.012246542198837E-2   -1.504012771862685E-2   -1.280187896081317E-1    5.028322283580642E-1
 1.001082924940000E+10  -2.998818232394898E-1    4.179365343921785E-1   -3.220441082077077E-2   -1.421608762812194E-2   -3.053594642878529E-2   -1.498977249533295E-2   -1.272524634914547E-1    5.031628738112852E-1
 1.001084113000000E+10  -2.987103911218171E-1    4.186426254211688E-1   -3.250686707000286E-2   -1.425863619152267E-2   -3.073878151760538E-2   -1.522223612520386E-2   -1.264524009344843E-1    5.034847675265999E-1
 1.001085301060000E+10  -2.973912130582410E-1    4.195311702328538E-1   -3.285715730519302E-2   -1.417900589192929E-2   -3.086038356929078E-2   -1.511769623763737E-2   -1.256179136541356E-1    5.035648863934559E-1
 1.001086489120000E+10  -2.962055075320070E-1    4.203253487742150E-1   -3.316983969941011E-2   -1.416496588140635E-2   -3.127884538441464E-2   -1.512637854194211E-2   -1.247715416964415E-1    5.038015613729264E-1
 1.001087677180000E+10  -2.950227076089730E-1    4.209293344965639E-1   -3.342293283576041E-2   -1.421195282761062E-2   -3.146866503741434E-2   -1.518970743022161E-2   -1.239963767939018E-1    5.038828518631649E-1
 1.001088865240000E+10  -2.937989210329426E-1    4.219268167126588E-1   -3.385275872795091E-2   -1.414087047520093E-2   -3.162519545542822E-2   -1.526897637233168E-2   -1.231423346625608E-1    5.040213372868518E-1
 1.001090053300000E+10  -2.926280778731272E-1    4.227187333804147E-1   -3.402504475561072E-2   -1.397466178159739E-2   -3.196509608444113E-2   -1.537508542799434E-2   -1.223109026314178E-1    5.043044342795685E-1
