#  HZ   S   RI   R     50.00 
! Rohde & Schwarz Vector Network Analyzer 
! Rohde-Schwarz,ZNB20-2Port,1311601062101988,3.16
! Created: UTC 12/23/2023, 3:47:17 AM
! freq[Hz]                re:S11                  im:S11                  re:S21                  im:S21                  re:S12                  im:S12                  re:S22                  im:S22
 7.836914767000000E9     5.647111169327674E-1    4.126781987811593E-2    1.146966209006279E-3    3.753069609281942E-3    1.190821584112067E-3    3.715591786654574E-3    4.700737570818945E-1   -2.648210883948492E-1
 7.836948470475000E9     5.648131159264917E-1    3.908068171503829E-2    1.212442306855531E-3    3.775167299716217E-3    1.204909523647613E-3    3.697964420437670E-3    4.688501546807467E-1   -2.669894830737814E-1
 7.836982173950000E9     5.649781879046432E-1    3.672894129672743E-2    1.203096768420327E-3    3.751472292567823E-3    1.209569987798370E-3    3.679190834386340E-3    4.677116504883196E-1   -2.691210362954934E-1
 7.837015877425000E9     5.651977519146186E-1    3.466214205694301E-2    1.232489795543082E-3    3.770104340260710E-3    1.238525291286145E-3    3.701211396599968E-3    4.665614176388808E-1   -2.711054105355162E-1
 7.837049580900000E9     5.652641966065610E-1    3.237656245525866E-2    1.226045097379592E-3    3.778235365418654E-3    1.242501286816681E-3    3.705990280373742E-3    4.653195475207204E-1   -2.733150216667919E-1
 7.837083284375000E9     5.655336674614567E-1    3.016968033328486E-2    1.264637509183041E-3    3.777382763766900E-3    1.296768495539442E-3    3.688050194955708E-3    4.640180121881876E-1   -2.751014261203859E-1
 7.837116987850000E9     5.656919886823962E-1    2.788918400995941E-2    1.268445859217965E-3    3.744624286807257E-3    1.282188806705189E-3    3.703664804727529E-3    4.628641909924309E-1   -2.771575998682743E-1
 7.837150691325000E9     5.658300788479245E-1    2.557687770354796E-2    1.280210175366330E-3    3.776806744075932E-3    1.307182623227503E-3    3.678792140425106E-3    4.617703104998040E-1   -2.792430523151803E-1
 7.837184394800000E9     5.659045123321934E-1    2.340382766950233E-2    1.310549311993792E-3    3.744899547891614E-3    1.325729060671061E-3    3.696296959178562E-3    4.605299999304425E-1   -2.812657984030387E-1
 7.837218098275000E9     5.659322675430074E-1    2.129647139801961E-2    1.324140148049495E-3    3.784530305267978E-3    1.315445376543110E-3    3.698828145751747E-3    4.593424082269271E-1   -2.834227211334279E-1
 7.837251801750000E9     5.660849076056919E-1    1.901049553384905E-2    1.365939078996266E-3    3.723607092838671E-3    1.362045710448027E-3    3.710888570517951E-3    4.581470112458205E-1   -2.853025281556741E-1
 7.837285505225000E9     5.660907177223382E-1    1.663355392861370E-2    1.359288915858760E-3    3.755922551963397E-3    1.364147616958002E-3    3.666663453572414E-3    4.567404077194986E-1   -2.873740431761208E-1
 7.837319208700000E9     5.660730675991339E-1    1.451198855205890E-2    1.393827749565776E-3    3.732941094818309E-3    1.404744122052582E-3    3.677654582140342E-3    4.556048444580385E-1   -2.893318259977009E-1
 7.837352912175000E9     5.662885158192349E-1    1.218993918000639E-2    1.402795768485451E-3    3.768606056446157E-3    1.416116899900035E-3    3.695864722151313E-3    4.543102984184483E-1   -2.911874454721588E-1
 7.837386615650000E9     5.663184629150728E-1    1.006647884319706E-2    1.394629964330197E-3    3.771871730802266E-3    1.457085931148197E-3    3.651575927921484E-3    4.531168349133770E-1   -2.933218268910586E-1
 7.837420319125000E9     5.664059195288556E-1    7.787128838140479E-3    1.400337348816390E-3    3.741726784428915E-3    1.448446268271801E-3    3.690634870687602E-3    4.517031066617211E-1   -2.953942507298845E-1
 7.837454022600000E9     5.663942980473465E-1    5.452293711914856E-3    1.440178438525804E-3    3.747425744847796E-3    1.483008116325403E-3    3.722495014933604E-3    4.504014068725526E-1   -2.972543697564734E-1
 7.837487726075000E9     5.664059161483989E-1    3.405583161092489E-3    1.480603421503363E-3    3.739332685256743E-3    1.473412855136272E-3    3.682177451245086E-3    4.492703608832823E-1   -2.993426616130551E-1
 7.837521429550000E9     5.665423086673530E-1    9.678792176518006E-4    1.498214567351069E-3    3.778486327575166E-3    1.508260239121132E-3    3.702776398485000E-3    4.479065473475293E-1   -3.012467693755297E-1
 7.837555133025000E9     5.664073802450602E-1   -1.210986619290637E-3    1.532779300570583E-3    3.735790252739063E-3    1.546092954583262E-3    3.675127259625370E-3    4.466176747925240E-1   -3.031343614228200E-1
 7.837588836500000E9     5.663640265013575E-1   -3.448174169769395E-3    1.528500853318573E-3    3.757625945329949E-3    1.580293743574174E-3    3.662727940708349E-3    4.455101697181498E-1   -3.053508894544463E-1
 7.837622539975000E9     5.665823549892736E-1   -5.761227879938309E-3    1.558476987921250E-3    3.772602836534140E-3    1.579776330992506E-3    3.693754229777806E-3    4.439592643759816E-1   -3.071422290297861E-1
 7.837656243450000E9     5.665751608154878E-1   -7.947510554523692E-3    1.569520001167673E-3    3.738634014616195E-3    1.614406765941286E-3    3.683629493911524E-3    4.425484501602754E-1   -3.091884051822944E-1
 7.837689946925000E9     5.664887551135014E-1   -1.023442815585509E-2    1.589734243853427E-3    3.754997911573760E-3    1.608642978603561E-3    3.704567438152867E-3    4.412282270212917E-1   -3.111395440020629E-1
 7.837723650400000E9     5.664770944751811E-1   -1.244551033362096E-2    1.621864110525571E-3    3.735024249719551E-3    1.629305218319642E-3    3.706239973319625E-3    4.398180166105157E-1   -3.128039522751513E-1
 7.837757353875000E9     5.662987175085396E-1   -1.461016185191511E-2    1.637213620079089E-3    3.732734838771517E-3    1.642519020703957E-3    3.694710633257457E-3    4.385346371706059E-1   -3.150176673737699E-1
 7.837791057350000E9     5.664433292700540E-1   -1.694185667372622E-2    1.639544771025185E-3    3.739806325790307E-3    1.650827919286277E-3    3.673667305391786E-3    4.370827301955827E-1   -3.167166516306630E-1
 7.837824760825000E9     5.663080087732495E-1   -1.912335952098565E-2    1.687876530017488E-3    3.738866737100310E-3    1.675274127563619E-3    3.660190699397873E-3    4.357227978268324E-1   -3.187742068824660E-1
 7.837858464300000E9     5.662815231773918E-1   -2.130553199689983E-2    1.686547093534776E-3    3.731211387046423E-3    1.692765956064155E-3    3.662203306602040E-3    4.343519716208041E-1   -3.205103207996184E-1
 7.837892167775000E9     5.661022539611216E-1   -2.372661648609879E-2    1.743915515402117E-3    3.728603877182424E-3    1.711247655586612E-3    3.669177328548464E-3    4.328934869992312E-1   -3.224732207892876E-1
 7.837925871250000E9     5.659917874646150E-1   -2.599617691476614E-2    1.737355521493899E-3    3.725310650301504E-3    1.710985865048449E-3    3.669430751579718E-3    4.316409270618510E-1   -3.244981643934714E-1
 7.837959574725000E9     5.659806552760930E-1   -2.815729739910780E-2    1.742824927578613E-3    3.739530143810499E-3    1.729915720187756E-3    3.648846846265275E-3    4.300944999088003E-1   -3.264008785979968E-1
 7.837993278200000E9     5.657982715144388E-1   -3.035491431257985E-2    1.781651975141065E-3    3.714974922839278E-3    1.773109566843896E-3    3.656525226461062E-3    4.286558278853391E-1   -3.282176820391154E-1
 7.838026981675000E9     5.656606346413674E-1   -3.269857119633013E-2    1.784287363973267E-3    3.743563118345966E-3    1.802911064327102E-3    3.683177886164646E-3    4.272869506152251E-1   -3.300231349101598E-1
 7.838060685150000E9     5.655853975586140E-1   -3.500815725665475E-2    1.816411624564548E-3    3.731607948220183E-3    1.800866916529140E-3    3.685111480449513E-3    4.257700399572638E-1   -3.319955405515069E-1
 7.838094388625000E9     5.654853132712685E-1   -3.717974599047170E-2    1.829212027580722E-3    3.725186577810834E-3    1.841416330370816E-3    3.676261601495281E-3    4.243796995274998E-1   -3.338145196749127E-1
 7.838128092100000E9     5.653251309655071E-1   -3.932425216635479E-2    1.874784165305699E-3    3.707043580367946E-3    1.860025281237183E-3    3.666055814929754E-3    4.229498095355612E-1   -3.356583801073744E-1
 7.838161795575000E9     5.653220242649225E-1   -4.154184861983674E-2    1.864889229828579E-3    3.696185977195790E-3    1.855180115979531E-3    3.649819824924612E-3    4.215596715735776E-1   -3.375342824249347E-1
 7.838195499050000E9     5.650783196606693E-1   -4.379646575328740E-2    1.918707543698493E-3    3.729542679381384E-3    1.885411551459875E-3    3.658179349767047E-3    4.200772981631414E-1   -3.394352294484521E-1
 7.838229202525000E9     5.647955315062438E-1   -4.610354102229650E-2    1.916710365285949E-3    3.727235793681576E-3    1.905717843168634E-3    3.655233024964727E-3    4.185134643414162E-1   -3.413559029001142E-1
 7.838262906000000E9     5.647239387744092E-1   -4.834293584636801E-2    1.921927232035313E-3    3.726001036775260E-3    1.949197756861467E-3    3.673283847974224E-3    4.170155539248048E-1   -3.431750535011576E-1
 7.838296609475000E9     5.644033964030885E-1   -5.048338942693052E-2    1.978857605477512E-3    3.711558582620695E-3    1.960321354125729E-3    3.644954459146807E-3    4.156847167212359E-1   -3.448606454465737E-1
 7.838330312950000E9     5.644179096203349E-1   -5.270516950130329E-2    1.984954936278593E-3    3.722440303375410E-3    2.007543684762455E-3    3.685348664997033E-3    4.140012336718681E-1   -3.466387891397170E-1
 7.838364016425000E9     5.639632536523330E-1   -5.491613731777815E-2    1.992812489647402E-3    3.693280706377922E-3    2.006284410216787E-3    3.660832201138416E-3    4.126097678144614E-1   -3.485614446010972E-1
 7.838397719900000E9     5.638623387068145E-1   -5.717894303389114E-2    2.035618674028674E-3    3.714972253878665E-3    2.026972187961331E-3    3.676575520400289E-3    4.110190107139575E-1   -3.504044460321897E-1
 7.838431423375000E9     5.637427848937374E-1   -5.942673786855653E-2    2.055620255540902E-3    3.690194201855945E-3    2.059059285791227E-3    3.652835524865945E-3    4.095483624133839E-1   -3.521756292885664E-1
 7.838465126850000E9     5.634031527205720E-1   -6.176633238816748E-2    2.073929773754153E-3    3.698818628749150E-3    2.030444634102576E-3    3.626670038292194E-3    4.080128765877984E-1   -3.538626155295438E-1
 7.838498830325000E9     5.631966820193977E-1   -6.395604674437869E-2    2.087900150162910E-3    3.712660196522548E-3    2.074257225405798E-3    3.646536349916131E-3    4.063418638904470E-1   -3.556482294115136E-1
 7.838532533800000E9     5.629952765463250E-1   -6.623294408501859E-2    2.115751532648282E-3    3.689611996783691E-3    2.124698969560374E-3    3.667526531715511E-3    4.048258473304506E-1   -3.575473033257363E-1
 7.838566237275000E9     5.626250924879084E-1   -6.837992151705397E-2    2.141923590752475E-3    3.696477198111444E-3    2.116750665697994E-3    3.649727374407950E-3    4.033896320344295E-1   -3.593635495374877E-1
 7.838599940750000E9     5.622683452965018E-1   -7.074632478992819E-2    2.156076261279329E-3    3.679899484675059E-3    2.168069472333117E-3    3.651106297927076E-3    4.017870633133571E-1   -3.610347496263824E-1
 7.838633644225000E9     5.620900088868448E-1   -7.302609855042541E-2    2.175422375618279E-3    3.704831492414110E-3    2.151102292984779E-3    3.677830620732967E-3    4.001511394523275E-1   -3.627886804444714E-1
 7.838667347700000E9     5.617928181603712E-1   -7.514006292046221E-2    2.189473240205405E-3    3.685456828903364E-3    2.188118820096271E-3    3.658237578614434E-3    3.986799400353748E-1   -3.645125071497690E-1
 7.838701051175000E9     5.615358035385520E-1   -7.743136212817199E-2    2.235343488612972E-3    3.697055735780724E-3    2.200674328494404E-3    3.643193771546455E-3    3.969685844440270E-1   -3.664172538514694E-1
 7.838734754650000E9     5.611059040069850E-1   -7.959318115312433E-2    2.246223813076147E-3    3.701414528681822E-3    2.232367650694551E-3    3.596169165079306E-3    3.952109108310782E-1   -3.680089427542427E-1
 7.838768458125000E9     5.608571069145940E-1   -8.178034016423923E-2    2.301077981901034E-3    3.691621465342171E-3    2.259023643729840E-3    3.655863645398748E-3    3.937235028993352E-1   -3.697683375181101E-1
 7.838802161600000E9     5.606327582884656E-1   -8.405527194535303E-2    2.282112268963863E-3    3.670517881901084E-3    2.304032714821993E-3    3.594546814234457E-3    3.921484918406554E-1   -3.715125579955880E-1
 7.838835865075000E9     5.602387226978118E-1   -8.630303505361572E-2    2.340719929395057E-3    3.687092691697206E-3    2.290637974349859E-3    3.635893887835508E-3    3.906226049198648E-1   -3.731429414385565E-1
 7.838869568550000E9     5.599119611446195E-1   -8.864632653553774E-2    2.355935213050162E-3    3.666658129629382E-3    2.339007340316275E-3    3.650317509605635E-3    3.888750376264899E-1   -3.749744748794798E-1
 7.838903272025000E9     5.594722164355188E-1   -9.074787171979866E-2    2.379495589088719E-3    3.706270478123641E-3    2.318779035681029E-3    3.596707375938936E-3    3.872907299465596E-1   -3.765934407230143E-1
 7.838936975500000E9     5.591933809712045E-1   -9.305976641415553E-2    2.396991827647826E-3    3.671289808254242E-3    2.339716069454796E-3    3.586709679092076E-3    3.857038561013329E-1   -3.783249580231415E-1
 7.838970678975000E9     5.588711551508448E-1   -9.520898062420152E-2    2.388681508661997E-3    3.648065659827311E-3    2.370105259433469E-3    3.644078862436231E-3    3.840334439177738E-1   -3.800948372266453E-1
 7.839004382450000E9     5.584917718753971E-1   -9.749891120239183E-2    2.438197171282076E-3    3.623097638050597E-3    2.385187190882455E-3    3.637355185838525E-3    3.823420384720242E-1   -3.818462011515629E-1
 7.839038085925000E9     5.581379294662079E-1   -9.967557394456733E-2    2.480110882345045E-3    3.687386511873370E-3    2.473932512495888E-3    3.629308655382313E-3    3.806867716626687E-1   -3.834245133343929E-1
 7.839071789400000E9     5.576524848964212E-1   -1.017456671000713E-1    2.496088404965488E-3    3.666723690032488E-3    2.455057395239869E-3    3.626360579652202E-3    3.789309366043713E-1   -3.850422819633997E-1
 7.839105492875000E9     5.570177510978092E-1   -1.042815701441958E-1    2.533526318895522E-3    3.678774936557933E-3    2.474979706195282E-3    3.608091760053886E-3    3.773759848167564E-1   -3.866538792917774E-1
 7.839139196350000E9     5.568754224220442E-1   -1.063898612157050E-1    2.521326784682579E-3    3.655448374553202E-3    2.485873510200371E-3    3.643642141947666E-3    3.756557472711134E-1   -3.884616007589734E-1
 7.839172899825000E9     5.565992766273352E-1   -1.083505044020837E-1    2.598294116766468E-3    3.688887548374076E-3    2.519330024910698E-3    3.606371475265137E-3    3.740297971290511E-1   -3.900758180129090E-1
 7.839206603300000E9     5.559579374912699E-1   -1.107213392435570E-1    2.591833789828854E-3    3.654536056794157E-3    2.575929366018227E-3    3.622277852909202E-3    3.723492989848107E-1   -3.917136153534451E-1
 7.839240306775000E9     5.554405908545944E-1   -1.129527815012069E-1    2.596443657246934E-3    3.648066429844250E-3    2.580608251528060E-3    3.634675377071114E-3    3.705163977770192E-1   -3.934717626405634E-1
 7.839274010250000E9     5.550497444818627E-1   -1.152126772854131E-1    2.623833114347472E-3    3.652162957458873E-3    2.590216606605016E-3    3.617585497522989E-3    3.688413205785911E-1   -3.949250975857304E-1
 7.839307713725000E9     5.546993298420215E-1   -1.174076750490553E-1    2.659675057692071E-3    3.646835139735962E-3    2.641935823274556E-3    3.607978135417532E-3    3.671828307035249E-1   -3.966338895762204E-1
 7.839341417200000E9     5.541626222171017E-1   -1.196997151016317E-1    2.680711983278175E-3    3.646876366416417E-3    2.669037454330654E-3    3.615995665838379E-3    3.653835888463370E-1   -3.982585484048455E-1
 7.839375120675000E9     5.535260277742736E-1   -1.218349738336929E-1    2.699192057491737E-3    3.653711791770453E-3    2.695211690156039E-3    3.594126046608198E-3    3.635876493539317E-1   -3.998366500916966E-1
 7.839408824150000E9     5.532050999019439E-1   -1.239707348887560E-1    2.755900762497589E-3    3.660233463911763E-3    2.723730018966686E-3    3.602841254832784E-3    3.619838303425523E-1   -4.014054449485195E-1
 7.839442527625000E9     5.527013352997451E-1   -1.262383693889473E-1    2.773839226212144E-3    3.649450954989604E-3    2.743742331228125E-3    3.594006488595420E-3    3.601503054208203E-1   -4.029507949068873E-1
 7.839476231100000E9     5.522146571271471E-1   -1.284776003018080E-1    2.799240017689862E-3    3.664354917456246E-3    2.756584994277939E-3    3.595886875441096E-3    3.583357546575247E-1   -4.045698394868967E-1
 7.839509934575000E9     5.517287554765165E-1   -1.307621909899239E-1    2.826406416697022E-3    3.628828792667549E-3    2.784259000889128E-3    3.603285447877845E-3    3.567337198943403E-1   -4.061598660285772E-1
 7.839543638050000E9     5.511178014293159E-1   -1.328164899830112E-1    2.827247132669645E-3    3.636875075480524E-3    2.779709055268453E-3    3.637373601354115E-3    3.547913795633242E-1   -4.077535320605832E-1
 7.839577341525000E9     5.505285069325152E-1   -1.351192140976722E-1    2.867027225114591E-3    3.631289049945140E-3    2.837269773041654E-3    3.604501792574689E-3    3.531654235966091E-1   -4.092465723359962E-1
 7.839611045000000E9     5.499711927461457E-1   -1.372564840847222E-1    2.885688880566500E-3    3.612358570075018E-3    2.823872374596696E-3    3.593312225950962E-3    3.511425250457309E-1   -4.108351661696322E-1
 7.839644748475000E9     5.495025770744536E-1   -1.394874411980299E-1    2.924997924876200E-3    3.629306181902516E-3    2.888523207881612E-3    3.566004251177758E-3    3.494903443685659E-1   -4.123055328030564E-1
 7.839678451950000E9     5.488076495080666E-1   -1.415897846733415E-1    2.958800912671148E-3    3.593411071853166E-3    2.919293200455011E-3    3.574343015918016E-3    3.475880710299167E-1   -4.138295531595000E-1
 7.839712155425000E9     5.483164823076365E-1   -1.436411920668738E-1    2.986082062405881E-3    3.635157147677998E-3    2.938008874141938E-3    3.566169892455867E-3    3.457432553131581E-1   -4.153150609667619E-1
 7.839745858900000E9     5.478719822294356E-1   -1.461099076204136E-1    2.988253377526110E-3    3.626279295017629E-3    2.980316036698410E-3    3.581004784822328E-3    3.440069562969588E-1   -4.169197761233754E-1
 7.839779562375000E9     5.471436659805053E-1   -1.482585784111773E-1    3.050533041585152E-3    3.632592894055570E-3    2.982528863312449E-3    3.584458515370410E-3    3.421603906437036E-1   -4.183814583190614E-1
 7.839813265850000E9     5.465047708860014E-1   -1.504599403417717E-1    3.042840517668756E-3    3.602343394562777E-3    3.013561776672298E-3    3.602761018695786E-3    3.403894587639409E-1   -4.198419580821768E-1
 7.839846969325000E9     5.460674286457913E-1   -1.526385439549449E-1    3.099009865241533E-3    3.624020110786689E-3    3.051320543290221E-3    3.595887825281149E-3    3.385365416836865E-1   -4.213234535448721E-1
 7.839880672800000E9     5.453794156347348E-1   -1.547222265593223E-1    3.122705573160640E-3    3.621186464351386E-3    3.093562467796613E-3    3.571774429946202E-3    3.366569165723831E-1   -4.229480213661435E-1
 7.839914376275000E9     5.446004501688599E-1   -1.569909262068376E-1    3.164922960560188E-3    3.597193936309340E-3    3.077137617096134E-3    3.566401340078483E-3    3.349162484379236E-1   -4.244175626270384E-1
 7.839948079750000E9     5.440187170356978E-1   -1.590448730906537E-1    3.189895684421740E-3    3.588484970040589E-3    3.161415350317613E-3    3.572507775669265E-3    3.329313805030714E-1   -4.259227596775698E-1
