#  HZ   S   RI   R     50.00 
! Rohde & Schwarz Vector Network Analyzer 
! Rohde-Schwarz,ZNB20-2Port,1311601062101988,3.16
! Created: UTC 12/23/2023, 3:47:34 AM
! freq[Hz]                re:S11                  im:S11                  re:S21                  im:S21                  re:S12                  im:S12                  re:S22                  im:S22
 7.836980378000000E9     5.648700465874985E-1    3.684454662543384E-2    1.192668972689474E-3    3.784664084296296E-3    1.204542747866976E-3    3.683252894332173E-3    4.678281745983273E-1   -2.689384833640301E-1
 7.837013732625000E9     5.651304264286983E-1    3.479796281066613E-2    1.209919267382420E-3    3.780140745956589E-3    1.225853505736864E-3    3.703274171078766E-3    4.664671402301934E-1   -2.709717195287016E-1
 7.837047087250000E9     5.652297274801941E-1    3.236810042940558E-2    1.248656776458310E-3    3.775061841418378E-3    1.269783924054471E-3    3.677345493534127E-3    4.654628965442771E-1   -2.729838225147107E-1
 7.837080441875000E9     5.653897300973304E-1    3.039786194583674E-2    1.269741185378978E-3    3.735552279134186E-3    1.276825192381113E-3    3.730089199507122E-3    4.642754880043455E-1   -2.749477131785249E-1
 7.837113796500000E9     5.655475139439522E-1    2.799274653146575E-2    1.271931143383638E-3    3.738302418738452E-3    1.255252853147521E-3    3.686525542321878E-3    4.631414447051983E-1   -2.770061299049113E-1
 7.837147151125000E9     5.657086992039447E-1    2.587590843756342E-2    1.291754715440223E-3    3.759077533865423E-3    1.327028000207808E-3    3.687304347914337E-3    4.619835234734384E-1   -2.790635098229868E-1
 7.837180505750000E9     5.657793201256318E-1    2.374909061493967E-2    1.300159295139370E-3    3.764703464833586E-3    1.345651780295909E-3    3.701831820815890E-3    4.606249051726859E-1   -2.809720768593481E-1
 7.837213860375000E9     5.659552601786811E-1    2.139611941218016E-2    1.329276481588380E-3    3.767321545284288E-3    1.312174545390125E-3    3.679025557551912E-3    4.594275886849707E-1   -2.829973944519832E-1
 7.837247215000000E9     5.660411292228084E-1    1.927648410716433E-2    1.329099960965420E-3    3.747796933956960E-3    1.365298612786832E-3    3.677541111166303E-3    4.581352162038818E-1   -2.850105398447923E-1
 7.837280569625000E9     5.660279965156280E-1    1.706220348916747E-2    1.373250869996775E-3    3.760751519252059E-3    1.381829146131811E-3    3.691539333142883E-3    4.569604647857312E-1   -2.869124927947813E-1
 7.837313924250000E9     5.661937674948051E-1    1.484327265933566E-2    1.377689480816932E-3    3.757452014454773E-3    1.414029970201260E-3    3.692666972596926E-3    4.557577634426643E-1   -2.889722749940103E-1
 7.837347278875000E9     5.662306933098246E-1    1.264351439237531E-2    1.406866883327584E-3    3.754423756803992E-3    1.418200518690570E-3    3.729635573618543E-3    4.546164066197474E-1   -2.909966257449423E-1
 7.837380633500000E9     5.662548182970860E-1    1.048396546424174E-2    1.434550541027932E-3    3.731544452899362E-3    1.437353753217796E-3    3.689091239999899E-3    4.533398019450473E-1   -2.929099157894357E-1
 7.837413988125000E9     5.664195490697629E-1    8.231517929620961E-3    1.464627921552442E-3    3.743600346133478E-3    1.456132231778742E-3    3.720274934129284E-3    4.520996320065560E-1   -2.950445752265022E-1
 7.837447342750000E9     5.663917451741770E-1    5.940750536749546E-3    1.460366513924148E-3    3.729054912864120E-3    1.459237480886842E-3    3.676708836294745E-3    4.508072882684818E-1   -2.968593641940520E-1
 7.837480697375000E9     5.666299269423832E-1    3.648147886503032E-3    1.481690212887314E-3    3.761148119280583E-3    1.495729676112074E-3    3.679779170410796E-3    4.494731238847717E-1   -2.988986643879823E-1
 7.837514052000000E9     5.664638688524819E-1    1.488786166021279E-3    1.501196686535998E-3    3.752660567246416E-3    1.520854674748962E-3    3.693097917794149E-3    4.481302845524346E-1   -3.009180640879434E-1
 7.837547406625000E9     5.665382415765149E-1   -6.717697378426030E-4    1.528424797209020E-3    3.745484611752828E-3    1.533947843467408E-3    3.672002173720303E-3    4.468274144097901E-1   -3.026840926403399E-1
 7.837580761250000E9     5.664994695457397E-1   -3.017858008757300E-3    1.535377827494825E-3    3.770956188457804E-3    1.548847237225842E-3    3.665737597609344E-3    4.455784407689862E-1   -3.047767613620189E-1
 7.837614115875000E9     5.664178076016361E-1   -5.164018987544500E-3    1.538698703368114E-3    3.738688028470123E-3    1.550513302363195E-3    3.658974737149745E-3    4.443625140448785E-1   -3.067551292467444E-1
 7.837647470500000E9     5.665213541667723E-1   -7.386523672500299E-3    1.579889701204488E-3    3.734085317083563E-3    1.604622433538983E-3    3.657262557864549E-3    4.430594086297898E-1   -3.084795727084246E-1
 7.837680825125000E9     5.663150182361171E-1   -9.675425712727979E-3    1.575983281452569E-3    3.761028038589520E-3    1.592604178509150E-3    3.683234051882843E-3    4.416965912458675E-1   -3.104335426544677E-1
 7.837714179750000E9     5.664331545022186E-1   -1.173777347615397E-2    1.640808965708945E-3    3.735760080693303E-3    1.632613614961260E-3    3.682669957246909E-3    4.403116806440168E-1   -3.123030455799263E-1
 7.837747534375000E9     5.663748167070799E-1   -1.405219517138796E-2    1.629220919153301E-3    3.737854099867992E-3    1.620546802779994E-3    3.716941661465590E-3    4.390159188393342E-1   -3.142109064452476E-1
 7.837780889000000E9     5.664356128167213E-1   -1.614237022816397E-2    1.650090369768670E-3    3.735887241114937E-3    1.644617722270096E-3    3.664102323969972E-3    4.375559824556550E-1   -3.161913220847842E-1
 7.837814243625000E9     5.663574959510173E-1   -1.835686803229443E-2    1.679412440120448E-3    3.756178289659812E-3    1.666407556757519E-3    3.670228406671667E-3    4.361449409307458E-1   -3.181202128852669E-1
 7.837847598250000E9     5.662008657660206E-1   -2.070222897190502E-2    1.689881080036079E-3    3.718576731567266E-3    1.694323187497899E-3    3.692143154366457E-3    4.348222232055678E-1   -3.198421440403564E-1
 7.837880952875000E9     5.661745896924028E-1   -2.297102549570331E-2    1.723285877092712E-3    3.741632390997458E-3    1.706609678006163E-3    3.671441629100597E-3    4.335724775908384E-1   -3.219141439033025E-1
 7.837914307500000E9     5.660850425763289E-1   -2.510344523915046E-2    1.737830157054849E-3    3.718067796578141E-3    1.737825529273173E-3    3.690772965685921E-3    4.320196255277123E-1   -3.236729960584309E-1
 7.837947662125000E9     5.659117608127011E-1   -2.730054640972323E-2    1.746191348455959E-3    3.732481268042799E-3    1.740786887917405E-3    3.659763774132158E-3    4.306590055930684E-1   -3.255524836227944E-1
 7.837981016750000E9     5.658533329462332E-1   -2.957918010352111E-2    1.787497569602556E-3    3.756623048485950E-3    1.744795358112362E-3    3.646977035802253E-3    4.290768760271222E-1   -3.274427146519626E-1
 7.838014371375000E9     5.657445989041110E-1   -3.176831511097226E-2    1.822932524455093E-3    3.712992679383700E-3    1.768850172023985E-3    3.657127289489787E-3    4.279009951803952E-1   -3.292890258270501E-1
 7.838047726000000E9     5.657331241493258E-1   -3.412852298655990E-2    1.835642646485597E-3    3.722487496711587E-3    1.799825209316984E-3    3.649516097041037E-3    4.264687772309693E-1   -3.311560278419108E-1
 7.838081080625000E9     5.655059623190100E-1   -3.618429181978557E-2    1.831641271195053E-3    3.706140230396718E-3    1.795315463283814E-3    3.647529092288887E-3    4.250580218187033E-1   -3.331624108418119E-1
 7.838114435250000E9     5.652081454808723E-1   -3.847968748566288E-2    1.843121207453310E-3    3.710003874369968E-3    1.848144678659688E-3    3.670275904784526E-3    4.234817720132332E-1   -3.348937100929706E-1
 7.838147789875000E9     5.652828933966164E-1   -4.063043658667069E-2    1.882283608024136E-3    3.728641608143215E-3    1.906104168245302E-3    3.645875348946873E-3    4.221714576333263E-1   -3.367467739643349E-1
 7.838181144500000E9     5.650777115696123E-1   -4.284033200458656E-2    1.908805681429475E-3    3.705775180845882E-3    1.867583654294173E-3    3.702635792934975E-3    4.206995728606809E-1   -3.385898086949361E-1
 7.838214499125000E9     5.648124502574609E-1   -4.501919542832907E-2    1.910654346511682E-3    3.726180758892594E-3    1.937896598860890E-3    3.655931220368480E-3    4.190665565812585E-1   -3.403260766756240E-1
 7.838247853750000E9     5.645873517095938E-1   -4.728159741801024E-2    1.947886391873772E-3    3.712705760111791E-3    1.888771640708263E-3    3.678576423434864E-3    4.176551509937695E-1   -3.421502276495396E-1
 7.838281208375000E9     5.645683613888060E-1   -4.964272123491775E-2    1.969744888425653E-3    3.730190761496028E-3    1.962021554756715E-3    3.645412850893250E-3    4.163773032766021E-1   -3.441258155816002E-1
 7.838314563000000E9     5.644971982793132E-1   -5.179426670748587E-2    1.970063592496477E-3    3.711289312824937E-3    1.953867748707930E-3    3.676020284919319E-3    4.148054524361524E-1   -3.458354150816743E-1
 7.838347917625000E9     5.641086740893824E-1   -5.400391182823529E-2    2.021565435426968E-3    3.692807595451271E-3    1.982506783068780E-3    3.694417722077188E-3    4.133647582295582E-1   -3.476048710999050E-1
 7.838381272250000E9     5.639227333690772E-1   -5.624221993237983E-2    2.020821699417451E-3    3.735807879096799E-3    1.993030178525246E-3    3.662010663897356E-3    4.118785385968139E-1   -3.493440187869898E-1
 7.838414626875000E9     5.637706883400605E-1   -5.849735456047023E-2    2.018135139447160E-3    3.723208122293211E-3    2.063606816972264E-3    3.670640340400356E-3    4.102979184270715E-1   -3.512406489416518E-1
 7.838447981500000E9     5.635308608389005E-1   -6.067411841935623E-2    2.076672678969596E-3    3.691840392144187E-3    2.061668858783955E-3    3.653656420936677E-3    4.088166248542445E-1   -3.530401435405499E-1
 7.838481336125000E9     5.632803994454810E-1   -6.277261541404870E-2    2.086315983267719E-3    3.700770604182471E-3    2.085874024491402E-3    3.643766365799789E-3    4.072556914961170E-1   -3.546496879100904E-1
 7.838514690750000E9     5.630528438882164E-1   -6.505645726538346E-2    2.100338535587011E-3    3.672112432076797E-3    2.107515212265541E-3    3.646826580668797E-3    4.056458346329436E-1   -3.565852624658812E-1
 7.838548045375000E9     5.627617430487396E-1   -6.729285482345423E-2    2.133250905473969E-3    3.707067641092688E-3    2.154306505373137E-3    3.640966929572961E-3    4.041251820136578E-1   -3.581520011994995E-1
 7.838581400000000E9     5.625422050187320E-1   -6.942289233532237E-2    2.149825506840271E-3    3.722799240932323E-3    2.158353541856709E-3    3.625929093425155E-3    4.027033362387814E-1   -3.600415998912875E-1
 7.838614754625000E9     5.623108515298778E-1   -7.170921354600970E-2    2.155977149514379E-3    3.705386831659007E-3    2.164833341513413E-3    3.647491801981568E-3    4.010051703165862E-1   -3.618123666992981E-1
 7.838648109250000E9     5.620830950832283E-1   -7.385397763200988E-2    2.193699382399786E-3    3.708242460980990E-3    2.151240830703994E-3    3.627065938164988E-3    3.994459060941893E-1   -3.635755124863587E-1
 7.838681463875000E9     5.616983011423105E-1   -7.609316859810206E-2    2.235274400450388E-3    3.698975042387925E-3    2.184186300680248E-3    3.674987009984856E-3    3.979503674783809E-1   -3.652549873575376E-1
 7.838714818500000E9     5.613888737243056E-1   -7.822174379588991E-2    2.218987714608922E-3    3.677409711131505E-3    2.206872600308202E-3    3.620425330235171E-3    3.963433262749652E-1   -3.669451075606934E-1
 7.838748173125000E9     5.609237935328262E-1   -8.055926142468382E-2    2.269671508676297E-3    3.682793459818348E-3    2.250240692818603E-3    3.617995238838058E-3    3.949338625893989E-1   -3.688962052996871E-1
 7.838781527750000E9     5.607756279107147E-1   -8.281094681432247E-2    2.296292459503401E-3    3.722268026836010E-3    2.228719618329639E-3    3.623716192961399E-3    3.931009116719071E-1   -3.703641356540712E-1
 7.838814882375000E9     5.604517752279060E-1   -8.497550002192741E-2    2.306789210326457E-3    3.666850166739475E-3    2.288472604091721E-3    3.654247318748733E-3    3.915793514940193E-1   -3.722133121073866E-1
 7.838848237000000E9     5.601376642777115E-1   -8.716120824601679E-2    2.321730783958450E-3    3.677804857619197E-3    2.312905073311289E-3    3.662519005306041E-3    3.898808812098807E-1   -3.738587974927540E-1
 7.838881591625000E9     5.599012628893696E-1   -8.925286982457305E-2    2.353692885315399E-3    3.681168808805325E-3    2.330701154037107E-3    3.607721332930576E-3    3.884047819102531E-1   -3.757207002637711E-1
 7.838914946250000E9     5.595000921522585E-1   -9.142105106528782E-2    2.385449602420524E-3    3.667136835839112E-3    2.364672075491187E-3    3.629259675677200E-3    3.867537233972361E-1   -3.771874449045377E-1
 7.838948300875000E9     5.590770266328503E-1   -9.370091466939247E-2    2.422933084937604E-3    3.701830245729508E-3    2.351926878647586E-3    3.609849995028786E-3    3.851457065647841E-1   -3.789780082605962E-1
 7.838981655500000E9     5.587788083176493E-1   -9.595374344732273E-2    2.414390453116508E-3    3.676361797578883E-3    2.371006369697561E-3    3.629202152008248E-3    3.834577652061064E-1   -3.805830095359789E-1
 7.839015010125000E9     5.583102438684778E-1   -9.811609062484269E-2    2.461900504227669E-3    3.666707848199749E-3    2.445263177755866E-3    3.598021638766831E-3    3.818553526907431E-1   -3.822077704565020E-1
 7.839048364750000E9     5.580223522355150E-1   -1.002465209689277E-1    2.474995364860843E-3    3.679415615726822E-3    2.440535503620978E-3    3.601427853251689E-3    3.802001468544015E-1   -3.838429738914041E-1
 7.839081719375000E9     5.574925802344004E-1   -1.025506721294654E-1    2.499966313161078E-3    3.672327159384161E-3    2.485913535628779E-3    3.604796810702211E-3    3.785509393393800E-1   -3.856319762934535E-1
 7.839115074000000E9     5.571279239947922E-1   -1.046782547874374E-1    2.518731012884312E-3    3.683859632239609E-3    2.498849552297995E-3    3.617541538899570E-3    3.768322388508218E-1   -3.871669640611745E-1
 7.839148428625000E9     5.566999580535565E-1   -1.069598017782620E-1    2.521247870764359E-3    3.683095221146732E-3    2.538304610690741E-3    3.605756328577681E-3    3.751512330935953E-1   -3.888466331448477E-1
 7.839181783250000E9     5.562040950716229E-1   -1.091034777983781E-1    2.566747053854844E-3    3.671832428446493E-3    2.545277946181956E-3    3.626020114955341E-3    3.734744179490342E-1   -3.905254151193389E-1
 7.839215137875000E9     5.558865161266779E-1   -1.112185940941895E-1    2.600704900175175E-3    3.651378718045482E-3    2.559887009874474E-3    3.600548718504339E-3    3.718233016858497E-1   -3.920911714096818E-1
 7.839248492500000E9     5.555596469668960E-1   -1.136298924191178E-1    2.625588427266067E-3    3.631394346848834E-3    2.582861665460532E-3    3.580427161757659E-3    3.701495857834249E-1   -3.935600202006097E-1
 7.839281847125000E9     5.548617619467159E-1   -1.157233987823639E-1    2.653231585928575E-3    3.647633467947088E-3    2.612270293803655E-3    3.611636597030341E-3    3.683568192330660E-1   -3.952912979502496E-1
 7.839315201750000E9     5.545122892826687E-1   -1.180857394177869E-1    2.679361602788283E-3    3.644528864703152E-3    2.645975970396942E-3    3.610210866501594E-3    3.667523935528726E-1   -3.968902927310384E-1
 7.839348556375000E9     5.540624994692178E-1   -1.199244513323819E-1    2.688812681611738E-3    3.645871880507565E-3    2.667406559956737E-3    3.599232529116722E-3    3.650298921980935E-1   -3.984847732283073E-1
 7.839381911000000E9     5.535336161140588E-1   -1.222906829436533E-1    2.732715910224779E-3    3.639738335945983E-3    2.683764505223042E-3    3.613212043864487E-3    3.632098974472813E-1   -4.002324854395866E-1
 7.839415265625000E9     5.530612826362540E-1   -1.244835612441904E-1    2.762805562563920E-3    3.641042094528634E-3    2.706194884159731E-3    3.603184559865698E-3    3.614924674975131E-1   -4.017020730889690E-1
 7.839448620250000E9     5.525833654578007E-1   -1.266466025832964E-1    2.774502571387237E-3    3.644156020426406E-3    2.734375834380750E-3    3.593414847019138E-3    3.596727639364800E-1   -4.031944762990237E-1
 7.839481974875000E9     5.520728706043133E-1   -1.288689739868048E-1    2.813977729533010E-3    3.630685927409006E-3    2.769249167848986E-3    3.617571561554538E-3    3.581329940799533E-1   -4.048670285943422E-1
 7.839515329500000E9     5.515297623362334E-1   -1.309936149891461E-1    2.825594783832789E-3    3.621120087715278E-3    2.772973131478908E-3    3.613144465810977E-3    3.563946473301060E-1   -4.065006839752656E-1
 7.839548684125000E9     5.509817988293143E-1   -1.330635276094338E-1    2.864908437912059E-3    3.599180470026445E-3    2.784129542917062E-3    3.593492317462445E-3    3.545267674777109E-1   -4.079603460769068E-1
 7.839582038750000E9     5.505842063914004E-1   -1.353851002362217E-1    2.868336718196180E-3    3.626833780884443E-3    2.832747872836119E-3    3.573967383080585E-3    3.527594621497048E-1   -4.094587360535890E-1
 7.839615393375000E9     5.499572081465649E-1   -1.375665365145497E-1    2.884030929569688E-3    3.637258790004756E-3    2.868236217093422E-3    3.592381302517491E-3    3.510550085505513E-1   -4.112057529194325E-1
 7.839648748000000E9     5.492891846415444E-1   -1.397311303116427E-1    2.924243366613565E-3    3.623217886725812E-3    2.872952507342306E-3    3.581156929345946E-3    3.492396672535099E-1   -4.125735902550677E-1
 7.839682102625000E9     5.488395059883678E-1   -1.418818418204885E-1    2.937210916429493E-3    3.628242270045613E-3    2.922319676566994E-3    3.626169823448560E-3    3.475298671518350E-1   -4.140548092972688E-1
 7.839715457250000E9     5.482829735333141E-1   -1.441260186631229E-1    2.975225496681002E-3    3.623397224256603E-3    2.948817806534801E-3    3.581801007025898E-3    3.457816479322170E-1   -4.155858846885079E-1
 7.839748811875000E9     5.476615041514357E-1   -1.462051549679781E-1    3.020382623385725E-3    3.616146660405474E-3    2.940472032194171E-3    3.593624104076027E-3    3.438703267258083E-1   -4.170464396475006E-1
 7.839782166500000E9     5.470809395154822E-1   -1.483384820787913E-1    3.036876622419774E-3    3.593413939153016E-3    3.000357219931366E-3    3.581120523034392E-3    3.419794979153316E-1   -4.184699111127805E-1
 7.839815521125000E9     5.464433719880453E-1   -1.505240990713333E-1    3.089487656920375E-3    3.627955251545517E-3    3.034223381643703E-3    3.599143833007194E-3    3.402833582319352E-1   -4.200425158092167E-1
 7.839848875750000E9     5.458874103099731E-1   -1.526566801910700E-1    3.088630384527398E-3    3.597936321717465E-3    3.054050956323785E-3    3.586836648409054E-3    3.384963589945105E-1   -4.214658386906577E-1
 7.839882230375000E9     5.452301085494793E-1   -1.549955758951145E-1    3.139494992751006E-3    3.576612710054469E-3    3.080718817940736E-3    3.585674158492126E-3    3.365817194472836E-1   -4.230288410078414E-1
 7.839915585000000E9     5.446383253243110E-1   -1.570500724063858E-1    3.182052784552474E-3    3.599808125799484E-3    3.101437208531591E-3    3.589090615088889E-3    3.347926052052494E-1   -4.244680869195281E-1
 7.839948939625000E9     5.439849511797510E-1   -1.591767531272008E-1    3.187088704282596E-3    3.593130484738948E-3    3.120850184925790E-3    3.560533212362986E-3    3.328955838004127E-1   -4.258177933829215E-1
 7.839982294250000E9     5.432575477765885E-1   -1.614277181229520E-1    3.234958081669832E-3    3.588720528260459E-3    3.170118173736765E-3    3.574038368270646E-3    3.310489143603580E-1   -4.272525142593395E-1
