#  HZ   S   RI   R     50.00 
! Rohde & Schwarz Vector Network Analyzer 
! Rohde-Schwarz,ZNB20-2Port,1311601062101988,3.16
! Created: UTC 12/23/2023, 3:50:11 AM
! freq[Hz]                re:S11                  im:S11                  re:S21                  im:S21                  re:S12                  im:S12                  re:S22                  im:S22
 7.836682221000000E9     5.631850899003061E-1    5.677790641102858E-2    1.035468673727442E-3    3.801236264341966E-3    1.076415033725022E-3    3.721277373006828E-3    4.776734485032020E-1   -2.506754165398913E-1
 7.836716680825000E9     5.634262742134230E-1    5.443855867341934E-2    1.053134336146266E-3    3.783364664558902E-3    1.060022762569711E-3    3.711768241527990E-3    4.765041917308622E-1   -2.528645225076601E-1
 7.836751140650000E9     5.637014345589803E-1    5.205907466396861E-2    1.058257617670798E-3    3.776403342627497E-3    1.101138675713993E-3    3.706706959533807E-3    4.753951132638251E-1   -2.548327281476103E-1
 7.836785600475000E9     5.638129003260880E-1    4.991321568345096E-2    1.112912922771308E-3    3.767064867388679E-3    1.106080910002966E-3    3.696090554798968E-3    4.743197254690085E-1   -2.570857650745352E-1
 7.836820060300000E9     5.640381445540930E-1    4.765459528173627E-2    1.128313364976179E-3    3.781672336381266E-3    1.159174543194138E-3    3.736524586769217E-3    4.730958701667401E-1   -2.590637323118735E-1
 7.836854520125000E9     5.643656107187380E-1    4.533093907802317E-2    1.090537238213283E-3    3.750931399568373E-3    1.161621390631801E-3    3.738065624491481E-3    4.719888060654986E-1   -2.614080992742938E-1
 7.836888979950000E9     5.645644008381627E-1    4.305739669089421E-2    1.142597538067981E-3    3.777404828576513E-3    1.181003790644918E-3    3.663466067333919E-3    4.708182944005312E-1   -2.633593678180453E-1
 7.836923439775000E9     5.647692058724740E-1    4.081525841763026E-2    1.188318467206396E-3    3.786622705855486E-3    1.169539378265107E-3    3.720574066027303E-3    4.696747784572081E-1   -2.654544750379798E-1
 7.836957899600000E9     5.649664516000852E-1    3.873731759856834E-2    1.179708079586889E-3    3.762894951004837E-3    1.196557377037446E-3    3.693851477032180E-3    4.683937895314650E-1   -2.675922598387400E-1
 7.836992359425000E9     5.650000066851697E-1    3.606995407099824E-2    1.194658974154984E-3    3.766135484936001E-3    1.217658686055112E-3    3.705252373876043E-3    4.672789141588363E-1   -2.698438145169782E-1
 7.837026819250000E9     5.652859915039039E-1    3.387391856100622E-2    1.205232445228632E-3    3.785233285539003E-3    1.273896028491022E-3    3.721905601242520E-3    4.660884772011241E-1   -2.719032984081065E-1
 7.837061279075000E9     5.653051280043593E-1    3.163539881262281E-2    1.230935746461894E-3    3.773625958613715E-3    1.285414986226790E-3    3.707263067118837E-3    4.649100055935845E-1   -2.740237887098149E-1
 7.837095738900000E9     5.655502466518820E-1    2.943264941196599E-2    1.270715262180855E-3    3.763654877059861E-3    1.283708278721784E-3    3.687966982413125E-3    4.635673299460285E-1   -2.760221295065368E-1
 7.837130198725000E9     5.656912276174723E-1    2.703843511647143E-2    1.285226730091611E-3    3.759998482305802E-3    1.311506961088410E-3    3.720549444329487E-3    4.624025792119163E-1   -2.780636038081914E-1
 7.837164658550000E9     5.657631975459996E-1    2.480638641195378E-2    1.322510405469938E-3    3.770776528976093E-3    1.339847558369903E-3    3.708673291581094E-3    4.611278232399711E-1   -2.801853476252048E-1
 7.837199118375000E9     5.657381190944156E-1    2.267082468544564E-2    1.317874229693702E-3    3.778013593805580E-3    1.352854825063908E-3    3.703471360507898E-3    4.599404819724159E-1   -2.822020557686953E-1
 7.837233578200000E9     5.659681867435460E-1    2.043880698592154E-2    1.351876999178677E-3    3.773928171907674E-3    1.360097235718161E-3    3.724746077930692E-3    4.586281349005156E-1   -2.843409882381818E-1
 7.837268038025000E9     5.660730988921437E-1    1.794501968058701E-2    1.343799052665420E-3    3.769601084476176E-3    1.384173437251405E-3    3.709878573921640E-3    4.574272996549836E-1   -2.863108481596205E-1
 7.837302497850000E9     5.661898352675042E-1    1.565093711618462E-2    1.383450760720883E-3    3.777536190722777E-3    1.420417739309550E-3    3.715402374641151E-3    4.559852995394126E-1   -2.883596520086030E-1
 7.837336957675000E9     5.662515101135392E-1    1.341761999771975E-2    1.385300015143247E-3    3.752352195186058E-3    1.438979448717431E-3    3.684677867465317E-3    4.546511191995491E-1   -2.904091239175948E-1
 7.837371417500000E9     5.662520773807247E-1    1.106813819086862E-2    1.423496291867551E-3    3.770585760429000E-3    1.433458744119266E-3    3.719426419116422E-3    4.535714506913586E-1   -2.925153906384751E-1
 7.837405877325000E9     5.664138692024263E-1    8.716556194785235E-3    1.430155675656548E-3    3.810489491889556E-3    1.478903392171979E-3    3.687378004971890E-3    4.521539094448776E-1   -2.945663975977877E-1
 7.837440337150000E9     5.663754452925129E-1    6.455726404333719E-3    1.465082195594307E-3    3.751535316068802E-3    1.462054070454905E-3    3.687491975950680E-3    4.507870626653235E-1   -2.966614916246755E-1
 7.837474796975000E9     5.665270366073852E-1    4.239334845326772E-3    1.475554135521284E-3    3.790441639467612E-3    1.484436506118369E-3    3.702977615031559E-3    4.495095980364954E-1   -2.986805575093632E-1
 7.837509256800000E9     5.664800885153474E-1    1.832571894612021E-3    1.526783008435845E-3    3.787110363266416E-3    1.497257645119826E-3    3.696709255240114E-3    4.482424945884329E-1   -3.005358952834022E-1
 7.837543716625000E9     5.664783840893886E-1   -3.684896812316589E-4    1.513798316651797E-3    3.751020353814066E-3    1.510834862824211E-3    3.700569342270459E-3    4.469629834369550E-1   -3.025210282034844E-1
 7.837578176450000E9     5.665152236850146E-1   -2.653345041700341E-3    1.564221319265392E-3    3.766663267786102E-3    1.580178779577387E-3    3.693285372624724E-3    4.454500475059682E-1   -3.046433146177729E-1
 7.837612636275000E9     5.664983018421962E-1   -4.887197599769700E-3    1.563441449026831E-3    3.750695746978925E-3    1.554847669289549E-3    3.724331119717667E-3    4.442088579625797E-1   -3.065668809165192E-1
 7.837647096100000E9     5.664985115111369E-1   -7.209135877959010E-3    1.583585228671679E-3    3.777092979492487E-3    1.605847671350808E-3    3.699891165984462E-3    4.429015505207726E-1   -3.085328149155806E-1
 7.837681555925000E9     5.664204757226562E-1   -9.602588858170143E-3    1.631349515627500E-3    3.769241545215094E-3    1.609097058141815E-3    3.684253177100535E-3    4.414920018446256E-1   -3.105938502078083E-1
 7.837716015750000E9     5.664122750784231E-1   -1.179474475699568E-2    1.632944521986380E-3    3.763400989086512E-3    1.634411717666920E-3    3.698438651355866E-3    4.401119869385924E-1   -3.125132025374395E-1
 7.837750475575000E9     5.663189049753935E-1   -1.413553710353318E-2    1.645506076240453E-3    3.768195499321057E-3    1.624903931593837E-3    3.698889471577480E-3    4.386590642258558E-1   -3.144642563273746E-1
 7.837784935400000E9     5.663230683544664E-1   -1.646304472101526E-2    1.665327158467424E-3    3.744390068169118E-3    1.665273624183898E-3    3.678648443750643E-3    4.372667859787771E-1   -3.165407906315830E-1
 7.837819395225000E9     5.662395281816081E-1   -1.877000043601729E-2    1.696906652847771E-3    3.755945369018045E-3    1.682021357762232E-3    3.685278562537831E-3    4.359011320400393E-1   -3.184067672020285E-1
 7.837853855050000E9     5.662316848584087E-1   -2.111653982430207E-2    1.723297065650569E-3    3.726953152868983E-3    1.708600057817510E-3    3.696758681982715E-3    4.343352970095742E-1   -3.203849908903005E-1
 7.837888314875000E9     5.662108706091618E-1   -2.329838119290536E-2    1.730423450834680E-3    3.738017264971975E-3    1.707839608908974E-3    3.673312647469551E-3    4.330306561277598E-1   -3.224979084780503E-1
 7.837922774700000E9     5.660413445741685E-1   -2.559451621247035E-2    1.761436623402513E-3    3.748217380168222E-3    1.731244175346653E-3    3.703951336795970E-3    4.316695034236268E-1   -3.242715759616570E-1
 7.837957234525000E9     5.659637148659082E-1   -2.782981875357096E-2    1.790884639705445E-3    3.759873656279672E-3    1.779264914011330E-3    3.660242941651758E-3    4.301217028309223E-1   -3.261066567851321E-1
 7.837991694350000E9     5.659084593868848E-1   -3.020085440539547E-2    1.802102612621438E-3    3.746397782555846E-3    1.785176963444954E-3    3.692073847583149E-3    4.287748789289407E-1   -3.282379508878536E-1
 7.838026154175000E9     5.657356135972951E-1   -3.244654223802102E-2    1.790998143877947E-3    3.761599605813702E-3    1.813260358801202E-3    3.735060574499910E-3    4.271853564451801E-1   -3.300931350408040E-1
 7.838060614000000E9     5.655855022537828E-1   -3.489755629606234E-2    1.840933697452169E-3    3.736370549807367E-3    1.820850169161298E-3    3.664900718162258E-3    4.257487022898928E-1   -3.319706938094426E-1
 7.838095073825000E9     5.655550940398923E-1   -3.698429981734511E-2    1.861917561053938E-3    3.751886393614859E-3    1.853793712984844E-3    3.651856099474110E-3    4.241954926110194E-1   -3.340987771184937E-1
 7.838129533650000E9     5.653094975445037E-1   -3.935411842458937E-2    1.876597047805658E-3    3.734966528966284E-3    1.865081371994305E-3    3.691970124157548E-3    4.227394172763203E-1   -3.359243762782758E-1
 7.838163993475000E9     5.651213694893013E-1   -4.150628758069035E-2    1.914636053850601E-3    3.734683802807882E-3    1.914488069436123E-3    3.673080348714673E-3    4.213185973701658E-1   -3.377655049253881E-1
 7.838198453300000E9     5.649291646425046E-1   -4.397270533655403E-2    1.917940049234533E-3    3.738405051466080E-3    1.911738906385627E-3    3.696738196343802E-3    4.197532194715917E-1   -3.396275651554715E-1
 7.838232913125000E9     5.648280926560193E-1   -4.634991595691049E-2    1.935241998663275E-3    3.739473933580260E-3    1.918926719947744E-3    3.650801051529745E-3    4.182808825495247E-1   -3.414408908823593E-1
 7.838267372950000E9     5.647492707568041E-1   -4.859874429798438E-2    1.939943911316733E-3    3.728055656770249E-3    1.966793825305551E-3    3.688105694767207E-3    4.167775278173871E-1   -3.434317139111702E-1
 7.838301832775000E9     5.644593669696952E-1   -5.077407784831973E-2    2.003922505468084E-3    3.730069827878400E-3    1.959757945610024E-3    3.672476911960963E-3    4.152036959575313E-1   -3.451888431769619E-1
 7.838336292600000E9     5.643350301636079E-1   -5.325915263682605E-2    2.023093895369440E-3    3.733505303423605E-3    1.985733523697503E-3    3.648158192045306E-3    4.136852245133416E-1   -3.471549477937105E-1
 7.838370752425000E9     5.639538144855494E-1   -5.539102981239031E-2    2.011806907204982E-3    3.725766100483607E-3    2.000789468387000E-3    3.646311899618602E-3    4.121458043962488E-1   -3.488638540752246E-1
 7.838405212250000E9     5.637798331646487E-1   -5.766204456344736E-2    2.072203375740523E-3    3.721806711644691E-3    2.054818037530711E-3    3.664454031759919E-3    4.104988737767826E-1   -3.507714096138717E-1
 7.838439672075000E9     5.635806912191911E-1   -5.996840520770603E-2    2.113968837075221E-3    3.709519760717529E-3    2.071811521300516E-3    3.679840178431919E-3    4.090064452137314E-1   -3.526068797466239E-1
 7.838474131900000E9     5.632798667143339E-1   -6.227952235974926E-2    2.088204247530396E-3    3.708487696418143E-3    2.080442636711566E-3    3.659561379580352E-3    4.073545293162681E-1   -3.543979366202532E-1
 7.838508591725000E9     5.631824558203379E-1   -6.443309412144139E-2    2.144961916369594E-3    3.678922868714821E-3    2.148472541383809E-3    3.678833566611550E-3    4.059939721784764E-1   -3.564166886248515E-1
 7.838543051550000E9     5.628720343445226E-1   -6.683138439189822E-2    2.133689591974806E-3    3.716465244521345E-3    2.116651109348439E-3    3.691052407518566E-3    4.042834160165662E-1   -3.580775505263404E-1
 7.838577511375000E9     5.626075610258732E-1   -6.911281553530443E-2    2.176052973183153E-3    3.737046930903115E-3    2.132982555611061E-3    3.625272155389124E-3    4.027668272490273E-1   -3.598776120382829E-1
 7.838611971200000E9     5.622657742639495E-1   -7.139700524292868E-2    2.176895867323199E-3    3.705163497402177E-3    2.170536186551804E-3    3.642169412239163E-3    4.010383711704702E-1   -3.617848966490225E-1
 7.838646431025000E9     5.619324868282854E-1   -7.375295026513391E-2    2.222300061238580E-3    3.704100960133762E-3    2.209646068290089E-3    3.689711554046183E-3    3.995373819238706E-1   -3.634173007706564E-1
 7.838680890850000E9     5.617615656698123E-1   -7.598238810057681E-2    2.227201450296412E-3    3.705199240935554E-3    2.256873905232723E-3    3.695106337958489E-3    3.978198596018174E-1   -3.654470311751103E-1
 7.838715350675000E9     5.614889085577991E-1   -7.815596215803575E-2    2.235541269342590E-3    3.731262181536831E-3    2.241074159007616E-3    3.652143511454115E-3    3.961654083818274E-1   -3.670269854167954E-1
 7.838749810500000E9     5.611599005582323E-1   -8.063688618324222E-2    2.292553335343484E-3    3.707694584403739E-3    2.286325118198932E-3    3.656977991257108E-3    3.946367458449135E-1   -3.688495992744903E-1
 7.838784270325000E9     5.607115204769706E-1   -8.281863095769219E-2    2.301631773465383E-3    3.701489434919845E-3    2.283806353874497E-3    3.622246437127398E-3    3.929413868000829E-1   -3.707233610272296E-1
 7.838818730150000E9     5.603154543232443E-1   -8.514735286865303E-2    2.321287582590210E-3    3.690584129476696E-3    2.310145427762704E-3    3.650612185884307E-3    3.913059738029675E-1   -3.723213493480920E-1
 7.838853189975000E9     5.601445288806340E-1   -8.738255944813904E-2    2.352253555131068E-3    3.722192750876089E-3    2.335848837368891E-3    3.640859041406823E-3    3.895672628385086E-1   -3.742510277883626E-1
 7.838887649800000E9     5.596813326417662E-1   -8.962968466953661E-2    2.369375208383358E-3    3.681785949483293E-3    2.359741200418723E-3    3.662152281252608E-3    3.880917537258637E-1   -3.760116152085216E-1
 7.838922109625000E9     5.592291824127292E-1   -9.187394400539295E-2    2.406382579568937E-3    3.685434987689025E-3    2.356498511231808E-3    3.626047861965757E-3    3.862092783598056E-1   -3.776967169850461E-1
 7.838956569450000E9     5.589930963734211E-1   -9.425974690234674E-2    2.433958814479041E-3    3.711258737995038E-3    2.424888705739493E-3    3.638481541186653E-3    3.845977583573597E-1   -3.793144924113522E-1
 7.838991029275000E9     5.584756863668773E-1   -9.655709655664406E-2    2.442370946627201E-3    3.699663093350020E-3    2.445356874811828E-3    3.643939206374416E-3    3.829001936221685E-1   -3.811084945565718E-1
 7.839025489100000E9     5.581474627003212E-1   -9.877449786564836E-2    2.459194482926969E-3    3.671408078788609E-3    2.443700716934512E-3    3.645217650115777E-3    3.811875515618931E-1   -3.827818041245220E-1
 7.839059948925000E9     5.577695277755156E-1   -1.010114657073340E-1    2.478623295494514E-3    3.683343947033613E-3    2.478225261705185E-3    3.657050728107734E-3    3.795786537785888E-1   -3.845823824660558E-1
 7.839094408750000E9     5.574377706475717E-1   -1.032757743670548E-1    2.515015854450677E-3    3.671833762567797E-3    2.511147779618478E-3    3.650133005204205E-3    3.777728235012442E-1   -3.861995822712136E-1
 7.839128868575000E9     5.570326675322584E-1   -1.056352245439302E-1    2.580007032480089E-3    3.680320276625277E-3    2.519151419280842E-3    3.663993588968482E-3    3.760042856923175E-1   -3.879500751027332E-1
 7.839163328400000E9     5.565209029295016E-1   -1.078709277824220E-1    2.596499264683489E-3    3.674322066441719E-3    2.528881659257143E-3    3.636149643358909E-3    3.741482582154874E-1   -3.895978519522327E-1
 7.839197788225000E9     5.560968938883271E-1   -1.101920258256496E-1    2.597058993380975E-3    3.669687089311532E-3    2.584060717868013E-3    3.611785058018478E-3    3.726118952045563E-1   -3.913286969482631E-1
 7.839232248050000E9     5.555708800705763E-1   -1.125057527194960E-1    2.651869107723728E-3    3.679176105422406E-3    2.603952914407297E-3    3.637442841642778E-3    3.708020581107581E-1   -3.930927635253224E-1
 7.839266707875000E9     5.550472565351355E-1   -1.146935119483379E-1    2.637264783621581E-3    3.665416448019468E-3    2.659586414116832E-3    3.660073165551548E-3    3.691970858812652E-1   -3.948000373782785E-1
 7.839301167700000E9     5.546933257260657E-1   -1.169222157193066E-1    2.700348149882554E-3    3.663361390467382E-3    2.652727597068750E-3    3.609968568476021E-3    3.672675342764712E-1   -3.964050543516772E-1
 7.839335627525000E9     5.542722207712355E-1   -1.190934967559597E-1    2.734185183943787E-3    3.677297561572967E-3    2.692109087750301E-3    3.633642487399593E-3    3.656868466601993E-1   -3.979224458783218E-1
 7.839370087350000E9     5.537608699883539E-1   -1.213856156485551E-1    2.744436172312002E-3    3.669914429649293E-3    2.689602230756028E-3    3.590033479577162E-3    3.637069687291675E-1   -3.996249942086160E-1
 7.839404547175000E9     5.531167308559569E-1   -1.238305950250528E-1    2.760796652494299E-3    3.662945163502669E-3    2.740664167563677E-3    3.643989130562943E-3    3.620640978975097E-1   -4.012598950903714E-1
 7.839439007000000E9     5.526575976472105E-1   -1.260997815469165E-1    2.795176309038824E-3    3.655624531710885E-3    2.753428933728748E-3    3.643519079191544E-3    3.603789899372882E-1   -4.029734164628166E-1
 7.839473466825000E9     5.520854497785012E-1   -1.282861447241840E-1    2.835378262667307E-3    3.645742048801606E-3    2.794708838583998E-3    3.593411021640668E-3    3.583403691470934E-1   -4.044353808514973E-1
 7.839507926650000E9     5.516764997019331E-1   -1.303974960018475E-1    2.829506261894964E-3    3.651823020505344E-3    2.812947962276247E-3    3.620034517991123E-3    3.566295945185018E-1   -4.060242956241088E-1
 7.839542386475000E9     5.511210384730227E-1   -1.327886453255131E-1    2.860430233211797E-3    3.654063150874491E-3    2.859932738474807E-3    3.586874154458332E-3    3.548531659598470E-1   -4.077996712066368E-1
 7.839576846300000E9     5.504271806386594E-1   -1.349677136632410E-1    2.901051887745681E-3    3.653703315118882E-3    2.865778540000247E-3    3.631748518992634E-3    3.528717180849485E-1   -4.093270675605636E-1
 7.839611306125000E9     5.500053450251033E-1   -1.371613671821163E-1    2.927503783976778E-3    3.647897892097714E-3    2.884442239669603E-3    3.612310177477781E-3    3.510507377411610E-1   -4.108320115276221E-1
 7.839645765950000E9     5.493325861147584E-1   -1.395021914464000E-1    2.968695347826418E-3    3.639042501086806E-3    2.933920029043879E-3    3.615706308866081E-3    3.492409118474485E-1   -4.124392215200224E-1
 7.839680225775000E9     5.487803370904650E-1   -1.417200393478586E-1    2.979761163263193E-3    3.677803654643302E-3    2.955355779406066E-3    3.619409669002223E-3    3.474393869544419E-1   -4.139759599948665E-1
 7.839714685600000E9     5.483079184059515E-1   -1.439985617044543E-1    3.030134976764338E-3    3.628118890407023E-3    3.018239071901140E-3    3.589456714075621E-3    3.455479070428986E-1   -4.154860196418241E-1
 7.839749145425000E9     5.475690842846832E-1   -1.461824720273895E-1    3.054847977425743E-3    3.648739453113465E-3    2.992185022129272E-3    3.571208072628461E-3    3.436578470325660E-1   -4.171265244849595E-1
 7.839783605250000E9     5.470399213529692E-1   -1.485100653741399E-1    3.093185707297622E-3    3.617437019947083E-3    3.027040959376890E-3    3.597003499724683E-3    3.418972417120725E-1   -4.185757116080640E-1
