#  HZ   S   RI   R     50.00 
! Rohde & Schwarz Vector Network Analyzer 
! Rohde-Schwarz,ZNB20-2Port,1311601062101988,3.16
! Created: UTC 12/23/2023, 3:36:05 AM
! freq[Hz]                re:S11                  im:S11                  re:S21                  im:S21                  re:S12                  im:S12                  re:S22                  im:S22
 7.837817073000000E9     5.664235858856174E-1   -1.972104439473552E-2    1.644225286736335E-3    3.718740650652625E-3    1.689880626669641E-3    3.668690087452050E-3    4.360447444897742E-1   -3.186734354954980E-1
 7.837847389800000E9     5.663338343898677E-1   -2.173158693533957E-2    1.662610489234659E-3    3.698116790903975E-3    1.680165212745071E-3    3.627163730157611E-3    4.346389624796150E-1   -3.204453336711542E-1
 7.837877706600000E9     5.662175565191692E-1   -2.369000207847620E-2    1.692105053603603E-3    3.686933581038071E-3    1.692080195962849E-3    3.634243005162828E-3    4.334946335571220E-1   -3.223440715414896E-1
 7.837908023400000E9     5.662079630319913E-1   -2.582421588033130E-2    1.704570906742885E-3    3.698499966955702E-3    1.688676885039954E-3    3.658299903054353E-3    4.320182290715681E-1   -3.238888625699375E-1
 7.837938340200000E9     5.661633910683151E-1   -2.769126376383096E-2    1.714839459043735E-3    3.690362007193876E-3    1.706996967020506E-3    3.632016002048334E-3    4.309063170787346E-1   -3.255229114005421E-1
 7.837968657000000E9     5.659868774961208E-1   -2.977232525425390E-2    1.743850221063735E-3    3.690570492139281E-3    1.743037635297142E-3    3.637112643912212E-3    4.295525501554647E-1   -3.272339717612255E-1
 7.837998973800000E9     5.660472536352499E-1   -3.171850648025077E-2    1.739850610039916E-3    3.695816582193199E-3    1.771393163180301E-3    3.646873123804105E-3    4.282980243670303E-1   -3.288892347403726E-1
 7.838029290600000E9     5.659009579050071E-1   -3.375680554715425E-2    1.769106125255404E-3    3.705850298888235E-3    1.783349630621763E-3    3.644282516308845E-3    4.270476580417273E-1   -3.306180303631250E-1
 7.838059607400000E9     5.657177654906258E-1   -3.576800195354588E-2    1.816282124680291E-3    3.695148822866449E-3    1.769059358340792E-3    3.660486674921619E-3    4.258220985658048E-1   -3.324008852429833E-1
 7.838089924200000E9     5.655122183343577E-1   -3.778443513967267E-2    1.811453206375647E-3    3.691284603507025E-3    1.859871539054242E-3    3.629936334747509E-3    4.244784701044610E-1   -3.340115584090573E-1
 7.838120241000000E9     5.654500219952996E-1   -3.971769193626421E-2    1.833049605932756E-3    3.686547034803623E-3    1.793499324947670E-3    3.627177837621324E-3    4.230984807935118E-1   -3.356405924968247E-1
 7.838150557800000E9     5.653877154493505E-1   -4.184429622117509E-2    1.835622870153509E-3    3.667463975223399E-3    1.854140141817712E-3    3.639603727492677E-3    4.218833082097236E-1   -3.374118537543973E-1
 7.838180874600000E9     5.651308242529002E-1   -4.381872940699613E-2    1.869362740852101E-3    3.710267688068141E-3    1.853485145919227E-3    3.616365387765162E-3    4.203932153220517E-1   -3.390889579399074E-1
 7.838211191400000E9     5.649746171022382E-1   -4.589055056927379E-2    1.880799172974456E-3    3.688609830663856E-3    1.895718470810749E-3    3.637397047783690E-3    4.191435685584714E-1   -3.406559229260143E-1
 7.838241508200000E9     5.649126783344208E-1   -4.774912644974467E-2    1.898735602358772E-3    3.683578677876730E-3    1.928388646765796E-3    3.647703511988802E-3    4.178967977025733E-1   -3.423078438346959E-1
 7.838271825000000E9     5.646610593430033E-1   -4.985173128618785E-2    1.889929719592240E-3    3.677137078619983E-3    1.929089592936404E-3    3.647073208311904E-3    4.164743632571663E-1   -3.439952235808997E-1
 7.838302141800000E9     5.645351010744456E-1   -5.173962620960570E-2    1.916361623013400E-3    3.675280934972611E-3    1.913587379591589E-3    3.591597034489794E-3    4.150805145977645E-1   -3.455739723165824E-1
 7.838332458600000E9     5.644271008503751E-1   -5.378154479897689E-2    1.947730295327625E-3    3.691825356302228E-3    1.938807059694230E-3    3.614458024584299E-3    4.139044442768959E-1   -3.472740610469068E-1
 7.838362775400000E9     5.641983045472505E-1   -5.570076433387391E-2    1.968418653632097E-3    3.693989130496626E-3    1.968120184809917E-3    3.626371968775590E-3    4.124255058497427E-1   -3.488433715268737E-1
 7.838393092200000E9     5.640933504953581E-1   -5.793621350813060E-2    2.012041383311679E-3    3.666970124315204E-3    2.018719147237011E-3    3.635623643738745E-3    4.112444740654168E-1   -3.505078522938810E-1
 7.838423409000000E9     5.638344441429102E-1   -5.986916170089922E-2    2.000961074018491E-3    3.663424025787445E-3    2.015330481171871E-3    3.607678602209407E-3    4.097579138409476E-1   -3.520715518596117E-1
 7.838453725800000E9     5.635300654466167E-1   -6.188167859212899E-2    2.041428255936309E-3    3.655548629188036E-3    2.030144688498516E-3    3.607706240594529E-3    4.083554324583155E-1   -3.538307090565800E-1
 7.838484042600000E9     5.634034588742671E-1   -6.393739749753996E-2    2.038275397368641E-3    3.688746880592414E-3    2.024717631708436E-3    3.615989514510676E-3    4.069464204416466E-1   -3.553997993290948E-1
 7.838514359400000E9     5.631247055737912E-1   -6.595313172270724E-2    2.087539045171471E-3    3.655895347225278E-3    2.045557057599339E-3    3.633485665790205E-3    4.055151584460469E-1   -3.568962220590772E-1
 7.838544676200000E9     5.629699665354766E-1   -6.782137769913896E-2    2.099558659266107E-3    3.661969178530516E-3    2.060482502590277E-3    3.613526144359044E-3    4.042205630440731E-1   -3.585635898656529E-1
 7.838574993000000E9     5.626208524374731E-1   -6.989732751486795E-2    2.134887565196164E-3    3.667325616350390E-3    2.087067300146103E-3    3.616355961996168E-3    4.027150224785422E-1   -3.601624253897847E-1
 7.838605309800000E9     5.624844344911780E-1   -7.191094844382002E-2    2.129068602448415E-3    3.686001060018337E-3    2.120581400901914E-3    3.568241158835799E-3    4.013827194360647E-1   -3.615611634252815E-1
 7.838635626600000E9     5.623158307873598E-1   -7.402137921541614E-2    2.140858783338063E-3    3.657895188788218E-3    2.113001614049157E-3    3.598032164514765E-3    3.999177545169783E-1   -3.634666115392498E-1
 7.838665943400000E9     5.618562800198681E-1   -7.595932447442603E-2    2.158813909250797E-3    3.657606827921083E-3    2.160055700452859E-3    3.610789009349725E-3    3.984679552305890E-1   -3.649139332699787E-1
 7.838696260200000E9     5.615236509763728E-1   -7.793491180515108E-2    2.197193457896793E-3    3.643231497500258E-3    2.180484394340861E-3    3.621838375509435E-3    3.970748239730411E-1   -3.664751146836748E-1
 7.838726577000000E9     5.614134375707709E-1   -8.007276244445977E-2    2.235329666235234E-3    3.631553755866329E-3    2.164413397418707E-3    3.592365590018160E-3    3.955961680828196E-1   -3.681368275078175E-1
 7.838756893800000E9     5.611019502106529E-1   -8.200154250383002E-2    2.240945868623776E-3    3.663167851510053E-3    2.193809360008801E-3    3.639025281564789E-3    3.941371824067494E-1   -3.697074839132588E-1
 7.838787210600000E9     5.607706323237648E-1   -8.399879111367413E-2    2.210638522531933E-3    3.662037482006880E-3    2.219050882059351E-3    3.581971909083811E-3    3.925959057568518E-1   -3.712686522113261E-1
 7.838817527400000E9     5.604261139961542E-1   -8.593649977165492E-2    2.254745848306830E-3    3.640308356566592E-3    2.206399148557620E-3    3.561447608915278E-3    3.913127064980500E-1   -3.727790629379825E-1
 7.838847844200000E9     5.599591201251954E-1   -8.807455365953201E-2    2.265195322841297E-3    3.630764827473434E-3    2.237826921261676E-3    3.601764984225590E-3    3.899972439615396E-1   -3.742145826512021E-1
 7.838878161000000E9     5.598742133622183E-1   -9.002105170989237E-2    2.310243835166319E-3    3.655575998410610E-3    2.278629833554191E-3    3.577772450306130E-3    3.883237376704547E-1   -3.758159134184438E-1
 7.838908477800000E9     5.596241907350006E-1   -9.197208493898081E-2    2.308777372012726E-3    3.607506028803209E-3    2.297800888410851E-3    3.583764308869502E-3    3.868640184664756E-1   -3.772280600237452E-1
 7.838938794600000E9     5.591792338181153E-1   -9.389696879851399E-2    2.370101868076595E-3    3.629792792419055E-3    2.312802182787481E-3    3.557432653610266E-3    3.855002674626907E-1   -3.789935628469240E-1
 7.838969111400000E9     5.588761589838546E-1   -9.592680402649235E-2    2.373466914403750E-3    3.642062515346389E-3    2.363114593312621E-3    3.574717186474335E-3    3.837599234312060E-1   -3.803424436027741E-1
 7.838999428200000E9     5.585222042579677E-1   -9.794532664878161E-2    2.386086652427725E-3    3.634589716765575E-3    2.364606433012357E-3    3.571521403995694E-3    3.822833747366856E-1   -3.818294519165599E-1
 7.839029745000000E9     5.583321130740414E-1   -1.000886306604242E-1    2.393146808198977E-3    3.640874332667938E-3    2.377399966819336E-3    3.546375237670755E-3    3.810064865928692E-1   -3.832863786731857E-1
 7.839060061800000E9     5.579348341221162E-1   -1.020143796615340E-1    2.450229339008802E-3    3.613117569569429E-3    2.400956205546819E-3    3.596226447544878E-3    3.793336399074839E-1   -3.848417037093766E-1
 7.839090378600000E9     5.575617370532092E-1   -1.040035498721568E-1    2.447757307393543E-3    3.632657829602466E-3    2.396752977382844E-3    3.576201187480219E-3    3.778521265820735E-1   -3.864513586783503E-1
 7.839120695400000E9     5.573069937585423E-1   -1.060501162701212E-1    2.463520023143989E-3    3.630010726650153E-3    2.455719563106024E-3    3.567914573125333E-3    3.763920312964972E-1   -3.879151442598007E-1
 7.839151012200000E9     5.567078503769590E-1   -1.079887152098833E-1    2.469164316785204E-3    3.609588024070082E-3    2.455749140931237E-3    3.606925391963912E-3    3.749729732878758E-1   -3.892493885094999E-1
 7.839181329000000E9     5.563255605995011E-1   -1.099588839783330E-1    2.516880920291318E-3    3.629148361994356E-3    2.464653336618604E-3    3.596585315888167E-3    3.734009007358786E-1   -3.909369377004516E-1
 7.839211645800000E9     5.560709954050953E-1   -1.120324437947275E-1    2.540487490019188E-3    3.615601159627480E-3    2.501174260844701E-3    3.563695345280697E-3    3.717526842618443E-1   -3.923236169137975E-1
 7.839241962600000E9     5.555806303174810E-1   -1.139087601681349E-1    2.539396475125119E-3    3.624935458004917E-3    2.543051734272492E-3    3.592486191622475E-3    3.701775548750613E-1   -3.937831647115753E-1
 7.839272279400000E9     5.552201774684818E-1   -1.160218627687121E-1    2.575401840983749E-3    3.611041743816359E-3    2.549818299351631E-3    3.566519026984738E-3    3.687206673288649E-1   -3.952558490397146E-1
 7.839302596200000E9     5.547308532018238E-1   -1.179620301609332E-1    2.613521116376131E-3    3.623126736608319E-3    2.574670580157127E-3    3.560556296260361E-3    3.670847894921095E-1   -3.966965656820371E-1
 7.839332913000000E9     5.543421273837245E-1   -1.199066323002606E-1    2.608364040434723E-3    3.594604329264005E-3    2.569225040769818E-3    3.562366436031928E-3    3.657257343064383E-1   -3.981585779883125E-1
 7.839363229800000E9     5.539435614561848E-1   -1.220552883695935E-1    2.626650232410101E-3    3.597143505926461E-3    2.620216707328935E-3    3.565083333742900E-3    3.640139236331074E-1   -3.996226513433550E-1
 7.839393546600000E9     5.535528088464327E-1   -1.240096496690480E-1    2.684140372173872E-3    3.582380390377584E-3    2.649423050893563E-3    3.561791736683566E-3    3.626108784189029E-1   -4.010806892341410E-1
 7.839423863400000E9     5.530462793197528E-1   -1.258664467792411E-1    2.716369868905100E-3    3.610446029363851E-3    2.674864468125364E-3    3.550954730975233E-3    3.608920223335877E-1   -4.024306591051767E-1
 7.839454180200000E9     5.525139384345148E-1   -1.278023170271813E-1    2.687353236144965E-3    3.599873344463409E-3    2.666679878532508E-3    3.546163067885511E-3    3.594734087928065E-1   -4.040549167892647E-1
 7.839484497000000E9     5.519864751065133E-1   -1.299592800494536E-1    2.734956686663787E-3    3.606175433875318E-3    2.713964282576109E-3    3.554711156188978E-3    3.576418133027780E-1   -4.052281893984805E-1
 7.839514813800000E9     5.516369569793248E-1   -1.318176824003870E-1    2.735796656820325E-3    3.587690989345937E-3    2.707014857468924E-3    3.554345714296758E-3    3.562576027100802E-1   -4.067349960531303E-1
 7.839545130600000E9     5.511141039600977E-1   -1.336965429059835E-1    2.762209033701679E-3    3.613595732385595E-3    2.738007260904290E-3    3.563586528068005E-3    3.543819955545772E-1   -4.080482551689245E-1
 7.839575447400000E9     5.506018334334668E-1   -1.357655524975167E-1    2.794005164846496E-3    3.568916075553358E-3    2.787080046291978E-3    3.574724972710294E-3    3.529942102165426E-1   -4.096498035046764E-1
 7.839605764200000E9     5.502182560552857E-1   -1.377274084682671E-1    2.852575462792105E-3    3.545845661018877E-3    2.776453394979969E-3    3.527883741130648E-3    3.514227022672362E-1   -4.109739041008203E-1
 7.839636081000000E9     5.497041209715987E-1   -1.397403584947747E-1    2.865716332982180E-3    3.597178686373393E-3    2.813185883506790E-3    3.556638492371206E-3    3.497693331749547E-1   -4.124070007170536E-1
 7.839666397800000E9     5.492101904573404E-1   -1.417316615287171E-1    2.860646846086438E-3    3.582169384148422E-3    2.813935518094644E-3    3.535844735463037E-3    3.480292048353374E-1   -4.137316775376995E-1
 7.839696714600000E9     5.486295008810661E-1   -1.436607852024539E-1    2.882437714627132E-3    3.572014326140327E-3    2.862913309370057E-3    3.535147000754928E-3    3.465033139643536E-1   -4.150788936433257E-1
 7.839727031400000E9     5.481858330039650E-1   -1.456424123792240E-1    2.906776384062173E-3    3.561248112521261E-3    2.876377857484904E-3    3.536115975517614E-3    3.448663256662006E-1   -4.163749397084371E-1
 7.839757348200000E9     5.475990209470103E-1   -1.475949460676741E-1    2.941676615842724E-3    3.570308947467880E-3    2.907336600329138E-3    3.553321021524912E-3    3.431239224177309E-1   -4.177998512292271E-1
 7.839787665000000E9     5.471112575233262E-1   -1.495324381758469E-1    2.956701137351126E-3    3.574696660432545E-3    2.928810516944493E-3    3.549621034578032E-3    3.417271567798736E-1   -4.191690345678230E-1
 7.839817981800000E9     5.465142643575296E-1   -1.514710910577669E-1    2.975747715147692E-3    3.583804071893254E-3    2.968151041906913E-3    3.534819518168622E-3    3.399703618054269E-1   -4.205730447381938E-1
 7.839848298600000E9     5.459589365216876E-1   -1.534426472041186E-1    3.018681065502613E-3    3.556795795854554E-3    2.968044764436219E-3    3.535944473642715E-3    3.382875201448977E-1   -4.219506078753001E-1
 7.839878615400000E9     5.454179219459322E-1   -1.553619764802274E-1    3.028953592349943E-3    3.570864886658544E-3    2.987876727305295E-3    3.551272057370605E-3    3.365684196682958E-1   -4.230937953223604E-1
 7.839908932200000E9     5.449355518179921E-1   -1.574601351796251E-1    3.061681575139124E-3    3.567696827938525E-3    3.004140309151109E-3    3.541005922820311E-3    3.349997835771564E-1   -4.245707403889348E-1
 7.839939249000000E9     5.441967339790171E-1   -1.594148251767745E-1    3.097346287629722E-3    3.551906459231751E-3    3.026388164214319E-3    3.538428466389386E-3    3.332485919819242E-1   -4.258684539716745E-1
 7.839969565800000E9     5.436466099981991E-1   -1.612952954644722E-1    3.126709843513886E-3    3.555473244612491E-3    3.059097291320947E-3    3.508394579048329E-3    3.315648013625918E-1   -4.271206643772869E-1
 7.839999882600000E9     5.430957018570816E-1   -1.632841636954666E-1    3.129136891118454E-3    3.520587140239566E-3    3.089073248952155E-3    3.501025070196669E-3    3.300117678761187E-1   -4.284646584636242E-1
 7.840030199400000E9     5.425583449928107E-1   -1.652813920947558E-1    3.156082119879961E-3    3.545483736479002E-3    3.127904977684890E-3    3.517703707368999E-3    3.282692537412038E-1   -4.297949565249186E-1
 7.840060516200000E9     5.419264923947148E-1   -1.671871054251978E-1    3.208862840650127E-3    3.539397664961504E-3    3.141745738767280E-3    3.520293978219040E-3    3.265171883716249E-1   -4.310835762254038E-1
 7.840090833000000E9     5.412896999915283E-1   -1.691787389867725E-1    3.213517029275661E-3    3.532114255844928E-3    3.173353711111474E-3    3.513997594586973E-3    3.248474191224314E-1   -4.322912112363401E-1
 7.840121149800000E9     5.407743645136643E-1   -1.711174223395565E-1    3.240324052789860E-3    3.540407194626717E-3    3.209949678741788E-3    3.521844710690892E-3    3.233075168485665E-1   -4.337365288048237E-1
 7.840151466600000E9     5.400413435238637E-1   -1.731332358303892E-1    3.239064545508222E-3    3.563447352901809E-3    3.226081836925941E-3    3.528996311043185E-3    3.214618389143779E-1   -4.349475593730513E-1
 7.840181783400000E9     5.393743998618369E-1   -1.749733157364866E-1    3.305282508365509E-3    3.547068364983415E-3    3.245791318268591E-3    3.497902032731682E-3    3.197747480612529E-1   -4.363323329131701E-1
 7.840212100200000E9     5.387731719554637E-1   -1.770873009398114E-1    3.329572726747263E-3    3.528080237440740E-3    3.265681431720418E-3    3.528308603054830E-3    3.180753433061679E-1   -4.374101021416743E-1
 7.840242417000000E9     5.381370687178223E-1   -1.788919564037121E-1    3.346246371918732E-3    3.535683494383413E-3    3.281971781968603E-3    3.510272006133065E-3    3.163927810940536E-1   -4.388476020784979E-1
 7.840272733800000E9     5.373973114738262E-1   -1.808211159209375E-1    3.365239828100398E-3    3.525511803839880E-3    3.342277690347030E-3    3.479127048819432E-3    3.146466579535044E-1   -4.399979255545688E-1
 7.840303050600000E9     5.368556470906038E-1   -1.826693468352500E-1    3.384410519611022E-3    3.522994978347569E-3    3.366874137939232E-3    3.489970959061599E-3    3.129301301369959E-1   -4.411636522935776E-1
 7.840333367400000E9     5.361485784128899E-1   -1.847573567507736E-1    3.433847997835243E-3    3.522489517313021E-3    3.404009370071491E-3    3.535095029853604E-3    3.111283213512991E-1   -4.424987892993266E-1
 7.840363684200000E9     5.353833845175310E-1   -1.866264034111210E-1    3.443207847482308E-3    3.524744207370595E-3    3.383409103131420E-3    3.497477688403161E-3    3.094643650052105E-1   -4.437736138329778E-1
 7.840394001000000E9     5.347639882917193E-1   -1.886730144892416E-1    3.460772155603563E-3    3.528487113839299E-3    3.451490123173789E-3    3.503748726413565E-3    3.077322100945651E-1   -4.449462167845121E-1
 7.840424317800000E9     5.340698592564215E-1   -1.904902359464568E-1    3.535007339048976E-3    3.523480394087758E-3    3.476742660536879E-3    3.479491939664166E-3    3.059591274834633E-1   -4.462224305970249E-1
 7.840454634600000E9     5.334058136886131E-1   -1.924165567342047E-1    3.572883665584781E-3    3.516527239057750E-3    3.519296768338352E-3    3.487206823485676E-3    3.041831120398159E-1   -4.473648541012585E-1
 7.840484951400000E9     5.327724358555243E-1   -1.944366212852859E-1    3.568990803391118E-3    3.498598971378975E-3    3.534692229331356E-3    3.474454710525737E-3    3.024191094236400E-1   -4.484666558722215E-1
 7.840515268200000E9     5.319159930382469E-1   -1.963565703139192E-1    3.615098262105375E-3    3.491476198739813E-3    3.560390908276868E-3    3.478439176596318E-3    3.008073417222027E-1   -4.498249340145588E-1
 7.840545585000000E9     5.312571759461804E-1   -1.982058063519508E-1    3.650128617521924E-3    3.496100774876746E-3    3.604297191383690E-3    3.476085049925709E-3    2.989475102836571E-1   -4.510334907056036E-1
