#  HZ   S   RI   R     50.00 
! Rohde & Schwarz Vector Network Analyzer 
! Rohde-Schwarz,ZNB20-2Port,1311601062101988,3.16
! Created: UTC 12/23/2023, 3:51:22 AM
! freq[Hz]                re:S11                  im:S11                  re:S21                  im:S21                  re:S12                  im:S12                  re:S22                  im:S22
 7.836881449000000E9     5.644688013651282E-1    4.369518093251631E-2    1.137284688995475E-3    3.769316396272631E-3    1.184962491872950E-3    3.701529764038354E-3    4.709711873703896E-1   -2.629589106347606E-1
 7.836914981150000E9     5.645404581806390E-1    4.149762192338728E-2    1.123412030235348E-3    3.793153813874428E-3    1.206428218795827E-3    3.682225404718462E-3    4.697831309525171E-1   -2.649457268320629E-1
 7.836948513300000E9     5.648032405430253E-1    3.915726628832804E-2    1.181398302894060E-3    3.765913269863621E-3    1.192813906789000E-3    3.683894807443393E-3    4.688512806006438E-1   -2.670101940780484E-1
 7.836982045450000E9     5.649282645830366E-1    3.693513263471680E-2    1.206962463249135E-3    3.769224202494008E-3    1.194975836408331E-3    3.681060753393122E-3    4.676791178416935E-1   -2.690103865765809E-1
 7.837015577600000E9     5.651601588651820E-1    3.473707707817091E-2    1.193091631322406E-3    3.782264494719427E-3    1.259284264401626E-3    3.687443383527721E-3    4.665752431038594E-1   -2.711339850698697E-1
 7.837049109750000E9     5.652871458393066E-1    3.260012236199675E-2    1.221132537501016E-3    3.793467483809305E-3    1.268423927459771E-3    3.712839800732143E-3    4.654377266341916E-1   -2.731613945913525E-1
 7.837082641900000E9     5.653970243131768E-1    3.031226402370778E-2    1.282177984566912E-3    3.765243652281446E-3    1.268037289975975E-3    3.704358965008729E-3    4.640623874378116E-1   -2.750141269690386E-1
 7.837116174050000E9     5.655510195658870E-1    2.801478394069578E-2    1.265456622658728E-3    3.772335331088363E-3    1.272634554568677E-3    3.681417881310906E-3    4.627630710816219E-1   -2.771858043736301E-1
 7.837149706200000E9     5.655106381253202E-1    2.582890152977094E-2    1.275016830407579E-3    3.751396467212089E-3    1.292908302686495E-3    3.697050004224244E-3    4.616884573841901E-1   -2.792425487412469E-1
 7.837183238350000E9     5.658131624353341E-1    2.357729507982493E-2    1.306104750485624E-3    3.790058431181010E-3    1.342189175138928E-3    3.694402979795106E-3    4.605152300199994E-1   -2.810969792206844E-1
 7.837216770500000E9     5.658655148799291E-1    2.139576177905166E-2    1.329518892154629E-3    3.766934289460834E-3    1.335409256493977E-3    3.690491584108649E-3    4.592763569766657E-1   -2.832635613647123E-1
 7.837250302650000E9     5.660477868164143E-1    1.930291805037489E-2    1.370736056404118E-3    3.739493935292550E-3    1.387917450531252E-3    3.694766423449765E-3    4.581381741002123E-1   -2.853253795554231E-1
 7.837283834800000E9     5.660823180479592E-1    1.683488284860400E-2    1.383377326694055E-3    3.766248774864690E-3    1.377808668745279E-3    3.706836493945917E-3    4.568617434110470E-1   -2.872590194695488E-1
 7.837317366950000E9     5.661637293207520E-1    1.470117290039942E-2    1.387074852913349E-3    3.773502329286149E-3    1.393314975819657E-3    3.677331625829409E-3    4.556344942256277E-1   -2.892213995777622E-1
 7.837350899100000E9     5.662467260871391E-1    1.244093114368596E-2    1.405712819140886E-3    3.742368607782927E-3    1.425819806711722E-3    3.719221713386755E-3    4.543439672266140E-1   -2.912901269133206E-1
 7.837384431250000E9     5.662709622470905E-1    1.029369556132688E-2    1.417600879375619E-3    3.750299673972760E-3    1.454738332495113E-3    3.705178319203654E-3    4.531463237150614E-1   -2.932383193523919E-1
 7.837417963400000E9     5.663765738198830E-1    8.185290089082557E-3    1.437915677990432E-3    3.774021778443741E-3    1.443747170041806E-3    3.695562209551216E-3    4.518400463726249E-1   -2.951949566430513E-1
 7.837451495550000E9     5.662956349942192E-1    5.727900787398856E-3    1.453351903877582E-3    3.764796037261449E-3    1.483665779391714E-3    3.673454631148145E-3    4.506437357069836E-1   -2.971259387817600E-1
 7.837485027700000E9     5.663268776804640E-1    3.518910271923311E-3    1.482888241397096E-3    3.750848813164687E-3    1.469395603726386E-3    3.668879924448712E-3    4.492880486347571E-1   -2.990690538123636E-1
 7.837518559850000E9     5.664409963464604E-1    1.249147561415302E-3    1.513641176699228E-3    3.754453421887839E-3    1.530341600544723E-3    3.683068302952830E-3    4.478385526006871E-1   -3.010580093755163E-1
 7.837552092000000E9     5.665482614231743E-1   -9.191740682287997E-4    1.525142067856468E-3    3.767054239385099E-3    1.551364382983099E-3    3.685643784283219E-3    4.465334929500898E-1   -3.030181772997587E-1
 7.837585624150000E9     5.664850841542312E-1   -3.117038972009522E-3    1.553879616627380E-3    3.760759428346442E-3    1.570426369870026E-3    3.719740985613950E-3    4.453788329938265E-1   -3.049733145076731E-1
 7.837619156300000E9     5.665005870567660E-1   -5.330287452620860E-3    1.574208818347237E-3    3.783316867322696E-3    1.585655893691424E-3    3.667385204788239E-3    4.440097556351605E-1   -3.068268396619629E-1
 7.837652688450000E9     5.663336306523556E-1   -7.648287043456925E-3    1.601343933003005E-3    3.780190736983286E-3    1.610754765796140E-3    3.725737847436253E-3    4.426345635838982E-1   -3.088998405847733E-1
 7.837686220600000E9     5.664891507063275E-1   -9.922168919547192E-3    1.622988442498423E-3    3.754534246336807E-3    1.617269762712059E-3    3.700911804966082E-3    4.413345392299643E-1   -3.108590905773774E-1
 7.837719752750000E9     5.663252598929226E-1   -1.202922382641108E-2    1.648750004086268E-3    3.760946313188118E-3    1.630285015473745E-3    3.694568780781566E-3    4.399363389516024E-1   -3.127115464880476E-1
 7.837753284900000E9     5.662746187329845E-1   -1.426918705276512E-2    1.655396170378574E-3    3.737257807612338E-3    1.659929507186418E-3    3.689334007899491E-3    4.385459148244951E-1   -3.145536438122259E-1
 7.837786817050000E9     5.662882897251391E-1   -1.658720578820379E-2    1.667618132841936E-3    3.751334216327078E-3    1.685908344591357E-3    3.669912354231788E-3    4.373305535209511E-1   -3.166067528562424E-1
 7.837820349200000E9     5.662105617904619E-1   -1.871913136817468E-2    1.679493023791335E-3    3.748558211569538E-3    1.704657487284581E-3    3.647417306363568E-3    4.357688292673281E-1   -3.184150356570214E-1
 7.837853881350000E9     5.661402075114144E-1   -2.098111374493427E-2    1.707429713450949E-3    3.751901291504781E-3    1.688258345929802E-3    3.687738327792935E-3    4.345855077085796E-1   -3.203893142010483E-1
 7.837887413500000E9     5.660746745745088E-1   -2.314085192189673E-2    1.723847612522945E-3    3.735325686420108E-3    1.721578056598469E-3    3.688950723622041E-3    4.330183175403214E-1   -3.222016783064151E-1
 7.837920945650000E9     5.660385848269469E-1   -2.541711891643304E-2    1.735332579673945E-3    3.742158719667608E-3    1.760596409231441E-3    3.653796114427621E-3    4.317660028444162E-1   -3.241642499923104E-1
 7.837954477800000E9     5.659224247283552E-1   -2.766811245225692E-2    1.784874225130302E-3    3.754936995924863E-3    1.757886718048963E-3    3.660088359784611E-3    4.303740278199028E-1   -3.259891201311305E-1
 7.837988009950000E9     5.658493313640992E-1   -3.000435753703122E-2    1.774981034826952E-3    3.751177015689671E-3    1.810777521817912E-3    3.693272825651111E-3    4.289913088631006E-1   -3.280227693892797E-1
 7.838021542100000E9     5.659261265107763E-1   -3.209079602805501E-2    1.807036930718598E-3    3.735781439848968E-3    1.780511282157920E-3    3.642096065385945E-3    4.273559874406059E-1   -3.298374370548138E-1
 7.838055074250000E9     5.657125530801171E-1   -3.430373964651214E-2    1.821211198864661E-3    3.734364389579655E-3    1.842019376308629E-3    3.696041865625114E-3    4.259818551256249E-1   -3.316972458160491E-1
 7.838088606400000E9     5.655482050706023E-1   -3.647697230088672E-2    1.811398433277234E-3    3.749459381112821E-3    1.859954393886358E-3    3.687564700220471E-3    4.245847564920992E-1   -3.335162263087810E-1
 7.838122138550000E9     5.653255808632847E-1   -3.885056393616880E-2    1.856178581009320E-3    3.736422989256368E-3    1.845730908576184E-3    3.664203431438019E-3    4.232456583432895E-1   -3.353971043411175E-1
 7.838155670700000E9     5.652378283558774E-1   -4.107627540928353E-2    1.887888284659256E-3    3.724208883794051E-3    1.908635068254020E-3    3.645401541766074E-3    4.217023138643651E-1   -3.372640734057900E-1
 7.838189202850000E9     5.649332046054387E-1   -4.330539537036308E-2    1.912341117728903E-3    3.721845546841471E-3    1.889960405043037E-3    3.647310103678618E-3    4.202922098756043E-1   -3.388459898545841E-1
 7.838222735000000E9     5.648951595470671E-1   -4.549194802684305E-2    1.942227534979535E-3    3.725319058357578E-3    1.960493264155120E-3    3.672974333335788E-3    4.187299913334788E-1   -3.408862408230842E-1
 7.838256267150000E9     5.646703787786816E-1   -4.775918657991215E-2    1.943922379238667E-3    3.724571206125972E-3    1.924726348095898E-3    3.671989785829293E-3    4.171646507911285E-1   -3.428017397426992E-1
 7.838289799300000E9     5.644792044428394E-1   -4.989961702742662E-2    1.954884121326033E-3    3.743909461854676E-3    1.961094786541414E-3    3.664229755029244E-3    4.156676592395478E-1   -3.444538264761988E-1
 7.838323331450000E9     5.644140508265548E-1   -5.226256395779549E-2    1.975644867211655E-3    3.722959018891618E-3    1.993763173102719E-3    3.686983999538983E-3    4.143470108862766E-1   -3.463717730680624E-1
 7.838356863600000E9     5.640241145255463E-1   -5.436944286358106E-2    2.027200734950281E-3    3.726151022228477E-3    2.000649752850538E-3    3.666334481292442E-3    4.127189820331894E-1   -3.481676871822925E-1
 7.838390395750000E9     5.640178775092564E-1   -5.654570464835854E-2    2.033257152896735E-3    3.744647277162502E-3    2.053754855167852E-3    3.676180685351201E-3    4.112106588552364E-1   -3.500515661723433E-1
 7.838423927900000E9     5.636430047909894E-1   -5.889772863712733E-2    2.071404033834694E-3    3.740550806100319E-3    2.060854187385871E-3    3.636344360738182E-3    4.098192234761766E-1   -3.516217506384781E-1
 7.838457460050000E9     5.633651599952315E-1   -6.104631605754689E-2    2.085134674193471E-3    3.705672229809118E-3    2.031191652958991E-3    3.650129234538490E-3    4.082720110842264E-1   -3.534036785532235E-1
 7.838490992200000E9     5.631959248907459E-1   -6.329246756635074E-2    2.109581666958881E-3    3.704663964671837E-3    2.093267241867373E-3    3.622134947194520E-3    4.065509263354803E-1   -3.553163769229531E-1
 7.838524524350000E9     5.630113719590720E-1   -6.557260521497046E-2    2.136116169514774E-3    3.707190482512108E-3    2.106501748729104E-3    3.635523567508347E-3    4.052563057440463E-1   -3.571244805356458E-1
 7.838558056500000E9     5.626632920982141E-1   -6.782225567571280E-2    2.161457294155117E-3    3.721529607661897E-3    2.141622529892188E-3    3.689792140673672E-3    4.036148192478267E-1   -3.588661542454649E-1
 7.838591588650000E9     5.624733426577823E-1   -6.999299202365940E-2    2.162941421387855E-3    3.713742093959551E-3    2.152065674178382E-3    3.659064794384976E-3    4.020822125505826E-1   -3.606292364822673E-1
 7.838625120800000E9     5.621534632471595E-1   -7.222105237383149E-2    2.185970310060627E-3    3.687688103788498E-3    2.134626208093700E-3    3.642843648048800E-3    4.003914508964412E-1   -3.623608037370594E-1
 7.838658652950000E9     5.619776310617298E-1   -7.455638278123254E-2    2.223386246155758E-3    3.700897453178433E-3    2.215873419270994E-3    3.672361254857753E-3    3.989625888093160E-1   -3.640119928900340E-1
 7.838692185100000E9     5.614574271366817E-1   -7.671131994252633E-2    2.250524961152313E-3    3.719739921722672E-3    2.227051520377371E-3    3.652842879530611E-3    3.972415701409105E-1   -3.659024927432846E-1
 7.838725717250000E9     5.612722636968750E-1   -7.884093455460271E-2    2.246112087243706E-3    3.695326743438404E-3    2.239849180316596E-3    3.661933971717832E-3    3.959056439652412E-1   -3.674369726185429E-1
 7.838759249400000E9     5.609735360557371E-1   -8.105718164689805E-2    2.267494224551278E-3    3.699683161921766E-3    2.252351228814594E-3    3.631168307105304E-3    3.940598032684474E-1   -3.693307521415030E-1
 7.838792781550000E9     5.606667868478152E-1   -8.330117584031164E-2    2.306071721255453E-3    3.723587160859381E-3    2.250527509360949E-3    3.640655587163806E-3    3.925108867458840E-1   -3.711680985068862E-1
 7.838826313700000E9     5.604800940276785E-1   -8.553650106441148E-2    2.333581294199743E-3    3.695344835426276E-3    2.319661894405038E-3    3.660595230411008E-3    3.908222500842903E-1   -3.727422006516724E-1
 7.838859845850000E9     5.599623033921648E-1   -8.769987705291869E-2    2.362047993732742E-3    3.656563764288599E-3    2.320213116508021E-3    3.653271682228556E-3    3.893816936113182E-1   -3.745081877508651E-1
 7.838893378000000E9     5.596530092695388E-1   -9.000749801680720E-2    2.390807551891852E-3    3.683275232681109E-3    2.368008637970909E-3    3.650969940768192E-3    3.878541951555111E-1   -3.760272389514030E-1
 7.838926910150000E9     5.592309377344628E-1   -9.216698608116541E-2    2.408658917032763E-3    3.689855557590708E-3    2.398629342965663E-3    3.628404495686678E-3    3.861552567332340E-1   -3.778830172097397E-1
 7.838960442300000E9     5.589048286999352E-1   -9.440922038349185E-2    2.438124604489451E-3    3.686670841286034E-3    2.390272785292085E-3    3.636710167882422E-3    3.844460626882956E-1   -3.795012872377322E-1
 7.838993974450000E9     5.584686428793065E-1   -9.663079250523660E-2    2.446879617097231E-3    3.673399786325074E-3    2.396616495441410E-3    3.618271036131909E-3    3.828876905286988E-1   -3.812136898926740E-1
 7.839027506600000E9     5.583252791174820E-1   -9.877692179011985E-2    2.466297862425157E-3    3.705317200110483E-3    2.447350445815840E-3    3.650604943322442E-3    3.812148717522171E-1   -3.827684348953115E-1
 7.839061038750000E9     5.576496328264974E-1   -1.009992789564795E-1    2.494464689097722E-3    3.697037997080276E-3    2.495823481317327E-3    3.632366769055054E-3    3.794294792097038E-1   -3.845857553200791E-1
 7.839094570900000E9     5.573760588556479E-1   -1.032673321537045E-1    2.527445900768691E-3    3.698144820931219E-3    2.493804132971969E-3    3.609789551906569E-3    3.777827424962267E-1   -3.861184744245300E-1
 7.839128103050000E9     5.568206552579898E-1   -1.054755829281964E-1    2.550318581064022E-3    3.677411235610289E-3    2.502830791097821E-3    3.634438163212080E-3    3.761294737468044E-1   -3.879616861471587E-1
 7.839161635200000E9     5.565821213384924E-1   -1.076857447771659E-1    2.582277408672929E-3    3.676163564457289E-3    2.541040201411882E-3    3.654658797246839E-3    3.745497555813839E-1   -3.895089969880220E-1
 7.839195167350000E9     5.562773330361126E-1   -1.099824320523248E-1    2.609542927250652E-3    3.686358450114715E-3    2.541604904783302E-3    3.593164672151204E-3    3.727218536060377E-1   -3.912168022672804E-1
 7.839228699500000E9     5.557318786562282E-1   -1.121627752903333E-1    2.640245283271168E-3    3.672960517244200E-3    2.593520941500103E-3    3.619144873499197E-3    3.709862334430548E-1   -3.927238837699888E-1
 7.839262231650000E9     5.553024164347785E-1   -1.142948459902081E-1    2.645399058141255E-3    3.677501445429572E-3    2.621967685968262E-3    3.637408980358647E-3    3.691846910746212E-1   -3.944016933722696E-1
 7.839295763800000E9     5.546576829975481E-1   -1.165169767080971E-1    2.676924121883585E-3    3.670481973468936E-3    2.653485785898370E-3    3.614759884336961E-3    3.676240797357206E-1   -3.960103324720033E-1
 7.839329295950000E9     5.542703826187290E-1   -1.187051239406542E-1    2.691708467773273E-3    3.665510727233184E-3    2.641574349896932E-3    3.633180818226659E-3    3.658170308789004E-1   -3.975348894451919E-1
 7.839362828100000E9     5.538136572819494E-1   -1.208698134746801E-1    2.724997722601747E-3    3.674753144289740E-3    2.691513657192612E-3    3.615400838374909E-3    3.641140351886508E-1   -3.991534529832704E-1
 7.839396360250000E9     5.533055403311983E-1   -1.230795695733906E-1    2.763263535307393E-3    3.666133082548706E-3    2.749860391632972E-3    3.607396779622498E-3    3.623878881567958E-1   -4.008486400609230E-1
 7.839429892400000E9     5.529054517667957E-1   -1.253222803118427E-1    2.778130197791309E-3    3.683275030051272E-3    2.714206370298842E-3    3.624580643240833E-3    3.608355138907096E-1   -4.023993588120564E-1
 7.839463424550000E9     5.521926741738273E-1   -1.274412283179189E-1    2.804438199915235E-3    3.672489305767359E-3    2.767069129786808E-3    3.633618361494729E-3    3.590452771555812E-1   -4.039398472623092E-1
 7.839496956700000E9     5.519891443461138E-1   -1.296210575049045E-1    2.827892437519184E-3    3.660320803318225E-3    2.785941227845761E-3    3.616818165611049E-3    3.571585676580584E-1   -4.055328265796692E-1
 7.839530488850000E9     5.513784259290724E-1   -1.319717434226853E-1    2.868742067893846E-3    3.613450982902555E-3    2.838921441539662E-3    3.590303829304762E-3    3.554939323908909E-1   -4.071119238207775E-1
 7.839564021000000E9     5.508866387184265E-1   -1.341296696317703E-1    2.905120830367422E-3    3.638252579625793E-3    2.798581043275979E-3    3.606591373007407E-3    3.536669523523293E-1   -4.085549152826405E-1
 7.839597553150000E9     5.501642783812766E-1   -1.362231095058941E-1    2.898634263104106E-3    3.644368977236100E-3    2.860017536093909E-3    3.617012208086027E-3    3.518990124915001E-1   -4.101518632499933E-1
 7.839631085300000E9     5.496014025115097E-1   -1.385435712079630E-1    2.936034365979005E-3    3.636907269506799E-3    2.918416990101352E-3    3.593381961961297E-3    3.501519519530957E-1   -4.117551244470035E-1
 7.839664617450000E9     5.491489882513149E-1   -1.405572823651368E-1    2.987190945073593E-3    3.639845482247660E-3    2.941363746619458E-3    3.601295175271180E-3    3.483511714685305E-1   -4.132682569352733E-1
 7.839698149600000E9     5.485000224775081E-1   -1.427841462643102E-1    2.969154149472127E-3    3.643244866450100E-3    2.954493347311548E-3    3.612670081394118E-3    3.465031286421026E-1   -4.147001637616601E-1
 7.839731681750000E9     5.479792619232232E-1   -1.449448981011698E-1    3.026346344051760E-3    3.628688522001001E-3    2.971839793737255E-3    3.624192531550001E-3    3.447635941924548E-1   -4.163827401362006E-1
 7.839765213900000E9     5.473233585960369E-1   -1.471959201804116E-1    3.045180849391352E-3    3.627683712216818E-3    3.014533916217533E-3    3.606591425285009E-3    3.430486227185008E-1   -4.177415090244737E-1
 7.839798746050000E9     5.468614305203713E-1   -1.492764808911706E-1    3.084691507994189E-3    3.637094905934693E-3    3.024083862726092E-3    3.617495001678827E-3    3.410849215178081E-1   -4.192269679617060E-1
 7.839832278200000E9     5.462275457293747E-1   -1.515231245578386E-1    3.100746895462339E-3    3.619136845652520E-3    3.070247474403131E-3    3.596676697371211E-3    3.393540093943250E-1   -4.208026592686577E-1
 7.839865810350000E9     5.456026771513406E-1   -1.537602477640437E-1    3.149103926180549E-3    3.623247448106274E-3    3.124578121631742E-3    3.619282268749308E-3    3.375089927867647E-1   -4.222160768463946E-1
 7.839899342500000E9     5.448736315280432E-1   -1.559458703414960E-1    3.188585646553130E-3    3.611139999070928E-3    3.127943066967079E-3    3.579653945410933E-3    3.356134586164840E-1   -4.236648824918727E-1
