#  HZ   S   RI   R     50.00 
! Rohde & Schwarz Vector Network Analyzer 
! Rohde-Schwarz,ZNB20-2Port,1311601062101988,3.16
! Created: UTC 12/23/2023, 3:58:05 AM
! freq[Hz]                re:S11                  im:S11                  re:S21                  im:S21                  re:S12                  im:S12                  re:S22                  im:S22
 7.837340259000000E9     5.662608156495454E-1    1.357323618043831E-2    1.401997398749361E-3    3.747484326615897E-3    1.406766192220589E-3    3.679850760468872E-3    4.549422233864821E-1   -2.902404007956661E-1
 7.837372386725000E9     5.663215280390591E-1    1.139619805565857E-2    1.393257008735284E-3    3.726696725354299E-3    1.448594170375456E-3    3.670045522233758E-3    4.538508975344503E-1   -2.921818642254912E-1
 7.837404514450000E9     5.663185782281424E-1    9.281298257828339E-3    1.404696014052169E-3    3.731202759702270E-3    1.459144525422744E-3    3.677473192512038E-3    4.525801475375149E-1   -2.941054934430117E-1
 7.837436642175000E9     5.664214548159491E-1    7.192218841559869E-3    1.443798733592353E-3    3.759776575306822E-3    1.464309062792056E-3    3.700101870928067E-3    4.513359275168178E-1   -2.959068818930252E-1
 7.837468769900000E9     5.664459376567316E-1    5.013433797504450E-3    1.461964159468536E-3    3.780378316680256E-3    1.506361820562436E-3    3.672178236911219E-3    4.500901596887537E-1   -2.980482379687788E-1
 7.837500897625000E9     5.664942386358134E-1    2.632724320778501E-3    1.470448253667383E-3    3.712505614037934E-3    1.454608684301235E-3    3.660875287236394E-3    4.488989100186961E-1   -2.997734376864272E-1
 7.837533025350000E9     5.665725217586731E-1    7.313412814045398E-4    1.494646198311443E-3    3.723482692262631E-3    1.501427658922982E-3    3.679638926688688E-3    4.475768275551438E-1   -3.015986757789063E-1
 7.837565153075000E9     5.666043618381792E-1   -1.541975245399707E-3    1.496061399837799E-3    3.727048360328746E-3    1.531208898636016E-3    3.674545942026338E-3    4.463795146247549E-1   -3.033359107100314E-1
 7.837597280800000E9     5.664744970772125E-1   -3.585825764513953E-3    1.537013239983885E-3    3.736120142753316E-3    1.517464643062819E-3    3.686656333921256E-3    4.449473169994714E-1   -3.054271664570142E-1
 7.837629408525000E9     5.664687066739204E-1   -5.669344032417098E-3    1.589941418130591E-3    3.728229085129780E-3    1.561979979530116E-3    3.663374686811379E-3    4.438536271431746E-1   -3.072170027875870E-1
 7.837661536250000E9     5.665247840179027E-1   -7.814783223420108E-3    1.571070196942116E-3    3.693125630018114E-3    1.567449147804666E-3    3.680948933682947E-3    4.425652406024220E-1   -3.090511725544421E-1
 7.837693663975000E9     5.666220270319476E-1   -9.949236510952647E-3    1.587631234234431E-3    3.721080693731517E-3    1.589925375115375E-3    3.645682096391484E-3    4.412837689913913E-1   -3.109394031112545E-1
 7.837725791700000E9     5.663814004215605E-1   -1.205426171406126E-2    1.616585881442030E-3    3.723289220749047E-3    1.643913992479855E-3    3.676262829909153E-3    4.400140404748523E-1   -3.127579304467454E-1
 7.837757919425000E9     5.664940450038755E-1   -1.427660563104044E-2    1.607194038423766E-3    3.732937340629639E-3    1.642258441889090E-3    3.690327524128760E-3    4.386105378474844E-1   -3.146089953215771E-1
 7.837790047150000E9     5.663946694610098E-1   -1.660506220489299E-2    1.641491898898614E-3    3.728767008695546E-3    1.636834998167731E-3    3.655685633339402E-3    4.373794315280912E-1   -3.163753475548751E-1
 7.837822174875000E9     5.663131859582919E-1   -1.849409299171133E-2    1.656628315446321E-3    3.729913212150336E-3    1.680580217137241E-3    3.645429685339793E-3    4.360054353642850E-1   -3.182428082230205E-1
 7.837854302600000E9     5.662876161717790E-1   -2.062602818273227E-2    1.674644145358932E-3    3.750572712259061E-3    1.693822417232121E-3    3.648426392932613E-3    4.348694191758515E-1   -3.200899466977501E-1
 7.837886430325000E9     5.662145218933098E-1   -2.275973652811523E-2    1.694056047882844E-3    3.711372144302777E-3    1.675812971952819E-3    3.666725245271267E-3    4.336104432888978E-1   -3.217711185025882E-1
 7.837918558050000E9     5.661423354001383E-1   -2.490393033530900E-2    1.723349755179107E-3    3.704109105578018E-3    1.752729859326082E-3    3.629995045894402E-3    4.320405386386310E-1   -3.236623049127703E-1
 7.837950685775000E9     5.659989235671323E-1   -2.700645699857694E-2    1.726522009877546E-3    3.694108886839982E-3    1.744399619988230E-3    3.645712737604447E-3    4.307326851850660E-1   -3.254416463065750E-1
 7.837982813500000E9     5.658701599094077E-1   -2.912996455920792E-2    1.761493234691266E-3    3.720042552618301E-3    1.737837072594255E-3    3.623593227531463E-3    4.293231040323717E-1   -3.273337320050617E-1
 7.838014941225000E9     5.658512585190737E-1   -3.134281194356896E-2    1.753434068926082E-3    3.715488660493818E-3    1.766569831374799E-3    3.659266346413653E-3    4.279868425800497E-1   -3.290734500524214E-1
 7.838047068950000E9     5.657527295557711E-1   -3.347230952262666E-2    1.792276751852346E-3    3.704642278498458E-3    1.797510233169161E-3    3.673845434687406E-3    4.267055017429125E-1   -3.309430989416634E-1
 7.838079196675000E9     5.655414772603130E-1   -3.569328268401489E-2    1.811912162438555E-3    3.706720618762692E-3    1.815537846737568E-3    3.631101360602990E-3    4.251311482151137E-1   -3.326985137916424E-1
 7.838111324400000E9     5.654317909057394E-1   -3.769800124970484E-2    1.815961594690592E-3    3.688012914331090E-3    1.835551409069598E-3    3.647545341095868E-3    4.237446795089179E-1   -3.345316246659782E-1
 7.838143452125000E9     5.652219501524757E-1   -3.987952732836336E-2    1.843370621923384E-3    3.705342329274562E-3    1.835237190381735E-3    3.634174458611833E-3    4.225151904578578E-1   -3.360437395284127E-1
 7.838175579850000E9     5.651770424033844E-1   -4.198057689527919E-2    1.852848365700873E-3    3.727898552595575E-3    1.870572928054925E-3    3.657564982328234E-3    4.209420953351699E-1   -3.379528025683241E-1
 7.838207707575000E9     5.650817214443120E-1   -4.419582156545578E-2    1.871975674556974E-3    3.703458438186747E-3    1.889448049370126E-3    3.613871076995852E-3    4.197607162722681E-1   -3.396695382416708E-1
 7.838239835300000E9     5.649788279439522E-1   -4.628725306101150E-2    1.930986916260042E-3    3.681600381228547E-3    1.882598318168908E-3    3.642010075671412E-3    4.182232558174591E-1   -3.414713771803783E-1
 7.838271963025000E9     5.646924592062410E-1   -4.836346598202845E-2    1.932838396174023E-3    3.728744231400641E-3    1.954624053407595E-3    3.658500390121985E-3    4.167788023672126E-1   -3.432749068001106E-1
 7.838304090750000E9     5.645128979208245E-1   -5.052996738219562E-2    1.950183996934251E-3    3.687274407276179E-3    1.957557768981549E-3    3.652515224195373E-3    4.153985473570491E-1   -3.450385706308269E-1
 7.838336218475000E9     5.642647061063766E-1   -5.257754318721104E-2    1.955681634511419E-3    3.684962712500163E-3    1.987063040619958E-3    3.644587062619757E-3    4.137884405037823E-1   -3.468499530160409E-1
 7.838368346200000E9     5.641302127397524E-1   -5.484150383358209E-2    1.990563298431757E-3    3.686239678173708E-3    1.969229587646339E-3    3.662709107162577E-3    4.126095936798734E-1   -3.484520391355663E-1
 7.838400473925000E9     5.640555047601012E-1   -5.686052462514504E-2    2.012811015713396E-3    3.687177300622683E-3    2.018358051889589E-3    3.618723455954582E-3    4.111716982727013E-1   -3.501984289248576E-1
 7.838432601650000E9     5.637645462215676E-1   -5.889273291495473E-2    2.025642895247029E-3    3.693750246151269E-3    2.025431622623594E-3    3.640961580389358E-3    4.096748637445974E-1   -3.519505842165341E-1
 7.838464729375000E9     5.636265795530564E-1   -6.115503898344107E-2    2.065011166611019E-3    3.681321940504704E-3    2.054180395373596E-3    3.659741980011475E-3    4.082533279985635E-1   -3.535996169353688E-1
 7.838496857100000E9     5.633618294348810E-1   -6.344565708308091E-2    2.060986298654419E-3    3.676983511174106E-3    2.044029612029344E-3    3.617190159565261E-3    4.066863066950984E-1   -3.554209369912497E-1
 7.838528984825000E9     5.630636717129719E-1   -6.548657675417706E-2    2.072805281211230E-3    3.698764452417579E-3    2.061777672081269E-3    3.619639734150380E-3    4.052187054637051E-1   -3.571678862363852E-1
 7.838561112550000E9     5.628771104586410E-1   -6.766974544296366E-2    2.111857446780551E-3    3.683575296455278E-3    2.110758109000551E-3    3.635263225776706E-3    4.038475746022978E-1   -3.586700280242963E-1
 7.838593240275000E9     5.626665507883394E-1   -6.972287133281048E-2    2.135215780428221E-3    3.678400980419908E-3    2.137423639593311E-3    3.638392679529845E-3    4.023673219903542E-1   -3.603338686895267E-1
 7.838625368000000E9     5.622441257274100E-1   -7.181428687927494E-2    2.168326602383818E-3    3.667563565025916E-3    2.132760215571821E-3    3.596244066199745E-3    4.008905606092609E-1   -3.619956179986083E-1
 7.838657495725000E9     5.621089453615740E-1   -7.396078145811072E-2    2.200405436554308E-3    3.694079773422964E-3    2.130039591586498E-3    3.613964571937080E-3    3.991521711946963E-1   -3.636718424729040E-1
 7.838689623450000E9     5.616403757329490E-1   -7.613830658707131E-2    2.191183151120656E-3    3.669851778944789E-3    2.175073884948516E-3    3.633683290873098E-3    3.976729152211232E-1   -3.654084839805403E-1
 7.838721751175000E9     5.614553514575885E-1   -7.816106499007645E-2    2.210741195781908E-3    3.675577605478090E-3    2.231969620187928E-3    3.655898612291824E-3    3.963186463239604E-1   -3.671103558036226E-1
 7.838753878900000E9     5.611941539704569E-1   -8.022570464857071E-2    2.226835883335453E-3    3.688737546388925E-3    2.239206735938169E-3    3.622728856736790E-3    3.947043143978439E-1   -3.688755101183228E-1
 7.838786006625000E9     5.609077240208181E-1   -8.253071304429228E-2    2.249649440339450E-3    3.659788292569149E-3    2.233716196580910E-3    3.622775334969586E-3    3.932378903336685E-1   -3.702669409119643E-1
 7.838818134350000E9     5.605923249841130E-1   -8.464425478546432E-2    2.294187533988436E-3    3.658999690231536E-3    2.272636535476591E-3    3.622274980918644E-3    3.916330345944641E-1   -3.719530821226951E-1
 7.838850262075000E9     5.601515319493588E-1   -8.672669518031691E-2    2.318451792324918E-3    3.662102587347255E-3    2.286028045648708E-3    3.609875690788990E-3    3.901471747206363E-1   -3.736309481089686E-1
 7.838882389800000E9     5.599879235318344E-1   -8.889202690403179E-2    2.331366357876218E-3    3.664875424880820E-3    2.298431354386834E-3    3.586755269878987E-3    3.885038139272361E-1   -3.754390124784466E-1
 7.838914517525000E9     5.597209610984277E-1   -9.091184413300687E-2    2.341243584497369E-3    3.668428882388191E-3    2.333570167641529E-3    3.589179337689926E-3    3.870461726538382E-1   -3.769957403187479E-1
 7.838946645250000E9     5.593233708050140E-1   -9.318725714138694E-2    2.370658866263763E-3    3.655100764549336E-3    2.337670740524453E-3    3.617734518787614E-3    3.855670926987609E-1   -3.787012934140825E-1
 7.838978772975000E9     5.588210216563190E-1   -9.528703946975933E-2    2.393509337091918E-3    3.657125581503184E-3    2.380134434399189E-3    3.625081530535391E-3    3.838455455081809E-1   -3.802011785928179E-1
 7.839010900700000E9     5.584568643854990E-1   -9.745645764101973E-2    2.421872905209251E-3    3.652499559911655E-3    2.396994692562887E-3    3.613479295920641E-3    3.824177469883314E-1   -3.817243904348733E-1
 7.839043028425000E9     5.581990603456024E-1   -9.955525704327145E-2    2.405682592990440E-3    3.668139584832862E-3    2.409047218238680E-3    3.553197415962662E-3    3.807704787873061E-1   -3.834008459919464E-1
 7.839075156150000E9     5.578111478665234E-1   -1.015078567602303E-1    2.456241033529560E-3    3.636807807269978E-3    2.417545283949573E-3    3.595807503564259E-3    3.790355397362052E-1   -3.849871343244780E-1
 7.839107283875000E9     5.573888503762660E-1   -1.037450794555104E-1    2.490909019762742E-3    3.634523505338321E-3    2.463142362333043E-3    3.601787735468985E-3    3.775049460552130E-1   -3.864427473832255E-1
 7.839139411600000E9     5.569715256500113E-1   -1.059178994378043E-1    2.518011818470324E-3    3.646310851183215E-3    2.486970806303751E-3    3.620895998391858E-3    3.758898598942398E-1   -3.882119690381641E-1
 7.839171539325000E9     5.565594076168622E-1   -1.080108764798714E-1    2.548078545104529E-3    3.662983035577130E-3    2.490236441730328E-3    3.601623885811468E-3    3.741767381815743E-1   -3.896995611201385E-1
 7.839203667050000E9     5.561810723316533E-1   -1.100229897065216E-1    2.533543413167486E-3    3.639571231688318E-3    2.508932624437992E-3    3.575982551161518E-3    3.726327277069628E-1   -3.913605267514869E-1
 7.839235794775000E9     5.558358831384932E-1   -1.121273439007262E-1    2.581264131199630E-3    3.660478217010952E-3    2.540131698466568E-3    3.562159724173777E-3    3.709442735117663E-1   -3.927151646691203E-1
 7.839267922500000E9     5.553311479048049E-1   -1.142135059377660E-1    2.610738852352979E-3    3.638272570664621E-3    2.560362018674769E-3    3.618171270732319E-3    3.693945311944027E-1   -3.944041489194007E-1
 7.839300050225000E9     5.548904810200230E-1   -1.163922907049545E-1    2.630328527545063E-3    3.622339794230678E-3    2.569990159089213E-3    3.580627382392025E-3    3.678004072780072E-1   -3.958251075238587E-1
 7.839332177950000E9     5.544834253880742E-1   -1.183700375140314E-1    2.645907095554628E-3    3.635574521863092E-3    2.628728110474947E-3    3.605810847841585E-3    3.661424629363650E-1   -3.973915214112576E-1
 7.839364305675000E9     5.540061639901706E-1   -1.205599298224413E-1    2.676178425578248E-3    3.616069756696517E-3    2.651858394748185E-3    3.583858068104020E-3    3.643840222623452E-1   -3.990964054449536E-1
 7.839396433400000E9     5.535285766152769E-1   -1.226521493602901E-1    2.683391096044818E-3    3.633985313053356E-3    2.675479581981882E-3    3.579494354231814E-3    3.627619098356921E-1   -4.006582733315452E-1
 7.839428561125000E9     5.530963497391862E-1   -1.249287393850310E-1    2.719866130248883E-3    3.615650830633664E-3    2.685573503592854E-3    3.608402524074286E-3    3.610537016205149E-1   -4.022426907404532E-1
 7.839460688850000E9     5.525858621735188E-1   -1.268994388471468E-1    2.772476262837971E-3    3.632916730257618E-3    2.713022064564349E-3    3.577886579983834E-3    3.594291577642627E-1   -4.035259735854705E-1
 7.839492816575000E9     5.519903298254851E-1   -1.290152454322236E-1    2.748121916117028E-3    3.612298894171579E-3    2.730355894347279E-3    3.552975118514202E-3    3.578089243501856E-1   -4.050738072251679E-1
 7.839524944300000E9     5.517232083218037E-1   -1.311365591428909E-1    2.782396538950290E-3    3.587138979426272E-3    2.787979351367806E-3    3.578749394717457E-3    3.560910557151301E-1   -4.065207454263678E-1
 7.839557072025000E9     5.510836986995287E-1   -1.332398789914052E-1    2.830737103129091E-3    3.620450427479658E-3    2.768079001286468E-3    3.553296639175392E-3    3.542879585830737E-1   -4.079876323120095E-1
 7.839589199750000E9     5.506098002602180E-1   -1.353131805154435E-1    2.848222465321353E-3    3.602485883134213E-3    2.828977024507607E-3    3.566046077006042E-3    3.527489843109733E-1   -4.095336620732949E-1
 7.839621327475000E9     5.500538558975416E-1   -1.374187226065736E-1    2.884073986283561E-3    3.633345302086185E-3    2.823331729944448E-3    3.566000464047671E-3    3.510898109023073E-1   -4.111760705541638E-1
 7.839653455200000E9     5.496452438764856E-1   -1.395105504260155E-1    2.866883041493842E-3    3.626595473388313E-3    2.867205123333325E-3    3.575148714175205E-3    3.493794448149346E-1   -4.124316207169988E-1
 7.839685582925000E9     5.490480352528424E-1   -1.416016264042821E-1    2.902653674426090E-3    3.619256290770104E-3    2.880393799370003E-3    3.590766235731404E-3    3.476010691461441E-1   -4.139127845903127E-1
 7.839717710650000E9     5.483848286913976E-1   -1.437082101408749E-1    2.956135466334198E-3    3.592192440207992E-3    2.892038823345761E-3    3.573557287258037E-3    3.459066680259759E-1   -4.154167787665601E-1
 7.839749838375000E9     5.479038668926491E-1   -1.458508522996959E-1    2.982076998993361E-3    3.589982250503321E-3    2.949982502182382E-3    3.584792642652261E-3    3.440497660813431E-1   -4.169454084268201E-1
 7.839781966100000E9     5.474353855396497E-1   -1.479389263962971E-1    3.009945587906961E-3    3.592991782748215E-3    2.935886060299134E-3    3.577421742378230E-3    3.423278154039464E-1   -4.183231094699690E-1
 7.839814093825000E9     5.467916448878650E-1   -1.499077776392555E-1    3.031809028914922E-3    3.598895797515980E-3    3.006648177944013E-3    3.561964108180756E-3    3.405665524907056E-1   -4.196616422210141E-1
 7.839846221550000E9     5.462539140040342E-1   -1.520797400518336E-1    3.046003815281875E-3    3.569483418308376E-3    2.992581755870088E-3    3.544142541129273E-3    3.389041724011983E-1   -4.211704917469578E-1
 7.839878349275000E9     5.455526929492983E-1   -1.541240402931932E-1    3.081868073072707E-3    3.586322183056758E-3    3.045290602305737E-3    3.519943712720507E-3    3.372195214142887E-1   -4.225262705107743E-1
 7.839910477000000E9     5.450739320488506E-1   -1.562745432194334E-1    3.105119899878122E-3    3.571014969769055E-3    3.061958885137655E-3    3.552532723464551E-3    3.353325651245941E-1   -4.238838052060977E-1
 7.839942604725000E9     5.443107971515345E-1   -1.581806631128861E-1    3.115312181955863E-3    3.577457599494314E-3    3.098713388824453E-3    3.567004969071608E-3    3.336866853562401E-1   -4.253489361482042E-1
 7.839974732450000E9     5.438704302023216E-1   -1.602509324721567E-1    3.154381193046493E-3    3.576150510578637E-3    3.116934379067840E-3    3.554173735631171E-3    3.317964562872850E-1   -4.267471072380175E-1
 7.840006860175000E9     5.430917988458641E-1   -1.623441315803967E-1    3.163110827783973E-3    3.536902567904416E-3    3.132972848852627E-3    3.555811549768719E-3    3.300458573757619E-1   -4.281970586263572E-1
 7.840038987900000E9     5.424762547651720E-1   -1.644690788513995E-1    3.235164658400014E-3    3.584778993497708E-3    3.159024732175011E-3    3.530259629215377E-3    3.282228854077165E-1   -4.295609433305460E-1
 7.840071115625000E9     5.419488335086695E-1   -1.666151778436230E-1    3.255987879261942E-3    3.596672771602753E-3    3.176625866779778E-3    3.523022669810804E-3    3.264870886288895E-1   -4.308694879953565E-1
 7.840103243350000E9     5.413202263000715E-1   -1.686227200302985E-1    3.275299405330086E-3    3.561440356716071E-3    3.192188549562687E-3    3.565437454799029E-3    3.246622846814495E-1   -4.322189000553913E-1
 7.840135371075000E9     5.405266806030672E-1   -1.707050129864154E-1    3.305807732962530E-3    3.555536121359337E-3    3.245804256083556E-3    3.538403569079385E-3    3.229849855309962E-1   -4.336177464962218E-1
 7.840167498800000E9     5.398352061650360E-1   -1.727250401575115E-1    3.347856456486060E-3    3.541866246963640E-3    3.289959397583854E-3    3.503880190221796E-3    3.211546808975682E-1   -4.349827736235098E-1
 7.840199626525000E9     5.391776662849688E-1   -1.748635912679864E-1    3.375486629036572E-3    3.539442587916876E-3    3.314614731120454E-3    3.499866216974506E-3    3.193311297915909E-1   -4.363811363729315E-1
 7.840231754250000E9     5.385699536689232E-1   -1.769877058117417E-1    3.407728884986623E-3    3.568004194909302E-3    3.335114746806081E-3    3.545286391124936E-3    3.175626409121114E-1   -4.377582409852170E-1
