#  HZ   S   RI   R     50.00 
! Rohde & Schwarz Vector Network Analyzer 
! Rohde-Schwarz,ZNB20-2Port,1311601062101988,3.16
! Created: UTC 12/23/2023, 3:59:34 AM
! freq[Hz]                re:S11                  im:S11                  re:S21                  im:S21                  re:S12                  im:S12                  re:S22                  im:S22
 7.837300221000000E9     5.662339020673341E-1    1.607889373589584E-2    1.373495942737310E-3    3.732439240568677E-3    1.362156502808752E-3    3.661765821721927E-3    4.564616372492620E-1   -2.878121621367887E-1
 7.837332702550000E9     5.661345436588030E-1    1.411042238080694E-2    1.380709417486939E-3    3.734462970663051E-3    1.379012154605116E-3    3.645093036169511E-3    4.553594769764447E-1   -2.897681464810722E-1
 7.837365184100000E9     5.662687983855617E-1    1.182988345186328E-2    1.413237719927864E-3    3.721349183480460E-3    1.394786209807436E-3    3.659544511369768E-3    4.540420537747241E-1   -2.917321732229994E-1
 7.837397665650000E9     5.663231713375277E-1    9.792345691921982E-3    1.406024124694034E-3    3.732694474387701E-3    1.428039217886477E-3    3.674691203039475E-3    4.529577892818122E-1   -2.935306466119598E-1
 7.837430147200000E9     5.662630270092275E-1    7.495735316572517E-3    1.436586684059668E-3    3.737031967747086E-3    1.460130309104289E-3    3.656852374762792E-3    4.515992471284954E-1   -2.954780164125766E-1
 7.837462628750000E9     5.664403699216746E-1    5.492348979925705E-3    1.442205596007023E-3    3.759859818216539E-3    1.453367205101832E-3    3.638793810466211E-3    4.504242757120367E-1   -2.974226452863218E-1
 7.837495110300000E9     5.664933145127936E-1    3.245123039418792E-3    1.488095868668972E-3    3.710265903088763E-3    1.483407706759681E-3    3.655884041441048E-3    4.492496583587688E-1   -2.993333513046487E-1
 7.837527591850000E9     5.664604962984650E-1    1.082287798763855E-3    1.484132611274143E-3    3.718771223535584E-3    1.475719253726112E-3    3.683500028122257E-3    4.478703425305094E-1   -3.011127789456548E-1
 7.837560073400000E9     5.665327922465033E-1   -1.119002763254631E-3    1.483261088528579E-3    3.741865938744383E-3    1.467414450173486E-3    3.653840327112343E-3    4.466776053448624E-1   -3.032597290556279E-1
 7.837592554950000E9     5.665854129948380E-1   -3.141093910621044E-3    1.515261301717645E-3    3.738187132542422E-3    1.549101705676574E-3    3.674305542742141E-3    4.454066684014444E-1   -3.049625430167416E-1
 7.837625036500000E9     5.665829146980741E-1   -5.381800924452519E-3    1.534670428001282E-3    3.692692494437722E-3    1.564591674466590E-3    3.638854905187810E-3    4.439590583856441E-1   -3.068875455274186E-1
 7.837657518050000E9     5.664963669340197E-1   -7.576975414502671E-3    1.570128571664500E-3    3.726930159005848E-3    1.552892187825897E-3    3.659215319919285E-3    4.428456985978825E-1   -3.088440249955022E-1
 7.837689999600000E9     5.665409804247250E-1   -9.752854566677073E-3    1.575247307134141E-3    3.715741211469371E-3    1.587670383252327E-3    3.659783985273632E-3    4.414659168805345E-1   -3.106082481596211E-1
 7.837722481150000E9     5.664291699341755E-1   -1.180998158542320E-2    1.615679639596055E-3    3.739495972898090E-3    1.596436038365967E-3    3.651333750666892E-3    4.401764369677061E-1   -3.124417988055365E-1
 7.837754962700000E9     5.663790644588210E-1   -1.404120425824126E-2    1.601171321120322E-3    3.738514900747375E-3    1.680786293622192E-3    3.670978924973475E-3    4.389997867263965E-1   -3.143564400592323E-1
 7.837787444250000E9     5.663674376662992E-1   -1.623556941952544E-2    1.646397518094318E-3    3.701352044377828E-3    1.626596101932609E-3    3.663352539110925E-3    4.375165615353063E-1   -3.161615627475880E-1
 7.837819925800000E9     5.662844555271075E-1   -1.830979618625782E-2    1.667580799116302E-3    3.715115427055779E-3    1.669234762894959E-3    3.629195741199792E-3    4.362243906538125E-1   -3.181425628023890E-1
 7.837852407350000E9     5.663395691172204E-1   -2.049498528981367E-2    1.673623819820910E-3    3.717781061668866E-3    1.660036600657611E-3    3.662041614142787E-3    4.348593787745287E-1   -3.199190552669846E-1
 7.837884888900000E9     5.661703983956993E-1   -2.278501835001249E-2    1.706094226294463E-3    3.704564105589195E-3    1.695929323505222E-3    3.647880663778873E-3    4.335559292364446E-1   -3.218912280942404E-1
 7.837917370450000E9     5.661746290128584E-1   -2.488879366842328E-2    1.717338731173812E-3    3.707906835020050E-3    1.692057601399922E-3    3.668839117248248E-3    4.322034389404381E-1   -3.235657324281795E-1
 7.837949852000000E9     5.660767069429861E-1   -2.703873950503833E-2    1.741081894485997E-3    3.702811111755899E-3    1.718677648016877E-3    3.645078880701756E-3    4.308912078533854E-1   -3.253806243307736E-1
 7.837982333550000E9     5.659207820564736E-1   -2.927380567690925E-2    1.745877613063557E-3    3.712368797112265E-3    1.775613059655269E-3    3.662218807447484E-3    4.295010731362734E-1   -3.271434873390797E-1
 7.838014815100000E9     5.657990683130889E-1   -3.148505399769546E-2    1.759447625612980E-3    3.713235240784012E-3    1.754736907366025E-3    3.662121021362499E-3    4.280418987535787E-1   -3.291534577293272E-1
 7.838047296650000E9     5.656792979070263E-1   -3.351952645132834E-2    1.804432137987622E-3    3.714730983005702E-3    1.771844037669903E-3    3.641256342421806E-3    4.267080691817642E-1   -3.308707247315483E-1
 7.838079778200000E9     5.655737318486999E-1   -3.567169092851800E-2    1.833714711849510E-3    3.710170628751916E-3    1.775852572390536E-3    3.638200809412444E-3    4.252525864776115E-1   -3.326947869351001E-1
 7.838112259750000E9     5.655405764741593E-1   -3.781004234266085E-2    1.825656274313589E-3    3.704917915337803E-3    1.826339957778173E-3    3.635927361274946E-3    4.238993913739824E-1   -3.344086193599817E-1
 7.838144741300000E9     5.654052068559822E-1   -3.992528375322418E-2    1.847796771047840E-3    3.672905641154480E-3    1.868618831851629E-3    3.640388252493056E-3    4.225405576947618E-1   -3.363927386134276E-1
 7.838177222850000E9     5.651157655948219E-1   -4.199865400319978E-2    1.879593813500617E-3    3.705293569953652E-3    1.878092710913597E-3    3.642785241992953E-3    4.210971653913930E-1   -3.380748118953750E-1
 7.838209704400000E9     5.650288323246685E-1   -4.420605507285306E-2    1.899627196696241E-3    3.682132759085628E-3    1.885448469935679E-3    3.642874011665844E-3    4.196376063833765E-1   -3.398725111305437E-1
 7.838242185950000E9     5.647638114922028E-1   -4.656566226714206E-2    1.890859677674418E-3    3.718689515494233E-3    1.933852140900734E-3    3.645575783792663E-3    4.182372251464823E-1   -3.416214463480292E-1
 7.838274667500000E9     5.646883161623859E-1   -4.863803675831309E-2    1.923185171082300E-3    3.672810245026835E-3    1.954985154014489E-3    3.623254066390748E-3    4.168726767728371E-1   -3.433679645861671E-1
 7.838307149050000E9     5.645796594335447E-1   -5.088834469861089E-2    1.940672054679981E-3    3.692602451770233E-3    1.927974931235862E-3    3.640055134519687E-3    4.155557787772514E-1   -3.450961622131666E-1
 7.838339630600000E9     5.642307794287317E-1   -5.296584757112507E-2    1.962030222848217E-3    3.708049538523556E-3    1.968789187565160E-3    3.634600117987896E-3    4.140388448260772E-1   -3.469786395174964E-1
 7.838372112150000E9     5.642074183612069E-1   -5.504260273670520E-2    2.001715626535871E-3    3.687205043485380E-3    1.987370891744606E-3    3.645690541436875E-3    4.124265968008037E-1   -3.485874045234714E-1
 7.838404593700000E9     5.639395962115458E-1   -5.719522302454576E-2    1.993054923762926E-3    3.684612902509787E-3    1.989595590562266E-3    3.601276147196420E-3    4.108767296403050E-1   -3.504302761266082E-1
 7.838437075250000E9     5.636684381142572E-1   -5.929874125090466E-2    2.051777413538248E-3    3.673602229180656E-3    2.025275983818492E-3    3.615442327855880E-3    4.095628549822002E-1   -3.522087909757572E-1
 7.838469556800000E9     5.635267528374632E-1   -6.154634817117505E-2    2.032103583937155E-3    3.689366714994562E-3    2.014709037638799E-3    3.613457004379728E-3    4.082091646223302E-1   -3.537984277676933E-1
 7.838502038350000E9     5.632935119915121E-1   -6.371786197195009E-2    2.055782504474783E-3    3.687798937810355E-3    2.070000514712885E-3    3.626997351407010E-3    4.064242190354215E-1   -3.555100709092192E-1
 7.838534519900000E9     5.630201242433319E-1   -6.581854774307180E-2    2.091980537890243E-3    3.684914780524505E-3    2.077641314795599E-3    3.650815291161713E-3    4.051324398368907E-1   -3.572444558922939E-1
 7.838567001450000E9     5.625647658704679E-1   -6.803802734173930E-2    2.096447909788759E-3    3.679807815564061E-3    2.085125786504924E-3    3.585770609230786E-3    4.035225540107044E-1   -3.589996005450474E-1
 7.838599483000000E9     5.625971097537936E-1   -7.022770944151388E-2    2.103145804274478E-3    3.686664802261026E-3    2.134989356528081E-3    3.621847662797523E-3    4.020922657768227E-1   -3.607050407695659E-1
 7.838631964550000E9     5.622486141651630E-1   -7.240788747643664E-2    2.167513972451362E-3    3.669512404346526E-3    2.136888094927843E-3    3.619979761894575E-3    4.005877446745708E-1   -3.624706318885370E-1
 7.838664446100000E9     5.619500503738747E-1   -7.449369049123689E-2    2.188533446613235E-3    3.687263297415977E-3    2.140122313757961E-3    3.656718950850066E-3    3.989980470511608E-1   -3.640880710314146E-1
 7.838696927650000E9     5.616503078031001E-1   -7.658766795468754E-2    2.198238479064647E-3    3.677644688298177E-3    2.182876026572587E-3    3.615546062775859E-3    3.974686432888763E-1   -3.658758252879524E-1
 7.838729409200000E9     5.615395318838903E-1   -7.868683215230918E-2    2.217023592798140E-3    3.662518768916455E-3    2.167311364810776E-3    3.580876356268072E-3    3.958881389383965E-1   -3.674579844513478E-1
 7.838761890750000E9     5.610726675601424E-1   -8.095843660347632E-2    2.241846372763987E-3    3.678504530488947E-3    2.221284234378606E-3    3.630711751070181E-3    3.942809579033469E-1   -3.690478054681549E-1
 7.838794372300000E9     5.607825938166424E-1   -8.309083106957957E-2    2.239589374894591E-3    3.666472820877482E-3    2.235649547244922E-3    3.596362901196875E-3    3.929043449461643E-1   -3.708223850246802E-1
 7.838826853850000E9     5.604594881798286E-1   -8.518529463708463E-2    2.288997790498917E-3    3.667628134802708E-3    2.245586609929151E-3    3.591545597821309E-3    3.914793529510250E-1   -3.724357967949603E-1
 7.838859335400000E9     5.601263716257233E-1   -8.736604652379183E-2    2.273746062983577E-3    3.641372279887809E-3    2.274722782115535E-3    3.607518832705828E-3    3.898116012497645E-1   -3.740535989279067E-1
 7.838891816950000E9     5.597130666891420E-1   -8.943546634174523E-2    2.326420692250464E-3    3.668798609849321E-3    2.302298964300123E-3    3.619859415973494E-3    3.881762307959971E-1   -3.757815906726008E-1
 7.838924298500000E9     5.594465049253942E-1   -9.170064266413126E-2    2.355912470280827E-3    3.647180622745055E-3    2.349957984887326E-3    3.608392099812021E-3    3.866048488955241E-1   -3.775029219854455E-1
 7.838956780050000E9     5.591829757305160E-1   -9.386686559439526E-2    2.362120832099860E-3    3.645395581694906E-3    2.335634263715140E-3    3.580266212710603E-3    3.849591439112501E-1   -3.790314436808368E-1
 7.838989261600000E9     5.588580785380856E-1   -9.588488983311004E-2    2.409131586307226E-3    3.656235090921088E-3    2.380462789805168E-3    3.640664199722063E-3    3.834806160308653E-1   -3.806995801181235E-1
 7.839021743150000E9     5.582939153794789E-1   -9.815866146046937E-2    2.417049540735526E-3    3.666290898498758E-3    2.372778958267297E-3    3.603601525022535E-3    3.818576389823409E-1   -3.823430206333053E-1
 7.839054224700000E9     5.580617742705811E-1   -1.001864723758621E-1    2.466470941516565E-3    3.655563564599505E-3    2.431272210948894E-3    3.615819923384537E-3    3.801349475096498E-1   -3.838969495143855E-1
 7.839086706250000E9     5.576180740969092E-1   -1.023346136777454E-1    2.469391589326987E-3    3.621834398418265E-3    2.445276308317332E-3    3.596927472007729E-3    3.785979647135741E-1   -3.855143043629653E-1
 7.839119187800000E9     5.572488794701429E-1   -1.044488483528037E-1    2.473088822573981E-3    3.644843865677411E-3    2.471462937985414E-3    3.577529329877300E-3    3.768955741284356E-1   -3.871668250229955E-1
 7.839151669350000E9     5.566135595516489E-1   -1.066403944457136E-1    2.499894047104929E-3    3.647008611932140E-3    2.432605249782707E-3    3.605026026374973E-3    3.754215424811947E-1   -3.887040943400617E-1
 7.839184150900000E9     5.564010921497727E-1   -1.087181769780104E-1    2.506858874485464E-3    3.630120335313432E-3    2.503013283958046E-3    3.620353216057492E-3    3.736829864164906E-1   -3.902841392675737E-1
 7.839216632450000E9     5.559873392393976E-1   -1.109623493133408E-1    2.571899784239426E-3    3.635259736148123E-3    2.518021997667866E-3    3.592808029583225E-3    3.720829256512247E-1   -3.919976338768737E-1
 7.839249114000000E9     5.555220261794241E-1   -1.130403487810699E-1    2.568624894639436E-3    3.637880882058570E-3    2.544612417965658E-3    3.576477283319535E-3    3.704740070460716E-1   -3.935055538736131E-1
 7.839281595550000E9     5.552416326917506E-1   -1.151785871399558E-1    2.571802905009829E-3    3.624196363994547E-3    2.564053798035339E-3    3.584260992299821E-3    3.687493426000664E-1   -3.950724277504354E-1
 7.839314077100000E9     5.545874204406130E-1   -1.173882443827079E-1    2.629076954221447E-3    3.602023174133893E-3    2.638468741270958E-3    3.545383188862548E-3    3.672668059755448E-1   -3.965583981216896E-1
 7.839346558650000E9     5.543430924394911E-1   -1.193105804641858E-1    2.659430887230942E-3    3.606138827153613E-3    2.603429029236775E-3    3.569394565981891E-3    3.655053710438252E-1   -3.982231376217319E-1
 7.839379040200000E9     5.537780245778486E-1   -1.215567249356544E-1    2.649909346041667E-3    3.601658616325931E-3    2.633591483842084E-3    3.604821511414566E-3    3.637044337713062E-1   -3.995866954075254E-1
 7.839411521750000E9     5.532705477467699E-1   -1.236876545498552E-1    2.700744822991791E-3    3.647739473742975E-3    2.662593011536019E-3    3.592349245066491E-3    3.620933748933871E-1   -4.012125911533063E-1
 7.839444003300000E9     5.528506463001885E-1   -1.258048660111994E-1    2.717186030482064E-3    3.607769803092704E-3    2.671992553656448E-3    3.572812714963692E-3    3.603844956017689E-1   -4.027539248335612E-1
 7.839476484850000E9     5.523706636979535E-1   -1.280070196354175E-1    2.742704323984510E-3    3.624718513230838E-3    2.706307272334959E-3    3.580306574999032E-3    3.587338306867781E-1   -4.043384162453306E-1
 7.839508966400000E9     5.519057749477153E-1   -1.300653080025544E-1    2.750977080011562E-3    3.611815298728198E-3    2.715469746948824E-3    3.533295400739365E-3    3.571131518794134E-1   -4.060121839207164E-1
 7.839541447950000E9     5.512952701609719E-1   -1.321790349087937E-1    2.794425302461019E-3    3.606439870936045E-3    2.769823583664606E-3    3.546364794657948E-3    3.552965439379746E-1   -4.072999681472947E-1
 7.839573929500000E9     5.509034093057446E-1   -1.342814982139030E-1    2.809948906600426E-3    3.606993685579239E-3    2.778759572030927E-3    3.576967563948683E-3    3.535692627460821E-1   -4.087877268193874E-1
 7.839606411050000E9     5.505438564400738E-1   -1.361936136803531E-1    2.847499751432769E-3    3.596279126159099E-3    2.786978928544093E-3    3.588051696851609E-3    3.517868921308742E-1   -4.104014873158506E-1
 7.839638892600000E9     5.499146675105053E-1   -1.385096288188216E-1    2.854299410382041E-3    3.587952110052781E-3    2.824377324034345E-3    3.534069341086565E-3    3.500631304651418E-1   -4.119620807914809E-1
 7.839671374150000E9     5.493989801811752E-1   -1.405567856050732E-1    2.876955514223944E-3    3.603979471387441E-3    2.862909191029857E-3    3.559684397408871E-3    3.483837881424131E-1   -4.131223242707905E-1
 7.839703855700000E9     5.486917746169432E-1   -1.428107782329121E-1    2.920972588840351E-3    3.562244723921268E-3    2.884083238381493E-3    3.526317279030824E-3    3.467978385406749E-1   -4.148778050050083E-1
 7.839736337250000E9     5.481209807988059E-1   -1.448294876380250E-1    2.947794869412461E-3    3.566646469519072E-3    2.921730901691785E-3    3.552216710997450E-3    3.449656049780488E-1   -4.161775980554361E-1
 7.839768818800000E9     5.476448277097613E-1   -1.471154674005864E-1    2.973200745280660E-3    3.599222428504638E-3    2.918079100480833E-3    3.527821116294396E-3    3.431906278353692E-1   -4.176689698271648E-1
 7.839801300350000E9     5.470485138860941E-1   -1.490196383976694E-1    2.983937339717890E-3    3.574699654703347E-3    2.953459244874279E-3    3.537788223661490E-3    3.413491170324049E-1   -4.192098984679359E-1
 7.839833781900000E9     5.463261595432070E-1   -1.512653110931388E-1    3.005159315538242E-3    3.581763662521469E-3    2.957044730336980E-3    3.525713786380194E-3    3.396344574634981E-1   -4.207132452545293E-1
 7.839866263450000E9     5.459345933088794E-1   -1.533058113571316E-1    3.068989947456902E-3    3.567568557986243E-3    3.013206288508101E-3    3.550882248752773E-3    3.377420126791909E-1   -4.219190863908088E-1
 7.839898745000000E9     5.453286812737120E-1   -1.554674616761011E-1    3.064090423560653E-3    3.572239949021398E-3    3.023393726762572E-3    3.553215391822028E-3    3.362477479942954E-1   -4.233621981532601E-1
 7.839931226550000E9     5.445727739531405E-1   -1.574619293333396E-1    3.094601146114195E-3    3.543847016425264E-3    3.064782195521465E-3    3.541698253482063E-3    3.343484253894830E-1   -4.249543432068946E-1
 7.839963708100000E9     5.439885455274213E-1   -1.595144881837139E-1    3.128622524539620E-3    3.551306094338282E-3    3.080979737455693E-3    3.543936710457273E-3    3.325202484954133E-1   -4.263845494548459E-1
 7.839996189650000E9     5.434453816798841E-1   -1.617889970811343E-1    3.168242530413693E-3    3.561731585878396E-3    3.152508036379427E-3    3.503010015452270E-3    3.307373676932013E-1   -4.277214133981335E-1
 7.840028671200000E9     5.427244918245132E-1   -1.638403472982171E-1    3.190993698714933E-3    3.546680187918578E-3    3.136468261569833E-3    3.568722022608483E-3    3.289891921151729E-1   -4.289861180238250E-1
 7.840061152750000E9     5.421010282090228E-1   -1.659085644971507E-1    3.227736117749247E-3    3.553409374110038E-3    3.141618424863395E-3    3.546074957659773E-3    3.271531435739825E-1   -4.304227307615842E-1
 7.840093634300000E9     5.415281257788778E-1   -1.681743951203968E-1    3.244766746198494E-3    3.544976259627421E-3    3.191658346563713E-3    3.550507227437536E-3    3.252947756618828E-1   -4.318832500268635E-1
 7.840126115850000E9     5.408762640262843E-1   -1.702124735774442E-1    3.280108157340244E-3    3.573962562096447E-3    3.228045959566381E-3    3.517244941507882E-3    3.235220634588418E-1   -4.333674664698889E-1
 7.840158597400000E9     5.400898901333049E-1   -1.722621531852793E-1    3.300258087281795E-3    3.552068731853823E-3    3.237799631523843E-3    3.513574802165439E-3    3.217700513115295E-1   -4.347885105259681E-1
 7.840191078950000E9     5.395070475693265E-1   -1.743228161540250E-1    3.327277079295872E-3    3.573349414236886E-3    3.270253025282658E-3    3.549866229490275E-3    3.199819328233603E-1   -4.359652034971672E-1
 7.840223560500000E9     5.387415380865048E-1   -1.764041148419340E-1    3.359976336739120E-3    3.522673677452057E-3    3.342421212655846E-3    3.518643203355637E-3    3.181083798257847E-1   -4.373266558078938E-1
