#  HZ   S   RI   R     50.00 
! Rohde & Schwarz Vector Network Analyzer 
! Rohde-Schwarz,ZNB20-2Port,1311601062101988,3.16
! Created: UTC 12/23/2023, 4:00:46 AM
! freq[Hz]                re:S11                  im:S11                  re:S21                  im:S21                  re:S12                  im:S12                  re:S22                  im:S22
 7.837330311000000E9     5.661591633687016E-1    1.403759010089031E-2    1.374802846464048E-3    3.735037803610792E-3    1.427653704275823E-3    3.662536138932712E-3    4.554579972360165E-1   -2.895769108156035E-1
 7.837362815150000E9     5.662265138248335E-1    1.181175008253946E-2    1.383656746745124E-3    3.733556181202918E-3    1.402703472456517E-3    3.681949487525725E-3    4.542312798317931E-1   -2.916584669730406E-1
 7.837395319300000E9     5.662654389892422E-1    9.777591594148656E-3    1.390527138522764E-3    3.734654061968660E-3    1.422701962419053E-3    3.648646675447486E-3    4.529662073327776E-1   -2.935726662969188E-1
 7.837427823450000E9     5.663715742305618E-1    7.605166311924938E-3    1.415959853629764E-3    3.731127241787073E-3    1.451472516705763E-3    3.664654941132070E-3    4.515972594315784E-1   -2.954174948973113E-1
 7.837460327600000E9     5.664082919569565E-1    5.318402575023749E-3    1.411477777685802E-3    3.754937936202509E-3    1.464652406518914E-3    3.667288483173550E-3    4.503937208662214E-1   -2.973657896944331E-1
 7.837492831750000E9     5.664580756281625E-1    3.276454557230075E-3    1.466489858550505E-3    3.707855712305080E-3    1.467409339817450E-3    3.670049568255074E-3    4.491680650164792E-1   -2.993125872428471E-1
 7.837525335900000E9     5.664203393598060E-1    1.076436779214655E-3    1.480745442113456E-3    3.733776031036323E-3    1.484176555776214E-3    3.651619754426310E-3    4.480029989595857E-1   -3.011067355448857E-1
 7.837557840050000E9     5.665629886694528E-1   -1.136742047248877E-3    1.531786379431498E-3    3.715220018644647E-3    1.509993259311208E-3    3.652978250020041E-3    4.466953736138166E-1   -3.030020027503505E-1
 7.837590344200000E9     5.665149676796212E-1   -3.103114932562925E-3    1.517796387641113E-3    3.739582572515161E-3    1.529917502144316E-3    3.658577657982458E-3    4.454720504790178E-1   -3.048571549449229E-1
 7.837622848350000E9     5.664435733500263E-1   -5.319669910349191E-3    1.536602505242896E-3    3.713595898110977E-3    1.559598479086636E-3    3.685562219685272E-3    4.441510011559404E-1   -3.068495752147569E-1
 7.837655352500000E9     5.665430733766201E-1   -7.576559799628448E-3    1.536635867756825E-3    3.716417903027814E-3    1.561439147480880E-3    3.613435202164565E-3    4.429036434902766E-1   -3.086359824401996E-1
 7.837687856650000E9     5.665309911007410E-1   -9.779312352683246E-3    1.575584127834052E-3    3.719848323476126E-3    1.587777949688945E-3    3.651735231294456E-3    4.416087916405761E-1   -3.105512919581766E-1
 7.837720360800000E9     5.664561740610402E-1   -1.183714717286011E-2    1.588549678477363E-3    3.718942120893620E-3    1.601923544318810E-3    3.656044693031974E-3    4.401417088752237E-1   -3.124491679478337E-1
 7.837752864950000E9     5.663409022181419E-1   -1.398631530086399E-2    1.608723415383977E-3    3.705632708102188E-3    1.629871159496187E-3    3.627679369328208E-3    4.390375202011351E-1   -3.142870201607486E-1
 7.837785369100000E9     5.663472618665333E-1   -1.605402388008178E-2    1.618569581356195E-3    3.719192165239247E-3    1.647112778589336E-3    3.640321339316679E-3    4.376847686646623E-1   -3.161212922020195E-1
 7.837817873250000E9     5.664608126661055E-1   -1.836452925443266E-2    1.671990584062179E-3    3.723151219082818E-3    1.665722938932062E-3    3.635036434522081E-3    4.364118047790853E-1   -3.180114125591223E-1
 7.837850377400000E9     5.662894674754535E-1   -2.059584262648142E-2    1.628857155886004E-3    3.725330484190764E-3    1.643364734754293E-3    3.652019505239863E-3    4.349552069509794E-1   -3.198209272747392E-1
 7.837882881550000E9     5.660981721392400E-1   -2.270445706015487E-2    1.690297621500594E-3    3.703142042156307E-3    1.707079700767199E-3    3.618713409470595E-3    4.337148394075146E-1   -3.216386342497493E-1
 7.837915385700000E9     5.661486021506756E-1   -2.481708358445058E-2    1.706082131727233E-3    3.727556230585210E-3    1.710760684005278E-3    3.655426190878142E-3    4.322307985474179E-1   -3.234649498175685E-1
 7.837947889850000E9     5.660991909437012E-1   -2.698988609735775E-2    1.713735143253593E-3    3.725151605473969E-3    1.718777072757712E-3    3.645826619531076E-3    4.308421627176511E-1   -3.252634752210481E-1
 7.837980394000000E9     5.659616742216866E-1   -2.930626800866652E-2    1.745131347019382E-3    3.723886199891441E-3    1.745592717949416E-3    3.636680337695903E-3    4.294632163420842E-1   -3.271323671603593E-1
 7.838012898150000E9     5.657648493591123E-1   -3.136297956431966E-2    1.773094821035123E-3    3.686220595268282E-3    1.778862512560321E-3    3.667484009772113E-3    4.281773560319913E-1   -3.290028342330895E-1
 7.838045402300000E9     5.655622643020356E-1   -3.341800971864581E-2    1.780146156149857E-3    3.678425431618668E-3    1.763552978534242E-3    3.638288126498273E-3    4.266002486168560E-1   -3.307672695415811E-1
 7.838077906450000E9     5.655413242557570E-1   -3.557017825411243E-2    1.803123646372246E-3    3.692193339151895E-3    1.821569031390877E-3    3.637111310296389E-3    4.254289987749311E-1   -3.324261673252705E-1
 7.838110410600000E9     5.654572502474163E-1   -3.798221658085324E-2    1.797358634260033E-3    3.715888356451933E-3    1.797905873485196E-3    3.646841091898004E-3    4.239026942740920E-1   -3.343333931055584E-1
 7.838142914750000E9     5.654366931227165E-1   -4.006025587594203E-2    1.822519191990406E-3    3.705694272795943E-3    1.843473998364026E-3    3.630155486069507E-3    4.225303121259063E-1   -3.362117973280673E-1
 7.838175418900000E9     5.653365809342279E-1   -4.200291846615313E-2    1.884266463859543E-3    3.680994329403272E-3    1.847588152095285E-3    3.648754321431644E-3    4.211297404163333E-1   -3.380849155737543E-1
 7.838207923050000E9     5.650408802590083E-1   -4.431323947651775E-2    1.881441285084865E-3    3.689780562939390E-3    1.875728907079152E-3    3.612832774283180E-3    4.199041581527642E-1   -3.398218601611347E-1
 7.838240427200000E9     5.649136493262590E-1   -4.626627995496021E-2    1.900814774428479E-3    3.706276103400579E-3    1.899707394516961E-3    3.611288383188761E-3    4.184445552683230E-1   -3.414938681569957E-1
 7.838272931350000E9     5.647257037443280E-1   -4.856396159062674E-2    1.914922593250791E-3    3.683942310203709E-3    1.915962544483868E-3    3.642859700470261E-3    4.168787699953409E-1   -3.431926849567097E-1
 7.838305435500000E9     5.645027044295360E-1   -5.079182486679235E-2    1.931184404908954E-3    3.672637191789191E-3    1.921945139821112E-3    3.649708716358399E-3    4.154792561401806E-1   -3.449952059186028E-1
 7.838337939650000E9     5.643427000571413E-1   -5.304203377863998E-2    1.959655947839041E-3    3.672657991021025E-3    1.961309204996598E-3    3.605748480163017E-3    4.140409684171979E-1   -3.468604507331263E-1
 7.838370443800000E9     5.641653343573831E-1   -5.507196036770506E-2    1.985179044481387E-3    3.670611442410418E-3    1.964040700057212E-3    3.602138469832038E-3    4.125439417897100E-1   -3.484562447213995E-1
 7.838402947950000E9     5.640746411064984E-1   -5.707400253168923E-2    1.985005619800804E-3    3.681978162095254E-3    1.991994998677156E-3    3.651756324429700E-3    4.110020890313740E-1   -3.503259486059137E-1
 7.838435452100000E9     5.636427625424028E-1   -5.941908269583990E-2    2.032120232564687E-3    3.717915382151172E-3    1.987632797585284E-3    3.612460292556460E-3    4.095993635208994E-1   -3.519314774681143E-1
 7.838467956250000E9     5.633961974193138E-1   -6.150611482362475E-2    2.063641002397592E-3    3.677822384553117E-3    2.042781452342568E-3    3.620921879853676E-3    4.081402297846752E-1   -3.536927521955002E-1
 7.838500460400000E9     5.633282543497354E-1   -6.379151478682070E-2    2.039282495087012E-3    3.699064210364633E-3    2.027202012807800E-3    3.597864404688337E-3    4.066252853049756E-1   -3.554553766477417E-1
 7.838532964550000E9     5.630577530105084E-1   -6.585991215427875E-2    2.068656123108136E-3    3.662185811149469E-3    2.050997310229984E-3    3.619813538388965E-3    4.052020670542963E-1   -3.572091281293205E-1
 7.838565468700000E9     5.627202875184932E-1   -6.798318958784590E-2    2.077370476585704E-3    3.686935519578843E-3    2.080339264012793E-3    3.619309655469095E-3    4.036426554350147E-1   -3.589566652697126E-1
 7.838597972850000E9     5.623908599821839E-1   -7.018247735657335E-2    2.148932259087541E-3    3.679967527068670E-3    2.092114121563160E-3    3.627309121755804E-3    4.021443998331554E-1   -3.605738723816425E-1
 7.838630477000000E9     5.623486650622339E-1   -7.237778279577509E-2    2.145518309280892E-3    3.650021076736567E-3    2.132820372180660E-3    3.608929201818108E-3    4.005021490192717E-1   -3.624022573003316E-1
 7.838662981150000E9     5.619624940791149E-1   -7.453109426520918E-2    2.158848746479605E-3    3.659244374649964E-3    2.158842912697480E-3    3.594095302943358E-3    3.991665906411225E-1   -3.639505251858772E-1
 7.838695485300000E9     5.616827948380388E-1   -7.676012082730313E-2    2.190627339646606E-3    3.671381768161325E-3    2.166108122377361E-3    3.628782472354864E-3    3.977372233153148E-1   -3.657285486224185E-1
 7.838727989450000E9     5.613191059011767E-1   -7.866104098124212E-2    2.214565811586781E-3    3.667947423540452E-3    2.210018850386208E-3    3.610694131884852E-3    3.959735946886412E-1   -3.674571435859062E-1
 7.838760493600000E9     5.611610379551333E-1   -8.088623008708085E-2    2.226596359209817E-3    3.679793417869061E-3    2.196876155171319E-3    3.609044978214106E-3    3.946102949611133E-1   -3.690626263479006E-1
 7.838792997750000E9     5.607517089797694E-1   -8.313274693103961E-2    2.266014885525884E-3    3.663779935216241E-3    2.242913120615301E-3    3.602618829839474E-3    3.928858199129004E-1   -3.706723515264740E-1
 7.838825501900000E9     5.605554992613619E-1   -8.508470304282771E-2    2.274329792214145E-3    3.647166848803921E-3    2.251599636359344E-3    3.619353749752282E-3    3.914184260245868E-1   -3.724641648120778E-1
 7.838858006050000E9     5.600947188360138E-1   -8.742829856679540E-2    2.268784324320160E-3    3.638157685492478E-3    2.289566546506267E-3    3.599883275848765E-3    3.898745218400080E-1   -3.740371640623445E-1
 7.838890510200000E9     5.598413737494984E-1   -8.946910686074512E-2    2.325341772897506E-3    3.652175970642127E-3    2.303872538954204E-3    3.611676977562354E-3    3.882566523698763E-1   -3.757545552889746E-1
 7.838923014350000E9     5.594408768078521E-1   -9.173477560150625E-2    2.346875828464119E-3    3.684278150642394E-3    2.343077352169503E-3    3.595919422969999E-3    3.864500838275609E-1   -3.774182005137936E-1
 7.838955518500000E9     5.591007360172168E-1   -9.385088174009514E-2    2.357827067828484E-3    3.662576247049713E-3    2.309609860787136E-3    3.582629594468794E-3    3.850496619370563E-1   -3.789519511013894E-1
 7.838988022650000E9     5.587431806800128E-1   -9.604648610646167E-2    2.371884145488186E-3    3.656788767727477E-3    2.360593756580118E-3    3.583725058821238E-3    3.835372974566966E-1   -3.805777081291012E-1
 7.839020526800000E9     5.583590404953138E-1   -9.795237858951887E-2    2.416333359497813E-3    3.652672712001327E-3    2.384315588549346E-3    3.585418015397201E-3    3.817262030147044E-1   -3.822665331533883E-1
 7.839053030950000E9     5.579608376305812E-1   -1.002421544415645E-1    2.398012139968165E-3    3.623492606282349E-3    2.392069497476529E-3    3.578257124913505E-3    3.803783527715544E-1   -3.838005276932082E-1
 7.839085535100000E9     5.575423781151492E-1   -1.023890243232801E-1    2.446129519999008E-3    3.615300511473697E-3    2.423303878029518E-3    3.565156908592981E-3    3.786211684964690E-1   -3.854532582168680E-1
 7.839118039250000E9     5.572470918538160E-1   -1.044246983715185E-1    2.483425420197499E-3    3.656706561261179E-3    2.450708788105669E-3    3.591486131250356E-3    3.770332946655557E-1   -3.870473146166289E-1
 7.839150543400000E9     5.568742668007588E-1   -1.066248874662765E-1    2.481994364153386E-3    3.629240632284886E-3    2.449042562587626E-3    3.593064486985607E-3    3.753569170220480E-1   -3.885902834528346E-1
 7.839183047550000E9     5.565383891210257E-1   -1.088805699547063E-1    2.503704629407146E-3    3.625757916564376E-3    2.476621539584233E-3    3.567346122331084E-3    3.738271554766226E-1   -3.902931990024471E-1
 7.839215551700000E9     5.559935970340322E-1   -1.109340349575851E-1    2.523905398380146E-3    3.633115805824002E-3    2.536569834686543E-3    3.583004870030273E-3    3.721136851305104E-1   -3.919371481920830E-1
 7.839248055850000E9     5.555147527375096E-1   -1.130004996706400E-1    2.546720951313130E-3    3.637991129070585E-3    2.493085638086233E-3    3.561854449369546E-3    3.704289022903196E-1   -3.936006421134511E-1
 7.839280560000000E9     5.551335844425639E-1   -1.150459142670261E-1    2.586232329220483E-3    3.592920200366818E-3    2.558959923010702E-3    3.562316307373825E-3    3.688686673923091E-1   -3.950502613453107E-1
 7.839313064150000E9     5.546704711994450E-1   -1.173954721723090E-1    2.616941832555963E-3    3.616040479078143E-3    2.613239527534260E-3    3.577282232445311E-3    3.670815649331545E-1   -3.966217049293881E-1
 7.839345568300000E9     5.541962201234029E-1   -1.194622029062601E-1    2.640305771723974E-3    3.605475828956393E-3    2.628801964348393E-3    3.578592244004015E-3    3.654880913986772E-1   -3.980654892363739E-1
 7.839378072450000E9     5.537975376914703E-1   -1.214819011063866E-1    2.650065291941623E-3    3.614327242222722E-3    2.641560920914813E-3    3.571257412677318E-3    3.637540310878480E-1   -3.997703046126030E-1
 7.839410576600000E9     5.532164107061875E-1   -1.237770454055038E-1    2.673258705380343E-3    3.633542442610921E-3    2.659965810341095E-3    3.544550754407608E-3    3.621575704113503E-1   -4.011906213775426E-1
 7.839443080750000E9     5.527556863839518E-1   -1.259591240159145E-1    2.707646663730173E-3    3.617377637684261E-3    2.679508103606655E-3    3.576785648192433E-3    3.603890785134286E-1   -4.027840744488069E-1
 7.839475584900000E9     5.524008457401428E-1   -1.278910006100931E-1    2.732526633746255E-3    3.595699630378064E-3    2.690096162391356E-3    3.552773223291804E-3    3.585856437969151E-1   -4.041484687336566E-1
 7.839508089050000E9     5.518705830908720E-1   -1.300004599706663E-1    2.761939902115085E-3    3.611655229335802E-3    2.763266082081055E-3    3.593389432108232E-3    3.570013001417323E-1   -4.058497649792536E-1
 7.839540593200000E9     5.513446473493294E-1   -1.322753193633249E-1    2.780807229843381E-3    3.596519748943986E-3    2.766259267452518E-3    3.546068583558441E-3    3.552486092274207E-1   -4.072209535737794E-1
 7.839573097350000E9     5.508106552708009E-1   -1.344301447327318E-1    2.790343914613518E-3    3.609011868282364E-3    2.773261722061730E-3    3.571207237616949E-3    3.535665315484862E-1   -4.088004296968720E-1
 7.839605601500000E9     5.503765456937211E-1   -1.363444806872466E-1    2.804601499168096E-3    3.589015034924458E-3    2.814412029687368E-3    3.547803779476504E-3    3.518732852120711E-1   -4.102685418441723E-1
 7.839638105650000E9     5.497296629917208E-1   -1.384928362034906E-1    2.857431865344782E-3    3.586317315570765E-3    2.833014575996197E-3    3.539330464774418E-3    3.501561419086786E-1   -4.118415143185955E-1
 7.839670609800000E9     5.492583849957761E-1   -1.406691873450177E-1    2.894633862760241E-3    3.610935018690792E-3    2.850840360115043E-3    3.551571390400198E-3    3.483447566833711E-1   -4.133554492021537E-1
 7.839703113950000E9     5.486036407001624E-1   -1.427845296773476E-1    2.898634098383229E-3    3.588422154450524E-3    2.867813790697441E-3    3.523217676909651E-3    3.466251510500256E-1   -4.146807482522986E-1
 7.839735618100000E9     5.480517601179563E-1   -1.449064380072453E-1    2.922999543693059E-3    3.575313281835306E-3    2.882704682800352E-3    3.575880165268350E-3    3.449239377042722E-1   -4.161783548798537E-1
 7.839768122250000E9     5.476189178504883E-1   -1.467711739643876E-1    2.952179900844662E-3    3.572832838362953E-3    2.905602258159377E-3    3.547181443602295E-3    3.431704805965186E-1   -4.177818713105185E-1
 7.839800626400000E9     5.470662830053082E-1   -1.491585235721165E-1    2.982158214568184E-3    3.582911200861946E-3    2.934354338184115E-3    3.532107017916921E-3    3.415845932771389E-1   -4.191665464090291E-1
 7.839833130550000E9     5.464266361820509E-1   -1.512330112247871E-1    3.012579063274492E-3    3.558633249572187E-3    2.959635672948783E-3    3.498431774476722E-3    3.395581531761260E-1   -4.204665554442520E-1
 7.839865634700000E9     5.457681995139549E-1   -1.534119174537804E-1    3.066673886055206E-3    3.581561787006801E-3    3.000034050940794E-3    3.546225050464109E-3    3.379674795784389E-1   -4.220223821775003E-1
 7.839898138850000E9     5.453210670177745E-1   -1.554190934671651E-1    3.041256065862864E-3    3.570973145841009E-3    3.001266708950514E-3    3.533704470831098E-3    3.362817305644119E-1   -4.234194358362550E-1
 7.839930643000000E9     5.445622476939934E-1   -1.575717435235694E-1    3.106316780535337E-3    3.549977146024776E-3    3.073955194039021E-3    3.514950097483072E-3    3.344100891006003E-1   -4.248817142136048E-1
 7.839963147150000E9     5.439780299207143E-1   -1.596466510316249E-1    3.104406117773923E-3    3.550964277395157E-3    3.069311142264730E-3    3.547828607957912E-3    3.325641690437628E-1   -4.262632845066329E-1
 7.839995651300000E9     5.432908475829054E-1   -1.617762247346730E-1    3.133125025518125E-3    3.566599125416502E-3    3.091715969813168E-3    3.538026041769139E-3    3.308132715805406E-1   -4.277164074196958E-1
 7.840028155450000E9     5.426727306612278E-1   -1.638603489031746E-1    3.180358144318207E-3    3.545852058951318E-3    3.104304415612358E-3    3.551284174203915E-3    3.289681385417765E-1   -4.292094529960131E-1
 7.840060659600000E9     5.421926680837549E-1   -1.660259618619021E-1    3.216833487402940E-3    3.536393856234702E-3    3.164546558104044E-3    3.557671589390106E-3    3.271546257137051E-1   -4.304006151127046E-1
 7.840093163750000E9     5.414293215572922E-1   -1.679932630878161E-1    3.224464163612755E-3    3.515503674096884E-3    3.184419413538455E-3    3.505117311736603E-3    3.253267128943895E-1   -4.319534634615029E-1
 7.840125667900000E9     5.407276938725154E-1   -1.701349452305435E-1    3.264584474285491E-3    3.552730112527682E-3    3.227601170971177E-3    3.519349957447058E-3    3.235701827091552E-1   -4.331113334551618E-1
 7.840158172050000E9     5.400268837301019E-1   -1.722272390928237E-1    3.269276211357888E-3    3.534174467673775E-3    3.241110500348123E-3    3.528021398104592E-3    3.216414428151301E-1   -4.346990995674131E-1
 7.840190676200000E9     5.395255344616013E-1   -1.743733283732153E-1    3.314579915358158E-3    3.532545554477772E-3    3.292736649170295E-3    3.517844538075960E-3    3.198386909117758E-1   -4.360277880976249E-1
 7.840223180350000E9     5.387319311508165E-1   -1.764267546917289E-1    3.329849520690316E-3    3.515847131941501E-3    3.330071810639395E-3    3.518906553976313E-3    3.179653972205654E-1   -4.373377156040025E-1
 7.840255684500000E9     5.380086742607555E-1   -1.786295379701238E-1    3.394846033766935E-3    3.541298987034614E-3    3.363966761027721E-3    3.501390697354176E-3    3.162590809010008E-1   -4.386996189265641E-1
