#  HZ   S   RI   R     50.00 
! Rohde & Schwarz Vector Network Analyzer 
! Rohde-Schwarz,ZNB20-2Port,1311601062101988,3.16
! Created: UTC 12/23/2023, 4:01:28 AM
! freq[Hz]                re:S11                  im:S11                  re:S21                  im:S21                  re:S12                  im:S12                  re:S22                  im:S22
 7.837745199000000E9     5.663107175796743E-1   -1.362506388891980E-2    1.606760245055489E-3    3.693561341457559E-3    1.619960663044611E-3    3.651570034076104E-3    4.394437213349439E-1   -3.137302930067021E-1
 7.837775771775000E9     5.662831007385902E-1   -1.570264060004136E-2    1.613746555870740E-3    3.727208004720729E-3    1.609198039361091E-3    3.664460817952418E-3    4.380304424661918E-1   -3.156122186779490E-1
 7.837806344550000E9     5.663298206239448E-1   -1.778188401793196E-2    1.648570820016112E-3    3.719872629291372E-3    1.648307308499354E-3    3.627723239150406E-3    4.368475091681123E-1   -3.172482982289843E-1
 7.837836917325000E9     5.661800796141914E-1   -1.963933710727686E-2    1.672404821349334E-3    3.704750520829994E-3    1.641978070306532E-3    3.640745107886159E-3    4.354309613319685E-1   -3.189425316169530E-1
 7.837867490100000E9     5.662580905585787E-1   -2.168773603596805E-2    1.669621467417053E-3    3.706983620414651E-3    1.652968841178250E-3    3.605789378830274E-3    4.341668717555591E-1   -3.207971879729323E-1
 7.837898062875000E9     5.660904957337823E-1   -2.374178340065312E-2    1.704181421320309E-3    3.689678174672136E-3    1.712290149571919E-3    3.623218519058676E-3    4.329604737632013E-1   -3.223626939868212E-1
 7.837928635650000E9     5.660950539987636E-1   -2.589317835094325E-2    1.727059656977304E-3    3.720982776750799E-3    1.690806795150924E-3    3.620085364930882E-3    4.316197820419008E-1   -3.242669043830511E-1
 7.837959208425000E9     5.659062073791362E-1   -2.771884296173985E-2    1.699800713897583E-3    3.720240708675510E-3    1.744864631142801E-3    3.658499549388927E-3    4.304413680393461E-1   -3.259020472387649E-1
 7.837989781200000E9     5.658528130607002E-1   -2.972897158429458E-2    1.721557464575764E-3    3.699358656256521E-3    1.739711620195099E-3    3.633599129731478E-3    4.291687861823606E-1   -3.276572562340271E-1
 7.838020353975000E9     5.657182783479396E-1   -3.185995843031847E-2    1.758273903370992E-3    3.701859279089299E-3    1.751261688770312E-3    3.632386445133055E-3    4.279291593301507E-1   -3.294339739272243E-1
 7.838050926750000E9     5.657154398041636E-1   -3.390654263891203E-2    1.757118843637856E-3    3.688537709853060E-3    1.760165429061990E-3    3.638600284181782E-3    4.265281175372098E-1   -3.310107514828342E-1
 7.838081499525000E9     5.654925411968100E-1   -3.592878982027307E-2    1.802347412087700E-3    3.692984074386155E-3    1.850927761916414E-3    3.660182630202611E-3    4.252113801673673E-1   -3.328702410684291E-1
 7.838112072300000E9     5.654517804053102E-1   -3.792887398341872E-2    1.800983735676300E-3    3.681836206204681E-3    1.816574818473614E-3    3.610530919206127E-3    4.239639260551596E-1   -3.343342278208097E-1
 7.838142645075000E9     5.653529228881510E-1   -4.002726576223229E-2    1.814978253275621E-3    3.699761328167246E-3    1.855519926399299E-3    3.625452258465465E-3    4.226045419572789E-1   -3.362228146710114E-1
 7.838173217850000E9     5.652746405184216E-1   -4.193239561919869E-2    1.871861181700201E-3    3.710100162565687E-3    1.862691260381162E-3    3.617083236417868E-3    4.212996569686190E-1   -3.377499292922911E-1
 7.838203790625000E9     5.651646972767239E-1   -4.418147389678407E-2    1.862116016521019E-3    3.686915897379993E-3    1.882812982859038E-3    3.622289001383557E-3    4.199600715069734E-1   -3.394522563501848E-1
 7.838234363400000E9     5.648424618893123E-1   -4.597947997438297E-2    1.874030289566352E-3    3.693999752844171E-3    1.868372331345913E-3    3.635775318083430E-3    4.184447420085239E-1   -3.411687389021048E-1
 7.838264936175000E9     5.646329489570632E-1   -4.811934060170756E-2    1.914608352852912E-3    3.695846217974978E-3    1.890027139856801E-3    3.626344077349474E-3    4.173623845084627E-1   -3.428588255320508E-1
 7.838295508950000E9     5.645319308603450E-1   -5.026208843923941E-2    1.933728621860080E-3    3.684723208845835E-3    1.975920516712355E-3    3.622470030557619E-3    4.158922980093623E-1   -3.444580608744178E-1
 7.838326081725000E9     5.644487919156911E-1   -5.204773709997591E-2    1.962109691160317E-3    3.695077755687237E-3    1.954134992025777E-3    3.619683682358602E-3    4.144642825999784E-1   -3.462796774819552E-1
 7.838356654500000E9     5.640781606150999E-1   -5.435195620014515E-2    1.989503587111769E-3    3.684854501032077E-3    1.995585611422967E-3    3.646443513153541E-3    4.133132855364338E-1   -3.477967426528804E-1
 7.838387227275000E9     5.639344434817323E-1   -5.626650971019857E-2    1.992633115988207E-3    3.679979024612227E-3    1.959427610587346E-3    3.592942900586154E-3    4.117919774663837E-1   -3.493758791270227E-1
 7.838417800050000E9     5.638739724366640E-1   -5.818969056545489E-2    2.004596302778212E-3    3.674157879121270E-3    1.996419597759616E-3    3.630112187612729E-3    4.104464418099635E-1   -3.511084341349043E-1
 7.838448372825000E9     5.635554437176835E-1   -6.021707010999266E-2    2.019235766845678E-3    3.661942158187395E-3    2.016988000376283E-3    3.616636722264455E-3    4.090342897002857E-1   -3.526305504812167E-1
 7.838478945600000E9     5.635517835343035E-1   -6.219975925085933E-2    2.016667031806091E-3    3.652396745449186E-3    2.063965615117519E-3    3.607382662471335E-3    4.076461932232233E-1   -3.543166536029922E-1
 7.838509518375000E9     5.631804911825848E-1   -6.437642429002306E-2    2.061936654077309E-3    3.667852947202623E-3    2.062404602743186E-3    3.615391215146272E-3    4.062522402095913E-1   -3.560752960823735E-1
 7.838540091150000E9     5.629877738405377E-1   -6.645015354905809E-2    2.108286533456156E-3    3.674669635951064E-3    2.073737525241499E-3    3.611314283830184E-3    4.048623567181431E-1   -3.575104520893608E-1
 7.838570663925000E9     5.626315811410577E-1   -6.837138886700703E-2    2.121590969919959E-3    3.662224875139561E-3    2.064070738650343E-3    3.611203128498777E-3    4.033822687802033E-1   -3.591202639754937E-1
 7.838601236700000E9     5.624018004411423E-1   -7.050806680044848E-2    2.118682606359059E-3    3.675455578040718E-3    2.092207619908650E-3    3.606981078906387E-3    4.019459184791961E-1   -3.608229288819320E-1
 7.838631809475000E9     5.622255485536187E-1   -7.231936736903052E-2    2.141772265861398E-3    3.655709418756120E-3    2.157927126509929E-3    3.624009787469950E-3    4.006689222149941E-1   -3.624378838197085E-1
 7.838662382250000E9     5.619464050844508E-1   -7.441784333213985E-2    2.139552784915622E-3    3.662136231918653E-3    2.168788005392454E-3    3.615232819336915E-3    3.991126424587857E-1   -3.638520374719811E-1
 7.838692955025000E9     5.617321515569085E-1   -7.652197115439084E-2    2.152660355193839E-3    3.676132112761236E-3    2.183173077110046E-3    3.599114878016757E-3    3.975648211935424E-1   -3.656766774679220E-1
 7.838723527800000E9     5.614898302986268E-1   -7.849674917003986E-2    2.191739993713478E-3    3.662732254329757E-3    2.184312860570576E-3    3.608191100673042E-3    3.962843559761777E-1   -3.671171232947425E-1
 7.838754100575000E9     5.611623408143872E-1   -8.046491936040036E-2    2.222542133415624E-3    3.667456139798130E-3    2.208674611099239E-3    3.613570364522973E-3    3.949205682426850E-1   -3.687253887826902E-1
 7.838784673350000E9     5.609696004980523E-1   -8.266401640589979E-2    2.241858679144836E-3    3.664712350488807E-3    2.251877332641251E-3    3.600674661026237E-3    3.932137824154413E-1   -3.703919834162792E-1
 7.838815246125000E9     5.605493380325473E-1   -8.463543480601272E-2    2.284275760155629E-3    3.657916637943059E-3    2.226446493701398E-3    3.614596596681203E-3    3.918532434868190E-1   -3.719292472261930E-1
 7.838845818900000E9     5.603083949093972E-1   -8.659410399918847E-2    2.274718503803322E-3    3.622142093619127E-3    2.245632863125472E-3    3.622994506385980E-3    3.904307752804373E-1   -3.734118690797413E-1
 7.838876391675000E9     5.600261202808131E-1   -8.865581778797078E-2    2.282475057408663E-3    3.651784907244224E-3    2.302544361197728E-3    3.601132607305223E-3    3.889400964657523E-1   -3.748464758311709E-1
 7.838906964450000E9     5.596907314751381E-1   -9.060626017502298E-2    2.319736613705972E-3    3.612691628365926E-3    2.289382561837809E-3    3.571327958414055E-3    3.874149071661028E-1   -3.765392536041588E-1
 7.838937537225000E9     5.594017339612312E-1   -9.269411794749832E-2    2.330758939549513E-3    3.645142167738813E-3    2.338451443431562E-3    3.597689636164415E-3    3.858409993199478E-1   -3.781915325864038E-1
 7.838968110000000E9     5.588839281523753E-1   -9.476921415574269E-2    2.350427672365633E-3    3.628566700392064E-3    2.347942395836382E-3    3.582523045573433E-3    3.845914573256896E-1   -3.795812605927351E-1
 7.838998682775000E9     5.585653437030036E-1   -9.662222013723912E-2    2.394836012227179E-3    3.653981961666617E-3    2.330543015976049E-3    3.612634361418638E-3    3.828466079815150E-1   -3.811924704536553E-1
 7.839029255550000E9     5.582988943955418E-1   -9.867279883363163E-2    2.418263571803771E-3    3.637638882332061E-3    2.395028141619670E-3    3.590241605157214E-3    3.813394265263483E-1   -3.826627397931374E-1
 7.839059828325000E9     5.579489194133949E-1   -1.006601613520616E-1    2.426221254549357E-3    3.642112907369284E-3    2.422601083299716E-3    3.592567571003568E-3    3.798254553305807E-1   -3.842331117814047E-1
 7.839090401100000E9     5.575190639398996E-1   -1.026577897387198E-1    2.456275888417231E-3    3.640390152882908E-3    2.425191492440801E-3    3.597147611633807E-3    3.783952720243555E-1   -3.858681699549182E-1
 7.839120973875000E9     5.570812014538781E-1   -1.046757134111428E-1    2.487675851296556E-3    3.643079116073516E-3    2.428221627328225E-3    3.600448599507005E-3    3.768936548433344E-1   -3.870202527112992E-1
 7.839151546650000E9     5.567950884644514E-1   -1.067440152410597E-1    2.487499461558967E-3    3.654423240884054E-3    2.476956808629836E-3    3.573070083438620E-3    3.754450431730097E-1   -3.887156809594967E-1
 7.839182119425000E9     5.564547948502836E-1   -1.088491319685582E-1    2.517731723180264E-3    3.623260834480968E-3    2.477738574757890E-3    3.577966909882878E-3    3.738569780277102E-1   -3.902151702922998E-1
 7.839212692200000E9     5.560861065713679E-1   -1.107753578388699E-1    2.526111279188258E-3    3.620657966442274E-3    2.533353248709397E-3    3.559513547503157E-3    3.722004797846780E-1   -3.917243858073482E-1
 7.839243264975000E9     5.555594036031982E-1   -1.126896879385594E-1    2.543879825070165E-3    3.632376883255243E-3    2.525836442163376E-3    3.565399821663549E-3    3.707591564400024E-1   -3.930754358976782E-1
 7.839273837750000E9     5.552142881980421E-1   -1.147932240384758E-1    2.582933412921392E-3    3.596457813483854E-3    2.553925252663970E-3    3.575120195815957E-3    3.693150808035534E-1   -3.947411232218440E-1
 7.839304410525000E9     5.548904770682426E-1   -1.167453572997336E-1    2.605148890082676E-3    3.618965795149313E-3    2.589674402041478E-3    3.545211252955100E-3    3.675704637406809E-1   -3.960957850798189E-1
 7.839334983300000E9     5.542779138201005E-1   -1.186490152792931E-1    2.628282241054688E-3    3.617515381107289E-3    2.614724947678983E-3    3.602743092020803E-3    3.658997458164159E-1   -3.976028175985811E-1
 7.839365556075000E9     5.540655820271626E-1   -1.208910399847021E-1    2.647838669560962E-3    3.618601537993366E-3    2.621418624355749E-3    3.562868497172784E-3    3.644907740679560E-1   -3.990120927030920E-1
 7.839396128850000E9     5.535747748953235E-1   -1.227191948434607E-1    2.667795508241041E-3    3.591330090543101E-3    2.639135977027634E-3    3.555124919524928E-3    3.629766202807984E-1   -4.004843046761606E-1
 7.839426701625000E9     5.531322952311220E-1   -1.247721835429424E-1    2.722762706728750E-3    3.608587250345103E-3    2.639398753378186E-3    3.550369161444844E-3    3.611224981023994E-1   -4.019866223290822E-1
 7.839457274400000E9     5.526114602220045E-1   -1.269124101765552E-1    2.694713843034194E-3    3.573595951046446E-3    2.673293617240675E-3    3.565012065914276E-3    3.597356738934783E-1   -4.033218405876796E-1
 7.839487847175000E9     5.522313035090094E-1   -1.287927604999510E-1    2.745008025261815E-3    3.597921198869964E-3    2.672317102785381E-3    3.575265955702503E-3    3.581698559227688E-1   -4.047461077179060E-1
 7.839518419950000E9     5.516889595407775E-1   -1.308306386065322E-1    2.748754226148484E-3    3.607024558286678E-3    2.719155697868759E-3    3.570464236699330E-3    3.565372887840300E-1   -4.062045073375516E-1
 7.839548992725000E9     5.512395275420522E-1   -1.327569825302196E-1    2.756836290790471E-3    3.600348895615651E-3    2.753323928322430E-3    3.563558065284172E-3    3.549546590826541E-1   -4.077091017473378E-1
 7.839579565500000E9     5.508547014176176E-1   -1.346978139915023E-1    2.800589637240375E-3    3.575444087860835E-3    2.745990801493861E-3    3.567038297747660E-3    3.531269523824806E-1   -4.091001634726050E-1
 7.839610138275000E9     5.502876699392224E-1   -1.369355603457922E-1    2.826184406461563E-3    3.565099344512195E-3    2.765918456888658E-3    3.543109215149423E-3    3.516923982772348E-1   -4.105332378504377E-1
 7.839640711050000E9     5.497526155408596E-1   -1.388335691935308E-1    2.850112071930422E-3    3.611146378364371E-3    2.821937965812903E-3    3.534405451815900E-3    3.500899370652539E-1   -4.118711566443634E-1
 7.839671283825000E9     5.492034955252707E-1   -1.408058744320075E-1    2.873142089386150E-3    3.581570586865795E-3    2.845357973391836E-3    3.563532222398462E-3    3.483339436705843E-1   -4.131740258286013E-1
 7.839701856600000E9     5.485940137468065E-1   -1.427882901668645E-1    2.893991546617718E-3    3.586772019868825E-3    2.845666161915318E-3    3.539090515646811E-3    3.467293197739884E-1   -4.146658181602370E-1
 7.839732429375000E9     5.481973266334744E-1   -1.447373472366129E-1    2.921497597686069E-3    3.590924072745752E-3    2.904608834366247E-3    3.527778239344160E-3    3.451816481692019E-1   -4.160288236859558E-1
 7.839763002150000E9     5.476129656204545E-1   -1.467566709265580E-1    2.959717738618666E-3    3.590578683205422E-3    2.913797937859083E-3    3.537903925219118E-3    3.433577204352389E-1   -4.173766080248424E-1
 7.839793574925000E9     5.472732652803001E-1   -1.486816401096677E-1    2.978895784321515E-3    3.596313820422011E-3    2.945386192753544E-3    3.542643732028826E-3    3.419016938442465E-1   -4.188881351932682E-1
 7.839824147700000E9     5.466296092339039E-1   -1.507114489884184E-1    2.986025530060724E-3    3.571456168005702E-3    2.969602142280734E-3    3.518663411401915E-3    3.402410921595770E-1   -4.200854305855661E-1
 7.839854720475000E9     5.459547135379071E-1   -1.526419520053679E-1    3.013826567041913E-3    3.561516938882552E-3    2.959041287680945E-3    3.544542055211802E-3    3.386038527367490E-1   -4.214229939521543E-1
 7.839885293250000E9     5.453873062386028E-1   -1.547123855760286E-1    3.066791436855390E-3    3.555096326677982E-3    2.975422125972277E-3    3.534403880217790E-3    3.369319179927228E-1   -4.228563120564172E-1
 7.839915866025000E9     5.448470472229222E-1   -1.566928790769832E-1    3.078426867413567E-3    3.560631007136444E-3    2.981152097720118E-3    3.545554085005916E-3    3.349918286222247E-1   -4.239774076454333E-1
 7.839946438800000E9     5.443852679314303E-1   -1.586731637379538E-1    3.063495070034380E-3    3.580230157950958E-3    3.042805812403641E-3    3.506309503137866E-3    3.334895665837891E-1   -4.255217150886984E-1
 7.839977011575000E9     5.437375806468475E-1   -1.606106111179377E-1    3.116244028168058E-3    3.535415604158094E-3    3.094156934300612E-3    3.535021837229064E-3    3.317913671438383E-1   -4.267849907707756E-1
 7.840007584350000E9     5.431969423901425E-1   -1.626729463935201E-1    3.166310128856730E-3    3.557081174869532E-3    3.129396712351498E-3    3.542703139474530E-3    3.301264213991715E-1   -4.281287177267246E-1
 7.840038157125000E9     5.426080518369389E-1   -1.646284430612245E-1    3.147442917149492E-3    3.532102914501201E-3    3.136620805333764E-3    3.511897856108629E-3    3.283596932251523E-1   -4.294716272120534E-1
 7.840068729900000E9     5.419938721313811E-1   -1.665158259811631E-1    3.225294622042200E-3    3.554360949611089E-3    3.122283556748264E-3    3.532345147537125E-3    3.268342483134350E-1   -4.307366303445080E-1
 7.840099302675000E9     5.413503914923136E-1   -1.685467341534539E-1    3.229831325324250E-3    3.552776033818518E-3    3.178224277373155E-3    3.530956131254748E-3    3.250490095800226E-1   -4.321470423384306E-1
 7.840129875450000E9     5.406291284528218E-1   -1.705675199888969E-1    3.238130146238150E-3    3.542813251299077E-3    3.196311347350214E-3    3.511205264837246E-3    3.234482005655836E-1   -4.334370715072802E-1
 7.840160448225000E9     5.401400930951390E-1   -1.723880611177203E-1    3.298876608702670E-3    3.555887950255448E-3    3.224889202213160E-3    3.510372217664942E-3    3.217062030719212E-1   -4.346235277418062E-1
 7.840191021000000E9     5.396185626934595E-1   -1.743225428174585E-1    3.299332655969728E-3    3.532017808285821E-3    3.256035102044033E-3    3.495427194877812E-3    3.199523670953615E-1   -4.360509387452486E-1
 7.840221593775000E9     5.388235976616308E-1   -1.762398241743987E-1    3.319554802076154E-3    3.539241266180196E-3    3.305368144285692E-3    3.495779324804064E-3    3.182538051014503E-1   -4.373057861135212E-1
 7.840252166550000E9     5.381325310947910E-1   -1.782556256049665E-1    3.341867119542429E-3    3.529846206262895E-3    3.313647422766122E-3    3.485400132604395E-3    3.163680782461402E-1   -4.384948682187618E-1
 7.840282739325000E9     5.375116919145085E-1   -1.803006583201530E-1    3.382917339609081E-3    3.528983113022406E-3    3.349424598885404E-3    3.495022359489811E-3    3.146685676879635E-1   -4.398462982200918E-1
 7.840313312100000E9     5.367844975092342E-1   -1.822069491205132E-1    3.401737466017925E-3    3.549826868757381E-3    3.380070427276680E-3    3.475003440007749E-3    3.130922340980165E-1   -4.410574131322376E-1
 7.840343884875000E9     5.360897572699911E-1   -1.840422062205901E-1    3.434833700839253E-3    3.523434826126717E-3    3.449456579937058E-3    3.521050894200575E-3    3.112050443610607E-1   -4.422577132450154E-1
 7.840374457650000E9     5.354646981421413E-1   -1.861208338071095E-1    3.499736422982976E-3    3.525109161865183E-3    3.444600087401173E-3    3.475396975085858E-3    3.093873381126451E-1   -4.434613094186409E-1
 7.840405030425000E9     5.346432608028892E-1   -1.879772244432839E-1    3.540782049604023E-3    3.515871404707997E-3    3.470569815786161E-3    3.485424135587087E-3    3.076151911468037E-1   -4.448467427857459E-1
 7.840435603200000E9     5.341236814603215E-1   -1.900029836954960E-1    3.562156662029198E-3    3.497818942110627E-3    3.498838980109686E-3    3.492329037151806E-3    3.059376321064031E-1   -4.459843465021171E-1
 7.840466175975000E9     5.332847177989181E-1   -1.920244749739685E-1    3.559905339236348E-3    3.500025305067873E-3    3.534437956397646E-3    3.472290589632112E-3    3.041658286350329E-1   -4.472110382348723E-1
 7.840496748750000E9     5.327024979289717E-1   -1.939744372377811E-1    3.573158942148678E-3    3.496339856913421E-3    3.552838924956344E-3    3.489795059847763E-3    3.023792643132651E-1   -4.485942779432004E-1
