#  HZ   S   RI   R     50.00 
! Rohde & Schwarz Vector Network Analyzer 
! Rohde-Schwarz,ZNB20-2Port,1311601062101988,3.16
! Created: UTC 12/23/2023, 3:37:46 AM
! freq[Hz]                re:S11                  im:S11                  re:S21                  im:S21                  re:S12                  im:S12                  re:S22                  im:S22
 7.837663902000000E9     5.665036354521512E-1   -9.282203874049703E-3    1.577035597774905E-3    3.717954877079016E-3    1.604308934128397E-3    3.665681699899170E-3    4.421622879097001E-1   -3.097793366677675E-1
 7.837694749075000E9     5.665911436316239E-1   -1.144539544885432E-2    1.596742629742942E-3    3.718873748422862E-3    1.610477357767187E-3    3.649688556825355E-3    4.409217889268876E-1   -3.115689773780102E-1
 7.837725596150000E9     5.665711630467429E-1   -1.348606082995678E-2    1.617332440219458E-3    3.694881280524637E-3    1.614358579836138E-3    3.660396425002959E-3    4.396187320443425E-1   -3.132871238667352E-1
 7.837756443225000E9     5.665690300477797E-1   -1.541896776243194E-2    1.638838184356820E-3    3.710796300083324E-3    1.640858700332591E-3    3.643730423980673E-3    4.384906686138157E-1   -3.150271954695005E-1
 7.837787290300000E9     5.663907620481925E-1   -1.753123728335254E-2    1.652188523829754E-3    3.736838803232470E-3    1.620116171828370E-3    3.656952705367928E-3    4.372358832438747E-1   -3.168804991631050E-1
 7.837818137375000E9     5.663037138169267E-1   -1.957850844717075E-2    1.648464860874675E-3    3.698893036107843E-3    1.655110963819020E-3    3.622353861412171E-3    4.359179014421430E-1   -3.187255901163663E-1
 7.837848984450000E9     5.663118309665269E-1   -2.154627678683876E-2    1.669153626452968E-3    3.713856875029506E-3    1.673433554075284E-3    3.630623536279427E-3    4.349140264279932E-1   -3.203602530260104E-1
 7.837879831525000E9     5.662326857222262E-1   -2.367167363611866E-2    1.667101891694521E-3    3.696078461041153E-3    1.716411998829276E-3    3.653055959522784E-3    4.335047887785168E-1   -3.219579130452698E-1
 7.837910678600000E9     5.662236867489508E-1   -2.565969872657232E-2    1.719474841505536E-3    3.698379730929389E-3    1.692147461082671E-3    3.639783956692584E-3    4.321254867892892E-1   -3.238738300044806E-1
 7.837941525675000E9     5.660816400816316E-1   -2.780768356194709E-2    1.718154040986464E-3    3.709157250496654E-3    1.722900516882078E-3    3.633059250500240E-3    4.308848009776250E-1   -3.256269061795241E-1
 7.837972372750000E9     5.659477695086530E-1   -2.973271540390617E-2    1.749527695406618E-3    3.671275493432168E-3    1.719805447643842E-3    3.615954014897559E-3    4.295598240626178E-1   -3.272467963687689E-1
 7.838003219825000E9     5.660274194929670E-1   -3.182026791943680E-2    1.776026098951692E-3    3.683801292389572E-3    1.774449208640783E-3    3.644049847367363E-3    4.283473759910607E-1   -3.289847292361711E-1
 7.838034066900000E9     5.657885394645155E-1   -3.366134151418735E-2    1.764599834062653E-3    3.709739248393576E-3    1.789042849834100E-3    3.656801107233335E-3    4.268940324561860E-1   -3.307267813829841E-1
 7.838064913975000E9     5.654321473942647E-1   -3.600702304527714E-2    1.797803382913388E-3    3.697371731309497E-3    1.780384866711338E-3    3.624709478031945E-3    4.257042036226634E-1   -3.323843515788938E-1
 7.838095761050000E9     5.656508388933467E-1   -3.792088164733024E-2    1.802294299072596E-3    3.688690568596952E-3    1.821273304726631E-3    3.644967143427266E-3    4.242767127618693E-1   -3.342920244622044E-1
 7.838126608125000E9     5.653783951655177E-1   -4.001057453899332E-2    1.837732445455973E-3    3.712594575534099E-3    1.842702059837395E-3    3.615966251181140E-3    4.229245060502664E-1   -3.358343388954044E-1
 7.838157455200000E9     5.652318667440355E-1   -4.203560501614016E-2    1.870031581016339E-3    3.692792326490258E-3    1.854310375080330E-3    3.612350401561411E-3    4.216537100721852E-1   -3.376016417052135E-1
 7.838188302275000E9     5.651288471220225E-1   -4.408360192872135E-2    1.884273139233167E-3    3.696575002850971E-3    1.866874251019892E-3    3.642203747994196E-3    4.202025587733708E-1   -3.392105524026992E-1
 7.838219149350000E9     5.649382172595810E-1   -4.615959075248427E-2    1.910424005597906E-3    3.684096950257474E-3    1.900696990184177E-3    3.622052800161996E-3    4.188941444777153E-1   -3.409973645426903E-1
 7.838249996425000E9     5.648313628200592E-1   -4.828121659074089E-2    1.909441089370513E-3    3.674264621200679E-3    1.920857116281209E-3    3.639212694820937E-3    4.175597399959222E-1   -3.425871845777920E-1
 7.838280843500000E9     5.646446473739666E-1   -5.032480062035012E-2    1.933155395149384E-3    3.699518173361075E-3    1.908083280564001E-3    3.632588569194960E-3    4.162245351331917E-1   -3.443229339118412E-1
 7.838311690575000E9     5.645666121634592E-1   -5.224809654983172E-2    1.938664185268220E-3    3.694359941995418E-3    1.952649395357372E-3    3.595716752867844E-3    4.149396201518842E-1   -3.460952741769010E-1
 7.838342537650000E9     5.643058631739214E-1   -5.437928667123827E-2    1.967207673595760E-3    3.678211023440719E-3    1.952308062154928E-3    3.606802452042757E-3    4.135310484537784E-1   -3.476293169708652E-1
 7.838373384725000E9     5.641788874882903E-1   -5.653218868862044E-2    1.991217716219652E-3    3.679227908008422E-3    1.986688630180508E-3    3.611808457936302E-3    4.120037980139742E-1   -3.492546467093556E-1
 7.838404231800000E9     5.639006104571955E-1   -5.857291998253588E-2    2.011340205165012E-3    3.684203269507390E-3    2.009111120541948E-3    3.644515428887875E-3    4.106531473911382E-1   -3.508437898332827E-1
 7.838435078875000E9     5.636780407004511E-1   -6.045383675423666E-2    1.985376042251163E-3    3.683843105282188E-3    1.956374356182600E-3    3.605694422674529E-3    4.093049866527407E-1   -3.525300993755504E-1
 7.838465925950000E9     5.634612118330067E-1   -6.271008816628393E-2    2.050474024446245E-3    3.679014043059416E-3    2.024461529007457E-3    3.597815971326562E-3    4.078560589387361E-1   -3.541716470696668E-1
 7.838496773025000E9     5.633977816669854E-1   -6.469187474799902E-2    2.050686107094975E-3    3.692603228069310E-3    2.057003588817063E-3    3.603694581005495E-3    4.065085727859230E-1   -3.557900352749522E-1
 7.838527620100000E9     5.630115653862281E-1   -6.674031788976902E-2    2.068829664517820E-3    3.675812480183224E-3    2.054700663693064E-3    3.578353910915623E-3    4.050462084155113E-1   -3.574972183882743E-1
 7.838558467175000E9     5.627475465482666E-1   -6.867089211230497E-2    2.107563596063974E-3    3.681929954374966E-3    2.092615030394589E-3    3.623832497343073E-3    4.034959030032804E-1   -3.590770675472363E-1
 7.838589314250000E9     5.625086045542638E-1   -7.086300441283103E-2    2.112861511118556E-3    3.671860307365721E-3    2.125983559082128E-3    3.623233783107613E-3    4.021095297803335E-1   -3.607707353735095E-1
 7.838620161325000E9     5.622533937609477E-1   -7.278437441029131E-2    2.153805193223303E-3    3.662426249949127E-3    2.119914953834946E-3    3.594655705695018E-3    4.007205608347075E-1   -3.625021614189560E-1
 7.838651008400000E9     5.620607897450172E-1   -7.480224444297760E-2    2.163560850715910E-3    3.666206235600206E-3    2.145572447264374E-3    3.599419770346041E-3    3.993462269577388E-1   -3.639415485433682E-1
 7.838681855475000E9     5.616972197169834E-1   -7.695775296841774E-2    2.200001536187069E-3    3.634356265618158E-3    2.170028439272911E-3    3.604956825934571E-3    3.978659740324603E-1   -3.656217083862146E-1
 7.838712702550000E9     5.614662293948199E-1   -7.889062200936359E-2    2.211795053430670E-3    3.654091350050474E-3    2.194055475499514E-3    3.604890626344460E-3    3.963778493123628E-1   -3.672612661183623E-1
 7.838743549625000E9     5.613612223680133E-1   -8.091462947352773E-2    2.234345022264205E-3    3.668811733600228E-3    2.223028101281392E-3    3.616670654757913E-3    3.950029531770575E-1   -3.688469842477576E-1
 7.838774396700000E9     5.608697635002979E-1   -8.300700775594205E-2    2.231537180251232E-3    3.660636443763758E-3    2.224422580760199E-3    3.610022876890149E-3    3.935745726487510E-1   -3.703562097775691E-1
 7.838805243775000E9     5.606696191464691E-1   -8.498250448356512E-2    2.263041716551505E-3    3.659841271050976E-3    2.267044810984852E-3    3.595894232101124E-3    3.919060763728245E-1   -3.719982951445181E-1
 7.838836090850000E9     5.602437937583168E-1   -8.702574679535348E-2    2.265978978140442E-3    3.644692563687519E-3    2.245271959402016E-3    3.583597188148907E-3    3.905930102758389E-1   -3.736078517569822E-1
 7.838866937925000E9     5.601330848029938E-1   -8.914417698880298E-2    2.303516819110107E-3    3.646634736920293E-3    2.306825852623044E-3    3.617259718294720E-3    3.889830035939061E-1   -3.749656499926040E-1
 7.838897785000000E9     5.597419257142091E-1   -9.117917383083676E-2    2.323437341376897E-3    3.644561959542827E-3    2.308042504066407E-3    3.595340855843686E-3    3.875411690791285E-1   -3.767074414575815E-1
 7.838928632075000E9     5.594052428787794E-1   -9.326856533261790E-2    2.345608526822051E-3    3.655042121400177E-3    2.333324044257690E-3    3.610449003533906E-3    3.859942523297100E-1   -3.782837085243432E-1
 7.838959479150000E9     5.589905848070732E-1   -9.515612375670561E-2    2.374987616564806E-3    3.623402400114502E-3    2.338408840405525E-3    3.603377835725311E-3    3.844543305982436E-1   -3.798066719155265E-1
 7.838990326225000E9     5.586613758572038E-1   -9.729282758480398E-2    2.376704604796167E-3    3.636973468017046E-3    2.377523707125735E-3    3.613018867350387E-3    3.830432704271034E-1   -3.813695018366036E-1
 7.839021173300000E9     5.584203053572986E-1   -9.936252418887272E-2    2.412723535951469E-3    3.636120541188530E-3    2.364031419646064E-3    3.608469040854437E-3    3.814593762841559E-1   -3.827726141203507E-1
 7.839052020375000E9     5.578985991673558E-1   -1.012634428606467E-1    2.449726295122285E-3    3.637132751359380E-3    2.390439821510161E-3    3.591171942389765E-3    3.798146933013112E-1   -3.844898376921801E-1
 7.839082867450000E9     5.575798486415259E-1   -1.034065538969623E-1    2.452138755429694E-3    3.645717034907572E-3    2.424132707127852E-3    3.562576162763814E-3    3.783159473021471E-1   -3.859667745793169E-1
 7.839113714525000E9     5.572114314678227E-1   -1.053459414774166E-1    2.478800901323208E-3    3.634642509871366E-3    2.435688695190078E-3    3.594222159956193E-3    3.769524258387810E-1   -3.876285376875326E-1
 7.839144561600000E9     5.567437127288816E-1   -1.074549958011354E-1    2.491330616450546E-3    3.617932360869322E-3    2.467833231156441E-3    3.584735000222141E-3    3.752059156275687E-1   -3.890809324762073E-1
 7.839175408675000E9     5.563227314297025E-1   -1.092107639973488E-1    2.494877649615680E-3    3.647686654361957E-3    2.461318124539799E-3    3.589949618596794E-3    3.737769964563928E-1   -3.905208052531134E-1
 7.839206255750000E9     5.561028424900887E-1   -1.114002953540356E-1    2.522110415459018E-3    3.625419069148773E-3    2.522187798183282E-3    3.564626321766450E-3    3.721946764897323E-1   -3.919217566680672E-1
 7.839237102825000E9     5.556309361026771E-1   -1.135054829200670E-1    2.553268162806647E-3    3.635614556510229E-3    2.534987744834818E-3    3.599283724201519E-3    3.706504046572980E-1   -3.934844637609346E-1
 7.839267949900000E9     5.552851989526805E-1   -1.155823798674145E-1    2.581834741608409E-3    3.584503028520564E-3    2.545657412258027E-3    3.581928742787736E-3    3.691274054378876E-1   -3.948287872722283E-1
 7.839298796975000E9     5.547842796046079E-1   -1.176234912665209E-1    2.611196658478164E-3    3.621082151533013E-3    2.575168172506411E-3    3.613615624777840E-3    3.675198500967422E-1   -3.964178020565558E-1
 7.839329644050000E9     5.542957449173475E-1   -1.195513485007228E-1    2.614705179449989E-3    3.594669458886136E-3    2.574703574049075E-3    3.594319498849871E-3    3.658942393411820E-1   -3.977894842264710E-1
 7.839360491125000E9     5.538379975297923E-1   -1.216282900875641E-1    2.643009841204541E-3    3.609369074218401E-3    2.605801685961848E-3    3.581075053724102E-3    3.643596252241445E-1   -3.993806461559514E-1
 7.839391338200000E9     5.534636218982909E-1   -1.235663063457834E-1    2.653360111945132E-3    3.596777347365395E-3    2.651885834794452E-3    3.547830946611449E-3    3.626890141921716E-1   -4.008526168538776E-1
 7.839422185275000E9     5.530602286086032E-1   -1.255037588880197E-1    2.690149640291727E-3    3.596696437419521E-3    2.683430669703957E-3    3.557973976504679E-3    3.611396280546357E-1   -4.023299635204660E-1
 7.839453032350000E9     5.525455436835777E-1   -1.276796550368310E-1    2.720244300686694E-3    3.586101948619125E-3    2.678876529382069E-3    3.567115017217773E-3    3.595465315245737E-1   -4.036666090027883E-1
 7.839483879425000E9     5.520998672315686E-1   -1.296417387383382E-1    2.733269936912137E-3    3.594327070462892E-3    2.716613040516721E-3    3.534114408539638E-3    3.577874338798352E-1   -4.051954617722996E-1
 7.839514726500000E9     5.517540097245461E-1   -1.316156417074564E-1    2.769378464043437E-3    3.608350350289581E-3    2.699093183288639E-3    3.546328457262801E-3    3.562234490121691E-1   -4.065773538182071E-1
 7.839545573575000E9     5.511372766192822E-1   -1.337301209600092E-1    2.786475512991852E-3    3.606903112812091E-3    2.738136352566744E-3    3.552731540501669E-3    3.546065506383088E-1   -4.081375221281379E-1
 7.839576420650000E9     5.506085370685437E-1   -1.356675843890694E-1    2.780089664242971E-3    3.598309676373137E-3    2.767600060902079E-3    3.527656647606485E-3    3.529026138417252E-1   -4.095548418548871E-1
 7.839607267725000E9     5.501656996027404E-1   -1.378069320916349E-1    2.829915325943455E-3    3.581199826792326E-3    2.785348029970703E-3    3.571128442018026E-3    3.513586829768067E-1   -4.107587848815222E-1
 7.839638114800000E9     5.495314552541627E-1   -1.396829799159649E-1    2.880944012931196E-3    3.584239294051845E-3    2.807670546469110E-3    3.543473054679296E-3    3.497512374920180E-1   -4.123452360519701E-1
 7.839668961875000E9     5.490480021612939E-1   -1.417763787889756E-1    2.892080471847610E-3    3.577625354571362E-3    2.844360330040644E-3    3.532330836140005E-3    3.480213520638142E-1   -4.138753389049147E-1
 7.839699808950000E9     5.486350335855573E-1   -1.437861085016205E-1    2.884423836233033E-3    3.602273310581037E-3    2.857523474387770E-3    3.549903833615648E-3    3.463815841664469E-1   -4.150657921995832E-1
 7.839730656025000E9     5.480544166463170E-1   -1.457655246886774E-1    2.919482339524796E-3    3.576729926630951E-3    2.879560615845796E-3    3.554364087418454E-3    3.447202025382863E-1   -4.166209260990101E-1
 7.839761503100000E9     5.476048725802111E-1   -1.477903969568397E-1    2.927225752444665E-3    3.568173198705096E-3    2.909875847191459E-3    3.546565859793522E-3    3.431526938863880E-1   -4.177883529298649E-1
 7.839792350175000E9     5.468724312573157E-1   -1.497218128838641E-1    2.988004668060841E-3    3.576769465832801E-3    2.944786962778487E-3    3.552587699514053E-3    3.414491209951449E-1   -4.191885026119880E-1
 7.839823197250000E9     5.463981089979351E-1   -1.518198465106003E-1    2.977828477730035E-3    3.571896748012541E-3    2.940688206979694E-3    3.559816331795311E-3    3.397136435917905E-1   -4.206660780061802E-1
 7.839854044325000E9     5.459016990776911E-1   -1.537298858512549E-1    3.056859747087249E-3    3.548831165511313E-3    2.991666236600895E-3    3.562322232712280E-3    3.380076318696555E-1   -4.220231328974655E-1
 7.839884891400000E9     5.452521492595773E-1   -1.557431527734875E-1    3.055647764852241E-3    3.573893662897741E-3    3.027886331931426E-3    3.549465296334891E-3    3.363321844844323E-1   -4.233853012308601E-1
 7.839915738475000E9     5.445928206565577E-1   -1.577682376287447E-1    3.107619974779369E-3    3.567886746608893E-3    3.035823328928990E-3    3.538378618446757E-3    3.347474204833694E-1   -4.245494828620484E-1
 7.839946585550000E9     5.441216817524032E-1   -1.598095345844802E-1    3.112285201869111E-3    3.561780653117825E-3    3.081761289651627E-3    3.548239262344362E-3    3.329705463810986E-1   -4.261096803462772E-1
 7.839977432625000E9     5.435726314842569E-1   -1.618092516444178E-1    3.146794031271538E-3    3.579351042741410E-3    3.080740520179878E-3    3.566509978630124E-3    3.312855874186849E-1   -4.274121300723127E-1
 7.840008279700000E9     5.428523251382393E-1   -1.637814813866216E-1    3.161296445615313E-3    3.542574962464158E-3    3.105364246207812E-3    3.519193500735830E-3    3.297045746789306E-1   -4.285492945730845E-1
 7.840039126775000E9     5.422427680466061E-1   -1.658155585132724E-1    3.195718120900648E-3    3.553969709703346E-3    3.150539513666655E-3    3.538044204341991E-3    3.279214838039993E-1   -4.299812335930733E-1
 7.840069973850000E9     5.416237577541696E-1   -1.676535272333074E-1    3.227132501572233E-3    3.559028677821433E-3    3.170944298095596E-3    3.569072001490237E-3    3.261161786999802E-1   -4.314612868090781E-1
 7.840100820925000E9     5.410456025447040E-1   -1.697939305518232E-1    3.232630481898395E-3    3.563227162237797E-3    3.203001858592997E-3    3.517529698126322E-3    3.244995636558144E-1   -4.327779646776614E-1
 7.840131668000000E9     5.405659179419184E-1   -1.716986860051100E-1    3.299445025443010E-3    3.535014540499002E-3    3.226245404227771E-3    3.564585982763070E-3    3.226997973558592E-1   -4.340191217237988E-1
 7.840162515075000E9     5.397936733164546E-1   -1.735947920811028E-1    3.299909171217876E-3    3.562242181991732E-3    3.247746291072587E-3    3.556016366983006E-3    3.210180079161394E-1   -4.353374379536533E-1
 7.840193362150000E9     5.390719467400030E-1   -1.756577748508351E-1    3.331291355155705E-3    3.514109570162975E-3    3.260774977866452E-3    3.547366416594761E-3    3.192366557829210E-1   -4.365303984674366E-1
 7.840224209225000E9     5.385025193130867E-1   -1.775695243672125E-1    3.332957462103303E-3    3.516119458523954E-3    3.327220963825867E-3    3.498049806958991E-3    3.174827169742400E-1   -4.378178727641119E-1
 7.840255056300000E9     5.377556386019994E-1   -1.795965183304036E-1    3.386148322820910E-3    3.533527855865048E-3    3.329436815982172E-3    3.501618200856184E-3    3.158498571917974E-1   -4.391842882516993E-1
 7.840285903375000E9     5.371622543014918E-1   -1.815008324530921E-1    3.419278465065481E-3    3.524867142050892E-3    3.327152344994533E-3    3.497980571190878E-3    3.140893188778122E-1   -4.404917722787966E-1
 7.840316750450000E9     5.365281233161358E-1   -1.835784569985479E-1    3.437686631348437E-3    3.527317915458462E-3    3.416196049774292E-3    3.481448386073050E-3    3.122729259845157E-1   -4.417176555423771E-1
 7.840347597525000E9     5.357724361482445E-1   -1.855809623584585E-1    3.455656288087660E-3    3.519930771213790E-3    3.391520067588990E-3    3.469446527643891E-3    3.103376375613828E-1   -4.429491924664319E-1
 7.840378444600000E9     5.351088018522439E-1   -1.874948169496791E-1    3.503496512554363E-3    3.498274055555205E-3    3.424669212128993E-3    3.486512468618857E-3    3.087119678874725E-1   -4.441242014662312E-1
 7.840409291675000E9     5.343654492202011E-1   -1.895627549123995E-1    3.523353520709639E-3    3.512634979372823E-3    3.483647299732619E-3    3.518116679958809E-3    3.070029200261409E-1   -4.455244391505400E-1
 7.840440138750000E9     5.335897495966170E-1   -1.915985536153278E-1    3.555810528437536E-3    3.537084931998425E-3    3.509458805550075E-3    3.495070863153357E-3    3.052538753752509E-1   -4.466772838783772E-1
