#  HZ   S   DB   R     50.00 
! Rohde & Schwarz Vector Network Analyzer 
! Rohde-Schwarz,ZNB20-2Port,1311601062101988,3.16
! Created: UTC 1/12/2023, 6:38:10 PM
! freq[Hz]                db:S11                  ang:S11                 db:S21                  ang:S21                 db:S12                  ang:S12                 db:S22                  ang:S22
 7.874556184000000E9    -2.246300756587245       3.565534075131648E1    -5.264479547383654E1    -5.801240631372054E1    -5.284299517294927E1    -5.955450390562874E1    -2.160042197783763       1.167308804777331E1
 7.874616837550000E9    -2.247324399338705       3.546982505796213E1    -5.259232774767698E1    -5.723464842243229E1    -5.279950187373871E1    -6.149822065716611E1    -2.158724909841511       1.155701672540192E1
 7.874677491100000E9    -2.243642324666960       3.531599600339695E1    -5.232363105874583E1    -5.885999227410398E1    -5.254555164411859E1    -6.161133294625897E1    -2.156394280790598       1.142407014183450E1
 7.874738144650000E9    -2.245957059555831       3.516476031765802E1    -5.257561948208682E1    -5.982472817698539E1    -5.254012235742573E1    -6.289633285416836E1    -2.156965469836234       1.125864106299006E1
 7.874798798200000E9    -2.238682700105662       3.498076194670573E1    -5.250465161771815E1    -6.042351086946127E1    -5.229718397415134E1    -6.310174465120662E1    -2.159294900278146       1.110915486672148E1
 7.874859451750000E9    -2.243721714684364       3.481358022523101E1    -5.238112413669619E1    -5.676970996174286E1    -5.217354724937047E1    -6.256840709007290E1    -2.150617418175557       1.097184445827137E1
 7.874920105300000E9    -2.240509424423547       3.465886192637811E1    -5.224492290498966E1    -5.931405380123176E1    -5.232745907825862E1    -6.150939018490534E1    -2.155650454663779       1.081445316409975E1
 7.874980758850000E9    -2.237747826859781       3.447677873892481E1    -5.225031742921755E1    -6.019415847271087E1    -5.207042233854021E1    -6.081039586245813E1    -2.149952418818597       1.069479219879125E1
 7.875041412400000E9    -2.239566717105860       3.433309582689677E1    -5.203908353660479E1    -5.937420537451846E1    -5.201662288027426E1    -6.353129130450122E1    -2.144924868745571       1.048860510096259E1
 7.875102065950000E9    -2.232947710461218       3.413531351466553E1    -5.179268699714513E1    -6.075332908153025E1    -5.214994558629522E1    -6.332132210170671E1    -2.141547461755921       1.035988887290983E1
 7.875162719500000E9    -2.231993212154316       3.398866702069995E1    -5.170364255404715E1    -5.984550529271892E1    -5.186165501429177E1    -6.281298551504904E1    -2.140716444500048       1.023766489251756E1
 7.875223373050000E9    -2.231359441178392       3.380205519196993E1    -5.180297643096143E1    -5.934983619182269E1    -5.194936797217814E1    -6.294663541347534E1    -2.140966807729074       1.010390837208615E1
 7.875284026600000E9    -2.233491750195741       3.365525418091462E1    -5.156296464270434E1    -6.183761159435480E1    -5.158567488043796E1    -6.439593505984598E1    -2.137638447513612       9.958808096240285
 7.875344680150000E9    -2.227575876133203       3.349645082486575E1    -5.171190515343454E1    -6.279218718772788E1    -5.141954655704274E1    -6.310372010392981E1    -2.136705900391775       9.773301684799895
 7.875405333700000E9    -2.228456127382774       3.331388568143429E1    -5.140022233159857E1    -6.019122296437090E1    -5.121941498212229E1    -6.474761196483057E1    -2.139947756055543       9.656220233716832
 7.875465987250000E9    -2.226957126998547       3.313731408786480E1    -5.151278294495655E1    -6.094154707636612E1    -5.147094360624666E1    -6.364091588979783E1    -2.126702725312581       9.559154351286848
 7.875526640800000E9    -2.229634552615916       3.298187386555723E1    -5.138348016727848E1    -6.158063192692745E1    -5.146951740716499E1    -6.586085645433633E1    -2.120816270137540       9.361231556367045
 7.875587294350000E9    -2.228159139428199       3.282250689083097E1    -5.084940668872851E1    -6.065864502176997E1    -5.113160065928164E1    -6.426536535963071E1    -2.128959817757265       9.212629793302844
 7.875647947900000E9    -2.226858506711832       3.265181588382872E1    -5.107878751795729E1    -6.273409813653035E1    -5.153879482322044E1    -6.488637482981476E1    -2.127169453970405       9.085258990686658
 7.875708601450000E9    -2.225736844266130       3.249298905059017E1    -5.101197705704170E1    -6.233057596997379E1    -5.106078612071683E1    -6.671438346194974E1    -2.123179118022587       8.928476986707661
 7.875769255000000E9    -2.227611123945906       3.232350311405030E1    -5.087155449454868E1    -6.112338116090188E1    -5.108510717301382E1    -6.502320137619442E1    -2.130310188316489       8.804364961218502
 7.875829908550000E9    -2.224490672861655       3.215204456011120E1    -5.090437252239870E1    -6.438977936519528E1    -5.057793563762733E1    -6.601764011601095E1    -2.127559440815363       8.692040108083237
 7.875890562100000E9    -2.219340293658512       3.198465014029599E1    -5.066284051784617E1    -6.339098952581881E1    -5.090885062773645E1    -6.652005214282210E1    -2.119103848351827       8.509945596079296
 7.875951215650000E9    -2.220533535964040       3.181742465419353E1    -5.050701114055671E1    -6.453433497677773E1    -5.052213152574956E1    -6.627492649231998E1    -2.119478169010037       8.343223442007444
 7.876011869200000E9    -2.220571464663249       3.166169757315506E1    -5.028178032270783E1    -6.262288142482866E1    -5.047323421774319E1    -6.752243524508341E1    -2.119277188430681       8.190982890251483
 7.876072522750000E9    -2.217994556793311       3.151797799233608E1    -5.054381606003886E1    -6.361695803353030E1    -5.043485956734516E1    -6.739819256683951E1    -2.109102334903056       8.061680330862975
 7.876133176300000E9    -2.218994438483551       3.132934213850686E1    -5.031174250091393E1    -6.474543711553638E1    -5.034231108691642E1    -6.618761723398951E1    -2.114281989863815       7.903240360694299
 7.876193829850000E9    -2.215806207789852       3.116620937221329E1    -5.054004146645602E1    -6.532377856219045E1    -5.024722682940325E1    -6.779568188451449E1    -2.109780144455932       7.789242060649663
 7.876254483400000E9    -2.215146258567116       3.099772072319637E1    -5.011631342496764E1    -6.514508779433983E1    -5.030829823993028E1    -6.741665203543252E1    -2.114641824429307       7.669788334396729
 7.876315136950000E9    -2.216391693803452       3.081735845469701E1    -5.014098845335100E1    -6.559660883054086E1    -5.001325653733780E1    -6.912135482888576E1    -2.107554519498535       7.484964515860057
 7.876375790500000E9    -2.213993468020989       3.067798616442962E1    -4.959664655663595E1    -6.491933857142244E1    -4.986526271290699E1    -6.941153079327103E1    -2.109291904973748       7.311716070171079
 7.876436444050000E9    -2.214195391259103       3.049588326024402E1    -4.953836686309960E1    -6.571102433534300E1    -4.973484246738835E1    -6.988315994037350E1    -2.110284258280581       7.210297265969384
 7.876497097600000E9    -2.213829533161192       3.033756164826137E1    -4.957804684556932E1    -6.765225518294837E1    -4.952220365672646E1    -6.876799706954078E1    -2.101176961303352       7.077529693086798
 7.876557751150000E9    -2.211351880045946       3.017897289404966E1    -4.926687732165068E1    -6.725822398089302E1    -4.944216864808620E1    -7.066820645197744E1    -2.103360137565444       6.987709135316511
 7.876618404700000E9    -2.214358767129872       2.998948922306359E1    -4.907334609007926E1    -6.755883303444566E1    -4.936314678078898E1    -7.071597560399157E1    -2.103895821821918       6.774697577518901
 7.876679058250000E9    -2.210746016011161       2.981602307474643E1    -4.916579006238792E1    -6.575389289530530E1    -4.912462062091411E1    -7.134981689864121E1    -2.101900952083143       6.634329506811957
 7.876739711800000E9    -2.210049087502025       2.966859212124660E1    -4.915278561267453E1    -6.633954907721689E1    -4.907565749989752E1    -7.107741866345052E1    -2.103621903539271       6.511753708524578
 7.876800365350000E9    -2.207308699889293       2.950090451200984E1    -4.887838373917566E1    -6.868209021534268E1    -4.892532142587419E1    -7.206200655226051E1    -2.097963599276896       6.380657533436377
 7.876861018900000E9    -2.209241007806638       2.934778682485622E1    -4.878604246969345E1    -6.910012501943747E1    -4.886491536134895E1    -7.272676074358291E1    -2.088506707052747       6.203927659123329
 7.876921672450000E9    -2.210087000206493       2.919517404000962E1    -4.876367296631477E1    -6.981852310577787E1    -4.896099681788534E1    -7.166064828847152E1    -2.092126459651652       6.076273921903076
 7.876982326000000E9    -2.205412870647413       2.902255427649310E1    -4.852267682721394E1    -6.982608498685626E1    -4.850635629975799E1    -7.229496555945823E1    -2.093088240023691       5.988203708111283
 7.877042979550000E9    -2.205532163193548       2.885065643561380E1    -4.847064386869549E1    -6.926927692937481E1    -4.847222697495394E1    -7.340136777328800E1    -2.091595111438662       5.830526250176295
 7.877103633100000E9    -2.204861803211260       2.866314238339474E1    -4.829316429039877E1    -7.001183959139442E1    -4.829097953972320E1    -7.272207888736234E1    -2.087360839203946       5.639811203744720
 7.877164286650000E9    -2.204298695080252       2.851311165010468E1    -4.816528909570303E1    -7.116625799420986E1    -4.846294121847705E1    -7.404802759677493E1    -2.090215179393095       5.459727729472566
 7.877224940200000E9    -2.202857161811410       2.833415992041937E1    -4.798310087658747E1    -7.125157663831548E1    -4.801241491957274E1    -7.410172877940434E1    -2.088975627355405       5.381715513061539
 7.877285593750000E9    -2.198648695995097       2.818263648006217E1    -4.778962229812592E1    -7.086035753443478E1    -4.788758432747790E1    -7.423123996196672E1    -2.078073973784224       5.197951937241098
 7.877346247300000E9    -2.202481435930443       2.800998803352476E1    -4.744299991586247E1    -7.235114072689646E1    -4.788922604087737E1    -7.481047622196955E1    -2.083681053832294       5.096496155392439
 7.877406900850000E9    -2.198841039588374       2.784980917650471E1    -4.750792485427702E1    -7.241730358942755E1    -4.766497522494919E1    -7.474092258896346E1    -2.078070019631163       4.939623572480773
 7.877467554400000E9    -2.201741178911138       2.770529891967029E1    -4.727723870713545E1    -7.282851980014389E1    -4.733762834208751E1    -7.498886611297455E1    -2.078845912833928       4.779760723581470
 7.877528207950000E9    -2.200928283794791       2.751812310350396E1    -4.721094879915717E1    -7.236913494227559E1    -4.726941321639856E1    -7.626110044266753E1    -2.083744836668576       4.678465958365792
 7.877588861500000E9    -2.196975845396744       2.733446087262179E1    -4.691384077170143E1    -7.346143870876925E1    -4.717552747960568E1    -7.677127054171739E1    -2.073866313389981       4.496335506881909
 7.877649515050000E9    -2.198151163363979       2.718253119059945E1    -4.689916792580456E1    -7.377179302344483E1    -4.710548898787584E1    -7.656374230894620E1    -2.083059000421840       4.363539290759922
 7.877710168600000E9    -2.199219987024505       2.699807302357389E1    -4.673343910766901E1    -7.477688426573033E1    -4.682877695989792E1    -7.800347837357315E1    -2.069886741018137       4.255739473223037
 7.877770822150000E9    -2.195417631384871       2.685976844517903E1    -4.647507307944998E1    -7.445114400584889E1    -4.663727767504830E1    -7.779638838962285E1    -2.075166806917828       4.098113689983998
 7.877831475700000E9    -2.198337819696899       2.666323527417024E1    -4.636544868704291E1    -7.631700185342861E1    -4.650699832426034E1    -7.831042414482509E1    -2.074274728123471       3.970809515741730
 7.877892129250000E9    -2.193675474494828       2.650787778253013E1    -4.625458903375198E1    -7.590875668757164E1    -4.631198305929245E1    -7.941236249171199E1    -2.074608717647778       3.768169613997914
 7.877952782800000E9    -2.196743695609458       2.633148826892507E1    -4.599201089741469E1    -7.523924455974806E1    -4.610376246821310E1    -7.973956558713245E1    -2.068373589410744       3.690380103377676
 7.878013436350000E9    -2.195752378075252       2.618675166455952E1    -4.588249359130658E1    -7.637850480854961E1    -4.613150460343695E1    -7.965873083644114E1    -2.075161186970987       3.526094022213246
 7.878074089900000E9    -2.195982277428043       2.602389070896461E1    -4.554955178992741E1    -7.688607527321459E1    -4.577223608041394E1    -8.161782570088201E1    -2.073120785515200       3.385925853988017
 7.878134743450000E9    -2.193123189894067       2.581931896679347E1    -4.536763427897195E1    -7.730550280542207E1    -4.542613467201821E1    -8.111851414258810E1    -2.067072674977642       3.224524702064941
 7.878195397000000E9    -2.196466422624731       2.566370921438655E1    -4.527390748905924E1    -7.869386122040441E1    -4.538651513482690E1    -8.219685296032395E1    -2.070112637376908       3.087371832373103
 7.878256050550000E9    -2.195268395282306       2.549696640688105E1    -4.510941703973440E1    -7.943415890980813E1    -4.511182287764029E1    -8.285044934504371E1    -2.068634119876902       2.918670437102739
 7.878316704100000E9    -2.193605715385255       2.533220133334146E1    -4.485487119447608E1    -7.964406983136456E1    -4.492131721835291E1    -8.308104387153840E1    -2.072930141930712       2.798723075655568
 7.878377357650000E9    -2.193891601434004       2.515076409445138E1    -4.470805776644423E1    -8.057886265257561E1    -4.478227554995590E1    -8.332097609673347E1    -2.068820449866460       2.656603805576560
 7.878438011200000E9    -2.195167140648714       2.500245982051748E1    -4.441200778125842E1    -8.069182635201881E1    -4.459002952888886E1    -8.434620312295985E1    -2.069889070313635       2.518811081013182
 7.878498664750000E9    -2.197009265472104       2.482249106582442E1    -4.425219996352655E1    -8.163992869049210E1    -4.438867638216674E1    -8.550795112859785E1    -2.065722765310193       2.375888579734451
 7.878559318300000E9    -2.191128868992842       2.465571597808379E1    -4.397971130455437E1    -8.243498147589504E1    -4.412367990360242E1    -8.541373470958902E1    -2.066652589224737       2.230234931994574
 7.878619971850000E9    -2.196587093051292       2.448774974478742E1    -4.368352677796132E1    -8.262332655180121E1    -4.391001185958864E1    -8.654313536054944E1    -2.064490815747024       2.106843842448232
 7.878680625400000E9    -2.195154210990224       2.429358591793498E1    -4.352338772365933E1    -8.364609865564790E1    -4.364144382484969E1    -8.747265167191208E1    -2.065713773952984       1.936329183209401
 7.878741278950000E9    -2.193876713613570       2.414764790654534E1    -4.330019214609224E1    -8.443101372008897E1    -4.336167170180886E1    -8.833467590867062E1    -2.068655597916151       1.774430067462655
 7.878801932500000E9    -2.199473837061066       2.394927917644470E1    -4.315422061376844E1    -8.606086106793565E1    -4.325427614979102E1    -8.865425420661494E1    -2.067563865587764       1.653401272074065
 7.878862586050000E9    -2.197995106611912       2.377877425397554E1    -4.276788108227923E1    -8.628314495134566E1    -4.291380391391451E1    -8.971779198546405E1    -2.070755770824435       1.509869222601015
 7.878923239600000E9    -2.200601571998241       2.362166303314255E1    -4.249235645230233E1    -8.795244922824008E1    -4.271004669394940E1    -9.092946578730032E1    -2.067307018570296       1.353644224405352
 7.878983893150000E9    -2.202743838587018       2.343678357719086E1    -4.232289673831822E1    -8.838923723218630E1    -4.248516176397641E1    -9.154903304760624E1    -2.063301221424299       1.129912989998112
 7.879044546700000E9    -2.200036012604828       2.326734143649965E1    -4.203746729280007E1    -8.929506004528992E1    -4.212961190269709E1    -9.225813360310266E1    -2.072080411955548       1.039298001565248
 7.879105200250000E9    -2.199431671382744       2.312606779603684E1    -4.171443880385076E1    -9.022926712479523E1    -4.184980567067646E1    -9.333078156668437E1    -2.072607241818696       8.861520980407205E-1
 7.879165853800000E9    -2.205007562905463       2.292621423213309E1    -4.143503126199002E1    -9.105940114599807E1    -4.169706853617836E1    -9.417309732844265E1    -2.061783367308776       7.399028490531280E-1
 7.879226507350000E9    -2.203967464630855       2.277284744045201E1    -4.115988003914304E1    -9.283625163583879E1    -4.129284745696496E1    -9.640636000684594E1    -2.073305413225634       6.094276405841166E-1
 7.879287160900000E9    -2.209219034080575       2.258447621568213E1    -4.080570269753773E1    -9.387693270750904E1    -4.103872261523981E1    -9.724335772438613E1    -2.076287978188180       4.597102360809666E-1
 7.879347814450000E9    -2.211388666363995       2.240221467977627E1    -4.057198116710578E1    -9.511514084530054E1    -4.068467359389538E1    -9.939726443496825E1    -2.073760430438252       2.651713796200090E-1
 7.879408468000000E9    -2.210773871720587       2.222457253501438E1    -4.028986968220585E1    -9.624474999768105E1    -4.045699055813630E1    -1.001577651724116E2    -2.080417548964263       1.324206645831706E-1
 7.879469121550000E9    -2.216301794379683       2.207774234281531E1    -3.994677996606218E1    -9.851454489177877E1    -4.011633623629075E1    -1.018210111052827E2    -2.084088564096024      -1.645815822966627E-2
 7.879529775100000E9    -2.219458247448416       2.187327972759093E1    -3.961133242842431E1    -9.976685672740200E1    -3.975467403954299E1    -1.035410228229777E2    -2.082877520095340      -1.575715496010056E-1
 7.879590428650000E9    -2.222426899449789       2.171166594500755E1    -3.923562983205579E1    -1.014260560929597E2    -3.950030036782016E1    -1.047776022425974E2    -2.086338636075768      -3.297682040101813E-1
 7.879651082200000E9    -2.229264542326549       2.153301452415140E1    -3.892973996851310E1    -1.030890054996447E2    -3.908813635533770E1    -1.068465859172849E2    -2.097926213648766      -4.624758824183358E-1
 7.879711735750000E9    -2.231768708983484       2.134489638612866E1    -3.861832316983290E1    -1.052953748181546E2    -3.881817124516057E1    -1.085146110010934E2    -2.103515147300575      -5.882957338917152E-1
 7.879772389300000E9    -2.239369483248323       2.120140002209126E1    -3.820707242463578E1    -1.073315194084938E2    -3.841072416233487E1    -1.110745746483250E2    -2.105996430549482      -7.224194823700337E-1
 7.879833042850000E9    -2.247205155019372       2.104096424240790E1    -3.788979784533257E1    -1.095123979788020E2    -3.799266872416720E1    -1.131697702595919E2    -2.113166877804468      -9.043384312315574E-1
 7.879893696400000E9    -2.250751467474793       2.086900062535144E1    -3.748045420214824E1    -1.121292845150639E2    -3.775209672171977E1    -1.154410160409724E2    -2.118982220157244      -1.028713628504397
 7.879954349950000E9    -2.258479846176345       2.071260513746143E1    -3.717674981414324E1    -1.152975630282766E2    -3.738572534319778E1    -1.183325678369947E2    -2.129285838641349      -1.162306633409954
 7.880015003500000E9    -2.263939436124346       2.059900466381279E1    -3.690912535420695E1    -1.173850970424999E2    -3.705630951121725E1    -1.211096861897896E2    -2.135727201214403      -1.292399512892037
 7.880075657050000E9    -2.278609473042098       2.042214724940771E1    -3.650840868613292E1    -1.208905073663303E2    -3.669975049632922E1    -1.243973684976724E2    -2.148906918011175      -1.452459870864631
