#  HZ   S   DB   R     50.00 
! Rohde & Schwarz Vector Network Analyzer 
! Rohde-Schwarz,ZNB20-2Port,1311601062101988,3.16
! Created: UTC 1/12/2023, 6:39:10 PM
! freq[Hz]                db:S11                  ang:S11                 db:S21                  ang:S21                 db:S12                  ang:S12                 db:S22                  ang:S22
 7.874568896000000E9    -2.247078346377594       3.559404541095894E1    -5.301822292193172E1    -5.681997960908411E1    -5.294674560353005E1    -6.055615560925111E1    -2.204382269514364       1.148831779080612E1
 7.874629549550000E9    -2.248566517690825       3.542669695856013E1    -5.225739597083586E1    -5.725592360125773E1    -5.247745200731310E1    -5.857501749029801E1    -2.197689923043297       1.138181427243503E1
 7.874690203100000E9    -2.243453230839871       3.527328035231999E1    -5.238479398243023E1    -5.787225840502027E1    -5.225037432342410E1    -6.055773993478342E1    -2.200155651671819       1.119512659062347E1
 7.874750856650000E9    -2.241614994626964       3.506584261777977E1    -5.248869713788270E1    -5.907769200129682E1    -5.248293295387633E1    -6.191332072893213E1    -2.194883447031764       1.107658872751227E1
 7.874811510200000E9    -2.241029469124519       3.490724614370073E1    -5.245045640489609E1    -5.695298602674360E1    -5.231489449349097E1    -6.070967258499212E1    -2.198451971983356       1.096275658786452E1
 7.874872163750000E9    -2.241926018309720       3.478465919119796E1    -5.195873688457241E1    -6.122245172218232E1    -5.225786412522556E1    -6.163127979404307E1    -2.192202524208782       1.076329648900629E1
 7.874932817300000E9    -2.236801281100595       3.455873006493045E1    -5.239925784361213E1    -5.877275506741184E1    -5.236962365891345E1    -6.258542494873736E1    -2.197174818556783       1.059632399337420E1
 7.874993470850000E9    -2.238190175421590       3.441795042250417E1    -5.229596663728287E1    -5.799811861827566E1    -5.216907181109164E1    -6.350438061869136E1    -2.190711321524410       1.049150629427993E1
 7.875054124400000E9    -2.237442955374122       3.424491478663082E1    -5.234268080782249E1    -5.580839953490003E1    -5.214136303026930E1    -6.263741526406727E1    -2.191463659651345       1.037155793303607E1
 7.875114777950000E9    -2.237091984051865       3.407923319593883E1    -5.180544956843364E1    -6.190992031009779E1    -5.197963246995571E1    -6.121694840360277E1    -2.188855327878958       1.022906235399339E1
 7.875175431500000E9    -2.237451709770677       3.391842324826871E1    -5.187780685935890E1    -5.915561824671465E1    -5.196209832076745E1    -6.493845080861321E1    -2.183312728121495       1.005310698648773E1
 7.875236085050000E9    -2.231430554676352       3.374826721959224E1    -5.158314250976053E1    -6.002725956752258E1    -5.186949287476580E1    -6.305624680405053E1    -2.183123444333702       9.883478499757604
 7.875296738600000E9    -2.232499052494826       3.358802167923302E1    -5.181273736420714E1    -6.215949346719872E1    -5.161822895279747E1    -6.610980767135449E1    -2.186690740306437       9.755219884566547
 7.875357392150000E9    -2.229933470618818       3.343103185510696E1    -5.137544562041356E1    -6.143898326643136E1    -5.163785336196470E1    -6.462879390233444E1    -2.184546988056293       9.624984805449929
 7.875418045700000E9    -2.229791815291432       3.326546006758178E1    -5.141873789726364E1    -6.245967417752833E1    -5.156470571310362E1    -6.312536613950886E1    -2.178023057806341       9.467537059493043
 7.875478699250000E9    -2.232129005040639       3.306265152595643E1    -5.133406537188420E1    -5.969469685158614E1    -5.142893898468286E1    -6.424938849795102E1    -2.174383435818050       9.369238897647518
 7.875539352800000E9    -2.229391401882258       3.291629062105562E1    -5.109744186908145E1    -6.101432218122805E1    -5.110291180286722E1    -6.372673057983801E1    -2.176140067780437       9.226543391218561
 7.875600006350000E9    -2.227382979854177       3.274563631865810E1    -5.112778230937670E1    -6.297850564356055E1    -5.139609754397240E1    -6.599934664285310E1    -2.174945431350059       9.061401592663847
 7.875660659900000E9    -2.224331902055140       3.260843521587802E1    -5.127885816344832E1    -6.379255551463286E1    -5.111261503514393E1    -6.441024184372910E1    -2.171990988524740       8.919674206778003
 7.875721313450000E9    -2.224666996537600       3.242393149904522E1    -5.088313291753582E1    -6.146763694203342E1    -5.125231876038066E1    -6.698184806695936E1    -2.170678649793420       8.767329013493645
 7.875781967000000E9    -2.226725405160433       3.227780121947483E1    -5.109882121443052E1    -6.207650606573317E1    -5.096228989936387E1    -6.663791163067981E1    -2.167464576679281       8.626602664205164
 7.875842620550000E9    -2.222679932997411       3.205859239785847E1    -5.083771437920173E1    -6.328557163932098E1    -5.093074409468134E1    -6.536742217597556E1    -2.162048481054669       8.519544875772912
 7.875903274100000E9    -2.222027930473689       3.191228907482936E1    -5.080500583000160E1    -6.239020979800847E1    -5.065287265285345E1    -6.736505772228605E1    -2.161907380243013       8.316450956936578
 7.875963927650000E9    -2.223799831865076       3.178792367006357E1    -5.054300697262590E1    -6.523610865008251E1    -5.065598365285504E1    -6.753229083209341E1    -2.160809938980917       8.188803446174733
 7.876024581200000E9    -2.217208092362829       3.159901694971544E1    -5.055777263815298E1    -6.492101290129168E1    -5.054270188581421E1    -6.763678314895147E1    -2.161848005162335       8.014580568289388
 7.876085234750000E9    -2.220834171996307       3.141311071362724E1    -5.029993316925427E1    -6.293823382376935E1    -5.039256277410328E1    -6.748607050461656E1    -2.156853006859194       7.940360945441624
 7.876145888300000E9    -2.218344803600433       3.127158529659411E1    -5.029701106920199E1    -6.419164174012816E1    -5.016521821753408E1    -6.813278586041774E1    -2.155996968246164       7.753833390039574
 7.876206541850000E9    -2.217246838963568       3.109273304484035E1    -5.015734008334552E1    -6.566479853091373E1    -5.023654314989650E1    -6.888353077157059E1    -2.155916088848133       7.634463675255700
 7.876267195400000E9    -2.216059295146803       3.094411469425618E1    -5.014513890800611E1    -6.381006817818868E1    -5.014325521142930E1    -6.882202089678067E1    -2.153328279108514       7.482948241218194
 7.876327848950000E9    -2.220368331111368       3.078670303819228E1    -4.970857717901394E1    -6.483800281682616E1    -4.992246076487526E1    -6.902143200856428E1    -2.151694475800588       7.320817201404017
 7.876388502500000E9    -2.213679210548465       3.062495763327922E1    -4.984240176640591E1    -6.648392034778307E1    -4.993856573408965E1    -6.946221115772612E1    -2.151440844029812       7.201199283437086
 7.876449156050000E9    -2.214544304899799       3.044463588221119E1    -4.978048935574517E1    -6.682944889387832E1    -4.983514973928180E1    -6.856475043314836E1    -2.147414290289283       7.058524203379100
 7.876509809600000E9    -2.212976585733895       3.027239347097713E1    -4.966046901741289E1    -6.711828828979313E1    -4.975680638530994E1    -6.912967631767708E1    -2.140027596929539       6.933570391420843
 7.876570463150000E9    -2.213784080791532       3.010068166683710E1    -4.934727592295027E1    -6.537240958656217E1    -4.934693822683838E1    -7.017576666311315E1    -2.147902120009504       6.778003502141459
 7.876631116700000E9    -2.213686942246117       2.992232633418887E1    -4.941636676960786E1    -6.665644038517787E1    -4.927123143924766E1    -7.049161371457620E1    -2.141674793006175       6.630785211702359
 7.876691770250000E9    -2.211766477129429       2.977409219358073E1    -4.925549990417005E1    -6.834967570381501E1    -4.945333521794542E1    -7.096135683691770E1    -2.139455569242382       6.489043393814967
 7.876752423800000E9    -2.208117083106189       2.960392798085305E1    -4.894958754917707E1    -6.662996058995289E1    -4.913768399386504E1    -7.209421128980405E1    -2.138886361605316       6.364637503542727
 7.876813077350000E9    -2.209349554284223       2.944109033722435E1    -4.872702807074833E1    -6.762413986180839E1    -4.901971661651995E1    -7.045260837553545E1    -2.140522750137308       6.138086594464768
 7.876873730900000E9    -2.209365950746515       2.931604975473245E1    -4.893096387827061E1    -6.872539801291357E1    -4.915374438771263E1    -7.319119298222830E1    -2.137713911836853       6.038677296713620
 7.876934384450000E9    -2.207584164903925       2.911276350488616E1    -4.852430615608650E1    -6.878075373196695E1    -4.895398729546754E1    -7.262869919646059E1    -2.145220096631927       5.902730237943599
 7.876995038000000E9    -2.209164735738259       2.895725301014886E1    -4.866994561389485E1    -6.904719868767184E1    -4.860254778521252E1    -7.134811502822492E1    -2.138385458386426       5.802273756638400
 7.877055691550000E9    -2.203196134321452       2.879376603659667E1    -4.845853713086392E1    -6.832176355456401E1    -4.857939637529587E1    -7.334314986650581E1    -2.136501832429154       5.658328038791034
 7.877116345100000E9    -2.203781694416798       2.860994179267586E1    -4.829389987580691E1    -7.074163424241848E1    -4.831997339854220E1    -7.404609102635004E1    -2.131288452164696       5.452664109414280
 7.877176998650000E9    -2.202264714541518       2.846747385913434E1    -4.823759671125028E1    -7.046070598169334E1    -4.818016925777094E1    -7.371076854144118E1    -2.129339041959202       5.369702966636404
 7.877237652200000E9    -2.205458983474205       2.829368761296121E1    -4.817731344946316E1    -7.126500912374213E1    -4.815017678598245E1    -7.392000126703212E1    -2.127375561049917       5.198821316623010
 7.877298305750000E9    -2.203171806500692       2.809465904334910E1    -4.771833967079307E1    -7.084650548101659E1    -4.819057903422498E1    -7.535430348574305E1    -2.124560420573797       5.083542377520800
 7.877358959300000E9    -2.197205647169491       2.795243890100124E1    -4.779341291788683E1    -7.179702563330122E1    -4.793837401820571E1    -7.561595622045610E1    -2.124896845522464       4.868290623632525
 7.877419612850000E9    -2.200760848301489       2.778757751030685E1    -4.765146396862350E1    -7.236789477703465E1    -4.768278503952867E1    -7.550663614974523E1    -2.128404090726990       4.787846279636194
 7.877480266400000E9    -2.199933034860422       2.761710127514655E1    -4.741869650107168E1    -7.333544868804616E1    -4.762566160186810E1    -7.555636192275260E1    -2.120621543015884       4.639464605955875
 7.877540919950000E9    -2.196822844872442       2.744434910593098E1    -4.732223237288540E1    -7.313403788733919E1    -4.754198652671188E1    -7.540772020254768E1    -2.125152431199059       4.476629123473210
 7.877601573500000E9    -2.196754788245871       2.729076863236187E1    -4.707717819063618E1    -7.394309260464584E1    -4.713376349501095E1    -7.643904722155050E1    -2.120033597420626       4.361325958768298
 7.877662227050000E9    -2.200444755244194       2.712650594899546E1    -4.694645761744856E1    -7.250811668900356E1    -4.705776810207293E1    -7.718540894093999E1    -2.113335075967387       4.225389015227966
 7.877722880600000E9    -2.196553321313682       2.695462403860093E1    -4.686056796933093E1    -7.468384358877306E1    -4.694415218476402E1    -7.810553598506102E1    -2.114005754400714       4.056714282590336
 7.877783534150000E9    -2.199873675860730       2.677883549583348E1    -4.656584998921633E1    -7.468999961575020E1    -4.674242547675443E1    -7.712427196339947E1    -2.114632395171049       3.914690114666714
 7.877844187700000E9    -2.196830593835832       2.661676492015768E1    -4.633676585997232E1    -7.667693333368602E1    -4.653357195701486E1    -7.771445143573952E1    -2.113909212177010       3.803983708150509
 7.877904841250000E9    -2.195504648918645       2.645470832622848E1    -4.622761247016497E1    -7.545643921201018E1    -4.637423996919891E1    -7.881288303958229E1    -2.120273291225727       3.661269341534092
 7.877965494800000E9    -2.197141499135798       2.628720506628218E1    -4.605288709006083E1    -7.621099969560451E1    -4.624759233793610E1    -7.948587442758728E1    -2.115464185438363       3.503670028978709
 7.878026148350000E9    -2.197841217678848       2.610445430552706E1    -4.587556034154882E1    -7.640493639199973E1    -4.603227642116857E1    -8.024303966499181E1    -2.112442387772934       3.376244362684187
 7.878086801900000E9    -2.198499938060095       2.594957647195961E1    -4.575506586659749E1    -7.674312482174956E1    -4.582259027579084E1    -7.978766343285163E1    -2.110421594914480       3.233574161414359
 7.878147455450000E9    -2.195020878961682       2.576023868061891E1    -4.548456592116647E1    -7.816816683215069E1    -4.556879838782226E1    -8.086791839529650E1    -2.117220451285397       3.039535591742407
 7.878208109000000E9    -2.195801009335570       2.560465875157923E1    -4.542273465787024E1    -7.806947350780626E1    -4.556764487493102E1    -8.216828151747973E1    -2.107299790385571       2.936227981828667
 7.878268762550000E9    -2.194533012252123       2.543373007696882E1    -4.512645786618232E1    -7.938192225880439E1    -4.521268840439936E1    -8.222248246182738E1    -2.109058928148341       2.777111956277615
 7.878329416100000E9    -2.195353596564435       2.525977948223359E1    -4.496584916823463E1    -7.968199116654446E1    -4.510660041836977E1    -8.300512571839285E1    -2.109310523853772       2.625119579903208
 7.878390069650000E9    -2.194130268648083       2.507743361501385E1    -4.468368696509692E1    -7.995707096674046E1    -4.486987960658097E1    -8.380797325917111E1    -2.109713902773080       2.480962663916773
 7.878450723200000E9    -2.198746417280553       2.492571345875581E1    -4.452506653799739E1    -8.102298123360393E1    -4.454817476633029E1    -8.384127368567877E1    -2.108145978814457       2.337140809495267
 7.878511376750000E9    -2.193440472366913       2.473525887808490E1    -4.419748254015175E1    -8.136369153633109E1    -4.441157584377186E1    -8.457791366377661E1    -2.104736031543916       2.211237145325433
 7.878572030300000E9    -2.197325235719635       2.458182927569695E1    -4.410937514049700E1    -8.215555979549997E1    -4.417486949707060E1    -8.483733281931916E1    -2.106654269677492       2.046197425685573
 7.878632683850000E9    -2.192851700289241       2.440708868445904E1    -4.386675344744794E1    -8.264033795294255E1    -4.387402141934197E1    -8.685503941835638E1    -2.106486310391335       1.917176435437546
 7.878693337400000E9    -2.195086067654171       2.423178077012634E1    -4.361010272408531E1    -8.346038396181707E1    -4.372720490504872E1    -8.751601192938644E1    -2.105511515258669       1.778907284977175
 7.878753990950000E9    -2.194276455941591       2.408685103057380E1    -4.339555922384682E1    -8.430262057419300E1    -4.348505135521780E1    -8.739535757813040E1    -2.103240517979466       1.593065215148117
 7.878814644500000E9    -2.196716388739969       2.389290724186842E1    -4.311131381445528E1    -8.545789936047620E1    -4.325537047518873E1    -8.850180637165306E1    -2.104775595434599       1.471683617286638
 7.878875298050000E9    -2.196998973078110       2.372563118389670E1    -4.283140087065694E1    -8.623390619655889E1    -4.312060678217363E1    -8.942505242227524E1    -2.110056327586848       1.305679451146148
 7.878935951600000E9    -2.197895719188574       2.355297922471632E1    -4.254649004979552E1    -8.708108694727792E1    -4.273256829723017E1    -9.008879431185240E1    -2.104011181425711       1.207292465083539
 7.878996605150000E9    -2.201713068508711       2.340163203011219E1    -4.231866287404961E1    -8.784761739377218E1    -4.244539864811909E1    -9.160875580622219E1    -2.107882088123194       1.001644113036715
 7.879057258700000E9    -2.201425291982690       2.320462534692212E1    -4.208294057239294E1    -8.914513803633734E1    -4.229018767706627E1    -9.227908974021952E1    -2.104899738648553       8.851997332263383E-1
 7.879117912250000E9    -2.202512784908094       2.305931324602927E1    -4.172376528439523E1    -9.006394533308502E1    -4.191705363542391E1    -9.333319744810203E1    -2.109931041852464       7.294261618802302E-1
 7.879178565800000E9    -2.203773661255624       2.286981582331998E1    -4.148250942942759E1    -9.108028544309410E1    -4.170650236324604E1    -9.466359504082088E1    -2.106630610907858       6.004500128576437E-1
 7.879239219350000E9    -2.205362581330486       2.270713071874766E1    -4.117489253617882E1    -9.303108892747849E1    -4.145944075548585E1    -9.600443807128028E1    -2.117295280232212       4.088836205391153E-1
 7.879299872900000E9    -2.205549958172466       2.252384609835736E1    -4.091472747225179E1    -9.388824520743927E1    -4.117622008829752E1    -9.680674056745920E1    -2.113404232849343       2.773626413983402E-1
 7.879360526450000E9    -2.210135115930493       2.234881137923956E1    -4.060926741416704E1    -9.445798487040825E1    -4.077628336546798E1    -9.856019798867526E1    -2.119534784976730       1.200108250640848E-1
 7.879421180000000E9    -2.212334118894121       2.216976453578710E1    -4.028163258251861E1    -9.680038242679325E1    -4.043517320850799E1    -9.939673055782802E1    -2.119950538814492      -1.324195126925547E-2
 7.879481833550000E9    -2.214874721749430       2.199269782985023E1    -4.007179783406811E1    -9.778381507877518E1    -4.012999984984666E1    -1.014278631247032E2    -2.120879605865210      -1.679249974323829E-1
 7.879542487100000E9    -2.220236962174573       2.181251274680911E1    -3.968007396192980E1    -9.926072178138384E1    -3.983112231710894E1    -1.033041371791992E2    -2.128104835219815      -3.022528068385294E-1
 7.879603140650000E9    -2.224654233888979       2.165665890160427E1    -3.935964689244685E1    -1.009591150474673E2    -3.951447502871080E1    -1.041777561574226E2    -2.127689763363253      -4.649450942080497E-1
 7.879663794200000E9    -2.229690983649362       2.147535294935257E1    -3.902619392654786E1    -1.032697167066150E2    -3.914499065576018E1    -1.062356137426207E2    -2.130444037905266      -6.424619579623732E-1
 7.879724447750000E9    -2.231646063693931       2.132100526877020E1    -3.871521483544469E1    -1.050338438864168E2    -3.884360812543362E1    -1.079910487027019E2    -2.138388235995218      -7.693425253916716E-1
 7.879785101300000E9    -2.235399872645667       2.114539291894841E1    -3.832465517887816E1    -1.069810712930550E2    -3.845299507333450E1    -1.105367974365837E2    -2.142578655245940      -9.137198661347801E-1
 7.879845754850000E9    -2.242440631012457       2.096814764091563E1    -3.791312407807902E1    -1.090879033850011E2    -3.809533732707875E1    -1.126649186308562E2    -2.146256495404124      -1.092527114962113
 7.879906408400000E9    -2.254327559959878       2.079264413927282E1    -3.758214062874566E1    -1.122876618406940E2    -3.773635260767870E1    -1.152257326350675E2    -2.155904001989769      -1.178289746092632
 7.879967061950000E9    -2.255681644901135       2.066879649135184E1    -3.723284986664201E1    -1.144195432651452E2    -3.742070903408125E1    -1.179669983846240E2    -2.165860833970257      -1.343135181607567
 7.880027715500000E9    -2.269609386165606       2.049376396994904E1    -3.692604809248053E1    -1.171521874331092E2    -3.704529294961078E1    -1.207194409497195E2    -2.174085471367076      -1.452051969275523
 7.880088369050000E9    -2.277590715037943       2.035483923862191E1    -3.649641747256187E1    -1.204689387478342E2    -3.670625080451587E1    -1.238631707691938E2    -2.183430596033020      -1.597191263500526
