#  HZ   S   DB   R     50.00 
! Rohde & Schwarz Vector Network Analyzer 
! Rohde-Schwarz,ZNB20-2Port,1311601062101988,3.16
! Created: UTC 1/12/2023, 6:40:32 PM
! freq[Hz]                db:S11                  ang:S11                 db:S21                  ang:S21                 db:S12                  ang:S12                 db:S22                  ang:S22
 7.874656028000000E9    -2.244352990629019       3.535889009592202E1    -5.259157568739619E1    -5.871295199928186E1    -5.268085169748576E1    -5.987245093096242E1    -2.194444358228162       1.137652827421923E1
 7.874716681550000E9    -2.241498441181571       3.520607833611434E1    -5.274456889850866E1    -5.928638397084922E1    -5.258906166031122E1    -6.174304476867791E1    -2.190166749357188       1.125863572139960E1
 7.874777335100000E9    -2.241596961930718       3.504988689943016E1    -5.255303245315122E1    -5.819107540878157E1    -5.278177597128969E1    -6.146202356840134E1    -2.186302248877190       1.110747908123645E1
 7.874837988650000E9    -2.240869638015073       3.488248117914308E1    -5.239312074323479E1    -5.906563629737425E1    -5.240825995735185E1    -6.150052565882022E1    -2.188748591134270       1.092399716087242E1
 7.874898642200000E9    -2.237621944712992       3.471669837596320E1    -5.251778040156759E1    -5.822664614559586E1    -5.228143315892471E1    -6.249617502782873E1    -2.189732956941742       1.073952894900168E1
 7.874959295750000E9    -2.239179703003202       3.452648352050078E1    -5.220597713473894E1    -5.581313519934016E1    -5.238158672014150E1    -5.984132301679711E1    -2.189491474068520       1.064015550228821E1
 7.875019949300000E9    -2.238624252693028       3.438025846154656E1    -5.186432542100871E1    -5.939025478601931E1    -5.245542698231121E1    -6.090003490252764E1    -2.180740839759486       1.050316511626293E1
 7.875080602850000E9    -2.234427867142956       3.422571989643729E1    -5.210505855746263E1    -5.926003689254230E1    -5.231981250315763E1    -6.425500208713427E1    -2.185777224367242       1.033598619173327E1
 7.875141256400000E9    -2.235216846695043       3.405111551982184E1    -5.207073245826876E1    -5.998851029436230E1    -5.241587301573519E1    -6.291689091143425E1    -2.174944437671845       1.020636308196887E1
 7.875201909950000E9    -2.234799819354207       3.387210783942936E1    -5.226434062047430E1    -5.825994490797628E1    -5.206325446197081E1    -6.245393312462042E1    -2.173198348256475       1.004606338015686E1
 7.875262563500000E9    -2.233423773608727       3.371261865231382E1    -5.194257574696005E1    -5.884460267718959E1    -5.181332296963787E1    -6.490337975332510E1    -2.171630772927078       9.883525852839922
 7.875323217050000E9    -2.229188967827760       3.353033155819099E1    -5.170336915867168E1    -6.137696907824665E1    -5.172511543221405E1    -6.270785361310536E1    -2.173133933167390       9.750722295276175
 7.875383870600000E9    -2.230948702666776       3.337691703982701E1    -5.220750068652916E1    -6.016917620360514E1    -5.186151316961949E1    -6.279394816466018E1    -2.169587128107890       9.614976458173111
 7.875444524150000E9    -2.228691795644609       3.320115877605569E1    -5.163038180543379E1    -6.087127189016229E1    -5.204456765470778E1    -6.367559826846151E1    -2.172471205257073       9.434597353711624
 7.875505177700000E9    -2.232082030365782       3.305465738558706E1    -5.173280046982772E1    -6.215287267182701E1    -5.124874056690737E1    -6.413923551291266E1    -2.168549247555709       9.331817464256762
 7.875565831250000E9    -2.227703613161924       3.288275122305213E1    -5.174845785123729E1    -6.322970451009773E1    -5.185821834725505E1    -6.500597414627489E1    -2.167678593938874       9.183490234726374
 7.875626484800000E9    -2.226154815386641       3.271974097300167E1    -5.145722304611021E1    -6.455917905961435E1    -5.132504485962714E1    -6.240919813763215E1    -2.162255036743793       9.004012687999195
 7.875687138350000E9    -2.226392412942319       3.253846036583212E1    -5.128314795851837E1    -6.195021858288930E1    -5.122141370524665E1    -6.648853116693857E1    -2.164388235805373       8.899360716400246
 7.875747791900000E9    -2.222334597760976       3.240584431040305E1    -5.094848521074260E1    -6.218311631132234E1    -5.116511424893127E1    -6.511829431420642E1    -2.167668844546639       8.741369894436346
 7.875808445450000E9    -2.226411586207435       3.220311441481098E1    -5.109224946792614E1    -6.188435119344187E1    -5.127520041466401E1    -6.492109034792010E1    -2.161358812365609       8.630660251380426
 7.875869099000000E9    -2.218013367302603       3.205310890055885E1    -5.121089679161994E1    -6.353933009997026E1    -5.092940626383046E1    -6.689683155449069E1    -2.159779750548361       8.471993685116328
 7.875929752550000E9    -2.220060790644099       3.186660574731638E1    -5.109329523014534E1    -6.267063799289016E1    -5.108495394358609E1    -6.604566889776301E1    -2.152276581246997       8.319032777562784
 7.875990406100000E9    -2.217593369498196       3.172065377628357E1    -5.068563720155090E1    -6.323103465819302E1    -5.076949398509492E1    -6.590249092895317E1    -2.149505590894752       8.172020629741633
 7.876051059650000E9    -2.220894943603376       3.154033072814188E1    -5.049475468690058E1    -6.323175193844975E1    -5.068990610920001E1    -6.719568271526495E1    -2.155912646382446       8.055627645378806
 7.876111713200000E9    -2.218273282136196       3.139162321889084E1    -5.061741470697312E1    -6.197754811786051E1    -5.048494029353964E1    -6.819764749788325E1    -2.150257782225757       7.858098419589288
 7.876172366750000E9    -2.219286050661666       3.120994532139576E1    -5.030357606102526E1    -6.436421943044400E1    -5.047697420650684E1    -6.670599969046251E1    -2.147559798901261       7.756738955526900
 7.876233020300000E9    -2.213973908983590       3.106682071662732E1    -5.010540543735780E1    -6.395600927778710E1    -5.054475912973230E1    -6.802725302366727E1    -2.147205204790477       7.630912657843576
 7.876293673850000E9    -2.216275814056281       3.089537652789852E1    -5.020455115387767E1    -6.526296983328956E1    -5.034295239630013E1    -6.729523442608873E1    -2.144934925327513       7.480130702092127
 7.876354327400000E9    -2.211183120139971       3.070931426242880E1    -5.008264935915122E1    -6.480145822319010E1    -5.038386559800878E1    -6.819979602770719E1    -2.140460577680626       7.286230109610407
 7.876414980950000E9    -2.211437159772141       3.055558287691669E1    -4.978694827047433E1    -6.563228229166310E1    -5.029512755311328E1    -6.895525642613174E1    -2.140199104152621       7.159443562686755
 7.876475634500000E9    -2.216262796189440       3.037426546877075E1    -4.975815520260922E1    -6.727806232504075E1    -4.974721413365377E1    -6.867124248966769E1    -2.141047229430548       7.075793949265258
 7.876536288050000E9    -2.209546191898516       3.024095786111874E1    -4.990369371284558E1    -6.673113104691556E1    -4.984687066803335E1    -6.935333472259649E1    -2.139184846922651       6.929156955927719
 7.876596941600000E9    -2.213195497202646       3.007166173614720E1    -4.956841631129819E1    -6.645857901641288E1    -4.962589162912024E1    -7.043532400870927E1    -2.132808827517522       6.754885147741742
 7.876657595150000E9    -2.204511133351458       2.991593546670859E1    -4.961599556422738E1    -6.814548978856421E1    -4.983997193792402E1    -6.957922925437832E1    -2.130104356805847       6.588464122269100
 7.876718248700000E9    -2.209340519911446       2.974474751088548E1    -4.911119247891661E1    -6.787755338762699E1    -4.951205876734627E1    -7.052598888114854E1    -2.135833465987022       6.447685902655452
 7.876778902250000E9    -2.206794078579439       2.956931617445128E1    -4.934978757202398E1    -6.688697905107203E1    -4.931523139101525E1    -7.024567879266054E1    -2.133569249923647       6.346375920289749
 7.876839555800000E9    -2.206936398361095       2.941344468440783E1    -4.913321518152195E1    -6.794363818283831E1    -4.917170450542510E1    -7.129953647997868E1    -2.132463442215971       6.206658007206712
 7.876900209350000E9    -2.202531198452210       2.925757737268926E1    -4.893919636126591E1    -6.783046762493701E1    -4.906914981808954E1    -7.116331381862656E1    -2.133221049871181       6.028614674039946
 7.876960862900000E9    -2.202039524244552       2.906231263323904E1    -4.874811454717856E1    -6.903331901243202E1    -4.883781095622158E1    -7.062160015601184E1    -2.132262548066759       5.872438001967519
 7.877021516450000E9    -2.205849752937257       2.889440870455684E1    -4.881735761822260E1    -6.783354413142509E1    -4.874413559434623E1    -7.343813562173250E1    -2.124008772121672       5.727531719963712
 7.877082170000000E9    -2.204183672106517       2.872228279546334E1    -4.852053868349507E1    -6.788233699713990E1    -4.879784511945337E1    -7.128696947652305E1    -2.129264017669067       5.649466691924565
 7.877142823550000E9    -2.205038305807631       2.856389666393640E1    -4.866250659277384E1    -6.966222034293615E1    -4.864189073355557E1    -7.252671059809747E1    -2.121408163120858       5.495718853515545
 7.877203477100000E9    -2.201098413222091       2.840573445544600E1    -4.829121352278919E1    -6.987967947315559E1    -4.833691940799041E1    -7.273410328903886E1    -2.120847015350415       5.324337319068631
 7.877264130650000E9    -2.200373667417754       2.826906610671828E1    -4.821838078361729E1    -6.955106956556253E1    -4.829069363932314E1    -7.265976445590539E1    -2.120326265987126       5.214432063975411
 7.877324784200000E9    -2.203890257913643       2.809799225592939E1    -4.818077131673192E1    -6.924193655450998E1    -4.798216328907445E1    -7.374145003408603E1    -2.118672724630904       5.079100940992490
 7.877385437750000E9    -2.198744240082428       2.794883326425769E1    -4.781262903863288E1    -7.147475318389878E1    -4.805651012955483E1    -7.386708035477952E1    -2.122001857740611       4.902102234330874
 7.877446091300000E9    -2.201339821450500       2.773652348141649E1    -4.775601935137752E1    -7.117052792098833E1    -4.783639677770295E1    -7.375406615364014E1    -2.122378402185119       4.787014498390608
 7.877506744850000E9    -2.200427735557986       2.758710247099877E1    -4.756660522899213E1    -7.143453425260394E1    -4.769929139854246E1    -7.527370631697165E1    -2.104546621827037       4.650124913728404
 7.877567398400000E9    -2.195874476604761       2.741316746605172E1    -4.737909689379325E1    -7.087208761591064E1    -4.750698409592218E1    -7.518726031006106E1    -2.116435920417783       4.473046263705776
 7.877628051950000E9    -2.198333279945365       2.724938173407361E1    -4.727926976726189E1    -7.200479430059124E1    -4.752215538542813E1    -7.593729798736925E1    -2.108998080442221       4.352583514462063
 7.877688705500000E9    -2.193533162266557       2.708920306122340E1    -4.705414695806301E1    -7.374577916270741E1    -4.715487424269347E1    -7.651887223748834E1    -2.108294602567689       4.213511293785957
 7.877749359050000E9    -2.196121051116048       2.692692812172490E1    -4.681762842707197E1    -7.412798815453112E1    -4.702520883063475E1    -7.720855118827222E1    -2.112298017696056       4.039924448162873
 7.877810012600000E9    -2.197964235741996       2.674809503481010E1    -4.661046331309146E1    -7.409336106086876E1    -4.691387047419479E1    -7.710714948493302E1    -2.109850485524226       3.914950256935057
 7.877870666150000E9    -2.195640064997921       2.658055115921379E1    -4.653029617076486E1    -7.340617161311057E1    -4.653536492033355E1    -7.758697597820617E1    -2.111421135977710       3.792694605246768
 7.877931319700000E9    -2.197391907216683       2.642386654328198E1    -4.654061538886589E1    -7.454890745389747E1    -4.646056374307990E1    -7.789479105760407E1    -2.100690672411186       3.623839410274194
 7.877991973250000E9    -2.195381180255808       2.625096635630337E1    -4.612648844996124E1    -7.523691078013660E1    -4.628199705969725E1    -7.860548569884665E1    -2.107528059287136       3.477697216552079
 7.878052626800000E9    -2.196824149132317       2.606281867655011E1    -4.593946252346112E1    -7.579192611964730E1    -4.623068835610290E1    -7.930494092846311E1    -2.109511979876981       3.344251504361142
 7.878113280350000E9    -2.192861504478114       2.589138932246414E1    -4.588752241658387E1    -7.627163616110910E1    -4.592518043703631E1    -7.909287395706242E1    -2.103561210798095       3.234220270871024
 7.878173933900000E9    -2.191599999923175       2.571914070519173E1    -4.567728128162081E1    -7.661975191755735E1    -4.572839612111871E1    -8.044790410998699E1    -2.096878444329381       3.042178629562404
 7.878234587450000E9    -2.191322232588273       2.556621503273218E1    -4.555771355175825E1    -7.739320597481282E1    -4.566954501684613E1    -8.106864313855351E1    -2.097122905885032       2.912253051801322
 7.878295241000000E9    -2.194053866200700       2.540501585634420E1    -4.531797945554418E1    -7.778103049695677E1    -4.542290538875196E1    -8.165026468830986E1    -2.107507389930104       2.800361620931755
 7.878355894550000E9    -2.193489865380015       2.524872647522314E1    -4.513066670640701E1    -7.893066205350378E1    -4.520515413848348E1    -8.151924564909609E1    -2.095490196495431       2.639036289250854
 7.878416548100000E9    -2.189287188294950       2.505985266086546E1    -4.497775363567801E1    -7.934784786773288E1    -4.491612333746383E1    -8.147795931128330E1    -2.099256722135689       2.503953146173494
 7.878477201650000E9    -2.190173853685220       2.488482436433128E1    -4.463656005956705E1    -8.006337247107012E1    -4.471438505326616E1    -8.305071160094467E1    -2.091896583587676       2.363426046496365
 7.878537855200000E9    -2.193468233749524       2.472497733639454E1    -4.434922126221873E1    -7.990899625611945E1    -4.455583315147305E1    -8.255962277756609E1    -2.096769459957655       2.199209403808360
 7.878598508750000E9    -2.189322656550394       2.456165933644571E1    -4.423014261239449E1    -8.089194921742147E1    -4.438326065628306E1    -8.408359499043098E1    -2.094620500789881       2.089233720139550
 7.878659162300000E9    -2.191017510752375       2.437705944787916E1    -4.396670154829564E1    -8.171468501827951E1    -4.426884730886586E1    -8.540981342721489E1    -2.093206101255639       1.900085617428261
 7.878719815850000E9    -2.193468413875354       2.419769327774400E1    -4.389448379399889E1    -8.174311633127870E1    -4.390177579311656E1    -8.637589193070878E1    -2.092903530191791       1.731172891057203
 7.878780469400000E9    -2.190671215939509       2.405355352937793E1    -4.351330096240435E1    -8.323852633876730E1    -4.369367302189528E1    -8.617573195483926E1    -2.096118531590147       1.590182379743659
 7.878841122950000E9    -2.191605883402793       2.386078602278037E1    -4.321062151791160E1    -8.359285539236053E1    -4.349164355209489E1    -8.741030181888317E1    -2.099087442643028       1.477718758989344
 7.878901776500000E9    -2.194568046638506       2.367506362348866E1    -4.306300411744027E1    -8.488364622980401E1    -4.329262194394134E1    -8.801052581917203E1    -2.102814488615962       1.341914014258865
 7.878962430050000E9    -2.193321364701754       2.349596496109269E1    -4.291740721045110E1    -8.478540640792286E1    -4.303589316399788E1    -8.868577451184784E1    -2.097238821798623       1.164449933438014
 7.879023083600000E9    -2.192299005455718       2.333661098167491E1    -4.262477667171162E1    -8.666841241585784E1    -4.271462717183184E1    -8.944669913333661E1    -2.099714545862904       9.937862651398408E-1
 7.879083737150000E9    -2.195931444063203       2.317166728520791E1    -4.229062603611364E1    -8.763338832569197E1    -4.244905018286125E1    -9.084665144232325E1    -2.101336291142432       8.726539324599715E-1
 7.879144390700000E9    -2.201363500126507       2.298766334148928E1    -4.200908006622222E1    -8.791306912360901E1    -4.221824796677833E1    -9.161720984610349E1    -2.101786647889789       7.199308316115590E-1
 7.879205044250000E9    -2.197945156680610       2.283671410135985E1    -4.176198411313005E1    -8.947386890878278E1    -4.181035885600587E1    -9.255866661487906E1    -2.106147096837204       5.963589090390280E-1
 7.879265697800000E9    -2.197586203325337       2.264833324785986E1    -4.143101067427015E1    -9.089133625022191E1    -4.163495970795843E1    -9.372239235196596E1    -2.102542319949953       4.247702730971009E-1
 7.879326351350000E9    -2.201861591736582       2.248767891350989E1    -4.118845126873521E1    -9.189384279049320E1    -4.129233622885540E1    -9.464267218288332E1    -2.103149542264665       2.402824761613915E-1
 7.879387004900000E9    -2.205495818418375       2.233173489548686E1    -4.083309511211966E1    -9.297304679724435E1    -4.105227600342769E1    -9.591915422211599E1    -2.102123360404461       1.377712022334936E-1
 7.879447658450000E9    -2.207709288233858       2.209571399302975E1    -4.045568341189377E1    -9.398223129037541E1    -4.072499288093881E1    -9.724773905586402E1    -2.105508984380506      -1.029837408460164E-2
 7.879508312000000E9    -2.204419962739020       2.193880342113208E1    -4.025315824404049E1    -9.552378448086539E1    -4.039296650153722E1    -9.877407747762594E1    -2.117144181049036      -1.976984995785530E-1
 7.879568965550000E9    -2.211229351646708       2.177480402235758E1    -3.990651479937522E1    -9.653416362599232E1    -4.008184059070540E1    -9.974550000444940E1    -2.111492527974480      -3.652533220172584E-1
 7.879629619100000E9    -2.215188425842446       2.159345921169371E1    -3.958871788505022E1    -9.781676383001029E1    -3.968920649281943E1    -1.021010806489380E2    -2.111909025849634      -5.381538269458467E-1
 7.879690272650000E9    -2.217555539452644       2.139850185639775E1    -3.922899706876074E1    -9.918147942353983E1    -3.941808583017195E1    -1.034682315926977E2    -2.113406286279411      -6.308783940721541E-1
 7.879750926200000E9    -2.222211714432352       2.124500496546770E1    -3.884662534634527E1    -1.021752535652254E2    -3.901346488134541E1    -1.048933998778252E2    -2.124765484198396      -8.007543329868352E-1
 7.879811579750000E9    -2.228243650894491       2.108410112034922E1    -3.848445471271589E1    -1.035442732610812E2    -3.869010832347020E1    -1.069116496037473E2    -2.131598696428398      -9.184980440115385E-1
 7.879872233300000E9    -2.238249093306197       2.090282568337835E1    -3.813236746646002E1    -1.056989031820127E2    -3.837531378754264E1    -1.092450177465401E2    -2.132605659551733      -1.089649911876387
 7.879932886850000E9    -2.240033049680817       2.075090765316305E1    -3.781929790774342E1    -1.081413967961925E2    -3.798754780568991E1    -1.114319667860398E2    -2.136830638698308      -1.218668861193158
 7.879993540400000E9    -2.249826681576594       2.058228758546511E1    -3.747052663546806E1    -1.105678656075244E2    -3.760572936695811E1    -1.138440066521800E2    -2.151818729869725      -1.385672519529687
 7.880054193950000E9    -2.258804258037398       2.041401094772487E1    -3.704794699003970E1    -1.130980408414965E2    -3.722907424253569E1    -1.166397988173658E2    -2.159226971074790      -1.533358651971559
 7.880114847500000E9    -2.264927337327352       2.025524909561157E1    -3.665541764296758E1    -1.163761515545320E2    -3.688677985310018E1    -1.194388914886239E2    -2.162725626796100      -1.638113207047766
 7.880175501050000E9    -2.275830750958550       2.012383650369314E1    -3.630513188899459E1    -1.190630772876855E2    -3.646388031175017E1    -1.224824727307280E2    -2.173307819912137      -1.820880011403917
