#  HZ   S   DB   R     50.00 
! Rohde & Schwarz Vector Network Analyzer 
! Rohde-Schwarz,ZNB20-2Port,1311601062101988,3.16
! Created: UTC 1/12/2023, 6:46:50 PM
! freq[Hz]                db:S11                  ang:S11                 db:S21                  ang:S21                 db:S12                  ang:S12                 db:S22                  ang:S22
 7.875521824000000E9    -2.224255110760046       3.312199171583014E1    -5.267215290466176E1    -6.139456834766276E1    -5.274888009536396E1    -6.277112971788981E1    -2.152775744364626       9.426385147792971
 7.875582477550000E9    -2.225407693427035       3.297797883286737E1    -5.279646715837398E1    -5.952666411682360E1    -5.273208304923078E1    -6.095473533179957E1    -2.153888361923726       9.306626974602558
 7.875643131100000E9    -2.221359796625332       3.279371717914460E1    -5.280330522942734E1    -5.744989747296862E1    -5.305430321954888E1    -6.304008797404226E1    -2.152523880473936       9.105390491747855
 7.875703784650000E9    -2.222649977380090       3.262658744933198E1    -5.266694685115586E1    -5.926409246401210E1    -5.257903457169847E1    -6.226957468841547E1    -2.145776425486085       9.029803856929197
 7.875764438200000E9    -2.222528337523672       3.246791380368217E1    -5.247284480402850E1    -6.192730085203069E1    -5.277308481546786E1    -6.429960292921167E1    -2.152125805258644       8.840412986361054
 7.875825091750000E9    -2.223112542354027       3.229836465525671E1    -5.215472240356925E1    -6.225756658752385E1    -5.229525127005025E1    -6.601063788145714E1    -2.144116496750264       8.660205547590373
 7.875885745300000E9    -2.220282985576083       3.211615344937492E1    -5.221637942965789E1    -6.105621035811791E1    -5.239543870144993E1    -6.524563015172664E1    -2.140473772444655       8.574497286548517
 7.875946398850000E9    -2.219175354485264       3.195864523651957E1    -5.210663602555887E1    -6.074351528608117E1    -5.208633013414111E1    -6.552163643518635E1    -2.141946199622391       8.437744658035456
 7.876007052400000E9    -2.216336761470361       3.180560823258132E1    -5.220752130979399E1    -6.071142689475641E1    -5.236573268470998E1    -6.586068874825284E1    -2.134481046789273       8.283005671108896
 7.876067705950000E9    -2.214583168485564       3.162839312293481E1    -5.226780770953415E1    -6.091703513997233E1    -5.202195265562242E1    -6.499611764527785E1    -2.138292318616445       8.120633231337575
 7.876128359500000E9    -2.214723611249981       3.145899627527067E1    -5.187356225494094E1    -6.181906253935070E1    -5.187815229382287E1    -6.521029526971249E1    -2.136515480252468       7.965070210335836
 7.876189013050000E9    -2.214560587167691       3.129946997567036E1    -5.157013789771977E1    -6.311618226522920E1    -5.193226747393415E1    -6.566811326632859E1    -2.127923712179192       7.858754790835672
 7.876249666600000E9    -2.212889244067426       3.115716491633290E1    -5.180936833261904E1    -6.299030461931525E1    -5.189477616636212E1    -6.656317129862400E1    -2.127744465445862       7.717325326530546
 7.876310320150000E9    -2.208350353813885       3.096513032399270E1    -5.193526177965004E1    -6.149453831930032E1    -5.152093104130359E1    -6.558504337511769E1    -2.134914188649067       7.549734901050429
 7.876370973700000E9    -2.209348890055364       3.077689387604565E1    -5.113917529254245E1    -6.220371643231186E1    -5.156348020314862E1    -6.574850078260053E1    -2.128105656817129       7.411400526973984
 7.876431627250000E9    -2.209355784755424       3.063229368461245E1    -5.160545192839712E1    -6.510868877560577E1    -5.145676646537760E1    -6.566702460998289E1    -2.120936921301336       7.313944768157892
 7.876492280800000E9    -2.207700166742870       3.047772884222740E1    -5.123009716548687E1    -6.333685637336441E1    -5.149913085294094E1    -6.669956489339513E1    -2.127080660275946       7.189626862999385
 7.876552934350000E9    -2.207066213783091       3.032094965845232E1    -5.137602079328006E1    -6.347989825258684E1    -5.101338002654256E1    -6.672843181841701E1    -2.127982615208648       6.979788114932247
 7.876613587900000E9    -2.205312402078615       3.015279865987707E1    -5.108289862907489E1    -6.427880760881709E1    -5.141995087415127E1    -6.758487787946703E1    -2.122644491243254       6.843179857144161
 7.876674241450000E9    -2.203799784266069       3.001092371069394E1    -5.093207137430853E1    -6.342882142116699E1    -5.133137180180779E1    -6.875071368992927E1    -2.125108073967843       6.681604041730298
 7.876734895000000E9    -2.203478440928170       2.983410756111073E1    -5.084448757823726E1    -6.514981392224220E1    -5.098562185080227E1    -6.714843535259511E1    -2.121312221378979       6.588614736817610
 7.876795548550000E9    -2.203766316623942       2.966164017389712E1    -5.055714370707518E1    -6.400714302629058E1    -5.098606482742346E1    -6.807521326249936E1    -2.116415004430338       6.453325964252401
 7.876856202100000E9    -2.205051665017734       2.949328894246099E1    -5.087117333902297E1    -6.516025276091288E1    -5.115218458059415E1    -6.690474132313750E1    -2.114537654491018       6.313596096213248
 7.876916855650000E9    -2.203579767950883       2.932304259389682E1    -5.045031473772202E1    -6.555408841771917E1    -5.066608709126054E1    -6.851629307480889E1    -2.116892686769619       6.146292136686838
 7.876977509200000E9    -2.202330397137721       2.917453018556286E1    -5.042134722464061E1    -6.624583761345414E1    -5.056455635741354E1    -6.878277059750509E1    -2.110536740511706       6.053173911196127
 7.877038162750000E9    -2.198054936110023       2.901745962729343E1    -5.060659962057123E1    -6.584516605710252E1    -5.062410375944324E1    -6.930924047452750E1    -2.110961855950058       5.904460086043192
 7.877098816300000E9    -2.200160146734968       2.883709705196048E1    -5.014386662666867E1    -6.492038545741833E1    -5.032064896252712E1    -6.981422151295379E1    -2.104755671475003       5.760512907619885
 7.877159469850000E9    -2.196025226953807       2.865859416744424E1    -5.042721036890675E1    -6.836332898726326E1    -5.036154641246075E1    -6.941067634534208E1    -2.115685358538301       5.635783087767281
 7.877220123400000E9    -2.197795217535446       2.850470276818633E1    -4.997254618276300E1    -6.565435005483616E1    -4.994250894730613E1    -6.934805708048651E1    -2.105280220233783       5.493332848133786
 7.877280776950000E9    -2.197219635071821       2.836279503064849E1    -4.999305297737450E1    -6.779542873819159E1    -5.012543709431217E1    -7.088084858038600E1    -2.096933937464951       5.314632167406057
 7.877341430500000E9    -2.194678820838729       2.817383386638413E1    -4.999900112324188E1    -6.667913332575361E1    -4.988313401564410E1    -7.105833105932750E1    -2.103141145662215       5.191727345002557
 7.877402084050000E9    -2.196445849667743       2.801247740313638E1    -4.964580493690689E1    -6.782199003917295E1    -4.963930285937498E1    -7.161807835896464E1    -2.098331538411100       5.038362886798227
 7.877462737600000E9    -2.192263337915884       2.784502821298749E1    -4.961592438543428E1    -6.860342519923113E1    -4.949395216537101E1    -7.031715360551318E1    -2.095505299555175       4.880002402141915
 7.877523391150000E9    -2.192263517043484       2.768835906574042E1    -4.974435419266943E1    -6.847500612511517E1    -4.962970865610843E1    -7.192765368938372E1    -2.097427857471979       4.775304349405866
 7.877584044700000E9    -2.188906967737093       2.751181203074862E1    -4.929663351239643E1    -6.882736868249653E1    -4.929456359007447E1    -7.176957185831802E1    -2.090693612511476       4.586857435630823
 7.877644698250000E9    -2.188229487046761       2.734643252840554E1    -4.925750151619002E1    -6.885455118888420E1    -4.907077246509989E1    -7.273008547563749E1    -2.096321185950419       4.486936705055526
 7.877705351800000E9    -2.194776338334512       2.717306701096881E1    -4.901937413955910E1    -6.975159722641460E1    -4.917209595104212E1    -7.366972279485681E1    -2.095251549984892       4.296215151569871
 7.877766005350000E9    -2.185906144542257       2.701120079749044E1    -4.912252395881002E1    -6.898381224945273E1    -4.902784175350475E1    -7.356781076118685E1    -2.092572709038782       4.216263295754222
 7.877826658900000E9    -2.188514150847078       2.686672836499111E1    -4.865219853637563E1    -6.972500993965136E1    -4.890919802000811E1    -7.261997469259794E1    -2.093452402593367       4.032145171310627
 7.877887312450000E9    -2.188093867763444       2.668060421517515E1    -4.867981092069705E1    -7.071069850515384E1    -4.865185934582449E1    -7.291134526331868E1    -2.090827247847800       3.879668265284285
 7.877947966000000E9    -2.187328728868236       2.652305338159726E1    -4.864402705838739E1    -7.086271501227439E1    -4.861791152709724E1    -7.389908268070948E1    -2.083018388435935       3.787097143290772
 7.878008619550000E9    -2.188113588411933       2.632530134733799E1    -4.834050576544989E1    -7.011774195080882E1    -4.857559450100050E1    -7.490673404471271E1    -2.092261545222572       3.616907842634177
 7.878069273100000E9    -2.185129588082515       2.620507813071250E1    -4.833806542387735E1    -7.042754496269798E1    -4.833296086703561E1    -7.391459534244304E1    -2.081022669909586       3.480435539097289
 7.878129926650000E9    -2.188344185098127       2.602788412891983E1    -4.805729255454797E1    -7.201820994662934E1    -4.830328383378756E1    -7.559333410235537E1    -2.084390338866932       3.292868747142284
 7.878190580200000E9    -2.186136202003901       2.585988916353550E1    -4.781199968246181E1    -7.172500445366725E1    -4.809767520644678E1    -7.572297468545547E1    -2.086009618794784       3.177292239761325
 7.878251233750000E9    -2.186837212200481       2.570346852753132E1    -4.789778922525340E1    -7.319259083496864E1    -4.788487719892895E1    -7.659391152761921E1    -2.078592907807622       3.103056456175988
 7.878311887300000E9    -2.183643460215868       2.551208938639362E1    -4.768105881837370E1    -7.073491645537086E1    -4.783077677549440E1    -7.631703123738367E1    -2.088080835024147       2.912564501289350
 7.878372540850000E9    -2.182737552052242       2.538687093171787E1    -4.747101548620854E1    -7.383405735150751E1    -4.764373536394274E1    -7.642070174389642E1    -2.079848456976734       2.813107332743436
 7.878433194400000E9    -2.181393558577229       2.519536425303232E1    -4.741809716904160E1    -7.280331645175718E1    -4.762181887294879E1    -7.742227247772487E1    -2.081639141473342       2.607953040338146
 7.878493847950000E9    -2.182005071808341       2.499236342876386E1    -4.702013313389300E1    -7.377466491805664E1    -4.719477222284926E1    -7.716327113153378E1    -2.083227654071864       2.538113808718950
 7.878554501500000E9    -2.180898088698579       2.486329298621580E1    -4.706573721971037E1    -7.552484076185954E1    -4.726885340238231E1    -7.903605706553851E1    -2.077056524311244       2.364605167249012
 7.878615155050000E9    -2.181622082898147       2.468236441669390E1    -4.672522900406422E1    -7.496521775175418E1    -4.711720114247796E1    -7.829288537755650E1    -2.072325611362027       2.203155092348052
 7.878675808600000E9    -2.183129191083646       2.453673941900960E1    -4.676594220208644E1    -7.470550460031767E1    -4.695745808915503E1    -7.798187080957979E1    -2.074910583430861       2.106026144103826
 7.878736462150000E9    -2.178893020098084       2.433941802837207E1    -4.668554870749599E1    -7.543564823473697E1    -4.673256947092138E1    -7.931421741320692E1    -2.076909003600782       2.002795782380229
 7.878797115700000E9    -2.178807197271694       2.421956020050060E1    -4.632766598444570E1    -7.568313308509906E1    -4.652617750309672E1    -7.924210590529309E1    -2.071423019066180       1.801475123268111
 7.878857769250000E9    -2.178034821565403       2.403359794423918E1    -4.604896888102175E1    -7.622103236221992E1    -4.639540455499311E1    -8.026128270037110E1    -2.074232701692600       1.631286911078093
 7.878918422800000E9    -2.179928479525019       2.385387461080957E1    -4.606970486300188E1    -7.679885261717946E1    -4.624776295612843E1    -8.092371866542578E1    -2.070934981047052       1.504045120408086
 7.878979076350000E9    -2.177891238842010       2.368319278150639E1    -4.586773678566139E1    -7.744363569055646E1    -4.597503414307824E1    -8.107938391765592E1    -2.074068789662488       1.375737304764758
 7.879039729900000E9    -2.179773259804153       2.352894556276278E1    -4.572054786776542E1    -7.787776721982759E1    -4.585424549298899E1    -8.291176455965261E1    -2.076593392364703       1.271742584173160
 7.879100383450000E9    -2.177475601857176       2.336043865046981E1    -4.540933862003409E1    -7.880366956553777E1    -4.554497126913303E1    -8.161536424487203E1    -2.074363634762367       1.097837296781006
 7.879161037000000E9    -2.177106078081549       2.317244230532108E1    -4.520844497892384E1    -7.855596676083202E1    -4.528783099307144E1    -8.269898158808159E1    -2.067548965836170       9.226590994823543E-1
 7.879221690550000E9    -2.176045378055369       2.302881060649183E1    -4.510868329438033E1    -7.998936092226795E1    -4.531078059225432E1    -8.339963516745304E1    -2.064603330353525       8.283451476307976E-1
 7.879282344100000E9    -2.177282325605730       2.282126863583908E1    -4.483634027028569E1    -8.081310505330526E1    -4.497623284046382E1    -8.415375109282348E1    -2.060558155752019       6.946521301995624E-1
 7.879342997650000E9    -2.177666187044458       2.266524005453998E1    -4.474558585915691E1    -8.053764823383668E1    -4.471275479831113E1    -8.381397729578140E1    -2.065395522972906       4.954306977163265E-1
 7.879403651200000E9    -2.177193402430088       2.251533257045791E1    -4.450971372601784E1    -8.202450071853517E1    -4.460915554955021E1    -8.448420637359168E1    -2.063712341073200       3.478122145717630E-1
 7.879464304750000E9    -2.177441669453474       2.232528789927801E1    -4.407994290538825E1    -8.166356158831897E1    -4.438327872391527E1    -8.453148119366142E1    -2.063457407348765       2.163446932073851E-1
 7.879524958300000E9    -2.173504301322155       2.215594819263840E1    -4.391864004351709E1    -8.327305193848774E1    -4.420690851540893E1    -8.606627063859888E1    -2.067088844815729       3.571469279150625E-2
 7.879585611850000E9    -2.177632735612085       2.199623630160275E1    -4.381259446433549E1    -8.328125824182628E1    -4.403106358090396E1    -8.563050644818767E1    -2.062823027946350      -4.378312738645417E-2
 7.879646265400000E9    -2.178828231301991       2.183123247024152E1    -4.341318454593928E1    -8.395506887435455E1    -4.372863045005832E1    -8.828869451426927E1    -2.061787597040751      -2.166576372234726E-1
 7.879706918950000E9    -2.180729384779874       2.166349498990186E1    -4.316412606762414E1    -8.499290419952068E1    -4.349285957295952E1    -8.796512865858520E1    -2.071814738007802      -3.631182439267652E-1
 7.879767572500000E9    -2.179987962144879       2.147262141191968E1    -4.296341665038661E1    -8.607538631478921E1    -4.319661312307282E1    -8.872182270631374E1    -2.070479930422177      -5.314669379309661E-1
 7.879828226050000E9    -2.178008856495289       2.132927957667006E1    -4.289393787809453E1    -8.648598548367242E1    -4.291202884966283E1    -9.042325949028992E1    -2.064744850417158      -6.621093711328174E-1
 7.879888879600000E9    -2.180168834552073       2.111914565964859E1    -4.257439055985940E1    -8.698978777145122E1    -4.270137710388950E1    -9.073796290156606E1    -2.070211581278220      -7.586304574863221E-1
 7.879949533150000E9    -2.180714374270673       2.097852850932883E1    -4.220084737714605E1    -8.803479907356396E1    -4.239085460208102E1    -9.134495100366934E1    -2.064490271160583      -9.451674099364686E-1
 7.880010186700000E9    -2.185042439273673       2.081197381787816E1    -4.193064726601598E1    -8.938772683604117E1    -4.219995088993351E1    -9.254163979678316E1    -2.062929017119836      -1.097847014389085
 7.880070840250000E9    -2.179083134620633       2.060756442952884E1    -4.175626061315373E1    -8.952571892908145E1    -4.184092225444508E1    -9.345266097377450E1    -2.067227677387085      -1.239852966958758
 7.880131493800000E9    -2.184775172578747       2.044623622918174E1    -4.137070801789480E1    -9.149245647381829E1    -4.154348858557821E1    -9.402725612161586E1    -2.061949836882782      -1.399286740345384
 7.880192147350000E9    -2.188318519017739       2.027660974623494E1    -4.104809332117743E1    -9.190361666198882E1    -4.131156767528221E1    -9.586447712410626E1    -2.071589766862433      -1.536012984415277
 7.880252800900000E9    -2.191465958199525       2.009590913528186E1    -4.074694771104446E1    -9.382302472662631E1    -4.097391157103742E1    -9.691426083605499E1    -2.068575489589539      -1.736108732877764
 7.880313454450000E9    -2.191208240690545       1.991098517941279E1    -4.036997732600808E1    -9.425193708379352E1    -4.054309667380360E1    -9.781356985864805E1    -2.081805636641313      -1.906849345951377
 7.880374108000000E9    -2.194159191160012       1.972556043607515E1    -4.012065505985898E1    -9.618515853230802E1    -4.035834166676253E1    -9.945510355362973E1    -2.080725604353058      -1.989869139954148
 7.880434761550000E9    -2.196950432267863       1.957489159763154E1    -3.979999747277675E1    -9.734659622755392E1    -3.988490025582568E1    -1.005934701693724E2    -2.078676029348664      -2.208525763411436
 7.880495415100000E9    -2.202936472919938       1.939608852711126E1    -3.935119745268786E1    -9.880926159367586E1    -3.961228648374153E1    -1.022702839455829E2    -2.085542190854351      -2.313092537616483
 7.880556068650000E9    -2.203260280278123       1.921259113697775E1    -3.908289640836513E1    -1.002987829365715E2    -3.930100938053548E1    -1.039803164618503E2    -2.084287147075321      -2.450731732599975
 7.880616722200000E9    -2.209414885179852       1.906150264491450E1    -3.864341969320878E1    -1.018901772955499E2    -3.890666850692492E1    -1.053475349767304E2    -2.089524235409623      -2.639124891250585
 7.880677375750000E9    -2.213735072512788       1.887172999352525E1    -3.835308467214839E1    -1.043341666018762E2    -3.849470742710082E1    -1.074380900674374E2    -2.095692909099640      -2.768458089501995
 7.880738029300000E9    -2.225199434534114       1.869064846836239E1    -3.792875954402229E1    -1.061409637795112E2    -3.818370600701793E1    -1.095508477156425E2    -2.106654452917081      -2.934862152072861
 7.880798682850000E9    -2.229720314373230       1.852612301217612E1    -3.754391619817427E1    -1.082112078181691E2    -3.775784503128921E1    -1.118629105202669E2    -2.110792073860626      -3.054826188275866
 7.880859336400000E9    -2.237850427366755       1.836051897010223E1    -3.712117100262012E1    -1.107754792561397E2    -3.738808213030430E1    -1.141667377319715E2    -2.118072327418994      -3.244484597614296
 7.880919989950000E9    -2.245374450305263       1.817223022306714E1    -3.680506361399739E1    -1.133693341295607E2    -3.694504005160532E1    -1.168079058956332E2    -2.129989400672701      -3.366917146720470
 7.880980643500000E9    -2.256026370881230       1.802140162912568E1    -3.637938998542357E1    -1.159145439855162E2    -3.662421562887609E1    -1.196053782154733E2    -2.133981374866093      -3.503957597257882
 7.881041297050000E9    -2.265668472944760       1.788476228899339E1    -3.593083231520728E1    -1.188911955783267E2    -3.620008746706960E1    -1.227402658235543E2    -2.145069709624004      -3.648970323725720
