#  HZ   S   DB   R     50.00 
! Rohde & Schwarz Vector Network Analyzer 
! Rohde-Schwarz,ZNB20-2Port,1311601062101988,3.16
! Created: UTC 1/12/2023, 6:32:06 PM
! freq[Hz]                db:S11                  ang:S11                 db:S21                  ang:S21                 db:S12                  ang:S12                 db:S22                  ang:S22
 7.875024735000000E9    -2.225133182864186       3.448906377760481E1    -5.224087188630658E1    -5.853431480743393E1    -5.250281468712140E1    -6.126058109935570E1    -2.135715629421708       1.048768366988900E1
 7.875085388550000E9    -2.224910185111031       3.432249415267911E1    -5.237563368709603E1    -5.811780079377878E1    -5.271827893197848E1    -6.562127537165100E1    -2.130993772466485       1.032714998277210E1
 7.875146042100000E9    -2.221309536465260       3.417382045647627E1    -5.244128463666077E1    -5.912408416768019E1    -5.261066593515125E1    -6.383983873634592E1    -2.131339911502455       1.022062142522944E1
 7.875206695650000E9    -2.222691965452201       3.395499770153300E1    -5.221697890638895E1    -5.995423100132192E1    -5.235003896939038E1    -6.260479155210483E1    -2.130026872766443       1.004744664086551E1
 7.875267349200000E9    -2.220227470542135       3.379032622237788E1    -5.229600876454952E1    -5.945273853170127E1    -5.249958732731730E1    -6.225279611195344E1    -2.127977366787514       9.928841700884584
 7.875328002750000E9    -2.221383943552552       3.366248875367795E1    -5.239420307703707E1    -6.078314397640580E1    -5.224382562335897E1    -6.378122149486780E1    -2.129272049087762       9.747785687503812
 7.875388656300000E9    -2.220843192020822       3.349181451838534E1    -5.194596301349414E1    -5.902520715083060E1    -5.216022080117015E1    -6.288248342711103E1    -2.123106486942752       9.607446638113197
 7.875449309850000E9    -2.216949989439540       3.331519875552673E1    -5.175106739792000E1    -6.075917728707047E1    -5.179879950668020E1    -6.172330992723115E1    -2.123491807216628       9.456102069255882
 7.875509963400000E9    -2.214367050777617       3.312750742797306E1    -5.187299218091648E1    -5.972950720002270E1    -5.207615602451260E1    -6.298076397147547E1    -2.122562032737739       9.337642084996686
 7.875570616950000E9    -2.214432604594231       3.297442753638902E1    -5.161515110828711E1    -5.996213572802611E1    -5.151621537884427E1    -6.296567809519980E1    -2.116614712864838       9.149077341501282
 7.875631270500000E9    -2.212006100502491       3.281742373998359E1    -5.157017009132868E1    -6.094925754656926E1    -5.200016161593805E1    -6.517026106619589E1    -2.117491420335794       9.040753391430984
 7.875691924050000E9    -2.211289538598505       3.266376858375792E1    -5.148065863073805E1    -6.092729540407710E1    -5.199113802800390E1    -6.490321523020154E1    -2.117828885634406       8.872259159406047
 7.875752577600000E9    -2.211111046528078       3.249302206818066E1    -5.164986719940746E1    -6.136707946002337E1    -5.127633353555183E1    -6.552601422360675E1    -2.117703222009740       8.737146484646145
 7.875813231150000E9    -2.211562464931292       3.234203827436427E1    -5.118146965436669E1    -6.268774732157721E1    -5.134426587563908E1    -6.482577974433380E1    -2.108724980005352       8.622227571618135
 7.875873884700000E9    -2.210171340576829       3.215333301705701E1    -5.141678552253715E1    -5.946674978857983E1    -5.146780229537072E1    -6.450101449122228E1    -2.111383537177143       8.498679361436706
 7.875934538250000E9    -2.208815437872811       3.199826031505521E1    -5.114833744635705E1    -6.039976361435421E1    -5.118555744939030E1    -6.600134696449128E1    -2.105533899300793       8.288316608139592
 7.875995191800000E9    -2.206066082121074       3.185807081315563E1    -5.148417309135329E1    -6.323539712771902E1    -5.132042438318850E1    -6.628437383625817E1    -2.113029654085826       8.187217437096660
 7.876055845350000E9    -2.205166281972723       3.167041254937478E1    -5.108979809291548E1    -6.179429430515896E1    -5.099725378548542E1    -6.575348719622724E1    -2.099796741504149       8.096339672127403
 7.876116498900000E9    -2.206881864882306       3.149650076044901E1    -5.106301138645546E1    -6.390367086995661E1    -5.105235781543108E1    -6.555802113791928E1    -2.098092037492475       7.945445415997637
 7.876177152450000E9    -2.203953953684941       3.134277129596819E1    -5.080322414639007E1    -6.180251847119712E1    -5.083922002109433E1    -6.425835437779314E1    -2.099909478580423       7.764314327299898
 7.876237806000000E9    -2.206132086553761       3.116413762445768E1    -5.080339479696818E1    -6.376793102908382E1    -5.065954246245311E1    -6.672202741540897E1    -2.101765790488716       7.649727966712193
 7.876298459550000E9    -2.203592281922971       3.101056093886718E1    -5.067413000670836E1    -6.247360521150338E1    -5.054852156447224E1    -6.660855436259034E1    -2.096418286097909       7.478878960897149
 7.876359113100000E9    -2.200290528900013       3.084012520971018E1    -5.066952040855100E1    -6.297710660597701E1    -5.079308417493138E1    -6.703751345425540E1    -2.099511481994447       7.356332340909759
 7.876419766650000E9    -2.198605731133653       3.069160142036025E1    -5.058911066062166E1    -6.280984153648115E1    -5.038611520048111E1    -6.812423020293919E1    -2.098675357428760       7.204652772410602
 7.876480420200000E9    -2.197727196722512       3.050007662915081E1    -5.019709063849593E1    -6.274889587686194E1    -5.061237779211404E1    -6.723723740024283E1    -2.093484360042941       7.018851949732208
 7.876541073750000E9    -2.197095697088760       3.036922639204876E1    -5.029686035400286E1    -6.421213094518779E1    -5.039136396889872E1    -6.818558435547666E1    -2.090117001427437       6.927341954897637
 7.876601727300000E9    -2.198780436831786       3.016183487073237E1    -5.005259941913845E1    -6.567040781106017E1    -5.019306341103135E1    -6.950201040213273E1    -2.093334310229334       6.760553678212082
 7.876662380850000E9    -2.198441395156108       3.000636381788595E1    -4.989577010599687E1    -6.476246299593555E1    -5.000782848344117E1    -6.897018807761916E1    -2.088821478625069       6.623538100122811
 7.876723034400000E9    -2.194402486141595       2.982575672340755E1    -4.987106013970137E1    -6.356493042674894E1    -4.983840579996500E1    -6.703216810495555E1    -2.086947855807435       6.484307572989282
 7.876783687950000E9    -2.194392179755320       2.969575512115484E1    -4.991175471764176E1    -6.623312661414050E1    -4.951985049670178E1    -6.848711726072156E1    -2.092428743920363       6.359146497207176
 7.876844341500000E9    -2.195563337224680       2.950998539105630E1    -4.960316113600824E1    -6.681749911275584E1    -4.983824548240253E1    -6.972061698455960E1    -2.085676962860227       6.203087001562223
 7.876904995050000E9    -2.192098689562721       2.935116092541588E1    -4.976399876635671E1    -6.721498544182934E1    -4.969786463442679E1    -6.824181355480565E1    -2.086474591390032       6.081104782849224
 7.876965648600000E9    -2.192081267250698       2.915626952617166E1    -4.966582313251368E1    -6.716896227440681E1    -4.945153872269253E1    -6.907846550652866E1    -2.081960966663935       5.957130974953213
 7.877026302150000E9    -2.186803216366968       2.901319530905441E1    -4.924264645746612E1    -6.739106859420338E1    -4.943622567886275E1    -6.928288152955642E1    -2.081062355817320       5.800136944620975
 7.877086955700000E9    -2.189339509587184       2.885299502941347E1    -4.911614672396998E1    -6.719356088025826E1    -4.927091411253842E1    -7.169960548430137E1    -2.078935660291347       5.609555266290766
 7.877147609250000E9    -2.191243186996208       2.869335820340844E1    -4.892462736292757E1    -6.840421840424916E1    -4.919470428196833E1    -7.073516512132713E1    -2.080630633977323       5.484058830453728
 7.877208262800000E9    -2.187006744848235       2.851789554842108E1    -4.890834880735714E1    -6.718100301393457E1    -4.885019672849185E1    -7.193695958452051E1    -2.077202814215483       5.374902018277349
 7.877268916350000E9    -2.187399456026952       2.834207459003795E1    -4.871699992934453E1    -6.787893558202468E1    -4.888762378951927E1    -7.178799382246457E1    -2.070535603171584       5.181490375244244
 7.877329569900000E9    -2.189104644661107       2.819110132574630E1    -4.856983279504320E1    -6.652685975853248E1    -4.864991241555597E1    -7.214025900317216E1    -2.072333438378185       5.108783793087719
 7.877390223450000E9    -2.184110710993857       2.799646826499880E1    -4.870428722921517E1    -6.930363564822513E1    -4.861519382127275E1    -7.220360908148874E1    -2.068162517862043       4.911348262276814
 7.877450877000000E9    -2.186352530886561       2.786718794575497E1    -4.838291384254595E1    -6.843535300831275E1    -4.843538791985911E1    -7.083915561393393E1    -2.071221772959926       4.778438303252033
 7.877511530550000E9    -2.187510445964815       2.771424645228011E1    -4.847435635061235E1    -6.816949601969900E1    -4.839584465068071E1    -7.185727737746959E1    -2.065214258703994       4.657652274957712
 7.877572184100000E9    -2.183311043609670       2.752627155509750E1    -4.799384090434789E1    -7.004192843855290E1    -4.820363958916643E1    -7.192647420391748E1    -2.066128123790003       4.516809658512498
 7.877632837650000E9    -2.184087971760336       2.737649574226817E1    -4.804037423840483E1    -7.051421282835214E1    -4.805395690681970E1    -7.275492241730262E1    -2.063782028914119       4.335311263735426
 7.877693491200000E9    -2.182148991543830       2.719590971840400E1    -4.785088513625716E1    -6.967926800399367E1    -4.783563675188337E1    -7.286305151688211E1    -2.064889853466850       4.246099896046105
 7.877754144750000E9    -2.183323035050901       2.701450718630184E1    -4.773353634187062E1    -7.076191622486782E1    -4.787661443829854E1    -7.448285907208090E1    -2.062409958112267       4.089104045079202
 7.877814798300000E9    -2.177235041006147       2.685717173549541E1    -4.741298597336484E1    -7.052623648062151E1    -4.760714208544761E1    -7.403904639067164E1    -2.064674195158554       3.932477989527984
 7.877875451850000E9    -2.182441207481223       2.667482776931847E1    -4.731930597648960E1    -7.073414200338915E1    -4.740987845805626E1    -7.458436348261213E1    -2.057787503596535       3.849206431258988
 7.877936105400000E9    -2.181257219672192       2.652726125257882E1    -4.720054175014410E1    -7.194340017881794E1    -4.738482429678656E1    -7.403290320510580E1    -2.062991513096472       3.637129772116314
 7.877996758950000E9    -2.178607269875471       2.637220913985741E1    -4.711398600576827E1    -7.132069878414549E1    -4.714125282779798E1    -7.485480015541074E1    -2.058051748907370       3.545375545767188
 7.878057412500000E9    -2.178120382328711       2.619402602642457E1    -4.680632066820964E1    -7.153917939222279E1    -4.708916858001291E1    -7.586056543979346E1    -2.059828395168384       3.378889601865830
 7.878118066050000E9    -2.180855659504752       2.604765425755689E1    -4.665254544879866E1    -7.184960164747481E1    -4.684125582298676E1    -7.577427934007585E1    -2.051460150690993       3.226474157456701
 7.878178719600000E9    -2.175177191494702       2.587098504264072E1    -4.638338795629065E1    -7.398945732101589E1    -4.664841171969261E1    -7.550948288981584E1    -2.062145909280524       3.098894892309167
 7.878239373150000E9    -2.176322982966707       2.569305698648582E1    -4.648784354385577E1    -7.265401765495960E1    -4.643095395956071E1    -7.678488555498592E1    -2.055978800908073       2.972944156970910
 7.878300026700000E9    -2.176873153929931       2.550588746953498E1    -4.598164316524233E1    -7.381901190759044E1    -4.627409620938001E1    -7.715192512493564E1    -2.053996253081995       2.822468097556242
 7.878360680250000E9    -2.173619811115587       2.536379083811230E1    -4.579181677485921E1    -7.398395516374363E1    -4.613706575736810E1    -7.729912076961722E1    -2.051569365030436       2.659859308074579
 7.878421333800000E9    -2.169637880157280       2.519986330364319E1    -4.578264639744705E1    -7.463941591297733E1    -4.592938404064721E1    -7.796728043540894E1    -2.052509520633096       2.500755569526997
 7.878481987350000E9    -2.174293217029462       2.497853314205233E1    -4.550192496858070E1    -7.470013658857700E1    -4.574273433844694E1    -7.816955061098378E1    -2.049475848221867       2.394090357486333
 7.878542640900000E9    -2.174313559687697       2.485777498136764E1    -4.559982089370657E1    -7.548972797802939E1    -4.546583221638738E1    -7.959468987034147E1    -2.051182719754808       2.272327581295906
 7.878603294450000E9    -2.175561383431208       2.467930071257593E1    -4.513914117760962E1    -7.631067149523490E1    -4.534480608653573E1    -7.858360362481950E1    -2.050122448291472       2.099487997444698
 7.878663948000000E9    -2.174818636562556       2.450237242574241E1    -4.499501782952008E1    -7.573856585672267E1    -4.510810046518090E1    -7.975345564572979E1    -2.042439768586358       1.950312621037692
 7.878724601550000E9    -2.174408371194034       2.434471169040385E1    -4.485383288038985E1    -7.731250949382307E1    -4.493573659220487E1    -8.014945197148943E1    -2.047429592452971       1.795139646067338
 7.878785255100000E9    -2.174476271322870       2.416921415428108E1    -4.453947063831542E1    -7.725883439864538E1    -4.479017337625631E1    -8.143935164984067E1    -2.047867899769847       1.660755639317159
 7.878845908650000E9    -2.173359588520213       2.400005850398227E1    -4.442219884551199E1    -7.848245998000472E1    -4.447474543483720E1    -8.173639741361413E1    -2.047855900565899       1.502876241654583
 7.878906562200000E9    -2.173447257629394       2.384256778935650E1    -4.423829510137628E1    -7.982235422160561E1    -4.429354501888015E1    -8.249108753429782E1    -2.050416210544154       1.359822267225679
 7.878967215750000E9    -2.171581837014875       2.364779366328186E1    -4.397066358637818E1    -7.976064074508520E1    -4.412960692958929E1    -8.341891686406103E1    -2.042872793468743       1.187621212318849
 7.879027869300000E9    -2.174493338331442       2.348221348931462E1    -4.374286036842668E1    -8.020543198825411E1    -4.376741081036223E1    -8.334719559155845E1    -2.042909065888540       1.060744961256652
 7.879088522850000E9    -2.173749632164140       2.331571157323944E1    -4.341765674423024E1    -8.068848946781929E1    -4.358448278460529E1    -8.420635450182436E1    -2.042803099947168       9.289144865889849E-1
 7.879149176400000E9    -2.173338406063359       2.313606840118400E1    -4.321569235678904E1    -8.085077329540746E1    -4.335026254858466E1    -8.478902075787234E1    -2.039107678234510       7.878881643496664E-1
 7.879209829950000E9    -2.173555090050596       2.295693358117330E1    -4.295254974299795E1    -8.216864818905628E1    -4.316167617312257E1    -8.470810489791047E1    -2.044227679781691       6.371653989908029E-1
 7.879270483500000E9    -2.174930852229023       2.279074267198682E1    -4.274204963283560E1    -8.292096496060060E1    -4.290917038827870E1    -8.621931444858666E1    -2.046339244861798       4.893128266986138E-1
 7.879331137050000E9    -2.174943239279393       2.261514131646396E1    -4.248999076487030E1    -8.379404289145073E1    -4.265790020208865E1    -8.660703679570939E1    -2.042565463440716       3.114246827478055E-1
 7.879391790600000E9    -2.174886684452563       2.243548829268703E1    -4.216740861111119E1    -8.432113556448321E1    -4.235924220547795E1    -8.705672904712290E1    -2.041785775019318       1.830569265116604E-1
 7.879452444150000E9    -2.176394356456880       2.225702162710365E1    -4.182953528079316E1    -8.508224388044566E1    -4.206591084526923E1    -8.778627625536093E1    -2.044584477387265       5.991575376668237E-2
 7.879513097700000E9    -2.180667624625717       2.208335208194392E1    -4.159099448433436E1    -8.571982479043717E1    -4.177758272342526E1    -8.885763773759528E1    -2.040468065493484      -9.511404634896380E-2
 7.879573751250000E9    -2.178666041867888       2.191590588492962E1    -4.125883162901562E1    -8.667839301200731E1    -4.151353711846717E1    -9.051472465273501E1    -2.044780480449298      -2.928094076292486E-1
 7.879634404800000E9    -2.180581105523903       2.173779930128151E1    -4.099133685386403E1    -8.774064855682219E1    -4.119962239152437E1    -9.126449691335385E1    -2.050908307123507      -4.538268264253736E-1
 7.879695058350000E9    -2.182660240888084       2.157553951016452E1    -4.069809186162126E1    -8.885790695510622E1    -4.092015941976336E1    -9.193254769972648E1    -2.054460811745645      -5.611811663393419E-1
 7.879755711900000E9    -2.185769897230675       2.138317773118136E1    -4.033264107648530E1    -8.975571944376797E1    -4.062322403121992E1    -9.351580582455833E1    -2.050582537616145      -7.237923031070111E-1
 7.879816365450000E9    -2.183653765192446       2.120421644018065E1    -4.000845174125651E1    -9.067262791231364E1    -4.032336346115525E1    -9.421835637983884E1    -2.052352071359497      -9.009123281315453E-1
 7.879877019000000E9    -2.189655877574547       2.101241469734317E1    -3.969290791311303E1    -9.210342365672855E1    -3.988653586387399E1    -9.537761050792919E1    -2.057600559188276      -1.061501851549397
 7.879937672550000E9    -2.193528368751517       2.085234072071529E1    -3.938835279917382E1    -9.383948461104265E1    -3.952620372189694E1    -9.686181905231700E1    -2.056825817998476      -1.187022629254282
 7.879998326100000E9    -2.195970130115362       2.066648564316153E1    -3.900119629281342E1    -9.469360538654642E1    -3.915393187540463E1    -9.863776437600279E1    -2.060687693643945      -1.356806786438903
 7.880058979650000E9    -2.196908382179478       2.046539461226311E1    -3.866256275683198E1    -9.646841100971112E1    -3.869090183141702E1    -1.002013225761899E2    -2.065226348348046      -1.513788104776182
 7.880119633200000E9    -2.208298667964567       2.031124661316147E1    -3.815568696034975E1    -9.854158051672547E1    -3.841674619666263E1    -1.019040852505101E2    -2.069797143937458      -1.651424521561056
 7.880180286750000E9    -2.212228530238561       2.010739386410436E1    -3.776569859488477E1    -1.000947298835458E2    -3.796197161380362E1    -1.035339183115380E2    -2.077170849538699      -1.850240945321918
 7.880240940300000E9    -2.217574577792345       1.993474557866078E1    -3.736189880829907E1    -1.024865603458743E2    -3.752468893501815E1    -1.056255131795780E2    -2.078222078714326      -1.974633245321731
 7.880301593850000E9    -2.225301158292898       1.976336145894768E1    -3.694290523890445E1    -1.043662507051725E2    -3.707293262967968E1    -1.078989426341689E2    -2.083624265847199      -2.140571612927174
 7.880362247400000E9    -2.235158812801338       1.959891386573429E1    -3.646642737950246E1    -1.069757885761565E2    -3.667570530653769E1    -1.104667832608817E2    -2.094321747123324      -2.288122650115249
 7.880422900950000E9    -2.243616496295747       1.940597432978605E1    -3.601210552875369E1    -1.094274169573550E2    -3.624108746265814E1    -1.129955622649774E2    -2.109427978155385      -2.480938185167013
 7.880483554500000E9    -2.252842327177784       1.925228876130690E1    -3.563142334441031E1    -1.123131601179715E2    -3.575825427073002E1    -1.160351392026638E2    -2.118657274679579      -2.617201290182892
 7.880544208050000E9    -2.266799584082094       1.909279674254790E1    -3.513680210891121E1    -1.157200247623462E2    -3.535659802582436E1    -1.191473376846423E2    -2.136162663800809      -2.734649342737553
