#  HZ   S   DB   R     50.00 
! Rohde & Schwarz Vector Network Analyzer 
! Rohde-Schwarz,ZNB20-2Port,1311601062101988,3.16
! Created: UTC 1/12/2023, 6:32:47 PM
! freq[Hz]                db:S11                  ang:S11                 db:S21                  ang:S21                 db:S12                  ang:S12                 db:S22                  ang:S22
 7.874945045000000E9    -2.226219822787273       3.468358189675590E1    -5.253807701417486E1    -5.762445089138559E1    -5.262964989717736E1    -6.154374593713363E1    -2.138647810448129       1.066250046378782E1
 7.875005698550000E9    -2.223542479832509       3.453329803399578E1    -5.258717665301973E1    -5.974114032668812E1    -5.256932074167026E1    -6.231097669932061E1    -2.133275323688617       1.052402291474873E1
 7.875066352100000E9    -2.223072827100544       3.436729172667586E1    -5.233568120462699E1    -5.817214353191201E1    -5.239721744078981E1    -5.983478168943523E1    -2.137890897370316       1.035719933601577E1
 7.875127005650000E9    -2.222969146697867       3.419652852716640E1    -5.234476502771984E1    -5.775473133902472E1    -5.239111938831790E1    -6.238513143061203E1    -2.132102662080813       1.023880532991644E1
 7.875187659200000E9    -2.221353016728268       3.403711107486645E1    -5.228184814194958E1    -5.898619040663466E1    -5.249041670969730E1    -6.230369554404516E1    -2.120146207648046       1.010586080962708E1
 7.875248312750000E9    -2.218640148090709       3.385824687396621E1    -5.221272363842614E1    -6.009931533311688E1    -5.216778947594630E1    -6.218240118289529E1    -2.124531011268197       9.977028049928775
 7.875308966300000E9    -2.220839154517504       3.370817716223084E1    -5.197553203474244E1    -6.033284483940704E1    -5.190909342143549E1    -6.144685208213582E1    -2.128895827278380       9.826082276349554
 7.875369619850000E9    -2.216732679815503       3.353571219703912E1    -5.234462053914555E1    -6.157200838428729E1    -5.183193977817851E1    -6.208975240220416E1    -2.117943474152611       9.625311067757039
 7.875430273400000E9    -2.217539082404024       3.333965488964678E1    -5.187727157638926E1    -6.155931440507953E1    -5.190304790284905E1    -6.327471304283394E1    -2.125238574139735       9.523330923919156
 7.875490926950000E9    -2.215533983120050       3.320024403002581E1    -5.175176375250584E1    -5.845540884446313E1    -5.184788272601394E1    -6.324049367758831E1    -2.121748099874107       9.397142446293788
 7.875551580500000E9    -2.210841568795080       3.302650456554943E1    -5.166494876974959E1    -6.186450848478488E1    -5.187883735894265E1    -6.577113835851239E1    -2.121449346049899       9.252485108284276
 7.875612234050000E9    -2.210490395146878       3.287142132666551E1    -5.165104451272952E1    -6.147069144184887E1    -5.151951289311506E1    -6.546356599807733E1    -2.117711377398222       9.066820001733806
 7.875672887600000E9    -2.214185621079808       3.270915445590420E1    -5.153475666006875E1    -6.047486543156482E1    -5.171554050885263E1    -6.341838255805777E1    -2.117270479418606       8.931295536192360
 7.875733541150000E9    -2.212397847211224       3.258050394760632E1    -5.135127424020134E1    -6.023109587607477E1    -5.169380218199512E1    -6.378374836774704E1    -2.118780410858085       8.814947211149391
 7.875794194700000E9    -2.212620633588120       3.237573039015239E1    -5.128338865786123E1    -6.051430191442439E1    -5.139615721629337E1    -6.376352616796567E1    -2.116107519492292       8.657123631944007
 7.875854848250000E9    -2.208375188781196       3.219669209458620E1    -5.129363154252096E1    -6.159276867851777E1    -5.138827796028112E1    -6.644394362761150E1    -2.112143351790674       8.500260195442435
 7.875915501800000E9    -2.211510378753291       3.201160739027367E1    -5.110646290351389E1    -6.235238465695810E1    -5.125654028876865E1    -6.445392058156003E1    -2.111639928610059       8.367071433059451
 7.875976155350000E9    -2.208183985177767       3.186964835617431E1    -5.087990034708408E1    -6.196100558140466E1    -5.122657827185007E1    -6.468567335087471E1    -2.110052677370211       8.229556537167023
 7.876036808900000E9    -2.204758913869540       3.171898298449754E1    -5.099985594142683E1    -6.250202202637193E1    -5.114161176904226E1    -6.730990922069103E1    -2.100906282116625       8.096117414932314
 7.876097462450000E9    -2.206973102579407       3.153985646596111E1    -5.097989004815302E1    -6.155974769111940E1    -5.098753326267229E1    -6.611098173862666E1    -2.101686234623369       7.932202287296723
 7.876158116000000E9    -2.203827364201331       3.136918055370606E1    -5.069942576637328E1    -6.205808598145861E1    -5.102613819980280E1    -6.503357034430023E1    -2.102649569168517       7.768706858219907
 7.876218769550000E9    -2.203864532095328       3.121570088335235E1    -5.067930116555224E1    -6.253998183934340E1    -5.076841214573453E1    -6.624566373582705E1    -2.098060525981888       7.667304244128768
 7.876279423100000E9    -2.203978880039845       3.106491146950431E1    -5.051496769312308E1    -6.393542109878124E1    -5.074081511405591E1    -6.801139596509552E1    -2.095599702019561       7.552704477274455
 7.876340076650000E9    -2.204345840632915       3.091528909550149E1    -5.052660318649083E1    -6.443591650326469E1    -5.029817646720935E1    -6.837959805098896E1    -2.097946166315928       7.395436303836895
 7.876400730200000E9    -2.200843144348021       3.069371111752340E1    -5.036931961223410E1    -6.290032564597575E1    -5.034208992213966E1    -6.680038240926953E1    -2.099846930685392       7.195398907230762
 7.876461383750000E9    -2.199684065025293       3.053278163717407E1    -5.033815507743266E1    -6.463110390903425E1    -5.014543158715732E1    -6.744881902564370E1    -2.089925194055714       7.086673300157565
 7.876522037300000E9    -2.202685150949003       3.040249528244016E1    -5.025349937100111E1    -6.499584767660241E1    -5.029197597741987E1    -6.752826891458548E1    -2.093674096038904       6.968888792719114
 7.876582690850000E9    -2.197635579333880       3.019956895252855E1    -5.005156274639040E1    -6.423634229841764E1    -5.002876044205037E1    -6.689384425973651E1    -2.093424225572178       6.812672447639907
 7.876643344400000E9    -2.197567093164339       3.006661584409104E1    -4.988172108546890E1    -6.628810752370335E1    -4.996051640483572E1    -6.988612859444591E1    -2.090494225191267       6.708210762459149
 7.876703997950000E9    -2.198220677451753       2.988122423626288E1    -4.981045081814328E1    -6.619658687301488E1    -4.983983647190374E1    -6.876286826380371E1    -2.091095751652444       6.508117341795555
 7.876764651500000E9    -2.198025734282761       2.973418651942961E1    -4.988403769148387E1    -6.595803511282210E1    -4.982393323890049E1    -7.046804588883874E1    -2.080721618135227       6.364920910643900
 7.876825305050000E9    -2.196995485479691       2.954691845167901E1    -4.943015641216748E1    -6.746874782909451E1    -4.972320813029022E1    -6.920627115783948E1    -2.093739363987778       6.219007729700178
 7.876885958600000E9    -2.193157091807352       2.939825212257543E1    -4.941384340160859E1    -6.551006410403869E1    -4.934697501305868E1    -7.131704033745189E1    -2.081041317266229       6.051375307879463
 7.876946612150000E9    -2.195936752795600       2.922740057765590E1    -4.939538766822758E1    -6.644169507492673E1    -4.914248103073124E1    -6.888474724307056E1    -2.086943781028721       5.963539674680963
 7.877007265700000E9    -2.190778030015096       2.906201780336970E1    -4.921976393876889E1    -6.620101020908980E1    -4.922234906277101E1    -7.033165077088702E1    -2.076396776323651       5.784971418131649
 7.877067919250000E9    -2.188612562363783       2.892248555622869E1    -4.887656868354449E1    -6.705623106285003E1    -4.909257921039735E1    -7.006460190896422E1    -2.079526163398059       5.676685740982599
 7.877128572800000E9    -2.190732451142536       2.873929680081848E1    -4.906283145015792E1    -6.826289726585600E1    -4.905014188858815E1    -6.995297684492309E1    -2.079504740012132       5.522460731868718
 7.877189226350000E9    -2.192574962761349       2.857098792475905E1    -4.901982491387473E1    -6.765608862660319E1    -4.904029249045444E1    -7.098069217115686E1    -2.084034678202646       5.398200092127461
 7.877249879900000E9    -2.189529382034606       2.840648768034833E1    -4.886493154832710E1    -6.854352051525503E1    -4.863461892517115E1    -7.209093009839000E1    -2.068944839143859       5.282597273734838
 7.877310533450000E9    -2.187706118493753       2.825003864523099E1    -4.852564028398491E1    -6.806463792937645E1    -4.868659217478495E1    -7.258653252083110E1    -2.070085793636820       5.108380631135571
 7.877371187000000E9    -2.184054343440013       2.805115581907993E1    -4.835901169625247E1    -6.751709396530110E1    -4.857669700604614E1    -7.212696231594992E1    -2.075181551195044       4.933105318161758
 7.877431840550000E9    -2.183771752371687       2.789783001786862E1    -4.832353900729247E1    -6.988393983094765E1    -4.827834083716634E1    -7.216599690895505E1    -2.074932258353023       4.855249566073719
 7.877492494100000E9    -2.185631018121100       2.774054385427507E1    -4.815732553541909E1    -6.909258035925954E1    -4.832417966406727E1    -7.262003842466272E1    -2.070701778967289       4.681245335872860
 7.877553147650000E9    -2.185798664665866       2.757751403248235E1    -4.807270588807472E1    -6.983805126445264E1    -4.801525772244283E1    -7.301930676212076E1    -2.069833923360988       4.533980504738556
 7.877613801200000E9    -2.180350210519742       2.740768390683477E1    -4.769847147348591E1    -6.910252874081233E1    -4.782869862032739E1    -7.323748648816840E1    -2.068412797615920       4.419091539913606
 7.877674454750000E9    -2.183639711638607       2.724957056372835E1    -4.772193580407457E1    -6.964254114110308E1    -4.766558442699665E1    -7.422695585331078E1    -2.072091248426125       4.244099824852648
 7.877735108300000E9    -2.182087137404439       2.708394801577587E1    -4.765986389404937E1    -7.051233200025010E1    -4.752101807332670E1    -7.399846758075189E1    -2.061313937624415       4.110863586032431
 7.877795761850000E9    -2.182530202621904       2.691083087586349E1    -4.746799010357252E1    -7.072706939776806E1    -4.742329521773974E1    -7.447079883440281E1    -2.058583741236085       3.959977526979655
 7.877856415400000E9    -2.178013408641964       2.670874837475763E1    -4.722811533135840E1    -7.191774571935603E1    -4.724825658273335E1    -7.464548690982345E1    -2.055286929161313       3.825447767668588
 7.877917068950000E9    -2.182580108629080       2.660234134143517E1    -4.719928388945100E1    -7.180483508197453E1    -4.711204743446339E1    -7.509782581876311E1    -2.057098222568043       3.671514331578743
 7.877977722500000E9    -2.183013617278204       2.638580857212245E1    -4.702387896221767E1    -7.127708854268829E1    -4.703079522344348E1    -7.562949412903099E1    -2.061601834980025       3.549221376757678
 7.878038376050000E9    -2.181029189121739       2.623963183969312E1    -4.678288724397790E1    -7.230607927253983E1    -4.681559039369017E1    -7.675580869238605E1    -2.060203535678056       3.414984011600699
 7.878099029600000E9    -2.180190284470151       2.605850990331527E1    -4.652680029968673E1    -7.270039756317171E1    -4.670102973779387E1    -7.568510743706466E1    -2.060140001133117       3.266151567774200
 7.878159683150000E9    -2.181397058643372       2.589977363873882E1    -4.644295705529721E1    -7.304946291834963E1    -4.650737002028085E1    -7.696989926097815E1    -2.052716994732413       3.109484384488466
 7.878220336700000E9    -2.179003082402316       2.572144491220579E1    -4.623645341906015E1    -7.284530484273853E1    -4.644526632498849E1    -7.708114984851804E1    -2.050482415089937       2.979305274808207
 7.878280990250000E9    -2.176373603369267       2.557109455187045E1    -4.607030463952771E1    -7.408717503168909E1    -4.619374939894030E1    -7.815456124844393E1    -2.052559613680599       2.823336188567801
 7.878341643800000E9    -2.177457859212902       2.541195630200010E1    -4.587997230273931E1    -7.495471591050270E1    -4.598528894962008E1    -7.780405222185244E1    -2.054128258195106       2.686283118951679
 7.878402297350000E9    -2.176770964311164       2.522261397239603E1    -4.574535561489506E1    -7.561657701906634E1    -4.577487717840064E1    -7.847128808857622E1    -2.054949554940242       2.581580194946950
 7.878462950900000E9    -2.176474164443537       2.505198358402255E1    -4.551956562650828E1    -7.590478428262236E1    -4.562066056248291E1    -7.882224547278430E1    -2.053176126494667       2.392514472126947
 7.878523604450000E9    -2.176226683500027       2.490507800673869E1    -4.523381072309707E1    -7.610350625384405E1    -4.536618949244367E1    -7.967687941090561E1    -2.051061409040977       2.262102512304839
 7.878584258000000E9    -2.174627009388170       2.472836241976154E1    -4.519921131546643E1    -7.586848034213766E1    -4.519058789214359E1    -8.028846870286726E1    -2.046977587403648       2.106320599400548
 7.878644911550000E9    -2.178138685259362       2.455377144100444E1    -4.485775580191553E1    -7.663586832797029E1    -4.506802368624071E1    -8.081869061118823E1    -2.051425499875997       1.991835423042474
 7.878705565100000E9    -2.173301231084084       2.438418488698331E1    -4.467235666425326E1    -7.789939052170705E1    -4.468177126530893E1    -8.134606602627281E1    -2.052620393330160       1.832347225082689
 7.878766218650000E9    -2.177095544374954       2.421458860683458E1    -4.451492270654174E1    -7.828393338522956E1    -4.479404027724591E1    -8.081942432140426E1    -2.047266645848004       1.714379986666885
 7.878826872200000E9    -2.176976317995119       2.402841493570762E1    -4.419266556994700E1    -7.892176178375139E1    -4.447912102422923E1    -8.196502463253601E1    -2.052997185786495       1.567402110199466
 7.878887525750000E9    -2.172157495918613       2.388122326688260E1    -4.398235851085683E1    -7.984321694676706E1    -4.422349383201392E1    -8.301438034036003E1    -2.049829810101662       1.415306196967469
 7.878948179300000E9    -2.175704111643771       2.369503475753462E1    -4.383084767623571E1    -7.983492557010749E1    -4.391685253847071E1    -8.344010650173675E1    -2.048664719548973       1.272392645744001
 7.879008832850000E9    -2.177058152336894       2.352835907425611E1    -4.368867596671669E1    -8.044020179472548E1    -4.367403657451598E1    -8.379081834044217E1    -2.047936325258833       1.118031022165410
 7.879069486400000E9    -2.172812388974073       2.336660634095272E1    -4.328804275387622E1    -8.145966666862519E1    -4.343402415049083E1    -8.433627758694172E1    -2.045967870520518       9.220509000908583E-1
 7.879130139950000E9    -2.177891266730165       2.316921291956595E1    -4.316522937743650E1    -8.227545543628723E1    -4.323384676511576E1    -8.567609803374292E1    -2.048467363319673       7.923381093900356E-1
 7.879190793500000E9    -2.172984717949015       2.298968036667317E1    -4.286472898392713E1    -8.346201906013320E1    -4.296741671079769E1    -8.618828636414263E1    -2.043100054341391       6.476535682831124E-1
 7.879251447050000E9    -2.176336202168144       2.284715869456970E1    -4.248162533052113E1    -8.361426816295878E1    -4.260248918486013E1    -8.667926637575026E1    -2.042934548535321       5.744460513638069E-1
 7.879312100600000E9    -2.179132330685061       2.266872730235145E1    -4.234448255706336E1    -8.384378882907899E1    -4.243190761356687E1    -8.777788612420906E1    -2.047921663396800       3.665979966603644E-1
 7.879372754150000E9    -2.178559744500284       2.248622064524082E1    -4.210426202498049E1    -8.480462374105940E1    -4.219494662016422E1    -8.798235681494558E1    -2.048877858615926       1.992891571104557E-1
 7.879433407700000E9    -2.177483636773185       2.230848978469719E1    -4.171089757015751E1    -8.603435302320354E1    -4.194900252383523E1    -8.889838369579741E1    -2.045919306687605       8.363940111920995E-2
 7.879494061250000E9    -2.183082684703855       2.211234522867012E1    -4.142233388098467E1    -8.636895273820008E1    -4.161628275162559E1    -8.981885032332015E1    -2.046811878047814      -9.522692852043470E-2
 7.879554714800000E9    -2.181327733624631       2.196148942599755E1    -4.113237294195379E1    -8.794737053062896E1    -4.125270611028707E1    -9.173712358424268E1    -2.050859509614655      -2.724950243791903E-1
 7.879615368350000E9    -2.183625555430162       2.179671691869727E1    -4.079708643395825E1    -8.853054835028158E1    -4.095620152667831E1    -9.232397751684799E1    -2.055152302418548      -4.014798564680956E-1
 7.879676021900000E9    -2.185952619707617       2.162018585311548E1    -4.052073741168110E1    -8.967154720446730E1    -4.068120469595644E1    -9.306727932554554E1    -2.056089526530199      -5.547796860580969E-1
 7.879736675450000E9    -2.186608966220599       2.140448814752402E1    -4.022673963168664E1    -9.102940381227516E1    -4.036963618711145E1    -9.442396994281133E1    -2.056466464020690      -6.948474081339125E-1
 7.879797329000000E9    -2.188690879839731       2.125103068347440E1    -3.980650419842770E1    -9.190483785939446E1    -4.004056578949337E1    -9.577601459438472E1    -2.056606476113321      -8.546821364462945E-1
 7.879857982550000E9    -2.194412944255660       2.107194345644293E1    -3.944045627645121E1    -9.324022690363333E1    -3.966825265262818E1    -9.727133486276976E1    -2.059122850094389      -1.046147419540598
 7.879918636100000E9    -2.197301690796452       2.090111235926299E1    -3.915088704685633E1    -9.492639681155495E1    -3.930027650692044E1    -9.830072737613855E1    -2.056741262162125      -1.168445653375924
 7.879979289650000E9    -2.198888434999798       2.069082058639918E1    -3.877858365219114E1    -9.634458131993468E1    -3.896717364181497E1    -1.002992439534482E2    -2.067205368519592      -1.325165804173139
 7.880039943200000E9    -2.202543656881266       2.053356290317036E1    -3.834891544334696E1    -9.853538849333425E1    -3.853289020077271E1    -1.016074968588245E2    -2.075301863968416      -1.505614633493007
 7.880100596750000E9    -2.210944622896204       2.035392865947359E1    -3.792849512309847E1    -1.001780863274664E2    -3.814868889298442E1    -1.035616694483011E2    -2.077805622100406      -1.598923947397892
 7.880161250300000E9    -2.216521885621614       2.016773443374642E1    -3.754503209709884E1    -1.022813320070999E2    -3.775297568995404E1    -1.056531629384391E2    -2.086217409319906      -1.779279887990312
 7.880221903850000E9    -2.225062324400827       1.997775870064566E1    -3.719526439066816E1    -1.044843038837546E2    -3.734436150638290E1    -1.077812632461999E2    -2.089933808801246      -1.916171357586806
 7.880282557400000E9    -2.227424198037618       1.982931181414966E1    -3.670645875319117E1    -1.063330303306497E2    -3.693015229187974E1    -1.101026368951139E2    -2.103457965210074      -2.099243253719464
 7.880343210950000E9    -2.240897278873946       1.964677003716472E1    -3.629128897991423E1    -1.092576352775240E2    -3.645247831506239E1    -1.126790392598975E2    -2.107360813711689      -2.284867576561040
 7.880403864500000E9    -2.253353732401932       1.948051991708534E1    -3.583953191994071E1    -1.123857418826885E2    -3.603539035633425E1    -1.153939492275179E2    -2.120023701108096      -2.396931225929139
 7.880464518050000E9    -2.265060043835113       1.932081304564356E1    -3.541430467494641E1    -1.150549659079444E2    -3.557861523132408E1    -1.186405495141740E2    -2.136003463350560      -2.551680321549620
