#  HZ   S   DB   R     50.00 
! Rohde & Schwarz Vector Network Analyzer 
! Rohde-Schwarz,ZNB20-2Port,1311601062101988,3.16
! Created: UTC 1/12/2023, 6:33:05 PM
! freq[Hz]                db:S11                  ang:S11                 db:S21                  ang:S21                 db:S12                  ang:S12                 db:S22                  ang:S22
 7.874925227000000E9    -2.226247199792842       3.475430870701266E1    -5.237723787923281E1    -5.546598696959685E1    -5.263371148524854E1    -6.233974890708211E1    -2.144526063815452       1.075530011905046E1
 7.874985880550000E9    -2.227014826761809       3.457671608900370E1    -5.241629101427137E1    -5.792391237808851E1    -5.273230922761306E1    -6.024927841170559E1    -2.136177692437036       1.059428654121249E1
 7.875046534100000E9    -2.224913083647029       3.442546446985214E1    -5.262768093202065E1    -5.812438801697205E1    -5.250400449851586E1    -6.396097703029464E1    -2.138713597063436       1.046207254168740E1
 7.875107187650000E9    -2.222532216397244       3.424920026597785E1    -5.262559886628398E1    -5.997395794724697E1    -5.204562386667601E1    -6.167269486421292E1    -2.140262261348009       1.026404904806623E1
 7.875167841200000E9    -2.220833576193800       3.407898987979761E1    -5.206800380977170E1    -5.895997874081574E1    -5.211294066107367E1    -6.365050430573118E1    -2.128525661077307       1.014110668797107E1
 7.875228494750000E9    -2.220951396126222       3.390904474072524E1    -5.217258890443360E1    -5.893744028013178E1    -5.227315259195485E1    -6.211164396752396E1    -2.128769154171401       1.000140731816069E1
 7.875289148300000E9    -2.220071675076867       3.372262809985416E1    -5.213901984884217E1    -6.308037571409263E1    -5.193423594161486E1    -6.199936910390167E1    -2.134012217087497       9.887447494464032
 7.875349801850000E9    -2.216146134626712       3.357674248232767E1    -5.208417094455176E1    -6.067246677404747E1    -5.202000465596385E1    -6.248126645207997E1    -2.127595780658888       9.722258951367554
 7.875410455400000E9    -2.219218378378437       3.342354270970902E1    -5.203891477621498E1    -5.859501699303724E1    -5.177841434782919E1    -6.409518803342624E1    -2.124172959327335       9.578840758676314
 7.875471108950000E9    -2.216160304588837       3.327227996856151E1    -5.162680459034492E1    -6.152910043409129E1    -5.192105086132937E1    -6.420008717921628E1    -2.123632034164094       9.436263258144800
 7.875531762500000E9    -2.217297379290610       3.309194850987433E1    -5.192470587571555E1    -5.866491941626526E1    -5.172689751463358E1    -6.333381893736337E1    -2.117883150428558       9.244483758399227
 7.875592416050000E9    -2.214675092886854       3.291685381333223E1    -5.173817845537874E1    -6.230842053843163E1    -5.160082392621859E1    -6.420002280045998E1    -2.114477303263279       9.105843581172701
 7.875653069600000E9    -2.215217081376799       3.274938784824797E1    -5.141687990117971E1    -6.111159994326321E1    -5.146857063374959E1    -6.404766229705558E1    -2.115670208825245       9.021682646140354
 7.875713723150000E9    -2.214778798708014       3.260250257920030E1    -5.121732527237479E1    -6.274289122442510E1    -5.132091454978067E1    -6.535755134752685E1    -2.112916291157978       8.849785290091278
 7.875774376700000E9    -2.217233260942521       3.242505535000006E1    -5.134256423894261E1    -6.072734127342237E1    -5.149703290397183E1    -6.454310383038263E1    -2.113280403049658       8.719340627401694
 7.875835030250000E9    -2.210513057748792       3.227609365740529E1    -5.155238098315587E1    -6.142219228850079E1    -5.112785804275869E1    -6.473139989218990E1    -2.114520126309997       8.542839972258074
 7.875895683800000E9    -2.208956038952783       3.209536434979348E1    -5.086959904284765E1    -6.262436090438963E1    -5.119460362218233E1    -6.563195647430634E1    -2.107794218200449       8.413265497238134
 7.875956337350000E9    -2.209274253741983       3.193647816919639E1    -5.082697185919855E1    -6.357216505552434E1    -5.127375922259823E1    -6.500223567629632E1    -2.112682997832288       8.269560026201555
 7.876016990900000E9    -2.207624912343942       3.175041957545679E1    -5.095643666517871E1    -6.163573143252929E1    -5.110706778925000E1    -6.602325646143323E1    -2.111407632342217       8.161773089206362
 7.876077644450000E9    -2.204014597795301       3.159423648606569E1    -5.052868501243586E1    -6.309545308802517E1    -5.104614543550112E1    -6.614651243798285E1    -2.105679648307256       8.032613101753096
 7.876138298000000E9    -2.202726671742410       3.142215843877553E1    -5.086043764493980E1    -6.338948095676004E1    -5.078807648226093E1    -6.615976061796013E1    -2.104784951881631       7.863164096953444
 7.876198951550000E9    -2.201543372932217       3.127026971594373E1    -5.074361909049524E1    -6.213336953475891E1    -5.065607722951667E1    -6.586697578811996E1    -2.103904152982649       7.747094129012317
 7.876259605100000E9    -2.206876026829585       3.109998207174918E1    -5.081567999398759E1    -6.429903440534565E1    -5.063231726313491E1    -6.602848720641386E1    -2.105271531123620       7.569824820580885
 7.876320258650000E9    -2.201118177113603       3.093651379193200E1    -5.040712601399132E1    -6.484181735518949E1    -5.047193888103222E1    -6.801991977120946E1    -2.096605268671111       7.401881033516463
 7.876380912200000E9    -2.201283108213603       3.075995950612092E1    -5.064666411976351E1    -6.400647308600853E1    -5.057464173579394E1    -6.725532931370559E1    -2.100320223387099       7.284240299830373
 7.876441565750000E9    -2.201118061857763       3.060555797869232E1    -5.009466725835360E1    -6.424679841502576E1    -5.038884286862182E1    -6.795580182381310E1    -2.092202944595476       7.133875913526228
 7.876502219300000E9    -2.196790199103720       3.042244354016249E1    -4.993133620321135E1    -6.570551314648043E1    -5.037676101964797E1    -6.858786327107099E1    -2.090444700647885       6.994571613415619
 7.876562872850000E9    -2.197947215150769       3.027692159485232E1    -4.998840124949264E1    -6.470017030768847E1    -5.011447889636480E1    -6.787887601120775E1    -2.092658752613696       6.850055835816428
 7.876623526400000E9    -2.197130793064478       3.011406838850493E1    -4.994053278007939E1    -6.649968701611247E1    -4.998410003434000E1    -6.823425439706271E1    -2.093464510993909       6.698590591017625
 7.876684179950000E9    -2.198541637096328       2.992921275448519E1    -4.962077437045120E1    -6.722494664610545E1    -4.971027350371010E1    -6.948603177683462E1    -2.091114410066832       6.573227253163664
 7.876744833500000E9    -2.197278880316461       2.975463348897078E1    -4.954618375224329E1    -6.571565442495540E1    -4.963997118749077E1    -6.904080339888907E1    -2.087622208786878       6.407385034873093
 7.876805487050000E9    -2.195146138543246       2.962029561079958E1    -4.934274482829846E1    -6.629964769655328E1    -4.970625335464526E1    -6.930273016526370E1    -2.089246067024063       6.297918280699175
 7.876866140600000E9    -2.194572090672864       2.944942691258566E1    -4.944569381046657E1    -6.578409318650206E1    -4.963072901002906E1    -6.937340027543324E1    -2.089229157690181       6.111627216447418
 7.876926794150000E9    -2.193925808522474       2.927259130033974E1    -4.918733873499186E1    -6.639951414470238E1    -4.941884337380044E1    -6.979152287828053E1    -2.083571225639124       5.985291603088626
 7.876987447700000E9    -2.191952403943415       2.912194321808876E1    -4.917349228974949E1    -6.685160711196694E1    -4.935810152241704E1    -7.087293208149589E1    -2.081303966009738       5.862449035488072
 7.877048101250000E9    -2.193619280821374       2.894897270727982E1    -4.913301008527300E1    -6.748407342811656E1    -4.919112044577388E1    -6.932083004573586E1    -2.074524267816227       5.718160843958076
 7.877108754800000E9    -2.189062374536314       2.878466487842513E1    -4.894797028957371E1    -6.829023131247970E1    -4.899680629175295E1    -7.156232126164502E1    -2.075988127610387       5.562293479712098
 7.877169408350000E9    -2.184319299417980       2.862108932748299E1    -4.874892312154580E1    -6.851512296699465E1    -4.873058918096339E1    -7.043773874431132E1    -2.080555133417323       5.487983530667123
 7.877230061900000E9    -2.184886188472371       2.843007405281989E1    -4.862080186418090E1    -6.729528392712275E1    -4.874308182177237E1    -7.155566294360371E1    -2.080913992056391       5.307534560957521
 7.877290715450000E9    -2.188779972630222       2.827716412682818E1    -4.872028636196827E1    -6.902764070008860E1    -4.878725554545728E1    -7.276004070082880E1    -2.074441079942705       5.135928459276304
 7.877351369000000E9    -2.188740899101464       2.812228208995409E1    -4.856283351708323E1    -6.872448059797490E1    -4.849714180678818E1    -7.246268879599565E1    -2.075094965247366       4.996748533234509
 7.877412022550000E9    -2.186747388375693       2.795270633531842E1    -4.831932121423200E1    -6.805008031714853E1    -4.840671653687286E1    -7.319889176720473E1    -2.070286827537187       4.883197932354245
 7.877472676100000E9    -2.183918306536978       2.778818270911287E1    -4.806409389464213E1    -6.915833959765878E1    -4.822226261312195E1    -7.225662888060700E1    -2.063333903072669       4.750588449779208
 7.877533329650000E9    -2.183547149017019       2.762799604846358E1    -4.806570245522342E1    -6.955671543101175E1    -4.793774369220721E1    -7.351993697743670E1    -2.070371620324639       4.646004275366796
 7.877593983200000E9    -2.182199338663559       2.744863013369925E1    -4.798945767204528E1    -7.003668270763679E1    -4.795099175776854E1    -7.342418130186761E1    -2.070042565247189       4.468913957872990
 7.877654636750000E9    -2.183345744928701       2.728136654858265E1    -4.757111303224818E1    -6.993777747532037E1    -4.776747055640476E1    -7.387471869526269E1    -2.066342879208056       4.303553448529339
 7.877715290300000E9    -2.185063352046534       2.713804888259844E1    -4.754374423828068E1    -7.031463411706765E1    -4.764269874445517E1    -7.402755847522738E1    -2.064535480448991       4.146805710041130
 7.877775943850000E9    -2.181279256979319       2.697383366235963E1    -4.721476298821621E1    -7.092384797238026E1    -4.742768332050013E1    -7.456452478565741E1    -2.057187761415707       4.045038700984083
 7.877836597400000E9    -2.181371481809547       2.677925229443760E1    -4.727356724694034E1    -7.226928076649446E1    -4.729715732628276E1    -7.488672107912515E1    -2.061369342722565       3.890493345759420
 7.877897250950000E9    -2.178833376844756       2.661800094116709E1    -4.700667299157636E1    -7.085175440702361E1    -4.717181233816089E1    -7.506766643057421E1    -2.059766577802832       3.744785257023128
 7.877957904500000E9    -2.179180458583859       2.642901860874768E1    -4.680998581382718E1    -7.294441820344066E1    -4.698667010261224E1    -7.613071210899315E1    -2.058280700028864       3.587126767052905
 7.878018558050000E9    -2.180779028294835       2.628553453684749E1    -4.671926198160161E1    -7.210564893863585E1    -4.677348358469984E1    -7.694128080767155E1    -2.058279928605115       3.463862209849960
 7.878079211600000E9    -2.178560916560830       2.610529339984078E1    -4.664823849042888E1    -7.283607924641045E1    -4.668035134105190E1    -7.646239906353466E1    -2.056862090416137       3.320928328834165
 7.878139865150000E9    -2.180254662101013       2.594070342496151E1    -4.641673046455697E1    -7.346435465362406E1    -4.657823775744645E1    -7.723411559407792E1    -2.054756703151482       3.172522881995271
 7.878200518700000E9    -2.180058001401174       2.578631415764803E1    -4.613358028605580E1    -7.437997399101525E1    -4.625006360346912E1    -7.789093958060742E1    -2.061681587375000       3.039529188411657
 7.878261172250000E9    -2.180952147351502       2.562954559319953E1    -4.593678360492471E1    -7.464019731707006E1    -4.615517232951533E1    -7.843565336864519E1    -2.053347848028030       2.871460920635501
 7.878321825800000E9    -2.179772169815100       2.543513005947563E1    -4.598249053563783E1    -7.464447064588089E1    -4.605223299937666E1    -7.825629610021866E1    -2.055585661147679       2.764465912895316
 7.878382479350000E9    -2.177506851310678       2.529433087824488E1    -4.558596571266339E1    -7.554370007455060E1    -4.576964194190615E1    -7.875743086378591E1    -2.054089136277812       2.595010046714468
 7.878443132900000E9    -2.175938004820178       2.509142299117976E1    -4.541640632964036E1    -7.660128339557586E1    -4.571890775095468E1    -7.906272929985226E1    -2.052216437566839       2.445673208377225
 7.878503786450000E9    -2.172809775889133       2.494178468916272E1    -4.521890096205266E1    -7.615987001129379E1    -4.553844199081290E1    -8.083070044037260E1    -2.044613551636792       2.365473565652406
 7.878564440000000E9    -2.176554528473811       2.476071689436022E1    -4.506387623785825E1    -7.782082388574759E1    -4.523458097972164E1    -7.948684114969012E1    -2.060257645382964       2.165513593650556
 7.878625093550000E9    -2.172688135212256       2.460289911120646E1    -4.484028183073989E1    -7.729407139799920E1    -4.506918007189860E1    -8.125645475177821E1    -2.054036755250665       2.041877457815449
 7.878685747100000E9    -2.172950312786407       2.444185145874506E1    -4.453329910126895E1    -7.848768940265722E1    -4.466764916793856E1    -8.167451927214805E1    -2.056425469476007       1.839304093056623
 7.878746400650000E9    -2.176758419010556       2.425776052680709E1    -4.447244374812115E1    -7.836027330067020E1    -4.464733243618841E1    -8.263730128575251E1    -2.047689535418331       1.715451848737261
 7.878807054200000E9    -2.177078027652945       2.408569926871479E1    -4.410487044369614E1    -7.893919231767252E1    -4.438973643753034E1    -8.232879122658697E1    -2.051369863285619       1.605210753528347
 7.878867707750000E9    -2.173975788377609       2.391808205649006E1    -4.396288298245370E1    -7.971291255118899E1    -4.420792093357313E1    -8.236185361613069E1    -2.048260562861755       1.435682016406637
 7.878928361300000E9    -2.175456226582201       2.374412579958967E1    -4.383460780883431E1    -7.926081394767859E1    -4.392997769552230E1    -8.418069838727004E1    -2.051952555071063       1.277222431098475
 7.878989014850000E9    -2.175043808224499       2.357450794620339E1    -4.343322686819188E1    -8.123807002260895E1    -4.369018257511768E1    -8.422086089350113E1    -2.045812439897880       1.161625144479202
 7.879049668400000E9    -2.172733740718736       2.340138570993101E1    -4.324946290865085E1    -8.161912348469917E1    -4.333198179603112E1    -8.479863083243471E1    -2.042165724395338       9.983183736643132E-1
 7.879110321950000E9    -2.172312235814181       2.322764575577287E1    -4.320928971226110E1    -8.167392062691718E1    -4.313155272283760E1    -8.565771270220564E1    -2.049865163320576       8.842527737810483E-1
 7.879170975500000E9    -2.178116252629156       2.306591806856096E1    -4.276569518126752E1    -8.301782856610687E1    -4.284965527289241E1    -8.630660928785885E1    -2.049872626208879       6.805848425844886E-1
 7.879231629050000E9    -2.173606463615313       2.290154011665313E1    -4.256018359745511E1    -8.405044197894289E1    -4.267908200318615E1    -8.731289802130875E1    -2.049465924766560       5.664704596876776E-1
 7.879292282600000E9    -2.177395752226267       2.270355675218986E1    -4.228827240863122E1    -8.457446396530472E1    -4.248831772164650E1    -8.802722023596699E1    -2.047300825342609       3.776164717772684E-1
 7.879352936150000E9    -2.177937929113913       2.255084986674488E1    -4.203961848701687E1    -8.567098630812878E1    -4.213991592317998E1    -8.945619620811915E1    -2.046764816823862       2.416640981012691E-1
 7.879413589700000E9    -2.178380701274399       2.235241559183232E1    -4.171409559121084E1    -8.631928553022942E1    -4.194574139375624E1    -8.982966725740705E1    -2.049732214916433       9.171090127391518E-2
 7.879474243250000E9    -2.178178797971245       2.219176023531541E1    -4.142701330991440E1    -8.740117573830496E1    -4.154926472000561E1    -9.090968287430903E1    -2.045505226923734      -6.119424091721769E-2
 7.879534896800000E9    -2.179158140452231       2.200957118881145E1    -4.112126748092919E1    -8.806098243484965E1    -4.132290278588285E1    -9.163635548635158E1    -2.045875391948422      -1.819856171523144E-1
 7.879595550350000E9    -2.179595052692113       2.181959224092890E1    -4.080160131604070E1    -8.891502379025565E1    -4.097420225497849E1    -9.202840598739368E1    -2.054970367648111      -3.467631414732544E-1
 7.879656203900000E9    -2.182861106395699       2.165359228214877E1    -4.046364937964878E1    -9.018289536323859E1    -4.069710628051623E1    -9.333515264776831E1    -2.051866601454501      -4.672033328205386E-1
 7.879716857450000E9    -2.190883116428418       2.149645062467244E1    -4.018363048268198E1    -9.136105278935763E1    -4.034307920411669E1    -9.501761823311853E1    -2.054049831577295      -6.213208332080928E-1
 7.879777511000000E9    -2.192162954390721       2.131588667812949E1    -3.983746474591685E1    -9.292920218890801E1    -3.995259916649886E1    -9.625008719895536E1    -2.061706603140207      -7.970866921270203E-1
 7.879838164550000E9    -2.194321875659793       2.112081229271389E1    -3.949983850956187E1    -9.439801314444368E1    -3.963995199954037E1    -9.743608862791835E1    -2.057713092923998      -9.735321242198085E-1
 7.879898818100000E9    -2.197438483935291       2.093790117568305E1    -3.909381030851775E1    -9.543712566720842E1    -3.929591095924505E1    -9.905132188693854E1    -2.060624666091403      -1.137351768124492
 7.879959471650000E9    -2.199269793107082       2.075770757196877E1    -3.876161678919142E1    -9.710929668969341E1    -3.892535316338047E1    -1.008149692333092E2    -2.069561645874137      -1.272067850161491
 7.880020125200000E9    -2.208466399909212       2.058047457796025E1    -3.843023907567663E1    -9.910537974131809E1    -3.854185559583000E1    -1.019336021716629E2    -2.074975800633845      -1.429828246436873
 7.880080778750000E9    -2.211445874418816       2.040567136011215E1    -3.797653463027263E1    -1.010589425328319E2    -3.815967319562418E1    -1.042460398126036E2    -2.081703485758047      -1.584953865034473
 7.880141432300000E9    -2.217775185441954       2.021877493531664E1    -3.758328728967518E1    -1.028202642569851E2    -3.772425046723384E1    -1.061219195950973E2    -2.079302776851010      -1.773934928679191
 7.880202085850000E9    -2.224860360527304       2.006493517757778E1    -3.713479520245953E1    -1.050595914092278E2    -3.731789317009102E1    -1.084635956889095E2    -2.094543470512038      -1.903612991694850
 7.880262739400000E9    -2.232347448160719       1.987379667249725E1    -3.677665534987391E1    -1.074175104053240E2    -3.691970519403029E1    -1.106525254332190E2    -2.098669757656777      -2.017894274975418
 7.880323392950000E9    -2.242373660452211       1.971229196292749E1    -3.632330947774300E1    -1.101468746946026E2    -3.651240135483210E1    -1.133226536343891E2    -2.115338567649414      -2.217621200375587
 7.880384046500000E9    -2.252146690258409       1.954746535603190E1    -3.584125147593473E1    -1.132015082231792E2    -3.605808801057611E1    -1.163865031721722E2    -2.125814647943213      -2.365079327229088
 7.880444700050000E9    -2.267078619151333       1.941198549592300E1    -3.542177880810222E1    -1.162139047326284E2    -3.565580723510535E1    -1.194066940636437E2    -2.133711824764663      -2.514750708197587
