#  HZ   S   DB   R     50.00 
! Rohde & Schwarz Vector Network Analyzer 
! Rohde-Schwarz,ZNB20-2Port,1311601062101988,3.16
! Created: UTC 1/12/2023, 6:33:32 PM
! freq[Hz]                db:S11                  ang:S11                 db:S21                  ang:S21                 db:S12                  ang:S12                 db:S22                  ang:S22
 7.874886931000000E9    -2.226111748141914       3.484017047701370E1    -5.254493665963979E1    -5.624461742836654E1    -5.246541950605895E1    -6.096479121213709E1    -2.139886877625217       1.081887064718461E1
 7.874947584550000E9    -2.223405269235917       3.466852291554755E1    -5.259175914965013E1    -5.806644332182780E1    -5.283899407616179E1    -6.240434560601029E1    -2.144264214834197       1.068058333028440E1
 7.875008238100000E9    -2.225960713196177       3.453937065506499E1    -5.237422589857267E1    -5.737143910513882E1    -5.250435270514957E1    -6.280649539854485E1    -2.130025626248120       1.053718825848838E1
 7.875068891650000E9    -2.225022753801233       3.436609588226160E1    -5.241741743239004E1    -5.919655291235443E1    -5.237349294812802E1    -6.336341094268710E1    -2.135467727859323       1.037202024089550E1
 7.875129545200000E9    -2.223027040469922       3.419942491444007E1    -5.214850261974539E1    -6.010926884299300E1    -5.208530804410614E1    -6.189685340482177E1    -2.129861919101097       1.022834786266431E1
 7.875190198750000E9    -2.224700920773525       3.402848972547476E1    -5.224969579113926E1    -5.985749001036851E1    -5.221957683748566E1    -6.284130467453967E1    -2.126926942443824       1.010511975252367E1
 7.875250852300000E9    -2.220954717918272       3.385317594714780E1    -5.189623967695081E1    -5.911867794087092E1    -5.230648352258042E1    -6.398911450690881E1    -2.135903209851468       9.964148366163286
 7.875311505850000E9    -2.221512591491989       3.369106516966492E1    -5.191087427787708E1    -5.992838281813458E1    -5.210801611720822E1    -6.423499997696689E1    -2.125746872465200       9.830488350633063
 7.875372159400000E9    -2.218061426891639       3.354347571509320E1    -5.203741898651949E1    -6.013662133657492E1    -5.191308705855877E1    -6.487408540414332E1    -2.130395458882493       9.644797117557236
 7.875432812950000E9    -2.216524179873085       3.332931492616502E1    -5.229104428737215E1    -6.036187825376044E1    -5.192464355764599E1    -6.456787790383029E1    -2.123154575368012       9.501411388261014
 7.875493466500000E9    -2.214765553656028       3.317021543803150E1    -5.209635924979575E1    -6.231822228412419E1    -5.167736529071468E1    -6.358731298404593E1    -2.120691008042267       9.371413814849252
 7.875554120050000E9    -2.214231708186238       3.302062792849441E1    -5.139328696188223E1    -6.067189110299345E1    -5.168296117061055E1    -6.334424586108118E1    -2.119884783234230       9.238674180749159
 7.875614773600000E9    -2.214544507128432       3.285439621742552E1    -5.144071764466024E1    -6.112297430887359E1    -5.163645496838466E1    -6.464951678032816E1    -2.121508464541840       9.067265351184357
 7.875675427150000E9    -2.211198354546991       3.269104534434585E1    -5.144034530104467E1    -6.038612787078024E1    -5.157462128376807E1    -6.527700207605260E1    -2.115196448635837       8.981184633931381
 7.875736080700000E9    -2.213497426476008       3.254927719744505E1    -5.118270124053122E1    -6.237634002953891E1    -5.148300613775181E1    -6.357519860724307E1    -2.119117725519194       8.861885038354350
 7.875796734250000E9    -2.211784757475339       3.237935603931263E1    -5.149406236369749E1    -6.410450244228045E1    -5.127268523945766E1    -6.609573489889377E1    -2.116825111727862       8.694699032325209
 7.875857387800000E9    -2.210354371630669       3.218681986988748E1    -5.113338235130720E1    -6.241336808049905E1    -5.116450507102473E1    -6.586879435703860E1    -2.115932639642827       8.536647701834163
 7.875918041350000E9    -2.212755347730847       3.202508269563426E1    -5.120091573188014E1    -6.261458462337105E1    -5.102692659530617E1    -6.636579589681210E1    -2.111622545041771       8.363237418845145
 7.875978694900000E9    -2.209720232176815       3.187588691199480E1    -5.095497682656540E1    -6.225395496356279E1    -5.094596865930444E1    -6.630654015467356E1    -2.111770188419030       8.226659102671219
 7.876039348450000E9    -2.207479132748947       3.171101767841908E1    -5.087200599033731E1    -6.132108132004443E1    -5.092943664429455E1    -6.704228238256790E1    -2.102442678959704       8.119524220531821
 7.876100002000000E9    -2.200877061561386       3.154046808898380E1    -5.099054385765055E1    -6.511652476513930E1    -5.079519797339891E1    -6.635371476676593E1    -2.106725200173587       7.918954505728523
 7.876160655550000E9    -2.202226703360788       3.133897127959677E1    -5.049010806485342E1    -6.314368439963668E1    -5.065872506812060E1    -6.556071776938833E1    -2.103852953922953       7.813528892962935
 7.876221309100000E9    -2.201900638731819       3.120536404990027E1    -5.044927190015065E1    -6.460069147928041E1    -5.078370550822882E1    -6.658472630614550E1    -2.104105252244115       7.673019554772265
 7.876281962650000E9    -2.203973130186965       3.105947178744486E1    -5.036643691880835E1    -6.257968519993725E1    -5.074474020124812E1    -6.742887649309068E1    -2.098966329048684       7.530771305171539
 7.876342616200000E9    -2.202048542612682       3.088585571363129E1    -5.049292401029458E1    -6.455586263560186E1    -5.033411019740416E1    -6.786135981580270E1    -2.107466075785863       7.350839083950432
 7.876403269750000E9    -2.200609543020552       3.070853836268930E1    -5.040031612059288E1    -6.467345621885640E1    -5.034882987732747E1    -6.843333472732962E1    -2.093156055544067       7.228082476182456
 7.876463923300000E9    -2.200372064571940       3.052455717436388E1    -4.992045192069156E1    -6.559435807461409E1    -5.024296582293604E1    -6.841578151526893E1    -2.094331666008540       7.113365845904850
 7.876524576850000E9    -2.200402118290186       3.036150853589205E1    -4.996990979542025E1    -6.417493298602106E1    -5.030445262006614E1    -6.847360400602436E1    -2.094675491647769       6.979842406258921
 7.876585230400000E9    -2.197252075885542       3.023243683592855E1    -5.013470012258223E1    -6.504968904772966E1    -4.997723560564845E1    -6.945083358395908E1    -2.100710242378456       6.831979659732136
 7.876645883950000E9    -2.194180734853724       3.006220760986485E1    -4.947157330921181E1    -6.619593129835849E1    -4.996063236830562E1    -7.077152677031118E1    -2.093041264278837       6.717395512870735
 7.876706537500000E9    -2.192524824413177       2.987801945459968E1    -4.963669151773132E1    -6.595522921466979E1    -4.979911913925552E1    -6.819255684821181E1    -2.089622742443954       6.514067419416456
 7.876767191050000E9    -2.194947553968886       2.972665529887541E1    -4.960765500557611E1    -6.604861396034464E1    -4.962093308304677E1    -7.044260213422203E1    -2.087674401182278       6.410679244924263
 7.876827844600000E9    -2.194687405567858       2.952391323889237E1    -4.915543894626214E1    -6.653765488163791E1    -4.943453200423343E1    -6.931204426643799E1    -2.087939710815633       6.242972565828071
 7.876888498150000E9    -2.190724888443778       2.938796640406390E1    -4.935942481182647E1    -6.644744251936120E1    -4.928157760632187E1    -6.962712471503292E1    -2.081215616895453       6.107151664593515
 7.876949151700000E9    -2.192920713012762       2.922001885908172E1    -4.915588899773263E1    -6.614586675319336E1    -4.946855830002094E1    -7.068616036290524E1    -2.085686640384695       5.971673176682702
 7.877009805250000E9    -2.191467580761403       2.905904794933754E1    -4.905023423718909E1    -6.701406482705714E1    -4.929045721343656E1    -6.974410374400480E1    -2.081254696929294       5.796928008208745
 7.877070458800000E9    -2.189497546532875       2.887801139692047E1    -4.889067194052824E1    -6.669512459237752E1    -4.898465358111801E1    -7.080283679191619E1    -2.080537952469255       5.672302452023144
 7.877131112350000E9    -2.187797048674359       2.874793674875332E1    -4.887866798801478E1    -6.664145476870191E1    -4.885387524610562E1    -7.185222818010894E1    -2.075551173827892       5.531559235764034
 7.877191765900000E9    -2.189078990933618       2.854656861509621E1    -4.881077066408596E1    -6.718564769984734E1    -4.880949120166325E1    -7.118938138573428E1    -2.082590072034610       5.369762018403887
 7.877252419450000E9    -2.190635889786112       2.838727507130370E1    -4.846318463397532E1    -6.956919749270831E1    -4.853123033887479E1    -7.190563331412618E1    -2.075184191707525       5.271142973323514
 7.877313073000000E9    -2.188061227593241       2.822898046623061E1    -4.849760899626303E1    -6.892082096118477E1    -4.837901333788493E1    -7.191146976693788E1    -2.077143875931729       5.142202191579085
 7.877373726550000E9    -2.184749806030131       2.806868864401613E1    -4.833741272818068E1    -6.917064519591132E1    -4.833827132147118E1    -7.333185502342407E1    -2.079372647839937       4.984878748980180
 7.877434380100000E9    -2.184070741973102       2.789669434597172E1    -4.794617573650147E1    -6.974685447393206E1    -4.844670769836256E1    -7.246853323264509E1    -2.079054703999467       4.829091072334898
 7.877495033650000E9    -2.184574752378637       2.774264588821397E1    -4.782735894814597E1    -7.078688473991549E1    -4.820507666125502E1    -7.387317725315380E1    -2.069067630326915       4.678480834810483
 7.877555687200000E9    -2.181734529179466       2.758155188113940E1    -4.777535830478220E1    -7.035108404295643E1    -4.799300407204968E1    -7.341196143185527E1    -2.061442528306311       4.521755085424729
 7.877616340750000E9    -2.184835910451353       2.739116104830605E1    -4.774144536753631E1    -7.038594051512351E1    -4.766689882286227E1    -7.484466452939536E1    -2.064034841786750       4.427692644281676
 7.877676994300000E9    -2.181299490082848       2.723211072946941E1    -4.765156537367618E1    -7.076271320577057E1    -4.761386264890894E1    -7.472516408230483E1    -2.064170080123684       4.276364303307293
 7.877737647850000E9    -2.182203476798688       2.706088113976853E1    -4.716645130704460E1    -7.176793012236979E1    -4.748010977585242E1    -7.469189214101247E1    -2.064281831632490       4.073636052787827
 7.877798301400000E9    -2.182236667588977       2.691372747803100E1    -4.706649171770054E1    -7.169922142215775E1    -4.731238492640174E1    -7.556819888697672E1    -2.066356515693246       3.973169154084429
 7.877858954950000E9    -2.183100576105619       2.674143072678225E1    -4.699046682282999E1    -7.257218553567225E1    -4.714912074403738E1    -7.541325935106448E1    -2.053925526636659       3.848232476970967
 7.877919608500000E9    -2.181754263796556       2.655724475649929E1    -4.698183220365517E1    -7.269989432538276E1    -4.699283497156092E1    -7.642300673471469E1    -2.055856515093332       3.676142744164959
 7.877980262050000E9    -2.180717240090457       2.639344140479220E1    -4.667800755285468E1    -7.328175865064715E1    -4.679100312454135E1    -7.601379520913051E1    -2.062249142103425       3.582646488491756
 7.878040915600000E9    -2.180005905433382       2.622797964458412E1    -4.661366290742209E1    -7.283011250973632E1    -4.669134391026798E1    -7.666654449042272E1    -2.056452709032806       3.419797098908116
 7.878101569150000E9    -2.179836066648871       2.607457286997213E1    -4.643593712099141E1    -7.346648552176735E1    -4.659453422718507E1    -7.664803179602664E1    -2.059606219996257       3.264306694476340
 7.878162222700000E9    -2.179896157027058       2.588793198172999E1    -4.606170610410135E1    -7.340573072682982E1    -4.641348021495284E1    -7.822792758124956E1    -2.061538882444811       3.153388783724890
 7.878222876250000E9    -2.176163255593616       2.574866176614409E1    -4.586604548695964E1    -7.458188163437798E1    -4.614483574717524E1    -7.772539445972771E1    -2.057795624248171       3.024815426567034
 7.878283529800000E9    -2.178044925945270       2.554466130245000E1    -4.580895923906531E1    -7.507095945981295E1    -4.590398987847821E1    -7.824813131095559E1    -2.053905594940376       2.812773126237540
 7.878344183350000E9    -2.178464661924681       2.540496668098219E1    -4.574354140882336E1    -7.577066442848351E1    -4.561899165034542E1    -7.887521987630203E1    -2.056047898659106       2.692217377613530
 7.878404836900000E9    -2.176232053609473       2.524194939604448E1    -4.527243819060905E1    -7.556226996861312E1    -4.570387259480049E1    -7.924140543538539E1    -2.053843703215887       2.569761095429921
 7.878465490450000E9    -2.176152942770992       2.505583536838495E1    -4.537693494500854E1    -7.690487877528075E1    -4.548120517026511E1    -7.923273256340586E1    -2.050742904202441       2.443429350317118
 7.878526144000000E9    -2.179058183305753       2.487808615221992E1    -4.516513244650586E1    -7.673390946095734E1    -4.511050872305538E1    -8.091791990019644E1    -2.052333078632583       2.269935182169729
 7.878586797550000E9    -2.174481093680311       2.471170490279561E1    -4.492010069526390E1    -7.708627578617414E1    -4.497503389253553E1    -8.094198616478880E1    -2.056105251628375       2.081458306436667
 7.878647451100000E9    -2.176264178243519       2.455157762325857E1    -4.457309195624990E1    -7.824150587708951E1    -4.476955320503598E1    -8.156386521076163E1    -2.051057155194757       1.975255494640976
 7.878708104650000E9    -2.176071234537030       2.438342242115257E1    -4.453154258599263E1    -7.857100027088678E1    -4.456197182976878E1    -8.217804150759423E1    -2.053108081207272       1.810062042582498
 7.878768758200000E9    -2.171865065045422       2.419531840215686E1    -4.414923014865757E1    -7.939008489381430E1    -4.436911395146373E1    -8.223722510027406E1    -2.049573301919140       1.726214818644329
 7.878829411750000E9    -2.173138302821602       2.404992762790865E1    -4.402051789866871E1    -7.959314972204821E1    -4.417732076164359E1    -8.344164439373760E1    -2.043895513106985       1.556245143177420
 7.878890065300000E9    -2.177619720155334       2.387321543190689E1    -4.393198292484218E1    -8.045112348304660E1    -4.387026763614263E1    -8.450056680943369E1    -2.047405128315870       1.427929153996089
 7.878950718850000E9    -2.180736766971304       2.369036496717056E1    -4.367870078790024E1    -8.120338241980889E1    -4.377685295772511E1    -8.439646490203195E1    -2.052253268671317       1.241603909814470
 7.879011372400000E9    -2.174006620457028       2.351249197599895E1    -4.328152131815759E1    -8.174003479546961E1    -4.338573122898850E1    -8.517657483163465E1    -2.042749435871679       1.097759275844681
 7.879072025950000E9    -2.178198127697475       2.333985643886868E1    -4.311459248797743E1    -8.273805744825246E1    -4.330177927229122E1    -8.548300706981482E1    -2.048458806300618       9.699131159009202E-1
 7.879132679500000E9    -2.177686402613367       2.319546564129351E1    -4.279546054635101E1    -8.304272910440373E1    -4.302745940834224E1    -8.646558973757514E1    -2.047197738159199       8.160096737348842E-1
 7.879193333050000E9    -2.177132010093716       2.300269047250443E1    -4.267670221019635E1    -8.390059863250765E1    -4.282590307520974E1    -8.749627079394065E1    -2.049710933814530       6.447917652657842E-1
 7.879253986600000E9    -2.177120221587781       2.284257885241933E1    -4.227104307723032E1    -8.499490555179004E1    -4.250212447648060E1    -8.851207191473230E1    -2.043635820221374       4.912214972066403E-1
 7.879314640150000E9    -2.175990717895250       2.262963114915354E1    -4.205331722913694E1    -8.509036646278936E1    -4.215783149060861E1    -8.885237021226388E1    -2.049025217924577       3.389772812852333E-1
 7.879375293700000E9    -2.180418696212885       2.247774021613317E1    -4.169231982940008E1    -8.621717202684796E1    -4.184104534341011E1    -8.883024478769858E1    -2.049233674257206       1.949065589296999E-1
 7.879435947250000E9    -2.179917162651080       2.229414818659589E1    -4.148405995915298E1    -8.732463587116150E1    -4.160409864426464E1    -9.071896163682302E1    -2.052096016061897       4.933728126708219E-2
 7.879496600800000E9    -2.182692432861976       2.211797059397812E1    -4.121329810925286E1    -8.835704310248724E1    -4.135859034923112E1    -9.186398567978674E1    -2.055192094720054      -6.616449206061467E-2
 7.879557254350000E9    -2.183054911516906       2.194682182944326E1    -4.081638969705796E1    -8.953116084821774E1    -4.109190856112551E1    -9.289457888649525E1    -2.054339417760244      -2.563234745513746E-1
 7.879617907900000E9    -2.187932915559683       2.176012731548632E1    -4.051488552620923E1    -9.084714678714838E1    -4.064428147356803E1    -9.420283664626946E1    -2.054355067187621      -3.490480556833063E-1
 7.879678561450000E9    -2.192995384584278       2.159796917505076E1    -4.012121193258137E1    -9.152076942492080E1    -4.032522740730033E1    -9.549294010562556E1    -2.063556505626119      -5.438084008197631E-1
 7.879739215000000E9    -2.191736387930864       2.141718505804610E1    -3.987099252211561E1    -9.310585101261728E1    -3.999999642641655E1    -9.599304477409672E1    -2.065420482028421      -7.066238126148316E-1
 7.879799868550000E9    -2.194692084834729       2.122640399843802E1    -3.953344189435735E1    -9.426743008910361E1    -3.967433256948246E1    -9.819477501931071E1    -2.061653545211891      -8.893882192974053E-1
 7.879860522100000E9    -2.197367737364259       2.107068109153515E1    -3.915160687526927E1    -9.570180360178171E1    -3.933216731104295E1    -9.894086027271324E1    -2.064189674535518      -1.023655101680789
 7.879921175650000E9    -2.202654390223379       2.087607678145876E1    -3.875736350555289E1    -9.789067183661217E1    -3.899906668431201E1    -1.009370867040614E2    -2.068460208115163      -1.147954623601167
 7.879981829200000E9    -2.207517812878784       2.068846767350266E1    -3.834340110309949E1    -9.952913609168958E1    -3.857362733945390E1    -1.027246574228842E2    -2.075386092759593      -1.340907254020038
 7.880042482750000E9    -2.212466736493635       2.050716723223002E1    -3.807157525953642E1    -1.011821030203412E2    -3.820586307988368E1    -1.045057262096750E2    -2.080388082547921      -1.491332779987817
 7.880103136300000E9    -2.218798738754125       2.033310295841726E1    -3.762014003692951E1    -1.032294788078049E2    -3.785769443703978E1    -1.065127096951508E2    -2.086853001706498      -1.675028732940754
 7.880163789850000E9    -2.227682016322376       2.017808960312325E1    -3.717936221143150E1    -1.053030789478299E2    -3.744664343760108E1    -1.087790529389764E2    -2.091102018332105      -1.789372521932453
 7.880224443400000E9    -2.236903552375308       2.000476066985853E1    -3.676679016583034E1    -1.081687313505313E2    -3.700775358005474E1    -1.111450637302482E2    -2.099834346604007      -1.927422266908082
 7.880285096950000E9    -2.244290579103768       1.981025365441400E1    -3.636194275812500E1    -1.102641434839624E2    -3.657693594979715E1    -1.136359043028701E2    -2.118526841623728      -2.062689351437013
 7.880345750500000E9    -2.255660499521765       1.965916630871593E1    -3.597026960297604E1    -1.133732670058634E2    -3.617239712475607E1    -1.168254156517517E2    -2.118880602837852      -2.239028826338595
 7.880406404050000E9    -2.264345750586131       1.948950591947951E1    -3.557100047157349E1    -1.166586328715983E2    -3.569900857368975E1    -1.199708045489765E2    -2.134456832499420      -2.420778968341461
