#  HZ   S   DB   R     50.00 
! Rohde & Schwarz Vector Network Analyzer 
! Rohde-Schwarz,ZNB20-2Port,1311601062101988,3.16
! Created: UTC 1/12/2023, 6:35:35 PM
! freq[Hz]                db:S11                  ang:S11                 db:S21                  ang:S21                 db:S12                  ang:S12                 db:S22                  ang:S22
 7.874729056000000E9    -2.232198978492921       3.529798995073862E1    -5.265095559980888E1    -5.821542400633866E1    -5.271044090444572E1    -6.177911889053899E1    -2.140491866419500       1.125533034484247E1
 7.874789709550000E9    -2.230554849638358       3.514786324307246E1    -5.257350642700595E1    -5.699365252196002E1    -5.227152166936020E1    -6.007106468322101E1    -2.143634588219981       1.106982719808842E1
 7.874850363100000E9    -2.229797647415771       3.497882559114251E1    -5.263226563510615E1    -6.106875042325392E1    -5.243824901528918E1    -6.128417707707096E1    -2.144163324010653       1.093331292739814E1
 7.874911016650000E9    -2.227583645315695       3.481490907189496E1    -5.211006315482078E1    -5.868242257830138E1    -5.235010503630824E1    -6.117739725934811E1    -2.140233476533694       1.084318813950243E1
 7.874971670200000E9    -2.225623646583819       3.463167936285442E1    -5.229516626968732E1    -5.829224468105085E1    -5.218682563848261E1    -6.322688614849959E1    -2.132465277865548       1.069368492640122E1
 7.875032323750000E9    -2.222891177673858       3.447134037325839E1    -5.221204533611991E1    -5.955731254764753E1    -5.221722242544410E1    -6.158881699798260E1    -2.130604360178091       1.055746314604784E1
 7.875092977300000E9    -2.225860938566412       3.431276504882591E1    -5.194443457035332E1    -5.968156088582196E1    -5.203429637345324E1    -6.402827743670480E1    -2.133230252722494       1.038748172446931E1
 7.875153630850000E9    -2.221921294358089       3.413374635029778E1    -5.172511419972160E1    -6.035811651795013E1    -5.209926210419228E1    -6.318022141519487E1    -2.131785742626012       1.023119997720645E1
 7.875214284400000E9    -2.221948396978057       3.395017626309979E1    -5.185233992256802E1    -5.915363228239945E1    -5.198306702385829E1    -6.476810757715958E1    -2.130626381673747       1.008029709339053E1
 7.875274937950000E9    -2.220797095718308       3.381032976174416E1    -5.176717588865175E1    -6.129951365502630E1    -5.200539183096385E1    -6.636581115546220E1    -2.123579604697268       9.934652251177274
 7.875335591500000E9    -2.219761817398845       3.365530731966636E1    -5.138742706403900E1    -6.312861171618037E1    -5.158412565963305E1    -6.324420822138473E1    -2.125724676274931       9.841777192600784
 7.875396245050000E9    -2.222137239138473       3.344910529114849E1    -5.131120724676336E1    -6.089997860369738E1    -5.163554751743963E1    -6.412540466306999E1    -2.123941611698007       9.657670401106428
 7.875456898600000E9    -2.216760240113870       3.330601759708943E1    -5.187863925285866E1    -6.124099770459404E1    -5.144736735987706E1    -6.522870652666857E1    -2.120865621691370       9.500913195188648
 7.875517552150000E9    -2.215485521033233       3.312565183315849E1    -5.139592078048446E1    -6.067390380193490E1    -5.138070842105711E1    -6.509500994606353E1    -2.118611304080061       9.400128290054621
 7.875578205700000E9    -2.219049305663925       3.299319283842932E1    -5.104068312259271E1    -6.260290802683042E1    -5.148704681252234E1    -6.675001715114527E1    -2.125189156499216       9.228417033924348
 7.875638859250000E9    -2.213788024324765       3.282809840143872E1    -5.103184949065720E1    -6.375084016001594E1    -5.120675064006798E1    -6.614931197766617E1    -2.116412010288847       9.113153033409509
 7.875699512800000E9    -2.215060012224394       3.264212890053916E1    -5.119515291017141E1    -6.256142784444422E1    -5.120201301984813E1    -6.500996420805561E1    -2.118742738669142       8.922945692587458
 7.875760166350000E9    -2.213956987808330       3.249404591785797E1    -5.092208961541240E1    -6.257970503194350E1    -5.130982951001918E1    -6.619929062435938E1    -2.116040456211508       8.840381835603299
 7.875820819900000E9    -2.209247424847200       3.230290896156964E1    -5.086738406744175E1    -6.405827978182216E1    -5.100995830285342E1    -6.690170422223115E1    -2.108113859388689       8.643509850272519
 7.875881473450000E9    -2.209848006689859       3.213896889362098E1    -5.088072405013550E1    -6.248134244266317E1    -5.075297809369630E1    -6.763870211616548E1    -2.105851389843699       8.518460066335203
 7.875942127000000E9    -2.210207457938250       3.197855690779894E1    -5.046717494413279E1    -6.526164245683637E1    -5.110746298788133E1    -6.858858113076806E1    -2.112087078556894       8.361257030926891
 7.876002780550000E9    -2.207517751234220       3.182492602648761E1    -5.064323841418836E1    -6.575393265231178E1    -5.078623682425651E1    -6.702016795973755E1    -2.102377263760243       8.239678290591067
 7.876063434100000E9    -2.209791745225392       3.165459249720526E1    -5.051101876536109E1    -6.392307134843556E1    -5.055536952928576E1    -6.766558176432734E1    -2.101468625047791       8.057021867630015
 7.876124087650000E9    -2.207676465354294       3.148078459041587E1    -5.041851664281923E1    -6.462987413842151E1    -5.061855563793644E1    -6.687551870729210E1    -2.101966462015935       7.912049330214069
 7.876184741200000E9    -2.208953653450973       3.129999467098257E1    -5.044704340141637E1    -6.415063500243379E1    -5.053098348323189E1    -6.802108094994328E1    -2.099955846634029       7.745881060587120
 7.876245394750000E9    -2.206502175222321       3.114776154610990E1    -5.029664072145167E1    -6.407514886603893E1    -5.046788683358116E1    -6.783806273733170E1    -2.100150856781381       7.621353355806205
 7.876306048300000E9    -2.205037136739779       3.098535421455994E1    -5.016703436158932E1    -6.592533675986458E1    -5.020352864572271E1    -6.762959305974850E1    -2.098072979389319       7.484668328906224
 7.876366701850000E9    -2.201856951115180       3.080385059524455E1    -5.016633923072619E1    -6.540077280657184E1    -5.006609972519304E1    -6.954044300570534E1    -2.098817202933666       7.348095425520976
 7.876427355400000E9    -2.204137270212743       3.064244797626069E1    -5.000750622208091E1    -6.577483500787029E1    -4.985822802431275E1    -6.920924534999429E1    -2.101859549568435       7.254856306965612
 7.876488008950000E9    -2.201160406334824       3.048621902859503E1    -4.979458537684020E1    -6.593016419292206E1    -4.971380372363846E1    -6.888842933387056E1    -2.090784573553472       7.089518862969927
 7.876548662500000E9    -2.200878099756501       3.031965395779084E1    -4.979201659731195E1    -6.566652702044522E1    -4.982936555858083E1    -6.951669763287690E1    -2.096926573917058       6.914059040597696
 7.876609316050000E9    -2.198772937817748       3.016648682763449E1    -4.941490163280405E1    -6.542243136084487E1    -4.971030961014907E1    -6.946839515954336E1    -2.093581194323659       6.794751666235669
 7.876669969600000E9    -2.198705774911557       2.998267242370564E1    -4.942820395443392E1    -6.605691110094621E1    -4.963861620398647E1    -7.004091196180561E1    -2.089399540597570       6.674789289977140
 7.876730623150000E9    -2.196633040667646       2.981971368602090E1    -4.917279412235801E1    -6.653469514962077E1    -4.941214404007897E1    -7.175759454413381E1    -2.089409728718803       6.518980245253548
 7.876791276700000E9    -2.200023116278084       2.965630860829601E1    -4.912229103185483E1    -6.852485134437178E1    -4.944342709627379E1    -7.196801211203937E1    -2.090433528376542       6.371417302570314
 7.876851930250000E9    -2.194291874181902       2.951081950330988E1    -4.923722915989064E1    -6.790136466959828E1    -4.928290619168529E1    -7.127054148593811E1    -2.084379958068172       6.234700204765514
 7.876912583800000E9    -2.196529132489087       2.932365165946027E1    -4.909215784532616E1    -6.949724505772309E1    -4.899591520950384E1    -7.067221792187122E1    -2.082815361397283       6.069765708740975
 7.876973237350000E9    -2.189967762845237       2.916672108090258E1    -4.877011801994404E1    -6.905462420845488E1    -4.885384519121273E1    -7.150538244085351E1    -2.085277928672701       5.958526807644566
 7.877033890900000E9    -2.195676495486814       2.900933886495584E1    -4.876122540152301E1    -6.814858430845095E1    -4.893543252825040E1    -7.163359057630485E1    -2.087974169285476       5.787728172287221
 7.877094544450000E9    -2.191086901589308       2.884115183000761E1    -4.874042801625138E1    -6.864611521075774E1    -4.877095961527294E1    -7.242404041991536E1    -2.083480599319531       5.686906369841440
 7.877155198000000E9    -2.189474487368643       2.867085077313902E1    -4.860721421059797E1    -6.992224474409602E1    -4.842940188395954E1    -7.292532333095586E1    -2.078297656505355       5.520667044918544
 7.877215851550000E9    -2.192065819907185       2.850613513876062E1    -4.845911466590814E1    -6.936904670354029E1    -4.848630661357145E1    -7.295582027794073E1    -2.071512093312220       5.370253157644997
 7.877276505100000E9    -2.191431378774349       2.832738771960477E1    -4.782328614059993E1    -7.063507707003117E1    -4.821258636390196E1    -7.308287060343380E1    -2.070747854049901       5.244698411373178
 7.877337158650000E9    -2.188747905894778       2.816445752588787E1    -4.802702690043514E1    -7.026867078710677E1    -4.814178492696166E1    -7.367951726164985E1    -2.079021453410847       5.065562258022131
 7.877397812200000E9    -2.189931675964204       2.800843410251480E1    -4.804441501270601E1    -7.186428180609028E1    -4.812104929551543E1    -7.480031578529014E1    -2.075116929006303       4.959706430008626
 7.877458465750000E9    -2.186873971043195       2.785722210322579E1    -4.776502525437496E1    -7.040108935614560E1    -4.776168515894861E1    -7.476628305430913E1    -2.068595742243407       4.834240685979874
 7.877519119300000E9    -2.186644481919942       2.769819441679790E1    -4.760190623338459E1    -7.236239205605111E1    -4.775515585226589E1    -7.449735869930355E1    -2.074906103142650       4.658223361370627
 7.877579772850000E9    -2.189710968358233       2.751407160005781E1    -4.762574476208546E1    -7.242246513137863E1    -4.756228376760752E1    -7.532810991840094E1    -2.069449971896311       4.544804797631703
 7.877640426400000E9    -2.188139016738261       2.733672212423645E1    -4.732821062219583E1    -7.139841498356887E1    -4.733165841863651E1    -7.594755012839587E1    -2.071025072854394       4.388385886304222
 7.877701079950000E9    -2.184687990482744       2.717951953038102E1    -4.718706570377932E1    -7.306080660428211E1    -4.714424812071093E1    -7.523119323560526E1    -2.068145572726747       4.264874854223093
 7.877761733500000E9    -2.188151325342504       2.699857447805209E1    -4.696611635993520E1    -7.221042415405826E1    -4.708549806229413E1    -7.721630484451120E1    -2.062969272361674       4.078939653656422
 7.877822387050000E9    -2.184857892716383       2.683477102362264E1    -4.665409786432139E1    -7.318388820792698E1    -4.678894001906495E1    -7.751370786446779E1    -2.067041041506868       3.974383360065848
 7.877883040600000E9    -2.184782028405634       2.667557021883550E1    -4.663919014123427E1    -7.316084444604992E1    -4.679494588394448E1    -7.733453059869180E1    -2.059390721660856       3.819250191582938
 7.877943694150000E9    -2.183364056987659       2.651124345342462E1    -4.646325812447699E1    -7.508424352134433E1    -4.645867928989254E1    -7.832379296058465E1    -2.066044781698620       3.696399224908423
 7.878004347700000E9    -2.181063610393559       2.633678603626099E1    -4.617556802087424E1    -7.573273932670629E1    -4.643379315770105E1    -7.865056386693915E1    -2.060932638736754       3.521719083229617
 7.878065001250000E9    -2.184643602141187       2.618708544516788E1    -4.582623841866028E1    -7.495671725372537E1    -4.622059369534836E1    -7.972954157989112E1    -2.058081010232604       3.373136752849984
 7.878125654800000E9    -2.181841649773838       2.600095944398590E1    -4.594048023797814E1    -7.520969145819093E1    -4.605381496365214E1    -7.942548298105042E1    -2.056933742978838       3.227172122800535
 7.878186308350000E9    -2.184733393603264       2.580977153135234E1    -4.565517761713565E1    -7.601857490919210E1    -4.593106425208566E1    -8.048161090203754E1    -2.058163784137400       3.123525504832660
 7.878246961900000E9    -2.183495542246386       2.566387436709629E1    -4.547043482278164E1    -7.589938910391504E1    -4.568923844833279E1    -8.037882781695221E1    -2.054398847265820       2.942484200386840
 7.878307615450000E9    -2.184331555428686       2.547479994304982E1    -4.551290960644832E1    -7.711719256559252E1    -4.542380499202758E1    -8.088736925504638E1    -2.058264284051937       2.781348045730496
 7.878368269000000E9    -2.181872951559609       2.533645977849235E1    -4.516217841694135E1    -7.832059845511753E1    -4.540902234558574E1    -8.084083818447404E1    -2.056511006986955       2.685513427222693
 7.878428922550000E9    -2.179432574940458       2.516714590785692E1    -4.505644138751143E1    -7.935781493993738E1    -4.509198865309050E1    -8.240369946349718E1    -2.053801873883695       2.517742964205819
 7.878489576100000E9    -2.182604525009252       2.496944279997646E1    -4.477258983088706E1    -7.847016570827117E1    -4.483139811084288E1    -8.196173565340487E1    -2.056596327740157       2.412514874896741
 7.878550229650000E9    -2.177214397796946       2.482751081933120E1    -4.465182124293382E1    -7.961278412488885E1    -4.466970188025014E1    -8.262550700584498E1    -2.052126428380753       2.220461007986050
 7.878610883200000E9    -2.179013835629265       2.466672548167033E1    -4.437436533396707E1    -8.011574350738003E1    -4.453859703856408E1    -8.367861705517414E1    -2.050712558585493       2.118610342124115
 7.878671536750000E9    -2.181988110089515       2.449469379136150E1    -4.403826969332619E1    -8.093675249898114E1    -4.421500955404217E1    -8.441996072049916E1    -2.052922462675852       1.922701390696149
 7.878732190300000E9    -2.182071654093795       2.430481611694164E1    -4.385737254289189E1    -8.125793574431337E1    -4.409345358119579E1    -8.494987469262961E1    -2.058987970002454       1.781345343577561
 7.878792843850000E9    -2.177843345122098       2.411322393846826E1    -4.360962719103913E1    -8.158088349531853E1    -4.379246948231344E1    -8.495973551423444E1    -2.055981163064450       1.693700845700865
 7.878853497400000E9    -2.179408555938841       2.395330978002156E1    -4.340385038634528E1    -8.253393370719768E1    -4.355647273691397E1    -8.617026754168448E1    -2.055200893018587       1.518469606570485
 7.878914150950000E9    -2.180183491188496       2.378325571946412E1    -4.321697196958775E1    -8.362464586542686E1    -4.345737987835769E1    -8.680179970136227E1    -2.050900287656147       1.360924710320679
 7.878974804500000E9    -2.180480722727324       2.360270410361532E1    -4.295866871108721E1    -8.420340707719035E1    -4.315582692919149E1    -8.776257255770442E1    -2.054350035065434       1.250083403687264
 7.879035458050000E9    -2.181298916997293       2.343386252571242E1    -4.261088713447566E1    -8.524981289013031E1    -4.291510447469967E1    -8.810002380731281E1    -2.052018225269040       1.073157622696520
 7.879096111600000E9    -2.183331163890437       2.328013669900691E1    -4.228257585795505E1    -8.645993640488186E1    -4.251243309031392E1    -8.975855991253671E1    -2.050456081311747       9.216730506264725E-1
 7.879156765150000E9    -2.185889193059623       2.310706900809472E1    -4.214314451064246E1    -8.633501923749962E1    -4.234171177758994E1    -8.995469156592655E1    -2.054925616032914       7.648282551550244E-1
 7.879217418700000E9    -2.186523698448311       2.291368821266466E1    -4.180160470720331E1    -8.746413388719847E1    -4.202431041028048E1    -9.164519559465197E1    -2.052866967550480       6.331702468002167E-1
 7.879278072250000E9    -2.187416256761504       2.275863458516404E1    -4.152354362867059E1    -8.827792407597566E1    -4.170030273532007E1    -9.235832824997489E1    -2.061336316593396       4.846048684946258E-1
 7.879338725800000E9    -2.189333506569080       2.257190728945760E1    -4.132066580040302E1    -8.937965405291830E1    -4.139616770761484E1    -9.364462071689604E1    -2.053182864662367       2.860399937497196E-1
 7.879399379350000E9    -2.193172325837691       2.239573054277411E1    -4.089394380879593E1    -9.099551919556359E1    -4.113654021213117E1    -9.410587071553562E1    -2.054428083597588       1.769458554519807E-1
 7.879460032900000E9    -2.190773595451194       2.221669388226961E1    -4.075907671795505E1    -9.182347398757139E1    -4.085638529732330E1    -9.548808276136978E1    -2.061446409525144       2.328049190750183E-2
 7.879520686450000E9    -2.193248771634360       2.204854649865877E1    -4.033621022171907E1    -9.310965349125051E1    -4.054926762813867E1    -9.697114120608461E1    -2.059389101422770      -1.381464661630607E-1
 7.879581340000000E9    -2.197480371019356       2.187262230726956E1    -3.999973626628030E1    -9.505818403644500E1    -4.018028628835629E1    -9.802460329718414E1    -2.058103356670457      -2.922654629591390E-1
 7.879641993550000E9    -2.205294453431264       2.167465092954234E1    -3.969778981717116E1    -9.588071395666778E1    -3.988873927197807E1    -9.995908958733375E1    -2.059805788449121      -4.060146293572224E-1
 7.879702647100000E9    -2.207989399496461       2.153187065600881E1    -3.934879572658460E1    -9.775349989041858E1    -3.952009468802926E1    -1.008569775362624E2    -2.067030366140265      -6.088481304175005E-1
 7.879763300650000E9    -2.207352556335559       2.135674102055194E1    -3.899573486469129E1    -9.914711419642580E1    -3.919348998153742E1    -1.026642569799397E2    -2.074906847109739      -7.274569366554192E-1
 7.879823954200000E9    -2.215022991747418       2.116969993461683E1    -3.867840901114938E1    -1.011616750503578E2    -3.887669336019918E1    -1.045707928639277E2    -2.079557903274550      -9.210848605187835E-1
 7.879884607750000E9    -2.218819178518056       2.099196395310823E1    -3.829271562326181E1    -1.034004959816439E2    -3.848685201037345E1    -1.065558695876400E2    -2.083564164061981      -1.053748448294890
 7.879945261300000E9    -2.224492644816924       2.080808001918606E1    -3.794386523799282E1    -1.048321905843427E2    -3.815122974298821E1    -1.082061201404741E2    -2.089497026409331      -1.207435059188225
 7.880005914850000E9    -2.232578955106227       2.065763065696794E1    -3.753328085551853E1    -1.071467670184400E2    -3.769271032819453E1    -1.108329499461936E2    -2.097527638520455      -1.331625891956221
 7.880066568400000E9    -2.239620493650966       2.047074549878370E1    -3.710919064943747E1    -1.095677073627463E2    -3.732568008573716E1    -1.133775007013655E2    -2.108241096148979      -1.480551784489775
 7.880127221950000E9    -2.247418428488646       2.031212726002651E1    -3.676798308419909E1    -1.126847811799536E2    -3.698575630108018E1    -1.157098603063306E2    -2.113231834177095      -1.618808094393102
 7.880187875500000E9    -2.256259294599318       2.016460303193005E1    -3.631951813782280E1    -1.151866429447596E2    -3.656906732824333E1    -1.186970067524668E2    -2.122688676405094      -1.772696971703383
 7.880248529050000E9    -2.268339046059006       2.002012439202296E1    -3.600636137159734E1    -1.184208926177413E2    -3.617849169775381E1    -1.220182627700444E2    -2.134256436901457      -1.933437149300790
