#  HZ   S   RI   R     50.00 
! Rohde & Schwarz Vector Network Analyzer 
! Rohde-Schwarz,ZNB20-2Port,1311601062101988,3.16
! Created: UTC 3/20/2024, 4:48:34 PM
! freq[Hz]                re:S11                  im:S11                  re:S21                  im:S21                  re:S12                  im:S12                  re:S22                  im:S22
 6.564860698000000E9    -2.192259531263620E-2    5.690195138402599E-1    3.324680089306047E-2   -2.761312063954924E-3    3.289609630521962E-2   -3.278374830314264E-3    8.366811755172834E-2    5.235510712294563E-1
 6.564872090275000E9    -2.116292853113155E-2    5.691532774975903E-1    3.342293884234522E-2   -2.933936647385012E-3    3.296605996883889E-2   -3.363773147881523E-3    8.476854206459991E-2    5.234908531178283E-1
 6.564883482550000E9    -2.012330007910998E-2    5.692040338030918E-1    3.378325328325796E-2   -3.116528816464559E-3    3.320262690589641E-2   -3.514428134002778E-3    8.581683429158846E-2    5.231572023281275E-1
 6.564894874825000E9    -1.917042763645507E-2    5.691054094766657E-1    3.390887139768816E-2   -3.072230880793007E-3    3.333384680736944E-2   -3.615483168675942E-3    8.687888862571412E-2    5.231239093789299E-1
 6.564906267100000E9    -1.827023018557525E-2    5.691380543256064E-1    3.418648095542341E-2   -3.271409901925071E-3    3.350497267899748E-2   -3.671939313549374E-3    8.797655722066307E-2    5.229510322262310E-1
 6.564917659375000E9    -1.736682212247900E-2    5.691633822278501E-1    3.412708228887206E-2   -3.229882529108408E-3    3.363405313170328E-2   -3.802246884307178E-3    8.913510914532542E-2    5.227505195074374E-1
 6.564929051650000E9    -1.631303717921112E-2    5.692478598600424E-1    3.431432284344423E-2   -3.381832354123714E-3    3.375150342445015E-2   -3.883815243302444E-3    9.020254214127919E-2    5.225253330999923E-1
 6.564940443925000E9    -1.541116522454236E-2    5.691906761000696E-1    3.450404115064985E-2   -3.501560677014747E-3    3.405921542159665E-2   -3.994325493564239E-3    9.124757729198084E-2    5.222953611830724E-1
 6.564951836200000E9    -1.452960180915154E-2    5.693639677042776E-1    3.470345928521142E-2   -3.590954869042427E-3    3.420388916197018E-2   -4.127054606763436E-3    9.231249545367770E-2    5.222387842848010E-1
 6.564963228475000E9    -1.371218930878243E-2    5.692808807545945E-1    3.484418724114249E-2   -3.672204194128421E-3    3.442275902468472E-2   -4.089368458742744E-3    9.351876225935915E-2    5.219575718092598E-1
 6.564974620750000E9    -1.263759093469135E-2    5.691883583671378E-1    3.505612261795241E-2   -3.645171750600123E-3    3.449200484040672E-2   -4.260311166683054E-3    9.448867198179467E-2    5.217760877866952E-1
 6.564986013025000E9    -1.178247509745171E-2    5.692241230075343E-1    3.527265661626278E-2   -3.821418851374404E-3    3.465631353620811E-2   -4.344343502363103E-3    9.570962979159608E-2    5.214760241468329E-1
 6.564997405300000E9    -1.076095228545827E-2    5.692661947346747E-1    3.537703659609629E-2   -3.854138772248812E-3    3.486538225217208E-2   -4.418884687329344E-3    9.673815286472301E-2    5.214163539679568E-1
 6.565008797575000E9    -9.866927183027861E-3    5.692505028771365E-1    3.556185819915859E-2   -3.959520168177162E-3    3.499057623754381E-2   -4.512207375432661E-3    9.798173279761437E-2    5.212478965326620E-1
 6.565020189850000E9    -8.823014699769987E-3    5.693231490495659E-1    3.560114299943392E-2   -4.097283791689943E-3    3.527850226897153E-2   -4.606263867398748E-3    9.896086744445393E-2    5.210543488543027E-1
 6.565031582125000E9    -7.867309183542290E-3    5.692613232291369E-1    3.590984586134317E-2   -4.285250618844791E-3    3.532273784925440E-2   -4.679039824552313E-3    1.002234720976106E-1    5.206533488801091E-1
 6.565042974400000E9    -7.031634931402038E-3    5.693015041834384E-1    3.609652745308359E-2   -4.292495769080984E-3    3.553561584217331E-2   -4.886594284995745E-3    1.012582379960611E-1    5.205646094735704E-1
 6.565054366675000E9    -6.130689588404281E-3    5.692461570599978E-1    3.637133788491510E-2   -4.355398521741544E-3    3.572569588639179E-2   -4.898133892629932E-3    1.025122550448401E-1    5.205447652736352E-1
 6.565065758950000E9    -5.127046860599050E-3    5.692447678587907E-1    3.654658883141628E-2   -4.421856467499538E-3    3.596410623978966E-2   -5.060247282738585E-3    1.035766687729128E-1    5.201629464219379E-1
 6.565077151225000E9    -4.094563713742429E-3    5.692945407607365E-1    3.670872332469750E-2   -4.628165316976399E-3    3.605173853792927E-2   -5.146903331913586E-3    1.046697730843148E-1    5.199252212098485E-1
 6.565088543500000E9    -3.184999541251562E-3    5.692732457232477E-1    3.687288215530868E-2   -4.799181490269094E-3    3.620997343686037E-2   -5.269196662378002E-3    1.058135092145156E-1    5.197806398742212E-1
 6.565099935775000E9    -2.224946810932343E-3    5.692859706624045E-1    3.711537563905531E-2   -4.860358370505142E-3    3.653821130561526E-2   -5.393501019757541E-3    1.068648715444155E-1    5.194050029304319E-1
 6.565111328050000E9    -1.264366006346070E-3    5.693610316506016E-1    3.723674611271043E-2   -4.935481499991750E-3    3.656761274307551E-2   -5.555656279961788E-3    1.079779361523585E-1    5.192548014319056E-1
 6.565122720325000E9    -3.616215943649416E-4    5.692449208960202E-1    3.746770154520528E-2   -4.945281026817261E-3    3.695648645040964E-2   -5.606586552294401E-3    1.092205996377130E-1    5.191167059643775E-1
 6.565134112600000E9     6.696913970023508E-4    5.692641859511338E-1    3.766041813634716E-2   -5.204856606355898E-3    3.705684190725542E-2   -5.724206219941791E-3    1.102790872712289E-1    5.185861024446401E-1
 6.565145504875000E9     1.587260948874177E-3    5.691921562835384E-1    3.791879760465942E-2   -5.263824264043399E-3    3.727125976002930E-2   -5.779909521636674E-3    1.114373446836951E-1    5.184403521143663E-1
 6.565156897150000E9     2.484822783200166E-3    5.691565712161719E-1    3.797776039468810E-2   -5.401511674744384E-3    3.742108503423958E-2   -5.916341346119955E-3    1.125769435275155E-1    5.182532179777496E-1
 6.565168289425000E9     3.542038207992585E-3    5.692165730876965E-1    3.833586005740666E-2   -5.453040381316137E-3    3.769615299450257E-2   -5.978888806414906E-3    1.136822255780137E-1    5.181181157271890E-1
 6.565179681700000E9     4.488264282434662E-3    5.691943986885114E-1    3.849215179752050E-2   -5.776977654333116E-3    3.777396632890571E-2   -6.215298327050798E-3    1.151123334733895E-1    5.177245823489136E-1
 6.565191073975000E9     5.471332792698162E-3    5.690983812011555E-1    3.869218796430745E-2   -5.739621105243439E-3    3.814249907857871E-2   -6.259297409440367E-3    1.162626688878172E-1    5.175478342526505E-1
 6.565202466250000E9     6.375374556462572E-3    5.690981056907612E-1    3.890191205612480E-2   -5.846011506378554E-3    3.837109653698513E-2   -6.320461865229214E-3    1.175328156903030E-1    5.172035347155274E-1
 6.565213858525000E9     7.341526778671989E-3    5.689730132735106E-1    3.915780562776344E-2   -5.950771537576383E-3    3.842086829306947E-2   -6.509734304463190E-3    1.184172726020336E-1    5.169605290775435E-1
 6.565225250800000E9     8.356855116008342E-3    5.689522004348820E-1    3.930675488942751E-2   -6.166856209541657E-3    3.875735963828925E-2   -6.590292452008258E-3    1.197153505942565E-1    5.167758695284620E-1
 6.565236643075000E9     9.358996434743652E-3    5.688538006239290E-1    3.968030212995275E-2   -6.195455791959749E-3    3.898395788023423E-2   -6.764731234332614E-3    1.208027504311554E-1    5.165153034019100E-1
 6.565248035350000E9     1.032128748193208E-2    5.689742201995904E-1    3.994112895790222E-2   -6.373158576919200E-3    3.921943077693673E-2   -6.859138572720085E-3    1.220280305943827E-1    5.162431010469674E-1
 6.565259427625000E9     1.113592835327614E-2    5.689710841674198E-1    4.014365661257827E-2   -6.464905153795063E-3    3.939492097306460E-2   -7.035339706126030E-3    1.232329799308168E-1    5.158776031812542E-1
 6.565270819900000E9     1.225505767641261E-2    5.687926893180022E-1    4.028695833829022E-2   -6.639418513982473E-3    3.960129280452067E-2   -7.134458160199648E-3    1.244344938711248E-1    5.154727166265777E-1
 6.565282212175000E9     1.320319311921279E-2    5.689024978410174E-1    4.042547407950991E-2   -6.697683161913581E-3    3.992675244998097E-2   -7.285373519264527E-3    1.257318332621248E-1    5.151921991070217E-1
 6.565293604450000E9     1.408330707885994E-2    5.687798170018222E-1    4.063568101131510E-2   -6.975623752477551E-3    4.000793812480246E-2   -7.357908815385324E-3    1.267998054505816E-1    5.148748079325677E-1
 6.565304996725000E9     1.508811126809954E-2    5.687887270692117E-1    4.102814126864598E-2   -6.929380762075292E-3    4.023081636672572E-2   -7.482025136346900E-3    1.280757939967178E-1    5.145577893424520E-1
 6.565316389000000E9     1.614186325900588E-2    5.687396608211627E-1    4.120880475079115E-2   -7.102508665705186E-3    4.051304095596873E-2   -7.693531720799358E-3    1.292679454330133E-1    5.144937054940157E-1
 6.565327781275000E9     1.707778671528352E-2    5.687070234354834E-1    4.139286756501227E-2   -7.157054234658631E-3    4.077979535366478E-2   -7.884897724621009E-3    1.304386214878815E-1    5.140214659365129E-1
 6.565339173550000E9     1.806229205296453E-2    5.685235428079283E-1    4.169051365971670E-2   -7.509767468081236E-3    4.094146405156712E-2   -7.933012765281145E-3    1.316654195784445E-1    5.137963629255071E-1
 6.565350565825000E9     1.899599438480925E-2    5.685059193269432E-1    4.175339864269123E-2   -7.603931314497285E-3    4.120502534118628E-2   -8.154877002293214E-3    1.329257526592877E-1    5.135396733055697E-1
 6.565361958100000E9     2.015407907702310E-2    5.684436794132692E-1    4.214316589783603E-2   -7.825587689470451E-3    4.138677308090360E-2   -8.248249124090938E-3    1.342331490796058E-1    5.129785797472632E-1
 6.565373350375000E9     2.106176128627816E-2    5.683612709506504E-1    4.249564792411997E-2   -7.753986933463440E-3    4.172447126038887E-2   -8.399470928922865E-3    1.353763591675334E-1    5.126931726205796E-1
 6.565384742650000E9     2.185340176382487E-2    5.682026598949711E-1    4.279176694849758E-2   -8.020008768387819E-3    4.196138387670608E-2   -8.540227853171902E-3    1.366675850520889E-1    5.124222045110464E-1
 6.565396134925000E9     2.301345144920185E-2    5.682007190623696E-1    4.282118522639496E-2   -8.236997318443014E-3    4.225622845935780E-2   -8.817942963937059E-3    1.377949933095590E-1    5.122672962516965E-1
 6.565407527200000E9     2.389957963217819E-2    5.681584011158529E-1    4.314267626424025E-2   -8.222155869233853E-3    4.244287221695688E-2   -8.829172774387106E-3    1.391635744386926E-1    5.116700922592081E-1
 6.565418919475000E9     2.496461354429106E-2    5.681380168965567E-1    4.331661730940455E-2   -8.427494996503412E-3    4.274777570655586E-2   -9.086749926583797E-3    1.403977266369213E-1    5.113129557561200E-1
 6.565430311750000E9     2.604166937542742E-2    5.680295141168613E-1    4.369270228792240E-2   -8.503377302511595E-3    4.291648943449890E-2   -9.168093930815515E-3    1.416261678917331E-1    5.109426234598307E-1
 6.565441704025000E9     2.693601490766655E-2    5.679391312746407E-1    4.397924161630593E-2   -8.708180052452177E-3    4.316618571284561E-2   -9.446410551797308E-3    1.429074254513382E-1    5.107195818239366E-1
 6.565453096300000E9     2.790359737187219E-2    5.677734572678335E-1    4.408028791449971E-2   -8.920673483238804E-3    4.349643981387093E-2   -9.542404176088117E-3    1.441726984207234E-1    5.103492650687516E-1
 6.565464488575000E9     2.894486073926037E-2    5.678109128784304E-1    4.445518615837595E-2   -9.126667192163223E-3    4.382180834442739E-2   -9.686062666327532E-3    1.453817945875059E-1    5.097673665043120E-1
 6.565475880850000E9     2.994083958752105E-2    5.677416785213618E-1    4.472327693701395E-2   -9.370623328925624E-3    4.403630148953777E-2   -9.793389234316243E-3    1.467873712448276E-1    5.094219662700225E-1
 6.565487273125000E9     3.095009347099785E-2    5.677217686300845E-1    4.497027693974016E-2   -9.596882316031041E-3    4.421465233283045E-2   -1.010167493921501E-2    1.481494350136387E-1    5.091587110989343E-1
 6.565498665400000E9     3.196694720787725E-2    5.675065547055532E-1    4.511822985227819E-2   -9.620785109567610E-3    4.457489049267416E-2   -1.014083940638801E-2    1.491712695238317E-1    5.086880579434011E-1
 6.565510057675000E9     3.295113284752033E-2    5.674650961693326E-1    4.568551178254329E-2   -9.795926378530719E-3    4.477375197655646E-2   -1.047039311978929E-2    1.506561713423877E-1    5.083242532940899E-1
 6.565521449950000E9     3.398962209671316E-2    5.673299758155933E-1    4.594525650924532E-2   -1.010611282958231E-2    4.520271054009988E-2   -1.051262907310476E-2    1.519882593101483E-1    5.079205797755417E-1
 6.565532842225000E9     3.492634929019187E-2    5.671971079038323E-1    4.621827730856110E-2   -1.026059176516003E-2    4.549413225875616E-2   -1.072871826008957E-2    1.533354105568997E-1    5.072736657478963E-1
 6.565544234500000E9     3.595090860359412E-2    5.671696354647624E-1    4.638914414527867E-2   -1.030098320317871E-2    4.577237296042891E-2   -1.098625628024104E-2    1.546020548754281E-1    5.071689670210994E-1
 6.565555626775000E9     3.695674789514135E-2    5.669640737205440E-1    4.671188162941554E-2   -1.061623677051493E-2    4.599932328550208E-2   -1.120509861294014E-2    1.559863257532550E-1    5.066028451588217E-1
 6.565567019050000E9     3.802155728224337E-2    5.668547464060973E-1    4.705396159890581E-2   -1.073162654823046E-2    4.630536088551564E-2   -1.129263805303009E-2    1.573708764931988E-1    5.061339965053810E-1
 6.565578411325000E9     3.907958779813873E-2    5.667935896357061E-1    4.736090450087903E-2   -1.098442270838989E-2    4.656988893491064E-2   -1.152523072153157E-2    1.586909315438055E-1    5.057364098163346E-1
 6.565589803600000E9     4.005863982945390E-2    5.666337563401080E-1    4.773830300990006E-2   -1.118256644824622E-2    4.692967094273685E-2   -1.169402152176970E-2    1.600157763173432E-1    5.053851335346343E-1
 6.565601195875000E9     4.113705415952167E-2    5.664164389854602E-1    4.813535176085815E-2   -1.131374733226756E-2    4.737795851725073E-2   -1.193509535785182E-2    1.613714412950789E-1    5.047564732128537E-1
 6.565612588150000E9     4.208891298317652E-2    5.663884691186344E-1    4.827746843796126E-2   -1.151051840523108E-2    4.752036573871167E-2   -1.231078019838689E-2    1.627484493330544E-1    5.043220580664318E-1
 6.565623980425000E9     4.316126275479797E-2    5.664344828722266E-1    4.852066507858950E-2   -1.169480662472415E-2    4.788401207219922E-2   -1.242754051600540E-2    1.641865118981159E-1    5.039044954920981E-1
 6.565635372700000E9     4.418636303710852E-2    5.661460059169595E-1    4.902292090743825E-2   -1.204076753687548E-2    4.821146224011906E-2   -1.262712092096076E-2    1.655446018411386E-1    5.033438358440272E-1
 6.565646764975000E9     4.519933256087277E-2    5.660637424462416E-1    4.937255432742412E-2   -1.219866388697123E-2    4.856793628576356E-2   -1.278737169860847E-2    1.667005926680607E-1    5.029587041433851E-1
 6.565658157250000E9     4.625428101329210E-2    5.659657849771517E-1    4.960711487750472E-2   -1.238952876706159E-2    4.890335801156698E-2   -1.303303766877651E-2    1.683242131001654E-1    5.023182534445548E-1
 6.565669549525000E9     4.730752284437095E-2    5.657946585824046E-1    4.993409050281772E-2   -1.260659859973737E-2    4.917118852923993E-2   -1.335109378036652E-2    1.696740889881613E-1    5.018145620251880E-1
 6.565680941800000E9     4.833561267458165E-2    5.656699377950960E-1    5.035292674348626E-2   -1.274247039983423E-2    4.958804632354959E-2   -1.344220920524878E-2    1.712593549699215E-1    5.014158397902894E-1
 6.565692334075000E9     4.931569887278869E-2    5.655324429111054E-1    5.079509884311081E-2   -1.309407063873405E-2    4.994763986187961E-2   -1.379393530282601E-2    1.724923088301882E-1    5.009721347332545E-1
 6.565703726350000E9     5.046197642510651E-2    5.653428976118431E-1    5.114711746272266E-2   -1.335753940660890E-2    5.022277483377941E-2   -1.401813344611458E-2    1.739501797149591E-1    5.002484180242990E-1
 6.565715118625000E9     5.139364001797445E-2    5.652886841549629E-1    5.143504865493511E-2   -1.369318495864888E-2    5.069838195757547E-2   -1.427314621665059E-2    1.754475174810649E-1    4.997130365236742E-1
 6.565726510900000E9     5.250661488287221E-2    5.650072335107125E-1    5.181960336685825E-2   -1.389015750624381E-2    5.097099990775278E-2   -1.451984455068909E-2    1.769215441398296E-1    4.990360363386970E-1
 6.565737903175000E9     5.354087575388183E-2    5.648917165535309E-1    5.222275242840956E-2   -1.410873742760163E-2    5.135100457395352E-2   -1.479185908681299E-2    1.783309890300339E-1    4.984953556569552E-1
 6.565749295450000E9     5.455972431902103E-2    5.648037477556757E-1    5.247709957261797E-2   -1.440273424591382E-2    5.170340855971408E-2   -1.503915495287037E-2    1.797755832889730E-1    4.980525894217638E-1
 6.565760687725000E9     5.574518912407853E-2    5.646870579834057E-1    5.301372356922303E-2   -1.461937183768798E-2    5.209199175980408E-2   -1.533851032085355E-2    1.813082407567869E-1    4.975771244633482E-1
 6.565772080000000E9     5.672876158928533E-2    5.644171656425959E-1    5.337987100163580E-2   -1.499998691297061E-2    5.256537462554985E-2   -1.551665849555641E-2    1.827822880660857E-1    4.969115975113661E-1
 6.565783472275000E9     5.778856363026506E-2    5.642597432775118E-1    5.381187333526294E-2   -1.516250373540407E-2    5.291209007906710E-2   -1.587144148732322E-2    1.842397289854712E-1    4.962115947416192E-1
 6.565794864550000E9     5.887083468385825E-2    5.640973459189291E-1    5.411626140073433E-2   -1.550146528357947E-2    5.319093127576166E-2   -1.616806277987410E-2    1.857876528744135E-1    4.955981120941361E-1
 6.565806256825000E9     5.995657985770787E-2    5.637946045340430E-1    5.447786330390095E-2   -1.590834768884116E-2    5.367394691897256E-2   -1.646511671526909E-2    1.872609517280613E-1    4.948529103293604E-1
 6.565817649100000E9     6.098367693474309E-2    5.637077074101453E-1    5.494027535070346E-2   -1.614243723251663E-2    5.394382679872442E-2   -1.673616766383466E-2    1.887747069049699E-1    4.943995314604210E-1
 6.565829041375000E9     6.219194168333249E-2    5.635066998282375E-1    5.529168539103895E-2   -1.631904110318837E-2    5.445156725128799E-2   -1.707325507539668E-2    1.905088849095869E-1    4.936833609224586E-1
 6.565840433650000E9     6.308001259883327E-2    5.632708482729105E-1    5.576170080867127E-2   -1.662706303362789E-2    5.489883041639902E-2   -1.738196332963499E-2    1.919409272751803E-1    4.928285670666381E-1
 6.565851825925000E9     6.424202565670091E-2    5.631942149122896E-1    5.610315258781590E-2   -1.704655372060049E-2    5.526379697789210E-2   -1.765467811563891E-2    1.934385525346743E-1    4.923306691618181E-1
 6.565863218200000E9     6.539789675433577E-2    5.628816120783038E-1    5.658953916574933E-2   -1.728342489780621E-2    5.575173043429880E-2   -1.807290519526716E-2    1.950124128352261E-1    4.915379271864626E-1
 6.565874610475000E9     6.652779621895623E-2    5.626729825608613E-1    5.707614283405386E-2   -1.767940242329000E-2    5.618261230558746E-2   -1.822822682613945E-2    1.966382048562949E-1    4.907024833963185E-1
 6.565886002750000E9     6.753342483753504E-2    5.625329645216607E-1    5.747249037469760E-2   -1.784714138824782E-2    5.661851575964249E-2   -1.865795379160317E-2    1.981634263893065E-1    4.901373434663233E-1
