#  HZ   S   RI   R     50.00 
! Rohde & Schwarz Vector Network Analyzer 
! Rohde-Schwarz,ZNB20-2Port,1311601062101988,3.16
! Created: UTC 3/20/2024, 5:08:14 PM
! freq[Hz]                re:S11                  im:S11                  re:S21                  im:S21                  re:S12                  im:S12                  re:S22                  im:S22
 6.564376109000000E9    -6.144410054035972E-2    5.657858625417785E-1    2.815870134819255E-2   -4.529098972602802E-4    2.764659218701952E-2   -9.390687067859939E-4    3.829656931232838E-2    5.239770359349732E-1
 6.564389616450000E9    -6.030003300823943E-2    5.658034382930237E-1    2.827444340162781E-2   -5.209027636933515E-4    2.775929493571699E-2   -9.247674749540555E-4    3.967085156572940E-2    5.240089699321783E-1
 6.564403123900000E9    -5.939983600929438E-2    5.659711850024878E-1    2.821028286612012E-2   -4.493557663098185E-4    2.792766185591817E-2   -9.978805927087866E-4    4.074620720292624E-2    5.240279946318095E-1
 6.564416631350000E9    -5.817958240179128E-2    5.660359667556355E-1    2.854351229958316E-2   -7.186624856345006E-4    2.812655380728509E-2   -1.145971038150094E-3    4.196178807424737E-2    5.238061250611039E-1
 6.564430138800000E9    -5.706592589844943E-2    5.661367775204019E-1    2.879737479337919E-2   -6.461285663499868E-4    2.837445670183000E-2   -1.171471929211904E-3    4.321702518424186E-2    5.237932088613498E-1
 6.564443646250000E9    -5.599682672053642E-2    5.662465266128853E-1    2.890845756561580E-2   -7.428020235030384E-4    2.843122508652717E-2   -1.268524675559605E-3    4.415461893226440E-2    5.238077142030537E-1
 6.564457153700000E9    -5.506292500041539E-2    5.663294785953348E-1    2.891418768029929E-2   -6.554221377964791E-4    2.859905210569427E-2   -1.351167896453685E-3    4.544114231910976E-2    5.236987266950097E-1
 6.564470661150000E9    -5.387473859679294E-2    5.665014427866526E-1    2.909018779672556E-2   -1.008206014326358E-3    2.862233834896559E-2   -1.425519241416342E-3    4.672109309774642E-2    5.235512504355375E-1
 6.564484168600000E9    -5.285247054050794E-2    5.664815786422668E-1    2.935509622915277E-2   -8.928893173354179E-4    2.890428157663942E-2   -1.438512145135315E-3    4.788618546852930E-2    5.234672191156882E-1
 6.564497676050000E9    -5.183902401628961E-2    5.666486072513776E-1    2.942295765006818E-2   -1.061684584498502E-3    2.891423163886079E-2   -1.628096088793361E-3    4.889636027200085E-2    5.232094344660642E-1
 6.564511183500000E9    -5.067738979255240E-2    5.667501999777907E-1    2.961046231802136E-2   -1.075040941335371E-3    2.904768237948066E-2   -1.696206895457829E-3    5.020271633580849E-2    5.231753081766787E-1
 6.564524690950000E9    -4.960282646208828E-2    5.668170054395179E-1    2.971993538557122E-2   -1.248888226630965E-3    2.917581185848590E-2   -1.695493539123728E-3    5.135841115905760E-2    5.231659045881909E-1
 6.564538198400000E9    -4.842211742439451E-2    5.669649846405140E-1    2.996949957003924E-2   -1.287184888146503E-3    2.941816052838395E-2   -1.840208414351724E-3    5.249986423253948E-2    5.229829090339102E-1
 6.564551705850000E9    -4.744398168065533E-2    5.671017242229549E-1    3.002915307114898E-2   -1.327758644225774E-3    2.951865613372415E-2   -1.788607632976306E-3    5.377128034987331E-2    5.229569119867137E-1
 6.564565213300000E9    -4.630291905371552E-2    5.669727349810492E-1    3.018131692969292E-2   -1.444676576322102E-3    2.971709332489279E-2   -1.961816618362196E-3    5.504033515336440E-2    5.227990019770395E-1
 6.564578720750000E9    -4.523214355011688E-2    5.672324498227722E-1    3.046074920637473E-2   -1.474255980397002E-3    2.983398136335411E-2   -1.983471888647003E-3    5.623853842596478E-2    5.225819123669010E-1
 6.564592228200000E9    -4.411607669014173E-2    5.672070555203406E-1    3.062804479733315E-2   -1.476521599911884E-3    3.003704980349606E-2   -2.070684910587399E-3    5.729074422894474E-2    5.225941893772771E-1
 6.564605735650000E9    -4.310827560985721E-2    5.671865406532627E-1    3.065805754269215E-2   -1.713978854423423E-3    3.020391764368451E-2   -2.169757218224845E-3    5.859356341416140E-2    5.224125372314061E-1
 6.564619243100000E9    -4.202037981067195E-2    5.673433872697611E-1    3.091706133686744E-2   -1.832376086957115E-3    3.029636784307432E-2   -2.350991674324775E-3    5.987547680679424E-2    5.221440615511398E-1
 6.564632750550000E9    -4.100860505190886E-2    5.674214015968906E-1    3.098993844854324E-2   -1.818940365955750E-3    3.051698028353309E-2   -2.346866313356254E-3    6.099315593127112E-2    5.221429937864782E-1
 6.564646258000000E9    -3.984129731530471E-2    5.675575966329276E-1    3.120663489803096E-2   -1.883621323194077E-3    3.065024983771834E-2   -2.525531045207744E-3    6.222748678790998E-2    5.221575595964006E-1
 6.564659765450000E9    -3.871569306528226E-2    5.675440091881573E-1    3.138792881030588E-2   -2.117116478972109E-3    3.081293441613618E-2   -2.511773108421017E-3    6.350526981493269E-2    5.220518981777664E-1
 6.564673272900000E9    -3.769678277777069E-2    5.676618759378138E-1    3.153640606692771E-2   -2.095179254404962E-3    3.097156204343650E-2   -2.605144131352179E-3    6.463064165155379E-2    5.217183997605808E-1
 6.564686780350000E9    -3.650336558470333E-2    5.676482546038951E-1    3.176714603216700E-2   -2.267156642873852E-3    3.111369252024039E-2   -2.655476241744918E-3    6.604439035279819E-2    5.215743678877701E-1
 6.564700287800000E9    -3.543207741286224E-2    5.676929803261036E-1    3.189478842912971E-2   -2.186227908104884E-3    3.128328249687515E-2   -2.853712996847586E-3    6.716309550663353E-2    5.214607541788574E-1
 6.564713795250000E9    -3.443092516165655E-2    5.678298101576624E-1    3.213213514510625E-2   -2.593258258730999E-3    3.145138079889653E-2   -2.835167044105422E-3    6.840245714342201E-2    5.212291923321487E-1
 6.564727302700000E9    -3.333535300317882E-2    5.679034222297684E-1    3.212077692143751E-2   -2.477439863484872E-3    3.162836921733252E-2   -2.954371784720592E-3    6.966417188611052E-2    5.213026764942497E-1
 6.564740810150000E9    -3.221782807731348E-2    5.678484716440907E-1    3.236440810571485E-2   -2.483316890024479E-3    3.189251130183742E-2   -2.985938855857955E-3    7.112552523462247E-2    5.208197493307469E-1
 6.564754317600000E9    -3.116792778821270E-2    5.679315194176131E-1    3.256723790310701E-2   -2.469721726842726E-3    3.198486541120200E-2   -3.187742805157437E-3    7.220882125021878E-2    5.208949290794608E-1
 6.564767825050000E9    -2.997881919417204E-2    5.679832705498972E-1    3.283866274897724E-2   -2.858326670741563E-3    3.219850419520279E-2   -3.306049529434208E-3    7.335635272510560E-2    5.206573852698977E-1
 6.564781332500000E9    -2.893005152596033E-2    5.679889380368680E-1    3.297067131263806E-2   -2.700649860113562E-3    3.235321336417413E-2   -3.273086827975348E-3    7.472892090715931E-2    5.204695291830643E-1
 6.564794839950000E9    -2.779085685698130E-2    5.681349101526728E-1    3.311629258052941E-2   -2.942169023649344E-3    3.262809621914271E-2   -3.450140656947420E-3    7.592719872813143E-2    5.202807961122006E-1
 6.564808347400000E9    -2.662499929971938E-2    5.681327534819189E-1    3.330467180090194E-2   -3.169101775584223E-3    3.274799865506976E-2   -3.582639028832306E-3    7.714657154633985E-2    5.199560127595215E-1
 6.564821854850000E9    -2.562104554390757E-2    5.681368223345318E-1    3.359356403915907E-2   -3.165848998340226E-3    3.291518494398484E-2   -3.659767723403444E-3    7.847595589707440E-2    5.199477316377199E-1
 6.564835362300000E9    -2.462189730395854E-2    5.682050718808249E-1    3.363002596408027E-2   -3.210855821914245E-3    3.311251977462920E-2   -3.772641358980778E-3    7.965287949755173E-2    5.198083192380266E-1
 6.564848869750000E9    -2.337820197815856E-2    5.682634737062998E-1    3.385422849014788E-2   -3.399441617867513E-3    3.323807525005982E-2   -3.863472995324589E-3    8.109521562124038E-2    5.194991091530085E-1
 6.564862377200000E9    -2.235177474696858E-2    5.682872462998020E-1    3.403051441140684E-2   -3.577289979899747E-3    3.348764961117159E-2   -3.979543581849811E-3    8.230097032441938E-2    5.192280267170256E-1
 6.564875884650000E9    -2.127446993208466E-2    5.682243244661834E-1    3.434562402145628E-2   -3.666104986374034E-3    3.373756131434875E-2   -4.053543840211538E-3    8.359554760604984E-2    5.190955316481021E-1
 6.564889392100000E9    -2.012073728877573E-2    5.681926873663743E-1    3.450984660066628E-2   -3.676231168835173E-3    3.382200063830799E-2   -4.202078648218322E-3    8.496807030817095E-2    5.188514131321889E-1
 6.564902899550000E9    -1.891772146880029E-2    5.683568323417441E-1    3.456313689577658E-2   -3.802486791098171E-3    3.406202740058308E-2   -4.319170320265111E-3    8.621555076666904E-2    5.186426796687147E-1
 6.564916407000000E9    -1.779434993950054E-2    5.683575506483888E-1    3.480618840721070E-2   -3.879817600330478E-3    3.426737893644465E-2   -4.494496599468347E-3    8.740157928295304E-2    5.185109893115232E-1
 6.564929914450000E9    -1.666969664970232E-2    5.684087911810527E-1    3.516112981835185E-2   -4.116995428778089E-3    3.439795642124768E-2   -4.568077545192825E-3    8.862526091777188E-2    5.183219318249486E-1
 6.564943421900000E9    -1.551470762687444E-2    5.683210954371395E-1    3.513082302849314E-2   -4.185441574284143E-3    3.466556604633014E-2   -4.599370760780350E-3    9.006558880484498E-2    5.181717866239868E-1
 6.564956929350000E9    -1.444588183502000E-2    5.683611769416059E-1    3.553781107208642E-2   -4.298432361514717E-3    3.496671642688968E-2   -4.786338393849355E-3    9.121978124498507E-2    5.177667275193917E-1
 6.564970436800000E9    -1.338257143982216E-2    5.683666833801101E-1    3.573336052196682E-2   -4.328795980212822E-3    3.507960519520971E-2   -4.891780372136494E-3    9.266055259629659E-2    5.176631047385341E-1
 6.564983944250000E9    -1.219235666823036E-2    5.684173685938722E-1    3.590062701650271E-2   -4.291168661858154E-3    3.531487881987447E-2   -5.015714325544741E-3    9.396272510003642E-2    5.173657001090992E-1
 6.564997451700000E9    -1.110161244443836E-2    5.683591835592826E-1    3.606034496655756E-2   -4.613644434686624E-3    3.555587024014249E-2   -5.145050003213500E-3    9.531149737469803E-2    5.171803865435088E-1
 6.565010959150000E9    -9.999615703718318E-3    5.682708671890037E-1    3.629318719874594E-2   -4.903814392861574E-3    3.578316556133784E-2   -5.263801366413890E-3    9.668401713079293E-2    5.168375831017769E-1
 6.565024466600000E9    -9.044928160986817E-3    5.684685226258190E-1    3.664070667069876E-2   -4.912041783364365E-3    3.607147210651722E-2   -5.394061534335691E-3    9.807622001314401E-2    5.167131951427166E-1
 6.565037974050000E9    -7.674977931309027E-3    5.683155318345543E-1    3.686542617493855E-2   -5.066900740498553E-3    3.618921414059392E-2   -5.539430564700919E-3    9.919487246848843E-2    5.164338081051759E-1
 6.565051481500000E9    -6.728515022029422E-3    5.683440801392617E-1    3.697722258967387E-2   -5.136351021099318E-3    3.636524170782237E-2   -5.750732146526108E-3    1.006066746476221E-1    5.159315132062219E-1
 6.565064988950000E9    -5.433671764748331E-3    5.682488530869384E-1    3.716252214559848E-2   -5.191076294362855E-3    3.655789626778161E-2   -5.831783697811513E-3    1.019900891383010E-1    5.159530571861237E-1
 6.565078496400000E9    -4.363502399781112E-3    5.683100039877867E-1    3.735184531732882E-2   -5.403989411294482E-3    3.689162168158831E-2   -5.948464522030582E-3    1.032933044211434E-1    5.156303155924188E-1
 6.565092003850000E9    -3.240526370798256E-3    5.682180170940107E-1    3.765545487488319E-2   -5.575201213042149E-3    3.707144501801793E-2   -6.051975874539753E-3    1.046497778349648E-1    5.151542163375781E-1
 6.565105511300000E9    -2.075374159009450E-3    5.682847089697285E-1    3.795986562009745E-2   -5.805722037102270E-3    3.729304805873616E-2   -6.384310257134028E-3    1.061897312465025E-1    5.149134195830569E-1
 6.565119018750000E9    -1.128777656897472E-3    5.681412383821752E-1    3.825343913618257E-2   -5.699784401413674E-3    3.743802340161109E-2   -6.355420659295999E-3    1.073908559170397E-1    5.147727190665966E-1
 6.565132526200000E9     1.182625659394595E-4    5.681425856894557E-1    3.849127721318845E-2   -5.887413699262537E-3    3.770695793857087E-2   -6.655353967354114E-3    1.086675840360221E-1    5.142689699486841E-1
 6.565146033650000E9     1.337467037011703E-3    5.682916210956227E-1    3.876706339181150E-2   -6.247552091951985E-3    3.794542365909751E-2   -6.807355974039676E-3    1.101590155283036E-1    5.138905807632804E-1
 6.565159541100000E9     2.538540108046732E-3    5.681739004199825E-1    3.879942504490665E-2   -6.289143875211380E-3    3.834628682944600E-2   -6.876270833858817E-3    1.115660519625896E-1    5.136866225095330E-1
 6.565173048550000E9     3.566318215383914E-3    5.681537901228404E-1    3.921961803816001E-2   -6.552330507584221E-3    3.855408118134630E-2   -6.979914089003842E-3    1.129249028414405E-1    5.134500187726365E-1
 6.565186556000000E9     4.869647341798687E-3    5.681287817883529E-1    3.939240255377121E-2   -6.529092381117726E-3    3.882843702072530E-2   -7.111960883676357E-3    1.144477695660016E-1    5.130219665751203E-1
 6.565200063450000E9     5.876118274589110E-3    5.680106090348818E-1    3.970619420266353E-2   -6.767434734449241E-3    3.906286423180281E-2   -7.329405833462943E-3    1.157022671534075E-1    5.127619388458537E-1
 6.565213570900000E9     7.068660206880032E-3    5.681026839404714E-1    4.001976553228827E-2   -6.986317739941995E-3    3.924620226788088E-2   -7.481579021990674E-3    1.170508227291595E-1    5.123198573880974E-1
 6.565227078350000E9     8.101252599906040E-3    5.678989370721856E-1    4.023245322813127E-2   -7.114024643506210E-3    3.959577049844680E-2   -7.538703467639913E-3    1.185608679659025E-1    5.119900525644231E-1
 6.565240585800000E9     9.266043238646972E-3    5.677583863507367E-1    4.048477224857816E-2   -7.100392197538554E-3    3.983658968987382E-2   -7.795924552296364E-3    1.197675571345247E-1    5.116542099082075E-1
 6.565254093250000E9     1.036785469473446E-2    5.678335040167088E-1    4.071052846758403E-2   -7.351652380812468E-3    4.012455299304564E-2   -7.956745493773006E-3    1.213748265864544E-1    5.112910428743828E-1
 6.565267600700000E9     1.164584855389245E-2    5.676983278881687E-1    4.099121488209728E-2   -7.541807687251914E-3    4.032902373147815E-2   -8.159388491283103E-3    1.226707384274260E-1    5.110266807430294E-1
 6.565281108150000E9     1.277747155606548E-2    5.676655890693545E-1    4.132542258957408E-2   -7.865177581514725E-3    4.069260986835193E-2   -8.358168640777134E-3    1.241711290998898E-1    5.106283183644620E-1
 6.565294615600000E9     1.402387990277568E-2    5.676093613041895E-1    4.160333578447576E-2   -7.995193353148206E-3    4.096477332873363E-2   -8.496881703400414E-3    1.254685178817974E-1    5.102207020131239E-1
 6.565308123050000E9     1.515826506296871E-2    5.675240262947151E-1    4.195850370850983E-2   -8.120263213557138E-3    4.121392530686328E-2   -8.605354576657665E-3    1.270538739717859E-1    5.097768453683535E-1
 6.565321630500000E9     1.630365792693687E-2    5.674755030326223E-1    4.221073846556088E-2   -8.366815265875859E-3    4.145654540105555E-2   -8.863558318168520E-3    1.284794137598352E-1    5.095086007837276E-1
 6.565335137950000E9     1.751920995068039E-2    5.673786599713730E-1    4.249963659706475E-2   -8.409863547285366E-3    4.169275951067904E-2   -9.086638511915575E-3    1.300365868490354E-1    5.090607367559650E-1
 6.565348645400000E9     1.868061322709272E-2    5.674283818328864E-1    4.272430495377264E-2   -8.805562919930366E-3    4.207421212680610E-2   -9.401474474648380E-3    1.314527305440897E-1    5.085917088585764E-1
 6.565362152850000E9     1.977970018053592E-2    5.672992865288471E-1    4.300772910263616E-2   -8.847984714713469E-3    4.231475166893702E-2   -9.532576951532366E-3    1.329262741030006E-1    5.081775427428853E-1
 6.565375660300000E9     2.094843818652010E-2    5.671649987997270E-1    4.340511727977861E-2   -9.127169157462979E-3    4.266381888081862E-2   -9.626203117037492E-3    1.344502086880555E-1    5.077587579207394E-1
 6.565389167750000E9     2.211185281917483E-2    5.671201455237858E-1    4.376871668864216E-2   -9.209475937416618E-3    4.289698790210055E-2   -9.939099778802623E-3    1.359303926836888E-1    5.071042396686599E-1
 6.565402675200000E9     2.337412680880679E-2    5.670489205577549E-1    4.409041222354151E-2   -9.358134361062375E-3    4.320255899352281E-2   -1.010959310863465E-2    1.374588805571761E-1    5.068419305977824E-1
 6.565416182650000E9     2.445306506602744E-2    5.669447602620764E-1    4.424159897970156E-2   -9.717730585765855E-3    4.360349383280060E-2   -1.018934347254548E-2    1.388922935019321E-1    5.063368709182439E-1
 6.565429690100000E9     2.560005278758053E-2    5.667877220718038E-1    4.465877643016972E-2   -9.976396590810673E-3    4.392188508074996E-2   -1.057609525299814E-2    1.403521503921151E-1    5.059201752584098E-1
 6.565443197550000E9     2.687785467329531E-2    5.666607849669681E-1    4.498272946200903E-2   -1.020093116430296E-2    4.418742429539147E-2   -1.077513142635794E-2    1.418307664402124E-1    5.054194584734387E-1
 6.565456705000000E9     2.810895960877473E-2    5.667603212009227E-1    4.531325097540213E-2   -1.027787228462425E-2    4.452474111789934E-2   -1.101964461142470E-2    1.434981492236481E-1    5.048256524930576E-1
 6.565470212450000E9     2.932430256403376E-2    5.664304086090198E-1    4.555470384867787E-2   -1.060396579710524E-2    4.484252244370995E-2   -1.128177860374478E-2    1.449373034481589E-1    5.044400561323608E-1
 6.565483719900000E9     3.049711097533688E-2    5.664066280492747E-1    4.604881968765533E-2   -1.092657365322003E-2    4.522208640114701E-2   -1.138759036971016E-2    1.464475064310408E-1    5.038682296860137E-1
 6.565497227350000E9     3.157716560268601E-2    5.661738965339178E-1    4.638645940719642E-2   -1.122495397335086E-2    4.554707377763093E-2   -1.159161810952712E-2    1.480939213130869E-1    5.033488346043751E-1
 6.565510734800000E9     3.278590358437025E-2    5.660839899394442E-1    4.676363900418280E-2   -1.128209236133238E-2    4.599035768262745E-2   -1.196540683475139E-2    1.496496036962064E-1    5.028369887263737E-1
 6.565524242250000E9     3.405711718032571E-2    5.660642112066482E-1    4.700844124104286E-2   -1.155974256639478E-2    4.628136634456643E-2   -1.217360154423936E-2    1.512664391833035E-1    5.022639040345283E-1
 6.565537749700000E9     3.526724985218996E-2    5.657788285798387E-1    4.734638745716761E-2   -1.183852556398647E-2    4.667914665902089E-2   -1.241117986292533E-2    1.527712369961524E-1    5.018810018676597E-1
 6.565551257150000E9     3.631351929575864E-2    5.656166659937143E-1    4.777555926082604E-2   -1.205976207359447E-2    4.703272674561338E-2   -1.270948346689347E-2    1.544602937704261E-1    5.011750893856706E-1
 6.565564764600000E9     3.766353947203288E-2    5.654746076545959E-1    4.808583854676165E-2   -1.227410858646204E-2    4.726038552389423E-2   -1.297219693689280E-2    1.560009015131742E-1    5.004885271675187E-1
 6.565578272050000E9     3.877481229034387E-2    5.653664918549084E-1    4.853762266730355E-2   -1.255156211009184E-2    4.763370051460808E-2   -1.327200679751266E-2    1.576385900606916E-1    5.000859871510918E-1
 6.565591779500000E9     4.012434406599992E-2    5.651723112264111E-1    4.886859264162999E-2   -1.298265108709834E-2    4.815642805663244E-2   -1.359618005075458E-2    1.592802601096973E-1    4.994296487327906E-1
