#  HZ   S   RI   R     50.00 
! Rohde & Schwarz Vector Network Analyzer 
! Rohde-Schwarz,ZNB20-2Port,1311601062101988,3.16
! Created: UTC 3/20/2024, 4:53:10 PM
! freq[Hz]                re:S11                  im:S11                  re:S21                  im:S21                  re:S12                  im:S12                  re:S22                  im:S22
 6.564521444000000E9    -4.935064850049370E-2    5.673921703824824E-1    2.975538833921847E-2   -1.107480214815384E-3    2.924945008359980E-2   -1.605547692828652E-3    5.303453571897361E-2    5.261090081844585E-1
 6.564534213950000E9    -4.840894639019929E-2    5.673254900242776E-1    2.995061883973889E-2   -1.290212760134151E-3    2.947740410248599E-2   -1.777274063466315E-3    5.416868116327736E-2    5.257769773827747E-1
 6.564546983900000E9    -4.739846460554616E-2    5.673536248007550E-1    3.006068017383931E-2   -1.312742582476475E-3    2.962377235627281E-2   -1.775817233101972E-3    5.519106585309591E-2    5.258693229249226E-1
 6.564559753850000E9    -4.633600891623499E-2    5.673962260337208E-1    3.027712913028239E-2   -1.545670976886734E-3    2.974336465810707E-2   -1.869288490219209E-3    5.644461300440304E-2    5.256501701216767E-1
 6.564572523800000E9    -4.533441345911148E-2    5.675683946689541E-1    3.053358286027467E-2   -1.364630269845801E-3    2.995651600106009E-2   -1.907225230266463E-3    5.759077670406396E-2    5.256026930083378E-1
 6.564585293750000E9    -4.416402782717387E-2    5.676274562963100E-1    3.068506853197656E-2   -1.468317116677233E-3    3.011249544517600E-2   -1.982738675002693E-3    5.874757345615737E-2    5.255118220631366E-1
 6.564598063700000E9    -4.319419217375780E-2    5.677413480119338E-1    3.062248596996735E-2   -1.530224774868145E-3    3.020189900762327E-2   -2.058272165844144E-3    5.993395078896897E-2    5.255210107166678E-1
 6.564610833650000E9    -4.227826634511421E-2    5.677670151681949E-1    3.091555921828497E-2   -1.717529950068292E-3    3.030729059005523E-2   -2.143030017307693E-3    6.103603409093092E-2    5.253448491968096E-1
 6.564623603600000E9    -4.119732326960425E-2    5.678111664656831E-1    3.094271847466205E-2   -1.720845259366174E-3    3.053284242625616E-2   -2.217558815621102E-3    6.214919420750434E-2    5.250128194395307E-1
 6.564636373550000E9    -4.024975297318319E-2    5.679572408223168E-1    3.120185465766509E-2   -1.751109454842026E-3    3.076554463505541E-2   -2.440078820624495E-3    6.336737143469946E-2    5.249792607011667E-1
 6.564649143500000E9    -3.922480631167000E-2    5.679006921090610E-1    3.128699005609267E-2   -1.917505361210870E-3    3.078870288270573E-2   -2.390783166890214E-3    6.456838887939308E-2    5.247789537738876E-1
 6.564661913450000E9    -3.808377518936747E-2    5.680302886168471E-1    3.167271094139359E-2   -2.000572432362928E-3    3.093034442269743E-2   -2.535591514662158E-3    6.573433885976364E-2    5.246801416211916E-1
 6.564674683400000E9    -3.702959187199054E-2    5.680446851856341E-1    3.168190746371322E-2   -2.094476099727512E-3    3.115108527015243E-2   -2.549249221526658E-3    6.687337789395965E-2    5.246784308002188E-1
 6.564687453350000E9    -3.603125380781723E-2    5.681331041588046E-1    3.189010084888554E-2   -2.101557391384943E-3    3.124700278609044E-2   -2.674560340668083E-3    6.818146437964091E-2    5.244209913312060E-1
 6.564700223300000E9    -3.503225671893052E-2    5.682094972858780E-1    3.201134921573385E-2   -2.349081270406140E-3    3.150026667211398E-2   -2.746203615538693E-3    6.927989623606672E-2    5.242855612076314E-1
 6.564712993250000E9    -3.396176628586463E-2    5.682453231826664E-1    3.213425333846204E-2   -2.365171605970322E-3    3.161878126752971E-2   -2.781849277639588E-3    7.044245985766041E-2    5.240607681684389E-1
 6.564725763200000E9    -3.302709859142104E-2    5.682941282993185E-1    3.225680687658870E-2   -2.308660460494525E-3    3.191022681695842E-2   -2.917826170673655E-3    7.154316582963985E-2    5.239926728066748E-1
 6.564738533150000E9    -3.188906445725889E-2    5.684348198967267E-1    3.256505095427241E-2   -2.600394258170560E-3    3.201411380385270E-2   -2.996148426895137E-3    7.276380645087563E-2    5.238563246012932E-1
 6.564751303100000E9    -3.082666119511780E-2    5.683410684951568E-1    3.262835670014910E-2   -2.429351438482269E-3    3.211280207458966E-2   -3.074553688143398E-3    7.398925316819950E-2    5.237672978752551E-1
 6.564764073050000E9    -2.988979068888687E-2    5.683468833233658E-1    3.287279237239586E-2   -2.621252986161759E-3    3.225467846570097E-2   -3.297980479182164E-3    7.518301809071559E-2    5.234682854070210E-1
 6.564776843000000E9    -2.876231548900506E-2    5.684739502879369E-1    3.300562411860381E-2   -2.826972181951508E-3    3.251704856268089E-2   -3.299745675213491E-3    7.634814352397129E-2    5.233647798292993E-1
 6.564789612950000E9    -2.786960948468468E-2    5.685265130233925E-1    3.309009105711892E-2   -2.947955334864302E-3    3.264976755585426E-2   -3.312496499277634E-3    7.758689316035926E-2    5.232066062321834E-1
 6.564802382900000E9    -2.676334622565260E-2    5.685672697902896E-1    3.350976513865900E-2   -2.829723564020515E-3    3.283016156900621E-2   -3.472910466686983E-3    7.880478897132681E-2    5.229685100657372E-1
 6.564815152850000E9    -2.564701867678284E-2    5.686294278752991E-1    3.354581313658166E-2   -3.043667163119853E-3    3.305259600232658E-2   -3.535591210099415E-3    7.990882620268425E-2    5.227556694255124E-1
 6.564827922800000E9    -2.455412588156186E-2    5.687433048552931E-1    3.376390138660923E-2   -3.220976768241610E-3    3.321777073092986E-2   -3.695845159948317E-3    8.110677304996146E-2    5.227082981785772E-1
 6.564840692750000E9    -2.358354576273246E-2    5.687056657645834E-1    3.387993084939517E-2   -3.264063705352415E-3    3.343175721557438E-2   -3.797179932716449E-3    8.239119941104107E-2    5.224838950410953E-1
 6.564853462700000E9    -2.246783936445679E-2    5.686223393561717E-1    3.419253259822004E-2   -3.374803715943299E-3    3.351004268888292E-2   -3.785287219807030E-3    8.355091802088557E-2    5.223250452395748E-1
 6.564866232650000E9    -2.145719453034044E-2    5.687387429927108E-1    3.429758465061178E-2   -3.387489007177783E-3    3.368575394799192E-2   -4.016584543272339E-3    8.472991183678114E-2    5.220918799741011E-1
 6.564879002600000E9    -2.033285433714114E-2    5.687721278616237E-1    3.459722416281080E-2   -3.637544884056681E-3    3.394256750827312E-2   -4.019272248767837E-3    8.599255981508588E-2    5.217577134498943E-1
 6.564891772550000E9    -1.939733854664368E-2    5.687103661633397E-1    3.467180178100693E-2   -3.652808506220736E-3    3.410875483453966E-2   -4.183731583979882E-3    8.719779998951088E-2    5.216873432646230E-1
 6.564904542500000E9    -1.831159830605845E-2    5.688108282108865E-1    3.479307394988208E-2   -3.686190549230414E-3    3.427410770708012E-2   -4.293971931319362E-3    8.834543444604338E-2    5.214899042119117E-1
 6.564917312450000E9    -1.725806954489009E-2    5.688323851712541E-1    3.505361234605600E-2   -3.961426069229950E-3    3.440841513781667E-2   -4.385340390926981E-3    8.960231044591267E-2    5.213738918039321E-1
 6.564930082400000E9    -1.615343785522545E-2    5.688217025949771E-1    3.518551592754388E-2   -4.006685813244646E-3    3.469045934251556E-2   -4.620609830238959E-3    9.079827767228763E-2    5.210089028898746E-1
 6.564942852350000E9    -1.518069558853070E-2    5.688397101760295E-1    3.555827517138319E-2   -4.075241425114219E-3    3.482844337387223E-2   -4.546513442554831E-3    9.222494798039325E-2    5.207558537489658E-1
 6.564955622300000E9    -1.409606054337295E-2    5.688107611729866E-1    3.551953333350519E-2   -4.032444669061979E-3    3.511898623508131E-2   -4.734146360566675E-3    9.348776277729395E-2    5.205498770084905E-1
 6.564968392250000E9    -1.308242057545755E-2    5.688402599929938E-1    3.580506855970466E-2   -4.295458465921019E-3    3.520051785652549E-2   -4.793044639535914E-3    9.461952926429630E-2    5.202922145316652E-1
 6.564981162200000E9    -1.199522403419099E-2    5.687431317728573E-1    3.599195718426422E-2   -4.386297981288042E-3    3.545299603601320E-2   -4.892774213505812E-3    9.590449511069668E-2    5.200992467212010E-1
 6.564993932150000E9    -1.089347442484466E-2    5.687291626242906E-1    3.634340634202618E-2   -4.598222345488953E-3    3.565254410116288E-2   -5.105340130675762E-3    9.718954509450349E-2    5.199341655668042E-1
 6.565006702100000E9    -9.827613767055409E-3    5.689042734288197E-1    3.652063676307448E-2   -4.620296109836127E-3    3.588171757279391E-2   -5.153223874570779E-3    9.831356278837729E-2    5.195544695325208E-1
 6.565019472050000E9    -8.794247149492109E-3    5.689578242490322E-1    3.656591964703812E-2   -4.862662525662944E-3    3.604103819932044E-2   -5.375089914748795E-3    9.973352207354190E-2    5.193164278502541E-1
 6.565032242000000E9    -7.813157793493144E-3    5.688337928681179E-1    3.679116159552342E-2   -4.955519212759285E-3    3.624890836248035E-2   -5.409644823173130E-3    1.010426442486087E-1    5.191150274522796E-1
 6.565045011950000E9    -6.657324374973498E-3    5.687962184987355E-1    3.708959851440143E-2   -4.868589517242114E-3    3.648024417949604E-2   -5.551281739385673E-3    1.021713545907726E-1    5.188540695511391E-1
 6.565057781900000E9    -5.585459943420636E-3    5.688422744166458E-1    3.727954297683001E-2   -5.094665195268523E-3    3.671403763289683E-2   -5.705114410066514E-3    1.036254523271762E-1    5.185260185498847E-1
 6.565070551850000E9    -4.535288741533676E-3    5.688902109322579E-1    3.748594236111399E-2   -5.335723215832482E-3    3.687132709509484E-2   -5.861744584078599E-3    1.047530569972554E-1    5.183152446908316E-1
 6.565083321800000E9    -3.371411728841512E-3    5.687768210248845E-1    3.772824697954293E-2   -5.411654116954236E-3    3.709135472887581E-2   -5.977093518258754E-3    1.061398444447153E-1    5.180983309903366E-1
 6.565096091750000E9    -2.309621443455128E-3    5.686405006738739E-1    3.789344555662130E-2   -5.585845927016367E-3    3.734214521543563E-2   -6.006370486192214E-3    1.073813404133703E-1    5.178532677425053E-1
 6.565108861700000E9    -1.296231189806101E-3    5.687524236546685E-1    3.828902287593233E-2   -5.540304751943438E-3    3.754809218109167E-2   -6.266403801399327E-3    1.085765888667168E-1    5.175347531209039E-1
 6.565121631650000E9    -1.835631188540044E-4    5.686548191085153E-1    3.845151581164170E-2   -5.881158699116791E-3    3.778016318972297E-2   -6.343237285951972E-3    1.100292476432595E-1    5.171639719213750E-1
 6.565134401600000E9     9.127578760360393E-4    5.686152000618592E-1    3.867482362607470E-2   -5.932977504327349E-3    3.801377447899353E-2   -6.526169381823253E-3    1.113292045823903E-1    5.169685904844200E-1
 6.565147171550000E9     2.041298964120587E-3    5.686576376356873E-1    3.905158873198652E-2   -5.998788788465780E-3    3.824345090345044E-2   -6.664905774121793E-3    1.126763226949312E-1    5.167925881700839E-1
 6.565159941500000E9     3.039685658170641E-3    5.685691086877680E-1    3.916805837376502E-2   -6.212357462509227E-3    3.849891719787867E-2   -6.822754377108708E-3    1.139479532076402E-1    5.164327480068871E-1
 6.565172711450000E9     4.097137134689249E-3    5.685438039348643E-1    3.938962709880123E-2   -6.474886189836037E-3    3.874498101220643E-2   -6.915276424213489E-3    1.152743880052584E-1    5.161298861237436E-1
 6.565185481400000E9     5.276195595576818E-3    5.685325637213405E-1    3.970626044891698E-2   -6.389709294849524E-3    3.903979695358447E-2   -7.039236507383555E-3    1.165238352207966E-1    5.157915774967676E-1
 6.565198251350000E9     6.317394579968133E-3    5.685582570817911E-1    3.995265648740368E-2   -6.559631536575396E-3    3.914645846551787E-2   -7.193200409560223E-3    1.179181685008713E-1    5.153540783406098E-1
 6.565211021300000E9     7.402739108346558E-3    5.685563540303233E-1    4.014045489353715E-2   -6.859899116628682E-3    3.954861016168034E-2   -7.409226390207393E-3    1.191030657695492E-1    5.150813185459499E-1
 6.565223791250000E9     8.427515483511805E-3    5.684461543118157E-1    4.040783984754428E-2   -6.911425126051513E-3    3.968967171975515E-2   -7.410005809405065E-3    1.206462828981338E-1    5.147947179119128E-1
 6.565236561200000E9     9.629638857763100E-3    5.683999392457567E-1    4.063111200106990E-2   -7.043612271261460E-3    3.994881591302157E-2   -7.686514946507006E-3    1.219694795291871E-1    5.143723630320960E-1
 6.565249331150000E9     1.071528754670844E-2    5.682615960412624E-1    4.086527843401587E-2   -7.087703432773066E-3    4.013922641431569E-2   -7.715639337906511E-3    1.232227861697282E-1    5.142819578872552E-1
 6.565262101100000E9     1.178439599514812E-2    5.681854037953855E-1    4.123557512006771E-2   -7.469450406746741E-3    4.051085402299398E-2   -7.972166306706279E-3    1.245840383186532E-1    5.138338676123617E-1
 6.565274871050000E9     1.279058717321396E-2    5.680945490654478E-1    4.147266657505952E-2   -7.448082565362773E-3    4.083525944587112E-2   -8.055742256748129E-3    1.260197841845434E-1    5.134809094445419E-1
 6.565287641000000E9     1.392297100253535E-2    5.680932179097672E-1    4.162071280537663E-2   -7.779673003018173E-3    4.104061380500026E-2   -8.302651170767845E-3    1.274908149655205E-1    5.129487682370795E-1
 6.565300410950000E9     1.501135167687336E-2    5.680947823049743E-1    4.200379826196341E-2   -7.936493877464472E-3    4.132199126955872E-2   -8.484224421292747E-3    1.285298411960131E-1    5.126409890584009E-1
 6.565313180900000E9     1.608424982259448E-2    5.681041718188069E-1    4.237088967811019E-2   -8.147117539137208E-3    4.155834844401166E-2   -8.673791867153526E-3    1.300624347635159E-1    5.122517677884451E-1
 6.565325950850000E9     1.737202376571347E-2    5.679903306838974E-1    4.257246531139651E-2   -8.280855884733925E-3    4.197226054459675E-2   -8.922675120065121E-3    1.314404960268627E-1    5.118003336706857E-1
 6.565338720800000E9     1.827142352121330E-2    5.678891977207374E-1    4.277337959349401E-2   -8.439851696688603E-3    4.210166402390711E-2   -9.048649802359013E-3    1.329786093904966E-1    5.114989377538274E-1
 6.565351490750000E9     1.942702316305725E-2    5.678466063246789E-1    4.293948780742851E-2   -8.555329296237153E-3    4.239503412415868E-2   -9.236265559501597E-3    1.342022224413545E-1    5.111303753540865E-1
 6.565364260700000E9     2.048739927777331E-2    5.677541431923948E-1    4.349390674656857E-2   -8.676542125902553E-3    4.261305267248520E-2   -9.345646176638887E-3    1.357907090858866E-1    5.106769550654419E-1
 6.565377030650000E9     2.171170478659561E-2    5.676352582358725E-1    4.375207788024757E-2   -9.044670048842461E-3    4.301566218663869E-2   -9.623676938637388E-3    1.371761462260029E-1    5.104579199090822E-1
 6.565389800600000E9     2.277558610245592E-2    5.676552009056631E-1    4.393579519754117E-2   -9.133788045264341E-3    4.331855742016730E-2   -9.769053176792738E-3    1.385611346985481E-1    5.099036712517175E-1
 6.565402570550000E9     2.388264180771715E-2    5.674717455052717E-1    4.425376598936937E-2   -9.269941702799614E-3    4.353548134643723E-2   -9.942290898000226E-3    1.399012494757323E-1    5.095145192202230E-1
 6.565415340500000E9     2.502443182786602E-2    5.673871350140417E-1    4.453069360002769E-2   -9.606764354238451E-3    4.391168009291758E-2   -1.017970315771652E-2    1.412596408551252E-1    5.091113536665625E-1
 6.565428110450000E9     2.612844593527982E-2    5.672436759071109E-1    4.500266373888826E-2   -9.765603568666216E-3    4.414864091400669E-2   -1.034364161281710E-2    1.428059645290171E-1    5.085843171288646E-1
 6.565440880400000E9     2.724792420509195E-2    5.671982607559956E-1    4.522984170946692E-2   -9.967078191950342E-3    4.443785877098840E-2   -1.066640078595686E-2    1.442762005306625E-1    5.081781652820830E-1
 6.565453650350000E9     2.833073410697200E-2    5.670732946034378E-1    4.558558687989697E-2   -1.009628984783718E-2    4.473919025539679E-2   -1.078484619100600E-2    1.457632350091505E-1    5.077299532797281E-1
 6.565466420300000E9     2.942635570935455E-2    5.670549519767455E-1    4.582961775616557E-2   -1.058279255442790E-2    4.497847327044272E-2   -1.092927534846323E-2    1.471438533732567E-1    5.072337098556946E-1
 6.565479190250000E9     3.067748328572277E-2    5.668841001318826E-1    4.619100779738674E-2   -1.065315173186761E-2    4.544539512190855E-2   -1.118938819958592E-2    1.487148537221527E-1    5.066999064064851E-1
 6.565491960200000E9     3.162698205562197E-2    5.667200587131386E-1    4.651404535130634E-2   -1.082262544229154E-2    4.577801515659421E-2   -1.148786032394724E-2    1.501440363739006E-1    5.061698220636207E-1
 6.565504730150000E9     3.287979862559771E-2    5.665844199152719E-1    4.675660255369943E-2   -1.101911747673530E-2    4.611880224116837E-2   -1.167267708157644E-2    1.516821651491032E-1    5.055854513190259E-1
 6.565517500100000E9     3.409816424029165E-2    5.664579571720731E-1    4.730872223482078E-2   -1.135693398148561E-2    4.639366163861312E-2   -1.193550777553745E-2    1.530130601828069E-1    5.051878987550450E-1
 6.565530270050000E9     3.524444308104880E-2    5.664452362379384E-1    4.747692797361804E-2   -1.145307462780774E-2    4.674590571066674E-2   -1.217577435606303E-2    1.546044815671975E-1    5.046317447797026E-1
 6.565543040000000E9     3.642511241054645E-2    5.662724043869524E-1    4.778792071821221E-2   -1.178010545037525E-2    4.703210722441767E-2   -1.239787108386202E-2    1.559976110744248E-1    5.041911947927789E-1
 6.565555809950000E9     3.748522616624641E-2    5.662233459391534E-1    4.831450636298910E-2   -1.200801988452215E-2    4.748189529693889E-2   -1.266269572813982E-2    1.577067180212297E-1    5.036867686217260E-1
 6.565568579900000E9     3.868558893892094E-2    5.659972491820736E-1    4.861353771450563E-2   -1.230898154718370E-2    4.771453605187360E-2   -1.294078847598365E-2    1.591305434428631E-1    5.032013655237232E-1
 6.565581349850000E9     3.977307455390049E-2    5.658141307775372E-1    4.896437904222955E-2   -1.260961461374565E-2    4.818628987997615E-2   -1.318600621081027E-2    1.606476169763866E-1    5.025863480610209E-1
 6.565594119800000E9     4.093738986680857E-2    5.657977736148534E-1    4.936373732656005E-2   -1.280388857614372E-2    4.853406708417673E-2   -1.341491745317446E-2    1.621931805372429E-1    5.019292674295939E-1
 6.565606889750000E9     4.200439613240400E-2    5.656726922713199E-1    4.963442180344807E-2   -1.301421370892928E-2    4.888058305318194E-2   -1.370044385312282E-2    1.638765271488614E-1    5.014326621983749E-1
 6.565619659700000E9     4.319761930849375E-2    5.654505603539647E-1    5.004629493478167E-2   -1.331539156125940E-2    4.924812492930664E-2   -1.395992435381717E-2    1.654103120758369E-1    5.008671698008734E-1
 6.565632429650000E9     4.440648372926116E-2    5.652222527010778E-1    5.040541889468357E-2   -1.364134992656360E-2    4.959363280861680E-2   -1.418533509088868E-2    1.669417477879519E-1    5.002511480230351E-1
 6.565645199600000E9     4.550764973662705E-2    5.651431669447619E-1    5.078483799153682E-2   -1.388376802580455E-2    5.000918843941482E-2   -1.450540367865006E-2    1.686248430381745E-1    4.995801166370076E-1
 6.565657969550000E9     4.674605830624542E-2    5.649401405565709E-1    5.135845947476366E-2   -1.423363026378002E-2    5.040955282005912E-2   -1.484447507745715E-2    1.702012505830695E-1    4.988872959155080E-1
 6.565670739500000E9     4.792967401868511E-2    5.647022621652502E-1    5.166382179442502E-2   -1.446835847236640E-2    5.086306275891319E-2   -1.512853022302002E-2    1.718867196657699E-1    4.983030204521088E-1
