#  HZ   S   RI   R     50.00 
! Rohde & Schwarz Vector Network Analyzer 
! Rohde-Schwarz,ZNB20-2Port,1311601062101988,3.16
! Created: UTC 3/20/2024, 5:08:24 PM
! freq[Hz]                re:S11                  im:S11                  re:S21                  im:S21                  re:S12                  im:S12                  re:S22                  im:S22
 6.564386704000000E9    -6.066083762064905E-2    5.658406093691902E-1    2.822263536452272E-2   -3.421057400986033E-4    2.772092414758145E-2   -1.003332044740508E-3    3.914126980166951E-2    5.240432613672262E-1
 6.564400176400000E9    -5.949029736675971E-2    5.659529736403821E-1    2.844392540450236E-2   -5.093241986398631E-4    2.786786525754775E-2   -9.459038547118232E-4    4.023854768534883E-2    5.240513054673720E-1
 6.564413648800000E9    -5.856278215222746E-2    5.660195586682633E-1    2.842223250431158E-2   -5.238737904496123E-4    2.804052759864757E-2   -1.145522964034235E-3    4.145821912366782E-2    5.237960787789582E-1
 6.564427121200000E9    -5.753700405750035E-2    5.661898955134744E-1    2.856772525142775E-2   -7.745034963543156E-4    2.814878262960269E-2   -1.134793878314170E-3    4.266517717881293E-2    5.238415609571404E-1
 6.564440593600000E9    -5.639787216923123E-2    5.663048255298854E-1    2.877183761946978E-2   -7.354144675088423E-4    2.823117576932832E-2   -1.174221584326476E-3    4.379165498866436E-2    5.237457371554283E-1
 6.564454066000000E9    -5.534323879326843E-2    5.662975376562237E-1    2.893645954137717E-2   -6.431922048434460E-4    2.845361369653505E-2   -1.175104720109866E-3    4.502135106368541E-2    5.235329313636754E-1
 6.564467538400000E9    -5.419337514004271E-2    5.665050528008536E-1    2.911819138464294E-2   -9.057213008463178E-4    2.860984167662899E-2   -1.364783315880819E-3    4.617254990099777E-2    5.236244710044518E-1
 6.564481010800000E9    -5.313280650628769E-2    5.665350410260421E-1    2.929791919190013E-2   -9.258959541648484E-4    2.869657168301179E-2   -1.465671037925822E-3    4.736211536573152E-2    5.234730840392440E-1
 6.564494483200000E9    -5.204403657181900E-2    5.666288418314961E-1    2.945947488479168E-2   -9.135528274177115E-4    2.887539958328229E-2   -1.526688564082919E-3    4.856456666593935E-2    5.233897663856421E-1
 6.564507955600000E9    -5.100830837428683E-2    5.666830014645536E-1    2.951043840554815E-2   -1.061466049018287E-3    2.899368926883131E-2   -1.697331071554082E-3    4.968665843787514E-2    5.232222882015114E-1
 6.564521428000000E9    -4.993638205986547E-2    5.667399231992555E-1    2.968383709164920E-2   -1.228427044832609E-3    2.923401244410681E-2   -1.678379355630274E-3    5.093994180047413E-2    5.233403126626803E-1
 6.564534900400000E9    -4.885856043208671E-2    5.668340426939821E-1    2.981778557729083E-2   -1.168158854076404E-3    2.933362862836347E-2   -1.717630981073291E-3    5.220313666754366E-2    5.231700362913699E-1
 6.564548372800000E9    -4.781467510482986E-2    5.669553349969588E-1    3.000684451661384E-2   -1.309271038668965E-3    2.946346585943626E-2   -1.843072263739899E-3    5.341746963658947E-2    5.228581903241644E-1
 6.564561845200000E9    -4.678270341400023E-2    5.670367100973016E-1    3.005154971367074E-2   -1.379266109265720E-3    2.957496826213211E-2   -1.992330477824070E-3    5.451979189306291E-2    5.228335699491015E-1
 6.564575317600000E9    -4.562135517479081E-2    5.670985469932386E-1    3.031099797710760E-2   -1.499168826820748E-3    2.985091127404295E-2   -1.959822366149113E-3    5.578457534942960E-2    5.226585818837469E-1
 6.564588790000000E9    -4.464422346629395E-2    5.672225757446171E-1    3.044077809495897E-2   -1.534933886914041E-3    3.000850950755329E-2   -2.118410763049149E-3    5.687053670423833E-2    5.225827349623862E-1
 6.564602262400000E9    -4.344480516092786E-2    5.672639802282705E-1    3.074290420787700E-2   -1.812100262148759E-3    3.010200219860987E-2   -2.164944961694005E-3    5.826072552763197E-2    5.224327217146864E-1
 6.564615734800000E9    -4.235687006962178E-2    5.673091241824918E-1    3.078773955100314E-2   -1.650222450477955E-3    3.015764238479154E-2   -2.259537873287935E-3    5.937478581966445E-2    5.223608381011100E-1
 6.564629207200000E9    -4.133163439635102E-2    5.672851733982008E-1    3.106987784160795E-2   -1.877464236825444E-3    3.044529116778170E-2   -2.291056312857425E-3    6.058879032285226E-2    5.221999685173464E-1
 6.564642679600000E9    -4.012781094851461E-2    5.674674610977718E-1    3.103828832330464E-2   -1.939123595071709E-3    3.062859586419586E-2   -2.439235103453146E-3    6.183648023649328E-2    5.221413953558320E-1
 6.564656152000000E9    -3.908704022016428E-2    5.675785257071346E-1    3.135390674021639E-2   -2.021443307813852E-3    3.069647837763822E-2   -2.468912511179114E-3    6.312654920404503E-2    5.218205848017142E-1
 6.564669624400000E9    -3.790596164234557E-2    5.675198082540127E-1    3.146735318921996E-2   -2.009591594012137E-3    3.087059684490798E-2   -2.644553769925124E-3    6.425186611668844E-2    5.217370516314679E-1
 6.564683096800000E9    -3.694159750230518E-2    5.677894143490010E-1    3.160161564878305E-2   -2.087574064402420E-3    3.106236495367469E-2   -2.656660985648315E-3    6.554994086456555E-2    5.215639437555197E-1
 6.564696569200000E9    -3.590750917920756E-2    5.677058853617318E-1    3.174718762239829E-2   -2.150926834254233E-3    3.128794476662672E-2   -2.804325248125692E-3    6.679951659705741E-2    5.215576981070644E-1
 6.564710041600000E9    -3.483964442599950E-2    5.677470598995187E-1    3.187083772667644E-2   -2.362111991831066E-3    3.145943907748862E-2   -2.820028733532760E-3    6.798317556408381E-2    5.213013777909481E-1
 6.564723514000000E9    -3.372058449689198E-2    5.678048246237880E-1    3.212772017353431E-2   -2.350922647058484E-3    3.150515099111220E-2   -3.033269202591905E-3    6.914320622913822E-2    5.212366567806965E-1
 6.564736986400000E9    -3.254309092658042E-2    5.678323578763825E-1    3.222414471540234E-2   -2.588757293857730E-3    3.169793625485207E-2   -3.030274922918753E-3    7.051961309774822E-2    5.210948213292873E-1
 6.564750458800000E9    -3.149024558139775E-2    5.679844315794561E-1    3.250995869337493E-2   -2.695990131260362E-3    3.188531675193705E-2   -3.127710360131559E-3    7.155676964974451E-2    5.210178099856289E-1
 6.564763931200000E9    -3.024045079912068E-2    5.680217896850279E-1    3.263153779143339E-2   -2.683751730648131E-3    3.210590453219147E-2   -3.216308179737768E-3    7.308015518614784E-2    5.205958440438050E-1
 6.564777403600000E9    -2.915653755256382E-2    5.680698397998417E-1    3.280842219100229E-2   -2.776179162502107E-3    3.224675112762594E-2   -3.242583678988900E-3    7.426727939554713E-2    5.205228022384332E-1
 6.564790876000000E9    -2.819456594535454E-2    5.680863380642338E-1    3.297229773364430E-2   -2.899784349625814E-3    3.254759127644396E-2   -3.405866892823585E-3    7.551831465537485E-2    5.204512649856707E-1
 6.564804348400000E9    -2.712823478127179E-2    5.680116331771605E-1    3.319395715111386E-2   -2.990259272121840E-3    3.267486983427583E-2   -3.468274044032482E-3    7.675826417545308E-2    5.201523866726997E-1
 6.564817820800000E9    -2.595456451060031E-2    5.680725949601910E-1    3.333814171502043E-2   -2.992267807844093E-3    3.285905244294729E-2   -3.624449704467991E-3    7.794089224504902E-2    5.199627041255910E-1
 6.564831293200000E9    -2.487164422610352E-2    5.682165025490082E-1    3.363217960453194E-2   -3.104068072091687E-3    3.303074157604719E-2   -3.748267271269764E-3    7.928806727403184E-2    5.197085997688752E-1
 6.564844765600000E9    -2.383932453077822E-2    5.682233663199452E-1    3.371243736641134E-2   -3.321333913098063E-3    3.319971126756401E-2   -3.792056614746999E-3    8.047359788534873E-2    5.196695471968660E-1
 6.564858238000000E9    -2.259571119418372E-2    5.682315975779137E-1    3.406829235525092E-2   -3.525284640702060E-3    3.331208550158078E-2   -3.967112701573431E-3    8.178589412605917E-2    5.193625044738709E-1
 6.564871710400000E9    -2.149037538165155E-2    5.683447515363038E-1    3.426902429126551E-2   -3.543432603432131E-3    3.359297758128212E-2   -3.995458845825635E-3    8.288729114498418E-2    5.192809530670295E-1
 6.564885182800000E9    -2.035329168424308E-2    5.683238676769267E-1    3.432453029931366E-2   -3.617840050449165E-3    3.382372915126730E-2   -4.109431640012842E-3    8.447661710805342E-2    5.189959490148539E-1
 6.564898655200000E9    -1.947065326913773E-2    5.683072665236846E-1    3.450067404071843E-2   -3.750215103585502E-3    3.386850001305936E-2   -4.269999541269765E-3    8.565343354963721E-2    5.188605753450231E-1
 6.564912127600000E9    -1.830002631307604E-2    5.682618799301123E-1    3.462850027829217E-2   -3.971555155899515E-3    3.420090338863654E-2   -4.442621021900982E-3    8.685955755185926E-2    5.186282853750288E-1
 6.564925600000000E9    -1.717671175894942E-2    5.683897692686021E-1    3.502990694373808E-2   -3.926388489144007E-3    3.438138452115502E-2   -4.436232479769104E-3    8.820102214051184E-2    5.183316405547916E-1
 6.564939072400000E9    -1.608362481246268E-2    5.683425316525056E-1    3.525223741779883E-2   -4.055101903778557E-3    3.459336720802214E-2   -4.619696122110234E-3    8.940180839743546E-2    5.180889508959265E-1
 6.564952544800000E9    -1.492913692901413E-2    5.685051522731488E-1    3.537810046864773E-2   -4.060752274931876E-3    3.483466565609589E-2   -4.712728158826012E-3    9.084349681458979E-2    5.177013833494267E-1
 6.564966017200000E9    -1.373616746017661E-2    5.683697276283660E-1    3.549210326121759E-2   -4.409128800778079E-3    3.495766038577527E-2   -4.892580802572898E-3    9.204511332275411E-2    5.177371251382620E-1
 6.564979489600000E9    -1.265679370064466E-2    5.683721720521728E-1    3.570985460103918E-2   -4.406136854295565E-3    3.519382675627128E-2   -4.951361830665206E-3    9.339818045578160E-2    5.174246806729469E-1
 6.564992962000000E9    -1.153705864702675E-2    5.684500997411527E-1    3.609769964458812E-2   -4.517471117724051E-3    3.534503153871067E-2   -5.117734028576073E-3    9.450376237823815E-2    5.170845203067898E-1
 6.565006434400000E9    -1.049254013963904E-2    5.683374348973882E-1    3.624990049045149E-2   -4.717891333507938E-3    3.564986091290254E-2   -5.231246738751381E-3    9.597194665291196E-2    5.169431169133069E-1
 6.565019906800000E9    -9.360699722589995E-3    5.682966846852132E-1    3.634989057015416E-2   -4.875970615170907E-3    3.579569997248949E-2   -5.323299616760839E-3    9.734595217552634E-2    5.166389834485599E-1
 6.565033379200000E9    -8.269851156614298E-3    5.683948393306885E-1    3.671359316736374E-2   -4.981052276789947E-3    3.606871365838009E-2   -5.425399137925702E-3    9.856090813842416E-2    5.164770572065897E-1
 6.565046851600000E9    -7.149696989426441E-3    5.682911039687445E-1    3.675550772149391E-2   -5.060775888086005E-3    3.621001825107206E-2   -5.655537909838367E-3    1.000945087943241E-1    5.161868288107717E-1
 6.565060324000000E9    -5.909124036284184E-3    5.684029992546351E-1    3.716350930792125E-2   -5.145499794707080E-3    3.652040210654015E-2   -5.721170332598249E-3    1.013834442095441E-1    5.158885291745854E-1
 6.565073796400000E9    -4.817966985113257E-3    5.683952002047093E-1    3.737633293075979E-2   -5.333948880070210E-3    3.673732619130816E-2   -5.826424806606177E-3    1.027137458225356E-1    5.156749148673582E-1
 6.565087268800000E9    -3.584231163168058E-3    5.683647084207198E-1    3.775924081830707E-2   -5.621811878205841E-3    3.686911186307241E-2   -6.031947090429030E-3    1.039738983462977E-1    5.153732133356533E-1
 6.565100741200000E9    -2.536599013171770E-3    5.683611099894887E-1    3.794452982392434E-2   -5.554119377612361E-3    3.715860486738785E-2   -6.132547794289187E-3    1.052905726500850E-1    5.152276412394553E-1
 6.565114213600000E9    -1.416134147148659E-3    5.682128083824720E-1    3.806612335801168E-2   -5.842276700833582E-3    3.736771931510167E-2   -6.323039705229938E-3    1.067034415952620E-1    5.146840795554823E-1
 6.565127686000000E9    -3.239289423828543E-4    5.682426614508637E-1    3.827679274990040E-2   -6.003641597285720E-3    3.760633766718181E-2   -6.426042447097933E-3    1.080790810583703E-1    5.144699309968648E-1
 6.565141158400000E9     8.974526660793275E-4    5.682746936182845E-1    3.854452445675529E-2   -5.910663010648145E-3    3.795233634250778E-2   -6.548850055286871E-3    1.094075286123650E-1    5.141998429179614E-1
 6.565154630800000E9     1.897913763233261E-3    5.682015842425281E-1    3.886426060536139E-2   -6.220384326104709E-3    3.815816809005457E-2   -6.694541249481603E-3    1.108900357093215E-1    5.138295559553214E-1
 6.565168103200000E9     3.124916613732677E-3    5.680793295917771E-1    3.899240319345990E-2   -6.277546730951811E-3    3.836765160290950E-2   -6.845338113308533E-3    1.122734179457487E-1    5.133860209672703E-1
 6.565181575600000E9     4.274046352620338E-3    5.680312672585928E-1    3.921390543549456E-2   -6.467803561122054E-3    3.866442223384902E-2   -7.098356390690419E-3    1.137366313997984E-1    5.132263932486613E-1
 6.565195048000000E9     5.462209514937973E-3    5.679801869291885E-1    3.958752387607039E-2   -6.556561654143646E-3    3.884051204254293E-2   -7.286928431706042E-3    1.150778360810293E-1    5.128651566260921E-1
 6.565208520400000E9     6.540426847641881E-3    5.680733628882646E-1    3.971407790622900E-2   -6.911546259900664E-3    3.911497987380105E-2   -7.303109637726827E-3    1.162669632907017E-1    5.124713625340906E-1
 6.565221992800000E9     7.656302404283657E-3    5.679627253610954E-1    4.008156165121606E-2   -7.049898745895041E-3    3.938817200251463E-2   -7.567315515971449E-3    1.178579794015307E-1    5.122884685637743E-1
 6.565235465200000E9     8.800172207069024E-3    5.678845914097490E-1    4.024012116150880E-2   -7.235277420357705E-3    3.955201522782256E-2   -7.628239615637484E-3    1.190937315684349E-1    5.118732233600891E-1
 6.565248937600000E9     9.907822660387876E-3    5.678671419162834E-1    4.070328227014836E-2   -7.255670158356500E-3    3.993367646688167E-2   -7.867690431946527E-3    1.207062980801018E-1    5.114346078226921E-1
 6.565262410000000E9     1.115015265469476E-2    5.677555548701055E-1    4.087515426708084E-2   -7.509272797302086E-3    4.012699366487142E-2   -8.087560059699149E-3    1.220770925396160E-1    5.111567517734803E-1
 6.565275882400000E9     1.235650940258037E-2    5.677741616094161E-1    4.113735385924940E-2   -7.734930190925845E-3    4.048461405445920E-2   -8.153487288741761E-3    1.236020712310805E-1    5.107699359255582E-1
 6.565289354800000E9     1.344409468617761E-2    5.676841602791988E-1    4.147805605799725E-2   -7.896164991699268E-3    4.072191512208761E-2   -8.399686997947556E-3    1.248685990459508E-1    5.104460514555608E-1
 6.565302827200000E9     1.464902403527369E-2    5.676619160986638E-1    4.177455588144802E-2   -8.053384414457247E-3    4.100279215245519E-2   -8.548485922558592E-3    1.263219773904773E-1    5.100359476420038E-1
 6.565316299600000E9     1.583216269553732E-2    5.676170177479383E-1    4.200182988591421E-2   -8.151547457445868E-3    4.123441250044071E-2   -8.703826999622086E-3    1.277721311625020E-1    5.096649579674416E-1
 6.565329772000000E9     1.698606388875441E-2    5.674532008170211E-1    4.225966567354922E-2   -8.402122463669613E-3    4.157870010441909E-2   -8.985209722144390E-3    1.293552852339107E-1    5.091981946563704E-1
 6.565343244400000E9     1.814967622218781E-2    5.674584967319686E-1    4.264416225666605E-2   -8.549606713580562E-3    4.193363304426920E-2   -9.158200799841778E-3    1.306905022538458E-1    5.087936448901352E-1
 6.565356716800000E9     1.928632123558255E-2    5.673473936003186E-1    4.285120728258610E-2   -8.764575824648169E-3    4.218673096155332E-2   -9.365980243498424E-3    1.322092869365074E-1    5.082706489680888E-1
 6.565370189200000E9     2.040930787046476E-2    5.671901232750141E-1    4.329154315549053E-2   -8.896471058384491E-3    4.241562035327845E-2   -9.536003836699242E-3    1.336157324781268E-1    5.079536472728450E-1
 6.565383661600000E9     2.155369595955018E-2    5.672317539116497E-1    4.351921302774195E-2   -9.158612335429240E-3    4.272079053270795E-2   -9.697774232206569E-3    1.351141155362709E-1    5.075008021667413E-1
 6.565397134000000E9     2.274696976058651E-2    5.670673205895441E-1    4.376859099547268E-2   -9.316146818497729E-3    4.304021893493501E-2   -9.866788306812676E-3    1.365411737340794E-1    5.070880956751592E-1
 6.565410606400000E9     2.389418682702807E-2    5.669699926738404E-1    4.417209804890439E-2   -9.655615681925474E-3    4.344520799288686E-2   -1.021439488853666E-2    1.380204837657462E-1    5.066756160249265E-1
 6.565424078800000E9     2.510963221360761E-2    5.668641572857051E-1    4.445163410443966E-2   -9.784618293503545E-3    4.370709116543914E-2   -1.039925378569367E-2    1.396782658784128E-1    5.062230541375065E-1
 6.565437551200000E9     2.620234874266131E-2    5.667110370205349E-1    4.471329107901099E-2   -9.996153185494698E-3    4.398491568670957E-2   -1.070792924732817E-2    1.411327147832814E-1    5.057546510446190E-1
 6.565451023600000E9     2.747601315056318E-2    5.665619281296116E-1    4.509612820193977E-2   -1.021174279695188E-2    4.425339512021085E-2   -1.087636765037600E-2    1.425552566527755E-1    5.052134961984833E-1
 6.565464496000000E9     2.866372138793440E-2    5.666334796815613E-1    4.556800722249640E-2   -1.045275078616948E-2    4.463617520351345E-2   -1.112429485187614E-2    1.441246941009200E-1    5.048741061062045E-1
 6.565477968400000E9     2.989730838895688E-2    5.664621713533267E-1    4.557067563310092E-2   -1.071975851694474E-2    4.492445708301178E-2   -1.128345208716726E-2    1.456038628543260E-1    5.042052575350003E-1
 6.565491440800000E9     3.108169517527817E-2    5.663394647795755E-1    4.618892930743770E-2   -1.078948432804305E-2    4.541160702295684E-2   -1.145436698275923E-2    1.472783825945388E-1    5.038004668492343E-1
 6.565504913200000E9     3.236382877295968E-2    5.662054096039458E-1    4.660132604222891E-2   -1.113647426059001E-2    4.569640537355660E-2   -1.183249021007325E-2    1.489197098583797E-1    5.032829148093098E-1
 6.565518385600000E9     3.346214639049429E-2    5.660546688252907E-1    4.685232860625849E-2   -1.150888464639231E-2    4.607535954907664E-2   -1.209019260506443E-2    1.504539149684381E-1    5.027491441185117E-1
 6.565531858000000E9     3.473034556977467E-2    5.659363780369656E-1    4.722608087349996E-2   -1.149871455392797E-2    4.630254077041358E-2   -1.232070075731913E-2    1.520167410003696E-1    5.020759580479558E-1
 6.565545330400000E9     3.587454192910559E-2    5.657623103728701E-1    4.753385792570618E-2   -1.205714381517187E-2    4.674627792436785E-2   -1.245362401959609E-2    1.533993779683016E-1    5.015831505735692E-1
 6.565558802800000E9     3.706360262950181E-2    5.656046027232897E-1    4.783529179235910E-2   -1.223379740902408E-2    4.706165310219675E-2   -1.285544946130106E-2    1.550227162942208E-1    5.010802643653598E-1
 6.565572275200000E9     3.827792389488938E-2    5.655438501694005E-1    4.819178574833517E-2   -1.237601237635302E-2    4.751256027469675E-2   -1.303363605020296E-2    1.566687570719368E-1    5.004914327491066E-1
 6.565585747600000E9     3.942841970649589E-2    5.654155660032227E-1    4.872164667481348E-2   -1.265390777450728E-2    4.781781949575155E-2   -1.336514464955506E-2    1.582795500906942E-1    4.999401997677432E-1
 6.565599220000000E9     4.073093018867074E-2    5.651246541966600E-1    4.894887811721421E-2   -1.303156589602479E-2    4.825972340653911E-2   -1.361146793632958E-2    1.598561322765669E-1    4.993159764694095E-1
