#  HZ   S   RI   R     50.00 
! Rohde & Schwarz Vector Network Analyzer 
! Rohde-Schwarz,ZNB20-2Port,1311601062101988,3.16
! Created: UTC 3/20/2024, 4:48:58 PM
! freq[Hz]                re:S11                  im:S11                  re:S21                  im:S21                  re:S12                  im:S12                  re:S22                  im:S22
 6.564862495000000E9    -2.192721305534988E-2    5.690214528928088E-1    3.334671955415375E-2   -2.867316634018110E-3    3.276630853626543E-2   -3.383977177381944E-3    8.372617518895391E-2    5.236627021516310E-1
 6.564873886900000E9    -2.082599187735366E-2    5.691736626352869E-1    3.344307209543246E-2   -3.024951626126924E-3    3.294370477988175E-2   -3.450352476626638E-3    8.491705508970597E-2    5.233460461596670E-1
 6.564885278800000E9    -2.017536073468463E-2    5.690608018647594E-1    3.377215938929742E-2   -3.016882486723576E-3    3.317207716492602E-2   -3.509751910266005E-3    8.596475028703400E-2    5.231634158027835E-1
 6.564896670700000E9    -1.916308300817115E-2    5.691961010413162E-1    3.387451932008154E-2   -3.253580949544493E-3    3.329851955581427E-2   -3.591016328566001E-3    8.700332674970343E-2    5.230661678232610E-1
 6.564908062600000E9    -1.817056407865845E-2    5.691851697183942E-1    3.418783757066172E-2   -3.142510286516279E-3    3.345423063075197E-2   -3.669214439412709E-3    8.804290991039779E-2    5.229590970150553E-1
 6.564919454500000E9    -1.721002745353723E-2    5.691454518563938E-1    3.428953454062451E-2   -3.252789341591600E-3    3.363935474461971E-2   -3.772223058322188E-3    8.913462225117391E-2    5.226937932299802E-1
 6.564930846400000E9    -1.645701214104472E-2    5.690903590137019E-1    3.429639918083392E-2   -3.387874197562006E-3    3.375597714535795E-2   -3.894187727403958E-3    9.029389313250842E-2    5.224598859600278E-1
 6.564942238300000E9    -1.546417780042768E-2    5.692415339558925E-1    3.458487598430572E-2   -3.340318353980473E-3    3.404502589494265E-2   -4.023975222266605E-3    9.138661100448842E-2    5.221495617981030E-1
 6.564953630200000E9    -1.447971441281638E-2    5.693219399959089E-1    3.470425828800462E-2   -3.483230471774726E-3    3.408380685562962E-2   -4.084751038557237E-3    9.256251289447408E-2    5.221032813119890E-1
 6.564965022100000E9    -1.346862583656117E-2    5.691737638037716E-1    3.483883498878718E-2   -3.659573504008947E-3    3.439450931611807E-2   -4.176190664318269E-3    9.361143910894612E-2    5.218022649077120E-1
 6.564976414000000E9    -1.252382469045814E-2    5.693428868672593E-1    3.512770232934338E-2   -3.660222031069065E-3    3.461122239817304E-2   -4.346814859485809E-3    9.479255134910093E-2    5.217633252100616E-1
 6.564987805900000E9    -1.166064047665975E-2    5.693244950040606E-1    3.521975353378920E-2   -3.894259908514613E-3    3.457877440035664E-2   -4.348602930799115E-3    9.590602495428052E-2    5.215495506797077E-1
 6.564999197800000E9    -1.070049709830023E-2    5.692951226114651E-1    3.542448683530444E-2   -3.873958067456048E-3    3.487386285831259E-2   -4.479814682114888E-3    9.686437469501021E-2    5.213943007065518E-1
 6.565010589700000E9    -9.809496182417084E-3    5.692592279187191E-1    3.556966702991835E-2   -4.016969990573075E-3    3.499299129251493E-2   -4.557000455509576E-3    9.805758481230147E-2    5.209985298931166E-1
 6.565021981600000E9    -8.841670660052514E-3    5.692137037714321E-1    3.582094415076296E-2   -4.083549353124792E-3    3.522425559147505E-2   -4.623277188948370E-3    9.917531715340727E-2    5.210217861653064E-1
 6.565033373500000E9    -7.850135781983399E-3    5.691863641109205E-1    3.596409523913181E-2   -4.240524296205080E-3    3.545030784234886E-2   -4.687638756897487E-3    1.002034312322791E-1    5.207133551461206E-1
 6.565044765400000E9    -6.884454173691669E-3    5.692627604088760E-1    3.613730373754984E-2   -4.230750996698949E-3    3.559718304690643E-2   -4.799335383494794E-3    1.012372163253307E-1    5.206029068766104E-1
 6.565056157300000E9    -5.957219200484025E-3    5.692900988775482E-1    3.631429997504789E-2   -4.372131961289356E-3    3.575530094951475E-2   -4.952836935861281E-3    1.024030227152204E-1    5.203354558082903E-1
 6.565067549200000E9    -5.048615762583388E-3    5.693207214922823E-1    3.652284230311938E-2   -4.594464976812648E-3    3.591107506355200E-2   -5.013206304720278E-3    1.036313619953097E-1    5.201297094314515E-1
 6.565078941100000E9    -3.990941370524724E-3    5.692651093192657E-1    3.675019326067960E-2   -4.578717723854290E-3    3.610665241083444E-2   -5.126226396499400E-3    1.047447664862113E-1    5.199938590851128E-1
 6.565090333000000E9    -3.138454672503130E-3    5.692485155651900E-1    3.695467425798644E-2   -4.639203967027539E-3    3.622092129242330E-2   -5.170764970077684E-3    1.058934483099255E-1    5.197015745564924E-1
 6.565101724900000E9    -2.074997061748409E-3    5.692944638012870E-1    3.712388409771451E-2   -4.841667559222065E-3    3.645524113088942E-2   -5.369670981469456E-3    1.070912349639251E-1    5.195613684136754E-1
 6.565113116800000E9    -1.080580252206906E-3    5.692585873102557E-1    3.726820136638411E-2   -4.960277335223901E-3    3.657432037057479E-2   -5.551219609255960E-3    1.080708056435970E-1    5.193117278384211E-1
 6.565124508700000E9    -2.452845174522928E-4    5.692279484759909E-1    3.752521040507576E-2   -5.064941164127475E-3    3.692632239930339E-2   -5.559009306892291E-3    1.090835142270830E-1    5.188873063783196E-1
 6.565135900600000E9     7.378789886762775E-4    5.691034111511972E-1    3.770799895885932E-2   -5.166671359376049E-3    3.702539121242772E-2   -5.808498925783528E-3    1.104727907792970E-1    5.186509508192146E-1
 6.565147292500000E9     1.685413916387904E-3    5.692157673872906E-1    3.792443106673454E-2   -5.235746545348738E-3    3.720651557222462E-2   -5.837734566953146E-3    1.115112528754351E-1    5.185391139934087E-1
 6.565158684400000E9     2.554994834733961E-3    5.690987307597984E-1    3.806611776154677E-2   -5.350438371270264E-3    3.746435697787222E-2   -5.899167088481950E-3    1.127399135485095E-1    5.182164128914571E-1
 6.565170076300000E9     3.617207995119941E-3    5.691078335937931E-1    3.832945238016935E-2   -5.511529876103224E-3    3.773842946540980E-2   -6.058986955680241E-3    1.138377435597612E-1    5.179652170572930E-1
 6.565181468200000E9     4.520031837101015E-3    5.691307115520164E-1    3.841869327822794E-2   -5.567750404113371E-3    3.785836270716381E-2   -6.166982761721711E-3    1.150692435624698E-1    5.177441403026338E-1
 6.565192860100000E9     5.525105778708839E-3    5.691156340216800E-1    3.873408102819738E-2   -5.705286111331880E-3    3.806625182037626E-2   -6.288084622199214E-3    1.161883142124199E-1    5.176312172156582E-1
 6.565204252000000E9     6.435521920405515E-3    5.690752444325784E-1    3.885367067475035E-2   -5.802497237905493E-3    3.836204841761645E-2   -6.303521096068362E-3    1.174012631001964E-1    5.171944459104135E-1
 6.565215643900000E9     7.494930733461935E-3    5.690037476807746E-1    3.908551890595043E-2   -5.987068698764920E-3    3.843012779279885E-2   -6.514146461527256E-3    1.184236030618150E-1    5.169519301476388E-1
 6.565227035800000E9     8.430530344223005E-3    5.690286613421898E-1    3.934733967501459E-2   -5.998310932482734E-3    3.875110651583420E-2   -6.609989068826405E-3    1.196748473844045E-1    5.168180797705376E-1
 6.565238427700000E9     9.391026127490747E-3    5.689607430745313E-1    3.956490103087826E-2   -6.191031940122695E-3    3.896849794764018E-2   -6.713888771016902E-3    1.207632817506420E-1    5.165094584019142E-1
 6.565249819600000E9     1.038771875939990E-2    5.689294144492404E-1    3.973962304102478E-2   -6.369396191184739E-3    3.906918201862534E-2   -6.827971864457049E-3    1.222123436257258E-1    5.161237619322598E-1
 6.565261211500000E9     1.136040175821534E-2    5.688807961590743E-1    4.004362337447395E-2   -6.363415518219061E-3    3.937244260459850E-2   -6.997480223316355E-3    1.233750895726108E-1    5.158345897314550E-1
 6.565272603400000E9     1.230411672114232E-2    5.688461609419144E-1    4.021350361304858E-2   -6.456686573552506E-3    3.963606466296909E-2   -7.132291807315370E-3    1.244742557563575E-1    5.154836698635499E-1
 6.565283995300000E9     1.323050548039228E-2    5.687298891014385E-1    4.052060212703657E-2   -6.796455121690114E-3    3.979518013406048E-2   -7.265131531714306E-3    1.255903917612171E-1    5.153667507168816E-1
 6.565295387200000E9     1.431312266438576E-2    5.686962744229466E-1    4.067949974485298E-2   -6.856484650564196E-3    4.002966967044068E-2   -7.411064881752270E-3    1.269232322233485E-1    5.149642624627189E-1
 6.565306779100000E9     1.517906448410096E-2    5.687923662555863E-1    4.102776645975219E-2   -6.991309793288810E-3    4.027482297525361E-2   -7.595156430667994E-3    1.282020886021987E-1    5.146322963542127E-1
 6.565318171000000E9     1.615013472387940E-2    5.686196436517504E-1    4.128162092569766E-2   -7.055157199966965E-3    4.051311698151413E-2   -7.685779661720201E-3    1.293035809357600E-1    5.143872170598225E-1
 6.565329562900000E9     1.715818318296434E-2    5.686247990454006E-1    4.134436515811320E-2   -7.210247524596979E-3    4.072899162174028E-2   -7.855708001555571E-3    1.306736354306972E-1    5.140564248436844E-1
 6.565340954800000E9     1.820287058264510E-2    5.685173910685448E-1    4.170562933961511E-2   -7.352354453066341E-3    4.099040127623664E-2   -8.072144191129310E-3    1.319042596343669E-1    5.137383972353463E-1
 6.565352346700000E9     1.915071988373613E-2    5.684451882971764E-1    4.183459416659861E-2   -7.527669453994221E-3    4.124282082352280E-2   -8.109819869145695E-3    1.329768067702287E-1    5.133944181950968E-1
 6.565363738600000E9     2.011444268018277E-2    5.685001799226865E-1    4.212387078650824E-2   -7.538623903005843E-3    4.148152426370705E-2   -8.266892359965687E-3    1.342272956760284E-1    5.130261057207919E-1
 6.565375130500000E9     2.104249121338577E-2    5.683745627195346E-1    4.240527253862968E-2   -7.747796979542219E-3    4.174546096532576E-2   -8.395991103725400E-3    1.353858550564730E-1    5.127108600060641E-1
 6.565386522400000E9     2.212737350376064E-2    5.683624865150381E-1    4.258957463123641E-2   -7.974671117809069E-3    4.183945039643838E-2   -8.726608923085149E-3    1.366437812791103E-1    5.122607631562414E-1
 6.565397914300000E9     2.304298332569579E-2    5.681070664170303E-1    4.285001925457627E-2   -8.103301541415595E-3    4.222797272146639E-2   -8.719914302437190E-3    1.379618018390308E-1    5.119527498492452E-1
 6.565409306200000E9     2.391548707416101E-2    5.682086973979623E-1    4.313653155378997E-2   -8.225298952061396E-3    4.241855331627386E-2   -8.876890303808402E-3    1.391636405298222E-1    5.117116946727593E-1
 6.565420698100000E9     2.514065304992697E-2    5.680779747786691E-1    4.351616265417078E-2   -8.470442909449172E-3    4.270459246949314E-2   -9.037206316606997E-3    1.405318265732786E-1    5.113481479908255E-1
 6.565432090000000E9     2.608286976560916E-2    5.680578828224480E-1    4.361171788718855E-2   -8.637169794365735E-3    4.296083450538120E-2   -9.180605611529618E-3    1.416736286486731E-1    5.109952529280770E-1
 6.565443481900000E9     2.706057457939110E-2    5.678933785081466E-1    4.392010630484008E-2   -8.791147405722750E-3    4.326486422966689E-2   -9.361543123075586E-3    1.429567322407235E-1    5.105983770544128E-1
 6.565454873800000E9     2.807014491986843E-2    5.678815439724720E-1    4.438315565477281E-2   -8.996145888653427E-3    4.341152156553377E-2   -9.575808961092882E-3    1.442338251034645E-1    5.100536059800634E-1
 6.565466265700000E9     2.903678606396444E-2    5.677065041849753E-1    4.448007139532389E-2   -9.223391865860462E-3    4.382361967381528E-2   -9.601944937937302E-3    1.455677408543127E-1    5.098741864627651E-1
 6.565477657600000E9     3.008504284812967E-2    5.677628654277653E-1    4.486527788054362E-2   -9.298508066782762E-3    4.410243009812445E-2   -9.952741387231156E-3    1.468601661907574E-1    5.094297195294969E-1
 6.565489049500000E9     3.102886294101163E-2    5.675083363517563E-1    4.499951653217669E-2   -9.495983232843957E-3    4.435874681197390E-2   -9.979242660206571E-3    1.481562024361352E-1    5.091384532108365E-1
 6.565500441400000E9     3.204921535829913E-2    5.674791627894639E-1    4.531388685774069E-2   -9.430375384644581E-3    4.456336988130596E-2   -1.026529694338763E-2    1.495558576677984E-1    5.086097323319020E-1
 6.565511833300000E9     3.302844875666992E-2    5.674510779250573E-1    4.558628560920709E-2   -9.773158801285691E-3    4.483281252142227E-2   -1.047180017726156E-2    1.507050202816798E-1    5.082977119345152E-1
 6.565523225200000E9     3.409308223912928E-2    5.673564339424898E-1    4.587900961143956E-2   -1.001146102476239E-2    4.517254040190852E-2   -1.062280869094708E-2    1.521316116385006E-1    5.079903650070604E-1
 6.565534617100000E9     3.498393996378616E-2    5.672494145762438E-1    4.622347515860508E-2   -1.017600465672458E-2    4.545915980170611E-2   -1.078725843924870E-2    1.533962953869865E-1    5.073770816355312E-1
 6.565546009000000E9     3.607105308364984E-2    5.671823801316329E-1    4.650044036021380E-2   -1.035363450070171E-2    4.574279776197968E-2   -1.095732164983540E-2    1.547287558017605E-1    5.069938872001954E-1
 6.565557400900000E9     3.711762137162476E-2    5.668847136013963E-1    4.688597758485230E-2   -1.052667612246451E-2    4.603607851735425E-2   -1.118046767928399E-2    1.561017207411202E-1    5.065889543942677E-1
 6.565568792800000E9     3.824141628199824E-2    5.668907613233103E-1    4.706713521939736E-2   -1.083039444807207E-2    4.635626355224193E-2   -1.126080364403837E-2    1.574028464541542E-1    5.060743335787120E-1
 6.565580184700000E9     3.928676880866486E-2    5.667883603047330E-1    4.736418692359574E-2   -1.087935285907214E-2    4.667089031238509E-2   -1.158855689667260E-2    1.587842227871401E-1    5.056228338510390E-1
 6.565591576600000E9     4.024807703218765E-2    5.666972262637984E-1    4.774493956603967E-2   -1.114915931396201E-2    4.691463769235425E-2   -1.184707728224567E-2    1.601489599786548E-1    5.053025376567933E-1
 6.565602968500000E9     4.118136319695422E-2    5.665722962987840E-1    4.800810051762838E-2   -1.149220982726852E-2    4.724418819433042E-2   -1.191028936650032E-2    1.613231624431926E-1    5.047884128919845E-1
 6.565614360400000E9     4.224628170663733E-2    5.663615401656009E-1    4.843473340807684E-2   -1.157290609175772E-2    4.754354536355117E-2   -1.211863124500212E-2    1.629605651008847E-1    5.042663252156604E-1
 6.565625752300000E9     4.327532952557903E-2    5.662718887256847E-1    4.863459716513653E-2   -1.176769743479736E-2    4.788327142687938E-2   -1.230904459756619E-2    1.643438316412440E-1    5.038465367856096E-1
 6.565637144200000E9     4.418757533208548E-2    5.661719794395352E-1    4.900490649983900E-2   -1.207794854660331E-2    4.821517671129265E-2   -1.271032350571484E-2    1.655763860035538E-1    5.032896458457967E-1
 6.565648536100000E9     4.527727606809822E-2    5.660427298854220E-1    4.929834091213190E-2   -1.217804152640600E-2    4.856025164163149E-2   -1.283107605176685E-2    1.669478027140166E-1    5.027904855336996E-1
 6.565659928000000E9     4.634784655515241E-2    5.658612897408981E-1    4.974768301369016E-2   -1.228320064910016E-2    4.890834976922664E-2   -1.308225571879359E-2    1.683392331156395E-1    5.022736148674121E-1
 6.565671319900000E9     4.730322753523572E-2    5.658691741065285E-1    5.002764548321550E-2   -1.276115977094024E-2    4.919319264869539E-2   -1.327766696548006E-2    1.697389275635489E-1    5.017760526126026E-1
 6.565682711800000E9     4.846572435465830E-2    5.657153106190319E-1    5.042566454254088E-2   -1.297722615667984E-2    4.953502058856150E-2   -1.356963576550856E-2    1.711136822288237E-1    5.013344620964926E-1
 6.565694103700000E9     4.948197234186091E-2    5.654887596016895E-1    5.056847340085868E-2   -1.312620357093507E-2    4.992206692996050E-2   -1.381443012650702E-2    1.726078575829370E-1    5.007057172482858E-1
 6.565705495600000E9     5.043823346754998E-2    5.653754297865821E-1    5.109127140159069E-2   -1.330793129081822E-2    5.027898412850103E-2   -1.401899068295351E-2    1.739263615016625E-1    5.002837073188893E-1
 6.565716887500000E9     5.153030709597473E-2    5.652078767325825E-1    5.139077609437680E-2   -1.374416547264221E-2    5.058075024129025E-2   -1.428252535403565E-2    1.755027352614718E-1    4.996442722532747E-1
 6.565728279400000E9     5.260718391230933E-2    5.650426469030007E-1    5.178767554444200E-2   -1.389988310029089E-2    5.092368099918506E-2   -1.454512604899955E-2    1.769979260569057E-1    4.991543672990307E-1
 6.565739671300000E9     5.354810167527730E-2    5.648840117144566E-1    5.235004534884568E-2   -1.407976311004910E-2    5.129649609094143E-2   -1.478699243366859E-2    1.784004823489041E-1    4.985034464859273E-1
 6.565751063200000E9     5.462865654339678E-2    5.647371112622860E-1    5.257403382733478E-2   -1.447073639546142E-2    5.166670877278342E-2   -1.489677851667804E-2    1.798724186539400E-1    4.979419718616787E-1
 6.565762455100000E9     5.568295296065445E-2    5.645859638452343E-1    5.282823233815291E-2   -1.466346745379726E-2    5.203905936728340E-2   -1.529647116762776E-2    1.813672251472460E-1    4.974016929179325E-1
 6.565773847000000E9     5.677309012235061E-2    5.642917962248933E-1    5.332936108564715E-2   -1.495644047671774E-2    5.241553128488492E-2   -1.563129760377413E-2    1.827748575156868E-1    4.969011740467464E-1
 6.565785238900000E9     5.789912104296164E-2    5.641659612932748E-1    5.383892072704204E-2   -1.514248959176434E-2    5.283185849594545E-2   -1.590877439699300E-2    1.844394950228953E-1    4.961277813899400E-1
 6.565796630800000E9     5.900476557262677E-2    5.640595534509805E-1    5.410110887538629E-2   -1.558378762986432E-2    5.324158307055261E-2   -1.619802498771206E-2    1.857878995760401E-1    4.954408772879432E-1
 6.565808022700000E9     6.003454000542067E-2    5.638745877504577E-1    5.451132137317044E-2   -1.574225341969338E-2    5.354125931070630E-2   -1.637161653551244E-2    1.872912526321801E-1    4.949843149517213E-1
 6.565819414600000E9     6.115835969023556E-2    5.636461242376296E-1    5.490839925500875E-2   -1.606241520673827E-2    5.405353421080746E-2   -1.676593906461042E-2    1.889390875716144E-1    4.942997473822582E-1
 6.565830806500000E9     6.216542262478742E-2    5.634983185677634E-1    5.532023498632548E-2   -1.651904957590018E-2    5.437052793773406E-2   -1.708984400984008E-2    1.903049182110617E-1    4.935605830157597E-1
 6.565842198400000E9     6.324026743912813E-2    5.632885123003529E-1    5.577645522037827E-2   -1.669028791481350E-2    5.486902716082786E-2   -1.733478912267575E-2    1.919622171526111E-1    4.928915245451461E-1
 6.565853590300000E9     6.428160511795741E-2    5.630498886675406E-1    5.621144373296045E-2   -1.697915874376640E-2    5.526476345435452E-2   -1.777279265876637E-2    1.934544459453333E-1    4.922076816533382E-1
 6.565864982200000E9     6.539892851295061E-2    5.629939330538364E-1    5.643882038151085E-2   -1.736122680149263E-2    5.572682270210885E-2   -1.790581057246952E-2    1.950349407267949E-1    4.915868368393965E-1
 6.565876374100000E9     6.655042059910371E-2    5.627004245943571E-1    5.710309578944919E-2   -1.753222796713797E-2    5.614059875486466E-2   -1.831754523683653E-2    1.966352982661128E-1    4.906806497887390E-1
 6.565887766000000E9     6.763038651639544E-2    5.625036931664323E-1    5.748097521255102E-2   -1.789817881925517E-2    5.653493251959236E-2   -1.874152017019182E-2    1.982631628510229E-1    4.900233827532302E-1
