#  HZ   S   RI   R     50.00 
! Rohde & Schwarz Vector Network Analyzer 
! Rohde-Schwarz,ZNB20-2Port,1311601062101988,3.16
! Created: UTC 3/20/2024, 5:08:39 PM
! freq[Hz]                re:S11                  im:S11                  re:S21                  im:S21                  re:S12                  im:S12                  re:S22                  im:S22
 6.564409264000000E9    -5.869812804269924E-2    5.659968150618222E-1    2.846224394636442E-2   -4.798839531658984E-4    2.796558110273032E-2   -9.889749781568976E-4    4.088494709652826E-2    5.238281450515577E-1
 6.564422649900000E9    -5.772745552956145E-2    5.660880269868065E-1    2.841091396997589E-2   -5.952965173061649E-4    2.809886101894539E-2   -1.096821234980966E-3    4.219695749551470E-2    5.237977485841822E-1
 6.564436035800000E9    -5.670991375474561E-2    5.662027275819524E-1    2.869297927624182E-2   -6.147766053028889E-4    2.819035442182226E-2   -1.159725778572658E-3    4.315088094125005E-2    5.237577839734320E-1
 6.564449421700000E9    -5.575253610431552E-2    5.662942511308084E-1    2.895197055245455E-2   -7.235055863379471E-4    2.833509949556006E-2   -1.154089163229779E-3    4.454335896168125E-2    5.237333921860777E-1
 6.564462807600000E9    -5.453386532603685E-2    5.663642667198741E-1    2.901605176429783E-2   -8.598187437976088E-4    2.844793779870398E-2   -1.296934683708238E-3    4.578458004903330E-2    5.236325137201862E-1
 6.564476193500000E9    -5.348427974183841E-2    5.665016471804993E-1    2.897345860762849E-2   -9.488317290984323E-4    2.856600031365675E-2   -1.341866092715696E-3    4.686933249001117E-2    5.234555308026781E-1
 6.564489579400000E9    -5.239163302483205E-2    5.666185564520207E-1    2.929337907237151E-2   -9.285962413207686E-4    2.882236193607470E-2   -1.455610373681550E-3    4.807384809161994E-2    5.234161684242497E-1
 6.564502965300000E9    -5.128142061372989E-2    5.666421220699021E-1    2.942674141301609E-2   -1.003736658467455E-3    2.888393082595166E-2   -1.552240930207159E-3    4.918487846391311E-2    5.231483347992298E-1
 6.564516351200000E9    -5.035931983726598E-2    5.667235788402475E-1    2.955959362605354E-2   -1.033641733382486E-3    2.906526133944697E-2   -1.594460990974465E-3    5.039753186716428E-2    5.233222475408237E-1
 6.564529737100000E9    -4.923516084439299E-2    5.669489624195211E-1    2.970258332641851E-2   -1.156103440152117E-3    2.922709159679996E-2   -1.636502150326343E-3    5.153763308457919E-2    5.230420311076378E-1
 6.564543123000000E9    -4.818397468747243E-2    5.669504945377993E-1    2.987179205994985E-2   -1.262650634555422E-3    2.932446649837337E-2   -1.756949907710183E-3    5.277834918777966E-2    5.228383829280175E-1
 6.564556508900000E9    -4.709364968760131E-2    5.669752851886806E-1    3.001942493820983E-2   -1.315496253330126E-3    2.961268378548302E-2   -1.850728708890933E-3    5.388909963041731E-2    5.230864113245683E-1
 6.564569894800000E9    -4.608106282829879E-2    5.670788662218870E-1    3.008587878533395E-2   -1.392671145576576E-3    2.956828136605141E-2   -1.959460855649803E-3    5.511899175766178E-2    5.227906608247791E-1
 6.564583280700000E9    -4.496398473076764E-2    5.671773598578131E-1    3.030533202702798E-2   -1.559401178629753E-3    2.974816683400196E-2   -1.963896336792959E-3    5.637511090683914E-2    5.225864508834169E-1
 6.564596666600000E9    -4.375036518020239E-2    5.671692520943152E-1    3.045082260003984E-2   -1.496860444052279E-3    2.995383660097838E-2   -2.158930831697336E-3    5.753184813238179E-2    5.224995562056658E-1
 6.564610052500000E9    -4.290119675002590E-2    5.673432957537323E-1    3.079788376927465E-2   -1.576203743303710E-3    3.006408020858532E-2   -2.189496356001938E-3    5.873424949023717E-2    5.224371005340307E-1
 6.564623438400000E9    -4.176746390909954E-2    5.674109134814521E-1    3.084330089209652E-2   -1.858483025491843E-3    3.026462185167249E-2   -2.148807166335430E-3    5.985013895473487E-2    5.222037747946804E-1
 6.564636824300000E9    -4.072311619234130E-2    5.675115850058979E-1    3.091045714952470E-2   -1.803046292359695E-3    3.054383303594547E-2   -2.371745886320878E-3    6.121258272343185E-2    5.220818430817020E-1
 6.564650210200000E9    -3.957174454258728E-2    5.674957704595104E-1    3.114192059597520E-2   -1.960794179352152E-3    3.070331058650761E-2   -2.317941633595941E-3    6.229329296862474E-2    5.220209453108299E-1
 6.564663596100000E9    -3.853800891333362E-2    5.675497084607447E-1    3.119257714633276E-2   -1.936618027292746E-3    3.074525940961355E-2   -2.482348890208362E-3    6.368965416092291E-2    5.218666824874307E-1
 6.564676982000000E9    -3.744106739075980E-2    5.676682201228510E-1    3.153895821053457E-2   -2.076436049636116E-3    3.097310797960428E-2   -2.617731743929705E-3    6.485531195464128E-2    5.216079773408969E-1
 6.564690367900000E9    -3.642247788694961E-2    5.678094993368951E-1    3.160615298831269E-2   -2.186666170852780E-3    3.108188519970329E-2   -2.696397278121828E-3    6.597861275833546E-2    5.216103615504507E-1
 6.564703753800000E9    -3.514774792594005E-2    5.678000454722157E-1    3.180659516717090E-2   -2.156454084652424E-3    3.132522635043571E-2   -2.768306815712486E-3    6.726171918685593E-2    5.215115190660421E-1
 6.564717139700000E9    -3.412186301386665E-2    5.678063256477818E-1    3.190343653645129E-2   -2.359151745791938E-3    3.141823266214327E-2   -2.989855205846647E-3    6.851088788371708E-2    5.211562273034800E-1
 6.564730525600000E9    -3.312479244944470E-2    5.679085589143561E-1    3.216307483719966E-2   -2.446222536641706E-3    3.157013614623067E-2   -2.896522311113404E-3    6.975703359246054E-2    5.212375808953671E-1
 6.564743911500000E9    -3.193009663798151E-2    5.678771345824306E-1    3.228260735008980E-2   -2.437643580102544E-3    3.172187801874420E-2   -3.020766179193995E-3    7.090362516595514E-2    5.210222783611810E-1
 6.564757297400000E9    -3.085980325431300E-2    5.680042802989319E-1    3.252939430888049E-2   -2.714754406448458E-3    3.194229296830069E-2   -3.157040895177494E-3    7.210049785068758E-2    5.207677820943617E-1
 6.564770683300000E9    -2.978746099838040E-2    5.679244216288086E-1    3.274664783528931E-2   -2.706407864364216E-3    3.209118774868893E-2   -3.212922242870246E-3    7.335969281092392E-2    5.207179587897471E-1
 6.564784069200000E9    -2.878725644268316E-2    5.680550316452961E-1    3.281549944281431E-2   -2.910870711000814E-3    3.226112744635806E-2   -3.301797033114541E-3    7.474061398386946E-2    5.204170370552637E-1
 6.564797455100000E9    -2.764131329629711E-2    5.680327407969338E-1    3.294666234635270E-2   -2.978259893596561E-3    3.248573282221148E-2   -3.382424293392927E-3    7.583291848534424E-2    5.203657487012573E-1
 6.564810841000000E9    -2.645196596296774E-2    5.681146248058967E-1    3.314963652079680E-2   -3.092592215989045E-3    3.271309370538214E-2   -3.427860023688784E-3    7.728695334418084E-2    5.201072173712209E-1
 6.564824226900000E9    -2.549020081982406E-2    5.681362382864844E-1    3.338090198784960E-2   -3.034553239860162E-3    3.285147457168846E-2   -3.562425619017673E-3    7.850422330190950E-2    5.199702968667174E-1
 6.564837612800000E9    -2.434545009194115E-2    5.680870599030405E-1    3.356613088921673E-2   -3.272212025351183E-3    3.309135877267244E-2   -3.681234428061567E-3    7.961348912382268E-2    5.197252817754777E-1
 6.564850998700000E9    -2.326625970264630E-2    5.682302854282699E-1    3.383945640196618E-2   -3.322395760359707E-3    3.315213600503744E-2   -3.829073642248422E-3    8.101021930835600E-2    5.195289167785817E-1
 6.564864384600000E9    -2.219683934558757E-2    5.682638215693371E-1    3.388052736217911E-2   -3.383066252840634E-3    3.342672696208333E-2   -3.980715335044942E-3    8.217372994658399E-2    5.192426815582373E-1
 6.564877770500000E9    -2.103350852432545E-2    5.682325231555039E-1    3.417377317853508E-2   -3.535819675402992E-3    3.357109711976464E-2   -4.050200685090614E-3    8.350685555022638E-2    5.191420543602662E-1
 6.564891156400000E9    -1.985490212312763E-2    5.682426400473561E-1    3.430395678696816E-2   -3.614636298853617E-3    3.373018151540623E-2   -4.218607909175861E-3    8.478622455713807E-2    5.188067211247568E-1
 6.564904542300000E9    -1.896571823933147E-2    5.683380820027794E-1    3.456750683995647E-2   -3.812789750246483E-3    3.405578191944432E-2   -4.193083887793445E-3    8.592200442756988E-2    5.187875972333864E-1
 6.564917928200000E9    -1.781393368714067E-2    5.683432264056216E-1    3.474550654343166E-2   -3.968723513384235E-3    3.409023755643993E-2   -4.345938019083128E-3    8.728609957734416E-2    5.185337953804283E-1
 6.564931314100000E9    -1.667593057176599E-2    5.683155169565138E-1    3.487855624222637E-2   -4.067909773985638E-3    3.436068275619975E-2   -4.510477113784987E-3    8.862484383100724E-2    5.182117081173401E-1
 6.564944700000000E9    -1.563304477077688E-2    5.683560794568108E-1    3.516118575705377E-2   -4.071161299620164E-3    3.447432140115721E-2   -4.756495523888178E-3    8.998555209803723E-2    5.181855297224141E-1
 6.564958085900000E9    -1.454606615686312E-2    5.683545329015159E-1    3.543733590799843E-2   -4.056958644512002E-3    3.478146643899782E-2   -4.642496842669336E-3    9.109887460877185E-2    5.178864008851874E-1
 6.564971471800000E9    -1.334520479528369E-2    5.684421505700048E-1    3.557901099457416E-2   -4.238361782282929E-3    3.494663119074456E-2   -4.869007511263536E-3    9.252403363436798E-2    5.177388100704151E-1
 6.564984857700000E9    -1.218865581283630E-2    5.683939967523733E-1    3.574369237907730E-2   -4.431797932080248E-3    3.518089870373303E-2   -4.874328028877445E-3    9.381243025220030E-2    5.174231225155349E-1
 6.564998243600000E9    -1.115179319256049E-2    5.684468042325380E-1    3.594244072739527E-2   -4.582682894261335E-3    3.537208136694223E-2   -5.053644319770811E-3    9.495013275801426E-2    5.172052693735270E-1
 6.565011629500000E9    -1.004238481413973E-2    5.683103254605228E-1    3.619710888917675E-2   -4.690142431549939E-3    3.557186969923145E-2   -5.162433383345547E-3    9.655672138411324E-2    5.168441836049220E-1
 6.565025015400000E9    -8.776037110940845E-3    5.684619484209711E-1    3.640825088872267E-2   -4.866536541479406E-3    3.582358254425334E-2   -5.275263905507202E-3    9.765215756132568E-2    5.166985534294106E-1
 6.565038401300000E9    -7.789041105957256E-3    5.684087143861912E-1    3.674393822157196E-2   -4.975968275644984E-3    3.600745781257930E-2   -5.448485133057992E-3    9.917507328726030E-2    5.164421376085140E-1
 6.565051787200000E9    -6.763931806358116E-3    5.683365964297608E-1    3.699392341656579E-2   -5.037508944718365E-3    3.629173809131432E-2   -5.564094638971040E-3    1.003683688844803E-1    5.161544555570180E-1
 6.565065173100000E9    -5.559629612157300E-3    5.683761568875242E-1    3.722003912436216E-2   -5.056893003716248E-3    3.645869287709459E-2   -5.750866093681314E-3    1.014853943192142E-1    5.158903515516947E-1
 6.565078559000000E9    -4.450234501353670E-3    5.684295857160412E-1    3.724963207581640E-2   -5.421520098866857E-3    3.668257928642631E-2   -5.856548886561240E-3    1.030035314112971E-1    5.156129647502816E-1
 6.565091944900000E9    -3.281008417153217E-3    5.683526812157113E-1    3.759785798117078E-2   -5.527138570984173E-3    3.689784215015535E-2   -6.042938708719946E-3    1.042762117977348E-1    5.154218408453139E-1
 6.565105330800000E9    -2.175295776023433E-3    5.682722373312402E-1    3.774472694289054E-2   -5.648239010840586E-3    3.722274211108249E-2   -6.300021831990797E-3    1.058107636028231E-1    5.150531177059329E-1
 6.565118716700000E9    -1.131073691577329E-3    5.683058851777514E-1    3.824702592074336E-2   -5.671990456802063E-3    3.731393694529877E-2   -6.330674853691456E-3    1.069821876840228E-1    5.148338968414733E-1
 6.565132102600000E9    -5.660450374798012E-5    5.683006303128590E-1    3.831467484360562E-2   -5.851215195736005E-3    3.763323112143677E-2   -6.482157519612781E-3    1.082697294223825E-1    5.144556168692273E-1
 6.565145488500000E9     1.213727929245050E-3    5.682093579151930E-1    3.870505432370375E-2   -5.995776977523030E-3    3.779240837050650E-2   -6.527444636105635E-3    1.098311962553402E-1    5.141294129502599E-1
 6.565158874400000E9     2.379388482098978E-3    5.682099833423434E-1    3.889598024347168E-2   -6.147567783009050E-3    3.815417039987349E-2   -6.718797937248595E-3    1.110677417546729E-1    5.138146997941128E-1
 6.565172260300000E9     3.430352967799992E-3    5.681234993284255E-1    3.906360667579115E-2   -6.319016437599820E-3    3.837292669886804E-2   -6.878655711103388E-3    1.124131684907788E-1    5.135027994930054E-1
 6.565185646200000E9     4.533735520867638E-3    5.681488281251555E-1    3.931163848388981E-2   -6.485307285781373E-3    3.861230728393935E-2   -6.991613556278361E-3    1.138725432128122E-1    5.131532549229328E-1
 6.565199032100000E9     5.723422839815917E-3    5.680493621291353E-1    3.958920497936701E-2   -6.681068900280488E-3    3.896714113883928E-2   -7.246234047842202E-3    1.152034407803800E-1    5.129501991975191E-1
 6.565212418000000E9     6.795895684274899E-3    5.680442031017364E-1    3.973075568458203E-2   -6.765461483567677E-3    3.903192043439961E-2   -7.294731776712565E-3    1.166035432006033E-1    5.124620310011532E-1
 6.565225803900000E9     8.000045276195578E-3    5.679514448813452E-1    4.000268462812198E-2   -6.920442620341138E-3    3.931445454707561E-2   -7.484937606380059E-3    1.180607063725923E-1    5.121374263719790E-1
 6.565239189800000E9     9.132716332081616E-3    5.678722416839521E-1    4.031815074911115E-2   -7.270986100780820E-3    3.959174965502903E-2   -7.713554462394968E-3    1.192564095708945E-1    5.118973730905152E-1
 6.565252575700000E9     1.020665366591221E-2    5.679229647009253E-1    4.071707539178444E-2   -7.381156194194931E-3    3.995896385058452E-2   -7.856760736810235E-3    1.208892556663462E-1    5.116207124762924E-1
 6.565265961600000E9     1.141057887977195E-2    5.678002242572918E-1    4.096078035637809E-2   -7.377716041098107E-3    4.021283267594288E-2   -8.057928115199071E-3    1.222170187040068E-1    5.111138965592271E-1
 6.565279347500000E9     1.266225176183662E-2    5.677174149439536E-1    4.113851283054509E-2   -7.677309015121523E-3    4.042227703859633E-2   -8.238956384716572E-3    1.236545184685977E-1    5.106646260552261E-1
 6.565292733400000E9     1.375616064888916E-2    5.676700038286985E-1    4.144309672372839E-2   -7.972102029198517E-3    4.064896613912524E-2   -8.369637866000075E-3    1.249805960931615E-1    5.104393433306168E-1
 6.565306119300000E9     1.485982031556844E-2    5.676183715780873E-1    4.172326504913688E-2   -8.041296983240478E-3    4.108056434002952E-2   -8.521872839815547E-3    1.265278296931614E-1    5.101019259492633E-1
 6.565319505200000E9     1.589695762337549E-2    5.675571234018844E-1    4.198390872277948E-2   -8.053178030354288E-3    4.125224810293725E-2   -8.721516906696100E-3    1.279167871201726E-1    5.095793062541198E-1
 6.565332891100000E9     1.727429570458338E-2    5.674103646745757E-1    4.230595638947904E-2   -8.282837903823798E-3    4.145849388952642E-2   -8.827303643880733E-3    1.294052762348304E-1    5.091488031578307E-1
 6.565346277000000E9     1.833769319806856E-2    5.674487711632119E-1    4.251346423353197E-2   -8.524202087751722E-3    4.175685623749654E-2   -9.053964216549281E-3    1.308111687577646E-1    5.087791421792772E-1
 6.565359662900000E9     1.948361825777542E-2    5.672692092668848E-1    4.291455504303532E-2   -8.670419528294870E-3    4.204872503275341E-2   -9.249989735398064E-3    1.323311415507471E-1    5.084713038915339E-1
 6.565373048800000E9     2.066690811388457E-2    5.673116557566952E-1    4.309303205494717E-2   -8.854542059191251E-3    4.238541848273859E-2   -9.478383356712132E-3    1.336962264796306E-1    5.080088454240601E-1
 6.565386434700000E9     2.174070864287823E-2    5.671458761513914E-1    4.342762613941484E-2   -9.063368746821985E-3    4.271334935870650E-2   -9.701225721368216E-3    1.353031603960753E-1    5.075931026617030E-1
 6.565399820600000E9     2.294167681941439E-2    5.670444150339398E-1    4.382472728911844E-2   -9.202443315379533E-3    4.303646703060891E-2   -9.923556563634079E-3    1.367337579018729E-1    5.072503251301117E-1
 6.565413206500000E9     2.410295013144742E-2    5.670252658265588E-1    4.409333746408077E-2   -9.544125561472050E-3    4.335234591557063E-2   -1.008892476249703E-2    1.380496189591481E-1    5.066716612529071E-1
 6.565426592400000E9     2.533129391558189E-2    5.669234695759200E-1    4.435814385963010E-2   -9.687824232239807E-3    4.368434919497748E-2   -1.029679564247986E-2    1.396340060056081E-1    5.062852178167870E-1
 6.565439978300000E9     2.646351481618287E-2    5.667473379774276E-1    4.477556558427664E-2   -1.005892982655335E-2    4.387751444625215E-2   -1.057424345595906E-2    1.410921958650816E-1    5.057351771523030E-1
 6.565453364200000E9     2.771174351868258E-2    5.666596349948745E-1    4.495100492388720E-2   -1.018849092180617E-2    4.425645705402353E-2   -1.069430762992704E-2    1.427292801075941E-1    5.053161233982768E-1
 6.565466750100000E9     2.880011004145460E-2    5.665642151151625E-1    4.544002143986305E-2   -1.043393326737053E-2    4.452782184296004E-2   -1.099417351562597E-2    1.441954899276982E-1    5.047085438410048E-1
 6.565480136000000E9     2.999701365814716E-2    5.663747751516800E-1    4.568134984234142E-2   -1.073323909267883E-2    4.493424490853901E-2   -1.123591361437988E-2    1.458197316531938E-1    5.043863484090548E-1
 6.565493521900000E9     3.123148365943484E-2    5.663873567894052E-1    4.601962706861314E-2   -1.082865702280987E-2    4.524089700238485E-2   -1.140869301779407E-2    1.472473404630381E-1    5.037643419155048E-1
 6.565506907800000E9     3.234814992312419E-2    5.661933163957906E-1    4.626978493627976E-2   -1.103042991739186E-2    4.561729357978530E-2   -1.168579765954162E-2    1.486303543491759E-1    5.032623019471232E-1
 6.565520293700000E9     3.366726897924726E-2    5.660994161381552E-1    4.675542705129700E-2   -1.131770109028122E-2    4.588528498211172E-2   -1.203235883768937E-2    1.503111550720522E-1    5.028349011493762E-1
 6.565533679600000E9     3.471848059457845E-2    5.660138856433991E-1    4.696880757376265E-2   -1.161209388510750E-2    4.620127576167529E-2   -1.214571195511497E-2    1.518430180604901E-1    5.021320983140948E-1
 6.565547065500000E9     3.593549854738429E-2    5.657463202740817E-1    4.743793728937191E-2   -1.185607958176584E-2    4.657773503968964E-2   -1.236445356061678E-2    1.532969539737718E-1    5.017138402721428E-1
 6.565560451400000E9     3.711498221882594E-2    5.656891372964329E-1    4.788217506628061E-2   -1.208961560485112E-2    4.696034899292298E-2   -1.265989562832840E-2    1.550590360778662E-1    5.011138473681092E-1
 6.565573837300000E9     3.837826183585779E-2    5.654681699632401E-1    4.808007792309339E-2   -1.236085000653842E-2    4.728590494663757E-2   -1.291537687866485E-2    1.566791824411826E-1    5.006299479021181E-1
 6.565587223200000E9     3.954947895874628E-2    5.653572989654515E-1    4.848548020168707E-2   -1.249825401000553E-2    4.773637612154707E-2   -1.323098106937057E-2    1.581255807282433E-1    5.000333223197237E-1
 6.565600609100000E9     4.061046948838100E-2    5.652022701104704E-1    4.898280891603846E-2   -1.291231620461384E-2    4.807489456848424E-2   -1.358032056477030E-2    1.599082828892670E-1    4.994368375208563E-1
 6.565613995000000E9     4.199645082703524E-2    5.650572986161264E-1    4.936813836232280E-2   -1.337664285284511E-2    4.840216680800124E-2   -1.377628551181376E-2    1.615919899386741E-1    4.986502442814065E-1
