#  HZ   S   RI   R     50.00 
! Rohde & Schwarz Vector Network Analyzer 
! Rohde-Schwarz,ZNB20-2Port,1311601062101988,3.16
! Created: UTC 3/20/2024, 5:08:42 PM
! freq[Hz]                re:S11                  im:S11                  re:S21                  im:S21                  re:S12                  im:S12                  re:S22                  im:S22
 6.564409421000000E9    -5.887636197245390E-2    5.659933774059861E-1    2.855568693500829E-2   -5.043269717833967E-4    2.792018433910510E-2   -1.122826781335024E-3    4.094023138118635E-2    5.238945684568808E-1
 6.564422810475000E9    -5.777485029278887E-2    5.661728461629331E-1    2.846584118858186E-2   -6.858414661566545E-4    2.806419091473554E-2   -1.082012818558109E-3    4.217449577297878E-2    5.238355692207309E-1
 6.564436199950000E9    -5.671930734594847E-2    5.662106665199452E-1    2.864088097066625E-2   -7.900583771463525E-4    2.817260373277428E-2   -1.097016632102279E-3    4.326319173543210E-2    5.236367186776227E-1
 6.564449589425000E9    -5.557486287195355E-2    5.662059637318733E-1    2.885584267773526E-2   -6.379836646308669E-4    2.828937145291095E-2   -1.118166415891362E-3    4.460439891628724E-2    5.237423130838867E-1
 6.564462978900000E9    -5.472122473498035E-2    5.664425377543030E-1    2.908076491110261E-2   -7.196967030849298E-4    2.848933235932531E-2   -1.374203811016160E-3    4.568800210856259E-2    5.235030374094064E-1
 6.564476368375000E9    -5.364484284535433E-2    5.664685464257405E-1    2.905362720764951E-2   -8.542194044585846E-4    2.861825608659952E-2   -1.324220665205789E-3    4.683308146332594E-2    5.236006456877023E-1
 6.564489757850000E9    -5.250490158941912E-2    5.666197381387951E-1    2.929221332614987E-2   -1.022595206971598E-3    2.873620987551312E-2   -1.440564915889039E-3    4.805447939295956E-2    5.234526012839397E-1
 6.564503147325000E9    -5.144220292229187E-2    5.667216832421446E-1    2.942137421897117E-2   -9.879621959908210E-4    2.897025343234745E-2   -1.569888384671222E-3    4.919354154022750E-2    5.232262707233151E-1
 6.564516536800000E9    -5.040031335131478E-2    5.667552185672884E-1    2.962736647912313E-2   -1.076985226739647E-3    2.899903035874823E-2   -1.575708762635600E-3    5.031719769954544E-2    5.232019151381281E-1
 6.564529926275000E9    -4.927623860324983E-2    5.669232195397121E-1    2.971062802145908E-2   -1.229534540551220E-3    2.926105141367432E-2   -1.739349754756265E-3    5.151502782301214E-2    5.230895676738707E-1
 6.564543315750000E9    -4.819746607107523E-2    5.669016046887211E-1    2.974713204705690E-2   -1.318242945457788E-3    2.930743792378415E-2   -1.849529723286941E-3    5.277063193626957E-2    5.229171646560172E-1
 6.564556705225000E9    -4.716396940267217E-2    5.669910167697794E-1    3.000052260931382E-2   -1.278187984995514E-3    2.948571095449305E-2   -1.806237611976086E-3    5.403891129173445E-2    5.229065715112107E-1
 6.564570094700000E9    -4.605086189993628E-2    5.671165959575174E-1    3.013191707288453E-2   -1.428528014064092E-3    2.968799638521336E-2   -1.915544387139217E-3    5.511486348952876E-2    5.227361980351317E-1
 6.564583484175000E9    -4.497169013372602E-2    5.672061373335178E-1    3.034484200697763E-2   -1.516682248556353E-3    2.979165383939957E-2   -1.958301320770726E-3    5.640030065201771E-2    5.226077729996990E-1
 6.564596873650000E9    -4.385213793017647E-2    5.672551905736907E-1    3.056953298748158E-2   -1.559549681715747E-3    2.993501328391266E-2   -2.043345983958980E-3    5.743418282219544E-2    5.223956167935503E-1
 6.564610263125000E9    -4.287729769317600E-2    5.673030886923716E-1    3.057401766941353E-2   -1.634964526744715E-3    3.022595453285045E-2   -2.049284173236143E-3    5.871564219506630E-2    5.225229873902676E-1
 6.564623652600000E9    -4.174988772110607E-2    5.673691295360386E-1    3.079794398213544E-2   -1.751668939908080E-3    3.038007790388414E-2   -2.152773158202535E-3    5.987659757713581E-2    5.223528006461736E-1
 6.564637042075000E9    -4.066720314827756E-2    5.674170808418062E-1    3.097352314671841E-2   -1.734931976493584E-3    3.047634086390200E-2   -2.235347174814684E-3    6.123842773007721E-2    5.220269593456961E-1
 6.564650431550000E9    -3.957846838769808E-2    5.675074214614271E-1    3.106218744174118E-2   -1.935021375786267E-3    3.064516556877973E-2   -2.338686674330277E-3    6.223830586705736E-2    5.220070060606115E-1
 6.564663821025000E9    -3.863548798891481E-2    5.675634086515667E-1    3.125531956146959E-2   -1.951982383465425E-3    3.073823486590884E-2   -2.547771498327440E-3    6.349593232765338E-2    5.219678064140241E-1
 6.564677210500000E9    -3.742639434451249E-2    5.676306183027717E-1    3.154879971507444E-2   -1.981024280863354E-3    3.104944065377451E-2   -2.605812370213803E-3    6.485584497161062E-2    5.217446363002869E-1
 6.564690599975000E9    -3.641300327252061E-2    5.678124658133381E-1    3.163420855431410E-2   -2.267724050869304E-3    3.105296166842625E-2   -2.663953081362767E-3    6.599249533448642E-2    5.215931703569415E-1
 6.564703989450000E9    -3.522073202998394E-2    5.678198679870465E-1    3.175217764774067E-2   -2.397710271849974E-3    3.126641523144546E-2   -2.741194141308561E-3    6.730270088599929E-2    5.214315695999509E-1
 6.564717378925000E9    -3.420533699186492E-2    5.678323566005544E-1    3.203259328055349E-2   -2.262247852266077E-3    3.141343439296871E-2   -2.861794866043702E-3    6.856253216247173E-2    5.213691324797566E-1
 6.564730768400000E9    -3.319541647626602E-2    5.677874463332799E-1    3.221190086138504E-2   -2.433665428058537E-3    3.156949536974556E-2   -2.871739616739058E-3    6.978489713172015E-2    5.212350677123537E-1
 6.564744157875000E9    -3.198653589716600E-2    5.679796840359632E-1    3.223719185327301E-2   -2.529390892322562E-3    3.181636251663542E-2   -3.061812303731884E-3    7.094350105787792E-2    5.209117291471688E-1
 6.564757547350000E9    -3.089589835474509E-2    5.678615619169436E-1    3.245903057317646E-2   -2.687284444376476E-3    3.195624700922176E-2   -3.130741688425935E-3    7.202635012838284E-2    5.207646159448479E-1
 6.564770936825000E9    -2.981812659160437E-2    5.680240207720675E-1    3.270553189397930E-2   -2.678007737273569E-3    3.208649685869681E-2   -3.248912200049607E-3    7.351170046755409E-2    5.207558702337217E-1
 6.564784326300000E9    -2.878105268497837E-2    5.680130998958767E-1    3.278942508453647E-2   -2.780521722435958E-3    3.231629621511575E-2   -3.286985110480084E-3    7.474505555988763E-2    5.204514564525785E-1
 6.564797715775000E9    -2.760796369049674E-2    5.680641049246477E-1    3.301247174004138E-2   -2.923449732270416E-3    3.242612712962469E-2   -3.392290199794997E-3    7.589224149230997E-2    5.203209196626365E-1
 6.564811105250000E9    -2.652733886937431E-2    5.680980070257332E-1    3.322340513928416E-2   -2.928841887381788E-3    3.264157076715196E-2   -3.502756133291627E-3    7.706624892332782E-2    5.201909694757223E-1
 6.564824494725000E9    -2.542716239611350E-2    5.681209479243660E-1    3.347577602794850E-2   -3.175457578537923E-3    3.282239735656942E-2   -3.573528353421497E-3    7.838154457623961E-2    5.199949648954579E-1
 6.564837884200000E9    -2.437403338757914E-2    5.681333747840512E-1    3.356398088370312E-2   -3.206468407312689E-3    3.304966534567808E-2   -3.723654937995257E-3    7.973103537260520E-2    5.198110019770362E-1
 6.564851273675000E9    -2.328759136417557E-2    5.682342098658080E-1    3.392814217760766E-2   -3.296859022820331E-3    3.326183448667348E-2   -3.954530410419980E-3    8.084999002720404E-2    5.194958503825479E-1
 6.564864663150000E9    -2.217749213848176E-2    5.682905331187381E-1    3.413018320620705E-2   -3.358204494713346E-3    3.334696784543395E-2   -3.955988113111912E-3    8.220824117558481E-2    5.193731841328116E-1
 6.564878052625000E9    -2.106721236311034E-2    5.681974064950637E-1    3.407001307422553E-2   -3.566183142017985E-3    3.363844258036176E-2   -4.068211764466966E-3    8.341128533574435E-2    5.190949188764458E-1
 6.564891442100000E9    -2.001509304920481E-2    5.683426280419489E-1    3.448422796242922E-2   -3.504921916420434E-3    3.379522799411534E-2   -4.210845452363833E-3    8.481087074310920E-2    5.188199547248875E-1
 6.564904831575000E9    -1.891395230079740E-2    5.683316041825244E-1    3.454049272244826E-2   -3.816336579771180E-3    3.393908487213579E-2   -4.217134621716150E-3    8.601071816757790E-2    5.187521610540313E-1
 6.564918221050000E9    -1.773804838962851E-2    5.682886354951635E-1    3.473053059252713E-2   -3.709741477632892E-3    3.413418160896192E-2   -4.319592752152541E-3    8.729753771477701E-2    5.185749470489858E-1
 6.564931610525000E9    -1.674897705874148E-2    5.684179592340332E-1    3.499850473417498E-2   -4.208153214567285E-3    3.442635189595339E-2   -4.567683188214949E-3    8.846911878061774E-2    5.184586688432593E-1
 6.564945000000000E9    -1.547445798197425E-2    5.684023860519057E-1    3.517034546170896E-2   -4.016056199125407E-3    3.453137603119234E-2   -4.611699070801949E-3    8.976896106072539E-2    5.181711316750934E-1
 6.564958389475000E9    -1.452729500154410E-2    5.683312313784429E-1    3.544183138198301E-2   -4.192398293340399E-3    3.478217623054947E-2   -4.783921853527840E-3    9.109721220009462E-2    5.180165700846651E-1
 6.564971778950000E9    -1.327082470697924E-2    5.684773145845036E-1    3.557757912842465E-2   -4.316341674718390E-3    3.502860567974176E-2   -4.875306284977425E-3    9.248001150222326E-2    5.175712275014213E-1
 6.564985168425000E9    -1.223360585155620E-2    5.683924400017977E-1    3.575547437974105E-2   -4.282512137051824E-3    3.518030767075572E-2   -5.032430355558172E-3    9.396280009399202E-2    5.173313004445039E-1
 6.564998557900000E9    -1.118080032389354E-2    5.683175695274004E-1    3.594472754142688E-2   -4.510402770774312E-3    3.539143728506000E-2   -5.080222119617352E-3    9.512222121011410E-2    5.170493987456490E-1
 6.565011947375000E9    -1.006513316042003E-2    5.683719223517705E-1    3.621607542409537E-2   -4.662251199262525E-3    3.565749792768248E-2   -5.255248299896038E-3    9.641122089592120E-2    5.169204640013054E-1
 6.565025336850000E9    -8.978054105266331E-3    5.683698133067138E-1    3.637208155567474E-2   -4.751235815270319E-3    3.581629702750138E-2   -5.311188378577756E-3    9.771077455061948E-2    5.166526791412596E-1
 6.565038726325000E9    -7.815369785108736E-3    5.684070379906323E-1    3.651347362237546E-2   -4.859193217153411E-3    3.605874005023255E-2   -5.520129746319350E-3    9.891576473334705E-2    5.164134998579457E-1
 6.565052115800000E9    -6.742709902258533E-3    5.684268326765547E-1    3.688465490031551E-2   -4.984071274209795E-3    3.621918974812342E-2   -5.566842043608947E-3    1.003394403782047E-1    5.162613567691168E-1
 6.565065505275000E9    -5.562666527426244E-3    5.685090217922318E-1    3.715132605307749E-2   -5.102791072225446E-3    3.648224207883648E-2   -5.767802028279890E-3    1.016232377222377E-1    5.159078791607773E-1
 6.565078894750000E9    -4.506834921830006E-3    5.683379589352877E-1    3.735782391527324E-2   -5.331811189533906E-3    3.664743489461657E-2   -5.870136312588003E-3    1.029931379951205E-1    5.157299574494585E-1
 6.565092284225000E9    -3.277262772710962E-3    5.682577991046486E-1    3.762028061484355E-2   -5.510633668511276E-3    3.695012584459691E-2   -6.000156656034195E-3    1.043236731404857E-1    5.152918746054052E-1
 6.565105673700000E9    -2.169676120121647E-3    5.683979062772274E-1    3.781833540193729E-2   -5.610828672408532E-3    3.723812833855971E-2   -6.176632599637698E-3    1.056763498830122E-1    5.150334697688371E-1
 6.565119063175000E9    -1.131048525691786E-3    5.682900008395196E-1    3.814690262315721E-2   -5.720588661907181E-3    3.743574291231828E-2   -6.331912679265107E-3    1.071009769401805E-1    5.147049131167931E-1
 6.565132452650000E9     7.252803692252817E-5    5.681957615500550E-1    3.842059270348093E-2   -5.918235668809438E-3    3.766397484111949E-2   -6.415694227853722E-3    1.083688507595467E-1    5.144575692500430E-1
 6.565145842125000E9     1.163692162897663E-3    5.682707151244892E-1    3.852037723339581E-2   -6.042357705594191E-3    3.790081188377971E-2   -6.548073368863593E-3    1.096859253634654E-1    5.141807869030169E-1
 6.565159231600000E9     2.349057218749704E-3    5.682910576502712E-1    3.874831285124820E-2   -6.218689189096168E-3    3.812403664871135E-2   -6.614998477562746E-3    1.110732780372092E-1    5.137190037036982E-1
 6.565172621075000E9     3.499624775193652E-3    5.681560299885060E-1    3.905570403759826E-2   -6.290019758642871E-3    3.836662084834174E-2   -6.915581422326125E-3    1.125848124389746E-1    5.135275132892736E-1
 6.565186010550000E9     4.559709572600314E-3    5.681692781846799E-1    3.931623939901039E-2   -6.511690675018261E-3    3.866214874723058E-2   -7.059582082276735E-3    1.137155984919126E-1    5.131384563254626E-1
 6.565199400025000E9     5.711710393906975E-3    5.680427140071368E-1    3.956158788711658E-2   -6.628083343795029E-3    3.888690787849526E-2   -7.147537448955996E-3    1.152507293967755E-1    5.129349745438462E-1
 6.565212789500000E9     6.855970730782793E-3    5.680337532350106E-1    3.974649950530028E-2   -6.871358901880725E-3    3.912485947992742E-2   -7.258675876081771E-3    1.166696791793312E-1    5.125727570982797E-1
 6.565226178975000E9     7.885761353809176E-3    5.679890477660868E-1    4.017172775093941E-2   -6.969972108792519E-3    3.932991050125548E-2   -7.599669601409719E-3    1.179944303669695E-1    5.120398161857799E-1
 6.565239568450000E9     9.170162060355818E-3    5.678839474115809E-1    4.026743103185448E-2   -7.093792605674929E-3    3.966748837733679E-2   -7.675857730990231E-3    1.195200695532993E-1    5.118696744110799E-1
 6.565252957925000E9     1.032132494628113E-2    5.678281933705949E-1    4.055718943009110E-2   -7.224720557923466E-3    4.000366822603976E-2   -7.879060883805147E-3    1.208057534914539E-1    5.115533901369712E-1
 6.565266347400000E9     1.146498524363513E-2    5.677373451570178E-1    4.086131474870974E-2   -7.482457520619329E-3    4.014593745433714E-2   -7.963971490821483E-3    1.219913018613774E-1    5.111182232368173E-1
 6.565279736875000E9     1.254614367067217E-2    5.677188332913062E-1    4.113719799873913E-2   -7.523935719501103E-3    4.045381096388216E-2   -8.195348489754780E-3    1.237114108624232E-1    5.108213224070219E-1
 6.565293126350000E9     1.372582349952540E-2    5.678043566263328E-1    4.136669234143314E-2   -7.762246366482860E-3    4.069368748530770E-2   -8.462408670527600E-3    1.250467926902285E-1    5.104441642087665E-1
 6.565306515825000E9     1.492971443042616E-2    5.676311270746726E-1    4.152850733324621E-2   -7.998059149527330E-3    4.093698847488742E-2   -8.645231445637634E-3    1.265758126511693E-1    5.100265725001932E-1
 6.565319905300000E9     1.606841207973894E-2    5.675622182831039E-1    4.186410034637215E-2   -8.205317875538095E-3    4.121849836167341E-2   -8.739237326665523E-3    1.279041191145247E-1    5.095932376508244E-1
 6.565333294775000E9     1.711419294974858E-2    5.675508675349370E-1    4.213956352411473E-2   -8.398668881304330E-3    4.159726238322783E-2   -8.990835220494648E-3    1.292106799042404E-1    5.092238015219434E-1
 6.565346684250000E9     1.831981513303743E-2    5.674533525266400E-1    4.236054175737541E-2   -8.539809778532815E-3    4.182803205484723E-2   -9.100756017343597E-3    1.308454598098361E-1    5.089959684365336E-1
 6.565360073725000E9     1.952247677101121E-2    5.673943992455708E-1    4.282805569482703E-2   -8.801139370325410E-3    4.223619892643433E-2   -9.192475350149068E-3    1.322668856109979E-1    5.084403775626276E-1
 6.565373463200000E9     2.069201012111998E-2    5.671382534947816E-1    4.308401007297104E-2   -8.957019219056846E-3    4.243409446049395E-2   -9.465776561100833E-3    1.336774010277441E-1    5.080053494420829E-1
 6.565386852675000E9     2.190139963712639E-2    5.672496173523071E-1    4.337898610966186E-2   -9.173751806247778E-3    4.268325402492286E-2   -9.669919522232879E-3    1.353115339958041E-1    5.075634328666658E-1
 6.565400242150000E9     2.302126817157501E-2    5.670059922584186E-1    4.378477893659707E-2   -9.298808407681054E-3    4.305930649649457E-2   -9.960168449524735E-3    1.366486982903349E-1    5.071237796482544E-1
 6.565413631625000E9     2.411309284877702E-2    5.668913962129021E-1    4.412623602162540E-2   -9.469527892647656E-3    4.319738050354580E-2   -1.008635798566101E-2    1.382339340953446E-1    5.065890391728810E-1
 6.565427021100000E9     2.531440885042560E-2    5.668728937664564E-1    4.436369772499760E-2   -9.756320100979696E-3    4.364277263577220E-2   -1.033005953673171E-2    1.395657927418700E-1    5.062935226690090E-1
 6.565440410575000E9     2.644270820962363E-2    5.667535501592984E-1    4.474531740823566E-2   -1.001427501272035E-2    4.397414136813366E-2   -1.049264463531631E-2    1.411677734826137E-1    5.056388593235932E-1
 6.565453800050000E9     2.764933547712996E-2    5.666469393825465E-1    4.522043928285040E-2   -1.025339928748286E-2    4.426163838820229E-2   -1.074234269775074E-2    1.425791229630908E-1    5.052413385402040E-1
 6.565467189525000E9     2.884418184939022E-2    5.666490837070242E-1    4.527562245647579E-2   -1.037713881690408E-2    4.461866849489347E-2   -1.102638926763435E-2    1.441305930904638E-1    5.048425601084803E-1
 6.565480579000000E9     3.002983360733789E-2    5.665346616589403E-1    4.569558719225039E-2   -1.061187922891466E-2    4.488327408418576E-2   -1.117112532838429E-2    1.457392786292225E-1    5.042315701880684E-1
 6.565493968475000E9     3.121779579762547E-2    5.663053609482612E-1    4.599541807387147E-2   -1.088386274239299E-2    4.524864216486695E-2   -1.149616080033507E-2    1.472335034591164E-1    5.037887323319199E-1
 6.565507357950000E9     3.246542991633084E-2    5.661166368130117E-1    4.634310596203866E-2   -1.103221119925146E-2    4.555687067747679E-2   -1.177701876050554E-2    1.488923467850283E-1    5.033374280081169E-1
 6.565520747425000E9     3.359138162359462E-2    5.660126062653918E-1    4.668640893042290E-2   -1.146312638158057E-2    4.593146692804132E-2   -1.192959155557003E-2    1.504238419714405E-1    5.027126857021506E-1
 6.565534136900000E9     3.486109877328275E-2    5.659777441581538E-1    4.702635996782108E-2   -1.163998873922964E-2    4.631270375265136E-2   -1.222681764408543E-2    1.518724291594550E-1    5.022949630157637E-1
 6.565547526375000E9     3.592625412297636E-2    5.658577778944888E-1    4.741379414967493E-2   -1.175851978860673E-2    4.666082777884058E-2   -1.245503949250459E-2    1.533908236235808E-1    5.016964805015408E-1
 6.565560915850000E9     3.708485570440889E-2    5.656556028564179E-1    4.785368287452305E-2   -1.207060238419966E-2    4.697907055632207E-2   -1.263123723227026E-2    1.549818043388331E-1    5.011250129504620E-1
 6.565574305325000E9     3.837643612855577E-2    5.655480227235875E-1    4.818795407656434E-2   -1.230604846636369E-2    4.734783422279621E-2   -1.299388092415845E-2    1.566282264287489E-1    5.005363429654375E-1
 6.565587694800000E9     3.949516283491532E-2    5.653955585843956E-1    4.855028273119010E-2   -1.267024598061641E-2    4.768462140706210E-2   -1.321520501846146E-2    1.582228667316238E-1    5.000711037531589E-1
 6.565601084275000E9     4.078754930535973E-2    5.651803333377630E-1    4.886991322927557E-2   -1.300820860650380E-2    4.818013496698078E-2   -1.348180703522902E-2    1.598292360856122E-1    4.993585087126422E-1
 6.565614473750000E9     4.207187876321266E-2    5.650808699831803E-1    4.937677331241903E-2   -1.315065694991365E-2    4.852408100550003E-2   -1.372539198642864E-2    1.615739715137957E-1    4.986300202728646E-1
