#  HZ   S   RI   R     50.00 
! Rohde & Schwarz Vector Network Analyzer 
! Rohde-Schwarz,ZNB20-2Port,1311601062101988,3.16
! Created: UTC 3/20/2024, 5:08:54 PM
! freq[Hz]                re:S11                  im:S11                  re:S21                  im:S21                  re:S12                  im:S12                  re:S22                  im:S22
 6.564421030000000E9    -5.797132845018019E-2    5.660858692138174E-1    2.849177725802889E-2   -6.202249574756365E-4    2.806062666544480E-2   -1.065614716429020E-3    4.204720031097117E-2    5.238407279427145E-1
 6.564434383525000E9    -5.677077571071514E-2    5.662226311211329E-1    2.865994524713008E-2   -6.016793883083559E-4    2.806913703853042E-2   -1.064937227319472E-3    4.308225172990297E-2    5.237140869042942E-1
 6.564447737050000E9    -5.572130521356351E-2    5.663436787285913E-1    2.871899757223349E-2   -6.691577293491320E-4    2.834008509307344E-2   -1.202082425127100E-3    4.440063932388175E-2    5.236690270353344E-1
 6.564461090575000E9    -5.467404440034661E-2    5.662468712432142E-1    2.885208858959824E-2   -7.825405164596216E-4    2.839318379283934E-2   -1.255723416166009E-3    4.535282047332666E-2    5.234706134562144E-1
 6.564474444100000E9    -5.379266688549371E-2    5.664538952329117E-1    2.899273695434908E-2   -7.232543885289534E-4    2.856910885965774E-2   -1.280109835838410E-3    4.649036531614945E-2    5.234850228934259E-1
 6.564487797625000E9    -5.261813696115272E-2    5.665451237967076E-1    2.911521286086581E-2   -8.724758160151744E-4    2.873009484612684E-2   -1.481239552860959E-3    4.791581555942133E-2    5.234525970358381E-1
 6.564501151150000E9    -5.153083460952023E-2    5.666115883308359E-1    2.943640488381627E-2   -8.549689931907962E-4    2.892296830496640E-2   -1.458407202558631E-3    4.900056643142565E-2    5.233214817960633E-1
 6.564514504675000E9    -5.054288578000057E-2    5.667642945565753E-1    2.944810517942998E-2   -9.855060652182953E-4    2.894186492530167E-2   -1.611536393340375E-3    5.009999266238541E-2    5.231553774734069E-1
 6.564527858200000E9    -4.945210393857259E-2    5.668766926100364E-1    2.961804450571492E-2   -1.107265743173774E-3    2.920269104065156E-2   -1.716430581627249E-3    5.124204293416811E-2    5.230911674263058E-1
 6.564541211725000E9    -4.827836294467185E-2    5.668539611802885E-1    2.988921711087700E-2   -1.218053773771577E-3    2.920719732917322E-2   -1.811943272954622E-3    5.257208730189238E-2    5.230042580958859E-1
 6.564554565250000E9    -4.729018661750063E-2    5.669874005097687E-1    2.997303614899743E-2   -1.299726807729404E-3    2.931885389283088E-2   -1.798257419418335E-3    5.382817332933042E-2    5.228711874596225E-1
 6.564567918775000E9    -4.616958799881621E-2    5.670637463803759E-1    3.013449031283984E-2   -1.394474498903529E-3    2.961041764144232E-2   -1.961604233608351E-3    5.499991681790198E-2    5.229005008102229E-1
 6.564581272300000E9    -4.515978594760862E-2    5.672353685885754E-1    3.017736699433510E-2   -1.377050450205776E-3    2.976822196732965E-2   -1.912053851564351E-3    5.598569054946577E-2    5.227209591944590E-1
 6.564594625825000E9    -4.405652631809243E-2    5.671497350223007E-1    3.028745794450951E-2   -1.520520225664811E-3    2.991458501414794E-2   -2.021116233515973E-3    5.734072639274369E-2    5.226392076741284E-1
 6.564607979350000E9    -4.312690805704501E-2    5.673026130023984E-1    3.049787202362728E-2   -1.587733763369304E-3    3.009991955596367E-2   -2.081838050380897E-3    5.844425448511469E-2    5.225646946213650E-1
 6.564621332875000E9    -4.198665853487985E-2    5.673945769586600E-1    3.067254637333848E-2   -1.748090786300625E-3    3.025725436682153E-2   -2.241689541791189E-3    5.972459652499649E-2    5.223175489759582E-1
 6.564634686400000E9    -4.091533582610341E-2    5.674404586665547E-1    3.086312787630087E-2   -1.883563224109007E-3    3.030705518161687E-2   -2.314434659770354E-3    6.086597330333297E-2    5.222721828115102E-1
 6.564648039925000E9    -3.980154872977171E-2    5.675253490799487E-1    3.123236517316141E-2   -1.888556428307966E-3    3.044658206421583E-2   -2.389562769632952E-3    6.205551054100417E-2    5.219906281242181E-1
 6.564661393450000E9    -3.870520727450882E-2    5.676096125186854E-1    3.103657755946505E-2   -1.967643300319193E-3    3.065275821015454E-2   -2.469999460769097E-3    6.355839896865785E-2    5.219733381372935E-1
 6.564674746975000E9    -3.769177023925021E-2    5.675861790686024E-1    3.148045574672401E-2   -2.000018480105247E-3    3.079522482691252E-2   -2.534945508676234E-3    6.442287059899647E-2    5.218255361441749E-1
 6.564688100500000E9    -3.664597580851413E-2    5.676368326659048E-1    3.153973634962270E-2   -2.118342042762618E-3    3.101341721490729E-2   -2.687635274996790E-3    6.574749025321849E-2    5.216028765017189E-1
 6.564701454025000E9    -3.543595731095737E-2    5.677488060364868E-1    3.168738164693075E-2   -2.333583393393226E-3    3.122776915445988E-2   -2.665694559484331E-3    6.694503403399703E-2    5.215579732732478E-1
 6.564714807550000E9    -3.444573158018543E-2    5.678817438413879E-1    3.198667141137181E-2   -2.094322160753326E-3    3.124581379028094E-2   -2.762838550700760E-3    6.814715295067185E-2    5.215101995741396E-1
 6.564728161075000E9    -3.338794055299409E-2    5.678422312630518E-1    3.193238417531574E-2   -2.308767722568253E-3    3.149726708832855E-2   -2.919568629482580E-3    6.935134613158404E-2    5.212848534361526E-1
 6.564741514600000E9    -3.224663674898633E-2    5.679175281940898E-1    3.240324436748421E-2   -2.574109719981637E-3    3.163880198944689E-2   -3.022997506816634E-3    7.061240147016243E-2    5.211223304845261E-1
 6.564754868125000E9    -3.118173803116647E-2    5.678898669330903E-1    3.257285373065600E-2   -2.575746810456184E-3    3.185724943548752E-2   -3.105159797387543E-3    7.185212731978159E-2    5.208963663767617E-1
 6.564768221650000E9    -3.007969372280155E-2    5.680082981481706E-1    3.254337952189664E-2   -2.706974222081507E-3    3.202276298452982E-2   -3.183606349336328E-3    7.309014735205399E-2    5.207217021883989E-1
 6.564781575175000E9    -2.896148323750977E-2    5.681290262561632E-1    3.277172635765093E-2   -2.768367083746034E-3    3.227001200110065E-2   -3.310121046294726E-3    7.420015502496612E-2    5.205911257571827E-1
 6.564794928700000E9    -2.789032089665163E-2    5.680946132538734E-1    3.288452409747360E-2   -2.911191353047007E-3    3.235326524954479E-2   -3.396576928963824E-3    7.562873941066817E-2    5.203459597386184E-1
 6.564808282225000E9    -2.675937326938296E-2    5.680396230963531E-1    3.299783743506611E-2   -2.928554052243537E-3    3.268271767574211E-2   -3.534332672470888E-3    7.677722291190785E-2    5.202384355407170E-1
 6.564821635750000E9    -2.564632443303768E-2    5.681309529682387E-1    3.330641297485729E-2   -3.041726437866054E-3    3.265098957441229E-2   -3.621937130900853E-3    7.808053972478038E-2    5.199707793378409E-1
 6.564834989275000E9    -2.466617996862202E-2    5.682182131508443E-1    3.343328163999384E-2   -3.195070034782439E-3    3.289525858670552E-2   -3.701895219634060E-3    7.939177150692951E-2    5.198040075212021E-1
 6.564848342800000E9    -2.345848508479147E-2    5.681907672799216E-1    3.372321878137668E-2   -3.055629114062066E-3    3.302065670803056E-2   -3.820010010523839E-3    8.066197829429016E-2    5.196505964334110E-1
 6.564861696325000E9    -2.236659322442327E-2    5.681594301841111E-1    3.397090802730858E-2   -3.272421865574131E-3    3.315363616453467E-2   -3.906249869313901E-3    8.165481262807636E-2    5.195471574823957E-1
 6.564875049850000E9    -2.133066228413829E-2    5.682714070868964E-1    3.411339860206958E-2   -3.470629906865437E-3    3.353982125175224E-2   -3.962769169976412E-3    8.318600450210502E-2    5.192051786200431E-1
 6.564888403375000E9    -2.021276446213562E-2    5.683560703493034E-1    3.419559908198855E-2   -3.499197293735209E-3    3.364904734090182E-2   -4.111079413498271E-3    8.442527006980802E-2    5.191039615307648E-1
 6.564901756900000E9    -1.915201746189209E-2    5.683146729580724E-1    3.453763567253159E-2   -3.672422724399587E-3    3.375075249615381E-2   -4.187916210873428E-3    8.568621179021793E-2    5.187918675072746E-1
 6.564915110425000E9    -1.802860140154945E-2    5.682831165445745E-1    3.473729468230939E-2   -3.814446178336747E-3    3.415986150802780E-2   -4.374416104763397E-3    8.686167498296012E-2    5.186137265229124E-1
 6.564928463950000E9    -1.702581083637048E-2    5.683437379868587E-1    3.471136081577364E-2   -3.892159613053463E-3    3.433102218020932E-2   -4.427051545312717E-3    8.820400751821655E-2    5.183719197395967E-1
 6.564941817475000E9    -1.574358260392873E-2    5.683459907828705E-1    3.494292631346854E-2   -4.048940961945747E-3    3.445693653286726E-2   -4.564325200815912E-3    8.947460676010086E-2    5.182642936116901E-1
 6.564955171000000E9    -1.474071609367513E-2    5.683684733391858E-1    3.524984806423476E-2   -4.072875865629620E-3    3.465597549382960E-2   -4.754297064567176E-3    9.066772044630943E-2    5.180281856539019E-1
 6.564968524525000E9    -1.368987911893270E-2    5.683227970384436E-1    3.535605820995112E-2   -4.343902409169570E-3    3.481575826710192E-2   -4.869890454457640E-3    9.208965549897472E-2    5.177513983957123E-1
 6.564981878050000E9    -1.252795434517115E-2    5.683158143528481E-1    3.566835914486241E-2   -4.326858516252217E-3    3.498052186139563E-2   -4.904186922678847E-3    9.345598991375158E-2    5.175602242276408E-1
 6.564995231575000E9    -1.137423311565123E-2    5.683877636199782E-1    3.591973150398702E-2   -4.523193868549592E-3    3.522443190916378E-2   -4.925686468307428E-3    9.456208023514474E-2    5.172251838854518E-1
 6.565008585100000E9    -1.029168905300133E-2    5.682789443914804E-1    3.606470215103549E-2   -4.559874763712407E-3    3.545177508765592E-2   -5.193663182779052E-3    9.590240618954748E-2    5.169333647382982E-1
 6.565021938625000E9    -9.138993268853975E-3    5.682796739100806E-1    3.631709010731495E-2   -4.604397307239008E-3    3.567379109995542E-2   -5.263548111068721E-3    9.716758205146200E-2    5.168948317812649E-1
 6.565035292150000E9    -8.068227305190662E-3    5.683876711453728E-1    3.650190081236486E-2   -4.883515091022534E-3    3.589949700271056E-2   -5.377192258291194E-3    9.853671761924132E-2    5.166394566990669E-1
 6.565048645675000E9    -6.978457842884918E-3    5.682843459512986E-1    3.672395038467140E-2   -4.956809503531362E-3    3.608276058486950E-2   -5.534716791437197E-3    9.981721006377300E-2    5.162363491576822E-1
 6.565061999200000E9    -5.922663619761544E-3    5.683640294744499E-1    3.702952287423968E-2   -5.212430835008526E-3    3.640043143136099E-2   -5.635259040746843E-3    1.012891939690648E-1    5.160354601617795E-1
 6.565075352725000E9    -4.755656261108760E-3    5.683596752259559E-1    3.719930229870283E-2   -5.220895382549657E-3    3.646515645798767E-2   -5.815029109260046E-3    1.024365899388160E-1    5.157519335861211E-1
 6.565088706250000E9    -3.624529010642566E-3    5.683222851651928E-1    3.738585773276749E-2   -5.329481636998304E-3    3.678211567811229E-2   -5.929172024274706E-3    1.039495628924795E-1    5.155754200583161E-1
 6.565102059775000E9    -2.413600326414927E-3    5.683478156873724E-1    3.762363476978015E-2   -5.543005250888115E-3    3.700747198415648E-2   -6.179955896248842E-3    1.052250772456447E-1    5.151317992502041E-1
 6.565115413300000E9    -1.391897753799936E-3    5.682306158530319E-1    3.794999332701624E-2   -5.655535827658236E-3    3.718897215122877E-2   -6.134996768402716E-3    1.065245947323087E-1    5.148091711487007E-1
 6.565128766825000E9    -2.223565020705829E-4    5.682681891824948E-1    3.802071291764850E-2   -5.897199609148636E-3    3.752948957545569E-2   -6.324058304726661E-3    1.078893344757954E-1    5.144998758730754E-1
 6.565142120350000E9     9.045065946679571E-4    5.682058522977050E-1    3.840781007422620E-2   -5.962138292768510E-3    3.771652829649379E-2   -6.451542661312953E-3    1.091175419952307E-1    5.141813658032474E-1
 6.565155473875000E9     1.987879694362653E-3    5.681518716310007E-1    3.855909940509185E-2   -6.021593283550525E-3    3.796142121853813E-2   -6.632139882670388E-3    1.106475101392212E-1    5.140224583127530E-1
 6.565168827400000E9     3.101529082199764E-3    5.681145324905910E-1    3.881539823714880E-2   -6.242614479059430E-3    3.827200069045875E-2   -6.757317639764082E-3    1.120077648861484E-1    5.137562026089607E-1
 6.565182180925000E9     4.184812052728856E-3    5.680744551499729E-1    3.905267021752358E-2   -6.287131763928251E-3    3.843684762919319E-2   -6.927285488659687E-3    1.133790900540432E-1    5.131704568020949E-1
 6.565195534450000E9     5.322757216728195E-3    5.681174089592197E-1    3.941871457081777E-2   -6.531952631043984E-3    3.866069432026185E-2   -7.175229222050993E-3    1.147320953346072E-1    5.131943901146306E-1
 6.565208887975000E9     6.384578940566012E-3    5.681251115738059E-1    3.964419277849871E-2   -6.655560548358200E-3    3.896089377112341E-2   -7.221036898603342E-3    1.161606709119226E-1    5.128009831942918E-1
 6.565222241500000E9     7.637603102166626E-3    5.679733104024378E-1    3.978448565571776E-2   -6.918822470694961E-3    3.915444197946082E-2   -7.506601614498141E-3    1.174682288167265E-1    5.123816367172711E-1
 6.565235595025000E9     8.676793263999488E-3    5.678480123076400E-1    4.015888594609971E-2   -6.855517470795660E-3    3.963836548701148E-2   -7.554670213054696E-3    1.189373082504761E-1    5.120568610601142E-1
 6.565248948550000E9     9.892831084645467E-3    5.679006217333324E-1    4.038574796311340E-2   -7.272519567146309E-3    3.966743842075149E-2   -7.820479079134066E-3    1.203729378520298E-1    5.117029529038286E-1
 6.565262302075000E9     1.105403724984514E-2    5.678613979212566E-1    4.076481305682969E-2   -7.415011579344782E-3    3.993424597305534E-2   -7.915821681168302E-3    1.216367553178646E-1    5.113089908778047E-1
 6.565275655600000E9     1.218156186994858E-2    5.677764022377252E-1    4.100355132820118E-2   -7.516665640405715E-3    4.021493063884656E-2   -8.164517500422241E-3    1.231226325647149E-1    5.110829443275023E-1
 6.565289009125000E9     1.341553931111473E-2    5.677302973456826E-1    4.121662420056699E-2   -7.583339612675211E-3    4.054984105850464E-2   -8.287423525581851E-3    1.244279476577999E-1    5.105884222746448E-1
 6.565302362650000E9     1.446018130529425E-2    5.676541348020162E-1    4.152994176141112E-2   -7.970243974475662E-3    4.079991203275634E-2   -8.403384573156224E-3    1.258520820761167E-1    5.103544144482719E-1
 6.565315716175000E9     1.557903886475410E-2    5.675792940047463E-1    4.190860142333418E-2   -7.983561686980769E-3    4.111169312843149E-2   -8.684544482222603E-3    1.273119591661349E-1    5.098217104906462E-1
 6.565329069700000E9     1.680794017291866E-2    5.674003435603729E-1    4.211340663310882E-2   -8.251410590859508E-3    4.131433014900640E-2   -8.782035075285122E-3    1.287568829909331E-1    5.094859141603451E-1
 6.565342423225000E9     1.793433409101251E-2    5.674548930038135E-1    4.236209655923105E-2   -8.415046514034089E-3    4.159328738275917E-2   -8.992070258114673E-3    1.301907625823950E-1    5.091385031354595E-1
 6.565355776750000E9     1.904350967843246E-2    5.674697660921864E-1    4.259551868067517E-2   -8.513922737497879E-3    4.185437878661264E-2   -9.190122036105646E-3    1.315927177183897E-1    5.086781183719475E-1
 6.565369130275000E9     2.018152806449192E-2    5.673081638047712E-1    4.297263274415309E-2   -8.748705529224986E-3    4.227239067241245E-2   -9.369635792500218E-3    1.331933845077823E-1    5.082150342024315E-1
 6.565382483800000E9     2.142151876332212E-2    5.672039569716678E-1    4.328679017490316E-2   -9.060285425716871E-3    4.260974691262701E-2   -9.563824778509641E-3    1.345941755841263E-1    5.077325912741230E-1
 6.565395837325000E9     2.241983328532593E-2    5.670426858180192E-1    4.355654173171800E-2   -9.275693350148688E-3    4.273149548204257E-2   -9.716250331650045E-3    1.358451145101936E-1    5.074914442388021E-1
 6.565409190850000E9     2.370814457316457E-2    5.669779917214891E-1    4.378950142308798E-2   -9.422027490604733E-3    4.316980957275139E-2   -1.002831835054832E-2    1.374845331969090E-1    5.070279652028955E-1
 6.565422544375000E9     2.485143289522312E-2    5.669457518833789E-1    4.422864576174923E-2   -9.649227972995778E-3    4.344631387889863E-2   -1.014793959871230E-2    1.389071000557997E-1    5.064486555895552E-1
 6.565435897900000E9     2.612003309186864E-2    5.668709199418382E-1    4.449427817075344E-2   -9.649176165439149E-3    4.376860078331023E-2   -1.034378977875703E-2    1.405025682497499E-1    5.060885286645518E-1
 6.565449251425000E9     2.721641168339000E-2    5.667880375830298E-1    4.487083372947934E-2   -1.006007446307338E-2    4.404282431227676E-2   -1.061720097428664E-2    1.419743845774055E-1    5.056911290940137E-1
 6.565462604950000E9     2.840877101650594E-2    5.666401399301485E-1    4.513422375886450E-2   -1.017572039738511E-2    4.434917777012204E-2   -1.075497648735485E-2    1.433996951094859E-1    5.050585525472513E-1
 6.565475958475000E9     2.957203073030509E-2    5.665040903116199E-1    4.539542263410667E-2   -1.045017855224538E-2    4.478804866971466E-2   -1.097409374891757E-2    1.450004789817881E-1    5.046439195621418E-1
 6.565489312000000E9     3.085796483081215E-2    5.664104565680729E-1    4.586446259944833E-2   -1.091623570701234E-2    4.502995005536523E-2   -1.129188829990842E-2    1.465199464891550E-1    5.041445892751228E-1
 6.565502665525000E9     3.186251058433683E-2    5.662840410753310E-1    4.627446890417030E-2   -1.091489040072522E-2    4.535001102117307E-2   -1.147439635629167E-2    1.482262090941475E-1    5.036463506327588E-1
 6.565516019050000E9     3.317124930008891E-2    5.662107784470588E-1    4.634694448734137E-2   -1.107410101177807E-2    4.572213754290354E-2   -1.175627187634615E-2    1.495895992314963E-1    5.030213072990707E-1
 6.565529372575000E9     3.425286624978367E-2    5.660580419693610E-1    4.673815042938519E-2   -1.135235176427031E-2    4.613746469707606E-2   -1.197725541169725E-2    1.511943315536956E-1    5.027132681720810E-1
 6.565542726100000E9     3.557744335508373E-2    5.658524584515807E-1    4.719923927443238E-2   -1.159510339954522E-2    4.635923214027644E-2   -1.228397299610058E-2    1.527372979200898E-1    5.021751005986447E-1
 6.565556079625000E9     3.664362685314943E-2    5.657556162651360E-1    4.746392901195805E-2   -1.198016280193708E-2    4.681311326692317E-2   -1.242679660233251E-2    1.544445739951094E-1    5.014147172897986E-1
 6.565569433150000E9     3.779682695144010E-2    5.656034873714477E-1    4.787591834304343E-2   -1.207887123390119E-2    4.702346101678460E-2   -1.278839417281967E-2    1.559386792424226E-1    5.009542628029762E-1
 6.565582786675000E9     3.906674403679498E-2    5.654120949647541E-1    4.823176976552815E-2   -1.239582660760401E-2    4.749769021653320E-2   -1.304860357308632E-2    1.574126708779498E-1    5.004486138725162E-1
 6.565596140200000E9     4.033900472882309E-2    5.652380287543468E-1    4.853737525253138E-2   -1.259422741898987E-2    4.781614743581489E-2   -1.339397349848181E-2    1.591409936688607E-1    4.998689091290887E-1
 6.565609493725000E9     4.148594837011250E-2    5.651688455616500E-1    4.901269147107876E-2   -1.297236955598578E-2    4.818014524064775E-2   -1.370401498301533E-2    1.606890183860812E-1    4.991331647023181E-1
 6.565622847250000E9     4.271566759105250E-2    5.650358056797135E-1    4.932534373763891E-2   -1.324457717256174E-2    4.874958699833980E-2   -1.388296244440954E-2    1.622060572472938E-1    4.985781165974381E-1
