#  HZ   S   RI   R     50.00 
! Rohde & Schwarz Vector Network Analyzer 
! Rohde-Schwarz,ZNB20-2Port,1311601062101988,3.16
! Created: UTC 3/20/2024, 5:04:10 PM
! freq[Hz]                re:S11                  im:S11                  re:S21                  im:S21                  re:S12                  im:S12                  re:S22                  im:S22
 6.564080272000000E9    -8.398904279541439E-2    5.627673360220029E-1    2.595772722889545E-2    5.420891987294521E-4    2.566671527236667E-2    2.546777128547631E-4    1.465787753402835E-2    5.247082694831765E-1
 6.564094874250000E9    -8.287972674395144E-2    5.628718795862883E-1    2.612558992078449E-2    6.666914337857495E-4    2.578589847667915E-2    2.728461173751259E-6    1.605446825655806E-2    5.245901347378691E-1
 6.564109476500000E9    -8.174195877268366E-2    5.631312108879224E-1    2.628657601305375E-2    6.136167605864576E-4    2.587639685182432E-2    3.354155335476954E-7    1.699920273919238E-2    5.247200967002748E-1
 6.564124078750000E9    -8.059293562768771E-2    5.632441090822008E-1    2.654196131855842E-2    5.187850943907932E-4    2.597090042147432E-2    2.385254584583810E-5    1.847315046843398E-2    5.244457810222221E-1
 6.564138681000000E9    -7.943844134848685E-2    5.633539616339510E-1    2.650659611258198E-2    4.538201775368024E-4    2.609929916120244E-2   -1.228532865619911E-4    1.972053011424322E-2    5.245100109889185E-1
 6.564153283250000E9    -7.839386520781615E-2    5.635663851956942E-1    2.673999318121512E-2    3.049891876575136E-4    2.623372906971555E-2   -1.770232674545792E-4    2.089898191901295E-2    5.244544499104883E-1
 6.564167885500000E9    -7.726805000608589E-2    5.635741481871859E-1    2.683809587960916E-2    2.534953477226095E-4    2.643952104855098E-2   -2.237538813198646E-4    2.217598176628994E-2    5.245075088467295E-1
 6.564182487750000E9    -7.604459165597297E-2    5.638549814962263E-1    2.686907366401730E-2    1.836987211910631E-4    2.648582888547755E-2   -3.215804489775972E-4    2.337418118753452E-2    5.245363504942350E-1
 6.564197090000000E9    -7.496322531298021E-2    5.640216383337381E-1    2.714274015896763E-2    1.726681539069631E-4    2.665938812163129E-2   -3.179357618674856E-4    2.469390884541874E-2    5.244174132839509E-1
 6.564211692250000E9    -7.370675428834968E-2    5.642648260771017E-1    2.729832744541382E-2    1.032343994718565E-5    2.684270341456697E-2   -4.277181181488181E-4    2.588374906772744E-2    5.243652524015131E-1
 6.564226294500000E9    -7.259115548162191E-2    5.643260651954862E-1    2.742595412350316E-2    1.027056978908287E-4    2.690837985106376E-2   -5.393966332010433E-4    2.710737997388400E-2    5.243240973136030E-1
 6.564240896750000E9    -7.138128377951655E-2    5.644484109930662E-1    2.770062531379821E-2   -5.338363162303867E-5    2.710123372974454E-2   -5.648482044719968E-4    2.845614755819768E-2    5.242195716793135E-1
 6.564255499000000E9    -7.029893047897261E-2    5.646128332052126E-1    2.770813734684412E-2   -2.426380587417382E-4    2.722790605157935E-2   -6.589468377811212E-4    2.961196199990309E-2    5.242802512575254E-1
 6.564270101250000E9    -6.915946500875958E-2    5.646603217651789E-1    2.770368316175412E-2   -3.282130580844698E-4    2.728379235830414E-2   -7.225862635567968E-4    3.089525309725093E-2    5.242594853295294E-1
 6.564284703500000E9    -6.796731670210709E-2    5.647894978168576E-1    2.800126881887914E-2   -3.257749084897157E-4    2.749128855503531E-2   -7.810988230367764E-4    3.199877339404723E-2    5.240806744562321E-1
 6.564299305750000E9    -6.680975499483267E-2    5.648970055349777E-1    2.816041680319412E-2   -4.041942659275022E-4    2.763888627980361E-2   -8.895298685528735E-4    3.345975302120311E-2    5.240207620624696E-1
 6.564313908000000E9    -6.568811009337215E-2    5.650442613180721E-1    2.823633121567762E-2   -3.913555004246600E-4    2.787807990763764E-2   -9.499462255335946E-4    3.472118178500540E-2    5.239044532149212E-1
 6.564328510250000E9    -6.448385401388233E-2    5.652586159393809E-1    2.844914772281705E-2   -5.320450036099068E-4    2.788344366693191E-2   -1.034661473049354E-3    3.595425065472869E-2    5.237174789326406E-1
 6.564343112500000E9    -6.338232205715499E-2    5.652914235929491E-1    2.855844460302557E-2   -6.322119183661034E-4    2.800585875304757E-2   -1.112848075489762E-3    3.729345483343633E-2    5.237850007907839E-1
 6.564357714750000E9    -6.224150490415659E-2    5.654728892712246E-1    2.872136908610652E-2   -7.370470050115666E-4    2.829625576734975E-2   -1.229094142361191E-3    3.860690043822405E-2    5.235795996358388E-1
 6.564372317000000E9    -6.102957958107674E-2    5.655989045790606E-1    2.877266830831290E-2   -8.667143513935519E-4    2.838568154754621E-2   -1.242787409905637E-3    3.974966777322513E-2    5.236240119839680E-1
 6.564386919250000E9    -5.992710854729713E-2    5.656377976466529E-1    2.885042286888835E-2   -9.582258663982007E-4    2.853630436214236E-2   -1.288453409462645E-3    4.125630788446265E-2    5.234986154697661E-1
 6.564401521500000E9    -5.871986577534265E-2    5.657926279048059E-1    2.934557135208317E-2   -8.648946703637257E-4    2.879565751278069E-2   -1.453903103450685E-3    4.232116170732100E-2    5.235023872935479E-1
 6.564416123750000E9    -5.761427249947702E-2    5.659199757608265E-1    2.932461842563104E-2   -9.801685564138094E-4    2.905389251783535E-2   -1.481982429557044E-3    4.365621975485597E-2    5.234363822564286E-1
 6.564430726000000E9    -5.639310304314553E-2    5.658847414703597E-1    2.956625422498003E-2   -9.467099037034810E-4    2.915208852895950E-2   -1.518961313763327E-3    4.492646800100123E-2    5.234030743971174E-1
 6.564445328250000E9    -5.536387593354346E-2    5.661148692776306E-1    2.958675040743529E-2   -1.138215382034968E-3    2.912767218913911E-2   -1.619218038025711E-3    4.625110651062705E-2    5.231617165619598E-1
 6.564459930500000E9    -5.410701588244303E-2    5.661881400218383E-1    2.983580062929162E-2   -1.284780974950543E-3    2.926557377775492E-2   -1.688849147064931E-3    4.751841811769083E-2    5.230247606459739E-1
 6.564474532750000E9    -5.292426239559198E-2    5.663559004858595E-1    2.991100231545313E-2   -1.274228861702284E-3    2.946949578230017E-2   -1.799843379236977E-3    4.890330287888608E-2    5.230794054306445E-1
 6.564489135000000E9    -5.182336318380634E-2    5.664259804689651E-1    3.022414173938080E-2   -1.473343622355418E-3    2.973065786461276E-2   -1.777472224473171E-3    5.000539907528742E-2    5.227866584139432E-1
 6.564503737250000E9    -5.057028641702049E-2    5.664610261106583E-1    3.041557276287054E-2   -1.437182644027833E-3    2.986774823653444E-2   -2.006147933409021E-3    5.154415330547282E-2    5.227091954891928E-1
 6.564518339500000E9    -4.934029533806251E-2    5.665244078033642E-1    3.049516947899671E-2   -1.575381464590108E-3    3.001780036210508E-2   -1.997875864461832E-3    5.265413559279773E-2    5.226591410659931E-1
 6.564532941750000E9    -4.821629379115980E-2    5.666937571374433E-1    3.052699670383811E-2   -1.692678711295706E-3    3.026289669396396E-2   -2.128821457409627E-3    5.414728615943151E-2    5.224638414956663E-1
 6.564547544000000E9    -4.713158657383462E-2    5.668393638048844E-1    3.092773220847852E-2   -1.701753402431742E-3    3.037230320059088E-2   -2.302678764315244E-3    5.535412598166087E-2    5.222702061878758E-1
 6.564562146250000E9    -4.584255577286434E-2    5.668363947078519E-1    3.110463392559390E-2   -1.940706311991638E-3    3.051680035408377E-2   -2.263399065795550E-3    5.685252716786357E-2    5.222449106494860E-1
 6.564576748500000E9    -4.470698330399216E-2    5.669334048616649E-1    3.123546234702362E-2   -1.887066585197074E-3    3.066340136700230E-2   -2.471345352164298E-3    5.793950335264243E-2    5.219868072112681E-1
 6.564591350750000E9    -4.360810962532113E-2    5.669239382579434E-1    3.142161806552998E-2   -2.042151505184354E-3    3.091318182108358E-2   -2.560726130525687E-3    5.920389585229580E-2    5.219904645776717E-1
 6.564605953000000E9    -4.231223739436130E-2    5.670836059822917E-1    3.151147115687421E-2   -2.153586977307377E-3    3.103705193136183E-2   -2.638207401084437E-3    6.063810218955715E-2    5.217122876779496E-1
 6.564620555250000E9    -4.118477610282859E-2    5.672633418254349E-1    3.179439761660874E-2   -2.116980603940759E-3    3.130784022771190E-2   -2.853754779064427E-3    6.215596173810211E-2    5.216010334142274E-1
 6.564635157500000E9    -3.993341648547576E-2    5.671467162772539E-1    3.201601205856761E-2   -2.568517649672919E-3    3.140773972617152E-2   -2.823270985193276E-3    6.328204805888102E-2    5.214464934754657E-1
 6.564649759750000E9    -3.878185015013383E-2    5.673077730325277E-1    3.209770160570189E-2   -2.377701661511916E-3    3.164910761438025E-2   -2.907893288768420E-3    6.466144243372689E-2    5.213291010875530E-1
 6.564664362000000E9    -3.768652844031790E-2    5.674829387380206E-1    3.239753334626302E-2   -2.469054894766187E-3    3.179468465217342E-2   -3.092515551085269E-3    6.602311991392654E-2    5.209971756300925E-1
 6.564678964250000E9    -3.657821949891096E-2    5.674176956532210E-1    3.249970804667445E-2   -2.752542882027599E-3    3.188152633507549E-2   -3.126371992826645E-3    6.736358901092587E-2    5.209291813094691E-1
 6.564693566500000E9    -3.516188325045804E-2    5.674495137289960E-1    3.288598261753499E-2   -2.765950464951759E-3    3.212732749176193E-2   -3.227148212588664E-3    6.863946444294082E-2    5.206430660927930E-1
 6.564708168750000E9    -3.401893286185301E-2    5.674843316531677E-1    3.302453636666973E-2   -2.758208324281091E-3    3.241169209968341E-2   -3.433757364720942E-3    6.997198931052125E-2    5.206223046843992E-1
 6.564722771000000E9    -3.293406241328106E-2    5.675596076186188E-1    3.322100158675520E-2   -3.064519945177717E-3    3.248928264493572E-2   -3.503397520529891E-3    7.143977646823930E-2    5.202527223137983E-1
 6.564737373250000E9    -3.172723056455173E-2    5.676807506367804E-1    3.333569448168377E-2   -3.126300058687209E-3    3.272976021805615E-2   -3.493433723742537E-3    7.266787467511715E-2    5.201761686126932E-1
 6.564751975500000E9    -3.050617880064826E-2    5.676924772515325E-1    3.349728810932287E-2   -3.216088046106678E-3    3.290956744466397E-2   -3.704822349200623E-3    7.423579626853723E-2    5.198877832376980E-1
 6.564766577750000E9    -2.932545932619942E-2    5.677559319277297E-1    3.380756752506248E-2   -3.343751262389316E-3    3.316270831815680E-2   -3.824407048350740E-3    7.569035764657367E-2    5.196808662230028E-1
 6.564781180000000E9    -2.814101305532222E-2    5.678301026476712E-1    3.394134503622177E-2   -3.487860368969136E-3    3.334404550011441E-2   -3.968761067251408E-3    7.689248123244939E-2    5.195562955105585E-1
 6.564795782250000E9    -2.697020203974405E-2    5.678288691418902E-1    3.412394637612241E-2   -3.525298824862665E-3    3.356247450006583E-2   -4.049771217672921E-3    7.825391871533320E-2    5.192731122787340E-1
 6.564810384500000E9    -2.570920013796428E-2    5.678122326280932E-1    3.423464905114863E-2   -3.696315683778150E-3    3.379389629667692E-2   -4.251268084622683E-3    7.971864230127793E-2    5.190302769228116E-1
 6.564824986750000E9    -2.453403203569664E-2    5.678909543211660E-1    3.450767102855947E-2   -3.818861808841058E-3    3.397705129309821E-2   -4.253514490863634E-3    8.105735198965651E-2    5.189377172157253E-1
 6.564839589000000E9    -2.324841114431902E-2    5.678993103222169E-1    3.480752440444775E-2   -4.046439825303815E-3    3.420349745326414E-2   -4.415086304574645E-3    8.232351070209938E-2    5.187028095525332E-1
 6.564854191250000E9    -2.214794250816097E-2    5.679025493079076E-1    3.503753927713239E-2   -4.122012055704933E-3    3.445174107161533E-2   -4.614630828669228E-3    8.392031306317634E-2    5.185117024846215E-1
 6.564868793500000E9    -2.097213891126516E-2    5.678902935210457E-1    3.527749870991424E-2   -4.104586561352953E-3    3.472972418142668E-2   -4.781988318464240E-3    8.523584317769009E-2    5.181285078474588E-1
 6.564883395750000E9    -1.971805047654208E-2    5.678879096448431E-1    3.539760840710408E-2   -4.347160109810067E-3    3.495254323098514E-2   -4.831800312109495E-3    8.671969323598180E-2    5.179927942648576E-1
 6.564897998000000E9    -1.848414457647727E-2    5.680099555075740E-1    3.586741848956542E-2   -4.484969056727131E-3    3.521903794521949E-2   -5.066406004859580E-3    8.810124573859270E-2    5.177905989349812E-1
 6.564912600250000E9    -1.728057098530397E-2    5.679909471281950E-1    3.596160828808343E-2   -4.617135287945873E-3    3.537105223180461E-2   -5.041546693190045E-3    8.948519910209755E-2    5.174858904921933E-1
 6.564927202500000E9    -1.607611190852200E-2    5.680855683740198E-1    3.609583404861901E-2   -4.615429718010708E-3    3.562201520733243E-2   -5.222403580641364E-3    9.096472876527500E-2    5.170265772653557E-1
 6.564941804750000E9    -1.485103530925303E-2    5.679250412853414E-1    3.642425546052705E-2   -4.933005941270785E-3    3.584240474021036E-2   -5.373949690644319E-3    9.242106646237118E-2    5.170092088831646E-1
 6.564956407000000E9    -1.367174084914454E-2    5.679926349581584E-1    3.663451697677941E-2   -5.142274737490327E-3    3.606004517334389E-2   -5.489454134929874E-3    9.375524001400888E-2    5.166177048325221E-1
 6.564971009250000E9    -1.245836783611792E-2    5.679375960299523E-1    3.705683371534674E-2   -5.183113884338101E-3    3.624252024409517E-2   -5.655560315456805E-3    9.528988011072753E-2    5.165261812845277E-1
 6.564985611500000E9    -1.119010541000531E-2    5.680277536752263E-1    3.711633557827938E-2   -5.266567127933050E-3    3.648016428328912E-2   -5.891226960193906E-3    9.664971775744555E-2    5.160552804220608E-1
 6.565000213750000E9    -9.960045750603512E-3    5.679521364183193E-1    3.746521406131530E-2   -5.348880175235534E-3    3.678206816356380E-2   -6.011190662839101E-3    9.821188389286571E-2    5.159038711753972E-1
 6.565014816000000E9    -8.783011184558565E-3    5.679385237955872E-1    3.769402079430171E-2   -5.523024912286581E-3    3.696895455942045E-2   -6.110006934015657E-3    9.960049869565807E-2    5.154351553526816E-1
 6.565029418250000E9    -7.527388695722281E-3    5.680763795257798E-1    3.797327064966288E-2   -5.744684238566584E-3    3.723561246122507E-2   -6.224133971400070E-3    1.010063217332004E-1    5.151897452281704E-1
 6.565044020500000E9    -6.318336900498311E-3    5.679563608091176E-1    3.802418616059767E-2   -5.925868289975905E-3    3.748845537587403E-2   -6.424804901999418E-3    1.026286939897860E-1    5.148166736885282E-1
 6.565058622750000E9    -5.148164073090504E-3    5.679297485244410E-1    3.844599965678119E-2   -6.051923830701757E-3    3.763859732050410E-2   -6.610993860607890E-3    1.039742707349388E-1    5.144389225638446E-1
 6.565073225000000E9    -3.846933088998966E-3    5.678536539613144E-1    3.869550275494999E-2   -6.276796171892684E-3    3.806861234817260E-2   -6.781984149085912E-3    1.053505824584620E-1    5.141996398661238E-1
 6.565087827250000E9    -2.512326925736508E-3    5.678458057220516E-1    3.896470689269636E-2   -6.404709330785577E-3    3.828560992156105E-2   -6.986589673813517E-3    1.071496913687690E-1    5.138372745317952E-1
 6.565102429500000E9    -1.373605182043327E-3    5.678533135450523E-1    3.915532877524298E-2   -6.632641014463056E-3    3.860030244569579E-2   -7.212368805530712E-3    1.083796168909516E-1    5.135662380753827E-1
 6.565117031750000E9    -1.693934837612793E-4    5.677767768871073E-1    3.939009415281525E-2   -6.699551428593834E-3    3.877459276868209E-2   -7.304985829351501E-3    1.098912532699073E-1    5.131693484365324E-1
 6.565131634000000E9     1.064787340161583E-3    5.677122007439044E-1    3.979575577304640E-2   -6.938654230327937E-3    3.911366245070810E-2   -7.382220189252053E-3    1.114555135145738E-1    5.127516576618466E-1
 6.565146236250000E9     2.427489411011072E-3    5.676666043615738E-1    4.005687326269985E-2   -6.964013390634607E-3    3.936107594854283E-2   -7.651040103573989E-3    1.129753647925926E-1    5.123758513769404E-1
 6.565160838500000E9     3.510513557701625E-3    5.677655624956415E-1    4.034593438664214E-2   -7.283079912184805E-3    3.962202572272185E-2   -7.674580709616585E-3    1.144450119458792E-1    5.120640618078113E-1
 6.565175440750000E9     4.837182931223871E-3    5.676675122812574E-1    4.072265302091528E-2   -7.473935283502955E-3    3.994150298628212E-2   -8.004807123338599E-3    1.159962041296224E-1    5.116931393248348E-1
 6.565190043000000E9     6.042772760665448E-3    5.674731068320671E-1    4.100977431039305E-2   -7.619340984727791E-3    4.027316541572304E-2   -8.210677596079817E-3    1.177301390908991E-1    5.113564786794869E-1
 6.565204645250000E9     7.179073569659218E-3    5.674374867747685E-1    4.124517787901748E-2   -7.859263579978758E-3    4.050413124998491E-2   -8.450079885305595E-3    1.191208415925893E-1    5.109107907004850E-1
 6.565219247500000E9     8.549921229826805E-3    5.674728845268635E-1    4.142633548961461E-2   -8.101938768439308E-3    4.085793711191325E-2   -8.595688771891298E-3    1.206386769112576E-1    5.103607356380514E-1
 6.565233849750000E9     9.819254330803160E-3    5.674386914325572E-1    4.194290475386055E-2   -8.377603663630573E-3    4.109072663940583E-2   -8.704245245129600E-3    1.222798781016854E-1    5.099025907929376E-1
 6.565248452000000E9     1.111382169669231E-2    5.673241116143595E-1    4.212862087794400E-2   -8.405842643161684E-3    4.151281547713541E-2   -9.047278171901476E-3    1.237265742186723E-1    5.096444809137080E-1
 6.565263054250000E9     1.234150549197203E-2    5.672356941491533E-1    4.241478796942784E-2   -8.751641132900787E-3    4.182710911862563E-2   -9.239810272233527E-3    1.254949371386314E-1    5.091758817029046E-1
 6.565277656500000E9     1.367858843073088E-2    5.671271549445248E-1    4.273589182323433E-2   -8.811651855733179E-3    4.212913356852267E-2   -9.449366934422424E-3    1.270191462400332E-1    5.087241118351405E-1
 6.565292258750000E9     1.482171446160266E-2    5.670780650738462E-1    4.311336290826722E-2   -8.995176461701775E-3    4.239424211765618E-2   -9.717451058431567E-3    1.285258798726347E-1    5.083557522784435E-1
 6.565306861000000E9     1.611645763639951E-2    5.670061107108167E-1    4.348461591126940E-2   -9.309680561028719E-3    4.269698307164953E-2   -9.809417452623048E-3    1.300990340834156E-1    5.077108812877957E-1
 6.565321463250000E9     1.737582299862033E-2    5.669339526309796E-1    4.384380284433588E-2   -9.672689678006524E-3    4.306654248790387E-2   -1.013784218696014E-2    1.319063830912013E-1    5.072549256161945E-1
 6.565336065500000E9     1.868014542806001E-2    5.668028150023645E-1    4.406269862174891E-2   -9.737408275005488E-3    4.342926478432220E-2   -1.040671225316907E-2    1.333608191430821E-1    5.067472783378503E-1
 6.565350667750000E9     1.989942214920764E-2    5.666072650191997E-1    4.439705528289626E-2   -1.000822190433782E-2    4.363645213256762E-2   -1.064813333864867E-2    1.349684369770931E-1    5.064495064670866E-1
 6.565365270000000E9     2.121071015840140E-2    5.665636005411556E-1    4.485625017113327E-2   -1.026282250867171E-2    4.406793854451438E-2   -1.088649753908026E-2    1.366681291780381E-1    5.058242291641479E-1
 6.565379872250000E9     2.258710420889200E-2    5.665250213853422E-1    4.507082869063155E-2   -1.062587773680813E-2    4.451378558370619E-2   -1.114638855947050E-2    1.381981040357646E-1    5.053078148976704E-1
 6.565394474500000E9     2.375729700953543E-2    5.663781697864794E-1    4.543886261998123E-2   -1.077286838749844E-2    4.477400073754807E-2   -1.130681183362927E-2    1.399678309418094E-1    5.046898981909226E-1
