#  HZ   S   RI   R     50.00 
! Rohde & Schwarz Vector Network Analyzer 
! Rohde-Schwarz,ZNB20-2Port,1311601062101988,3.16
! Created: UTC 3/20/2024, 4:53:58 PM
! freq[Hz]                re:S11                  im:S11                  re:S21                  im:S21                  re:S12                  im:S12                  re:S22                  im:S22
 6.564463229000000E9    -5.407277493622645E-2    5.667828954952990E-1    2.935561980317928E-2   -7.384180576664784E-4    2.885088511028949E-2   -1.340817876225137E-3    4.794522922388771E-2    5.264615036113561E-1
 6.564476239550000E9    -5.291798096798390E-2    5.669303876347839E-1    2.942411095303550E-2   -8.902536493315981E-4    2.886964847830496E-2   -1.343969263667327E-3    4.911146232431017E-2    5.262154126143526E-1
 6.564489250100000E9    -5.192817888529217E-2    5.669580684472405E-1    2.959531853169910E-2   -9.988913871876916E-4    2.910442304375223E-2   -1.599071163570246E-3    5.023753108215639E-2    5.262473810314331E-1
 6.564502260650000E9    -5.095798781147141E-2    5.671057411636703E-1    2.975517332946375E-2   -1.070234111135333E-3    2.925114428901858E-2   -1.527195579833261E-3    5.147262911231233E-2    5.260838090451865E-1
 6.564515271200000E9    -5.002919787040697E-2    5.671774541787495E-1    2.996028719604687E-2   -1.155816525871929E-3    2.933288632788671E-2   -1.608202622960240E-3    5.256061099702006E-2    5.259261342979654E-1
 6.564528281750000E9    -4.884195868622445E-2    5.672744005694141E-1    2.991417014328321E-2   -1.231267731372811E-3    2.942788707394204E-2   -1.698172600003577E-3    5.384535199865715E-2    5.257758880323709E-1
 6.564541292300000E9    -4.777309160180209E-2    5.672910238101259E-1    3.021248192949950E-2   -1.339534125649668E-3    2.962097148635620E-2   -1.765301905134344E-3    5.493206612118172E-2    5.258054904971048E-1
 6.564554302850000E9    -4.674460645394404E-2    5.673869041652648E-1    3.026018352230567E-2   -1.351114454633663E-3    2.993624601599930E-2   -1.883280091463101E-3    5.604093360164808E-2    5.256525650587045E-1
 6.564567313400000E9    -4.576623263055121E-2    5.674572919635333E-1    3.041691888334980E-2   -1.468056884302244E-3    2.994525197376728E-2   -2.011840562519317E-3    5.734123434169168E-2    5.256120429526723E-1
 6.564580323950000E9    -4.468865706726431E-2    5.674203893364785E-1    3.071567857899052E-2   -1.547675280242301E-3    3.014234856213072E-2   -1.988659051833010E-3    5.835825841187030E-2    5.253794095256865E-1
 6.564593334500000E9    -4.365916629041852E-2    5.675345733489039E-1    3.075545188118349E-2   -1.633351011910777E-3    3.021034177487943E-2   -2.241550469516537E-3    5.959354812493658E-2    5.252566788658237E-1
 6.564606345050000E9    -4.260314768226640E-2    5.676775027542657E-1    3.100524121119146E-2   -1.841301924396424E-3    3.054300291364627E-2   -2.261201815527604E-3    6.085379581628770E-2    5.251698441669308E-1
 6.564619355600000E9    -4.141722013738280E-2    5.678140017337704E-1    3.115652107970949E-2   -1.731281993816604E-3    3.055138207717960E-2   -2.209697986347234E-3    6.199144720578157E-2    5.250142916359188E-1
 6.564632366150000E9    -4.051977937662046E-2    5.678464182953348E-1    3.119799824093588E-2   -1.928396238416398E-3    3.056934547194715E-2   -2.492465781553670E-3    6.317101842023203E-2    5.247819123269680E-1
 6.564645376700000E9    -3.934997785073122E-2    5.677920461629922E-1    3.157319371496627E-2   -2.056030107206459E-3    3.090080763675566E-2   -2.522455179139328E-3    6.441347194761442E-2    5.246817876862847E-1
 6.564658387250000E9    -3.831352763471917E-2    5.678405609274745E-1    3.157542223784232E-2   -1.998971484990811E-3    3.110266472916352E-2   -2.466147714491781E-3    6.549769246903424E-2    5.247401354134973E-1
 6.564671397800000E9    -3.735289116654766E-2    5.679443104194780E-1    3.184718341974633E-2   -2.198749809971797E-3    3.122081854864783E-2   -2.701681922364516E-3    6.682494286764354E-2    5.244650225770495E-1
 6.564684408350000E9    -3.637055541184318E-2    5.681110539817724E-1    3.189989079928210E-2   -2.380601400486786E-3    3.134870126108388E-2   -2.771501483864780E-3    6.799479948526256E-2    5.242897762267198E-1
 6.564697418900000E9    -3.525901651467155E-2    5.681739746491650E-1    3.216341563124018E-2   -2.390961028644752E-3    3.157483340245161E-2   -2.874429869266647E-3    6.911488987821875E-2    5.240789262574981E-1
 6.564710429450000E9    -3.423002681892268E-2    5.681459905940943E-1    3.230037421038648E-2   -2.427579195304763E-3    3.168437567086977E-2   -2.906526921542489E-3    7.035252186221394E-2    5.241361541365461E-1
 6.564723440000000E9    -3.303621289349151E-2    5.682796835883187E-1    3.239273152991797E-2   -2.373686944859718E-3    3.191413681819408E-2   -3.072904404283542E-3    7.157554425047859E-2    5.240377408792508E-1
 6.564736450550000E9    -3.210350197731258E-2    5.683417935735273E-1    3.256398958692371E-2   -2.652439098772308E-3    3.208458853708925E-2   -3.096763409021017E-3    7.260741646107469E-2    5.238168170411501E-1
 6.564749461100000E9    -3.095342878681754E-2    5.683050732608597E-1    3.282832339789733E-2   -2.627482138788044E-3    3.226182624292888E-2   -3.176354996742372E-3    7.411165097949099E-2    5.235901989945213E-1
 6.564762471650000E9    -2.996887637644567E-2    5.683537591238170E-1    3.300714044943474E-2   -2.677978382174843E-3    3.246371135110161E-2   -3.316402072001278E-3    7.524498638916076E-2    5.234057107042629E-1
 6.564775482200000E9    -2.892466843462094E-2    5.683827342266604E-1    3.305361925730653E-2   -2.772051887579459E-3    3.251756377675036E-2   -3.286179578354629E-3    7.643771483496865E-2    5.232793369915699E-1
 6.564788492750000E9    -2.778800253395764E-2    5.684170794082058E-1    3.320121226134837E-2   -2.889176660590685E-3    3.283719815635418E-2   -3.466415364926117E-3    7.767324676799957E-2    5.232362760971209E-1
 6.564801503300000E9    -2.674536668624136E-2    5.684722214647880E-1    3.350651317442529E-2   -3.002702769372700E-3    3.283554945637863E-2   -3.580811796991718E-3    7.880024468104131E-2    5.227771587048811E-1
 6.564814513850000E9    -2.560537263056616E-2    5.684256428800074E-1    3.360471495545916E-2   -3.086285361588225E-3    3.304681955960450E-2   -3.664707241379708E-3    8.004423602004365E-2    5.225092329669218E-1
 6.564827524400000E9    -2.457381659345536E-2    5.685177314451358E-1    3.383343038447419E-2   -3.283246789355883E-3    3.325637680420359E-2   -3.796842507688017E-3    8.142104583094786E-2    5.225051279097982E-1
 6.564840534950000E9    -2.355438443495923E-2    5.685234343718144E-1    3.400782394792039E-2   -3.304459254761486E-3    3.350937969964627E-2   -3.893290863331817E-3    8.254353308653802E-2    5.223691648642887E-1
 6.564853545500000E9    -2.250846691953196E-2    5.685013139901745E-1    3.413918286541408E-2   -3.470879944454704E-3    3.376906149972807E-2   -3.904262395213363E-3    8.365327895795904E-2    5.220685542026868E-1
 6.564866556050000E9    -2.138566462080578E-2    5.686164269012070E-1    3.425169431360019E-2   -3.413969367028204E-3    3.378551693690932E-2   -4.111773592901145E-3    8.493512662886460E-2    5.219858754693095E-1
 6.564879566600000E9    -2.030766190704152E-2    5.686463460847087E-1    3.450716844844295E-2   -3.669638219960887E-3    3.401495469993401E-2   -4.229641822817786E-3    8.619158177723854E-2    5.217521568052401E-1
 6.564892577150000E9    -1.925805861133929E-2    5.686761107109114E-1    3.483688360462590E-2   -3.652481413272648E-3    3.434155464463109E-2   -4.243518635719178E-3    8.751199679488629E-2    5.214256337435395E-1
 6.564905587700000E9    -1.837638385307583E-2    5.686504175503085E-1    3.508630855372220E-2   -3.818494148537857E-3    3.448025112614585E-2   -4.323439761881362E-3    8.878028883815656E-2    5.213084544445077E-1
 6.564918598250000E9    -1.711194763902163E-2    5.686225324657403E-1    3.522611850637539E-2   -3.908334504826050E-3    3.460772696504998E-2   -4.556361902225498E-3    8.993375255963837E-2    5.210073774589958E-1
 6.564931608800000E9    -1.602018296483844E-2    5.687503876799371E-1    3.542112126524852E-2   -4.159592811304257E-3    3.481676891095586E-2   -4.606245886669883E-3    9.119998816253565E-2    5.207986416164538E-1
 6.564944619350000E9    -1.511729908518072E-2    5.686998982158760E-1    3.564737609967544E-2   -4.106070375573776E-3    3.502124439951632E-2   -4.759648178907707E-3    9.252512003960288E-2    5.206765033662504E-1
 6.564957629900000E9    -1.392546487694282E-2    5.687788581818218E-1    3.586280514472340E-2   -4.294602117709379E-3    3.520966065392042E-2   -4.790339957136127E-3    9.379630343039125E-2    5.202748065750601E-1
 6.564970640450000E9    -1.277249790153425E-2    5.687375117416562E-1    3.609741152716624E-2   -4.517398254094079E-3    3.538609602393350E-2   -4.958343857985418E-3    9.501115003524382E-2    5.201772823780531E-1
 6.564983651000000E9    -1.170570009823340E-2    5.687540641406332E-1    3.619780422193910E-2   -4.744175856012916E-3    3.571725164956407E-2   -5.068946380911521E-3    9.641273296144087E-2    5.199007781494787E-1
 6.564996661550000E9    -1.069970280349675E-2    5.687257919350743E-1    3.652002111050905E-2   -4.652058894155430E-3    3.586060883913899E-2   -5.270992657273673E-3    9.759060419472833E-2    5.197250044667379E-1
 6.565009672100000E9    -9.548124616471998E-3    5.686596527396763E-1    3.676153322700389E-2   -4.854950950107787E-3    3.607968821167702E-2   -5.368959699332127E-3    9.899455066242968E-2    5.195217109693578E-1
 6.565022682650000E9    -8.455961073812102E-3    5.686637443492589E-1    3.696229083377731E-2   -4.942782903171140E-3    3.622760325066383E-2   -5.449968131308387E-3    1.002517345704392E-1    5.191019923422281E-1
 6.565035693200000E9    -7.352248203628533E-3    5.686611159208196E-1    3.700254367156203E-2   -5.071954835032643E-3    3.646036212563152E-2   -5.605743930597487E-3    1.014247140769203E-1    5.187909203186959E-1
 6.565048703750000E9    -6.348431660967252E-3    5.686702108614559E-1    3.729600043345569E-2   -5.240642984817591E-3    3.667391254946256E-2   -5.735984925553285E-3    1.027446715689527E-1    5.187558196101653E-1
 6.565061714300000E9    -5.182428514629798E-3    5.686533096651833E-1    3.766253338763439E-2   -5.238950160996775E-3    3.702243368464682E-2   -5.819929184218282E-3    1.041072440095474E-1    5.184686359310433E-1
 6.565074724850000E9    -4.060555505818392E-3    5.686197407166603E-1    3.777989951481622E-2   -5.307937373040883E-3    3.708087670294476E-2   -5.892685062565807E-3    1.055530579462163E-1    5.180588303979676E-1
 6.565087735400000E9    -2.981188373853023E-3    5.686974525677327E-1    3.802865548692690E-2   -5.578438542249002E-3    3.736687486219771E-2   -6.096740274314295E-3    1.067138543552503E-1    5.177831316750298E-1
 6.565100745950000E9    -1.942473945097809E-3    5.686537594745910E-1    3.823327692758649E-2   -5.634006106995514E-3    3.753719836152806E-2   -6.291178666749475E-3    1.080280789927926E-1    5.175294530394631E-1
 6.565113756500000E9    -8.873428513538230E-4    5.686189427651882E-1    3.853754975397979E-2   -5.793143917254115E-3    3.778658870917848E-2   -6.358180579439575E-3    1.093749687567548E-1    5.172354692425274E-1
 6.565126767050000E9     2.217199871037778E-4    5.685837340581632E-1    3.866727581904978E-2   -5.900876680067590E-3    3.812736753535306E-2   -6.439019300584319E-3    1.108036307843746E-1    5.170393265308532E-1
 6.565139777600000E9     1.348886069805291E-3    5.685803943231967E-1    3.895868449369002E-2   -6.141033906329088E-3    3.826484263050065E-2   -6.582019110502337E-3    1.119514855708619E-1    5.166830991858870E-1
 6.565152788150000E9     2.557027429295689E-3    5.685617829580403E-1    3.929190935062722E-2   -6.195775036831093E-3    3.857894634098837E-2   -6.792181153075547E-3    1.132217625035416E-1    5.163591801867286E-1
 6.565165798700000E9     3.499924247978003E-3    5.684679042939706E-1    3.928871194814646E-2   -6.319930109636095E-3    3.879636352922756E-2   -6.985830596680862E-3    1.147568717659204E-1    5.161468645140693E-1
 6.565178809250000E9     4.607393024610722E-3    5.686305640551285E-1    3.972947824619062E-2   -6.576097038802510E-3    3.907800918585178E-2   -7.120091678302591E-3    1.161858170861268E-1    5.156879457739957E-1
 6.565191819800000E9     5.707693216718200E-3    5.683767554576711E-1    3.988297092514766E-2   -6.658314175194402E-3    3.923232894127922E-2   -7.236513244609338E-3    1.174441204919284E-1    5.152902613010665E-1
 6.565204830350000E9     6.902429516586682E-3    5.683457395668070E-1    4.009464087398478E-2   -6.905655094738892E-3    3.960589882536097E-2   -7.371053980628072E-3    1.187624571255461E-1    5.151945061503173E-1
 6.565217840900000E9     8.062318294551330E-3    5.683680872200917E-1    4.036648488821601E-2   -7.089946593283316E-3    3.983638032513293E-2   -7.653164028477153E-3    1.201506952571687E-1    5.146916528343994E-1
 6.565230851450000E9     9.108212082016873E-3    5.681863566879662E-1    4.068196564950503E-2   -7.207031096688338E-3    4.002454358895560E-2   -7.742327317775830E-3    1.216246576358980E-1    5.142615400684969E-1
 6.565243862000000E9     1.023953463236386E-2    5.682772753266766E-1    4.116761213664572E-2   -7.302192294349052E-3    4.035202187474206E-2   -7.906271873952530E-3    1.228817883530282E-1    5.141035270708618E-1
 6.565256872550000E9     1.130848699332438E-2    5.681433748760937E-1    4.121019919822565E-2   -7.550845222912363E-3    4.053868489240558E-2   -8.024145765221400E-3    1.241473334202659E-1    5.137220763307476E-1
 6.565269883100000E9     1.245467560930939E-2    5.681409905121468E-1    4.154182274106726E-2   -7.656372549488522E-3    4.073745547321359E-2   -8.292011993506907E-3    1.257333538725228E-1    5.132284705048759E-1
 6.565282893650000E9     1.362086648490055E-2    5.680332732954002E-1    4.182910347255631E-2   -7.989903720228755E-3    4.112405819090383E-2   -8.427353613755104E-3    1.270807821164757E-1    5.129575433630059E-1
 6.565295904200000E9     1.472436010962211E-2    5.680137383961047E-1    4.204125695525030E-2   -8.081468296495243E-3    4.138850109290076E-2   -8.620017646652269E-3    1.284476323359140E-1    5.124599592398215E-1
 6.565308914750000E9     1.578747468002948E-2    5.679699309848253E-1    4.232914245743944E-2   -8.141644423176674E-3    4.169267011957352E-2   -8.852950817175183E-3    1.299363289781180E-1    5.121667935736917E-1
 6.565321925300000E9     1.698668809034056E-2    5.678404534638972E-1    4.260808245411856E-2   -8.512103297255377E-3    4.194823259704482E-2   -8.900758490968483E-3    1.313790722771860E-1    5.116866899881309E-1
 6.565334935850000E9     1.802257207266155E-2    5.677666296647418E-1    4.308305435519533E-2   -8.611359158421939E-3    4.231840944165832E-2   -9.094930433618620E-3    1.326554593761351E-1    5.113297372370731E-1
 6.565347946400000E9     1.937921958676289E-2    5.677190244052686E-1    4.329272047333877E-2   -8.645783936930785E-3    4.251623285300202E-2   -9.305670502661199E-3    1.341100155617242E-1    5.109532628639750E-1
 6.565360956950000E9     2.033562129875144E-2    5.676404880021845E-1    4.350111879311636E-2   -8.943770649782004E-3    4.273738475835352E-2   -9.532926820278922E-3    1.356604540708960E-1    5.105362331133390E-1
 6.565373967500000E9     2.145291160775873E-2    5.676335277647329E-1    4.378845325683216E-2   -9.055909262513390E-3    4.303384498311375E-2   -9.737337145920779E-3    1.370151209971837E-1    5.099771178211956E-1
 6.565386978050000E9     2.263557727128880E-2    5.675384402511530E-1    4.421132522593588E-2   -9.322022460687049E-3    4.340234634633445E-2   -9.973359547738729E-3    1.383816851677232E-1    5.097408682605743E-1
 6.565399988600000E9     2.372334305624942E-2    5.673691911940355E-1    4.441685416936722E-2   -9.582173148053690E-3    4.368749431556686E-2   -1.025757934682767E-2    1.398474941808026E-1    5.092109963067483E-1
 6.565412999150000E9     2.498308806506833E-2    5.673109995385972E-1    4.477604261947503E-2   -9.875529698126176E-3    4.408378186939722E-2   -1.039191571866551E-2    1.414516064323518E-1    5.087252876991031E-1
 6.565426009700000E9     2.612680544578441E-2    5.671074875270827E-1    4.531360468016409E-2   -9.832863492767621E-3    4.426349277555498E-2   -1.048130137941553E-2    1.429894883104121E-1    5.083309126645137E-1
 6.565439020250000E9     2.707290137098001E-2    5.671179702843906E-1    4.539972747187739E-2   -1.021349542777336E-2    4.473205470251083E-2   -1.080900540849891E-2    1.443628616175243E-1    5.078237668544614E-1
 6.565452030800000E9     2.827882518034648E-2    5.669320009433070E-1    4.568259390562923E-2   -1.040078444882923E-2    4.493620150897075E-2   -1.086666904115636E-2    1.459967529858309E-1    5.074893936866033E-1
 6.565465041350000E9     2.950151689765971E-2    5.669629019105897E-1    4.606361839006939E-2   -1.062441887897703E-2    4.527976585333328E-2   -1.125694822329773E-2    1.473837087534636E-1    5.068252007082386E-1
 6.565478051900000E9     3.055332915552157E-2    5.668484995548503E-1    4.640861566416238E-2   -1.094313786817859E-2    4.556002649758381E-2   -1.139410673821001E-2    1.489898065490949E-1    5.063253741322722E-1
 6.565491062450000E9     3.180090653920831E-2    5.665687587084549E-1    4.684561362689690E-2   -1.103856280367790E-2    4.592882678823114E-2   -1.165035606549001E-2    1.504509055790030E-1    5.059057803101734E-1
 6.565504073000000E9     3.291667779251801E-2    5.665572887395528E-1    4.710661800200534E-2   -1.120265792584215E-2    4.634960395546725E-2   -1.179350666937412E-2    1.517670330660955E-1    5.053584060469375E-1
 6.565517083550000E9     3.406956581481579E-2    5.664378237106357E-1    4.734178700265933E-2   -1.157558882179195E-2    4.660020491901196E-2   -1.212980991448702E-2    1.534537205973605E-1    5.047430354647755E-1
 6.565530094100000E9     3.520425541746090E-2    5.662384416001190E-1    4.783270800709154E-2   -1.187448259773259E-2    4.699219723713242E-2   -1.235772684107963E-2    1.549048393728939E-1    5.042722012831388E-1
 6.565543104650000E9     3.641977629286374E-2    5.661818728122189E-1    4.805616080654512E-2   -1.199366477637280E-2    4.737124546821852E-2   -1.262887384432078E-2    1.564117463175981E-1    5.037213494761356E-1
 6.565556115200000E9     3.766402220042654E-2    5.659967786576219E-1    4.849117839211655E-2   -1.229287079092769E-2    4.773086390527733E-2   -1.292109407895885E-2    1.580790187658154E-1    5.031166488122782E-1
 6.565569125750000E9     3.880877327478550E-2    5.658092941024414E-1    4.880908976976099E-2   -1.260208840132336E-2    4.807898147871684E-2   -1.325948744847242E-2    1.595324139879277E-1    5.027044527388396E-1
 6.565582136300000E9     3.982088108118058E-2    5.657859823649698E-1    4.922610033096651E-2   -1.277795595918818E-2    4.842756165139318E-2   -1.344639859420504E-2    1.612494283828783E-1    5.020401658048879E-1
 6.565595146850000E9     4.110239111359743E-2    5.655707803881417E-1    4.965149145132942E-2   -1.301969296230475E-2    4.878815841368526E-2   -1.369082824455311E-2    1.627307276187544E-1    5.015183880153835E-1
 6.565608157400000E9     4.236197637578309E-2    5.653307088844468E-1    5.010552963945483E-2   -1.334353070015408E-2    4.915375938801519E-2   -1.392024389804289E-2    1.643449487888956E-1    5.008492141551714E-1
 6.565621167950000E9     4.364978334575948E-2    5.652011829880845E-1    5.037656147017298E-2   -1.361046198224422E-2    4.941055670658624E-2   -1.431638664403051E-2    1.660562346500831E-1    5.000959049197402E-1
 6.565634178500000E9     4.467255969431543E-2    5.650653910384381E-1    5.075607933735664E-2   -1.384394997321430E-2    4.990934634128683E-2   -1.453772263805022E-2    1.676187746697223E-1    4.995521402869470E-1
