#  HZ   S   RI   R     50.00 
! Rohde & Schwarz Vector Network Analyzer 
! Rohde-Schwarz,ZNB20-2Port,1311601062101988,3.16
! Created: UTC 3/20/2024, 4:54:03 PM
! freq[Hz]                re:S11                  im:S11                  re:S21                  im:S21                  re:S12                  im:S12                  re:S22                  im:S22
 6.564460184000000E9    -5.430686015119832E-2    5.668083923018421E-1    2.922312077909303E-2   -7.014227531232477E-4    2.879670059258165E-2   -1.336833306158407E-3    4.769410458321886E-2    5.263057662339115E-1
 6.564473204375000E9    -5.320659186844560E-2    5.668791476019809E-1    2.941521535695642E-2   -9.961089615848557E-4    2.898641441760852E-2   -1.397894056507703E-3    4.886352642103092E-2    5.262459989969367E-1
 6.564486224750000E9    -5.220498683636145E-2    5.669653464171851E-1    2.950423578705898E-2   -1.181430825134236E-3    2.904426612355052E-2   -1.519922794357337E-3    4.998223117186427E-2    5.262131437609553E-1
 6.564499245125000E9    -5.123138406481160E-2    5.669541950543834E-1    2.983987697556453E-2   -1.071988631887896E-3    2.915950060733718E-2   -1.548850204652286E-3    5.124062991492343E-2    5.260527286105090E-1
 6.564512265500000E9    -5.010804234654638E-2    5.671425643167176E-1    2.997860766597255E-2   -1.088533663130247E-3    2.936231223697323E-2   -1.645864319666472E-3    5.245734638538593E-2    5.259686002393571E-1
 6.564525285875000E9    -4.906231180419682E-2    5.671947450708300E-1    2.998978207925607E-2   -1.212461015954152E-3    2.955718486692134E-2   -1.725079822248240E-3    5.349962072532128E-2    5.257743300093386E-1
 6.564538306250000E9    -4.809441975257314E-2    5.672099759158955E-1    3.016780619942068E-2   -1.287217441136694E-3    2.965127023459020E-2   -1.778082793724198E-3    5.458679343568497E-2    5.257275456440044E-1
 6.564551326625000E9    -4.703679666122193E-2    5.673262378953849E-1    3.028834400940338E-2   -1.523391311406340E-3    2.978053785980228E-2   -1.872231704294406E-3    5.587279994767694E-2    5.256968515091475E-1
 6.564564347000000E9    -4.607494431691435E-2    5.673484093722089E-1    3.047294114215878E-2   -1.387322956449013E-3    3.001159356746516E-2   -1.990228361184413E-3    5.700032026179171E-2    5.254591054252399E-1
 6.564577367375000E9    -4.486806503222177E-2    5.674610032633312E-1    3.066790389603031E-2   -1.528350986354292E-3    3.012254471981134E-2   -2.100856530459743E-3    5.824358661010039E-2    5.254206029319221E-1
 6.564590387750000E9    -4.388665238987672E-2    5.676093741695649E-1    3.080457275969191E-2   -1.633813802654984E-3    3.019724707684322E-2   -2.118745591386100E-3    5.926550819422462E-2    5.251776717275382E-1
 6.564603408125000E9    -4.287129952168237E-2    5.675995921149405E-1    3.089777834399531E-2   -1.743196648443457E-3    3.044328375044359E-2   -2.202743806571649E-3    6.058909680797785E-2    5.251380526343745E-1
 6.564616428500000E9    -4.170202945833801E-2    5.678356930486513E-1    3.117975964358685E-2   -1.773296577657417E-3    3.055486530721521E-2   -2.320315834210962E-3    6.173952873299868E-2    5.250893016348612E-1
 6.564629448875000E9    -4.072268268018550E-2    5.678103968052184E-1    3.128713233179193E-2   -1.893203490432268E-3    3.072493983320495E-2   -2.287663439468143E-3    6.292040703163278E-2    5.249613462580328E-1
 6.564642469250000E9    -3.966772841695795E-2    5.678150165346044E-1    3.140822014448950E-2   -2.066743125506785E-3    3.094310458900654E-2   -2.463053265544268E-3    6.412736148000131E-2    5.247743103973191E-1
 6.564655489625000E9    -3.864932339227275E-2    5.680200535096007E-1    3.168012990505111E-2   -1.976077910662105E-3    3.096919056491584E-2   -2.546507068223138E-3    6.524410481297876E-2    5.246671856064431E-1
 6.564668510000000E9    -3.757278666579144E-2    5.679666712912456E-1    3.177830817218567E-2   -2.226673704811381E-3    3.118855625186111E-2   -2.622615042588095E-3    6.644184735900074E-2    5.245224874254336E-1
 6.564681530375000E9    -3.654808955218387E-2    5.681038599784674E-1    3.186831051304038E-2   -2.208869091619813E-3    3.145343625191100E-2   -2.760775680584917E-3    6.765813559064152E-2    5.245210163027330E-1
 6.564694550750000E9    -3.541127336136939E-2    5.680450329635184E-1    3.214238266923607E-2   -2.252811603431350E-3    3.153170324059805E-2   -2.776794435412905E-3    6.882256442195790E-2    5.242295090469389E-1
 6.564707571125000E9    -3.433348682460942E-2    5.681270872756700E-1    3.233141852262362E-2   -2.306544400378994E-3    3.167331723649514E-2   -2.828270987865981E-3    7.015255298616563E-2    5.240805440152769E-1
 6.564720591500000E9    -3.334318587496533E-2    5.682012299789334E-1    3.235589945299923E-2   -2.484283969803153E-3    3.183995613294404E-2   -2.975949330757467E-3    7.124093128215779E-2    5.239069924433881E-1
 6.564733611875000E9    -3.236937060719473E-2    5.682366912414550E-1    3.260220635475591E-2   -2.550158472304894E-3    3.206016750843201E-2   -3.004001722037335E-3    7.252046365427832E-2    5.237292285812093E-1
 6.564746632250000E9    -3.123997125555743E-2    5.683300171963170E-1    3.275683308007103E-2   -2.555332679275879E-3    3.226569990386808E-2   -3.074802917559157E-3    7.367677227254128E-2    5.236425522494862E-1
 6.564759652625000E9    -3.020950601818527E-2    5.684244490546789E-1    3.282558322386581E-2   -2.689326135534233E-3    3.237023487764034E-2   -3.344383973990277E-3    7.488055930513871E-2    5.234836176203118E-1
 6.564772673000000E9    -2.909970506983919E-2    5.683318803796404E-1    3.317791985704858E-2   -2.717289020973537E-3    3.245254051649064E-2   -3.325629623844160E-3    7.608834086761602E-2    5.231556736356494E-1
 6.564785693375000E9    -2.793694528198579E-2    5.683575729212342E-1    3.329580979461613E-2   -3.046113912944034E-3    3.275712655995291E-2   -3.498037048406533E-3    7.739149614750265E-2    5.230991564176912E-1
 6.564798713750000E9    -2.693985244391605E-2    5.684628880569467E-1    3.345625283470533E-2   -2.947200968622943E-3    3.289429137807439E-2   -3.517095044628694E-3    7.857888978711865E-2    5.229438572370522E-1
 6.564811734125000E9    -2.573531927346933E-2    5.685398254566643E-1    3.371820249264891E-2   -3.106208409986843E-3    3.306393488295048E-2   -3.587237012175491E-3    7.978358026347543E-2    5.226561491853098E-1
 6.564824754500000E9    -2.484405097016069E-2    5.685326961106459E-1    3.383907889732631E-2   -3.140755824246288E-3    3.324884632372224E-2   -3.782226541483750E-3    8.109847392509061E-2    5.224535899670910E-1
 6.564837774875000E9    -2.386011497250415E-2    5.686025974267815E-1    3.395136009233653E-2   -3.349237665223304E-3    3.344885336960531E-2   -3.889574695405921E-3    8.224049106906074E-2    5.224480898724655E-1
 6.564850795250000E9    -2.263211415165544E-2    5.685355664811402E-1    3.413651614300633E-2   -3.408006097473323E-3    3.366780152559955E-2   -4.000557858730820E-3    8.353797395631443E-2    5.220222288537485E-1
 6.564863815625000E9    -2.170379215130625E-2    5.685813030402501E-1    3.439578537419727E-2   -3.461177892029192E-3    3.384326703372822E-2   -4.074151087177183E-3    8.480917798415799E-2    5.219733667380851E-1
 6.564876836000000E9    -2.050689739439008E-2    5.686006294623022E-1    3.458669243736942E-2   -3.581908629986125E-3    3.406092021508310E-2   -4.189483037272559E-3    8.598253326409175E-2    5.217599610118356E-1
 6.564889856375000E9    -1.946609134769437E-2    5.685217484430954E-1    3.475155538883323E-2   -3.778298373372858E-3    3.420611481675784E-2   -4.318614181454987E-3    8.717786492887683E-2    5.216011954391361E-1
 6.564902876750000E9    -1.843701165331147E-2    5.685856618828409E-1    3.501204404587666E-2   -3.887813607106548E-3    3.444236200172014E-2   -4.389525337062075E-3    8.855748179754422E-2    5.212578325070613E-1
 6.564915897125000E9    -1.729564422898223E-2    5.686984404708647E-1    3.512920762050789E-2   -4.057482491909386E-3    3.461482482889543E-2   -4.498212141849916E-3    8.976076975597107E-2    5.210913722397175E-1
 6.564928917500000E9    -1.632411493157647E-2    5.685726311049952E-1    3.543135990985080E-2   -4.088260557058632E-3    3.482516956260867E-2   -4.615211474918649E-3    9.113624858824038E-2    5.208950468877352E-1
 6.564941937875000E9    -1.515424372953606E-2    5.686812887819809E-1    3.561547871094481E-2   -4.183107936386846E-3    3.513295662335327E-2   -4.780405809393284E-3    9.237390084926289E-2    5.206211876320976E-1
 6.564954958250000E9    -1.408605850056725E-2    5.686661577992967E-1    3.572923751785037E-2   -4.178244714331552E-3    3.525239915947988E-2   -4.846301829900278E-3    9.363170560417718E-2    5.203389288250813E-1
 6.564967978625000E9    -1.297660405521016E-2    5.687776324946382E-1    3.604935982132475E-2   -4.544921714436589E-3    3.537629896208977E-2   -4.996221161702334E-3    9.484646990463284E-2    5.201073910492136E-1
 6.564980999000000E9    -1.194977043993685E-2    5.686777776519386E-1    3.628729606252089E-2   -4.664999974859792E-3    3.559681007638821E-2   -5.091787971658233E-3    9.619002106163661E-2    5.198831522594051E-1
 6.564994019375000E9    -1.090171796059190E-2    5.687996822871358E-1    3.641002793420230E-2   -4.800551756777949E-3    3.584310629679852E-2   -5.163970157471052E-3    9.738848798780599E-2    5.196356222639520E-1
 6.565007039750000E9    -9.828150162733794E-3    5.687244409387409E-1    3.664927345092406E-2   -4.692579211807065E-3    3.601477006237017E-2   -5.308145256814057E-3    9.872219498170155E-2    5.194344912113882E-1
 6.565020060125000E9    -8.714067067881906E-3    5.686957062655211E-1    3.683745399827505E-2   -4.967253855157058E-3    3.627690681661401E-2   -5.456121443278616E-3    9.986193598270250E-2    5.192606192967606E-1
 6.565033080500000E9    -7.638766074413165E-3    5.686520546920122E-1    3.707680843321007E-2   -4.981988836778841E-3    3.640055527755507E-2   -5.583838282440239E-3    1.013436000459075E-1    5.189325312578046E-1
 6.565046100875000E9    -6.517504209480399E-3    5.687608094149179E-1    3.734749125992200E-2   -5.179055874177788E-3    3.662480267358360E-2   -5.674045691058096E-3    1.025567216831776E-1    5.186000301041817E-1
 6.565059121250000E9    -5.468796056338385E-3    5.686577732597045E-1    3.752196300370368E-2   -5.281064014025306E-3    3.686234305629261E-2   -5.879785272510777E-3    1.039214659542580E-1    5.183824651946114E-1
 6.565072141625000E9    -4.272511252015252E-3    5.686739890380851E-1    3.785108378360263E-2   -5.396726057905795E-3    3.713018948761992E-2   -5.967331872795611E-3    1.051627583971798E-1    5.181289346991835E-1
 6.565085162000000E9    -3.268233798361740E-3    5.686355688486568E-1    3.806182626351693E-2   -5.641177846818242E-3    3.736616550042301E-2   -6.163942359820262E-3    1.064532511065259E-1    5.177015126074986E-1
 6.565098182375000E9    -2.266969084388604E-3    5.686387855965200E-1    3.819729764378412E-2   -5.607026854303071E-3    3.758353856889426E-2   -6.146235951472836E-3    1.078673551789432E-1    5.175243054761738E-1
 6.565111202750000E9    -9.956007695471494E-4    5.685473578426290E-1    3.828528011941825E-2   -5.861853010293606E-3    3.771955802067216E-2   -6.412090498003235E-3    1.090825711467836E-1    5.171631382643861E-1
 6.565124223125000E9     5.878138895266672E-5    5.685973480847045E-1    3.852113077056502E-2   -6.028349116944658E-3    3.792355573398627E-2   -6.389461220423109E-3    1.104196667085909E-1    5.168987123489496E-1
 6.565137243500000E9     1.167493503227531E-3    5.685432392143192E-1    3.879551032661678E-2   -6.079942284599687E-3    3.827889367467305E-2   -6.772847203862241E-3    1.117832510279110E-1    5.167332762951670E-1
 6.565150263875000E9     2.185693053017790E-3    5.684982652233684E-1    3.921824960181248E-2   -6.251064468642193E-3    3.843641809856533E-2   -6.808636622732688E-3    1.132062707519856E-1    5.162443483298446E-1
 6.565163284250000E9     3.387223236219602E-3    5.685329596572524E-1    3.941372808500135E-2   -6.348035087759741E-3    3.876933140191577E-2   -7.064220388459491E-3    1.145108433476799E-1    5.160128693765902E-1
 6.565176304625000E9     4.447770871099715E-3    5.684815048130923E-1    3.964268906238627E-2   -6.547086149915701E-3    3.899524157969823E-2   -7.045515441033410E-3    1.159707531840249E-1    5.155562115043577E-1
 6.565189325000000E9     5.572870232915401E-3    5.683821932244898E-1    3.999422117464015E-2   -6.847596088529378E-3    3.918370703920446E-2   -7.232796689439612E-3    1.172324308221024E-1    5.154812577934957E-1
 6.565202345375000E9     6.506426988978543E-3    5.682877217118082E-1    4.016373311381692E-2   -6.844804569449811E-3    3.943881637889354E-2   -7.393382859360941E-3    1.186183469751342E-1    5.150680391392174E-1
 6.565215365750000E9     7.741798229691859E-3    5.682168390850492E-1    4.040317828798824E-2   -6.962858712384790E-3    3.974398107981478E-2   -7.478894450607771E-3    1.198365061613677E-1    5.147509643310296E-1
 6.565228386125000E9     8.940186231965035E-3    5.683572764114119E-1    4.084637981307920E-2   -7.089704365498016E-3    4.013394483063844E-2   -7.719168424277691E-3    1.212988179646835E-1    5.143542912021610E-1
 6.565241406500000E9     9.973224260023877E-3    5.681779216657687E-1    4.092250353328698E-2   -7.443594368948301E-3    4.028405890033047E-2   -7.885866097898594E-3    1.227431696289152E-1    5.142018674433324E-1
 6.565254426875000E9     1.122040214872492E-2    5.682414819255215E-1    4.127234577300676E-2   -7.501555293561629E-3    4.059261625534087E-2   -7.979791921691610E-3    1.238957064150933E-1    5.136316473360605E-1
 6.565267447250000E9     1.217758491238411E-2    5.681134466090255E-1    4.139681947096574E-2   -7.583185310884334E-3    4.082285943260576E-2   -8.237247918441644E-3    1.255908065308150E-1    5.133890053331611E-1
 6.565280467625000E9     1.333974982835469E-2    5.681532243302191E-1    4.192884120161799E-2   -7.905380071016597E-3    4.100620145997080E-2   -8.409349317304608E-3    1.268119118574946E-1    5.129474514514534E-1
 6.565293488000000E9     1.452921544916050E-2    5.679205055470137E-1    4.206103211607792E-2   -8.041745902743258E-3    4.133783153183028E-2   -8.594220194214259E-3    1.282963972570084E-1    5.125137837978033E-1
 6.565306508375000E9     1.556305777174660E-2    5.678953909200103E-1    4.239659753316847E-2   -8.052568558240471E-3    4.154667767391744E-2   -8.730467493468582E-3    1.296774066550415E-1    5.121310452364161E-1
 6.565319528750000E9     1.675081190542720E-2    5.678727297908291E-1    4.265132486363071E-2   -8.403182440214145E-3    4.186417452503471E-2   -9.036269046728785E-3    1.310654977724325E-1    5.117562147541364E-1
 6.565332549125000E9     1.799083950491160E-2    5.677683707824164E-1    4.298225246573678E-2   -8.546255542289126E-3    4.223042983555936E-2   -9.145990574658841E-3    1.324062929694720E-1    5.112885488237746E-1
 6.565345569500000E9     1.903715721669701E-2    5.676564588271710E-1    4.315685927630455E-2   -8.783612063189800E-3    4.245112419005063E-2   -9.296467950538179E-3    1.339190063729333E-1    5.109488376705393E-1
 6.565358589875000E9     2.005143501797681E-2    5.675919733604372E-1    4.346650547428482E-2   -8.903716202101099E-3    4.281382270566751E-2   -9.558488750961212E-3    1.352841050919169E-1    5.104885155533971E-1
 6.565371610250000E9     2.123386618551058E-2    5.675048952643948E-1    4.382726605919517E-2   -9.018481232271560E-3    4.304697972121503E-2   -9.649563915973318E-3    1.368204544237123E-1    5.100811795701956E-1
 6.565384630625000E9     2.238664099755464E-2    5.674040037767417E-1    4.399203473963768E-2   -9.363381888670924E-3    4.328206347799338E-2   -9.916045316429671E-3    1.382793039615419E-1    5.096597207385177E-1
 6.565397651000000E9     2.364726925512221E-2    5.674908091188864E-1    4.450723030712945E-2   -9.537870245331467E-3    4.371361238413916E-2   -1.021806626832671E-2    1.396541993753676E-1    5.092578956081270E-1
 6.565410671375000E9     2.480077886998949E-2    5.672104798053019E-1    4.464504047498354E-2   -9.833181706785710E-3    4.395012767762389E-2   -1.033800617230430E-2    1.411747608478864E-1    5.087996934918884E-1
 6.565423691750000E9     2.587580709393254E-2    5.672247055791763E-1    4.510487175860217E-2   -9.980462482980805E-3    4.423802861533432E-2   -1.054065118341390E-2    1.426527453909265E-1    5.082041659156957E-1
 6.565436712125000E9     2.697302365587850E-2    5.670790800001043E-1    4.532781028705345E-2   -1.006928481034988E-2    4.466449337809637E-2   -1.076218141540016E-2    1.442180698568394E-1    5.078617716282997E-1
 6.565449732500000E9     2.819716934523471E-2    5.668871529310596E-1    4.570645105859610E-2   -1.029774161086500E-2    4.491007300339143E-2   -1.100502356244890E-2    1.455120439004974E-1    5.075375632402990E-1
 6.565462752875000E9     2.935334589774657E-2    5.668148561877921E-1    4.589318104215932E-2   -1.055221785225940E-2    4.525161834667735E-2   -1.123158899293199E-2    1.470693452551319E-1    5.069025187920343E-1
 6.565475773250000E9     3.046657282255871E-2    5.667466629920338E-1    4.625551062540943E-2   -1.083445749018934E-2    4.552329975804335E-2   -1.145220560655991E-2    1.485915557182287E-1    5.063242302032304E-1
 6.565488793625000E9     3.168028456558477E-2    5.665929169135053E-1    4.677944288240567E-2   -1.102014737716770E-2    4.601111589542477E-2   -1.168896655041952E-2    1.501274920326079E-1    5.058727141524558E-1
 6.565501814000000E9     3.277945050573821E-2    5.665340186562307E-1    4.704744555762162E-2   -1.134664332524900E-2    4.631147371391733E-2   -1.187686999042754E-2    1.515379719289506E-1    5.053136548200429E-1
 6.565514834375000E9     3.384020954399193E-2    5.663173560022328E-1    4.733850289650116E-2   -1.161825272713451E-2    4.654149996491398E-2   -1.224862977415526E-2    1.531489381541565E-1    5.049136590931614E-1
 6.565527854750000E9     3.506655309426705E-2    5.662999083438797E-1    4.759509986106026E-2   -1.181284728563631E-2    4.691309298899156E-2   -1.243042655051452E-2    1.546986188886350E-1    5.042971258870899E-1
 6.565540875125000E9     3.630726369028445E-2    5.660826042159409E-1    4.812236703639181E-2   -1.199741014955077E-2    4.729060514401019E-2   -1.258247396457769E-2    1.562179778154572E-1    5.037622145896288E-1
 6.565553895500000E9     3.736726945649978E-2    5.659617159279713E-1    4.842172026664604E-2   -1.233353969131946E-2    4.766238554581442E-2   -1.286489341193639E-2    1.577760972086329E-1    5.032943652385768E-1
 6.565566915875000E9     3.865660848217860E-2    5.658465166501095E-1    4.886358440189154E-2   -1.248397319600709E-2    4.799001632971115E-2   -1.307779307455557E-2    1.594023962153602E-1    5.027868611877414E-1
 6.565579936250000E9     3.979457273830689E-2    5.656609395543367E-1    4.914687593313534E-2   -1.267407586657943E-2    4.839178942793577E-2   -1.349778201693642E-2    1.609719774529851E-1    5.021514295412985E-1
 6.565592956625000E9     4.094291670139147E-2    5.654631521209867E-1    4.954813687189090E-2   -1.307187922316757E-2    4.883129451529060E-2   -1.369259097068101E-2    1.626144794375713E-1    5.015703285000581E-1
 6.565605977000000E9     4.207147364498444E-2    5.653679891733745E-1    4.991616069730973E-2   -1.349301657434699E-2    4.911777811635847E-2   -1.391045328029221E-2    1.641138884683066E-1    5.009442178801918E-1
 6.565618997375000E9     4.334302809144349E-2    5.651941412425983E-1    5.039634362902496E-2   -1.369690424135980E-2    4.951121250166821E-2   -1.423852642997936E-2    1.657391420399128E-1    5.001979172489273E-1
 6.565632017750000E9     4.448796535892088E-2    5.651558974005251E-1    5.076522221108305E-2   -1.394873415896670E-2    4.980565801408895E-2   -1.442574589418301E-2    1.675077749704980E-1    4.996183699325691E-1
