#  HZ   S   RI   R     50.00 
! Rohde & Schwarz Vector Network Analyzer 
! Rohde-Schwarz,ZNB20-2Port,1311601062101988,3.16
! Created: UTC 3/20/2024, 4:54:08 PM
! freq[Hz]                re:S11                  im:S11                  re:S21                  im:S21                  re:S12                  im:S12                  re:S22                  im:S22
 6.564457263000000E9    -5.449059645248653E-2    5.667626001313214E-1    2.929053924302071E-2   -8.909027786017150E-4    2.875521310455912E-2   -1.323235838572430E-3    4.743279902882182E-2    5.263453457697014E-1
 6.564470293200000E9    -5.351263717154030E-2    5.668780847080476E-1    2.943817709564389E-2   -9.121771807486163E-4    2.892357833819718E-2   -1.366775767902878E-3    4.862936224935368E-2    5.264394264945870E-1
 6.564483323400000E9    -5.248103191719303E-2    5.669000764222071E-1    2.956887270773513E-2   -1.114198593602744E-3    2.899939400611554E-2   -1.443920867978398E-3    4.973068208737204E-2    5.261170691346287E-1
 6.564496353600000E9    -5.148789812449570E-2    5.670857877870092E-1    2.974001434276847E-2   -1.127277324311807E-3    2.914535688064473E-2   -1.581224426189124E-3    5.094289275108337E-2    5.260435804500641E-1
 6.564509383800000E9    -5.034749864054133E-2    5.670799399176513E-1    2.980986393615898E-2   -1.234843535318154E-3    2.926613120482688E-2   -1.678634187214442E-3    5.211288291282928E-2    5.259192554440172E-1
 6.564522414000000E9    -4.927906004461355E-2    5.672271162132082E-1    2.999358279642648E-2   -1.269744446409908E-3    2.942321092349933E-2   -1.730922433342843E-3    5.337662725163467E-2    5.259281785037754E-1
 6.564535444200000E9    -4.823160363463679E-2    5.671508944194397E-1    3.016516258601599E-2   -1.372271985718463E-3    2.972343763695311E-2   -1.862658448741892E-3    5.439367983147524E-2    5.259142622347380E-1
 6.564548474400000E9    -4.715874387047427E-2    5.672879071340570E-1    3.028216906165133E-2   -1.364183570189966E-3    2.975193646574425E-2   -1.951757843242512E-3    5.567933199794706E-2    5.257182425705307E-1
 6.564561504600000E9    -4.617332158378806E-2    5.673842253707577E-1    3.039396506440238E-2   -1.448008040871079E-3    2.994426914335220E-2   -1.891099600120854E-3    5.668057951652516E-2    5.256202949803366E-1
 6.564574534800000E9    -4.517861995419349E-2    5.675365982596297E-1    3.057608574322652E-2   -1.490575309076938E-3    3.016731763458341E-2   -2.070897327661399E-3    5.789653178265809E-2    5.254645447506467E-1
 6.564587565000000E9    -4.413149074514849E-2    5.675212574590829E-1    3.067488270465666E-2   -1.735707450184921E-3    3.020608212893480E-2   -2.145865950387704E-3    5.900760868463312E-2    5.252697629899797E-1
 6.564600595200000E9    -4.304563268912698E-2    5.676128608457764E-1    3.101873279564055E-2   -1.752261514008998E-3    3.043252781719393E-2   -2.177139452044062E-3    6.034349676937453E-2    5.251266304051776E-1
 6.564613625400000E9    -4.220614243894028E-2    5.676683790698493E-1    3.096088233561650E-2   -1.646275834709833E-3    3.048399883047556E-2   -2.251896239630582E-3    6.150408180815378E-2    5.250485718508053E-1
 6.564626655600000E9    -4.094642776916637E-2    5.677511636537307E-1    3.119195822342300E-2   -1.806643524718367E-3    3.081643048045444E-2   -2.395824626540854E-3    6.264958075763652E-2    5.249438644979280E-1
 6.564639685800000E9    -3.992394269098947E-2    5.678344983331067E-1    3.145618529657061E-2   -2.045559908497981E-3    3.092363860997869E-2   -2.408689535169802E-3    6.378981125906465E-2    5.249246655474652E-1
 6.564652716000000E9    -3.879421122595778E-2    5.678333442066501E-1    3.161438495453423E-2   -2.038192947712526E-3    3.110157087581242E-2   -2.496825164421289E-3    6.506012470669907E-2    5.245507388441376E-1
 6.564665746200000E9    -3.771152138478992E-2    5.679640287996787E-1    3.166070454374231E-2   -2.129935737491203E-3    3.117208272919335E-2   -2.611881304045698E-3    6.639431723339292E-2    5.244206274655747E-1
 6.564678776400000E9    -3.667716664607566E-2    5.679378427572009E-1    3.189574742490500E-2   -2.324732040818500E-3    3.136216963852777E-2   -2.697949988911807E-3    6.744381716942964E-2    5.244452160990126E-1
 6.564691806600000E9    -3.576595792609630E-2    5.681150900235119E-1    3.199425044145508E-2   -2.143358733535828E-3    3.132951618959276E-2   -2.795163853354763E-3    6.860985230948492E-2    5.243423200497648E-1
 6.564704836800000E9    -3.459332639565237E-2    5.680797158840211E-1    3.221911949760290E-2   -2.399083080926377E-3    3.176387441590055E-2   -2.955394064366422E-3    6.985897715254882E-2    5.240834498074232E-1
 6.564717867000000E9    -3.360255215782491E-2    5.681087488521337E-1    3.237527980439561E-2   -2.496569680363728E-3    3.195242922947211E-2   -2.964858970761219E-3    7.103495257277775E-2    5.238370820157128E-1
 6.564730897200000E9    -3.252865781542310E-2    5.682556926369255E-1    3.242258387712090E-2   -2.635684556326077E-3    3.207350183415499E-2   -2.929085031803350E-3    7.227302595595879E-2    5.237119147946750E-1
 6.564743927400000E9    -3.149580549623436E-2    5.682348673420865E-1    3.279054522134789E-2   -2.633310469842901E-3    3.216353407937396E-2   -3.140614563019681E-3    7.350499427335301E-2    5.235271471499124E-1
 6.564756957600000E9    -3.039206255755806E-2    5.682581871292383E-1    3.289692402818011E-2   -2.648077737527521E-3    3.229017727179172E-2   -3.263754251061597E-3    7.472954313321936E-2    5.234511680825819E-1
 6.564769987800000E9    -2.922836805695248E-2    5.683035113271176E-1    3.314417787488697E-2   -2.729120254313097E-3    3.250797199968409E-2   -3.361564362926295E-3    7.582773748628269E-2    5.231413833579494E-1
 6.564783018000000E9    -2.830075553467673E-2    5.684468120397388E-1    3.317208804513026E-2   -2.835464814069047E-3    3.265410204830234E-2   -3.441515005380280E-3    7.721509357217184E-2    5.230559973412913E-1
 6.564796048200000E9    -2.717501497759611E-2    5.685236203401776E-1    3.341805256016426E-2   -2.933659105997897E-3    3.301051606877195E-2   -3.517415352715020E-3    7.849224038882557E-2    5.229586552737668E-1
 6.564809078400000E9    -2.603665597344425E-2    5.683446120300633E-1    3.367489785206334E-2   -3.294738576604179E-3    3.298529343024283E-2   -3.553783243689766E-3    7.965715133096117E-2    5.227279345294855E-1
 6.564822108600000E9    -2.503610419568529E-2    5.685124489274135E-1    3.391680766476352E-2   -3.217621473639259E-3    3.317159017313263E-2   -3.682774837400709E-3    8.074302163010370E-2    5.225545021967777E-1
 6.564835138800000E9    -2.397792369635972E-2    5.684636160941277E-1    3.401209203282590E-2   -3.375884573824429E-3    3.337510562562779E-2   -3.887765414198675E-3    8.202847805581094E-2    5.223639945676853E-1
 6.564848169000000E9    -2.296406856608536E-2    5.684869086367933E-1    3.419776190619206E-2   -3.431502725066338E-3    3.356623211891335E-2   -3.917977098418892E-3    8.326167006387876E-2    5.221722477860470E-1
 6.564861199200000E9    -2.177996966886263E-2    5.685732582313049E-1    3.427366588514857E-2   -3.371365474188200E-3    3.383589553041318E-2   -4.005199766743427E-3    8.458904099821249E-2    5.220574987601224E-1
 6.564874229400000E9    -2.071230736912673E-2    5.686030052932759E-1    3.456083562442803E-2   -3.651264437762827E-3    3.390474040615641E-2   -4.121351286745013E-3    8.575791411929776E-2    5.217281287424881E-1
 6.564887259600000E9    -1.974161294957124E-2    5.686391076499353E-1    3.477015511391719E-2   -3.781204147153234E-3    3.414903219177508E-2   -4.305374702561500E-3    8.697028486132467E-2    5.216574786370897E-1
 6.564900289800000E9    -1.870874422792490E-2    5.686628166429971E-1    3.505558196275968E-2   -3.725428144688322E-3    3.437773989447204E-2   -4.293886294128155E-3    8.833631353699331E-2    5.214751512906437E-1
 6.564913320000000E9    -1.761156909694653E-2    5.686922998415941E-1    3.507259314540844E-2   -3.968869444378685E-3    3.454626031613465E-2   -4.402933141851806E-3    8.962275575943303E-2    5.211992274789976E-1
 6.564926350200000E9    -1.653520679374141E-2    5.686919552596902E-1    3.541633509714023E-2   -4.247578936129833E-3    3.475862823925902E-2   -4.467846351624547E-3    9.068040835785419E-2    5.208232675991998E-1
 6.564939380400000E9    -1.546414235869694E-2    5.686053823214552E-1    3.563292429787103E-2   -4.203862864695387E-3    3.493272964646610E-2   -4.729893556482499E-3    9.221926768708669E-2    5.207275324458400E-1
 6.564952410600000E9    -1.418111430675365E-2    5.687361723179581E-1    3.573716092010083E-2   -4.259843261092335E-3    3.507609892668605E-2   -4.870093215431513E-3    9.329412371378923E-2    5.204714063286523E-1
 6.564965440800000E9    -1.327689534693571E-2    5.686737513284711E-1    3.614081470608271E-2   -4.535872188228841E-3    3.538738224243304E-2   -4.967482867582923E-3    9.471617054409839E-2    5.201749373916837E-1
 6.564978471000000E9    -1.211632500061175E-2    5.686188196337020E-1    3.618041043573084E-2   -4.488384872453771E-3    3.553410012809784E-2   -5.037206510387501E-3    9.582309159973129E-2    5.199740583937539E-1
 6.564991501200000E9    -1.111790455982089E-2    5.686909561464691E-1    3.636859509280725E-2   -4.658744073385483E-3    3.577350002332629E-2   -5.211243815403340E-3    9.708554747995048E-2    5.198132330556575E-1
 6.565004531400000E9    -9.987351564276267E-3    5.686971440661697E-1    3.666545358966852E-2   -4.764910628828048E-3    3.601711467425053E-2   -5.213253992365805E-3    9.840507139924037E-2    5.195758324754359E-1
 6.565017561600000E9    -8.905122977151313E-3    5.687099181231076E-1    3.679325710843272E-2   -4.850146214620759E-3    3.623784959564696E-2   -5.427318988547843E-3    9.974690539084782E-2    5.191846831799393E-1
 6.565030591800000E9    -7.696085102149561E-3    5.687068989511967E-1    3.708238155384069E-2   -5.049254053469763E-3    3.658646138712593E-2   -5.660136905092174E-3    1.010192742086529E-1    5.188773285464648E-1
 6.565043622000000E9    -6.710055154836829E-3    5.686971336184913E-1    3.724974839598751E-2   -5.218709517529432E-3    3.673344159481509E-2   -5.709290879511519E-3    1.024410623070260E-1    5.187498355759188E-1
 6.565056652200000E9    -5.501112459835382E-3    5.687567288285572E-1    3.752727132660071E-2   -5.263784520102130E-3    3.686799618283225E-2   -5.817908836095238E-3    1.036775072155374E-1    5.184060594007744E-1
 6.565069682400000E9    -4.568665683778600E-3    5.687288879027403E-1    3.781285106311306E-2   -5.265244409875273E-3    3.716500061829767E-2   -6.030872522508286E-3    1.050256096739393E-1    5.181118933395397E-1
 6.565082712600000E9    -3.491498455627073E-3    5.686033979502522E-1    3.793129560066602E-2   -5.503314348452792E-3    3.719290747937859E-2   -6.120314470238626E-3    1.063453579430716E-1    5.179334732573019E-1
 6.565095742800000E9    -2.385709258016834E-3    5.685576674210087E-1    3.826207880874380E-2   -5.695731982952845E-3    3.752960719046092E-2   -6.263000325862504E-3    1.076535187913366E-1    5.176290429239407E-1
 6.565108773000000E9    -1.196529705990920E-3    5.685968324475604E-1    3.846046406289769E-2   -5.750602872220839E-3    3.779155097732546E-2   -6.343096427600645E-3    1.089926356014883E-1    5.173150227718192E-1
 6.565121803200000E9    -1.759708409403469E-4    5.685737701784017E-1    3.864412196775818E-2   -5.971604334702866E-3    3.807526566800070E-2   -6.487293113656952E-3    1.102761216444553E-1    5.169349724753978E-1
 6.565134833400000E9     9.709807776281450E-4    5.684890826110109E-1    3.884720162878311E-2   -6.134729231423721E-3    3.814481570623664E-2   -6.621029435107604E-3    1.115922741562768E-1    5.166516501329960E-1
 6.565147863600000E9     1.976054496636387E-3    5.685463988102878E-1    3.914350311354486E-2   -6.161258111056936E-3    3.855916972047072E-2   -6.752979785245822E-3    1.129907051091903E-1    5.164184395251287E-1
 6.565160893800000E9     3.155119944117243E-3    5.684786091972179E-1    3.930011288462222E-2   -6.354864261831937E-3    3.870167418510559E-2   -6.924874401490797E-3    1.143131055041609E-1    5.159375732779661E-1
 6.565173924000000E9     4.223597097926724E-3    5.684508549089728E-1    3.961429524757059E-2   -6.468463271380778E-3    3.899716006418329E-2   -7.168379362680764E-3    1.156511197422273E-1    5.158654631198699E-1
 6.565186954200000E9     5.419125811310444E-3    5.684164323285410E-1    3.985751846005522E-2   -6.700651241228347E-3    3.920472103751763E-2   -7.324573532300103E-3    1.168365484123536E-1    5.154864844557556E-1
 6.565199984400000E9     6.440076396488061E-3    5.683565301961213E-1    4.001625356214759E-2   -6.814442117942831E-3    3.954594166780835E-2   -7.430737964538527E-3    1.183013008815324E-1    5.149905311016463E-1
 6.565213014600000E9     7.531509393747532E-3    5.682763353019832E-1    4.039330248980692E-2   -6.971761645689887E-3    3.973839606966760E-2   -7.490859196067451E-3    1.197159100483904E-1    5.147597122369821E-1
 6.565226044800000E9     8.739163938228666E-3    5.683713167607527E-1    4.057617852080803E-2   -6.996568248325284E-3    3.994605789382050E-2   -7.826036877274583E-3    1.211536785017940E-1    5.144302749941909E-1
 6.565239075000000E9     9.775843273990005E-3    5.682059899424847E-1    4.096449016393823E-2   -7.249317375657193E-3    4.018132542851583E-2   -7.900216524126955E-3    1.224284294532058E-1    5.140896075519847E-1
 6.565252105200000E9     1.092059000483041E-2    5.681687987334562E-1    4.119660725800037E-2   -7.431295946122228E-3    4.046999946618236E-2   -8.040755709178764E-3    1.239424161661229E-1    5.135447219224141E-1
 6.565265135400000E9     1.202208789222067E-2    5.681659302305982E-1    4.150718265674951E-2   -7.681086416164823E-3    4.080235457218558E-2   -8.281670849723477E-3    1.252127669104781E-1    5.134372371311637E-1
 6.565278165600000E9     1.317346398208567E-2    5.679643256376677E-1    4.183252955282409E-2   -7.863368221837754E-3    4.099472926117208E-2   -8.409358072683670E-3    1.267208888365548E-1    5.129888181639596E-1
 6.565291195800000E9     1.419064145070539E-2    5.679808991539790E-1    4.199790760806320E-2   -8.000277986854334E-3    4.130540746569916E-2   -8.551570253976308E-3    1.279979250243084E-1    5.124784790137741E-1
 6.565304226000000E9     1.538847297052736E-2    5.679988457524332E-1    4.233698911771266E-2   -8.289580871523140E-3    4.158559741235117E-2   -8.673138620854120E-3    1.295103685217220E-1    5.120425451329050E-1
 6.565317256200000E9     1.656866540560920E-2    5.678592239345004E-1    4.262098926836033E-2   -8.444502251418214E-3    4.184153348896449E-2   -8.905293116763909E-3    1.309330633576041E-1    5.117498537172636E-1
 6.565330286400000E9     1.758444601621725E-2    5.677891579825155E-1    4.292487672932679E-2   -8.492276710271779E-3    4.217258602145308E-2   -9.101961740268448E-3    1.322840164973809E-1    5.113261241087717E-1
 6.565343316600000E9     1.875896033482587E-2    5.676941818655193E-1    4.325743664056086E-2   -8.749010382058909E-3    4.243923154095410E-2   -9.350865556486000E-3    1.335233594559617E-1    5.109795381519222E-1
 6.565356346800000E9     1.990360010120698E-2    5.676433093565912E-1    4.348117844732919E-2   -8.996003076807934E-3    4.269413108828624E-2   -9.467422010141911E-3    1.350145524993677E-1    5.106666649729740E-1
 6.565369377000000E9     2.104970205082742E-2    5.674654635397298E-1    4.361484319155749E-2   -9.183926186990198E-3    4.299083619846256E-2   -9.640245473885535E-3    1.366176175430961E-1    5.103292988109678E-1
 6.565382407200000E9     2.219266957811937E-2    5.674289563171331E-1    4.415349893758978E-2   -9.334796651295545E-3    4.331082393480229E-2   -9.873403240623142E-3    1.380466812739686E-1    5.097622722536875E-1
 6.565395437400000E9     2.341868780327738E-2    5.672736620195377E-1    4.439521149909378E-2   -9.430217729997954E-3    4.361938147563613E-2   -1.011501908818914E-2    1.396011833974015E-1    5.092576034392763E-1
 6.565408467600000E9     2.436560525822460E-2    5.672594765558381E-1    4.469475218581130E-2   -9.775246005541331E-3    4.393765829368117E-2   -1.028615959552252E-2    1.409946824770909E-1    5.088560373718800E-1
 6.565421497800000E9     2.569668703091936E-2    5.671515035741891E-1    4.509204025141799E-2   -1.004452948322698E-2    4.424394462915413E-2   -1.049057909014665E-2    1.424518298024620E-1    5.084117380739902E-1
 6.565434528000000E9     2.671607418905420E-2    5.670417164820828E-1    4.528713171702005E-2   -1.022585682824335E-2    4.452652241280749E-2   -1.072707451249907E-2    1.439689200088052E-1    5.079893455473178E-1
 6.565447558200000E9     2.793070986492125E-2    5.668841312599352E-1    4.569326914207526E-2   -1.031976403931259E-2    4.489141104924275E-2   -1.103532494760777E-2    1.455326143139612E-1    5.074970621228887E-1
 6.565460588400000E9     2.906893039998543E-2    5.669383900556610E-1    4.604869826032627E-2   -1.057261937941693E-2    4.517133176210997E-2   -1.111057156668338E-2    1.468878248846280E-1    5.068905071456219E-1
 6.565473618600000E9     3.028918190222479E-2    5.667210125294930E-1    4.638111148161537E-2   -1.072523468908802E-2    4.545294840294600E-2   -1.135447917125280E-2    1.483539389205586E-1    5.064982444435689E-1
 6.565486648800000E9     3.136734097892105E-2    5.666975744985008E-1    4.677526806257411E-2   -1.089974715069119E-2    4.581615401179298E-2   -1.155722066438059E-2    1.497973988138035E-1    5.058869626682876E-1
 6.565499679000000E9     3.264130837812982E-2    5.665453107802366E-1    4.705865683171178E-2   -1.118774296442371E-2    4.615311606387174E-2   -1.184784289156358E-2    1.514750990797517E-1    5.054355647024812E-1
 6.565512709200000E9     3.371605960765713E-2    5.663674024833338E-1    4.725667200123344E-2   -1.148503895668714E-2    4.657923112798585E-2   -1.217680003498265E-2    1.529920429428066E-1    5.049706618162700E-1
 6.565525739400000E9     3.484834460958164E-2    5.662207353576625E-1    4.778047083795024E-2   -1.178547192088745E-2    4.684277420103773E-2   -1.239383076675914E-2    1.545660502840049E-1    5.043184202440848E-1
 6.565538769600000E9     3.601618902376823E-2    5.661670938633151E-1    4.811128660094387E-2   -1.214318641626196E-2    4.732212585993679E-2   -1.263091548360875E-2    1.561324105269642E-1    5.038681678057633E-1
 6.565551799800000E9     3.727670750000966E-2    5.659810995881719E-1    4.851645529734829E-2   -1.239307927235720E-2    4.750201469550462E-2   -1.281203462229156E-2    1.575400839187764E-1    5.032403974541790E-1
 6.565564830000000E9     3.840622220736716E-2    5.659432951038713E-1    4.878059802059399E-2   -1.267201200636276E-2    4.802873584391345E-2   -1.315928356038987E-2    1.591679207651180E-1    5.027061511348074E-1
 6.565577860200000E9     3.953258096206776E-2    5.656269199769292E-1    4.923479116109333E-2   -1.285973533123852E-2    4.831619468508015E-2   -1.338421896396697E-2    1.606905761096400E-1    5.022357832570300E-1
 6.565590890400000E9     4.088122729514877E-2    5.655593191425673E-1    4.963485438746272E-2   -1.309250541620570E-2    4.875246585300085E-2   -1.376374732209872E-2    1.624372943155286E-1    5.014811282021848E-1
 6.565603920600000E9     4.188002336813069E-2    5.653416010731585E-1    4.974185202976682E-2   -1.337953512822946E-2    4.911413268009523E-2   -1.395149097590516E-2    1.639842283155019E-1    5.010205960145443E-1
 6.565616950800000E9     4.318108308112951E-2    5.651511832636130E-1    5.027426277507900E-2   -1.365741915523910E-2    4.948987769131806E-2   -1.432063949950989E-2    1.656157767082020E-1    5.002948548083148E-1
 6.565629981000000E9     4.440165985145991E-2    5.650917250593535E-1    5.070727461893657E-2   -1.395146793785694E-2    4.979136228905909E-2   -1.454228757435567E-2    1.671957323937676E-1    4.998257088558259E-1
