#  HZ   S   RI   R     50.00 
! Rohde & Schwarz Vector Network Analyzer 
! Rohde-Schwarz,ZNB20-2Port,1311601062101988,3.16
! Created: UTC 3/20/2024, 4:54:17 PM
! freq[Hz]                re:S11                  im:S11                  re:S21                  im:S21                  re:S12                  im:S12                  re:S22                  im:S22
 6.564443761000000E9    -5.545637574713486E-2    5.666870472614766E-1    2.896943080308245E-2   -8.592707170309816E-4    2.864427890841079E-2   -1.337872344269547E-3    4.625005455308143E-2    5.264696739244861E-1
 6.564456847475000E9    -5.455756380586074E-2    5.666841704177148E-1    2.929834746183716E-2   -9.377695268449842E-4    2.875499241985958E-2   -1.411424815918311E-3    4.742666970649942E-2    5.263441622977840E-1
 6.564469933950000E9    -5.332197355182260E-2    5.667107484668173E-1    2.948318870766878E-2   -8.938274337044477E-4    2.897607415157229E-2   -1.508110092895744E-3    4.866263557377049E-2    5.263348637152310E-1
 6.564483020425000E9    -5.245370181573770E-2    5.668395414823267E-1    2.964084973515900E-2   -1.100009863269943E-3    2.909290869503695E-2   -1.504065716158905E-3    4.973457612115743E-2    5.260842895417678E-1
 6.564496106900000E9    -5.145001749207477E-2    5.668954476463406E-1    2.972603020666797E-2   -1.072134074386374E-3    2.921857693994753E-2   -1.626498133978064E-3    5.087402517659366E-2    5.261502704731459E-1
 6.564509193375000E9    -5.034976263250147E-2    5.670770156582514E-1    2.995007518842490E-2   -1.125289505639407E-3    2.935924359206188E-2   -1.720935018699628E-3    5.206851526617889E-2    5.258868089217570E-1
 6.564522279850000E9    -4.924504898234117E-2    5.670830561618738E-1    3.006738787089967E-2   -1.295391790565123E-3    2.957214598397762E-2   -1.677181620773819E-3    5.333679284637380E-2    5.258489046800385E-1
 6.564535366325000E9    -4.818797764698395E-2    5.672960043856228E-1    3.019827413736093E-2   -1.340752275861049E-3    2.964280427635108E-2   -1.746387685216554E-3    5.437524392460866E-2    5.258182160193556E-1
 6.564548452800000E9    -4.715669439931760E-2    5.673013485276187E-1    3.040179569379925E-2   -1.540974884575490E-3    2.980075221474195E-2   -1.919197368155497E-3    5.554664978563364E-2    5.256282578317318E-1
 6.564561539275000E9    -4.618654895287269E-2    5.673172735985234E-1    3.042176089259319E-2   -1.427281107615164E-3    2.983609405468499E-2   -1.982066497791440E-3    5.688479336201446E-2    5.254373033026520E-1
 6.564574625750000E9    -4.505438425632376E-2    5.674742826396154E-1    3.060703716475019E-2   -1.680766322446874E-3    3.008650268397138E-2   -2.043163648350458E-3    5.791092498814938E-2    5.252791742677967E-1
 6.564587712225000E9    -4.409694198909503E-2    5.674903602158283E-1    3.079769363902049E-2   -1.561031825986037E-3    3.031813800601253E-2   -2.122531614607117E-3    5.916626379942235E-2    5.254084951432726E-1
 6.564600798700000E9    -4.308103883334513E-2    5.675780808000814E-1    3.102580977430351E-2   -1.675551722371735E-3    3.043155321531684E-2   -2.159690571293558E-3    6.034298842276861E-2    5.252391270005369E-1
 6.564613885175000E9    -4.193484243007404E-2    5.676148993547186E-1    3.086783186667027E-2   -1.855507274528907E-3    3.057030892300251E-2   -2.289166482253772E-3    6.146666618946420E-2    5.250520998666026E-1
 6.564626971650000E9    -4.087072948368085E-2    5.677082253302049E-1    3.119854370840511E-2   -1.938375799308419E-3    3.069351245421432E-2   -2.360549853421328E-3    6.276106874539239E-2    5.248793964720347E-1
 6.564640058125000E9    -3.980465217445736E-2    5.678334733613276E-1    3.144664297088684E-2   -1.937314711838657E-3    3.088278985780809E-2   -2.477710223742816E-3    6.400067566924847E-2    5.247894592310245E-1
 6.564653144600000E9    -3.882100925685344E-2    5.678550196818914E-1    3.155802443110073E-2   -2.067724199025387E-3    3.112112118699953E-2   -2.567763004764097E-3    6.507548345560334E-2    5.245251686022817E-1
 6.564666231075000E9    -3.776329332065645E-2    5.679690435585202E-1    3.166399166411839E-2   -2.090607709380398E-3    3.117405712396547E-2   -2.598999958635527E-3    6.642803647248134E-2    5.243952939042805E-1
 6.564679317550000E9    -3.669185451702651E-2    5.679551317060683E-1    3.199443040864895E-2   -2.215288725385148E-3    3.143034760226426E-2   -2.714052361781371E-3    6.759612784340460E-2    5.243209241131890E-1
 6.564692404025000E9    -3.562850305092227E-2    5.680105697830783E-1    3.213057396954695E-2   -2.252265736210692E-3    3.150606232714363E-2   -2.742751676052610E-3    6.882259291744944E-2    5.241596149325533E-1
 6.564705490500000E9    -3.454446450875787E-2    5.681398690954479E-1    3.228342206294944E-2   -2.323869678102910E-3    3.166862097207453E-2   -2.841047871787969E-3    7.005199555659852E-2    5.239979136586482E-1
 6.564718576975000E9    -3.350577661220299E-2    5.680791456991113E-1    3.229751285045258E-2   -2.527350269508094E-3    3.182164846555179E-2   -2.986239064184208E-3    7.116347471693876E-2    5.239376972049127E-1
 6.564731663450000E9    -3.246214066713064E-2    5.681292693768329E-1    3.259986511188047E-2   -2.437407197705336E-3    3.208969134302565E-2   -3.013966714244345E-3    7.235628842999932E-2    5.236029193426877E-1
 6.564744749925000E9    -3.126805092258263E-2    5.682331273719137E-1    3.286227243804549E-2   -2.682898841227514E-3    3.227812482869673E-2   -3.207607745743549E-3    7.351344050626349E-2    5.236256413987097E-1
 6.564757836400000E9    -3.027473747307303E-2    5.682399092417213E-1    3.296382405895620E-2   -2.738966011655396E-3    3.243519537428687E-2   -3.295050295746383E-3    7.487104361479172E-2    5.235409626915207E-1
 6.564770922875000E9    -2.930987701943043E-2    5.683053453597161E-1    3.310949640835734E-2   -2.736606777965587E-3    3.249893413317362E-2   -3.309232217369958E-3    7.606630889924781E-2    5.231752913829373E-1
 6.564784009350000E9    -2.805999648429674E-2    5.683402304971555E-1    3.321989702582810E-2   -3.020663277864829E-3    3.273854019428269E-2   -3.441216913020520E-3    7.730040964932142E-2    5.229724696807053E-1
 6.564797095825000E9    -2.705966020354678E-2    5.683893432508164E-1    3.355999119990528E-2   -3.153238682581196E-3    3.291506994653582E-2   -3.608680544940745E-3    7.862886944658672E-2    5.227933443788574E-1
 6.564810182300000E9    -2.596143889285160E-2    5.685580451599418E-1    3.375162402582401E-2   -3.159268009330011E-3    3.311147723940184E-2   -3.610523737097604E-3    7.972339267735011E-2    5.226100995280740E-1
 6.564823268775000E9    -2.498595483642672E-2    5.684224636698566E-1    3.397870355191876E-2   -3.105211595016954E-3    3.324269406880067E-2   -3.789659167675109E-3    8.096990525406916E-2    5.225301104698945E-1
 6.564836355250000E9    -2.395839304374795E-2    5.684398744839950E-1    3.401349453447857E-2   -3.384125665360596E-3    3.348322425972826E-2   -3.883839483940002E-3    8.228895323473803E-2    5.222861772452272E-1
 6.564849441725000E9    -2.276818349628753E-2    5.684749100812457E-1    3.429500129842537E-2   -3.350514752294571E-3    3.364210988698985E-2   -4.023151079672506E-3    8.355206824055851E-2    5.220976994893030E-1
 6.564862528200000E9    -2.177200991018650E-2    5.685993275697484E-1    3.437475868130095E-2   -3.535562344850272E-3    3.379124562615096E-2   -3.997338429794392E-3    8.484761417300313E-2    5.219179249147153E-1
 6.564875614675000E9    -2.060851016504866E-2    5.685228297389958E-1    3.447350641599681E-2   -3.671451809553141E-3    3.402784185364071E-2   -4.232798612670368E-3    8.592223853853248E-2    5.216832554899438E-1
 6.564888701150000E9    -1.955158500788058E-2    5.685886363689094E-1    3.482631738629929E-2   -3.735939881305720E-3    3.421672381240343E-2   -4.293924012916262E-3    8.724080785500940E-2    5.215997508191685E-1
 6.564901787625000E9    -1.846922391621613E-2    5.686556083327784E-1    3.485901273114118E-2   -3.922843788114065E-3    3.445019768452283E-2   -4.450796751536819E-3    8.859646991156925E-2    5.211791000441800E-1
 6.564914874100000E9    -1.739110892068309E-2    5.685749248532630E-1    3.517661723331625E-2   -3.983387579074974E-3    3.459837177931848E-2   -4.560005094939225E-3    8.991785211413289E-2    5.210335893352277E-1
 6.564927960575000E9    -1.633360039268130E-2    5.685915965858960E-1    3.540803896207726E-2   -3.984844724924357E-3    3.479456659706298E-2   -4.655151016742664E-3    9.106587136611292E-2    5.208519609091722E-1
 6.564941047050000E9    -1.526785796839002E-2    5.686742280938826E-1    3.554281870276014E-2   -4.202147182360433E-3    3.499806261991088E-2   -4.770312673150892E-3    9.238228373759372E-2    5.206208274090451E-1
 6.564954133525000E9    -1.417521877822070E-2    5.687138434892277E-1    3.581456510489868E-2   -4.329833426107316E-3    3.520581608801450E-2   -4.902206112486350E-3    9.369748333930517E-2    5.204495706290951E-1
 6.564967220000000E9    -1.308076572463347E-2    5.686981330986318E-1    3.597856321475427E-2   -4.556230746603403E-3    3.547236646085041E-2   -5.013090315531153E-3    9.482906888391333E-2    5.201976508848217E-1
 6.564980306475000E9    -1.188551192296690E-2    5.686869595865378E-1    3.612861152320934E-2   -4.633995262965916E-3    3.561964538129193E-2   -5.050740437149365E-3    9.613556822454866E-2    5.199375850285124E-1
 6.564993392950000E9    -1.088058239613909E-2    5.687237381998215E-1    3.638061843720157E-2   -4.800865227593413E-3    3.586417056097130E-2   -5.232331665795265E-3    9.736677132891799E-2    5.195945107217139E-1
 6.565006479425000E9    -9.754497691855183E-3    5.687000149308681E-1    3.664781310724791E-2   -4.878086114072830E-3    3.600433095029516E-2   -5.403828977980829E-3    9.862729599719849E-2    5.192792904302922E-1
 6.565019565900000E9    -8.767500563012287E-3    5.685977400823191E-1    3.691710765258659E-2   -4.987276780912672E-3    3.632246338911947E-2   -5.479087139318377E-3    1.000578784054210E-1    5.191285811212262E-1
 6.565032652375000E9    -7.582722155478678E-3    5.686214886344807E-1    3.715665680090489E-2   -5.191481438447262E-3    3.653130293131087E-2   -5.638174987226478E-3    1.013816311080700E-1    5.187901484170429E-1
 6.565045738850000E9    -6.485026411052132E-3    5.685635380417083E-1    3.730273096240029E-2   -5.346412909933221E-3    3.676666070644448E-2   -5.763898560120734E-3    1.025864228392406E-1    5.185478930558238E-1
 6.565058825325000E9    -5.358842232082211E-3    5.685555726299608E-1    3.761083437125538E-2   -5.145218463933593E-3    3.693390834389910E-2   -5.820326476008796E-3    1.039304146816835E-1    5.183182141986210E-1
 6.565071911800000E9    -4.352834948360931E-3    5.686501593110810E-1    3.776236983546315E-2   -5.454978682351495E-3    3.718557674951731E-2   -6.016150314706583E-3    1.051886828585184E-1    5.179483267763514E-1
 6.565084998275000E9    -3.253552932483790E-3    5.685917612255078E-1    3.793500823608328E-2   -5.621010714512500E-3    3.733923761558244E-2   -6.145670028357126E-3    1.065627156071263E-1    5.177144331595974E-1
 6.565098084750000E9    -2.174664458638906E-3    5.685042665848478E-1    3.828882113286598E-2   -5.813252590486095E-3    3.758744146941349E-2   -6.290479464640916E-3    1.079294265239284E-1    5.174846726209428E-1
 6.565111171225000E9    -1.032092166474392E-3    5.686131731798915E-1    3.847851601935445E-2   -5.937497848617027E-3    3.787327866015452E-2   -6.409512493563252E-3    1.092212136731830E-1    5.171530543078066E-1
 6.565124257700000E9     4.912987937948819E-5    5.685221118926332E-1    3.889242209359751E-2   -6.033954122335049E-3    3.813600903321294E-2   -6.529219176644139E-3    1.105330544599789E-1    5.168424460611497E-1
 6.565137344175000E9     1.182382131821294E-3    5.685089057091088E-1    3.892929691234415E-2   -6.163151191650135E-3    3.831052865155291E-2   -6.717922094974954E-3    1.119101839590398E-1    5.165949539984350E-1
 6.565150430650000E9     2.153178547999421E-3    5.684812543513263E-1    3.919411217277691E-2   -6.354496744113926E-3    3.856540797568306E-2   -6.885387146854365E-3    1.132499379478723E-1    5.161986232774918E-1
 6.565163517125000E9     3.369682419917805E-3    5.684813469691570E-1    3.951466445101429E-2   -6.418762775128060E-3    3.884991697849706E-2   -7.022708421828156E-3    1.146602071606999E-1    5.159713937218241E-1
 6.565176603600000E9     4.436623571574331E-3    5.683753663719242E-1    3.969357949233900E-2   -6.609363564242309E-3    3.909758171977760E-2   -7.143218193980231E-3    1.160109025176822E-1    5.157186165422688E-1
 6.565189690075000E9     5.583534114086130E-3    5.683382756408214E-1    3.992944521489961E-2   -6.682265068331676E-3    3.929665650188297E-2   -7.148851282120375E-3    1.173134996506399E-1    5.153304978931862E-1
 6.565202776550000E9     6.680539129890099E-3    5.682946293711840E-1    4.029563507050451E-2   -6.826228242791406E-3    3.958165165672593E-2   -7.442111847527353E-3    1.188254146764502E-1    5.149017615863574E-1
 6.565215863025000E9     7.808614702148018E-3    5.682304313435894E-1    4.064595598112572E-2   -7.202450228341213E-3    3.977255688611360E-2   -7.619450790954751E-3    1.201195165530551E-1    5.144719690876414E-1
 6.565228949500000E9     8.912559595864018E-3    5.681750267525548E-1    4.078350807471451E-2   -7.309368120763232E-3    4.013240547132084E-2   -7.728448948303232E-3    1.213886241283135E-1    5.143459908964132E-1
 6.565242035975000E9     1.021505015438342E-2    5.681517539970231E-1    4.110259890137889E-2   -7.404718058607786E-3    4.033779017020842E-2   -7.949887800354553E-3    1.228354561551474E-1    5.137823581901512E-1
 6.565255122450000E9     1.128120612493427E-2    5.681060636143053E-1    4.141605239311365E-2   -7.583014837225145E-3    4.053875189553000E-2   -8.084097593076727E-3    1.243413430520311E-1    5.135752070260540E-1
 6.565268208925000E9     1.236627574864053E-2    5.680853217508414E-1    4.144298116513304E-2   -7.663095473172726E-3    4.092095998570176E-2   -8.352777488878480E-3    1.256564928806579E-1    5.130572932181341E-1
 6.565281295400000E9     1.339786166332462E-2    5.680108359388966E-1    4.191596587152237E-2   -7.940092686363717E-3    4.110303687663943E-2   -8.498189990412458E-3    1.271853906807170E-1    5.129277413535864E-1
 6.565294381875000E9     1.454821388857433E-2    5.679281133647509E-1    4.211742919175041E-2   -8.113336974690860E-3    4.142361521311514E-2   -8.740641589200265E-3    1.285184031884199E-1    5.125277757122897E-1
 6.565307468350000E9     1.565499879437343E-2    5.679382332536408E-1    4.256199956006673E-2   -8.259106368745214E-3    4.177983797031336E-2   -8.876796932730802E-3    1.300336225331219E-1    5.120571011122361E-1
 6.565320554825000E9     1.672591245128992E-2    5.678044635915430E-1    4.271130489404473E-2   -8.389827470730294E-3    4.198231228759877E-2   -9.049675969955220E-3    1.312165064746576E-1    5.116375001051673E-1
 6.565333641300000E9     1.784655025464821E-2    5.677413220363704E-1    4.291351365729294E-2   -8.535814389352582E-3    4.223995037092330E-2   -9.199414598490514E-3    1.327458345319128E-1    5.112938314149998E-1
 6.565346727775000E9     1.912286182098882E-2    5.677067809270328E-1    4.331880470847758E-2   -8.865378456053275E-3    4.259997120890300E-2   -9.388076801545133E-3    1.341556005176504E-1    5.107113233301290E-1
 6.565359814250000E9     2.023289767575791E-2    5.676213761389657E-1    4.370401799113562E-2   -9.026172096856556E-3    4.279845633875411E-2   -9.561048286485999E-3    1.355293569026216E-1    5.103781024067801E-1
 6.565372900725000E9     2.138090180241799E-2    5.675389887320309E-1    4.399340363960007E-2   -9.161709646260488E-3    4.310897206877926E-2   -9.820374518448617E-3    1.369916921379124E-1    5.099691720724544E-1
 6.565385987200000E9     2.256757170091479E-2    5.673838250560469E-1    4.427886172308217E-2   -9.384196593547136E-3    4.338000119933971E-2   -9.883832259074491E-3    1.384733355891539E-1    5.095506822306973E-1
 6.565399073675000E9     2.357842781122970E-2    5.673385884459550E-1    4.441519903734278E-2   -9.666270368240273E-3    4.381660697272215E-2   -1.024265162013543E-2    1.400075600910081E-1    5.091445092095194E-1
 6.565412160150000E9     2.485427927594231E-2    5.673180674157364E-1    4.487697629357652E-2   -9.766476607393160E-3    4.414596093723780E-2   -1.037323636132177E-2    1.415343538732095E-1    5.085133452538834E-1
 6.565425246625000E9     2.586917170701375E-2    5.670892480715450E-1    4.515932437268536E-2   -9.952591338251226E-3    4.437725647580324E-2   -1.062957270434857E-2    1.429053706141108E-1    5.082376483175269E-1
 6.565438333100000E9     2.722926900743287E-2    5.670976154868067E-1    4.549392905195642E-2   -1.023563521741785E-2    4.464865771613524E-2   -1.087495979315012E-2    1.445419905088431E-1    5.076249701844108E-1
 6.565451419575000E9     2.834945327323677E-2    5.669395945481047E-1    4.585074223976383E-2   -1.051598044526732E-2    4.498201557109344E-2   -1.108313151164588E-2    1.459595630128614E-1    5.072308456048946E-1
 6.565464506050000E9     2.942049538245981E-2    5.667265124732633E-1    4.616160862350007E-2   -1.075541748397553E-2    4.544239376549987E-2   -1.129513953112225E-2    1.474112976279118E-1    5.067669128396981E-1
 6.565477592525000E9     3.057183831089514E-2    5.665962229329129E-1    4.640609558721165E-2   -1.088787722438205E-2    4.563769465516015E-2   -1.155110126416524E-2    1.488759800430770E-1    5.062960405827805E-1
 6.565490679000000E9     3.179096014157715E-2    5.665893422482717E-1    4.682582971226562E-2   -1.122014805106260E-2    4.604164599624353E-2   -1.168215311890979E-2    1.504372727304127E-1    5.056773573212833E-1
 6.565503765475000E9     3.299431330846513E-2    5.664192036469706E-1    4.697469908748401E-2   -1.148977764681884E-2    4.635962708921965E-2   -1.194739200039192E-2    1.519733405336463E-1    5.049527452242387E-1
 6.565516851950000E9     3.405812083970795E-2    5.662768247123909E-1    4.746718879867541E-2   -1.161360636789025E-2    4.675229689288828E-2   -1.222435911774205E-2    1.535153044867486E-1    5.046906818195762E-1
 6.565529938425000E9     3.527390353041657E-2    5.660917336546115E-1    4.780709912636391E-2   -1.198211396065656E-2    4.702639115066889E-2   -1.245544673523289E-2    1.552313569428611E-1    5.040500413692709E-1
 6.565543024900000E9     3.645154905279336E-2    5.660680178446922E-1    4.814595151919440E-2   -1.216604156484510E-2    4.738444200707480E-2   -1.278721657409409E-2    1.567413658277521E-1    5.034283947762467E-1
 6.565556111375000E9     3.764125882245061E-2    5.658728550636208E-1    4.857715629734669E-2   -1.235511962784039E-2    4.786547956219579E-2   -1.299908948824043E-2    1.583504286805412E-1    5.030349770114664E-1
 6.565569197850000E9     3.885113334124972E-2    5.657733900026161E-1    4.892034576698664E-2   -1.261437958389640E-2    4.815596286662301E-2   -1.330487714764691E-2    1.598393438396916E-1    5.025516827869865E-1
 6.565582284325000E9     4.001243949124253E-2    5.656138034294321E-1    4.934881785669147E-2   -1.285888423890287E-2    4.850834486707477E-2   -1.345283640179999E-2    1.614531265442258E-1    5.018833616837609E-1
 6.565595370800000E9     4.115082398854920E-2    5.654318881374895E-1    4.979371732193370E-2   -1.320624029006795E-2    4.895556996027281E-2   -1.379969101421070E-2    1.629336568822586E-1    5.011475155328835E-1
 6.565608457275000E9     4.239767714342835E-2    5.652894973923462E-1    5.015261353819665E-2   -1.353599773198118E-2    4.933457267335331E-2   -1.413580221219213E-2    1.646405706055046E-1    5.006077704838116E-1
 6.565621543750000E9     4.354314172316630E-2    5.651498323002849E-1    5.058754456247293E-2   -1.377786652954058E-2    4.966565155686917E-2   -1.435965087386757E-2    1.660600420190799E-1    4.999547273947665E-1
