#  HZ   S   RI   R     50.00 
! Rohde & Schwarz Vector Network Analyzer 
! Rohde-Schwarz,ZNB20-2Port,1311601062101988,3.16
! Created: UTC 3/20/2024, 4:49:03 PM
! freq[Hz]                re:S11                  im:S11                  re:S21                  im:S21                  re:S12                  im:S12                  re:S22                  im:S22
 6.564861927000000E9    -2.205195561285196E-2    5.691056988960145E-1    3.343542645758955E-2   -2.869768133105083E-3    3.278686492438540E-2   -3.310844461000956E-3    8.365868812267503E-2    5.234719160979403E-1
 6.564873323475000E9    -2.110449737386680E-2    5.691295956600756E-1    3.366876781547368E-2   -2.920193632585359E-3    3.290109597209370E-2   -3.446120600138978E-3    8.468281200871090E-2    5.233888405302323E-1
 6.564884719950000E9    -2.012246211394912E-2    5.691897397555306E-1    3.377248957526510E-2   -2.971006737213712E-3    3.311247275621086E-2   -3.500621765945922E-3    8.584552299116592E-2    5.231491993691358E-1
 6.564896116425000E9    -1.928804284389024E-2    5.690994605303105E-1    3.395452378700117E-2   -3.066612482915592E-3    3.337082398340400E-2   -3.600281721892509E-3    8.691299260755100E-2    5.230300297621826E-1
 6.564907512900000E9    -1.824566903669699E-2    5.691955155774673E-1    3.402110019774610E-2   -3.094195977700696E-3    3.350838706090011E-2   -3.710003779334563E-3    8.810123079202335E-2    5.227894032112678E-1
 6.564918909375000E9    -1.729165998087877E-2    5.691957354103017E-1    3.421511069430498E-2   -3.303527435923400E-3    3.365144216762699E-2   -3.734464838400309E-3    8.903120786192277E-2    5.225839853185593E-1
 6.564930305850000E9    -1.646628254589779E-2    5.693205778641441E-1    3.430389086672172E-2   -3.375782309895296E-3    3.380891380018802E-2   -3.861662661967622E-3    9.027904617904732E-2    5.224865827399432E-1
 6.564941702325000E9    -1.546286210891891E-2    5.692299633428022E-1    3.451382726532557E-2   -3.483387807944984E-3    3.385227579539215E-2   -3.960320775619756E-3    9.125910761515697E-2    5.223329696152558E-1
 6.564953098800000E9    -1.456034412058897E-2    5.692155289278239E-1    3.466859317487486E-2   -3.553040469329209E-3    3.405803919576853E-2   -4.009280703272779E-3    9.230955121282716E-2    5.221427360319360E-1
 6.564964495275000E9    -1.357053552126381E-2    5.692405675089139E-1    3.474602158478055E-2   -3.636743227187779E-3    3.420241273394556E-2   -4.119642153661159E-3    9.354400263956410E-2    5.220197308010550E-1
 6.564975891750000E9    -1.253295138618842E-2    5.692588250492706E-1    3.503705873563399E-2   -3.788582093365414E-3    3.440443107505384E-2   -4.278842618957981E-3    9.456470876433372E-2    5.217739184672069E-1
 6.564987288225000E9    -1.174650064068352E-2    5.692778574487296E-1    3.515504135761431E-2   -3.815747700852767E-3    3.467202567775226E-2   -4.269336363487663E-3    9.569296279897922E-2    5.216453757973815E-1
 6.564998684700000E9    -1.073908972190150E-2    5.693965858439348E-1    3.521747485035184E-2   -3.888636939811934E-3    3.481104012772276E-2   -4.398726572738727E-3    9.677882181940040E-2    5.213331192883444E-1
 6.565010081175000E9    -9.829340143043135E-3    5.693183438030348E-1    3.552412101802267E-2   -3.894177694735590E-3    3.502738616122342E-2   -4.484326302335084E-3    9.785607297873870E-2    5.211208483111455E-1
 6.565021477650000E9    -8.888301200967284E-3    5.692909215457094E-1    3.582628439400040E-2   -4.082651678162434E-3    3.515008087141087E-2   -4.574119275262264E-3    9.904679281133358E-2    5.209323471082966E-1
 6.565032874125000E9    -7.924190281799446E-3    5.693049446775065E-1    3.598943742725572E-2   -4.138232924112408E-3    3.535821858244514E-2   -4.803380133526011E-3    1.000695761409656E-1    5.207810979288884E-1
 6.565044270600000E9    -7.052018417110843E-3    5.692417105658893E-1    3.615111154816030E-2   -4.258605101342030E-3    3.561324467364508E-2   -4.791656241627799E-3    1.011751367507494E-1    5.206108554457027E-1
 6.565055667075000E9    -6.040516471215555E-3    5.692743173139850E-1    3.638331784392419E-2   -4.435059236442673E-3    3.564736465522120E-2   -4.908917445098063E-3    1.024243708125153E-1    5.203278861127265E-1
 6.565067063550000E9    -5.071622408942780E-3    5.692777695904294E-1    3.660565445266716E-2   -4.502096733930091E-3    3.587930122554044E-2   -5.004796772960745E-3    1.035620952334924E-1    5.202364407923055E-1
 6.565078460025000E9    -4.088489803955563E-3    5.692422529708802E-1    3.676002604938947E-2   -4.598824072305847E-3    3.602678616351607E-2   -5.170616825367005E-3    1.046124110696036E-1    5.199513225915997E-1
 6.565089856500000E9    -3.253093308637764E-3    5.692025878315958E-1    3.694574265627099E-2   -4.666939336418468E-3    3.621856798579592E-2   -5.224515052015116E-3    1.058307582621945E-1    5.198057927579006E-1
 6.565101252975000E9    -2.262261417973580E-3    5.692715523262755E-1    3.713808518446988E-2   -4.681987730179588E-3    3.657373557023762E-2   -5.313719750308375E-3    1.068244454016779E-1    5.195381287918441E-1
 6.565112649450000E9    -1.325979495518143E-3    5.693042451244608E-1    3.726913791302077E-2   -4.739995621937843E-3    3.671701912156985E-2   -5.353271831946617E-3    1.080707997144352E-1    5.192743871898273E-1
 6.565124045925000E9    -2.799489811601578E-4    5.691174425689213E-1    3.747603765963130E-2   -4.962842781047206E-3    3.685028013629318E-2   -5.426026650366680E-3    1.091321732324171E-1    5.190444007590190E-1
 6.565135442400000E9     6.607652022806016E-4    5.691303972790791E-1    3.767603906722221E-2   -5.217017315041158E-3    3.706019696572283E-2   -5.663433671554273E-3    1.103344938789248E-1    5.189123076039271E-1
 6.565146838875000E9     1.593697493826761E-3    5.692765419027894E-1    3.795528015933369E-2   -5.164741792782995E-3    3.716219454757292E-2   -5.838635161835579E-3    1.115457426353980E-1    5.184589561031420E-1
 6.565158235350000E9     2.591241365388670E-3    5.692565963838142E-1    3.810157671177108E-2   -5.352360501433342E-3    3.737834084754597E-2   -5.916813301095746E-3    1.126643189717468E-1    5.181689762405023E-1
 6.565169631825000E9     3.507749456494664E-3    5.691310595532045E-1    3.819564437165269E-2   -5.542854352446917E-3    3.775586919414459E-2   -6.064073821422438E-3    1.138028723890639E-1    5.179486765815424E-1
 6.565181028300000E9     4.462256952039728E-3    5.690099545650334E-1    3.852543884638670E-2   -5.727795098094738E-3    3.786614882226218E-2   -6.108157655828210E-3    1.151476296163312E-1    5.177975582517734E-1
 6.565192424775000E9     5.548637558876824E-3    5.689770052158637E-1    3.870418764639317E-2   -5.691785881582646E-3    3.803408973963032E-2   -6.227938343985085E-3    1.160589291900825E-1    5.174931359574306E-1
 6.565203821250000E9     6.462566947999900E-3    5.690352816875681E-1    3.884412782854249E-2   -5.885412733235777E-3    3.821617890845896E-2   -6.420994374257963E-3    1.172946156718017E-1    5.172037158395622E-1
 6.565215217725000E9     7.425928207201050E-3    5.690133391909208E-1    3.913472788631436E-2   -5.929720693149803E-3    3.849979576215335E-2   -6.391306737295216E-3    1.185434374419018E-1    5.169941018398595E-1
 6.565226614200000E9     8.328747576458293E-3    5.690458199438460E-1    3.939826159393289E-2   -6.032469818093690E-3    3.869212794750262E-2   -6.632776031347831E-3    1.196291981405061E-1    5.166927263214532E-1
 6.565238010675000E9     9.276018652209009E-3    5.689346462127542E-1    3.966707528159286E-2   -6.081489719926086E-3    3.892243238354651E-2   -6.654454746209621E-3    1.206996247436349E-1    5.164588611017488E-1
 6.565249407150000E9     1.025398548897399E-2    5.689877750780521E-1    3.980971734724698E-2   -6.217052696501879E-3    3.888929836402819E-2   -6.808374115462531E-3    1.220807600777552E-1    5.161841920243294E-1
 6.565260803625000E9     1.118446283670051E-2    5.688525174790464E-1    4.000338040593999E-2   -6.580331112828103E-3    3.931974899756119E-2   -6.975126678382441E-3    1.231031522838347E-1    5.157627361570211E-1
 6.565272200100000E9     1.222694208378027E-2    5.687271944979138E-1    4.022249649830865E-2   -6.673647408538743E-3    3.954037030158317E-2   -7.099997580444707E-3    1.243171282419730E-1    5.155347033479799E-1
 6.565283596575000E9     1.324380009785973E-2    5.688430199876710E-1    4.051007886617462E-2   -6.681863394838253E-3    3.980006796273113E-2   -7.255190846646766E-3    1.255019018136566E-1    5.153720795926565E-1
 6.565294993050000E9     1.425683629952508E-2    5.686974442832722E-1    4.068441523217755E-2   -6.810738713296011E-3    3.993924175268074E-2   -7.392283163611492E-3    1.267214280318899E-1    5.149429166156320E-1
 6.565306389525000E9     1.509448227691989E-2    5.687623388465795E-1    4.086588787472462E-2   -6.976317052541119E-3    4.026722346870496E-2   -7.574136223324477E-3    1.281029006882507E-1    5.147709157570131E-1
 6.565317786000000E9     1.609597687168152E-2    5.685575116136382E-1    4.105811477107890E-2   -7.100897892519144E-3    4.047983231790987E-2   -7.613066239082829E-3    1.291996938376886E-1    5.142543309566594E-1
 6.565329182475000E9     1.703397125251023E-2    5.686393805753730E-1    4.132362179432042E-2   -7.283797318125459E-3    4.059793005234622E-2   -7.808460556361272E-3    1.304190381153381E-1    5.141416594865936E-1
 6.565340578950000E9     1.810917992502228E-2    5.684987265937158E-1    4.165685785931054E-2   -7.345216143047142E-3    4.094827512076500E-2   -7.956312745257639E-3    1.317231585155510E-1    5.136975702795620E-1
 6.565351975425000E9     1.909653343261179E-2    5.684734795126645E-1    4.168392446627568E-2   -7.552767033352620E-3    4.118610696071640E-2   -8.155510588863317E-3    1.328866323489343E-1    5.133803777843255E-1
 6.565363371900000E9     2.018243047602376E-2    5.684164878100503E-1    4.207106070738673E-2   -7.630049283216471E-3    4.138604416966897E-2   -8.190628567430342E-3    1.340399026429529E-1    5.130022887369911E-1
 6.565374768375000E9     2.091494995832458E-2    5.683300521546197E-1    4.243578177033333E-2   -7.941208768161316E-3    4.167694441169368E-2   -8.427005468585286E-3    1.354578141664191E-1    5.127610301767254E-1
 6.565386164850000E9     2.202874125621583E-2    5.682801009846651E-1    4.250219389575927E-2   -8.046854228578820E-3    4.191859414876777E-2   -8.487891652468894E-3    1.366268249485240E-1    5.124926474581044E-1
 6.565397561325000E9     2.290620768124474E-2    5.682858861228910E-1    4.276130366071081E-2   -8.136805982208548E-3    4.219991566499397E-2   -8.737081481042382E-3    1.378108939644743E-1    5.121337246583995E-1
 6.565408957800000E9     2.399011256281445E-2    5.681597320293540E-1    4.308755340842048E-2   -8.190855144355162E-3    4.234630415633537E-2   -8.868505280834592E-3    1.390583970542953E-1    5.117613788565363E-1
 6.565420354275000E9     2.492509626936282E-2    5.680662293206589E-1    4.340194867462827E-2   -8.548935786236233E-3    4.274752121606294E-2   -9.046700069541242E-3    1.403914149050747E-1    5.113018880185592E-1
 6.565431750750000E9     2.596110315184333E-2    5.679613689333860E-1    4.376083348294232E-2   -8.578744346978046E-3    4.294715805870079E-2   -9.148786987116703E-3    1.415980874175422E-1    5.109708266511976E-1
 6.565443147225000E9     2.698646882287917E-2    5.678474698867856E-1    4.386114770336423E-2   -8.575894776737989E-3    4.309794928254828E-2   -9.320389777554968E-3    1.428120420410016E-1    5.106245744671923E-1
 6.565454543700000E9     2.799192916733179E-2    5.677861602052895E-1    4.425711488015947E-2   -8.973432846396297E-3    4.340452224638390E-2   -9.451543120171746E-3    1.440144640716863E-1    5.103928283796695E-1
 6.565465940175000E9     2.901993031649035E-2    5.678577937118525E-1    4.437425711636696E-2   -9.104245246165561E-3    4.381537782631978E-2   -9.709970421573160E-3    1.454110069435700E-1    5.099397633618131E-1
 6.565477336650000E9     2.988445015341189E-2    5.677049574216905E-1    4.477847777919793E-2   -9.138203949943954E-3    4.395856599502726E-2   -9.886717406770905E-3    1.467104328766050E-1    5.095002202641833E-1
 6.565488733125000E9     3.093570776155783E-2    5.676082145581723E-1    4.503713312943101E-2   -9.407252237738160E-3    4.424506616896902E-2   -1.001265931028443E-2    1.479616634596919E-1    5.091793820598406E-1
 6.565500129600000E9     3.197105529275825E-2    5.675554154328242E-1    4.534428693335660E-2   -9.669827821254947E-3    4.454456463437435E-2   -1.026897056024533E-2    1.493507300835503E-1    5.088132353074082E-1
 6.565511526075000E9     3.309757156468595E-2    5.673521733915445E-1    4.556849486914127E-2   -9.816966891874095E-3    4.488571148384431E-2   -1.039314204622997E-2    1.506518974879436E-1    5.082933259480468E-1
 6.565522922550000E9     3.397980493533086E-2    5.674155368709008E-1    4.581494594785948E-2   -9.923318684634452E-3    4.509423813015949E-2   -1.049063419825266E-2    1.520326858338112E-1    5.079196360347353E-1
 6.565534319025000E9     3.492282277192234E-2    5.671686270920834E-1    4.621776591663425E-2   -1.008685811980821E-2    4.544173454771436E-2   -1.079908253072754E-2    1.533450574800861E-1    5.073664945668949E-1
 6.565545715500000E9     3.602071020343334E-2    5.670619589047688E-1    4.642090437850215E-2   -1.031533042117139E-2    4.567236189675904E-2   -1.094018593871269E-2    1.546028025679242E-1    5.071849220600763E-1
 6.565557111975000E9     3.703310264735761E-2    5.670126458002792E-1    4.662420557962774E-2   -1.050193986971532E-2    4.597611055604979E-2   -1.113313047414583E-2    1.558638724304234E-1    5.066681799507993E-1
 6.565568508450000E9     3.797162378490254E-2    5.669580312668742E-1    4.714133027015513E-2   -1.080523600726193E-2    4.626730077430448E-2   -1.133432513915572E-2    1.572927877472385E-1    5.062744905255870E-1
 6.565579904925000E9     3.915397795820671E-2    5.667390236896745E-1    4.739830210276526E-2   -1.090883888322667E-2    4.658838844732761E-2   -1.154193717834081E-2    1.585275759681628E-1    5.057497320344764E-1
 6.565591301400000E9     4.005468345352627E-2    5.667523463729509E-1    4.775063299179848E-2   -1.110978255216760E-2    4.689939683739633E-2   -1.169122731941454E-2    1.599735485360186E-1    5.052226743642185E-1
 6.565602697875000E9     4.113790950256070E-2    5.665759836999144E-1    4.808318509065886E-2   -1.127160225918978E-2    4.717938382980776E-2   -1.190088564965978E-2    1.613739887793514E-1    5.047534895019656E-1
 6.565614094350000E9     4.216540126848378E-2    5.664782086786392E-1    4.825145486494391E-2   -1.143466815805906E-2    4.748021258681182E-2   -1.207625259251624E-2    1.627942341658791E-1    5.042803908323145E-1
 6.565625490825000E9     4.313399116791688E-2    5.663564326460964E-1    4.866935613250295E-2   -1.176743697902259E-2    4.785307048137240E-2   -1.244126921325830E-2    1.640790695671280E-1    5.040122646027081E-1
 6.565636887300000E9     4.425347635499931E-2    5.662214540106222E-1    4.891365950251930E-2   -1.197759909922881E-2    4.825090410872812E-2   -1.256458058268636E-2    1.653567311706095E-1    5.034550950016088E-1
 6.565648283775000E9     4.518448806616421E-2    5.660622118314219E-1    4.938278704057526E-2   -1.213480571187468E-2    4.858853875565158E-2   -1.284889753145150E-2    1.668289251463921E-1    5.028798622487261E-1
 6.565659680250000E9     4.625844875770366E-2    5.658585267532062E-1    4.965332897227585E-2   -1.247064056632848E-2    4.888800470297994E-2   -1.299858090684533E-2    1.683479910130030E-1    5.024558053052687E-1
 6.565671076725000E9     4.732063861892233E-2    5.657567728517768E-1    5.010788670230575E-2   -1.268709774192202E-2    4.921711790649360E-2   -1.324496853197560E-2    1.696376702451168E-1    5.016874999545535E-1
 6.565682473200000E9     4.838750450761727E-2    5.656430601308516E-1    5.031896403544431E-2   -1.291577442817817E-2    4.958888184697011E-2   -1.353743401608585E-2    1.710267936416524E-1    5.014090500856592E-1
 6.565693869675000E9     4.936922849289913E-2    5.654834970090595E-1    5.064086042427578E-2   -1.309817854483491E-2    4.985860135151832E-2   -1.372831025282093E-2    1.724825048413046E-1    5.007601756014275E-1
 6.565705266150000E9     5.036662493194547E-2    5.653880062541837E-1    5.105396111647665E-2   -1.340597694594228E-2    5.020897673926940E-2   -1.395861789122950E-2    1.738642097672716E-1    5.002199367192682E-1
 6.565716662625000E9     5.146070409832504E-2    5.652351597419780E-1    5.138793531998337E-2   -1.373238691240780E-2    5.054787999064782E-2   -1.431372721799104E-2    1.754175832013453E-1    4.996898708093529E-1
 6.565728059100000E9     5.237599102589258E-2    5.650670749746551E-1    5.172509162859801E-2   -1.390323261135629E-2    5.090582156352863E-2   -1.443029162463613E-2    1.769469242968271E-1    4.990482309743494E-1
 6.565739455575000E9     5.358825243513886E-2    5.650038012274481E-1    5.207818023676766E-2   -1.416813922961088E-2    5.131442397806597E-2   -1.474171985113706E-2    1.783371241440577E-1    4.986574310957704E-1
 6.565750852050000E9     5.460619864866475E-2    5.647336325678037E-1    5.252017047351711E-2   -1.449442832946434E-2    5.158073299959832E-2   -1.507401131753794E-2    1.797863936253335E-1    4.980612481176976E-1
 6.565762248525000E9     5.560200866157147E-2    5.646591693054528E-1    5.286297458934147E-2   -1.464972379365681E-2    5.206127854823833E-2   -1.525595826933701E-2    1.811970420562435E-1    4.972763071884364E-1
 6.565773645000000E9     5.680979798325041E-2    5.644027227876283E-1    5.313427842460264E-2   -1.496618610544383E-2    5.244920003044811E-2   -1.564826437423241E-2    1.828155757101556E-1    4.968325353098750E-1
 6.565785041475000E9     5.783908232961459E-2    5.641813373693194E-1    5.372851571278728E-2   -1.521351155084434E-2    5.277269063292057E-2   -1.573519281815674E-2    1.842182606609074E-1    4.960790159743576E-1
 6.565796437950000E9     5.889904961065225E-2    5.640623138154854E-1    5.406226244692083E-2   -1.555763659225616E-2    5.314198478346877E-2   -1.611287885443440E-2    1.856913169053718E-1    4.955994927951226E-1
 6.565807834425000E9     5.992582880960610E-2    5.638951494022281E-1    5.447667729764461E-2   -1.574234206300723E-2    5.356662177859206E-2   -1.642356990770011E-2    1.872995207913830E-1    4.949102180701177E-1
 6.565819230900000E9     6.100219914145277E-2    5.636927408379619E-1    5.481275004073584E-2   -1.612125293347461E-2    5.400724238452966E-2   -1.668771119454252E-2    1.887848866452111E-1    4.943780414505231E-1
 6.565830627375000E9     6.213782200640620E-2    5.633606068758056E-1    5.526123102413439E-2   -1.633547761875109E-2    5.450501507010661E-2   -1.709672979547234E-2    1.903925689318317E-1    4.936441385163464E-1
 6.565842023850000E9     6.315903629105150E-2    5.633638409744525E-1    5.563263535185506E-2   -1.659620882486851E-2    5.485994532980581E-2   -1.735289357419695E-2    1.918186441706299E-1    4.929437061762831E-1
 6.565853420325000E9     6.426163264119221E-2    5.630809699314976E-1    5.609828006283772E-2   -1.697098673466922E-2    5.529732071632367E-2   -1.771082504335712E-2    1.935673960063209E-1    4.920798122673434E-1
 6.565864816800000E9     6.541158419973800E-2    5.628766247382050E-1    5.656686739663146E-2   -1.720045612361477E-2    5.573119453149054E-2   -1.792625840294976E-2    1.948911342651586E-1    4.914921367480178E-1
 6.565876213275000E9     6.640232118356205E-2    5.627643620693691E-1    5.694108715083748E-2   -1.764179408238325E-2    5.614267148227196E-2   -1.830957519203831E-2    1.965128891052839E-1    4.908645090206302E-1
 6.565887609750000E9     6.760454703321271E-2    5.624526154077771E-1    5.740584604332499E-2   -1.794924437932870E-2    5.658962654638237E-2   -1.859751918316697E-2    1.981167699133735E-1    4.900288871680414E-1
