#  HZ   S   RI   R     50.00 
! Rohde & Schwarz Vector Network Analyzer 
! Rohde-Schwarz,ZNB20-2Port,1311601062101988,3.16
! Created: UTC 3/20/2024, 5:09:34 PM
! freq[Hz]                re:S11                  im:S11                  re:S21                  im:S21                  re:S12                  im:S12                  re:S22                  im:S22
 6.564475614000000E9    -5.374858849971745E-2    5.665731177629360E-1    2.903239827426545E-2   -7.613302802062591E-4    2.839916886313545E-2   -1.239755290378047E-3    4.644666292528499E-2    5.235272289369707E-1
 6.564488769250000E9    -5.264097639599442E-2    5.666138151054567E-1    2.895253308008184E-2   -9.326392400057517E-4    2.857179671104970E-2   -1.404226721265992E-3    4.761321015248596E-2    5.234758286661877E-1
 6.564501924500000E9    -5.154982695026194E-2    5.667306513186542E-1    2.929657617675858E-2   -8.266506054346654E-4    2.861090522720598E-2   -1.473466615656363E-3    4.873256485294261E-2    5.233470933676485E-1
 6.564515079750000E9    -5.059063505892590E-2    5.667512529533079E-1    2.925570629928518E-2   -1.046958379594357E-3    2.881994863577580E-2   -1.517138202034418E-3    4.990048271757778E-2    5.233951337018358E-1
 6.564528235000000E9    -4.945969972367334E-2    5.668823574902783E-1    2.955093898049903E-2   -1.067947177821255E-3    2.894039823674736E-2   -1.579712730930264E-3    5.099001363858439E-2    5.232458382635035E-1
 6.564541390250000E9    -4.845845493862455E-2    5.669507264257481E-1    2.964698505836596E-2   -1.256159503346399E-3    2.918611190154545E-2   -1.680117955188445E-3    5.218783777949691E-2    5.231001358653919E-1
 6.564554545500000E9    -4.743555912869123E-2    5.669473610086601E-1    2.980052696602695E-2   -1.316309407740840E-3    2.911727789530273E-2   -1.734001534078671E-3    5.331856832265437E-2    5.231357383319679E-1
 6.564567700750000E9    -4.633851188492168E-2    5.671599046612262E-1    2.975825004494028E-2   -1.408958068283335E-3    2.939511866793969E-2   -1.840658438685387E-3    5.454687655195187E-2    5.229330870924449E-1
 6.564580856000000E9    -4.531709482013295E-2    5.672430373800794E-1    3.004119970127901E-2   -1.362353964990936E-3    2.956162688748732E-2   -1.921495478700659E-3    5.573513932640338E-2    5.228004222713527E-1
 6.564594011250000E9    -4.428366541191749E-2    5.671825229322924E-1    3.026340902489835E-2   -1.405324127535586E-3    2.974765867675096E-2   -1.998274865315597E-3    5.689099990647847E-2    5.226729805901651E-1
 6.564607166500000E9    -4.320738967452986E-2    5.673461177679048E-1    3.037497763450963E-2   -1.573680489742552E-3    2.986959573922224E-2   -2.025773834814209E-3    5.805217085894040E-2    5.226127058954517E-1
 6.564620321750000E9    -4.212917047341563E-2    5.674655167690551E-1    3.063408563678454E-2   -1.564837472018017E-3    3.002921432003546E-2   -2.105467022743258E-3    5.920372227446332E-2    5.224651242660080E-1
 6.564633477000000E9    -4.110897378356035E-2    5.674816569128702E-1    3.082250265452902E-2   -1.611296465541615E-3    3.020182257539769E-2   -2.231531454989056E-3    6.047282849711774E-2    5.223343066568761E-1
 6.564646632250000E9    -4.002608013204188E-2    5.676016326934981E-1    3.087480147244768E-2   -1.640766954119784E-3    3.034787773808988E-2   -2.311890125639041E-3    6.151392332431653E-2    5.222985502436933E-1
 6.564659787500000E9    -3.902670893257668E-2    5.675694812854081E-1    3.103622553039874E-2   -1.925283132119265E-3    3.057227905827712E-2   -2.313019978012404E-3    6.263278910409820E-2    5.221741746034242E-1
 6.564672942750000E9    -3.789165954205277E-2    5.676610660687567E-1    3.111933577097352E-2   -1.880963479521769E-3    3.074258110840603E-2   -2.514358764053955E-3    6.404237365162774E-2    5.219116973257372E-1
 6.564686098000000E9    -3.684236944719096E-2    5.676617377818364E-1    3.127901072624301E-2   -2.139964392456708E-3    3.081583523815230E-2   -2.522692555699607E-3    6.529481706713611E-2    5.217820016860607E-1
 6.564699253250000E9    -3.574709760663757E-2    5.677568665482917E-1    3.147580972880416E-2   -2.182674362493704E-3    3.095582792554105E-2   -2.656630091250959E-3    6.621432376051177E-2    5.217456098994553E-1
 6.564712408500000E9    -3.474841179001010E-2    5.679125671414768E-1    3.171847734267299E-2   -2.249170889430193E-3    3.113105054652855E-2   -2.697137284386356E-3    6.763964122331864E-2    5.215168499159348E-1
 6.564725563750000E9    -3.366727739174127E-2    5.679463883998712E-1    3.185859423242996E-2   -2.332806249540908E-3    3.130609172534404E-2   -2.913351577760863E-3    6.887964971897466E-2    5.214421190777773E-1
 6.564738719000000E9    -3.257528898046157E-2    5.680273632738315E-1    3.191621583828422E-2   -2.347281863646092E-3    3.146971972265705E-2   -2.841610912663600E-3    6.991089777250496E-2    5.213246302832099E-1
 6.564751874250000E9    -3.149451491450336E-2    5.679827707512971E-1    3.210577446775564E-2   -2.523276085372215E-3    3.166820332599269E-2   -3.007015050251632E-3    7.122388384402770E-2    5.213074455978041E-1
 6.564765029500000E9    -3.045627480930862E-2    5.680616217070851E-1    3.234266398372012E-2   -2.684340975821244E-3    3.171167684057189E-2   -3.043716681325320E-3    7.238388219331929E-2    5.209793514133189E-1
 6.564778184750000E9    -2.935931388345378E-2    5.680539857395137E-1    3.251566082867632E-2   -2.548729565290446E-3    3.192373710239151E-2   -3.114953949126854E-3    7.371359687794221E-2    5.208422735701450E-1
 6.564791340000000E9    -2.841230973360939E-2    5.680392569865366E-1    3.263338107172215E-2   -2.707261781419782E-3    3.218478785705527E-2   -3.264618132444882E-3    7.486403326104582E-2    5.205868546579773E-1
 6.564804495250000E9    -2.722012134396260E-2    5.680246251604808E-1    3.282525089578905E-2   -2.864639064731489E-3    3.223413761435226E-2   -3.348371887104955E-3    7.607377611802031E-2    5.204976127581847E-1
 6.564817650500000E9    -2.623812806161300E-2    5.681700620912803E-1    3.307852727689001E-2   -2.869526172918947E-3    3.244748825423501E-2   -3.407993864724493E-3    7.724969087185576E-2    5.201387869007842E-1
 6.564830805750000E9    -2.508795966315822E-2    5.682509938186434E-1    3.332798805131851E-2   -3.042932378260784E-3    3.265171000804255E-2   -3.477482347313689E-3    7.843771790669994E-2    5.201203051394125E-1
 6.564843961000000E9    -2.410550573426998E-2    5.683001217852949E-1    3.326597861635854E-2   -3.178863832358431E-3    3.283858220867294E-2   -3.696857878979077E-3    7.976838360470653E-2    5.199404824074348E-1
 6.564857116250000E9    -2.299589520403393E-2    5.683193465153449E-1    3.358061184338292E-2   -3.189941458747088E-3    3.310739870982496E-2   -3.746595824078135E-3    8.086661927484778E-2    5.196484558009964E-1
 6.564870271500000E9    -2.184304069735101E-2    5.683311984270937E-1    3.375896660215277E-2   -3.417597831293861E-3    3.315074078221261E-2   -3.875299437614152E-3    8.231637812743177E-2    5.193265236107412E-1
 6.564883426750000E9    -2.080351799957218E-2    5.683632377956671E-1    3.389896885296193E-2   -3.451701903265871E-3    3.338954676514116E-2   -3.918468295719128E-3    8.342482950833204E-2    5.193455970336280E-1
 6.564896582000000E9    -1.969140819985501E-2    5.682623407010944E-1    3.417808180388589E-2   -3.683137505229706E-3    3.353965747694609E-2   -4.067648491697494E-3    8.467424866992092E-2    5.192219734682367E-1
 6.564909737250000E9    -1.863847677959605E-2    5.684051497074918E-1    3.441269046022310E-2   -3.626399170524599E-3    3.381456559105056E-2   -4.134215278011243E-3    8.602599182092360E-2    5.190003398102901E-1
 6.564922892500000E9    -1.759008662154284E-2    5.683441522388470E-1    3.459238993028161E-2   -3.833997679872190E-3    3.396082412930816E-2   -4.238463128024888E-3    8.724612570294156E-2    5.186094168272056E-1
 6.564936047750000E9    -1.643342652313154E-2    5.683781167284638E-1    3.490211422779586E-2   -3.925842965430736E-3    3.414996423626106E-2   -4.400394797707132E-3    8.850265154147686E-2    5.186153426166958E-1
 6.564949203000000E9    -1.544407602063254E-2    5.683816529177750E-1    3.494674325466739E-2   -3.919909369483139E-3    3.427709171615621E-2   -4.461010961043531E-3    8.975836039626416E-2    5.183373132481021E-1
 6.564962358250000E9    -1.430560365337280E-2    5.684911126877435E-1    3.515472368626341E-2   -4.177631250467353E-3    3.447248973802314E-2   -4.646817143681549E-3    9.094251542231067E-2    5.180539075275029E-1
 6.564975513500000E9    -1.326658186860673E-2    5.684422474021797E-1    3.527257164026448E-2   -4.186803537861369E-3    3.476635620806173E-2   -4.676770440475318E-3    9.231083183950273E-2    5.178127871662725E-1
 6.564988668750000E9    -1.213392611263801E-2    5.684168296452945E-1    3.554752857241088E-2   -4.332710270497551E-3    3.495387018524566E-2   -4.818519883662176E-3    9.354515264695611E-2    5.176435021269556E-1
 6.565001824000000E9    -1.107377049528669E-2    5.684172534032923E-1    3.572909525487589E-2   -4.427726977852112E-3    3.520382944232218E-2   -4.937531771064474E-3    9.487572727838244E-2    5.174230039241988E-1
 6.565014979250000E9    -9.977031963457169E-3    5.684914736864350E-1    3.593429318506926E-2   -4.521443042193921E-3    3.529201431408338E-2   -5.158949007642642E-3    9.606718023039275E-2    5.171988633869279E-1
 6.565028134500000E9    -8.979318357369662E-3    5.684709818054050E-1    3.618766028714730E-2   -4.617316180835368E-3    3.548042887559714E-2   -5.190446777852137E-3    9.749660419484230E-2    5.169182377057526E-1
 6.565041289750000E9    -7.785755669825876E-3    5.685005366845055E-1    3.640192071395359E-2   -4.853908917938307E-3    3.577134201859807E-2   -5.370244610907958E-3    9.866796992452014E-2    5.166662910602398E-1
 6.565054445000000E9    -6.713892128330149E-3    5.684090768056809E-1    3.661664816588320E-2   -4.850611755452777E-3    3.604829513002515E-2   -5.377445659175023E-3    1.000226845330338E-1    5.162728801042034E-1
 6.565067600250000E9    -5.681610270571421E-3    5.684265033182930E-1    3.694226725188200E-2   -5.053192583404018E-3    3.617370989231414E-2   -5.565099783953089E-3    1.012829883983734E-1    5.161581660164610E-1
 6.565080755500000E9    -4.489606135555857E-3    5.684743746175164E-1    3.699422066860761E-2   -5.234914773198103E-3    3.638867483540233E-2   -5.741600663936849E-3    1.025016576756624E-1    5.159190124545908E-1
 6.565093910750000E9    -3.422506805717292E-3    5.683796470420847E-1    3.730287968205088E-2   -5.319399822489794E-3    3.662928215415300E-2   -5.867090998535082E-3    1.038305470359018E-1    5.156546225340372E-1
 6.565107066000000E9    -2.218157347199882E-3    5.684339597837794E-1    3.746243543273959E-2   -5.236131855897659E-3    3.687031369043735E-2   -6.037287886636540E-3    1.053184566901932E-1    5.154270292360362E-1
 6.565120221250000E9    -1.054811363461523E-3    5.683091961295261E-1    3.751887734696210E-2   -5.640575965350391E-3    3.704601789251986E-2   -6.107167917138437E-3    1.065955472127414E-1    5.150020994036382E-1
 6.565133376500000E9    -1.680531206103153E-4    5.683561138625174E-1    3.792185094400614E-2   -5.705432416885567E-3    3.734971230929185E-2   -6.229147364368865E-3    1.080450099359963E-1    5.147452149785365E-1
 6.565146531750000E9     1.073350858041563E-3    5.683192613946724E-1    3.822568690638928E-2   -5.661789208327050E-3    3.755592830360353E-2   -6.406532777576966E-3    1.091575314088365E-1    5.144776772205250E-1
 6.565159687000000E9     2.142487783267165E-3    5.683359322859772E-1    3.846809487235525E-2   -5.976631063250091E-3    3.773426461100052E-2   -6.469881646812951E-3    1.106435041437615E-1    5.141367386122930E-1
 6.565172842250000E9     3.272824831958856E-3    5.682066162365843E-1    3.875952317758417E-2   -6.056449704359595E-3    3.800847342689171E-2   -6.613310233686200E-3    1.118784697553334E-1    5.138951683351269E-1
 6.565185997500000E9     4.370773423145506E-3    5.681382922231989E-1    3.886048697738691E-2   -6.225023065548448E-3    3.830305883381264E-2   -6.717214368572479E-3    1.132965055267497E-1    5.135604504847158E-1
 6.565199152750000E9     5.512679640142314E-3    5.681750815129670E-1    3.913393122977153E-2   -6.471559762028531E-3    3.844992035491605E-2   -6.930345272100139E-3    1.146415350661542E-1    5.131916581117929E-1
 6.565212308000000E9     6.638357025770509E-3    5.680147666122363E-1    3.933135924684194E-2   -6.692117248040841E-3    3.868543055705197E-2   -7.151680781180429E-3    1.159086846058337E-1    5.129473354501375E-1
 6.565225463250000E9     7.632982083670413E-3    5.679574187507430E-1    3.981135073095542E-2   -6.885822106222835E-3    3.908326384735183E-2   -7.385529134100412E-3    1.173965099800051E-1    5.127315811262304E-1
 6.565238618500000E9     8.827093256528567E-3    5.681280621095540E-1    3.991632982610247E-2   -7.018232178944387E-3    3.916409549278889E-2   -7.396650056495237E-3    1.186342167852812E-1    5.121646730398378E-1
 6.565251773750000E9     9.858340323599658E-3    5.680855771023889E-1    4.014353166837206E-2   -7.112765510353335E-3    3.942460580785033E-2   -7.657697203543705E-3    1.200078989696993E-1    5.119934395524158E-1
 6.565264929000000E9     1.107825951775662E-2    5.679727824585249E-1    4.041806516498361E-2   -7.216125562379174E-3    3.967582103329936E-2   -7.721847294194548E-3    1.214461434752647E-1    5.115254557560078E-1
 6.565278084250000E9     1.216294303914031E-2    5.678513673053284E-1    4.070488776449915E-2   -7.382520684232131E-3    3.988872901545391E-2   -7.949031640476379E-3    1.227829311665360E-1    5.111495669061051E-1
 6.565291239500000E9     1.326244726749227E-2    5.678680219933372E-1    4.100448349533221E-2   -7.543056779985299E-3    4.022200531874687E-2   -8.095525584456663E-3    1.240690772697375E-1    5.107885175547008E-1
 6.565304394750000E9     1.441176063133142E-2    5.678679514627932E-1    4.136678335875708E-2   -7.642828361291614E-3    4.058974769839725E-2   -8.204226743242478E-3    1.255368534858644E-1    5.105156193160795E-1
 6.565317550000000E9     1.550888120351271E-2    5.676215014874081E-1    4.152126230312304E-2   -7.783608598787180E-3    4.083813811653021E-2   -8.371618620019833E-3    1.270462260326319E-1    5.101546178911369E-1
 6.565330705250000E9     1.675374313748227E-2    5.676678569332995E-1    4.167332423990134E-2   -8.132068715382001E-3    4.107577304877482E-2   -8.632357473393137E-3    1.283364739217739E-1    5.096837763929496E-1
 6.565343860500000E9     1.777574513064633E-2    5.676052389050016E-1    4.197560153465653E-2   -8.080382963134677E-3    4.143853033291157E-2   -8.768458177028765E-3    1.298043586193470E-1    5.095008268960524E-1
 6.565357015750000E9     1.897513073375302E-2    5.675410385975214E-1    4.253583945535918E-2   -8.442226971716644E-3    4.158517229574743E-2   -8.882604037235065E-3    1.312116703814473E-1    5.089410815802191E-1
 6.565370171000000E9     2.008215345570715E-2    5.673910957994543E-1    4.271434661857487E-2   -8.508860559236796E-3    4.194354441955148E-2   -9.054511399227166E-3    1.326559522558510E-1    5.087403266545866E-1
 6.565383326250000E9     2.129783806898554E-2    5.673779885552437E-1    4.286173756369501E-2   -8.714111990095103E-3    4.212557960338384E-2   -9.306473619316745E-3    1.341004692857115E-1    5.081417995261562E-1
 6.565396481500000E9     2.231894525156577E-2    5.672180643220424E-1    4.308616611328022E-2   -8.908398473522186E-3    4.256925969591939E-2   -9.551491601034837E-3    1.354435922610524E-1    5.077842105579093E-1
 6.565409636750000E9     2.351780015639970E-2    5.672446884153758E-1    4.356444780233624E-2   -9.160687599435526E-3    4.282457057226294E-2   -9.722307620563701E-3    1.368806877794012E-1    5.073468281514196E-1
 6.565422792000000E9     2.471040426455804E-2    5.669878049836857E-1    4.384440399111144E-2   -9.306961950515722E-3    4.308864975655020E-2   -9.872323590923746E-3    1.382761063785185E-1    5.068872487326860E-1
 6.565435947250000E9     2.586587815195924E-2    5.670995854961325E-1    4.409645369196851E-2   -9.591599010193791E-3    4.347763829034819E-2   -1.002591167483616E-2    1.398717288710349E-1    5.063268722049682E-1
 6.565449102500000E9     2.696342384880889E-2    5.668559818167658E-1    4.434569569405949E-2   -9.769345009861072E-3    4.372162842531257E-2   -1.033802398762858E-2    1.413724224494884E-1    5.060113235770168E-1
 6.565462257750000E9     2.809854285098409E-2    5.667174164484934E-1    4.468760593758968E-2   -9.931200048266479E-3    4.410407969761096E-2   -1.054609349760107E-2    1.427015700936462E-1    5.056231653428864E-1
 6.565475413000000E9     2.933624617036107E-2    5.666207614195915E-1    4.517522685447388E-2   -1.028289718397314E-2    4.436829061825325E-2   -1.068132194703223E-2    1.442423369370185E-1    5.050120649773233E-1
 6.565488568250000E9     3.042333211325800E-2    5.664632170750477E-1    4.537570685898306E-2   -1.044182844093794E-2    4.462076310412753E-2   -1.091993349846725E-2    1.456898615067837E-1    5.045067876327053E-1
 6.565501723500000E9     3.161350298234204E-2    5.664521109261290E-1    4.576148297975826E-2   -1.068242142985842E-2    4.500871902674237E-2   -1.133818985956892E-2    1.473652698695319E-1    5.042180739022469E-1
 6.565514878750000E9     3.277915540953667E-2    5.661438028195392E-1    4.601802142100811E-2   -1.088740332655404E-2    4.529705321895960E-2   -1.150407545430826E-2    1.486796575442791E-1    5.034557306294392E-1
 6.565528034000000E9     3.386469796546492E-2    5.661108609635085E-1    4.639689539012711E-2   -1.119915386343888E-2    4.568029790810656E-2   -1.178432307737997E-2    1.503516804901668E-1    5.031263730459437E-1
 6.565541189250000E9     3.508647558831521E-2    5.660678456419701E-1    4.673623955665187E-2   -1.122209056102118E-2    4.602305435833268E-2   -1.191286594608293E-2    1.517204151282152E-1    5.026841691617162E-1
 6.565554344500000E9     3.621465793674215E-2    5.660386841762631E-1    4.708852814567573E-2   -1.158287881961410E-2    4.632426284406710E-2   -1.214824484652905E-2    1.533928094718848E-1    5.021554788168360E-1
 6.565567499750000E9     3.741640263587889E-2    5.657433443076686E-1    4.752430374193084E-2   -1.167522421938394E-2    4.673272914448082E-2   -1.248272737054550E-2    1.549388457628318E-1    5.015896691875067E-1
 6.565580655000000E9     3.855332824481143E-2    5.655946399806244E-1    4.776713798966175E-2   -1.213389836963409E-2    4.706124777813343E-2   -1.268819695376983E-2    1.565378508907757E-1    5.009829656432148E-1
 6.565593810250000E9     3.985329651400420E-2    5.655358535406380E-1    4.830342672168533E-2   -1.224977062396550E-2    4.728687724662979E-2   -1.288470148427512E-2    1.581118793368045E-1    5.004605598143627E-1
 6.565606965500000E9     4.094671945808737E-2    5.654225260091047E-1    4.855798264261622E-2   -1.261903597261459E-2    4.773462457853784E-2   -1.320078715437046E-2    1.595408497611625E-1    4.998651866979105E-1
 6.565620120750000E9     4.205267436247745E-2    5.651606248638864E-1    4.891106699067672E-2   -1.275974316429045E-2    4.814264092908947E-2   -1.347722325069078E-2    1.611458296457898E-1    4.992801029695542E-1
 6.565633276000000E9     4.342518881595927E-2    5.651682088271202E-1    4.931834708539275E-2   -1.313209630079966E-2    4.856616158795039E-2   -1.376440695592118E-2    1.628987435089311E-1    4.986257983904527E-1
 6.565646431250000E9     4.448359184747613E-2    5.649478728381713E-1    4.962961482482373E-2   -1.333107461761163E-2    4.887285291907879E-2   -1.407637422829964E-2    1.643949964572498E-1    4.979964811654389E-1
 6.565659586500000E9     4.577000079509463E-2    5.647693415670018E-1    4.999182055580581E-2   -1.373181117908759E-2    4.928132074033401E-2   -1.431964712153936E-2    1.660124304690388E-1    4.974964681497998E-1
