#  HZ   S   RI   R     50.00 
! Rohde & Schwarz Vector Network Analyzer 
! Rohde-Schwarz,ZNB20-2Port,1311601062101988,3.16
! Created: UTC 3/20/2024, 4:54:37 PM
! freq[Hz]                re:S11                  im:S11                  re:S21                  im:S21                  re:S12                  im:S12                  re:S22                  im:S22
 6.564421832000000E9    -5.737865769432569E-2    5.664729942796061E-1    2.898850595104852E-2   -6.877839613942180E-4    2.844921813795614E-2   -1.246830775239152E-3    4.429673636800687E-2    5.265353135532452E-1
 6.564435007225000E9    -5.625205391985122E-2    5.664408871901571E-1    2.903553717831761E-2   -8.788871937354089E-4    2.855313713479827E-2   -1.257206895312389E-3    4.560910130747378E-2    5.263863417315330E-1
 6.564448182450000E9    -5.525220434715074E-2    5.666477584205719E-1    2.915285457452767E-2   -8.854843876494360E-4    2.876742217200088E-2   -1.420352225597917E-3    4.666104326132920E-2    5.263263791427999E-1
 6.564461357675000E9    -5.425685755746647E-2    5.666966624593602E-1    2.936750250287111E-2   -9.960955830072371E-4    2.891745606826314E-2   -1.299426157424205E-3    4.777804710396957E-2    5.261357541677895E-1
 6.564474532900000E9    -5.309645285153589E-2    5.667502140650192E-1    2.953873604446816E-2   -9.522305415955084E-4    2.904167919554191E-2   -1.420738084098395E-3    4.920936903499813E-2    5.260169129921726E-1
 6.564487708125000E9    -5.209424264067428E-2    5.669768441254117E-1    2.954487009585263E-2   -1.073288847725110E-3    2.917856868613533E-2   -1.595572677968491E-3    5.020636723710755E-2    5.259356926136075E-1
 6.564500883350000E9    -5.097275480760294E-2    5.670052845508821E-1    2.978652326322142E-2   -1.161568912279148E-3    2.934852140160833E-2   -1.713394746950493E-3    5.138252616715707E-2    5.260054803985496E-1
 6.564514058575000E9    -4.997373027594949E-2    5.670327173087352E-1    2.987626968870030E-2   -1.205660990144855E-3    2.939693302176126E-2   -1.750554976812489E-3    5.241821089428637E-2    5.258032244460831E-1
 6.564527233800000E9    -4.890411148952601E-2    5.672309123055516E-1    3.004596368869409E-2   -1.364779806843366E-3    2.962331239334438E-2   -1.806639862513066E-3    5.379199642726464E-2    5.256407669106907E-1
 6.564540409025000E9    -4.790049347794564E-2    5.672130561348696E-1    3.026364673391798E-2   -1.262560515062168E-3    2.970513673965457E-2   -1.855283912605644E-3    5.485137152148379E-2    5.256688538576367E-1
 6.564553584250000E9    -4.684484196639024E-2    5.673227062079879E-1    3.034946101929260E-2   -1.459858713385760E-3    2.989132293849942E-2   -1.976471340168965E-3    5.599088966128705E-2    5.254974861698275E-1
 6.564566759475000E9    -4.581458187059823E-2    5.673647744617799E-1    3.073789803122579E-2   -1.468431909357955E-3    2.997366604166812E-2   -2.084061586333154E-3    5.730563496435232E-2    5.254218402483903E-1
 6.564579934700000E9    -4.479219622670289E-2    5.675021403139637E-1    3.080062880309770E-2   -1.515924608110183E-3    3.020043588363561E-2   -2.038961644746873E-3    5.844902090857307E-2    5.251785594682474E-1
 6.564593109925000E9    -4.358354539762312E-2    5.675036543361636E-1    3.095705012697657E-2   -1.632067810831896E-3    3.034474009482847E-2   -2.177368641902128E-3    5.966786952092304E-2    5.250427140452758E-1
 6.564606285150000E9    -4.251393005901481E-2    5.676133762382133E-1    3.105435457897379E-2   -1.761439735905267E-3    3.054791664906862E-2   -2.249859365796507E-3    6.089500509331952E-2    5.249334311042557E-1
 6.564619460375000E9    -4.143063044536980E-2    5.675767456374678E-1    3.128362869732565E-2   -1.897199721972115E-3    3.076907497071286E-2   -2.330829002602126E-3    6.203954660404249E-2    5.248808328104586E-1
 6.564632635600000E9    -4.040273938558510E-2    5.678323868882199E-1    3.148003494292280E-2   -1.945464213981521E-3    3.090401320920102E-2   -2.396733389776811E-3    6.321355499778818E-2    5.247592742136485E-1
 6.564645810825000E9    -3.931192682899945E-2    5.676134920406359E-1    3.159798953683284E-2   -2.132160200939304E-3    3.088767334829723E-2   -2.583137158059885E-3    6.447948887257016E-2    5.245323100814675E-1
 6.564658986050000E9    -3.827763520955541E-2    5.679044632748885E-1    3.170741853367648E-2   -2.048398905420947E-3    3.117180941215459E-2   -2.580416089993229E-3    6.565719627058687E-2    5.244968720966389E-1
 6.564672161275000E9    -3.729587081037473E-2    5.678736569538876E-1    3.191692780028291E-2   -2.105860446405557E-3    3.136419400161637E-2   -2.659381780722553E-3    6.687306954459478E-2    5.241705183614478E-1
 6.564685336500000E9    -3.616197504117827E-2    5.680181879988470E-1    3.215687476428983E-2   -2.312984767495681E-3    3.139355296083873E-2   -2.776077719241652E-3    6.805013792986256E-2    5.240292850015438E-1
 6.564698511725000E9    -3.511387028660581E-2    5.679968097061636E-1    3.228656775113629E-2   -2.432375497832789E-3    3.168266208432246E-2   -2.987387513593442E-3    6.930532458496926E-2    5.238744982892259E-1
 6.564711686950000E9    -3.403401709417637E-2    5.680385713097715E-1    3.237178976392450E-2   -2.517446251854096E-3    3.181587993403373E-2   -2.926988356714738E-3    7.041179999002231E-2    5.238463388823383E-1
 6.564724862175000E9    -3.303839167715254E-2    5.681441507018844E-1    3.252786670864530E-2   -2.629644962327422E-3    3.207712228000044E-2   -3.090111724752050E-3    7.176958993864323E-2    5.236560220894255E-1
 6.564738037400000E9    -3.195497862863086E-2    5.682013313331991E-1    3.268949399604545E-2   -2.521118135628700E-3    3.213563895207155E-2   -3.254698558200131E-3    7.295924922841464E-2    5.234616956824943E-1
 6.564751212625000E9    -3.087686744519571E-2    5.683387953759337E-1    3.292181000658578E-2   -2.842345895531766E-3    3.238571786266969E-2   -3.213684997432684E-3    7.422057748263543E-2    5.233042689030215E-1
 6.564764387850000E9    -2.974543613333345E-2    5.682263578619534E-1    3.315070631054856E-2   -2.770115183153866E-3    3.250825686164945E-2   -3.368859696695183E-3    7.549357907149681E-2    5.231989887452214E-1
 6.564777563075000E9    -2.873265649448630E-2    5.682591837390706E-1    3.336116855944466E-2   -3.045195171450032E-3    3.276005835469772E-2   -3.404409974475397E-3    7.660574034774234E-2    5.229680310596722E-1
 6.564790738300000E9    -2.758144109784650E-2    5.683132128255647E-1    3.344623545924851E-2   -2.992396162383133E-3    3.291255986938516E-2   -3.488169979759280E-3    7.793501490945988E-2    5.228199833174689E-1
 6.564803913525000E9    -2.651042247437168E-2    5.683360589106915E-1    3.351566401672769E-2   -3.241372031627579E-3    3.305998051190629E-2   -3.706810142631291E-3    7.927651052068486E-2    5.226157181366391E-1
 6.564817088750000E9    -2.547035192683971E-2    5.684077134862650E-1    3.385808514420130E-2   -3.242229200945741E-3    3.322387919043037E-2   -3.770478461982375E-3    8.030049150732319E-2    5.224193684541965E-1
 6.564830263975000E9    -2.439622097248030E-2    5.685334902658988E-1    3.401953943654827E-2   -3.348664181696770E-3    3.336979269420756E-2   -3.807008281269824E-3    8.161878726694606E-2    5.222289392607743E-1
 6.564843439200000E9    -2.333506551891321E-2    5.683822047009488E-1    3.413870279969005E-2   -3.459801905021634E-3    3.367773030335426E-2   -3.916321877180676E-3    8.302397522712397E-2    5.220354179553072E-1
 6.564856614425000E9    -2.217620001972859E-2    5.685381812166678E-1    3.444440641320860E-2   -3.608651265388835E-3    3.385530355716287E-2   -4.130219782672367E-3    8.418675384812513E-2    5.217464026087122E-1
 6.564869789650000E9    -2.116321760981979E-2    5.684937825577610E-1    3.457029849851456E-2   -3.643343904381379E-3    3.396007568297382E-2   -4.142268820557050E-3    8.538190578931912E-2    5.215998022732997E-1
 6.564882964875000E9    -1.990557664062188E-2    5.684756633892912E-1    3.483087186402566E-2   -3.758735435326772E-3    3.416776240024196E-2   -4.326533884908026E-3    8.654223934185835E-2    5.214438011902374E-1
 6.564896140100000E9    -1.899104649104274E-2    5.686392351813778E-1    3.493178398365265E-2   -3.899819428622827E-3    3.438854827823939E-2   -4.382668757136266E-3    8.801557991930159E-2    5.211334643156849E-1
 6.564909315325000E9    -1.783203678131317E-2    5.685537360152565E-1    3.528536378212427E-2   -4.052553893754321E-3    3.463708230105955E-2   -4.481439944397443E-3    8.945135007086732E-2    5.209912602266474E-1
 6.564922490550000E9    -1.673183203376120E-2    5.686321732113873E-1    3.540087325273587E-2   -4.212538994247424E-3    3.470516161362058E-2   -4.576502600438027E-3    9.045082928272165E-2    5.207342503667653E-1
 6.564935665775000E9    -1.569059898515415E-2    5.686201614704258E-1    3.557244422921620E-2   -4.304517901880376E-3    3.499204305676953E-2   -4.780549023787744E-3    9.179936861339605E-2    5.205346448676986E-1
 6.564948841000000E9    -1.460548073487680E-2    5.686333946626255E-1    3.574339889452573E-2   -4.292452689854639E-3    3.523095821192645E-2   -4.817099460681314E-3    9.297641837047162E-2    5.203346627508192E-1
 6.564962016225000E9    -1.358778705083187E-2    5.686411429901936E-1    3.597534318883553E-2   -4.488478711615618E-3    3.541984861529612E-2   -4.988569532201419E-3    9.438408056360520E-2    5.201555014240969E-1
 6.564975191450000E9    -1.239212279735227E-2    5.686930005438363E-1    3.626118255762969E-2   -4.547700590926338E-3    3.564154157276411E-2   -5.058331618001214E-3    9.578669951255799E-2    5.198910916444026E-1
 6.564988366675000E9    -1.134789038762655E-2    5.685770519301669E-1    3.660462930875540E-2   -4.638629122689069E-3    3.580853304196975E-2   -5.179057418793976E-3    9.691681825598156E-2    5.196357987766344E-1
 6.565001541900000E9    -1.018308559107967E-2    5.685822290606697E-1    3.651125609325506E-2   -4.778773432355918E-3    3.607312051861940E-2   -5.356674321602358E-3    9.824598612611220E-2    5.194370258603876E-1
 6.565014717125000E9    -9.095787557281253E-3    5.686519401942279E-1    3.696690262717231E-2   -4.855583588438411E-3    3.622056843055779E-2   -5.385165752970802E-3    9.959852759944013E-2    5.191997890498771E-1
 6.565027892350000E9    -8.010923656660590E-3    5.686002421340801E-1    3.723580327078946E-2   -5.176210365740929E-3    3.646656246696325E-2   -5.626813314128715E-3    1.009165486601058E-1    5.187522220013462E-1
 6.565041067575000E9    -6.815548130412774E-3    5.686926737246325E-1    3.719821885632546E-2   -5.073184875634134E-3    3.667761477379390E-2   -5.762163647879635E-3    1.022630046908964E-1    5.185456633967681E-1
 6.565054242800000E9    -5.765708266366600E-3    5.686690108607062E-1    3.755744265763222E-2   -5.471984376968261E-3    3.693845115592673E-2   -5.808364141189806E-3    1.034471933714212E-1    5.183303188165128E-1
 6.565067418025000E9    -4.751558429374730E-3    5.685246087732615E-1    3.778518024292622E-2   -5.576840584053396E-3    3.717929383074726E-2   -6.029736238817525E-3    1.049102235579451E-1    5.179197169224914E-1
 6.565080593250000E9    -3.667315542028846E-3    5.686065298490991E-1    3.805945367310266E-2   -5.614860438565569E-3    3.741160047589250E-2   -6.116649299513875E-3    1.062067994395939E-1    5.176641083761336E-1
 6.565093768475000E9    -2.578672642962023E-3    5.685326889560659E-1    3.828211020418734E-2   -5.671228582760143E-3    3.767353848905463E-2   -6.192794692097998E-3    1.075062441084696E-1    5.173828130677468E-1
 6.565106943700000E9    -1.340696237420609E-3    5.685017523710516E-1    3.841455699381552E-2   -5.830748093306256E-3    3.778038669206772E-2   -6.371363762504882E-3    1.089355156079515E-1    5.171812506487249E-1
 6.565120118925000E9    -3.274307345253144E-4    5.683961089218367E-1    3.864188815319036E-2   -6.093639117976246E-3    3.814443071821095E-2   -6.607093064150006E-3    1.102960078580257E-1    5.168029636059840E-1
 6.565133294150000E9     9.497633371358202E-4    5.685033132601730E-1    3.906391783297175E-2   -6.174166637271310E-3    3.832132802624126E-2   -6.717095616228816E-3    1.114808884443465E-1    5.165801211556184E-1
 6.565146469375000E9     2.036467645936721E-3    5.684714190683905E-1    3.922083727486714E-2   -6.382813792935760E-3    3.854286033513921E-2   -6.868792459933216E-3    1.128995667432804E-1    5.162401373104721E-1
 6.565159644600000E9     3.116240909124471E-3    5.684019246299222E-1    3.941731304573114E-2   -6.370814359450211E-3    3.880698277967440E-2   -7.096348670380265E-3    1.142792152451498E-1    5.159569872721854E-1
 6.565172819825000E9     4.136628668651434E-3    5.682372174528640E-1    3.978181550124120E-2   -6.664043246661529E-3    3.899531769445778E-2   -7.104682970315284E-3    1.155889678926974E-1    5.155258794588682E-1
 6.565185995050000E9     5.229936938382538E-3    5.683497845628205E-1    3.991080252316039E-2   -6.856661958863583E-3    3.936334139870576E-2   -7.267502353739952E-3    1.169539625667663E-1    5.151459262821101E-1
 6.565199170275000E9     6.516899312678241E-3    5.683100605242298E-1    4.020050540864629E-2   -6.789626918347072E-3    3.957870898687740E-2   -7.481312958814160E-3    1.183709168629254E-1    5.148733320705569E-1
 6.565212345500000E9     7.508590914347026E-3    5.681907517533723E-1    4.048674400889653E-2   -7.126590294709910E-3    3.975650376883947E-2   -7.641526410014258E-3    1.197447700525971E-1    5.145124227378208E-1
 6.565225520725000E9     8.780097651452901E-3    5.681805063759851E-1    4.070854820460217E-2   -7.206368195156200E-3    4.004620670972492E-2   -7.822740074289852E-3    1.212063333200461E-1    5.142155265549787E-1
 6.565238695950000E9     9.834338058386450E-3    5.681217122953273E-1    4.103840069898835E-2   -7.406270146991105E-3    4.024093282160307E-2   -8.043925169994337E-3    1.226509639050526E-1    5.137497292888742E-1
 6.565251871175000E9     1.096970579224170E-2    5.680958993237857E-1    4.119380284851230E-2   -7.689123760674525E-3    4.058423022257649E-2   -8.175634047516834E-3    1.240087024966472E-1    5.133842922067839E-1
 6.565265046400000E9     1.196138334807950E-2    5.680903861837999E-1    4.150110441212176E-2   -7.791978099626701E-3    4.093040920369728E-2   -8.331089995510117E-3    1.253538642151966E-1    5.132015052035986E-1
 6.565278221625000E9     1.326492040079923E-2    5.679311962397660E-1    4.192990823885998E-2   -7.862725949954210E-3    4.112651070771257E-2   -8.515680715037117E-3    1.267100174069813E-1    5.127206785769178E-1
 6.565291396850000E9     1.426095396856958E-2    5.678756965184628E-1    4.209533517570636E-2   -8.183581574901478E-3    4.137246510536739E-2   -8.646050526482409E-3    1.283031393797116E-1    5.123001973220496E-1
 6.565304572075000E9     1.550641084073503E-2    5.678244049429824E-1    4.242512778433410E-2   -8.177389947677499E-3    4.167819732275731E-2   -8.858124426934800E-3    1.295550115951260E-1    5.120327367487583E-1
 6.565317747300000E9     1.663032283435857E-2    5.677968384007935E-1    4.270936950343408E-2   -8.427084022329065E-3    4.195894815399315E-2   -9.139092667851994E-3    1.310159297678643E-1    5.116281881877407E-1
 6.565330922525000E9     1.773869456852154E-2    5.676277404764312E-1    4.290907855203951E-2   -8.660938836555689E-3    4.237541926081666E-2   -9.284881647043547E-3    1.325785399741861E-1    5.110988527678989E-1
 6.565344097750000E9     1.888982282502738E-2    5.677318882412363E-1    4.329864015196401E-2   -8.944198596372974E-3    4.261101857176041E-2   -9.361022829439850E-3    1.338498653873484E-1    5.108422713245264E-1
 6.565357272975000E9     2.000644815840222E-2    5.674479361829466E-1    4.377068571091610E-2   -8.974033404844131E-3    4.289965138866730E-2   -9.647081849665026E-3    1.353641109461965E-1    5.102405346144446E-1
 6.565370448200000E9     2.118455112730723E-2    5.674653744557704E-1    4.381676694244964E-2   -9.192282081909803E-3    4.323018345216482E-2   -9.765338770791623E-3    1.367340409480923E-1    5.098901376318367E-1
 6.565383623425000E9     2.238614510692641E-2    5.673163669123049E-1    4.422132735591303E-2   -9.465232492212790E-3    4.345861674379105E-2   -9.950531791638446E-3    1.384227672761557E-1    5.093657094516411E-1
 6.565396798650000E9     2.352880606492658E-2    5.673421445073142E-1    4.435336507057146E-2   -9.612882264870322E-3    4.374041536133525E-2   -1.026036277629336E-2    1.398834182346889E-1    5.090019854454901E-1
 6.565409973875000E9     2.463564168376328E-2    5.671949857811274E-1    4.477556848040420E-2   -9.942325254285445E-3    4.412132937294290E-2   -1.041250564481142E-2    1.412989954959636E-1    5.085110376522086E-1
 6.565423149100000E9     2.586295620785562E-2    5.670199959477092E-1    4.529919250388766E-2   -1.011742092965035E-2    4.451514530560671E-2   -1.065267135423139E-2    1.428605145100891E-1    5.080814776187397E-1
 6.565436324325000E9     2.696749892300773E-2    5.670428081267108E-1    4.541611336075335E-2   -1.038735929874184E-2    4.477244571001442E-2   -1.093916723717953E-2    1.442662554053367E-1    5.075517623291317E-1
 6.565449499550000E9     2.813978147441126E-2    5.668213520011508E-1    4.589002666832038E-2   -1.058842253321157E-2    4.501817534775381E-2   -1.105341697183776E-2    1.457595293043212E-1    5.070051800478083E-1
 6.565462674775000E9     2.934129566078652E-2    5.667183468161442E-1    4.620800512349325E-2   -1.067093585755347E-2    4.532905337881558E-2   -1.131060352080879E-2    1.473084543397768E-1    5.064839745158404E-1
 6.565475850000000E9     3.044238213224189E-2    5.665667894828896E-1    4.658333215472264E-2   -1.092563716097033E-2    4.571899505348071E-2   -1.154520930852392E-2    1.489176191373507E-1    5.061250336056762E-1
 6.565489025225000E9     3.165443101309730E-2    5.665144049330673E-1    4.698458397024277E-2   -1.119404067730435E-2    4.605581822012202E-2   -1.188616518648269E-2    1.503566558257338E-1    5.055497406906232E-1
 6.565502200450000E9     3.283693584025268E-2    5.664313392573992E-1    4.720488907250819E-2   -1.133838446566808E-2    4.643446347746490E-2   -1.214461517912439E-2    1.519553159733912E-1    5.052014705886890E-1
 6.565515375675000E9     3.401230248070621E-2    5.662515612115778E-1    4.761666858891098E-2   -1.195130482193042E-2    4.674266402942010E-2   -1.235688207864694E-2    1.535639305442190E-1    5.044978928472232E-1
 6.565528550900000E9     3.517030759902907E-2    5.661814218206102E-1    4.790552092292377E-2   -1.186411951159562E-2    4.707612896136186E-2   -1.261409280616677E-2    1.550326533295965E-1    5.039452519774373E-1
 6.565541726125000E9     3.634487607156609E-2    5.660132112627669E-1    4.826855709191342E-2   -1.226960960480266E-2    4.747063876759072E-2   -1.287177766006268E-2    1.565938524659454E-1    5.033822614730649E-1
 6.565554901350000E9     3.760244616821885E-2    5.659559877684623E-1    4.870336381450700E-2   -1.252070401054494E-2    4.788709313311174E-2   -1.311037570819439E-2    1.582608829574294E-1    5.028416060106394E-1
 6.565568076575000E9     3.877205394950085E-2    5.657593607772303E-1    4.902337518516575E-2   -1.267417000011474E-2    4.821484521580974E-2   -1.334911392082348E-2    1.597462105101393E-1    5.021035064387327E-1
 6.565581251800000E9     3.989277122358693E-2    5.655459555991597E-1    4.947524651404866E-2   -1.310116525844342E-2    4.858387693124747E-2   -1.359152304320440E-2    1.614677632327570E-1    5.016806270558797E-1
 6.565594427025000E9     4.116407335403011E-2    5.653713696406824E-1    4.985202642226795E-2   -1.338369379521372E-2    4.903950054561307E-2   -1.388720213662645E-2    1.629574430024225E-1    5.009855201296285E-1
 6.565607602250000E9     4.233605642447707E-2    5.652386729893052E-1    5.009335904579249E-2   -1.362414170913589E-2    4.931872606149482E-2   -1.418864268946602E-2    1.646978827620970E-1    5.005090600358122E-1
