#  HZ   S   RI   R     50.00 
! Rohde & Schwarz Vector Network Analyzer 
! Rohde-Schwarz,ZNB20-2Port,1311601062101988,3.16
! Created: UTC 3/20/2024, 5:09:49 PM
! freq[Hz]                re:S11                  im:S11                  re:S21                  im:S21                  re:S12                  im:S12                  re:S22                  im:S22
 6.564494856000000E9    -5.221547322919078E-2    5.665916372628950E-1    2.894521049520830E-2   -8.661552032631798E-4    2.857507617560203E-2   -1.251770436806995E-3    4.797428022310650E-2    5.234863283645311E-1
 6.564507943925000E9    -5.120517010171462E-2    5.667114639998729E-1    2.927909057614814E-2   -8.706518697802965E-4    2.871875499233004E-2   -1.489718639431582E-3    4.898829033357276E-2    5.235507504323160E-1
 6.564521031850000E9    -5.021997572630679E-2    5.669034786990131E-1    2.928017921683256E-2   -1.114162300429134E-3    2.876993400886774E-2   -1.499165369179735E-3    5.024689961143884E-2    5.234009972215607E-1
 6.564534119775000E9    -4.904903834485026E-2    5.670081288645663E-1    2.953428027902541E-2   -1.024236486942361E-3    2.896844311766306E-2   -1.561863654882464E-3    5.144281352027526E-2    5.233444186289974E-1
 6.564547207700000E9    -4.813189711816744E-2    5.668794564586808E-1    2.965151117783173E-2   -1.124046566437014E-3    2.916109145111231E-2   -1.643372277847465E-3    5.269918722816193E-2    5.232154273249049E-1
 6.564560295625000E9    -4.712096548321630E-2    5.670673006309911E-1    2.986964129584761E-2   -1.248880040637777E-3    2.920075464201680E-2   -1.722362714830763E-3    5.375048447537110E-2    5.230161235909846E-1
 6.564573383550000E9    -4.609883802173966E-2    5.672284098076528E-1    2.984304770696663E-2   -1.381187823326779E-3    2.942541823708213E-2   -1.758791979284601E-3    5.495806769181898E-2    5.229037641650883E-1
 6.564586471475000E9    -4.489695230872652E-2    5.672721980480735E-1    3.012532822796815E-2   -1.409802425448214E-3    2.944363766944632E-2   -1.937376609933966E-3    5.613691042800894E-2    5.227944883583102E-1
 6.564599559400000E9    -4.399259995652000E-2    5.672877981272336E-1    3.022057177328773E-2   -1.387791396393698E-3    2.980449805461918E-2   -1.908367450447306E-3    5.721054706258156E-2    5.227802353509096E-1
 6.564612647325000E9    -4.271379020233908E-2    5.673895236112279E-1    3.043980701495883E-2   -1.506779143777352E-3    2.988688038157216E-2   -2.008706356982326E-3    5.846043912125270E-2    5.226978980350263E-1
 6.564625735250000E9    -4.175408628721984E-2    5.674682967831145E-1    3.056430942942805E-2   -1.586149226910138E-3    3.008498487445422E-2   -2.056002661793301E-3    5.950231275045095E-2    5.225354232267170E-1
 6.564638823175000E9    -4.073224175299044E-2    5.675651723462239E-1    3.064619428476245E-2   -1.734164966087169E-3    3.023517878639610E-2   -2.169223597578369E-3    6.072474834927507E-2    5.223693885036145E-1
 6.564651911100000E9    -3.970034777337195E-2    5.675251511054215E-1    3.082893652674943E-2   -1.881697383232702E-3    3.031397831230046E-2   -2.257411547895002E-3    6.198373191927060E-2    5.223282814802321E-1
 6.564664999025000E9    -3.868019599798810E-2    5.676115720582838E-1    3.105570988356072E-2   -1.871745382960985E-3    3.046517383866247E-2   -2.390824235164124E-3    6.310602383223843E-2    5.221409975180168E-1
 6.564678086950000E9    -3.755829634909126E-2    5.676579609248380E-1    3.119009902621961E-2   -1.954628095445097E-3    3.065045568313572E-2   -2.395111726649297E-3    6.436535297228597E-2    5.220373544298740E-1
 6.564691174875000E9    -3.650885036751481E-2    5.678172843131629E-1    3.129753797253652E-2   -1.982642630631838E-3    3.074999005170530E-2   -2.444018507690410E-3    6.544181451188759E-2    5.217825371328516E-1
 6.564704262800000E9    -3.544967409554411E-2    5.677918670228707E-1    3.153626449041603E-2   -2.075017792226697E-3    3.100442370673851E-2   -2.559664110454290E-3    6.666016887825311E-2    5.216385787153397E-1
 6.564717350725000E9    -3.438228034623524E-2    5.678522225287966E-1    3.158592529096716E-2   -2.250484276390795E-3    3.108798000707182E-2   -2.770222846453846E-3    6.780190688234890E-2    5.215849535346936E-1
 6.564730438650000E9    -3.332905922887756E-2    5.678867133934541E-1    3.175782048738401E-2   -2.219312828301855E-3    3.125765012980557E-2   -2.808602384921673E-3    6.917721013420745E-2    5.213260591818695E-1
 6.564743526575000E9    -3.230100183947846E-2    5.679364169151855E-1    3.212195777786514E-2   -2.287748043911507E-3    3.144619848497181E-2   -2.867993758573073E-3    7.037200025124815E-2    5.212937351017167E-1
 6.564756614500000E9    -3.123325481038668E-2    5.679819353995731E-1    3.203450824299082E-2   -2.554054768122426E-3    3.162142001476102E-2   -2.911882959600051E-3    7.157152445053325E-2    5.209839529800623E-1
 6.564769702425000E9    -3.013547651874184E-2    5.679527271539966E-1    3.232616624357472E-2   -2.497797799309851E-3    3.175230630183506E-2   -3.087556450351999E-3    7.254058667570633E-2    5.210643016486426E-1
 6.564782790350000E9    -2.914775049540509E-2    5.680598680099193E-1    3.257054267707620E-2   -2.513593009042389E-3    3.190613898995958E-2   -3.261705112628435E-3    7.388559946806642E-2    5.206387444861329E-1
 6.564795878275000E9    -2.803090429476914E-2    5.681876172440906E-1    3.254761022303547E-2   -2.744411228442572E-3    3.212392158180424E-2   -3.167172130218813E-3    7.510074764004157E-2    5.205978332749119E-1
 6.564808966200000E9    -2.698922777782122E-2    5.682290575412589E-1    3.285934633449315E-2   -2.723748700134486E-3    3.232777711684290E-2   -3.393355215591133E-3    7.629854127713696E-2    5.204303111980947E-1
 6.564822054125000E9    -2.603183905756434E-2    5.681957700545842E-1    3.305072855212886E-2   -2.964609347096075E-3    3.257343574449163E-2   -3.420080819515940E-3    7.760623406729183E-2    5.202417916136003E-1
 6.564835142050000E9    -2.485275881393992E-2    5.682295319924587E-1    3.328136005891022E-2   -2.914123410758176E-3    3.269589970573199E-2   -3.592824862832613E-3    7.877681098579413E-2    5.200941271233908E-1
 6.564848229975000E9    -2.376409002843373E-2    5.682418949680426E-1    3.333579196254054E-2   -3.205512613058189E-3    3.286455306100124E-2   -3.634518056020515E-3    7.998725839955254E-2    5.198993124138803E-1
 6.564861317900000E9    -2.272422931088262E-2    5.683894508899647E-1    3.357977247693626E-2   -3.234284136624675E-3    3.299529675011143E-2   -3.790258851477598E-3    8.127436853895260E-2    5.197280458360423E-1
 6.564874405825000E9    -2.171026529751217E-2    5.683719016023080E-1    3.380072014226780E-2   -3.262393592306758E-3    3.324677802427349E-2   -3.721621733879453E-3    8.240849584444357E-2    5.194846366737353E-1
 6.564887493750000E9    -2.054522243032035E-2    5.683400106830503E-1    3.392831457107347E-2   -3.362803259542783E-3    3.340966348922313E-2   -3.850276093714260E-3    8.370093559733775E-2    5.192764449137200E-1
 6.564900581675000E9    -1.957187709943149E-2    5.684362193177060E-1    3.413937167611068E-2   -3.659685444102615E-3    3.355169407149854E-2   -4.093192492261836E-3    8.503244423442054E-2    5.191978713812054E-1
 6.564913669600000E9    -1.849634728463221E-2    5.684263919460256E-1    3.429430031512712E-2   -3.570131648692356E-3    3.375186458790623E-2   -4.120443931598665E-3    8.610141778632667E-2    5.189652886954014E-1
 6.564926757525000E9    -1.738600536986316E-2    5.684057657560861E-1    3.456545247318583E-2   -3.786660824302965E-3    3.391310158872143E-2   -4.151492272132368E-3    8.730834460959250E-2    5.187064319063610E-1
 6.564939845450000E9    -1.620100254869751E-2    5.683978729686490E-1    3.469647445779925E-2   -3.800056383549149E-3    3.414859006445218E-2   -4.356415445619855E-3    8.878637244708003E-2    5.184333099921777E-1
 6.564952933375000E9    -1.515057196347941E-2    5.685729848293045E-1    3.494393364716969E-2   -3.977174840416282E-3    3.439646953782010E-2   -4.495872351154965E-3    8.985169255588878E-2    5.183671300668469E-1
 6.564966021300000E9    -1.421422416171178E-2    5.685943169929422E-1    3.514165181669085E-2   -3.946063294283750E-3    3.458192511956223E-2   -4.612797080529156E-3    9.118790841137102E-2    5.179510660749033E-1
 6.564979109225000E9    -1.307107114523824E-2    5.685171755571871E-1    3.527190750830488E-2   -4.173762436290409E-3    3.479809935825520E-2   -4.758705167327172E-3    9.253660597660207E-2    5.179623055508216E-1
 6.564992197150000E9    -1.193670631822011E-2    5.684204039326294E-1    3.549931756357142E-2   -4.221056392394208E-3    3.493576787785871E-2   -4.862912593075433E-3    9.378275051735604E-2    5.176566112856074E-1
 6.565005285075000E9    -1.083916854203133E-2    5.684455036283622E-1    3.569709768800874E-2   -4.371431604373842E-3    3.511863611401061E-2   -4.988149497387891E-3    9.513247711787311E-2    5.174988018204331E-1
 6.565018373000000E9    -9.715562272711772E-3    5.684536023019104E-1    3.586164335766587E-2   -4.446161167836032E-3    3.531395446103074E-2   -5.048988364574986E-3    9.622476121366053E-2    5.171709187165177E-1
 6.565031460925000E9    -8.672407046123589E-3    5.684846387764132E-1    3.606485124516867E-2   -4.615318400351792E-3    3.549329570362327E-2   -5.211014550577823E-3    9.762523202896306E-2    5.169595996935967E-1
 6.565044548850000E9    -7.587692759218605E-3    5.684803627688633E-1    3.637461655985983E-2   -4.731881406503282E-3    3.571755737440009E-2   -5.311163642277820E-3    9.878765240008909E-2    5.166669972233739E-1
 6.565057636775000E9    -6.528208099218640E-3    5.685324975553188E-1    3.649566441605755E-2   -4.965033316321457E-3    3.598298184568262E-2   -5.371931838598654E-3    1.001425991239733E-1    5.164864541955918E-1
 6.565070724700000E9    -5.586745466116851E-3    5.684844097634373E-1    3.687834453142018E-2   -5.039242584859774E-3    3.609811887863123E-2   -5.598657445044244E-3    1.015155802466539E-1    5.163213086863210E-1
 6.565083812625000E9    -4.317475961834552E-3    5.684382991692445E-1    3.687762325967447E-2   -5.015041116509367E-3    3.638810717507266E-2   -5.686167297320357E-3    1.028396786945062E-1    5.158908291387500E-1
 6.565096900550000E9    -3.208450063280066E-3    5.684714090181633E-1    3.732736327821926E-2   -5.265244683849352E-3    3.667615354550936E-2   -5.848161510622105E-3    1.039155895770125E-1    5.155857038668696E-1
 6.565109988475000E9    -2.226544691916647E-3    5.684228737827336E-1    3.740232586536157E-2   -5.404764633710413E-3    3.688837610373574E-2   -5.943678160976220E-3    1.053304934750015E-1    5.154379464658945E-1
 6.565123076400000E9    -1.024208896211966E-3    5.684907850646612E-1    3.760699342618973E-2   -5.446436862340550E-3    3.699931802678576E-2   -6.041812573582890E-3    1.066721846037867E-1    5.150802389414271E-1
 6.565136164325000E9     2.631808338811955E-5    5.683984057697076E-1    3.782581997143527E-2   -5.701488620239612E-3    3.731422950620746E-2   -6.182829040392347E-3    1.079783380368973E-1    5.148970523833063E-1
 6.565149252250000E9     1.038613702723717E-3    5.684764510481001E-1    3.814489603287729E-2   -5.879152441936443E-3    3.764065818850447E-2   -6.260705869432687E-3    1.093243459673418E-1    5.145412002483213E-1
 6.565162340175000E9     2.281940968271765E-3    5.684038484290950E-1    3.835919131462705E-2   -5.958429171553033E-3    3.777689274019669E-2   -6.489165107224111E-3    1.105762425260969E-1    5.141686417279210E-1
 6.565175428100000E9     3.379798753758597E-3    5.683211485072834E-1    3.867053874314770E-2   -6.143148663508949E-3    3.793377475360519E-2   -6.627435140485191E-3    1.118904000045209E-1    5.140910401798424E-1
 6.565188516025000E9     4.481409974912046E-3    5.682629192681216E-1    3.883198316749843E-2   -6.238406115240710E-3    3.816014357416928E-2   -6.776075066440823E-3    1.132383989179935E-1    5.136643287751856E-1
 6.565201603950000E9     5.686717814320723E-3    5.681190454948221E-1    3.919122072632420E-2   -6.316085995198902E-3    3.841538627095280E-2   -6.853768663877212E-3    1.144818510678284E-1    5.132287902259944E-1
 6.565214691875000E9     6.728312192485977E-3    5.681020102362369E-1    3.924566264023309E-2   -6.555166383352899E-3    3.867671897623074E-2   -7.005975131880616E-3    1.158784102870126E-1    5.131358949442102E-1
 6.565227779800000E9     7.770242133052215E-3    5.681304026221490E-1    3.961088568050958E-2   -6.708501291887795E-3    3.896154868855316E-2   -7.202529618334774E-3    1.173246017550331E-1    5.127559897721694E-1
 6.565240867725000E9     8.901434876443971E-3    5.681484307705470E-1    3.985707148155691E-2   -6.833788298643111E-3    3.919376731588436E-2   -7.439904566239994E-3    1.185572590883538E-1    5.122667115741655E-1
 6.565253955650000E9     1.005146398015542E-2    5.680435339334031E-1    4.005121533248525E-2   -7.121859884670820E-3    3.944970960768591E-2   -7.582634241389639E-3    1.200713490294982E-1    5.119101091080867E-1
 6.565267043575000E9     1.112210738736961E-2    5.680053318573466E-1    4.025505479922485E-2   -7.228179933511767E-3    3.964181479740581E-2   -7.676054277368397E-3    1.214085780694266E-1    5.117670417746188E-1
 6.565280131500000E9     1.216517090904064E-2    5.679727219893878E-1    4.059251342156264E-2   -7.243232608055846E-3    3.992156990390906E-2   -7.870325051729778E-3    1.227202972303272E-1    5.113808182442264E-1
 6.565293219425000E9     1.332087472211123E-2    5.678995123969092E-1    4.085247935008812E-2   -7.412273728351457E-3    4.020807223004581E-2   -8.064562230719939E-3    1.240475814082701E-1    5.109717156295097E-1
 6.565306307350000E9     1.454901944931911E-2    5.676827542497362E-1    4.116285365970196E-2   -7.633632879471192E-3    4.043882739745158E-2   -8.225937480545654E-3    1.254819289933056E-1    5.106604850962220E-1
 6.565319395275000E9     1.568382866661670E-2    5.676860431081163E-1    4.143914502420700E-2   -7.908941040507383E-3    4.076589100853982E-2   -8.413553096232792E-3    1.268331759960500E-1    5.102413228136219E-1
 6.565332483200000E9     1.669199308410566E-2    5.676875832303071E-1    4.180148586980342E-2   -7.983917417871238E-3    4.088670637223973E-2   -8.615714933035201E-3    1.283350376688849E-1    5.097700893221150E-1
 6.565345571125000E9     1.792149955505561E-2    5.675851073569601E-1    4.198640612934435E-2   -8.085342296009792E-3    4.139036925042035E-2   -8.777178994430897E-3    1.297998693575169E-1    5.093652953238686E-1
 6.565358659050000E9     1.902330164992829E-2    5.675143071637371E-1    4.228242059679787E-2   -8.449583744665142E-3    4.154412218871482E-2   -8.961600435499586E-3    1.311984479697403E-1    5.090431291841482E-1
 6.565371746975000E9     2.008651009190251E-2    5.675154466460505E-1    4.261757456913087E-2   -8.652236852646300E-3    4.186869021682986E-2   -9.097591440569621E-3    1.324743472289686E-1    5.086176277711997E-1
 6.565384834900000E9     2.124795434891800E-2    5.673564561585220E-1    4.311025396843187E-2   -8.822783740780460E-3    4.207395490752637E-2   -9.271501993954006E-3    1.340472996005169E-1    5.083140383769672E-1
 6.565397922825000E9     2.242650674184894E-2    5.672387964082062E-1    4.333776177402374E-2   -8.878405673851108E-3    4.237537874919479E-2   -9.545395120869833E-3    1.355017160070371E-1    5.077385791045130E-1
 6.565411010750000E9     2.359005592482114E-2    5.672035997590321E-1    4.343225271519475E-2   -9.053427057146199E-3    4.273855735990178E-2   -9.628142088252854E-3    1.368213305124296E-1    5.074151218147798E-1
 6.565424098675000E9     2.471971203075711E-2    5.671088014827713E-1    4.377253332824937E-2   -9.259404625517302E-3    4.302670224538071E-2   -9.877002595520882E-3    1.383699041728038E-1    5.070380904111791E-1
 6.565437186600000E9     2.570336217154072E-2    5.669442595010250E-1    4.405144129178667E-2   -9.425784901988522E-3    4.329008172396049E-2   -1.004746723487302E-2    1.396660485576902E-1    5.066242318957649E-1
 6.565450274525000E9     2.693564762215268E-2    5.669624435446660E-1    4.428115583196478E-2   -9.739139760956207E-3    4.362885451834322E-2   -1.024803176169258E-2    1.411764097662959E-1    5.061686727013839E-1
 6.565463362450000E9     2.806052583688117E-2    5.667683191740915E-1    4.477052645390132E-2   -9.813626517780614E-3    4.397254807376931E-2   -1.041124992048447E-2    1.425075628308953E-1    5.058009173177940E-1
 6.565476450375000E9     2.926468382765334E-2    5.667031503660828E-1    4.504095617650383E-2   -1.008884393064683E-2    4.421542723397256E-2   -1.072955507323665E-2    1.441630167258581E-1    5.052162742966320E-1
 6.565489538300000E9     3.036432695547610E-2    5.666122891448699E-1    4.536059323308887E-2   -1.039864124547905E-2    4.466178411184865E-2   -1.094572851675917E-2    1.456482241137263E-1    5.047681968888478E-1
 6.565502626225000E9     3.158049665983022E-2    5.664774902738258E-1    4.559178127741789E-2   -1.071488825228238E-2    4.487390709947169E-2   -1.114372848963553E-2    1.471653439681638E-1    5.043402403997524E-1
 6.565515714150000E9     3.259240281142182E-2    5.664180550278713E-1    4.594362933704544E-2   -1.074255430811133E-2    4.524059360809633E-2   -1.134434187407450E-2    1.486325365864531E-1    5.037254109590450E-1
 6.565528802075000E9     3.385643198971377E-2    5.662822081686031E-1    4.636815223833998E-2   -1.089882803570659E-2    4.556536160552634E-2   -1.167569637032177E-2    1.501873611185744E-1    5.033547647805173E-1
 6.565541890000000E9     3.500943724819142E-2    5.662965402812542E-1    4.658577428699166E-2   -1.130462174192844E-2    4.586057814304960E-2   -1.174463923857247E-2    1.517175629898831E-1    5.029283342064471E-1
 6.565554977925000E9     3.614623334947187E-2    5.660737810962960E-1    4.689039076895638E-2   -1.151430521091016E-2    4.622754635965664E-2   -1.211822295670122E-2    1.531391865320220E-1    5.022305243534078E-1
 6.565568065850000E9     3.745998804015600E-2    5.657248192615378E-1    4.736117713420464E-2   -1.165214363681342E-2    4.655262825911524E-2   -1.229612565157687E-2    1.545970621621651E-1    5.018502161937616E-1
 6.565581153775000E9     3.855597643783254E-2    5.657606445140869E-1    4.771772254228739E-2   -1.193288294500811E-2    4.699507821431357E-2   -1.250004969450631E-2    1.563409603479358E-1    5.012710648391150E-1
 6.565594241700000E9     3.975756421125612E-2    5.655711558675303E-1    4.799081202724537E-2   -1.212126108611114E-2    4.727862209249899E-2   -1.272961092475539E-2    1.577995098080855E-1    5.006474942506536E-1
 6.565607329625000E9     4.090879427985617E-2    5.654353561556066E-1    4.827406069328286E-2   -1.246488704448761E-2    4.756074183901665E-2   -1.309683787890236E-2    1.593319319288026E-1    5.002201990829453E-1
 6.565620417550000E9     4.213838104578563E-2    5.652555384740947E-1    4.874079826672668E-2   -1.279408714536003E-2    4.798699973139215E-2   -1.327759609685601E-2    1.610932747717756E-1    4.995586991309122E-1
 6.565633505475000E9     4.332920724649676E-2    5.651045206257113E-1    4.917395354839275E-2   -1.301562581724277E-2    4.835185032277178E-2   -1.356863864969223E-2    1.623955326835365E-1    4.989181681053233E-1
 6.565646593400000E9     4.451791315239178E-2    5.650423637255186E-1    4.952800871057667E-2   -1.334304731067095E-2    4.869154337252249E-2   -1.387358225927630E-2    1.640813289109083E-1    4.982802358506705E-1
 6.565659681325000E9     4.557412355551219E-2    5.647027201601509E-1    4.996539127327107E-2   -1.347621352691994E-2    4.902123396371207E-2   -1.422286412286445E-2    1.657286841800519E-1    4.976144190737359E-1
 6.565672769250000E9     4.685927271970551E-2    5.645970029667344E-1    5.042711126867368E-2   -1.373725458891203E-2    4.956784052485164E-2   -1.448297394733503E-2    1.672768209275221E-1    4.969109580728652E-1
