#  HZ   S   RI   R     50.00 
! Rohde & Schwarz Vector Network Analyzer 
! Rohde-Schwarz,ZNB20-2Port,1311601062101988,3.16
! Created: UTC 3/20/2024, 5:09:54 PM
! freq[Hz]                re:S11                  im:S11                  re:S21                  im:S21                  re:S12                  im:S12                  re:S22                  im:S22
 6.564502119000000E9    -5.171163465954760E-2    5.667196983721779E-1    2.915859147236918E-2   -8.760919018798705E-4    2.862950413652672E-2   -1.357069354068597E-3    4.866474548808575E-2    5.234227596931474E-1
 6.564515179225000E9    -5.069174301570759E-2    5.667321411988689E-1    2.923795941121823E-2   -9.942907923663684E-4    2.874976392454866E-2   -1.518823930600135E-3    4.973324916488261E-2    5.233739282021799E-1
 6.564528239450000E9    -4.960159044651326E-2    5.668548369713079E-1    2.939710455750147E-2   -1.091200074662665E-3    2.883722475804759E-2   -1.553733044390736E-3    5.082219778608493E-2    5.232550226294178E-1
 6.564541299675000E9    -4.848944544025088E-2    5.670037011454995E-1    2.956128578855537E-2   -1.003802534251755E-3    2.902048722789447E-2   -1.671849272145589E-3    5.199675143122590E-2    5.232499813792005E-1
 6.564554359900000E9    -4.749685646560341E-2    5.670190425054451E-1    2.972503616060039E-2   -1.147696436877321E-3    2.927949566360932E-2   -1.665414784499013E-3    5.314571322103223E-2    5.229633031004909E-1
 6.564567420125000E9    -4.645334664842326E-2    5.670302027590051E-1    2.970574183685856E-2   -1.317746994167690E-3    2.929620617848764E-2   -1.761792106945912E-3    5.436303063495102E-2    5.230293675268346E-1
 6.564580480350000E9    -4.549264044418098E-2    5.671241510920715E-1    3.008870272321072E-2   -1.351573710304068E-3    2.955095414749635E-2   -1.899399148557714E-3    5.549092756522075E-2    5.229222413027345E-1
 6.564593540575000E9    -4.434947550959703E-2    5.673026847751880E-1    3.009881030227451E-2   -1.442837819506212E-3    2.969279990531436E-2   -1.904949712471973E-3    5.658595118002345E-2    5.227106339384562E-1
 6.564606600800000E9    -4.335981252055884E-2    5.673540226840684E-1    3.018627835645861E-2   -1.445475635671873E-3    2.987686436183371E-2   -1.951381064971875E-3    5.791864241087287E-2    5.226781395827547E-1
 6.564619661025000E9    -4.231546990599629E-2    5.674187426843225E-1    3.044516537464985E-2   -1.667348405934055E-3    2.990488085224831E-2   -2.106587788681569E-3    5.897023805636598E-2    5.226684180639681E-1
 6.564632721250000E9    -4.120703410915443E-2    5.675506671926127E-1    3.066506372729435E-2   -1.557094383980199E-3    3.009060430160093E-2   -2.228711517735844E-3    6.008376718063463E-2    5.224004312823195E-1
 6.564645781475000E9    -4.020979747590425E-2    5.676966482288274E-1    3.083120104183549E-2   -1.758240209493949E-3    3.027785277249076E-2   -2.245433936901242E-3    6.136550290498823E-2    5.223825077445806E-1
 6.564658841700000E9    -3.908841717558766E-2    5.676923289563177E-1    3.091806543274873E-2   -1.793415583600142E-3    3.050962267894160E-2   -2.307102790816174E-3    6.261001922196495E-2    5.222197889758238E-1
 6.564671901925000E9    -3.808543520231963E-2    5.676330480433535E-1    3.116269157566412E-2   -1.861012725011808E-3    3.057687918737940E-2   -2.353686232339362E-3    6.366914702464822E-2    5.220628782205656E-1
 6.564684962150000E9    -3.706453973846547E-2    5.677057313449229E-1    3.114104434006924E-2   -2.063194265966605E-3    3.074585204269625E-2   -2.433722637075477E-3    6.485044740083910E-2    5.219505527395580E-1
 6.564698022375000E9    -3.610343914170393E-2    5.676935699036781E-1    3.145561082348194E-2   -2.121571337622567E-3    3.079580735642892E-2   -2.547491122251123E-3    6.608092020261065E-2    5.216913454079524E-1
 6.564711082600000E9    -3.491737398804413E-2    5.677627403622556E-1    3.155075436780526E-2   -2.188098027086483E-3    3.099910730250887E-2   -2.729866329800355E-3    6.732890679061304E-2    5.216858198486867E-1
 6.564724142825000E9    -3.382372011072655E-2    5.679363309060320E-1    3.183217245363130E-2   -2.252740551656590E-3    3.127517443147767E-2   -2.692480665261529E-3    6.851889704614554E-2    5.214474304950205E-1
 6.564737203050000E9    -3.282148811487592E-2    5.679910742777143E-1    3.185116945797724E-2   -2.316679987897113E-3    3.125850806759999E-2   -2.782009608095661E-3    6.975432663297332E-2    5.213056468452911E-1
 6.564750263275000E9    -3.170845334520247E-2    5.680744351013337E-1    3.204494046154934E-2   -2.278747383456336E-3    3.157521498622484E-2   -2.820115388753801E-3    7.080113040312752E-2    5.213408721907897E-1
 6.564763323500000E9    -3.073519695973258E-2    5.679979646720431E-1    3.232572664293188E-2   -2.379479986599643E-3    3.172985019824517E-2   -3.004271037414347E-3    7.203146786275311E-2    5.210035107047001E-1
 6.564776383725000E9    -2.959091327403660E-2    5.680471488421273E-1    3.229396271799321E-2   -2.650620677046842E-3    3.183154621472441E-2   -3.073704978278995E-3    7.313793272955535E-2    5.208673052438115E-1
 6.564789443950000E9    -2.858479071828686E-2    5.680650442004515E-1    3.260768952260352E-2   -2.814296027020275E-3    3.192963102896526E-2   -3.207085101585684E-3    7.456170115907107E-2    5.206492932314671E-1
 6.564802504175000E9    -2.739883542702608E-2    5.682075453039488E-1    3.279282137615690E-2   -2.607276236859557E-3    3.215922695168474E-2   -3.301993888965979E-3    7.563539922600386E-2    5.206158153387935E-1
 6.564815564400000E9    -2.638455329057482E-2    5.681843118170590E-1    3.305142602986232E-2   -2.890735387628416E-3    3.232552669360850E-2   -3.399744317564876E-3    7.693036114029389E-2    5.202435454496418E-1
 6.564828624625000E9    -2.537332116529720E-2    5.682084212316618E-1    3.315327283984611E-2   -2.932296017261113E-3    3.255015352599112E-2   -3.470476953644488E-3    7.804293880497204E-2    5.201665488813726E-1
 6.564841684850000E9    -2.426861040144813E-2    5.684132697392653E-1    3.309978029447255E-2   -3.008153746141229E-3    3.267983100420885E-2   -3.504838980248491E-3    7.927866982459716E-2    5.200349138771634E-1
 6.564854745075000E9    -2.320198960456000E-2    5.682657268814866E-1    3.337894924005876E-2   -3.105114011651174E-3    3.290941627451160E-2   -3.772491801722083E-3    8.057854209204801E-2    5.198918471727662E-1
 6.564867805300000E9    -2.218952814988331E-2    5.684394159948364E-1    3.383556218562392E-2   -3.386704988954679E-3    3.301906676432655E-2   -3.778532063803177E-3    8.179813420613397E-2    5.196728649787432E-1
 6.564880865525000E9    -2.112451530798861E-2    5.683880299676189E-1    3.380123393946622E-2   -3.297004625167053E-3    3.320599716077153E-2   -3.897356251910853E-3    8.298301110409076E-2    5.195086208146553E-1
 6.564893925750000E9    -2.010756036976968E-2    5.683341731464174E-1    3.388346334994274E-2   -3.357226187524639E-3    3.341733134921947E-2   -3.965627559327088E-3    8.413350614318590E-2    5.192612394538964E-1
 6.564906985975000E9    -1.890427668866185E-2    5.685042429042979E-1    3.422533363568782E-2   -3.597611219551232E-3    3.353127672372529E-2   -4.006939781188100E-3    8.556217793042478E-2    5.191061511325409E-1
 6.564920046200000E9    -1.787130629178979E-2    5.684677300062776E-1    3.435545761575899E-2   -3.761199369284596E-3    3.368393467979695E-2   -4.159729354745086E-3    8.677519198963339E-2    5.189302789697748E-1
 6.564933106425000E9    -1.681616454628285E-2    5.684295788761340E-1    3.461755230538827E-2   -3.706058421127004E-3    3.398638708530295E-2   -4.364346995118922E-3    8.808606067480840E-2    5.186999163554687E-1
 6.564946166650000E9    -1.568527295182396E-2    5.684317578387958E-1    3.484649400493908E-2   -3.842149862886469E-3    3.417896608277013E-2   -4.402856139604224E-3    8.924005878389203E-2    5.184344230676753E-1
 6.564959226875000E9    -1.475383210064021E-2    5.685288449243125E-1    3.497536683959740E-2   -4.059816490037278E-3    3.432884623771604E-2   -4.541763665894640E-3    9.057280502048393E-2    5.182807386372383E-1
 6.564972287100000E9    -1.360434411786564E-2    5.684936106794500E-1    3.527222197363308E-2   -4.027442224990786E-3    3.451934312833344E-2   -4.691679978094302E-3    9.184835240909417E-2    5.180505368885997E-1
 6.564985347325000E9    -1.244952559059585E-2    5.685023116685010E-1    3.528176963587563E-2   -4.220692538585947E-3    3.473438784273609E-2   -4.797753767325330E-3    9.307274086622150E-2    5.179026060610910E-1
 6.564998407550000E9    -1.143923272397937E-2    5.684645223844679E-1    3.566991588526545E-2   -4.387759736784498E-3    3.489125826326109E-2   -4.938012245799096E-3    9.427405877595033E-2    5.174964479557423E-1
 6.565011467775000E9    -1.034822869209610E-2    5.684242010934273E-1    3.584973170035152E-2   -4.475513090984796E-3    3.518994571740958E-2   -4.950827846595766E-3    9.544203213236292E-2    5.172530230204737E-1
 6.565024528000000E9    -9.322578756091842E-3    5.684861526583675E-1    3.595269034230556E-2   -4.544517477658752E-3    3.533196001756309E-2   -5.003504654039454E-3    9.675620426696592E-2    5.170477913439256E-1
 6.565037588225000E9    -8.175607303993717E-3    5.684687303385464E-1    3.628170589338739E-2   -4.688011468383629E-3    3.566672069012571E-2   -5.263399507027474E-3    9.811348348614253E-2    5.168624304288338E-1
 6.565050648450000E9    -7.163697044716431E-3    5.684425996901858E-1    3.656698711766071E-2   -4.739760234383029E-3    3.583213851071444E-2   -5.290744908284079E-3    9.937540713765666E-2    5.167519338623925E-1
 6.565063708675000E9    -6.080434318631281E-3    5.685089272611585E-1    3.659020624558244E-2   -5.007801995514925E-3    3.600034461214231E-2   -5.441806945943446E-3    1.006557020819715E-1    5.163160209714601E-1
 6.565076768900000E9    -4.921123385939834E-3    5.685207237768518E-1    3.670615599426395E-2   -5.112613354817257E-3    3.630374423871834E-2   -5.712352508390761E-3    1.019070082152212E-1    5.160817313666419E-1
 6.565089829125000E9    -3.846100218072040E-3    5.684539390319702E-1    3.714786282983398E-2   -5.161268815406148E-3    3.648985378127482E-2   -5.783075917206211E-3    1.032186473766169E-1    5.158333156888901E-1
 6.565102889350000E9    -2.850672167473453E-3    5.683431813494407E-1    3.743465878061612E-2   -5.311980431800615E-3    3.672172368428825E-2   -5.840083089143987E-3    1.043656518412365E-1    5.154973307410652E-1
 6.565115949575000E9    -1.561592878976618E-3    5.683504760329307E-1    3.750176143678965E-2   -5.489155786899749E-3    3.686245057123116E-2   -5.925962338224600E-3    1.059111693671092E-1    5.152959646211859E-1
 6.565129009800000E9    -5.024477282913286E-4    5.684172803798714E-1    3.792501945645603E-2   -5.605452676569804E-3    3.723364744739756E-2   -6.087737490833062E-3    1.071302915990753E-1    5.149601659777021E-1
 6.565142070025000E9     4.933206852976324E-4    5.683333369858654E-1    3.804670652790364E-2   -5.650672597794771E-3    3.733879415332948E-2   -6.339971413113395E-3    1.085619113465361E-1    5.148006989655421E-1
 6.565155130250000E9     1.545018017932612E-3    5.684279750852336E-1    3.813410477440723E-2   -5.901494291092903E-3    3.759347073306476E-2   -6.342910774296820E-3    1.097843311940089E-1    5.143839469822094E-1
 6.565168190475000E9     2.708713992269165E-3    5.682359321417131E-1    3.840683594281055E-2   -5.956272634077258E-3    3.776791375562852E-2   -6.556458161668685E-3    1.111987628347808E-1    5.140570473177546E-1
 6.565181250700000E9     3.773882083712811E-3    5.682826353590045E-1    3.860198152449824E-2   -6.111456970763148E-3    3.806994172196970E-2   -6.662570647185169E-3    1.126112375609949E-1    5.137825461251927E-1
 6.565194310925000E9     4.937855929621683E-3    5.682854522663244E-1    3.900168775622491E-2   -6.349224329505776E-3    3.832053007880229E-2   -6.852417798626447E-3    1.138741892847565E-1    5.134277862078112E-1
 6.565207371150000E9     6.053222963054837E-3    5.682320284633762E-1    3.918144541820304E-2   -6.419529481040414E-3    3.855221170494194E-2   -7.007249416232268E-3    1.150038352394325E-1    5.132328926631000E-1
 6.565220431375000E9     7.141859545281590E-3    5.681447243011205E-1    3.947117274399515E-2   -6.537332798093800E-3    3.873247714265025E-2   -7.220974145493333E-3    1.165892870690718E-1    5.127888762507887E-1
 6.565233491600000E9     8.277984402744859E-3    5.680786710130924E-1    3.982305556493884E-2   -6.787878868623760E-3    3.906758970112820E-2   -7.280121112784555E-3    1.178789432224330E-1    5.125949738523369E-1
 6.565246551825000E9     9.356279525739555E-3    5.681671370834550E-1    3.999147871419232E-2   -6.821575904609604E-3    3.931760284223944E-2   -7.411879594460000E-3    1.190295107496554E-1    5.121530409556204E-1
 6.565259612050000E9     1.044820042492407E-2    5.679954432554843E-1    4.010068279279263E-2   -7.042273143115893E-3    3.955897847584149E-2   -7.646727301186352E-3    1.206546794603875E-1    5.118812468968883E-1
 6.565272672275000E9     1.164886887456349E-2    5.679713409274998E-1    4.041174770936332E-2   -7.193695154946497E-3    3.982414410531106E-2   -7.741851528603211E-3    1.219502125891096E-1    5.116444798880299E-1
 6.565285732500000E9     1.275429846118410E-2    5.678577323142575E-1    4.068746228768286E-2   -7.361999857090174E-3    4.006411076611057E-2   -7.856350479332521E-3    1.232460493707351E-1    5.111440804433942E-1
 6.565298792725000E9     1.384242702192063E-2    5.678192263393744E-1    4.098069577996407E-2   -7.638828703683868E-3    4.026974779388880E-2   -8.089059160682723E-3    1.247320576558704E-1    5.107643065610828E-1
 6.565311852950000E9     1.500825669149449E-2    5.678456212395647E-1    4.119199219918440E-2   -7.644862195926686E-3    4.048071072670643E-2   -8.259720151463472E-3    1.259916323312333E-1    5.103411477070385E-1
 6.565324913175000E9     1.600289932384279E-2    5.678255517525093E-1    4.152558428138822E-2   -7.906928573354897E-3    4.080537179876039E-2   -8.446972026779841E-3    1.274862351561412E-1    5.101523229618002E-1
 6.565337973400000E9     1.712355544156363E-2    5.676051803278840E-1    4.181274974777361E-2   -8.052824434406745E-3    4.106830036204015E-2   -8.610291711366578E-3    1.289399457565975E-1    5.096434076828606E-1
 6.565351033625000E9     1.829657942030888E-2    5.676395821371877E-1    4.209233989237422E-2   -8.129424801637542E-3    4.143770493535139E-2   -8.781667197315492E-3    1.303941383864941E-1    5.091994979583342E-1
 6.565364093850000E9     1.947345995990895E-2    5.674578248690239E-1    4.225163721534145E-2   -8.465489339322270E-3    4.165349473618181E-2   -8.952466129746019E-3    1.317489891241060E-1    5.090111003310450E-1
 6.565377154075000E9     2.053751871699824E-2    5.674116993045296E-1    4.275619473294377E-2   -8.631169272442816E-3    4.203334151573171E-2   -9.133012635489154E-3    1.330544249944047E-1    5.087052453715813E-1
 6.565390214300000E9     2.161832050077915E-2    5.672878444373506E-1    4.293878020254931E-2   -8.839736231051261E-3    4.224203307757043E-2   -9.303475421756675E-3    1.344497031731660E-1    5.081822043104427E-1
 6.565403274525000E9     2.280543279853211E-2    5.672312077718537E-1    4.334397688747306E-2   -8.943757030556748E-3    4.242281592948775E-2   -9.499079911171677E-3    1.359310710406639E-1    5.077775270540325E-1
 6.565416334750000E9     2.397054345374373E-2    5.672176223261727E-1    4.361976522966918E-2   -9.180561699631351E-3    4.276275464640013E-2   -9.644852373885572E-3    1.373900282436885E-1    5.074915333638622E-1
 6.565429394975000E9     2.502856196921293E-2    5.671202699651845E-1    4.388912334953890E-2   -9.368893309273768E-3    4.317492375708458E-2   -9.883681716240926E-3    1.389062230984266E-1    5.069953898217067E-1
 6.565442455200000E9     2.643500707965475E-2    5.670192887341676E-1    4.417448691551965E-2   -9.575121357054501E-3    4.353604790913908E-2   -1.012374158966336E-2    1.403472006950293E-1    5.066024936017635E-1
 6.565455515425000E9     2.744362919990404E-2    5.668956722592986E-1    4.444323308101406E-2   -9.634021305814283E-3    4.368222122328680E-2   -1.036081775477395E-2    1.417329748719023E-1    5.061514153767386E-1
 6.565468575650000E9     2.853956536194180E-2    5.667364014128646E-1    4.473915059160134E-2   -1.000270102167956E-2    4.418670316692461E-2   -1.047179035332815E-2    1.432243026419761E-1    5.056123439593555E-1
 6.565481635875000E9     2.960172295827687E-2    5.667861163243562E-1    4.521354911973249E-2   -1.018559958218159E-2    4.430499357812202E-2   -1.077100855334828E-2    1.446399939263235E-1    5.050239070038891E-1
 6.565494696100000E9     3.092322557827390E-2    5.663497728056852E-1    4.527259213059173E-2   -1.036652024087449E-2    4.463106271167443E-2   -1.089635793625032E-2    1.460886944918821E-1    5.045908898012084E-1
 6.565507756325000E9     3.197282669322331E-2    5.664641721835633E-1    4.579637372419985E-2   -1.065790789205281E-2    4.496336246278448E-2   -1.116595146041216E-2    1.476489058326977E-1    5.042923015221816E-1
 6.565520816550000E9     3.313521384218660E-2    5.664450111963817E-1    4.608592782439843E-2   -1.087668146285059E-2    4.526328126193370E-2   -1.151156775380073E-2    1.490291072369255E-1    5.037339493084928E-1
 6.565533876775000E9     3.424226772598462E-2    5.662722989933046E-1    4.634230041619607E-2   -1.105856551296153E-2    4.562798756916842E-2   -1.168706678981748E-2    1.505989709277700E-1    5.031080831728335E-1
 6.565546937000000E9     3.547629409440875E-2    5.660518661438552E-1    4.677951708482397E-2   -1.135847983485064E-2    4.594743692305113E-2   -1.192165920107833E-2    1.521146211642808E-1    5.026007256549913E-1
 6.565559997225000E9     3.658559701268301E-2    5.658513135586459E-1    4.712170084606868E-2   -1.164323129657641E-2    4.629747468906682E-2   -1.213717628971774E-2    1.536324992028840E-1    5.021730223134772E-1
 6.565573057450000E9     3.781526865711541E-2    5.658632664854072E-1    4.740377847724635E-2   -1.180099152796071E-2    4.662749813493496E-2   -1.236452014019937E-2    1.552959698536734E-1    5.016352470316505E-1
 6.565586117675000E9     3.896663610260782E-2    5.657077091335534E-1    4.781687514859766E-2   -1.211448818236563E-2    4.693696891459578E-2   -1.254139911496654E-2    1.567489422459870E-1    5.010946339268899E-1
 6.565599177900000E9     4.012064513971796E-2    5.656070688755156E-1    4.822173287025341E-2   -1.221815695223365E-2    4.728678734426513E-2   -1.293167202169618E-2    1.582972116354706E-1    5.003973461583940E-1
 6.565612238125000E9     4.139996772489749E-2    5.654824193870324E-1    4.846259728897006E-2   -1.242869785625343E-2    4.759476199869405E-2   -1.310228348952600E-2    1.599093428762191E-1    5.000220625330921E-1
 6.565625298350000E9     4.259002237599371E-2    5.653036899775650E-1    4.880462481472816E-2   -1.291595913078647E-2    4.815301865562595E-2   -1.345262559772060E-2    1.613943792484967E-1    4.993444686769171E-1
 6.565638358575000E9     4.368453866329085E-2    5.650956041481824E-1    4.916185042948080E-2   -1.303448452650753E-2    4.839004204649801E-2   -1.371029780751731E-2    1.630773516399002E-1    4.987182171248870E-1
 6.565651418800000E9     4.482970421236413E-2    5.649251485834365E-1    4.969628853252443E-2   -1.341795463710657E-2    4.887242919837510E-2   -1.400861113925815E-2    1.644999572940498E-1    4.980129619556427E-1
 6.565664479025000E9     4.602265727079885E-2    5.647652913227735E-1    5.008074212008098E-2   -1.361569388872477E-2    4.915960830436548E-2   -1.414347887284791E-2    1.663176836256652E-1    4.975577198928750E-1
 6.565677539250000E9     4.729212531170771E-2    5.646327569468393E-1    5.030965069529435E-2   -1.383762302498673E-2    4.967777577824471E-2   -1.444701007000348E-2    1.676342673409791E-1    4.968761616247562E-1
