#  HZ   S   RI   R     50.00 
! Rohde & Schwarz Vector Network Analyzer 
! Rohde-Schwarz,ZNB20-2Port,1311601062101988,3.16
! Created: UTC 3/20/2024, 5:09:58 PM
! freq[Hz]                re:S11                  im:S11                  re:S21                  im:S21                  re:S12                  im:S12                  re:S22                  im:S22
 6.564510249000000E9    -5.107442924315010E-2    5.667787055818845E-1    2.924656574549972E-2   -8.932919604769271E-4    2.868990697123006E-2   -1.420945565943263E-3    4.931680493729473E-2    5.234254491943038E-1
 6.564523277800000E9    -5.002357405672552E-2    5.669306473068331E-1    2.944015122680075E-2   -1.043173431133414E-3    2.885732851912170E-2   -1.467830144639113E-3    5.026850456002521E-2    5.233422173578702E-1
 6.564536306600000E9    -4.907475131673430E-2    5.669056471029698E-1    2.941222639715267E-2   -1.054645464664608E-3    2.891081437255393E-2   -1.536218598210421E-3    5.151202143814344E-2    5.231070081555915E-1
 6.564549335400000E9    -4.783964339198846E-2    5.670255864326413E-1    2.956761374226923E-2   -1.104351415568599E-3    2.913961058248595E-2   -1.499489160123510E-3    5.264216404399810E-2    5.232118728645171E-1
 6.564562364200000E9    -4.695637985350046E-2    5.671104145153946E-1    2.978376315747992E-2   -1.234075042560203E-3    2.933840618162181E-2   -1.709376726323298E-3    5.383441754820702E-2    5.230689567161775E-1
 6.564575393000000E9    -4.579378987778798E-2    5.672212262188278E-1    2.998799082120727E-2   -1.289558105199011E-3    2.936765474184047E-2   -1.831671106202348E-3    5.500032853682632E-2    5.229157727211695E-1
 6.564588421800000E9    -4.487036221855976E-2    5.672557183225773E-1    3.008808442598164E-2   -1.480816063623568E-3    2.959981406130811E-2   -1.876262135850000E-3    5.603577694651988E-2    5.228053940789407E-1
 6.564601450600000E9    -4.374836088746471E-2    5.673348178242927E-1    3.022427212238996E-2   -1.544317106187572E-3    2.963916560918110E-2   -1.902498375103400E-3    5.732299328634740E-2    5.227219095274136E-1
 6.564614479400000E9    -4.274725507088523E-2    5.673858580047220E-1    3.030001593352047E-2   -1.595150904062695E-3    2.981246531387076E-2   -2.034692420691702E-3    5.846987655302272E-2    5.226607558365499E-1
 6.564627508200000E9    -4.162653127151768E-2    5.674466243693783E-1    3.044212307554005E-2   -1.648605779706301E-3    2.997343611117390E-2   -2.150407410481422E-3    5.970105364083597E-2    5.223984518276842E-1
 6.564640537000000E9    -4.062202117147246E-2    5.675480385341218E-1    3.070405886362801E-2   -1.700054659502643E-3    3.015208639902378E-2   -2.257192847256006E-3    6.090306204021786E-2    5.224551359853826E-1
 6.564653565800000E9    -3.962138371764381E-2    5.675481313637895E-1    3.071614948818931E-2   -1.815558301765097E-3    3.034820624441427E-2   -2.233874924808847E-3    6.210169173775331E-2    5.220750906621399E-1
 6.564666594600000E9    -3.853039871068537E-2    5.676282182874631E-1    3.100751756734341E-2   -2.008609715558108E-3    3.051292486438290E-2   -2.338178850009730E-3    6.318112928685979E-2    5.220542152470008E-1
 6.564679623400000E9    -3.755223491855068E-2    5.677367279228812E-1    3.111829096915957E-2   -1.928321773385205E-3    3.067273930309598E-2   -2.458884031012216E-3    6.440072240656339E-2    5.219941430043094E-1
 6.564692652200000E9    -3.653927591626554E-2    5.677992031922199E-1    3.122298640556931E-2   -2.009499218484092E-3    3.073086993875600E-2   -2.559170545715291E-3    6.537835979155029E-2    5.219621667550340E-1
 6.564705681000000E9    -3.537172397074496E-2    5.678377300750800E-1    3.157800956505767E-2   -1.996476140822691E-3    3.084725990570534E-2   -2.598288301278384E-3    6.677842253616169E-2    5.216325434630791E-1
 6.564718709800000E9    -3.448236619320579E-2    5.679646661529414E-1    3.167965404109550E-2   -2.112993593853980E-3    3.101608710330991E-2   -2.621053687331778E-3    6.799234405524757E-2    5.215376147317956E-1
 6.564731738600000E9    -3.324816662237377E-2    5.678530036741944E-1    3.180197403289654E-2   -2.279608428325075E-3    3.134945030865804E-2   -2.678138758208448E-3    6.919630871040477E-2    5.214261454315522E-1
 6.564744767400000E9    -3.210437411060553E-2    5.680043299855805E-1    3.204235031428189E-2   -2.509441873045916E-3    3.140816468075189E-2   -2.789982035569308E-3    7.039238855024804E-2    5.213330403507506E-1
 6.564757796200000E9    -3.112308226786471E-2    5.679689391415870E-1    3.219519208080782E-2   -2.345129305717813E-3    3.146460285858937E-2   -3.005732454604079E-3    7.133231834319222E-2    5.211976919849414E-1
 6.564770825000000E9    -3.014423096948756E-2    5.680232111793059E-1    3.231234385887137E-2   -2.496861282992827E-3    3.164583376496438E-2   -2.974858126403381E-3    7.279356407719170E-2    5.208251652919886E-1
 6.564783853800000E9    -2.914757223605266E-2    5.681463516555150E-1    3.243225391579859E-2   -2.690791161490219E-3    3.194706138674885E-2   -3.188598161550205E-3    7.396801243725658E-2    5.208304881451887E-1
 6.564796882600000E9    -2.806431563286189E-2    5.682594104375343E-1    3.257014017585126E-2   -2.771002251191914E-3    3.218177834316242E-2   -3.187653065311928E-3    7.509685164718180E-2    5.206899057460731E-1
 6.564809911400000E9    -2.689952518957615E-2    5.682964129032380E-1    3.286584602210804E-2   -2.699607683226896E-3    3.224330801212889E-2   -3.322855162145959E-3    7.645466576075777E-2    5.205265233520152E-1
 6.564822940200000E9    -2.591891906175107E-2    5.681312961490416E-1    3.301744551147056E-2   -2.822708321601719E-3    3.249232150237508E-2   -3.439799203846482E-3    7.762906502952936E-2    5.201934184482105E-1
 6.564835969000000E9    -2.486998182996965E-2    5.683044410706876E-1    3.328417704603270E-2   -2.988849815205300E-3    3.256220312025970E-2   -3.527948798341866E-3    7.869938107432373E-2    5.200992096557463E-1
 6.564848997800000E9    -2.373425464124852E-2    5.682862450489639E-1    3.321745635671800E-2   -3.223535592084969E-3    3.279317914558386E-2   -3.566140074069826E-3    8.004073288395150E-2    5.198789213713084E-1
 6.564862026600000E9    -2.274793905621116E-2    5.683114909780395E-1    3.351630806844756E-2   -3.319714723030586E-3    3.298144816047808E-2   -3.784047396911297E-3    8.127892530645704E-2    5.197294153932642E-1
 6.564875055400000E9    -2.166601376988590E-2    5.684165097699391E-1    3.370238291684750E-2   -3.193928275032002E-3    3.308286402589572E-2   -3.889152280724261E-3    8.251158455894292E-2    5.194983277651665E-1
 6.564888084200000E9    -2.057665803021242E-2    5.683958496954101E-1    3.394926917595524E-2   -3.366008806246100E-3    3.330298826533529E-2   -3.802914078191298E-3    8.357090543556865E-2    5.193934848126420E-1
 6.564901113000000E9    -1.945329813248073E-2    5.684877337629253E-1    3.405538866092643E-2   -3.530041696390694E-3    3.344496321799033E-2   -4.026859952073644E-3    8.491707769285568E-2    5.191499892245948E-1
 6.564914141800000E9    -1.830466413251192E-2    5.683725141999636E-1    3.424913466507285E-2   -3.654012095640930E-3    3.379530941058465E-2   -4.181752447728265E-3    8.621225189915205E-2    5.189286160767154E-1
 6.564927170600000E9    -1.730309600599280E-2    5.683562732668551E-1    3.452844386627556E-2   -3.744731222996539E-3    3.379233084540065E-2   -4.291585782954741E-3    8.731684037447834E-2    5.187875386676085E-1
 6.564940199400000E9    -1.626049383841664E-2    5.684870511263251E-1    3.459399961822002E-2   -3.836417313388446E-3    3.408868858955888E-2   -4.344751821284838E-3    8.864096387236511E-2    5.185459875911761E-1
 6.564953228200000E9    -1.518321850519786E-2    5.685097860864374E-1    3.487009986494359E-2   -3.863061913659060E-3    3.432962396987651E-2   -4.513661734061273E-3    9.004476348202800E-2    5.184288951545286E-1
 6.564966257000000E9    -1.399473724516199E-2    5.685290998077243E-1    3.506988200616477E-2   -4.209705771876051E-3    3.448461394912693E-2   -4.629790944827825E-3    9.109678636827459E-2    5.180841504379935E-1
 6.564979285800000E9    -1.312785738749420E-2    5.684745263219810E-1    3.526609091964672E-2   -4.112280873678399E-3    3.468034296737912E-2   -4.699885149259138E-3    9.243890304557595E-2    5.180092931218466E-1
 6.564992314600000E9    -1.200348225776664E-2    5.685343056129414E-1    3.548975352660830E-2   -4.141000628609853E-3    3.483955044166469E-2   -4.815497532199193E-3    9.361577403571776E-2    5.175865264748437E-1
 6.565005343400000E9    -1.098033047923926E-2    5.685878389114819E-1    3.570450440560274E-2   -4.390697014362619E-3    3.503728983190134E-2   -4.951442109876856E-3    9.497081231111464E-2    5.174659456524826E-1
 6.565018372200000E9    -9.675096726307350E-3    5.684489051398198E-1    3.583259930956510E-2   -4.538643529838935E-3    3.535600105302185E-2   -4.992889711090452E-3    9.632791022174139E-2    5.172059968642242E-1
 6.565031401000000E9    -8.642073836560269E-3    5.685401971774305E-1    3.614461458892022E-2   -4.648969669945332E-3    3.555100136420855E-2   -5.171386643765249E-3    9.748458122434972E-2    5.168999857509331E-1
 6.565044429800000E9    -7.650297944627277E-3    5.685526863245718E-1    3.631614109319509E-2   -4.684681497364394E-3    3.567261221313417E-2   -5.197508040857550E-3    9.870065048346729E-2    5.167896202352460E-1
 6.565057458600000E9    -6.552219335573198E-3    5.684817694526278E-1    3.653945076382643E-2   -4.945507667679767E-3    3.593405964110269E-2   -5.306072986950223E-3    9.995935419423152E-2    5.164856922737779E-1
 6.565070487400000E9    -5.423736304992579E-3    5.685534172998269E-1    3.669054802590903E-2   -4.900048292046855E-3    3.611203596806387E-2   -5.520634913782079E-3    1.012511412776944E-1    5.162183494247193E-1
 6.565083516200000E9    -4.442760780309204E-3    5.683862046913589E-1    3.689835156931082E-2   -5.115133356650525E-3    3.640868881195435E-2   -5.708136278827610E-3    1.025672049930857E-1    5.158951778909354E-1
 6.565096545000000E9    -3.365699216412475E-3    5.683343756292690E-1    3.719359265405413E-2   -5.331771711152547E-3    3.656605141733223E-2   -5.612624576146050E-3    1.039773043644866E-1    5.156740821929809E-1
 6.565109573800000E9    -2.141658118428031E-3    5.684281332760976E-1    3.741452221685172E-2   -5.342010439396357E-3    3.679303930741142E-2   -5.879547553104557E-3    1.051548137511741E-1    5.154954832961893E-1
 6.565122602600000E9    -1.106424174987607E-3    5.683799003356899E-1    3.757444351891354E-2   -5.508313107535208E-3    3.704384855172228E-2   -6.034898415410835E-3    1.066052809179518E-1    5.151708020167755E-1
 6.565135631400000E9    -2.023501215194806E-5    5.684330078386979E-1    3.797516666415297E-2   -5.705194550238071E-3    3.723737561652722E-2   -6.196108785679274E-3    1.077145533283179E-1    5.148958242516055E-1
 6.565148660200000E9     1.086691510336034E-3    5.684329419437361E-1    3.799579836453049E-2   -5.978121469876482E-3    3.739390912258026E-2   -6.369093038081165E-3    1.091695910655824E-1    5.145789763338464E-1
 6.565161689000000E9     2.233663457585068E-3    5.683342125360021E-1    3.838377218586059E-2   -5.884998712742078E-3    3.776380061081248E-2   -6.438822555799444E-3    1.105549814607753E-1    5.143532278642744E-1
 6.565174717800000E9     3.259659470656219E-3    5.682486671030005E-1    3.859673317104624E-2   -6.121462886479898E-3    3.783677646684235E-2   -6.606261380767754E-3    1.117672636630034E-1    5.138409695879660E-1
 6.565187746600000E9     4.361469821796927E-3    5.683147397494661E-1    3.880863775626856E-2   -6.145928875098548E-3    3.823596814196479E-2   -6.750006684768149E-3    1.131150254220239E-1    5.137359127787740E-1
 6.565200775400000E9     5.394255329963581E-3    5.682832901141451E-1    3.896303081761140E-2   -6.314155264677337E-3    3.841949707757988E-2   -6.823629299148899E-3    1.143146103469834E-1    5.135234414061876E-1
 6.565213804200000E9     6.591318867559907E-3    5.680932913301837E-1    3.920136927456565E-2   -6.556810196221504E-3    3.862109214802073E-2   -7.011153590080994E-3    1.157306603001676E-1    5.129470510800003E-1
 6.565226833000000E9     7.604933169701987E-3    5.680847011540190E-1    3.958629473289746E-2   -6.584321682286843E-3    3.872993201014902E-2   -7.183121720752074E-3    1.170473945604408E-1    5.127857319720388E-1
 6.565239861800000E9     8.816699799243603E-3    5.680638878612171E-1    3.981246182227908E-2   -6.808448317679503E-3    3.915361455788843E-2   -7.363710131292890E-3    1.183573039068001E-1    5.124175141747529E-1
 6.565252890600000E9     9.830919235027297E-3    5.680213609175339E-1    4.011539462493188E-2   -6.997975008175069E-3    3.933255691307692E-2   -7.443143878834650E-3    1.200540463889788E-1    5.120618601413472E-1
 6.565265919400000E9     1.109008807229227E-2    5.680225438550502E-1    4.030094490919556E-2   -7.023673906765107E-3    3.960308996454294E-2   -7.769927715035626E-3    1.210873539390926E-1    5.118390737770795E-1
 6.565278948200000E9     1.211407782408614E-2    5.679733909591227E-1    4.043058161823630E-2   -7.292805688083070E-3    3.987468726398710E-2   -7.728936130651113E-3    1.226303636205022E-1    5.114757481958756E-1
 6.565291977000000E9     1.324819951769944E-2    5.678750936669066E-1    4.070057327506434E-2   -7.642837126712638E-3    4.013952704162953E-2   -7.972537536752014E-3    1.239924996959755E-1    5.111418926101922E-1
 6.565305005800000E9     1.440293420349445E-2    5.678586877172226E-1    4.111605061392281E-2   -7.558698923277530E-3    4.035200513289216E-2   -8.260493330407518E-3    1.253024087205300E-1    5.108050712388732E-1
 6.565318034600000E9     1.545997886068459E-2    5.677594841175446E-1    4.152892068704999E-2   -7.885385811973195E-3    4.068559744018116E-2   -8.402780392332689E-3    1.266294383648276E-1    5.103425099299916E-1
 6.565331063400000E9     1.658611676396206E-2    5.677691182840039E-1    4.160003256539756E-2   -7.937691466828661E-3    4.086602803889120E-2   -8.511614619926930E-3    1.279854482641327E-1    5.099968602789383E-1
 6.565344092200000E9     1.775874935019641E-2    5.675734507042346E-1    4.187309893925859E-2   -8.030860726934921E-3    4.120161879087889E-2   -8.659980494358975E-3    1.295667818871788E-1    5.096376907067388E-1
 6.565357121000000E9     1.880138300347793E-2    5.675273082306740E-1    4.222992542213184E-2   -8.280545261959970E-3    4.140487286323288E-2   -8.859348123518506E-3    1.307635740198271E-1    5.091749946273594E-1
 6.565370149800000E9     1.994248353942044E-2    5.674412048379829E-1    4.238218384891763E-2   -8.382459842247985E-3    4.172263828165407E-2   -8.915823688473379E-3    1.323408150773537E-1    5.088125573217942E-1
 6.565383178600000E9     2.101853811160952E-2    5.674643158891712E-1    4.267443869573751E-2   -8.598567086813304E-3    4.200677957734728E-2   -9.195081667248335E-3    1.336805196056961E-1    5.085291396525243E-1
 6.565396207400000E9     2.226908683138787E-2    5.673522773238256E-1    4.299038043333792E-2   -8.958956936906922E-3    4.233352680144152E-2   -9.345542536611318E-3    1.350770521856470E-1    5.080876868440037E-1
 6.565409236200000E9     2.338612038986275E-2    5.672483131610332E-1    4.345552113325011E-2   -8.962744164554424E-3    4.257444406986613E-2   -9.607653235061495E-3    1.365438847207350E-1    5.076125382098869E-1
 6.565422265000000E9     2.449306691939485E-2    5.670711424401710E-1    4.360776145774958E-2   -9.254342337869086E-3    4.287735578287827E-2   -9.666382662611963E-3    1.380806931152904E-1    5.071172393647178E-1
 6.565435293800000E9     2.563245642118886E-2    5.670776510391544E-1    4.394604139191232E-2   -9.539334632011676E-3    4.319422933171718E-2   -1.007705285046955E-2    1.394679084431113E-1    5.066081734767208E-1
 6.565448322600000E9     2.669380236447588E-2    5.669191516355088E-1    4.430190307475976E-2   -9.693677002986692E-3    4.344323361487847E-2   -1.015227495960526E-2    1.407178918196095E-1    5.062169080100981E-1
 6.565461351400000E9     2.796569462751032E-2    5.669154151707932E-1    4.463489413016318E-2   -9.767860091933445E-3    4.380481551017913E-2   -1.036725155615102E-2    1.423748818379322E-1    5.058496331067517E-1
 6.565474380200000E9     2.910973910521432E-2    5.667672456531917E-1    4.474965409302846E-2   -9.895015927360609E-3    4.404976499966551E-2   -1.066795929927249E-2    1.437205361027730E-1    5.054939729326844E-1
 6.565487409000000E9     3.011558420982860E-2    5.665496064200752E-1    4.521362867526221E-2   -1.021861147101727E-2    4.435805837615722E-2   -1.077045667381588E-2    1.452573955310620E-1    5.048844297064322E-1
 6.565500437800000E9     3.138967236485923E-2    5.665616672433387E-1    4.549080332349463E-2   -1.043641921447249E-2    4.476963102991605E-2   -1.098842712280661E-2    1.468617692916673E-1    5.045654733224704E-1
 6.565513466600000E9     3.247638428764196E-2    5.664035961604474E-1    4.587822560712190E-2   -1.062307019749150E-2    4.505719708328326E-2   -1.128985328219022E-2    1.481479739230319E-1    5.038697691598361E-1
 6.565526495400000E9     3.369374521313583E-2    5.661859132461603E-1    4.603755993631983E-2   -1.083604097739776E-2    4.531739598116007E-2   -1.152408384120806E-2    1.498053712847537E-1    5.034197425056728E-1
 6.565539524200000E9     3.475408866324927E-2    5.661454836896821E-1    4.647141957086332E-2   -1.111291939095017E-2    4.575770119925103E-2   -1.174508625422865E-2    1.511720114307397E-1    5.028745568538265E-1
 6.565552553000000E9     3.593099850461145E-2    5.659740728610060E-1    4.687735293003082E-2   -1.143491079255429E-2    4.609201897678236E-2   -1.192248802033936E-2    1.526793490725628E-1    5.025955516351638E-1
 6.565565581800000E9     3.712336842842376E-2    5.658792932796596E-1    4.714956572391112E-2   -1.153857331078763E-2    4.646594156328783E-2   -1.233077993054077E-2    1.541822561391505E-1    5.019284021763183E-1
 6.565578610600000E9     3.834424669075973E-2    5.657826085422420E-1    4.749672443032912E-2   -1.179887232000762E-2    4.674009456977569E-2   -1.241759977934282E-2    1.558050395820795E-1    5.013737214061535E-1
 6.565591639400000E9     3.937787034123644E-2    5.656972309697861E-1    4.788987543070519E-2   -1.228327975019102E-2    4.709393294883883E-2   -1.270006937338242E-2    1.572779201904881E-1    5.008280649114756E-1
 6.565604668200000E9     4.063941360829054E-2    5.655654058906893E-1    4.829655118670063E-2   -1.232046047947948E-2    4.741726015136844E-2   -1.298188117684840E-2    1.587902320856453E-1    5.003008614621602E-1
 6.565617697000000E9     4.191967360176213E-2    5.652666233623637E-1    4.860202212466945E-2   -1.251656798802202E-2    4.776622606936667E-2   -1.324632467125662E-2    1.605447405494700E-1    4.997587973271316E-1
 6.565630725800000E9     4.294265523335941E-2    5.651946001964020E-1    4.897237061361903E-2   -1.285661024220480E-2    4.816828461880109E-2   -1.356863304559559E-2    1.621327079420108E-1    4.991458557971158E-1
 6.565643754600000E9     4.419084428477413E-2    5.650412746430843E-1    4.954035608321863E-2   -1.309890187400993E-2    4.858201963270945E-2   -1.385184239821862E-2    1.636001310251799E-1    4.985428563824648E-1
 6.565656783400000E9     4.531951183806009E-2    5.648777662517356E-1    4.983011801448451E-2   -1.347830112471150E-2    4.897099998244357E-2   -1.398471851043147E-2    1.653021130180321E-1    4.979906796938467E-1
 6.565669812200000E9     4.651878015533428E-2    5.647043355164391E-1    5.014515865943434E-2   -1.373015464377814E-2    4.928908668271761E-2   -1.426711682253193E-2    1.668332682175406E-1    4.974122587880737E-1
 6.565682841000000E9     4.773987887527193E-2    5.644732142298455E-1    5.035580486321933E-2   -1.399752785477767E-2    4.973481889731066E-2   -1.460466233795080E-2    1.683722760903165E-1    4.966692912705454E-1
