#  HZ   S   RI   R     50.00 
! Rohde & Schwarz Vector Network Analyzer 
! Rohde-Schwarz,ZNB20-2Port,1311601062101988,3.16
! Created: UTC 3/20/2024, 4:54:52 PM
! freq[Hz]                re:S11                  im:S11                  re:S21                  im:S21                  re:S12                  im:S12                  re:S22                  im:S22
 6.564400810000000E9    -5.891913533262087E-2    5.662390969538531E-1    2.880049820520016E-2   -6.016763589847794E-4    2.823342535358980E-2   -1.034562588265093E-3    4.258765226478759E-2    5.264724512105141E-1
 6.564414074450000E9    -5.796331206050515E-2    5.662878675106877E-1    2.882972665408374E-2   -7.507583901807319E-4    2.834256115127481E-2   -1.255422002572270E-3    4.380393605014451E-2    5.264636740039054E-1
 6.564427338900000E9    -5.692731993455373E-2    5.663457641773518E-1    2.899516573210572E-2   -8.021346639532734E-4    2.853225732653304E-2   -1.186498940000422E-3    4.498806328600005E-2    5.264408628153542E-1
 6.564440603350000E9    -5.581035258327312E-2    5.665255812423741E-1    2.914143432320359E-2   -8.200882753152872E-4    2.864704592250392E-2   -1.331196071962034E-3    4.597834842661380E-2    5.263759726868353E-1
 6.564453867800000E9    -5.469673539662586E-2    5.666030319062970E-1    2.928059059274231E-2   -8.491192615259266E-4    2.875429539562777E-2   -1.447146468544579E-3    4.717512893563595E-2    5.261036473983134E-1
 6.564467132250000E9    -5.363702782447253E-2    5.667729267934459E-1    2.925228499435371E-2   -1.080376704454500E-3    2.895738559195237E-2   -1.531312271110978E-3    4.845506939669691E-2    5.262263284868350E-1
 6.564480396700000E9    -5.266028366998110E-2    5.668700684133330E-1    2.954399310283186E-2   -1.061248925470293E-3    2.916857378677889E-2   -1.556947839339023E-3    4.958914545018105E-2    5.259365090019050E-1
 6.564493661150000E9    -5.162691778489378E-2    5.669602770375708E-1    2.980982576038167E-2   -1.115545061701378E-3    2.923501320719514E-2   -1.617481641056622E-3    5.085175178962560E-2    5.260153978312742E-1
 6.564506925600000E9    -5.050462728177406E-2    5.670722038465612E-1    2.983060548647421E-2   -1.241388993866086E-3    2.934838925796871E-2   -1.776644392237430E-3    5.211726615800785E-2    5.257679583002416E-1
 6.564520190050000E9    -4.946738904501151E-2    5.671401489892544E-1    3.019343001117122E-2   -1.148105005435325E-3    2.947135636207965E-2   -1.876722599189219E-3    5.313711732944672E-2    5.257975317916480E-1
 6.564533454500000E9    -4.848677015405027E-2    5.671824633909462E-1    3.025619022745879E-2   -1.401893302104519E-3    2.967617811897806E-2   -1.841826044725936E-3    5.412240826475442E-2    5.255511527430212E-1
 6.564546718950000E9    -4.737081422086987E-2    5.672629148898146E-1    3.038592618498006E-2   -1.462562440456189E-3    2.986861089230055E-2   -2.014041993776973E-3    5.563927380000602E-2    5.254297696237055E-1
 6.564559983400000E9    -4.622377371874829E-2    5.673286364175277E-1    3.052943034932736E-2   -1.430875607926874E-3    2.997230268914716E-2   -1.950034313449444E-3    5.663018439742154E-2    5.252804728896620E-1
 6.564573247850000E9    -4.526100237492266E-2    5.674051764306307E-1    3.071861722765246E-2   -1.693361897723765E-3    3.021330419684515E-2   -2.078517226807655E-3    5.785181627056570E-2    5.251709201193179E-1
 6.564586512300000E9    -4.415517143614687E-2    5.674472948093578E-1    3.088616540731494E-2   -1.679082688478050E-3    3.029220844284414E-2   -2.192652223060104E-3    5.923235893104273E-2    5.250827563364361E-1
 6.564599776750000E9    -4.313653857423597E-2    5.675075799218030E-1    3.099165863442144E-2   -1.717377469893307E-3    3.052034615864493E-2   -2.227626041677180E-3    6.010615868051417E-2    5.249815277799245E-1
 6.564613041200000E9    -4.206179258559865E-2    5.676519825327960E-1    3.105939202535760E-2   -1.885822933751921E-3    3.070714562662508E-2   -2.358173789395619E-3    6.156265014132749E-2    5.247857525662971E-1
 6.564626305650000E9    -4.092540438222423E-2    5.676612806461144E-1    3.128608298971755E-2   -1.866057755634833E-3    3.077743049982220E-2   -2.482602383449936E-3    6.267558492220907E-2    5.246508518605035E-1
 6.564639570100000E9    -3.980088671629060E-2    5.677569952310664E-1    3.158972938720848E-2   -1.953486758503429E-3    3.096478061105632E-2   -2.496413827520155E-3    6.388594579159650E-2    5.246277475496006E-1
 6.564652834550000E9    -3.869283178603874E-2    5.677911436719246E-1    3.170212550393885E-2   -2.177065986310349E-3    3.110106470722166E-2   -2.627756146544298E-3    6.515084845764449E-2    5.244948396979873E-1
 6.564666099000000E9    -3.782800191586468E-2    5.678974883785511E-1    3.183827714156268E-2   -2.193303766944627E-3    3.124561928002749E-2   -2.673511035662264E-3    6.644394251398912E-2    5.242211485003719E-1
 6.564679363450000E9    -3.658166201741900E-2    5.679823899418883E-1    3.205208221640410E-2   -2.210694054594395E-3    3.149725954979846E-2   -2.766546502339590E-3    6.756841788236774E-2    5.242055509236648E-1
 6.564692627900000E9    -3.555960081231693E-2    5.680150747206442E-1    3.230036330714658E-2   -2.327517839303157E-3    3.158960162564203E-2   -2.897477798533521E-3    6.876772920098531E-2    5.240230214607067E-1
 6.564705892350000E9    -3.451717964150014E-2    5.679971796930261E-1    3.241179900822974E-2   -2.342117185005852E-3    3.184038539225161E-2   -2.899524608928666E-3    6.996323773801362E-2    5.237693913078264E-1
 6.564719156800000E9    -3.348026708107948E-2    5.681839323822205E-1    3.248230299909414E-2   -2.583202778909431E-3    3.203344078062910E-2   -3.007390662315117E-3    7.126443105133407E-2    5.236585856365816E-1
 6.564732421250000E9    -3.231583437300968E-2    5.681762659958818E-1    3.258488234872813E-2   -2.482460081815786E-3    3.212381300207343E-2   -3.206241002164973E-3    7.241519829663930E-2    5.235247411373682E-1
 6.564745685700000E9    -3.139558237096000E-2    5.682092762897952E-1    3.280253841228883E-2   -2.800134634968609E-3    3.229452014326557E-2   -3.297044620236627E-3    7.384011352468786E-2    5.232654301637890E-1
 6.564758950150000E9    -3.022173224913410E-2    5.681462306031584E-1    3.315446448561319E-2   -2.711847856671484E-3    3.246147918859148E-2   -3.372469173097607E-3    7.508848244628499E-2    5.232538431636139E-1
 6.564772214600000E9    -2.906903246804919E-2    5.683592561469308E-1    3.326063051283836E-2   -2.936258741456632E-3    3.268169855028927E-2   -3.487726121901449E-3    7.613660297671092E-2    5.228818409706618E-1
 6.564785479050000E9    -2.794932431871415E-2    5.684032901319209E-1    3.345681090622295E-2   -2.966027319431502E-3    3.281740787292650E-2   -3.564304869757442E-3    7.741627426383887E-2    5.228677050715503E-1
 6.564798743500000E9    -2.689154321875901E-2    5.683836073482054E-1    3.363074868672911E-2   -2.963390100893194E-3    3.308213279933579E-2   -3.719724579100083E-3    7.876037200652954E-2    5.225839710181192E-1
 6.564812007950000E9    -2.585718781522996E-2    5.684319749701704E-1    3.386446264550263E-2   -3.165385908260548E-3    3.322169530319613E-2   -3.740375943103543E-3    7.992878774375715E-2    5.223770952764886E-1
 6.564825272400000E9    -2.478368247116733E-2    5.683796559266995E-1    3.398345539555311E-2   -3.380038359043190E-3    3.340235108010895E-2   -3.859470187291878E-3    8.126459866971185E-2    5.222446749522619E-1
 6.564838536850000E9    -2.358380221941734E-2    5.684235975831551E-1    3.417090162097187E-2   -3.432975691147327E-3    3.355010715875482E-2   -3.985357515186996E-3    8.248292797866624E-2    5.220528587521697E-1
 6.564851801300000E9    -2.263102845446554E-2    5.684015281755738E-1    3.432052635591319E-2   -3.447086611385358E-3    3.371758566700540E-2   -4.164614405180225E-3    8.367183417228295E-2    5.217821084806876E-1
 6.564865065750000E9    -2.148515458694217E-2    5.686121372126443E-1    3.451153053755104E-2   -3.634393774485238E-3    3.402590067556536E-2   -4.145197414032882E-3    8.505202534387275E-2    5.215936599083555E-1
 6.564878330200000E9    -2.044037618799275E-2    5.685375941920188E-1    3.477327087488464E-2   -3.675215485082036E-3    3.414475110944790E-2   -4.322949177010041E-3    8.636504326137140E-2    5.214576486716840E-1
 6.564891594650000E9    -1.918277673253398E-2    5.685668919667236E-1    3.498237575121498E-2   -3.816320220779586E-3    3.433275826033184E-2   -4.299416520764809E-3    8.761505431554807E-2    5.213317296296198E-1
 6.564904859100000E9    -1.820309796570823E-2    5.686313488984023E-1    3.509469890579378E-2   -3.961901342814495E-3    3.456750214764911E-2   -4.375355980670261E-3    8.888935236187842E-2    5.209724144692593E-1
 6.564918123550000E9    -1.710499880085838E-2    5.686131477755517E-1    3.528882430011011E-2   -4.009864987700428E-3    3.473325073751079E-2   -4.719928278495412E-3    9.013167577432452E-2    5.207828134580739E-1
 6.564931388000000E9    -1.594966516530117E-2    5.685500467142046E-1    3.545311231267016E-2   -4.146793033612998E-3    3.492419331012252E-2   -4.798814374207202E-3    9.153970693654019E-2    5.203462310543291E-1
 6.564944652450000E9    -1.492736580926534E-2    5.685994313351914E-1    3.576332690077950E-2   -4.307178189038390E-3    3.518978730659031E-2   -4.867833052058279E-3    9.263701543532953E-2    5.203240239634999E-1
 6.564957916900000E9    -1.385888771595298E-2    5.685295859078282E-1    3.598203084354038E-2   -4.519199765654612E-3    3.539313071868048E-2   -4.981384717986054E-3    9.404806890207928E-2    5.200720308763990E-1
 6.564971181350000E9    -1.266499225139068E-2    5.685510822338726E-1    3.616663864910228E-2   -4.474124929470399E-3    3.565505343869621E-2   -5.186299839402560E-3    9.526834099592983E-2    5.197738075326100E-1
 6.564984445800000E9    -1.158704227806393E-2    5.686129700665408E-1    3.632687791214343E-2   -4.600361713921837E-3    3.571933033695284E-2   -5.267295016424134E-3    9.657439120870422E-2    5.195576692415849E-1
 6.564997710250000E9    -1.059377757791295E-2    5.687237649283349E-1    3.672299766371131E-2   -4.883206406606994E-3    3.604050774148173E-2   -5.366512210507246E-3    9.786668614958235E-2    5.192805260113271E-1
 6.565010974700000E9    -9.320553785836624E-3    5.686058585863841E-1    3.684774434445077E-2   -5.013708325143774E-3    3.625440423321155E-2   -5.536455360837414E-3    9.923785595953702E-2    5.190889249933015E-1
 6.565024239150000E9    -8.175785293282547E-3    5.686721391290293E-1    3.714305410901692E-2   -5.152002787239532E-3    3.643694504654724E-2   -5.602136313827843E-3    1.005681379580099E-1    5.188265152518245E-1
 6.565037503600000E9    -7.169176297501462E-3    5.685269038237094E-1    3.736568810817241E-2   -5.191222315265681E-3    3.665917460169092E-2   -5.730717959400504E-3    1.018589409669387E-1    5.185675696331362E-1
 6.565050768050000E9    -6.007823743142634E-3    5.686795438065791E-1    3.750244130534807E-2   -5.332297742666229E-3    3.689088834651737E-2   -5.809007598555558E-3    1.030938106105056E-1    5.182630761551219E-1
 6.565064032500000E9    -4.944905153337258E-3    5.685463192380623E-1    3.784250235008531E-2   -5.394592666245999E-3    3.729082412822573E-2   -6.073487803624986E-3    1.044867442204796E-1    5.178640609799501E-1
 6.565077296950000E9    -3.930451026202158E-3    5.684864206679106E-1    3.806076104449094E-2   -5.593787908018318E-3    3.732218223432883E-2   -6.108340848546404E-3    1.057353451682910E-1    5.176915103673402E-1
 6.565090561400000E9    -2.749606199486011E-3    5.685229082621578E-1    3.830831984314818E-2   -5.749896165388430E-3    3.758665660483610E-2   -6.319160768488222E-3    1.072178994878905E-1    5.174607647819749E-1
 6.565103825850000E9    -1.647586220372231E-3    5.684234377757799E-1    3.849047768793047E-2   -5.822840114507510E-3    3.776895842514012E-2   -6.333156585440293E-3    1.086933844905459E-1    5.170409684844086E-1
 6.565117090300000E9    -4.379383010168411E-4    5.684732404095861E-1    3.866107236854504E-2   -6.076469166193590E-3    3.810499648707922E-2   -6.657791918736268E-3    1.100156824473459E-1    5.166539739704276E-1
 6.565130354750000E9     6.968318541417533E-4    5.683571898040964E-1    3.907280604709627E-2   -6.067349728600651E-3    3.822801706527301E-2   -6.739708902204943E-3    1.110866951423650E-1    5.164469288479555E-1
 6.565143619200000E9     1.743743662573822E-3    5.684373557369297E-1    3.924261055326173E-2   -6.273411155888983E-3    3.863412498643160E-2   -6.748771065992496E-3    1.126509459410896E-1    5.161878692316306E-1
 6.565156883650000E9     2.896739083214400E-3    5.684346365145945E-1    3.938038797534581E-2   -6.604728824697779E-3    3.882214825977250E-2   -7.098602990483663E-3    1.139874657676112E-1    5.160238360237814E-1
 6.565170148100000E9     3.964591222209993E-3    5.682944780200232E-1    3.965321333660424E-2   -6.714153696689977E-3    3.900395710111534E-2   -7.192878536688998E-3    1.153444567968845E-1    5.153740281359184E-1
 6.565183412550000E9     5.105479673822447E-3    5.683192960762778E-1    4.005291320619698E-2   -6.688321587022061E-3    3.939072423191926E-2   -7.330874654527191E-3    1.168246378157600E-1    5.152455406814236E-1
 6.565196677000000E9     6.285991754013565E-3    5.683614936799724E-1    4.028250959497041E-2   -6.956694946343476E-3    3.955152306695887E-2   -7.531060337342484E-3    1.182243172560222E-1    5.149867783079419E-1
 6.565209941450000E9     7.440412903936853E-3    5.681832744897392E-1    4.045065265697324E-2   -7.096254257018028E-3    3.974343777269861E-2   -7.762397852836940E-3    1.195305964478427E-1    5.143820511310503E-1
 6.565223205900000E9     8.536383005515931E-3    5.681442001008394E-1    4.093899095887349E-2   -7.151629468076733E-3    4.007241350169265E-2   -7.854158720865723E-3    1.210961669884722E-1    5.140814309738543E-1
 6.565236470350000E9     9.630985369987735E-3    5.682478229842598E-1    4.105922194205736E-2   -7.395466951163923E-3    4.038204865601380E-2   -7.997909203733437E-3    1.223488739195732E-1    5.138115362398448E-1
 6.565249734800000E9     1.086894032595328E-2    5.681440915430864E-1    4.137482991174832E-2   -7.633964698211778E-3    4.057110602687972E-2   -8.091892118519819E-3    1.237696564657068E-1    5.134954801847552E-1
 6.565262999250000E9     1.197237929759268E-2    5.680095744368320E-1    4.148548747600322E-2   -7.869732187982557E-3    4.086996204539146E-2   -8.392568001879236E-3    1.252562032599060E-1    5.129950514943555E-1
 6.565276263700000E9     1.312012299684109E-2    5.678922535121687E-1    4.195608160981149E-2   -7.990472019504986E-3    4.117017977848589E-2   -8.448729013019332E-3    1.265961217941075E-1    5.127300649263216E-1
 6.565289528150000E9     1.419459483472115E-2    5.679242377947258E-1    4.214739971790050E-2   -8.202081239888304E-3    4.150277048772634E-2   -8.737736535604440E-3    1.279901347895823E-1    5.122965295002780E-1
 6.565302792600000E9     1.529371176445602E-2    5.677588142687331E-1    4.240028257171671E-2   -8.377352786017797E-3    4.176777590393736E-2   -8.929637716945889E-3    1.296444812109307E-1    5.118395254636604E-1
 6.565316057050000E9     1.634106735221762E-2    5.678167292883164E-1    4.272999350001636E-2   -8.445571673043897E-3    4.210582988802316E-2   -9.114914572828731E-3    1.309392548186769E-1    5.114039795092646E-1
 6.565329321500000E9     1.773000744746904E-2    5.676559984254073E-1    4.290222247391729E-2   -8.624922737602486E-3    4.236389301681859E-2   -9.263479020705357E-3    1.324149362120342E-1    5.110449502965324E-1
 6.565342585950000E9     1.882541902780094E-2    5.675420370278751E-1    4.331490076118452E-2   -8.960004397260118E-3    4.254375704772598E-2   -9.439792567969226E-3    1.339195123969188E-1    5.105911626890246E-1
 6.565355850400000E9     1.992582343314896E-2    5.674297896318665E-1    4.369533871567696E-2   -8.993734534493753E-3    4.294342597861093E-2   -9.752359101546867E-3    1.353105423844801E-1    5.102685944440108E-1
 6.565369114850000E9     2.118784083786709E-2    5.675254068397184E-1    4.379063990579067E-2   -9.242082667637912E-3    4.311494168830243E-2   -9.835326924883325E-3    1.367050056901206E-1    5.096094833169584E-1
 6.565382379300000E9     2.235690387384488E-2    5.673334003135683E-1    4.423272575029041E-2   -9.604253377401631E-3    4.354253355465856E-2   -9.968303558012141E-3    1.382623017261966E-1    5.093994883463338E-1
 6.565395643750000E9     2.348876481384909E-2    5.672898777336436E-1    4.454141219915230E-2   -9.700105920324180E-3    4.377512492678066E-2   -1.025888005356694E-2    1.398256836300806E-1    5.089797142904737E-1
 6.565408908200000E9     2.458262560979430E-2    5.671645557603004E-1    4.497480334362235E-2   -1.000770876326115E-2    4.418387477815548E-2   -1.049338043689541E-2    1.412628293412783E-1    5.083989095153045E-1
 6.565422172650000E9     2.580569820985539E-2    5.670889304225192E-1    4.521425380845218E-2   -1.010023589920292E-2    4.449382259844939E-2   -1.081721488672967E-2    1.427158497848432E-1    5.079117278912451E-1
 6.565435437100000E9     2.698399944854165E-2    5.669974002839467E-1    4.549308429375050E-2   -1.046455613216634E-2    4.478188663006896E-2   -1.093025086894297E-2    1.442413027781764E-1    5.074742656630010E-1
 6.565448701550000E9     2.805507556490785E-2    5.669544569277792E-1    4.590095056954063E-2   -1.059287462531216E-2    4.517922565901370E-2   -1.121084379177571E-2    1.458322172424094E-1    5.070346263223877E-1
 6.565461966000000E9     2.925251456346640E-2    5.667556876111590E-1    4.632219407806479E-2   -1.072595437098432E-2    4.539752468510777E-2   -1.141371935258630E-2    1.473317256209775E-1    5.064248955853035E-1
 6.565475230450000E9     3.043616729963562E-2    5.666078257687487E-1    4.657396121522074E-2   -1.098470028706027E-2    4.582596378273758E-2   -1.161441889732657E-2    1.489133185933942E-1    5.059101891496104E-1
 6.565488494900000E9     3.170537050310435E-2    5.665678590608534E-1    4.693062695936934E-2   -1.124425679780539E-2    4.608751773997406E-2   -1.195230106603829E-2    1.504464789195370E-1    5.052969140172197E-1
 6.565501759350000E9     3.285200994091666E-2    5.662756946193338E-1    4.720410513563375E-2   -1.146037641395565E-2    4.648586404751042E-2   -1.217090523296863E-2    1.519153404470557E-1    5.050943377152183E-1
 6.565515023800000E9     3.399745736984871E-2    5.662375896876585E-1    4.775244439795739E-2   -1.178935935696924E-2    4.683445842813332E-2   -1.246214121896179E-2    1.536102200404552E-1    5.043900818804995E-1
 6.565528288250000E9     3.534272992906575E-2    5.660781715198427E-1    4.800149548807814E-2   -1.209981970497271E-2    4.718423869830810E-2   -1.266317950309974E-2    1.551221139193618E-1    5.036738876068704E-1
 6.565541552700000E9     3.640965050629714E-2    5.659811517396721E-1    4.835694152843694E-2   -1.233080067417351E-2    4.756009056732220E-2   -1.290635529090554E-2    1.567661125881034E-1    5.031558306908953E-1
 6.565554817150000E9     3.753074604241230E-2    5.657997912655026E-1    4.878209833593612E-2   -1.266187607665922E-2    4.790207156160493E-2   -1.320022505739264E-2    1.583408644681758E-1    5.025510772005890E-1
 6.565568081600000E9     3.889788000277661E-2    5.656560065824301E-1    4.910297694378511E-2   -1.289158311163410E-2    4.835983579879165E-2   -1.354990356965953E-2    1.597845761293240E-1    5.019780427018913E-1
 6.565581346050000E9     4.001067051449952E-2    5.655854015019590E-1    4.954585633480752E-2   -1.327381082346609E-2    4.877342303053104E-2   -1.367239317909172E-2    1.614671637832417E-1    5.013154869265604E-1
 6.565594610500000E9     4.120469543690784E-2    5.652962596575862E-1    4.976552171544358E-2   -1.337916186361032E-2    4.901539832199919E-2   -1.397957863271466E-2    1.632294912576737E-1    5.007156167112938E-1
