#  HZ   S   RI   R     50.00 
! Rohde & Schwarz Vector Network Analyzer 
! Rohde-Schwarz,ZNB20-2Port,1311601062101988,3.16
! Created: UTC 3/20/2024, 5:10:10 PM
! freq[Hz]                re:S11                  im:S11                  re:S21                  im:S21                  re:S12                  im:S12                  re:S22                  im:S22
 6.564524546000000E9    -5.005265873348227E-2    5.667942572969660E-1    2.929945594594678E-2   -1.048792092639263E-3    2.880803355078468E-2   -1.484896682536797E-3    5.039056184611634E-2    5.233417907364198E-1
 6.564537526900000E9    -4.892134127988959E-2    5.669915037613331E-1    2.940079542556161E-2   -9.565689460510471E-4    2.888795727359089E-2   -1.525354975975608E-3    5.158469312078220E-2    5.232978041895143E-1
 6.564550507800000E9    -4.781971398265774E-2    5.671032766612715E-1    2.961927541368610E-2   -1.238901312174164E-3    2.906014882049380E-2   -1.682671828158761E-3    5.263539612957442E-2    5.231778161860844E-1
 6.564563488700000E9    -4.683867372672641E-2    5.670953887278085E-1    2.957758041147477E-2   -1.196801780185119E-3    2.917475812005484E-2   -1.617850874255047E-3    5.392416689826764E-2    5.230037340878092E-1
 6.564576469600000E9    -4.573880841397642E-2    5.671906778716441E-1    2.978527108542922E-2   -1.403177719048921E-3    2.933514457570299E-2   -1.702843562823398E-3    5.493206125953329E-2    5.230153725344884E-1
 6.564589450500000E9    -4.473543474438104E-2    5.672708104323474E-1    2.995007108935390E-2   -1.281949603221992E-3    2.945574408245023E-2   -1.940066966265492E-3    5.600747604942495E-2    5.227631890497356E-1
 6.564602431400000E9    -4.383291214067454E-2    5.674463595093463E-1    3.015586568285666E-2   -1.573626611563159E-3    2.965024492623147E-2   -2.006266854901332E-3    5.735369660577722E-2    5.227884051964321E-1
 6.564615412300000E9    -4.273659035981271E-2    5.673697732483048E-1    3.035911607841954E-2   -1.426356705359347E-3    2.980607725821290E-2   -2.063275787903896E-3    5.842542205096438E-2    5.226462343424551E-1
 6.564628393200000E9    -4.166042820212415E-2    5.674991779792423E-1    3.052303216362316E-2   -1.503352819035486E-3    2.996099620374901E-2   -2.069279201534555E-3    5.954927841087290E-2    5.227212267609382E-1
 6.564641374100000E9    -4.069028041838597E-2    5.675265220186777E-1    3.069480960788373E-2   -1.665092782147589E-3    3.006192839488697E-2   -2.231501415363151E-3    6.085691258654295E-2    5.224366818014256E-1
 6.564654355000000E9    -3.955568767151364E-2    5.675373414650671E-1    3.070604352180336E-2   -1.771719101493817E-3    3.025768643803315E-2   -2.229099350990578E-3    6.193833885063925E-2    5.222449804551785E-1
 6.564667335900000E9    -3.853868701503479E-2    5.676831490975048E-1    3.097696479183314E-2   -1.939819989307785E-3    3.044156340029852E-2   -2.351896955799327E-3    6.308729183082910E-2    5.220484579955873E-1
 6.564680316800000E9    -3.748893069532001E-2    5.677057600541571E-1    3.098890003503815E-2   -1.971808128056983E-3    3.055679348489947E-2   -2.396121766649413E-3    6.424477714026827E-2    5.219717740011125E-1
 6.564693297700000E9    -3.643565183532892E-2    5.677573206161814E-1    3.122073668756851E-2   -1.960108570369359E-3    3.077736665874900E-2   -2.511029234273408E-3    6.554327721126971E-2    5.218672126439157E-1
 6.564706278600000E9    -3.544579834387035E-2    5.678857462830784E-1    3.144015702250774E-2   -1.957759943786630E-3    3.090288528934461E-2   -2.515646002278602E-3    6.671616822721801E-2    5.216937493056677E-1
 6.564719259500000E9    -3.438856393304007E-2    5.679508396836769E-1    3.164444226672292E-2   -2.246296455754429E-3    3.100132529485598E-2   -2.666438560046377E-3    6.779411003826655E-2    5.216459252018292E-1
 6.564732240400000E9    -3.331359131864021E-2    5.680345350911237E-1    3.177757509021967E-2   -2.227009422255303E-3    3.125566169708105E-2   -2.666653234906946E-3    6.896476043016121E-2    5.215042914319921E-1
 6.564745221300000E9    -3.226230202756330E-2    5.679349836518843E-1    3.194150808275469E-2   -2.352931588381197E-3    3.139193209009637E-2   -2.799073476782338E-3    7.014944349277105E-2    5.213400230882532E-1
 6.564758202200000E9    -3.111847935455992E-2    5.679802024531794E-1    3.212213201847876E-2   -2.450916092188454E-3    3.151923098190887E-2   -2.972678480657099E-3    7.162459452700472E-2    5.212154923787899E-1
 6.564771183100000E9    -3.015945761622747E-2    5.681123927156861E-1    3.226076595643480E-2   -2.539152178623215E-3    3.168851525456266E-2   -3.031512855634218E-3    7.271275001657340E-2    5.209725381134693E-1
 6.564784164000000E9    -2.907119746205552E-2    5.681622636592537E-1    3.225088986319979E-2   -2.623588078709858E-3    3.187215533823168E-2   -3.048486425372250E-3    7.386394984295877E-2    5.209310809409773E-1
 6.564797144900000E9    -2.800510093332792E-2    5.681961925109366E-1    3.267023173042407E-2   -2.693004964076369E-3    3.205195259034666E-2   -3.250111190421302E-3    7.511181773874327E-2    5.207335043057671E-1
 6.564810125800000E9    -2.685546033820595E-2    5.682266648165252E-1    3.271564658474260E-2   -2.811473386518765E-3    3.221679504155551E-2   -3.290899678123648E-3    7.641537695533532E-2    5.205408177174999E-1
 6.564823106700000E9    -2.586660857425736E-2    5.682279788947553E-1    3.300936881802666E-2   -2.848704118627421E-3    3.230765580699569E-2   -3.409691579241900E-3    7.755234344865711E-2    5.202918017765925E-1
 6.564836087600000E9    -2.484405207090487E-2    5.683528919138497E-1    3.303695250739498E-2   -2.925242127488992E-3    3.251613562057167E-2   -3.424767693494775E-3    7.879734427995520E-2    5.201481130034714E-1
 6.564849068500000E9    -2.379642749178293E-2    5.684117143016216E-1    3.324363492118673E-2   -3.033299945022546E-3    3.276930319502776E-2   -3.592194070992712E-3    7.982133005873651E-2    5.198806426604187E-1
 6.564862049400000E9    -2.282823258805802E-2    5.683607489767433E-1    3.344993430122176E-2   -3.217355131766313E-3    3.281262950402531E-2   -3.684273302404640E-3    8.115407090868702E-2    5.198111667806408E-1
 6.564875030300000E9    -2.165287904039704E-2    5.683806987816531E-1    3.353937377691120E-2   -3.313640992168619E-3    3.306833224249294E-2   -3.730872070406987E-3    8.243838918933505E-2    5.195219174214732E-1
 6.564888011200000E9    -2.070926889225862E-2    5.683274895841943E-1    3.379209580581238E-2   -3.489311634446020E-3    3.320132332172378E-2   -3.891600473816134E-3    8.350090853486969E-2    5.194644969013967E-1
 6.564900992100000E9    -1.954222256824833E-2    5.684301965980348E-1    3.398893664411544E-2   -3.439419037929705E-3    3.346719941191371E-2   -4.001574060662277E-3    8.476489390943275E-2    5.194236653975693E-1
 6.564913973000000E9    -1.847778237214247E-2    5.683860709358074E-1    3.413448085463553E-2   -3.482649121172723E-3    3.363753525580820E-2   -4.140632568690194E-3    8.598900280347581E-2    5.190511316928159E-1
 6.564926953900000E9    -1.741063050699738E-2    5.684484781091145E-1    3.439781953166809E-2   -3.698277039746191E-3    3.383367150307520E-2   -4.251353537150405E-3    8.720050085313183E-2    5.188600459764862E-1
 6.564939934800000E9    -1.627703479683952E-2    5.685298438509783E-1    3.457638749201066E-2   -3.752380690405969E-3    3.402835243877956E-2   -4.300621014319926E-3    8.856292709472000E-2    5.185868534579582E-1
 6.564952915700000E9    -1.531540802112851E-2    5.684918359400120E-1    3.466842421482651E-2   -4.106844142803033E-3    3.420405322700755E-2   -4.386280686101317E-3    8.960327342589408E-2    5.186171980700791E-1
 6.564965896600000E9    -1.410973812274822E-2    5.684923817775349E-1    3.498163669043148E-2   -3.907065897163685E-3    3.437702061386425E-2   -4.442384267503724E-3    9.098517460207273E-2    5.181599101442227E-1
 6.564978877500000E9    -1.317192954770205E-2    5.684723676628449E-1    3.505444392547923E-2   -4.095158465203147E-3    3.463610903958315E-2   -4.706468203549840E-3    9.224420813515091E-2    5.180487948828194E-1
 6.564991858400000E9    -1.208921756879281E-2    5.684612127520984E-1    3.544150920269826E-2   -4.282990768769600E-3    3.486233799033477E-2   -4.746503945408558E-3    9.347273821075364E-2    5.176587832091080E-1
 6.565004839300000E9    -1.100311955418436E-2    5.684582876213189E-1    3.544315307316812E-2   -4.399126878832180E-3    3.500351527486740E-2   -4.861150790464083E-3    9.468166754805807E-2    5.174698804446604E-1
 6.565017820200000E9    -9.930623328432057E-3    5.684361084424164E-1    3.572909331189832E-2   -4.492446218118017E-3    3.516517382423939E-2   -4.956401219467480E-3    9.598646803526113E-2    5.172873168961125E-1
 6.565030801100000E9    -8.843941495487628E-3    5.684787808462486E-1    3.603939463758182E-2   -4.622226473204260E-3    3.549488073467486E-2   -5.073168560025069E-3    9.728846013511042E-2    5.170713133147680E-1
 6.565043782000000E9    -7.724449326576439E-3    5.683508969502099E-1    3.618443330874213E-2   -4.710667114889756E-3    3.566267760846000E-2   -5.169195332193908E-3    9.848428701774743E-2    5.168061805447185E-1
 6.565056762900000E9    -6.630186299842914E-3    5.684430892981570E-1    3.636457249916989E-2   -4.824965730266904E-3    3.576815406456775E-2   -5.321450602870910E-3    9.982901811170311E-2    5.164655277434254E-1
 6.565069743800000E9    -5.673880077877855E-3    5.684032987264953E-1    3.654079369441127E-2   -4.899661501746803E-3    3.601305828959939E-2   -5.484084866223641E-3    1.011588500466717E-1    5.163856294128660E-1
 6.565082724700000E9    -4.496978290849255E-3    5.684892688839428E-1    3.686929288442334E-2   -4.975353935307563E-3    3.624095494371423E-2   -5.625277048469095E-3    1.023551017259230E-1    5.160192328027936E-1
 6.565095705600000E9    -3.454413417574193E-3    5.684603011735938E-1    3.713356440125004E-2   -5.196701047950144E-3    3.643062829645807E-2   -5.675086795014344E-3    1.036205599822724E-1    5.158010909694591E-1
 6.565108686500000E9    -2.253482705946603E-3    5.684535202333227E-1    3.721037980203801E-2   -5.311783254300095E-3    3.664402103032440E-2   -5.792895128029037E-3    1.050554721791332E-1    5.155327433050959E-1
 6.565121667400000E9    -1.264242313608000E-3    5.684296717642042E-1    3.742196368856193E-2   -5.583488095229682E-3    3.693668981029653E-2   -6.048536872970812E-3    1.062618920018453E-1    5.152715536601966E-1
 6.565134648300000E9    -1.976971590268029E-4    5.683733968043972E-1    3.776815650620029E-2   -5.623466597327593E-3    3.713294828392079E-2   -6.036645516202510E-3    1.075756325509089E-1    5.150364942587438E-1
 6.565147629200000E9     9.061616537471446E-4    5.683044785204389E-1    3.805462580565828E-2   -5.820931683431290E-3    3.736354671835983E-2   -6.249449581470434E-3    1.088853669893909E-1    5.147132335015349E-1
 6.565160610100000E9     1.988157114975942E-3    5.683287095098910E-1    3.809168550493599E-2   -5.898993235428111E-3    3.756977259576839E-2   -6.358164406571601E-3    1.101817329079195E-1    5.143984270628444E-1
 6.565173591000000E9     3.078933641242701E-3    5.683609756904311E-1    3.837480224668106E-2   -6.124539107063245E-3    3.778802777374102E-2   -6.463773855078350E-3    1.115085853672715E-1    5.141367039485687E-1
 6.565186571900000E9     4.141366100159911E-3    5.684153377838866E-1    3.864583205714617E-2   -6.188935306560030E-3    3.807579098964475E-2   -6.706592663940893E-3    1.129157348488743E-1    5.138709511387632E-1
 6.565199552800000E9     5.226176718455124E-3    5.682592729861924E-1    3.893142380916108E-2   -6.221746326350821E-3    3.819667490877510E-2   -6.701097898240110E-3    1.142917900415332E-1    5.134761754047070E-1
 6.565212533700000E9     6.487592980370496E-3    5.681451522591545E-1    3.908544788911806E-2   -6.445844561552676E-3    3.854615627470227E-2   -7.003184223194742E-3    1.155965060905781E-1    5.130784895553796E-1
 6.565225514600000E9     7.487094013712232E-3    5.682077177873007E-1    3.930182983539622E-2   -6.467820637882160E-3    3.884758314570934E-2   -7.032749400444091E-3    1.168761982669324E-1    5.129348809405673E-1
 6.565238495500000E9     8.607507142516001E-3    5.681402107548739E-1    3.972745539606689E-2   -6.757875224753396E-3    3.904061866157230E-2   -7.209035951701977E-3    1.181555714266928E-1    5.128081438093279E-1
 6.565251476400000E9     9.723650287622003E-3    5.681170385774293E-1    3.986906497679691E-2   -6.838351916874927E-3    3.921581573719390E-2   -7.475232822665020E-3    1.195871500457372E-1    5.123575996198280E-1
 6.565264457300000E9     1.084288185060697E-2    5.679779415200488E-1    4.016052350790408E-2   -6.871884169308189E-3    3.950661434251688E-2   -7.573853910512922E-3    1.209321726404324E-1    5.119262585848273E-1
 6.565277438200000E9     1.203091933263639E-2    5.679272585855715E-1    4.036464082656792E-2   -7.166626260354314E-3    3.974746549128785E-2   -7.834196106453070E-3    1.221567846170256E-1    5.114146871398049E-1
 6.565290419100000E9     1.296702427483335E-2    5.679686057447674E-1    4.047465794262149E-2   -7.303045238226834E-3    4.001237167561846E-2   -7.795769582841495E-3    1.235571836861759E-1    5.113943716333355E-1
 6.565303400000000E9     1.406819805225605E-2    5.678452146321327E-1    4.106971318879909E-2   -7.458031415658445E-3    4.026342814547056E-2   -8.065736932546407E-3    1.248676558843251E-1    5.108248942935781E-1
 6.565316380900000E9     1.523921409564501E-2    5.678198552254383E-1    4.126492400824620E-2   -7.732109743027531E-3    4.055940272132916E-2   -8.267299671968114E-3    1.263168099819847E-1    5.104848871020854E-1
 6.565329361800000E9     1.637425694593380E-2    5.676048886006348E-1    4.152074990977296E-2   -7.881665352446885E-3    4.077793086972267E-2   -8.362005421337490E-3    1.278234781922364E-1    5.100996220693230E-1
 6.565342342700000E9     1.746958438335283E-2    5.677020873107067E-1    4.166575857579612E-2   -8.159039626673418E-3    4.106953929602963E-2   -8.524666194141307E-3    1.290636636348090E-1    5.098091394149679E-1
 6.565355323600000E9     1.855017745343619E-2    5.675733384691221E-1    4.205006302006664E-2   -8.227973919372853E-3    4.132628287692524E-2   -8.663351537927149E-3    1.305389356394578E-1    5.094295133280717E-1
 6.565368304500000E9     1.977192540899825E-2    5.676320717271210E-1    4.232736816022218E-2   -8.542826470021896E-3    4.169233373355430E-2   -8.977800895916413E-3    1.318700421923987E-1    5.090185264071665E-1
 6.565381285400000E9     2.076888014248171E-2    5.674632214610538E-1    4.256801656403955E-2   -8.441006352203267E-3    4.195374556233782E-2   -9.055259029925544E-3    1.333458177438634E-1    5.086006993772099E-1
 6.565394266300000E9     2.192514058220102E-2    5.674124332258106E-1    4.285168085019379E-2   -8.815466603570139E-3    4.209511461905382E-2   -9.339841370055165E-3    1.347347906842723E-1    5.081964167499179E-1
 6.565407247200000E9     2.292684392884245E-2    5.673878551430650E-1    4.322579762016492E-2   -9.020136655619435E-3    4.247976859311377E-2   -9.472543921830348E-3    1.360642857941484E-1    5.078544886423665E-1
 6.565420228100000E9     2.424698613560580E-2    5.671617578556013E-1    4.345808426631489E-2   -9.038894138292541E-3    4.276614646560116E-2   -9.627948323221044E-3    1.376209597945867E-1    5.074750354039220E-1
 6.565433209000000E9     2.531459948269875E-2    5.670876454737032E-1    4.379929945415582E-2   -9.227529232364888E-3    4.317501387474323E-2   -9.907662731387729E-3    1.388612378976557E-1    5.069873312839540E-1
 6.565446189900000E9     2.647967971179695E-2    5.669787382615943E-1    4.401011547540718E-2   -9.597949716969026E-3    4.325690027484882E-2   -1.017732947850837E-2    1.403754341707069E-1    5.064516256763945E-1
 6.565459170800000E9     2.765679600066851E-2    5.669083873795913E-1    4.450805616257624E-2   -9.663443525431243E-3    4.362897305511901E-2   -1.026573204752195E-2    1.418634432659722E-1    5.059917475434601E-1
 6.565472151700000E9     2.868244034868785E-2    5.668312236638786E-1    4.476388884442222E-2   -9.910623806670689E-3    4.391627283219263E-2   -1.050644304115498E-2    1.434602909773027E-1    5.055775589706800E-1
 6.565485132600000E9     2.982789704658258E-2    5.666412137830504E-1    4.504037622159190E-2   -1.001657211006734E-2    4.417408772026438E-2   -1.062846220878348E-2    1.447961902512579E-1    5.051699947418119E-1
 6.565498113500000E9     3.100730375839359E-2    5.664968113066421E-1    4.538342844932546E-2   -1.027775292930081E-2    4.452273491677616E-2   -1.093241187827288E-2    1.461647204377902E-1    5.046606513728089E-1
 6.565511094400000E9     3.222330917824975E-2    5.664806996776732E-1    4.564436610064532E-2   -1.058534507051171E-2    4.493270547485850E-2   -1.109529232856772E-2    1.476704298766315E-1    5.041257485730015E-1
 6.565524075300000E9     3.330653755197793E-2    5.663369637390029E-1    4.591118744187452E-2   -1.080482979836462E-2    4.526695017627369E-2   -1.135347495355692E-2    1.492609757803981E-1    5.035968943580814E-1
 6.565537056200000E9     3.460481861863828E-2    5.662435564075560E-1    4.641971019774278E-2   -1.102741732999004E-2    4.552531140646545E-2   -1.156982565107769E-2    1.507269842020305E-1    5.031763964978787E-1
 6.565550037100000E9     3.559235327065028E-2    5.661632369087158E-1    4.665506124841522E-2   -1.122540466944867E-2    4.594681760089825E-2   -1.174854366263559E-2    1.522381040863847E-1    5.026551658429704E-1
 6.565563018000000E9     3.682078380440716E-2    5.659534653696661E-1    4.703135937781946E-2   -1.149731574891388E-2    4.623970170503731E-2   -1.203464120582892E-2    1.537412023699987E-1    5.022134825765876E-1
 6.565575998900000E9     3.802461884670251E-2    5.658448227191930E-1    4.729100446294507E-2   -1.164983169720455E-2    4.651448554343576E-2   -1.230037267188994E-2    1.552626603922734E-1    5.016263489529481E-1
 6.565588979800000E9     3.908067740393603E-2    5.656430495333055E-1    4.769381176747163E-2   -1.192015533736184E-2    4.699374339543626E-2   -1.251403425409068E-2    1.567661733715755E-1    5.011299166866424E-1
 6.565601960700000E9     4.027949043227134E-2    5.655191594922497E-1    4.810050871854114E-2   -1.224008983604907E-2    4.727236594542604E-2   -1.277335183730332E-2    1.583128397398232E-1    5.005348232606485E-1
 6.565614941600000E9     4.146173167183058E-2    5.653961837775748E-1    4.836904500176106E-2   -1.247222619289423E-2    4.760098122909531E-2   -1.308834320217249E-2    1.598940774280436E-1    4.999674967330278E-1
 6.565627922500000E9     4.270848302713762E-2    5.653131587750969E-1    4.888046409906185E-2   -1.271652905880775E-2    4.803214360115630E-2   -1.318564637635979E-2    1.613187477137736E-1    4.995685340285076E-1
 6.565640903400000E9     4.378278848535740E-2    5.650808551769908E-1    4.919881445762189E-2   -1.297218344254584E-2    4.845735923529031E-2   -1.355880337169546E-2    1.630150625430807E-1    4.989025428938181E-1
 6.565653884300000E9     4.502915204917259E-2    5.649279569667004E-1    4.942146738753753E-2   -1.319956912969620E-2    4.856210480194952E-2   -1.396821702991436E-2    1.646713265863793E-1    4.982568409621796E-1
 6.565666865200000E9     4.614280386928814E-2    5.648342521974252E-1    4.988995249416846E-2   -1.348839881978698E-2    4.911185205623279E-2   -1.412645278513274E-2    1.661900179446914E-1    4.977086693629491E-1
 6.565679846100000E9     4.728729303544849E-2    5.645886738746029E-1    5.033855608423365E-2   -1.376564340155372E-2    4.941767027555374E-2   -1.447815482959509E-2    1.677856044767833E-1    4.970762442081181E-1
 6.565692827000000E9     4.859015321029584E-2    5.643491423464103E-1    5.081822485485844E-2   -1.419460187815778E-2    4.989693639411847E-2   -1.472568720561804E-2    1.693991390306909E-1    4.964695480354663E-1
