#  HZ   S   RI   R     50.00 
! Rohde & Schwarz Vector Network Analyzer 
! Rohde-Schwarz,ZNB20-2Port,1311601062101988,3.16
! Created: UTC 3/20/2024, 4:55:02 PM
! freq[Hz]                re:S11                  im:S11                  re:S21                  im:S21                  re:S12                  im:S12                  re:S22                  im:S22
 6.564392930000000E9    -5.963626670529414E-2    5.661855696981675E-1    2.868591986376166E-2   -6.550673958808775E-4    2.819646452136056E-2   -1.013420522653041E-3    4.203164823757220E-2    5.265034576455415E-1
 6.564406223500000E9    -5.851089377283102E-2    5.662126862960791E-1    2.871337623506682E-2   -5.371003228168184E-4    2.832854859464238E-2   -1.133010465659578E-3    4.304774385417599E-2    5.264737472094109E-1
 6.564419517000000E9    -5.760628935493899E-2    5.663352161466187E-1    2.907674588821186E-2   -7.422165450033181E-4    2.842134176197244E-2   -1.265496002490734E-3    4.419334836921392E-2    5.264238272631530E-1
 6.564432810500000E9    -5.649481155792110E-2    5.664506409447952E-1    2.912814782682478E-2   -8.570036167887871E-4    2.858967374931784E-2   -1.297812154534145E-3    4.533879752619668E-2    5.262426992645336E-1
 6.564446104000000E9    -5.544665001593247E-2    5.665719110470950E-1    2.938050602190627E-2   -8.732219245021692E-4    2.879483414840415E-2   -1.452180938986360E-3    4.665829701290889E-2    5.261925700553960E-1
 6.564459397500000E9    -5.430215322982103E-2    5.667154208558165E-1    2.933038160625221E-2   -9.247466637350441E-4    2.889201691211318E-2   -1.429904887736761E-3    4.768828752932378E-2    5.261445960432467E-1
 6.564472691000000E9    -5.326784823331379E-2    5.667140661586054E-1    2.955434216086869E-2   -9.728401412680863E-4    2.900178029407403E-2   -1.474374089682156E-3    4.890697142276788E-2    5.259762659466866E-1
 6.564485984500000E9    -5.223762028700994E-2    5.668122776116545E-1    2.970054034853331E-2   -1.108723201560471E-3    2.917453905181962E-2   -1.567241102118418E-3    5.010964812158645E-2    5.260473581449880E-1
 6.564499278000000E9    -5.111431407245351E-2    5.670221672504302E-1    2.986569125357023E-2   -1.124063111233942E-3    2.933108266242821E-2   -1.714501287048305E-3    5.126113105758874E-2    5.258545741728882E-1
 6.564512571500000E9    -5.010574626969100E-2    5.670086819519750E-1    3.009788290191445E-2   -1.178465361451875E-3    2.944241013580040E-2   -1.767256508842190E-3    5.241617310392509E-2    5.255473195681016E-1
 6.564525865000000E9    -4.900025299665655E-2    5.671242837639556E-1    3.030450817561499E-2   -1.377328739853475E-3    2.964000789032190E-2   -1.900508631826443E-3    5.358492986222229E-2    5.255969629640569E-1
 6.564539158500000E9    -4.793869702940400E-2    5.672428869581543E-1    3.025140915574293E-2   -1.373870634598516E-3    2.987154367816314E-2   -1.872642966190975E-3    5.483249926656634E-2    5.254847078380406E-1
 6.564552452000000E9    -4.683766849904726E-2    5.672798023489514E-1    3.046643383019679E-2   -1.507655034500097E-3    2.990849296242560E-2   -1.965602703254664E-3    5.606276846844171E-2    5.253793072424074E-1
 6.564565745500000E9    -4.577086881666950E-2    5.673554145348914E-1    3.065373513581441E-2   -1.659973118284402E-3    3.004847790469307E-2   -2.045609190181500E-3    5.715011485760431E-2    5.252728656838698E-1
 6.564579039000000E9    -4.475437891894562E-2    5.674091591000472E-1    3.070948501209968E-2   -1.482222156264751E-3    3.036169675462414E-2   -2.192866487127017E-3    5.844176210115553E-2    5.253045029066741E-1
 6.564592332500000E9    -4.370656141601267E-2    5.674376793509568E-1    3.094649088894157E-2   -1.594436794543576E-3    3.050548139169350E-2   -2.273928094119924E-3    5.962342951068033E-2    5.249913078002632E-1
 6.564605626000000E9    -4.268915794182409E-2    5.675845852184113E-1    3.100896828860083E-2   -1.857879560798960E-3    3.061223762904059E-2   -2.342793284179933E-3    6.084711573258298E-2    5.250499080529600E-1
 6.564618919500000E9    -4.152196375846792E-2    5.676730527510006E-1    3.123120618633934E-2   -1.908958229365193E-3    3.080236945082590E-2   -2.417026767706456E-3    6.212304596263030E-2    5.247633874833567E-1
 6.564632213000000E9    -4.054267172313983E-2    5.677069410998539E-1    3.142146619472220E-2   -1.958009570886632E-3    3.090520498881870E-2   -2.513416542320731E-3    6.325840749781821E-2    5.246592288240990E-1
 6.564645506500000E9    -3.936889683298001E-2    5.677613606318240E-1    3.152871390360246E-2   -2.096717379250107E-3    3.097738089647824E-2   -2.470524391665584E-3    6.440725290948589E-2    5.245312115356606E-1
 6.564658800000000E9    -3.824519781190053E-2    5.677445857394928E-1    3.182076468306374E-2   -2.061997627892891E-3    3.118978238364386E-2   -2.635655945441347E-3    6.579824991038860E-2    5.243974928115156E-1
 6.564672093500000E9    -3.719067869875678E-2    5.678228422336563E-1    3.195437750509363E-2   -2.216990115092612E-3    3.147145724205495E-2   -2.786883537593255E-3    6.693691336259001E-2    5.242617253095936E-1
 6.564685387000000E9    -3.617820480482855E-2    5.679213949570285E-1    3.204282294978804E-2   -2.289816804568343E-3    3.156554651504011E-2   -2.836778709061679E-3    6.816348935055674E-2    5.239750220090996E-1
 6.564698680500000E9    -3.511403115915288E-2    5.679610783783964E-1    3.229659801599294E-2   -2.468769551374628E-3    3.172423662716453E-2   -2.981883942471454E-3    6.928130840599334E-2    5.238967578373518E-1
 6.564711974000000E9    -3.403958811654777E-2    5.680188869453432E-1    3.238009602204959E-2   -2.527729956475067E-3    3.193593916193439E-2   -2.993328197376413E-3    7.066765878712279E-2    5.236516767432178E-1
 6.564725267500000E9    -3.288045255634425E-2    5.681348285547995E-1    3.264870379871963E-2   -2.620804902311027E-3    3.207958522516517E-2   -3.107877341570742E-3    7.181620331305223E-2    5.234231518857048E-1
 6.564738561000000E9    -3.184779454170039E-2    5.682766984401857E-1    3.274719063646347E-2   -2.660693838381991E-3    3.217647303231262E-2   -3.245221696806754E-3    7.307328837948678E-2    5.232818274894286E-1
 6.564751854500000E9    -3.070416202015254E-2    5.681688727464625E-1    3.295444457339500E-2   -2.759547875587364E-3    3.247289270372487E-2   -3.265285446370313E-3    7.412533187893285E-2    5.232572348283582E-1
 6.564765148000000E9    -2.963126787107270E-2    5.683075077289740E-1    3.321736667245904E-2   -2.930459672439472E-3    3.259704179660355E-2   -3.459461072476520E-3    7.560083408771276E-2    5.231516622210328E-1
 6.564778441500000E9    -2.859019166628387E-2    5.682823786388965E-1    3.330801968856229E-2   -2.803783354791487E-3    3.277181496167782E-2   -3.480241047233337E-3    7.683171655820155E-2    5.227802646517672E-1
 6.564791735000000E9    -2.746666843065696E-2    5.683215509689321E-1    3.350540522798628E-2   -3.115484868883126E-3    3.295079694001241E-2   -3.634644730777812E-3    7.797618143879251E-2    5.227050357279260E-1
 6.564805028500000E9    -2.650639218057528E-2    5.683305820958179E-1    3.372418832388702E-2   -3.112069391385237E-3    3.321444486646091E-2   -3.650237144150303E-3    7.916744331248043E-2    5.225033938069410E-1
 6.564818322000000E9    -2.525312912526399E-2    5.683950143959862E-1    3.380452551241966E-2   -3.339575519419421E-3    3.323459830505786E-2   -3.833696354297563E-3    8.065365442457836E-2    5.224493829441332E-1
 6.564831615500000E9    -2.430769999606401E-2    5.684478311420349E-1    3.414250151449882E-2   -3.411634911344034E-3    3.358699151725255E-2   -3.882243333995639E-3    8.194613344465787E-2    5.221934721175817E-1
 6.564844909000000E9    -2.315510819926376E-2    5.684632379424840E-1    3.438948594685295E-2   -3.519685420904090E-3    3.377965485433399E-2   -4.026390216486417E-3    8.322131322693151E-2    5.219119603566744E-1
 6.564858202500000E9    -2.207506056744727E-2    5.684474526204256E-1    3.443087955612079E-2   -3.663601271151250E-3    3.391562175968543E-2   -4.152452349706511E-3    8.431216025243247E-2    5.216007718070549E-1
 6.564871496000000E9    -2.095101373057633E-2    5.684625231901513E-1    3.476274822071433E-2   -3.615999827513709E-3    3.404084067235717E-2   -4.294857035506946E-3    8.563793044658694E-2    5.214865599434686E-1
 6.564884789500000E9    -1.988287750417530E-2    5.685853161511035E-1    3.475856422693707E-2   -3.868583101767531E-3    3.431945079240561E-2   -4.358242388992464E-3    8.691894935572871E-2    5.211601801831709E-1
 6.564898083000000E9    -1.880552641998593E-2    5.685665356851991E-1    3.502674012714035E-2   -3.919259910128011E-3    3.444446856385798E-2   -4.530269697118444E-3    8.831727916463246E-2    5.211479703829101E-1
 6.564911376500000E9    -1.768853660494882E-2    5.686875650572876E-1    3.536805422068052E-2   -4.173707703027387E-3    3.470967590914489E-2   -4.592234911038976E-3    8.962973087769743E-2    5.208028151733537E-1
 6.564924670000000E9    -1.665898784716156E-2    5.685516235918813E-1    3.557266955961486E-2   -4.068771706335072E-3    3.499783227450308E-2   -4.760296662455815E-3    9.082343680285636E-2    5.206069550948336E-1
 6.564937963500000E9    -1.548039564729105E-2    5.685584932357213E-1    3.574554576237270E-2   -4.318636593850892E-3    3.508306032689734E-2   -4.821760477179025E-3    9.217754203956384E-2    5.203816527744237E-1
 6.564951257000000E9    -1.448198830482339E-2    5.686103488193401E-1    3.573635474765714E-2   -4.290997827509358E-3    3.526993806872798E-2   -4.868853918350500E-3    9.332448671522918E-2    5.201361983127595E-1
 6.564964550500000E9    -1.327378331000716E-2    5.685339880784186E-1    3.619097406201537E-2   -4.543475627146524E-3    3.551059124955443E-2   -5.027349421995465E-3    9.462459142235340E-2    5.199998710983182E-1
 6.564977844000000E9    -1.208399041886127E-2    5.684822526314147E-1    3.634945671866575E-2   -4.695348209946371E-3    3.572877965637475E-2   -5.251059871788346E-3    9.595347470688380E-2    5.196654036751672E-1
 6.564991137500000E9    -1.106774975566682E-2    5.685591640814575E-1    3.649282079367887E-2   -4.753121328921838E-3    3.598144205927928E-2   -5.331266216341713E-3    9.734300087540301E-2    5.193743770348951E-1
 6.565004431000000E9    -9.919443627688361E-3    5.686115502825827E-1    3.681780942109372E-2   -4.914162268782142E-3    3.608162999821167E-2   -5.415460348047800E-3    9.863226415253383E-2    5.191777610757133E-1
 6.565017724500000E9    -8.793093371861427E-3    5.685598340020402E-1    3.700581383467411E-2   -5.019877359613699E-3    3.639055165314955E-2   -5.488686834338449E-3    9.993307604987717E-2    5.188635964247363E-1
 6.565031018000000E9    -7.753433972854676E-3    5.685661949468261E-1    3.729595066510707E-2   -5.197981113210313E-3    3.659266278658574E-2   -5.667013866872907E-3    1.011964895997834E-1    5.185450331377688E-1
 6.565044311500000E9    -6.597840939076840E-3    5.685671348216336E-1    3.738952938273640E-2   -5.425358552729159E-3    3.685906983531104E-2   -5.954369878141834E-3    1.027355432039206E-1    5.183113424906490E-1
 6.565057605000000E9    -5.516241816810978E-3    5.686387123172890E-1    3.779375726035142E-2   -5.316425496709199E-3    3.705666128061728E-2   -5.943090037075272E-3    1.039750260668079E-1    5.180528309347986E-1
 6.565070898500000E9    -4.353957435200411E-3    5.685276796525702E-1    3.790888768485320E-2   -5.626552995017327E-3    3.723934515165590E-2   -6.103269406671374E-3    1.052084408398150E-1    5.177361518302998E-1
 6.565084192000000E9    -3.284385621793291E-3    5.685048644798402E-1    3.814684699781446E-2   -5.624978651672490E-3    3.744950038583342E-2   -6.277370130533329E-3    1.066237230918388E-1    5.174490201857695E-1
 6.565097485500000E9    -2.102298100705316E-3    5.685136998123238E-1    3.831220691479025E-2   -5.909706404819443E-3    3.766543570986013E-2   -6.335063362495174E-3    1.078983931225543E-1    5.171837909594221E-1
 6.565110779000000E9    -1.058190964473931E-3    5.684572993215627E-1    3.858987477986575E-2   -5.995169935893625E-3    3.797840834290630E-2   -6.482122042452547E-3    1.093406981424848E-1    5.168395379944627E-1
 6.565124072500000E9     1.703325263077474E-4    5.683880065631981E-1    3.894913487638320E-2   -6.130274443469180E-3    3.826602220283242E-2   -6.667299570346555E-3    1.106538394771123E-1    5.166581121113688E-1
 6.565137366000000E9     1.253379300116433E-3    5.683988186186821E-1    3.917600877925301E-2   -6.218628841976921E-3    3.847127328585864E-2   -6.915638505244712E-3    1.120452775640322E-1    5.162963096314651E-1
 6.565150659500000E9     2.402772734350110E-3    5.683561100267187E-1    3.931422839687954E-2   -6.384673318749261E-3    3.870032438069699E-2   -7.058516506232633E-3    1.134248290198761E-1    5.158628343616104E-1
 6.565163953000000E9     3.515778100288461E-3    5.683000992901336E-1    3.958153952927390E-2   -6.728627112856442E-3    3.896990611400523E-2   -7.119870858776924E-3    1.147216119052293E-1    5.157222814331920E-1
 6.565177246500000E9     4.609730012463622E-3    5.682102891294118E-1    3.993269535473606E-2   -6.851840222459196E-3    3.915622880290255E-2   -7.262986292552526E-3    1.160663494011680E-1    5.152092792006600E-1
 6.565190540000000E9     5.867030384089806E-3    5.682263467793585E-1    4.002077037218314E-2   -6.865223899436879E-3    3.946901456819946E-2   -7.403507808978513E-3    1.176818812692615E-1    5.149672195883734E-1
 6.565203833500000E9     6.856269876675565E-3    5.682164965869190E-1    4.043887295403743E-2   -7.112843207428842E-3    3.979749639645760E-2   -7.593121296493453E-3    1.191716190340649E-1    5.145817052372854E-1
 6.565217127000000E9     7.944064761016256E-3    5.680878109008278E-1    4.067419141991230E-2   -7.282689192550332E-3    3.999971784627810E-2   -7.867223844311801E-3    1.203454566572382E-1    5.141745987904203E-1
 6.565230420500000E9     9.221806381332747E-3    5.681956190175946E-1    4.090371420394297E-2   -7.357691491745070E-3    4.016852170382908E-2   -8.001737701011874E-3    1.217545547226691E-1    5.138679860257326E-1
 6.565243714000000E9     1.037527718304230E-2    5.681169120240780E-1    4.123729132934967E-2   -7.606473745913040E-3    4.056686011850014E-2   -8.125155362202390E-3    1.231798575609896E-1    5.135766115993559E-1
 6.565257007500000E9     1.138796119505215E-2    5.679639107612523E-1    4.149588445740788E-2   -7.702927278077590E-3    4.081328140507674E-2   -8.296478290461699E-3    1.246890246110910E-1    5.131806795342583E-1
 6.565270301000000E9     1.250352126279549E-2    5.679367120134979E-1    4.187973291445790E-2   -7.971181544157114E-3    4.109586055539006E-2   -8.538279856308903E-3    1.259711980542512E-1    5.127843096784123E-1
 6.565283594500000E9     1.367622981333223E-2    5.678831429577494E-1    4.200755366625514E-2   -8.181932128179723E-3    4.135337945622471E-2   -8.744133093964979E-3    1.275956895871717E-1    5.123324846147730E-1
 6.565296888000000E9     1.480665716675984E-2    5.678283299350643E-1    4.240891997032399E-2   -8.320167110011023E-3    4.166985108845656E-2   -8.808910062903632E-3    1.288972678424982E-1    5.120187660075511E-1
 6.565310181500000E9     1.598059089755099E-2    5.676957126991371E-1    4.264701323291258E-2   -8.438003415329961E-3    4.199436878528950E-2   -8.981629983676492E-3    1.301911197278434E-1    5.115314626159404E-1
 6.565323475000000E9     1.720650122134260E-2    5.676360491740754E-1    4.292354213352054E-2   -8.596386235565058E-3    4.226199114566739E-2   -9.121611726253594E-3    1.317635273296605E-1    5.111595380380107E-1
 6.565336768500000E9     1.829658161984708E-2    5.675249580024094E-1    4.330009962939305E-2   -8.813493544393739E-3    4.254647151362305E-2   -9.410413344814662E-3    1.331205462830114E-1    5.107835026200486E-1
 6.565350062000000E9     1.951779634308563E-2    5.675347050885953E-1    4.346387148619780E-2   -9.086851180134560E-3    4.286613476859808E-2   -9.625742458373878E-3    1.347362539529314E-1    5.102959068202568E-1
 6.565363355500000E9     2.066862998262849E-2    5.674078872912102E-1    4.385235843978907E-2   -9.155295472464174E-3    4.312826888419980E-2   -9.817515374907874E-3    1.362575012666276E-1    5.098250974159374E-1
 6.565376649000000E9     2.171978032551653E-2    5.673985393208674E-1    4.411325982574361E-2   -9.357047494963883E-3    4.340319960157620E-2   -1.004489831434740E-2    1.377437851568693E-1    5.093795599972299E-1
 6.565389942500000E9     2.294308061064699E-2    5.672991347587752E-1    4.447114791758202E-2   -9.742527906369629E-3    4.371952568610149E-2   -1.019845699600085E-2    1.390600319077192E-1    5.090401279722575E-1
 6.565403236000000E9     2.404439945640092E-2    5.670661459547600E-1    4.474096239226922E-2   -9.901987318858484E-3    4.418304476820281E-2   -1.054601465125097E-2    1.405828037936462E-1    5.085885423929534E-1
 6.565416529500000E9     2.531811899864160E-2    5.670648819892797E-1    4.494362942225104E-2   -1.013580566588515E-2    4.427281163913419E-2   -1.064140365191650E-2    1.422122746521389E-1    5.079784802513501E-1
 6.565429823000000E9     2.654696892026088E-2    5.669230144199126E-1    4.548809987625491E-2   -1.023501507475085E-2    4.472637755455102E-2   -1.093645001847988E-2    1.435993343000483E-1    5.076299938902831E-1
 6.565443116500000E9     2.757194508326136E-2    5.669054397614784E-1    4.575025926323992E-2   -1.063224203404928E-2    4.503262614870111E-2   -1.119278968283056E-2    1.452182952209272E-1    5.070437021380425E-1
 6.565456410000000E9     2.877598909439469E-2    5.666697997248868E-1    4.617803126715816E-2   -1.083436863845336E-2    4.543657047183028E-2   -1.141683043773894E-2    1.468459301245106E-1    5.065166455205424E-1
 6.565469703500000E9     2.998865737192601E-2    5.666027883332527E-1    4.646023258203016E-2   -1.102514178625875E-2    4.572704344375229E-2   -1.155631825571932E-2    1.482936469835974E-1    5.061099975258704E-1
 6.565482997000000E9     3.118680769213349E-2    5.665964387124508E-1    4.690664133342832E-2   -1.135790196308531E-2    4.601687662690646E-2   -1.187599391101734E-2    1.498216446472565E-1    5.056233154868911E-1
 6.565496290500000E9     3.242713113228984E-2    5.663387802750203E-1    4.710449064305174E-2   -1.137472166310149E-2    4.640162908853863E-2   -1.216588113215694E-2    1.513526498326512E-1    5.051442512997841E-1
 6.565509584000000E9     3.360243441435203E-2    5.661080198288958E-1    4.746105578782162E-2   -1.175968329415634E-2    4.670192588100306E-2   -1.230806813486418E-2    1.528442449741356E-1    5.044445145069913E-1
 6.565522877500000E9     3.474154320631152E-2    5.660621261500409E-1    4.792149230599886E-2   -1.191075397026899E-2    4.702385730922382E-2   -1.258544596793615E-2    1.544780948802155E-1    5.039507887695549E-1
 6.565536171000000E9     3.597888154079799E-2    5.658925985941294E-1    4.816760537318173E-2   -1.214162101589017E-2    4.749612923328770E-2   -1.288206635181950E-2    1.561426510606271E-1    5.034612126819272E-1
 6.565549464500000E9     3.710955003094394E-2    5.658278843434789E-1    4.859877751457729E-2   -1.247885936436564E-2    4.780751160294759E-2   -1.311354526647482E-2    1.575438451325205E-1    5.025992909852272E-1
 6.565562758000000E9     3.837007056355069E-2    5.657332500835262E-1    4.899480208767315E-2   -1.278725998594183E-2    4.820245517815463E-2   -1.336829070710713E-2    1.590520159364711E-1    5.022521693482186E-1
 6.565576051500000E9     3.950516007905144E-2    5.654718776605339E-1    4.932044977588498E-2   -1.293183942830959E-2    4.855955060168934E-2   -1.366824827072054E-2    1.609622312398166E-1    5.016291043937464E-1
 6.565589345000000E9     4.065288216818762E-2    5.653721328507058E-1    4.969436303319766E-2   -1.328787043801322E-2    4.892255951660068E-2   -1.396556680939032E-2    1.625105324759956E-1    5.008070344850338E-1
