#  HZ   S   RI   R     50.00 
! Rohde & Schwarz Vector Network Analyzer 
! Rohde-Schwarz,ZNB20-2Port,1311601062101988,3.16
! Created: UTC 3/20/2024, 4:55:07 PM
! freq[Hz]                re:S11                  im:S11                  re:S21                  im:S21                  re:S12                  im:S12                  re:S22                  im:S22
 6.564387678000000E9    -5.993346790841297E-2    5.660986019939168E-1    2.851181973560285E-2   -5.234641242338480E-4    2.809623647354248E-2   -1.072014188855677E-3    4.140100801791368E-2    5.265014521285154E-1
 6.564400993300000E9    -5.898163461815671E-2    5.662009015912410E-1    2.883455673549357E-2   -7.423081502266672E-4    2.830584398918777E-2   -1.160878332013305E-3    4.253436581459660E-2    5.266890103210560E-1
 6.564414308600000E9    -5.784815873927045E-2    5.662789416727992E-1    2.897992885614512E-2   -6.395681169345102E-4    2.841745502398028E-2   -1.220323540391590E-3    4.374188750739691E-2    5.264735609314606E-1
 6.564427623900000E9    -5.677406291693378E-2    5.663746842480740E-1    2.894918258282482E-2   -8.008934322893183E-4    2.850653832149316E-2   -1.347604689466056E-3    4.499477640686904E-2    5.263644338158727E-1
 6.564440939200000E9    -5.567798622992507E-2    5.664904303737854E-1    2.921415853509531E-2   -8.793804002144199E-4    2.877352822245954E-2   -1.347719270050251E-3    4.600327022789778E-2    5.261727049040240E-1
 6.564454254500000E9    -5.464550925025849E-2    5.667018450165734E-1    2.925700119411894E-2   -9.014616433453290E-4    2.883092758867644E-2   -1.310873297867969E-3    4.739891262523444E-2    5.262088277245357E-1
 6.564467569800000E9    -5.362111245778436E-2    5.667220686268636E-1    2.947755687162967E-2   -9.916410581659301E-4    2.907143988035779E-2   -1.541689853781396E-3    4.851441634527900E-2    5.260397850917957E-1
 6.564480885100000E9    -5.260239531403792E-2    5.668418790485882E-1    2.959858673311606E-2   -1.053543250249113E-3    2.918533972632975E-2   -1.522131571704193E-3    4.956849179299486E-2    5.259821624735843E-1
 6.564494200400000E9    -5.160047395399396E-2    5.668081294569791E-1    2.982474423029070E-2   -1.158750555782690E-3    2.931478479742870E-2   -1.729529102694235E-3    5.092545230281360E-2    5.258892720932772E-1
 6.564507515700000E9    -5.042026702762345E-2    5.669880752296174E-1    2.993830575968558E-2   -1.267790393252374E-3    2.946042977051562E-2   -1.717618355737993E-3    5.204961131204421E-2    5.257329874419240E-1
 6.564520831000000E9    -4.938808524809194E-2    5.670509829772706E-1    3.006872426847596E-2   -1.192947892362017E-3    2.966008396577611E-2   -1.941000065233124E-3    5.326262338201342E-2    5.254756092506069E-1
 6.564534146300000E9    -4.825142558593658E-2    5.670452699973629E-1    3.023107498624340E-2   -1.351827994158662E-3    2.975640226170457E-2   -1.889428281920215E-3    5.432593143612134E-2    5.255752862018882E-1
 6.564547461600000E9    -4.724800873338270E-2    5.672459947568296E-1    3.045359774313910E-2   -1.443191923225169E-3    2.988707028691873E-2   -1.952444597140249E-3    5.569598219831918E-2    5.254782475022410E-1
 6.564560776900000E9    -4.618454962090819E-2    5.672186261135713E-1    3.063077381330321E-2   -1.620330451447594E-3    3.007645052186288E-2   -2.172196510829371E-3    5.677987655857160E-2    5.252031269114701E-1
 6.564574092200000E9    -4.508273535301095E-2    5.674080463553115E-1    3.066486061964987E-2   -1.629328513135436E-3    3.017266352642023E-2   -2.115154790708979E-3    5.803843072242784E-2    5.251283558857641E-1
 6.564587407500000E9    -4.405010016251123E-2    5.674247854562254E-1    3.079639932076527E-2   -1.716899392042282E-3    3.036372344671015E-2   -2.156538798397171E-3    5.912675190057196E-2    5.250326035476441E-1
 6.564600722800000E9    -4.292385093036234E-2    5.675170916881941E-1    3.106345054696716E-2   -1.780432294897757E-3    3.050537085847531E-2   -2.242230218422793E-3    6.039252409914143E-2    5.248895597711501E-1
 6.564614038100000E9    -4.185722239866980E-2    5.675727139962395E-1    3.114584142930630E-2   -1.810860685552512E-3    3.065058741766293E-2   -2.245083165882042E-3    6.154958683703033E-2    5.248154236899206E-1
 6.564627353400000E9    -4.069683027872584E-2    5.675990034853050E-1    3.141981770198062E-2   -1.983027870458793E-3    3.088156046190994E-2   -2.414818562743824E-3    6.285718112854061E-2    5.246923120811733E-1
 6.564640668700000E9    -3.967050960416670E-2    5.676882433080773E-1    3.157400061680903E-2   -1.979541133158637E-3    3.100844615277261E-2   -2.562534728737259E-3    6.398081728085059E-2    5.245112666213211E-1
 6.564653984000000E9    -3.866430554292509E-2    5.677261223441146E-1    3.177279813254604E-2   -2.119856983457911E-3    3.116402661795297E-2   -2.583649257261237E-3    6.521540694570528E-2    5.243083536327505E-1
 6.564667299300000E9    -3.768038066222462E-2    5.678354104215028E-1    3.183651680803511E-2   -2.303700189172076E-3    3.144785182547036E-2   -2.674940860906956E-3    6.638391077352315E-2    5.242218193676974E-1
 6.564680614600000E9    -3.652492601414062E-2    5.679347038600514E-1    3.213435980288606E-2   -2.244051646776763E-3    3.153932436949419E-2   -2.806617981780289E-3    6.767379024549743E-2    5.239974654908051E-1
 6.564693929900000E9    -3.540158971226268E-2    5.679852005439538E-1    3.233413511713283E-2   -2.418611540584022E-3    3.162546522325731E-2   -2.884434318255041E-3    6.905146417934435E-2    5.237730681643165E-1
 6.564707245200000E9    -3.448216615281562E-2    5.681004420736259E-1    3.251458659123085E-2   -2.556713829346344E-3    3.187310153375675E-2   -3.074705419500071E-3    7.014420805276771E-2    5.237346815425449E-1
 6.564720560500000E9    -3.331859044125814E-2    5.679901002084815E-1    3.267080575386268E-2   -2.645296316209117E-3    3.202249469384984E-2   -3.103004624902110E-3    7.136984897085991E-2    5.235202555449204E-1
 6.564733875800000E9    -3.216474082508708E-2    5.680941259685323E-1    3.282214832840705E-2   -2.672018456727521E-3    3.215806772195560E-2   -3.141785371401542E-3    7.278363725414051E-2    5.234755190033284E-1
 6.564747191100000E9    -3.106417284935804E-2    5.680344443530055E-1    3.295438526170193E-2   -2.649773682399803E-3    3.233777337910613E-2   -3.347372639690409E-3    7.412060247918180E-2    5.233466564371946E-1
 6.564760506400000E9    -3.003531110426727E-2    5.682201302375139E-1    3.313790059932558E-2   -2.822282438104613E-3    3.252674836764485E-2   -3.428702203973454E-3    7.520249012000764E-2    5.230953428987888E-1
 6.564773821700000E9    -2.889675334566781E-2    5.682635663498100E-1    3.331492951039208E-2   -2.882455504734720E-3    3.268077958759780E-2   -3.404559593398647E-3    7.655645060525747E-2    5.228647326502547E-1
 6.564787137000000E9    -2.790011021633404E-2    5.683405413504130E-1    3.350930919599795E-2   -2.983360920974950E-3    3.287481631852415E-2   -3.589697635490232E-3    7.764182617021761E-2    5.227015135626566E-1
 6.564800452300000E9    -2.673050694690388E-2    5.683625064222878E-1    3.368649382584767E-2   -3.120624867197873E-3    3.312848395786085E-2   -3.684470005539528E-3    7.881663446255391E-2    5.225602304998990E-1
 6.564813767600000E9    -2.562987802932174E-2    5.684425037932787E-1    3.390364878265117E-2   -3.165184024370288E-3    3.328764222899130E-2   -3.778798618921378E-3    8.015630838877316E-2    5.224043327185943E-1
 6.564827082900000E9    -2.453192455008437E-2    5.684122309623368E-1    3.416030044672905E-2   -3.327186216698952E-3    3.354268066127961E-2   -3.909882753458271E-3    8.140467022994638E-2    5.220997575332419E-1
 6.564840398200000E9    -2.351806397466842E-2    5.685059424451047E-1    3.422461921346698E-2   -3.467085028296550E-3    3.363108252540181E-2   -4.014854269058951E-3    8.252648219899886E-2    5.220638394540101E-1
 6.564853713500000E9    -2.248072317750597E-2    5.684481605856300E-1    3.447438751691990E-2   -3.628897948115312E-3    3.388687732456063E-2   -4.162183836990218E-3    8.395071351403155E-2    5.216338681447095E-1
 6.564867028800000E9    -2.122081068998429E-2    5.683885599139912E-1    3.457107174246478E-2   -3.625282436072517E-3    3.401466908926233E-2   -4.166137205607240E-3    8.525224907371855E-2    5.215951056502813E-1
 6.564880344100000E9    -2.017582342326662E-2    5.685413340718032E-1    3.490798111078861E-2   -3.862112635494448E-3    3.424442404027081E-2   -4.382468959723810E-3    8.657435685818593E-2    5.212598410833593E-1
 6.564893659400000E9    -1.909767768381788E-2    5.685460017619778E-1    3.504982568673495E-2   -3.843936748447152E-3    3.431218736746704E-2   -4.499977426744411E-3    8.792668388530216E-2    5.210732949727185E-1
 6.564906974700000E9    -1.808284316800178E-2    5.685191195186048E-1    3.518181511717466E-2   -4.041083703421286E-3    3.467083872608907E-2   -4.538117454152599E-3    8.907459561505575E-2    5.208451400709515E-1
 6.564920290000000E9    -1.678272133197263E-2    5.686049286456548E-1    3.549969167063718E-2   -4.178694536220727E-3    3.489788419052200E-2   -4.682399572304022E-3    9.036540435976581E-2    5.206433260356881E-1
 6.564933605300000E9    -1.581492312441152E-2    5.685444013762572E-1    3.569227838024443E-2   -4.199174106162309E-3    3.501870966820583E-2   -4.741731361171092E-3    9.173740591255063E-2    5.203394194237126E-1
 6.564946920600000E9    -1.468956114070444E-2    5.686405167985528E-1    3.585507355298783E-2   -4.444084876509492E-3    3.529991474282809E-2   -4.804811964259051E-3    9.297728095501177E-2    5.201744197546028E-1
 6.564960235900000E9    -1.352988565220593E-2    5.685697575529362E-1    3.614204682057041E-2   -4.534631431238677E-3    3.551984317990976E-2   -5.135429236742413E-3    9.422695768856938E-2    5.199930346464441E-1
 6.564973551200000E9    -1.248199984596916E-2    5.686886301849828E-1    3.626708052161234E-2   -4.634323375239532E-3    3.572371634891274E-2   -5.140658054816357E-3    9.562849982822227E-2    5.197600890710865E-1
 6.564986866500000E9    -1.142429441421021E-2    5.685923447720369E-1    3.652019470893595E-2   -4.864667147096043E-3    3.578295293214383E-2   -5.330566191747001E-3    9.693428756391281E-2    5.194052109580446E-1
 6.565000181800000E9    -1.024371750316968E-2    5.686892575061369E-1    3.668218914642118E-2   -4.879780043094547E-3    3.608378408940927E-2   -5.480077215392325E-3    9.817079291424537E-2    5.190881202635899E-1
 6.565013497100000E9    -9.264063445562753E-3    5.685452430510962E-1    3.688806719281949E-2   -5.001098173902734E-3    3.642532303472164E-2   -5.524363424435121E-3    9.942716259560869E-2    5.189878044701250E-1
 6.565026812400000E9    -8.061234518218588E-3    5.685515078325623E-1    3.721678850601759E-2   -5.235281262394447E-3    3.661381487723465E-2   -5.719705225563060E-3    1.007566775717733E-1    5.186920393287026E-1
 6.565040127700000E9    -6.932416276739247E-3    5.685979863241059E-1    3.735623513003240E-2   -5.287650042157751E-3    3.680335848489284E-2   -5.738748250530974E-3    1.022477544905739E-1    5.184332008594924E-1
 6.565053443000000E9    -5.913086032797140E-3    5.684413192729654E-1    3.762686974128312E-2   -5.359255146369373E-3    3.703255753086349E-2   -5.965899393928526E-3    1.034699789907743E-1    5.181484903224792E-1
 6.565066758300000E9    -4.735414759762937E-3    5.686731673865520E-1    3.791030772903737E-2   -5.535570920641787E-3    3.733390318292252E-2   -6.075400035830255E-3    1.048855747830291E-1    5.177422898702205E-1
 6.565080073600000E9    -3.489111673124668E-3    5.686477092366050E-1    3.817000354743764E-2   -5.663636838121523E-3    3.742817042988914E-2   -6.186968204639959E-3    1.063357835198631E-1    5.174410528477412E-1
 6.565093388900000E9    -2.531681890326123E-3    5.685181898842343E-1    3.834399331127139E-2   -5.833093770862930E-3    3.774718311268663E-2   -6.321468844264350E-3    1.075811224389021E-1    5.172560970710953E-1
 6.565106704200000E9    -1.323797747763333E-3    5.684866786402057E-1    3.865972023119923E-2   -5.949696610228212E-3    3.796887054634734E-2   -6.549352050318534E-3    1.089981574257091E-1    5.170196177601875E-1
 6.565120019500000E9    -1.664684919957157E-4    5.684720956702767E-1    3.897151910678393E-2   -6.210257822869682E-3    3.803649895931383E-2   -6.568774635716472E-3    1.102098947806389E-1    5.167428868624925E-1
 6.565133334800000E9     1.017377659624713E-3    5.683963820581841E-1    3.911195373509946E-2   -6.197804004378052E-3    3.834820531329752E-2   -6.827742286602881E-3    1.116613940672308E-1    5.164390054731124E-1
 6.565146650100000E9     2.054180095690788E-3    5.685612910711794E-1    3.932059137937877E-2   -6.462743602962811E-3    3.868678282702705E-2   -6.934319817729397E-3    1.130662866520266E-1    5.159781633024673E-1
 6.565159965400000E9     3.191918852737180E-3    5.683712887770824E-1    3.967070551615608E-2   -6.595690037285192E-3    3.894127189109367E-2   -7.153245209507187E-3    1.142195631480195E-1    5.156292268440554E-1
 6.565173280700000E9     4.277766868668273E-3    5.684073996739353E-1    3.983684298518780E-2   -6.627998715224645E-3    3.916525611835045E-2   -7.209840263492221E-3    1.158125040975787E-1    5.154335057403346E-1
 6.565186596000000E9     5.377339607281811E-3    5.683353771907452E-1    4.002241457874350E-2   -6.844167871616445E-3    3.941951709819884E-2   -7.429821590097162E-3    1.170299815542085E-1    5.150091024182412E-1
 6.565199911300000E9     6.482921085103732E-3    5.682338699733221E-1    4.042263978919353E-2   -6.941445540710359E-3    3.962523449871080E-2   -7.558871637069303E-3    1.186706870899445E-1    5.147204276118875E-1
 6.565213226600000E9     7.696928502312217E-3    5.682934786220472E-1    4.055622114558794E-2   -7.167426957240298E-3    3.989946444557266E-2   -7.687217464841485E-3    1.199356143270552E-1    5.143134459718515E-1
 6.565226541900000E9     8.779352044367621E-3    5.681364271904626E-1    4.092856583060168E-2   -7.352146927776262E-3    4.030341181600205E-2   -7.946490255129323E-3    1.213461610864527E-1    5.139883139808438E-1
 6.565239857200000E9     1.003055887843141E-2    5.681088592134997E-1    4.110452691818552E-2   -7.615226904402024E-3    4.058395920833998E-2   -8.146313705787979E-3    1.227840155542877E-1    5.136006679813101E-1
 6.565253172500000E9     1.118638747881006E-2    5.680384827045122E-1    4.138112635800741E-2   -7.638923741244877E-3    4.081494901815564E-2   -8.278854123855633E-3    1.241803634626144E-1    5.132190201897127E-1
 6.565266487800000E9     1.219365450332984E-2    5.680003036825904E-1    4.178216091615474E-2   -7.947323969152842E-3    4.099256044856404E-2   -8.434558191770958E-3    1.256884399804716E-1    5.127883666550506E-1
 6.565279803100000E9     1.342734395609532E-2    5.678411838593576E-1    4.214748151922791E-2   -7.953852634894048E-3    4.122116097249466E-2   -8.621760840167938E-3    1.270075761591015E-1    5.123293247381580E-1
 6.565293118400000E9     1.463521569725555E-2    5.678939330532986E-1    4.227441621392618E-2   -8.282134224843580E-3    4.156305743049864E-2   -8.735141502365042E-3    1.283972129295887E-1    5.120310297161569E-1
 6.565306433700000E9     1.579349783924132E-2    5.677500492745737E-1    4.253547773769212E-2   -8.529591294970950E-3    4.196038527897059E-2   -9.018391271860221E-3    1.299193315986553E-1    5.115533720127221E-1
 6.565319749000000E9     1.690554856689415E-2    5.677507178112131E-1    4.287951037992488E-2   -8.585138459472647E-3    4.215882237525113E-2   -9.226246495589400E-3    1.313733423218328E-1    5.111675744489318E-1
 6.565333064300000E9     1.803021923041330E-2    5.675627847298211E-1    4.321020899762493E-2   -8.744244925268319E-3    4.238756805584157E-2   -9.397500444783855E-3    1.328652845447210E-1    5.108525314484927E-1
 6.565346379600000E9     1.919038509435253E-2    5.675876057858285E-1    4.357836271897477E-2   -9.031210097277099E-3    4.278300776113064E-2   -9.635229610950043E-3    1.344392210646289E-1    5.103015298818439E-1
 6.565359694900000E9     2.041074666642127E-2    5.674769889013794E-1    4.384197285972073E-2   -9.249084923932961E-3    4.296871790577789E-2   -9.765287411925675E-3    1.357937250058882E-1    5.099767240368097E-1
 6.565373010200000E9     2.154458977325159E-2    5.674089115820351E-1    4.416548645646115E-2   -9.398794946326507E-3    4.331128737111849E-2   -9.963941830734301E-3    1.374474826949666E-1    5.094580252359749E-1
 6.565386325500000E9     2.265628931560806E-2    5.672996002722607E-1    4.431975620785463E-2   -9.717855882503099E-3    4.358963376148944E-2   -1.025166738594204E-2    1.387046739297888E-1    5.090433520998086E-1
 6.565399640800000E9     2.394437508047153E-2    5.671378235255594E-1    4.473248105304337E-2   -9.865800133121926E-3    4.396720135797535E-2   -1.043242560168684E-2    1.403868276957693E-1    5.085604625760858E-1
 6.565412956100000E9     2.500792706823783E-2    5.670612937475451E-1    4.508433331394759E-2   -1.002161914548462E-2    4.429941149537236E-2   -1.071001767534424E-2    1.418073077716639E-1    5.081346551932406E-1
 6.565426271400000E9     2.624224683017353E-2    5.669546415813085E-1    4.531688573592792E-2   -1.027977927727638E-2    4.473572183463623E-2   -1.089406916887771E-2    1.433589567648619E-1    5.076420036860947E-1
 6.565439586700000E9     2.737728572478742E-2    5.667692078832922E-1    4.567975710101746E-2   -1.054253057210673E-2    4.494064992651835E-2   -1.102890774790600E-2    1.446958277155616E-1    5.072702171462076E-1
 6.565452902000000E9     2.850881973062300E-2    5.667380761432596E-1    4.601859363969413E-2   -1.074932115032086E-2    4.521481040932208E-2   -1.135570628546196E-2    1.463616710353718E-1    5.065953593248557E-1
 6.565466217300000E9     2.974536981696362E-2    5.666051514491152E-1    4.630198569132839E-2   -1.094656235120686E-2    4.560427285471580E-2   -1.154059222759788E-2    1.477630176406010E-1    5.061998818483182E-1
 6.565479532600000E9     3.083420153132500E-2    5.664711992338850E-1    4.675397881387065E-2   -1.120063048654465E-2    4.592713593139590E-2   -1.184224192385194E-2    1.494184732596590E-1    5.055539505434579E-1
 6.565492847900000E9     3.202498171462951E-2    5.663277969107087E-1    4.699107651286476E-2   -1.142372700004751E-2    4.633821939630851E-2   -1.205390208978891E-2    1.507603092529781E-1    5.050280122749551E-1
 6.565506163200000E9     3.330547882944752E-2    5.663003206340533E-1    4.740109564625655E-2   -1.179386530641414E-2    4.664795195063030E-2   -1.230734935202713E-2    1.524619385599236E-1    5.045294020484600E-1
 6.565519478500000E9     3.455253542845380E-2    5.661289009577529E-1    4.769921342975052E-2   -1.193501121061837E-2    4.704515562823030E-2   -1.248281312609672E-2    1.541984403126244E-1    5.039684998009913E-1
 6.565532793800000E9     3.567620848731503E-2    5.659424857621052E-1    4.815878834012038E-2   -1.224937487524160E-2    4.736969910166993E-2   -1.275744009743295E-2    1.557319231380339E-1    5.034123772683496E-1
 6.565546109100000E9     3.687186331895333E-2    5.658877986474891E-1    4.856929728168384E-2   -1.241874033489782E-2    4.775732239263975E-2   -1.308590798924301E-2    1.573295289858960E-1    5.029699472651543E-1
 6.565559424400000E9     3.801554240505860E-2    5.656768233166002E-1    4.886266682635207E-2   -1.279438077091864E-2    4.820751854219575E-2   -1.345904919737460E-2    1.589775377005848E-1    5.022644214316765E-1
 6.565572739700000E9     3.931749679735903E-2    5.655054262897289E-1    4.930107183764346E-2   -1.304714786111670E-2    4.847660673333939E-2   -1.358045449394603E-2    1.604731693735827E-1    5.017037478673499E-1
 6.565586055000000E9     4.034944299621556E-2    5.653801286845220E-1    4.973549910081852E-2   -1.325794650009271E-2    4.889513306970153E-2   -1.395262265304814E-2    1.621346052979802E-1    5.009485644074142E-1
