#  HZ   S   RI   R     50.00 
! Rohde & Schwarz Vector Network Analyzer 
! Rohde-Schwarz,ZNB20-2Port,1311601062101988,3.16
! Created: UTC 3/20/2024, 5:04:17 PM
! freq[Hz]                re:S11                  im:S11                  re:S21                  im:S21                  re:S12                  im:S12                  re:S22                  im:S22
 6.564088977000000E9    -8.341908886940926E-2    5.628615042893012E-1    2.612945360107169E-2    5.661276562916539E-4    2.566255883700119E-2    1.740737372260365E-4    1.526617272754349E-2    5.246019393142823E-1
 6.564103544925000E9    -8.222638227868866E-2    5.630630420653348E-1    2.626425898314525E-2    6.491991480545052E-4    2.582827751411788E-2    7.264851839022716E-5    1.670742302604819E-2    5.247779159413957E-1
 6.564118112850000E9    -8.111191596312294E-2    5.632069334763283E-1    2.641091253063551E-2    4.568388542144226E-4    2.594661316456961E-2    9.370438278609692E-6    1.782453228797113E-2    5.244951999938015E-1
 6.564132680775000E9    -7.996441517751279E-2    5.632513095370171E-1    2.648213810219734E-2    4.378540723186227E-4    2.604531632857159E-2   -2.291617810133534E-5    1.906380147252402E-2    5.245965042962061E-1
 6.564147248700000E9    -7.898200009183760E-2    5.634633579766278E-1    2.672978536418217E-2    3.549717239837532E-4    2.623971651707630E-2   -1.481730919527594E-4    2.043001040416467E-2    5.245401305190390E-1
 6.564161816625000E9    -7.768243077116216E-2    5.635884575501194E-1    2.675701038131249E-2    3.912692589308303E-4    2.630675844858437E-2   -2.387232135771338E-4    2.162771850835163E-2    5.245309849932407E-1
 6.564176384550000E9    -7.657915530487699E-2    5.637493734352366E-1    2.690662949287314E-2    3.104728835499811E-4    2.643214659241844E-2   -2.498854427909444E-4    2.281661482511949E-2    5.244085773058654E-1
 6.564190952475000E9    -7.533192804844112E-2    5.639054565996759E-1    2.713732365111687E-2    2.976169299898684E-4    2.666133876596900E-2   -3.207001150251754E-4    2.415357298097626E-2    5.244198950390654E-1
 6.564205520400000E9    -7.425513938045286E-2    5.641512534423763E-1    2.729569822501730E-2   -9.147190127400515E-6    2.670498612858023E-2   -3.159438811275329E-4    2.523680346030431E-2    5.244709581949619E-1
 6.564220088325000E9    -7.316142972509802E-2    5.642824065045375E-1    2.734151851828916E-2    1.230546006774460E-5    2.688509754683485E-2   -3.337563842947545E-4    2.643495906990973E-2    5.242055699421717E-1
 6.564234656250000E9    -7.206723063138898E-2    5.643093754889313E-1    2.757528136693285E-2   -1.180788479038335E-4    2.702501984712430E-2   -5.673594274831990E-4    2.780162218924813E-2    5.242670217428856E-1
 6.564249224175000E9    -7.090988053016002E-2    5.645685971716170E-1    2.766673481399840E-2   -5.809162727673139E-5    2.721286744869076E-2   -6.681541406636583E-4    2.895820458354584E-2    5.243419234487213E-1
 6.564263792100000E9    -6.957018173348962E-2    5.645448213333710E-1    2.765577017151022E-2   -8.531293643350183E-5    2.727605577751448E-2   -6.664657163545146E-4    3.028047501680417E-2    5.241588309386545E-1
 6.564278360025000E9    -6.864463482271403E-2    5.647558591707031E-1    2.791623151141728E-2   -3.439126160853391E-4    2.738904335783123E-2   -7.914251805259758E-4    3.159182545821308E-2    5.241953575139724E-1
 6.564292927950000E9    -6.741568735973921E-2    5.649456020412541E-1    2.815027705829500E-2   -2.587873558558528E-4    2.753843728751666E-2   -8.104121614621005E-4    3.282482792187319E-2    5.240853249861857E-1
 6.564307495875000E9    -6.628629880702137E-2    5.650281523763953E-1    2.831941390542420E-2   -3.819179637848534E-4    2.766265335461039E-2   -8.970510413618056E-4    3.418824974480261E-2    5.239669294493071E-1
 6.564322063800000E9    -6.501375839455840E-2    5.651923673467483E-1    2.819655727544200E-2   -4.669069936044651E-4    2.780026679307147E-2   -1.051211260698858E-3    3.531282138699618E-2    5.238955485196652E-1
 6.564336631725000E9    -6.398573438841183E-2    5.653212402348226E-1    2.851751433248221E-2   -4.095193018104671E-4    2.806650710478008E-2   -1.060572626579420E-3    3.658709910856381E-2    5.239469432681848E-1
 6.564351199650000E9    -6.289778098336211E-2    5.654056779253033E-1    2.854638352208026E-2   -5.686825768253349E-4    2.815425787071794E-2   -1.136171606114607E-3    3.782347991571029E-2    5.238051330919264E-1
 6.564365767575000E9    -6.159379158134886E-2    5.655295969853481E-1    2.885411410143503E-2   -7.494242137777943E-4    2.827546920467517E-2   -1.198454568690794E-3    3.920327889426329E-2    5.236870224838293E-1
 6.564380335500000E9    -6.049798447543265E-2    5.657430088636344E-1    2.888208161121776E-2   -8.585558968585120E-4    2.844525862952926E-2   -1.349313387847878E-3    4.028824820708769E-2    5.235891954458057E-1
 6.564394903425000E9    -5.934599953341384E-2    5.657536490147971E-1    2.918305680124109E-2   -8.328843738804343E-4    2.869158760182554E-2   -1.400476788994839E-3    4.171105249918051E-2    5.236495377211542E-1
 6.564409471350000E9    -5.816496876931544E-2    5.658701888358683E-1    2.937505049551124E-2   -9.996194907097744E-4    2.880424034539811E-2   -1.344056146153936E-3    4.298760012683755E-2    5.234337323098069E-1
 6.564424039275000E9    -5.698088685061434E-2    5.660101719051087E-1    2.952289925709501E-2   -9.692904816638220E-4    2.892439466166830E-2   -1.494239717424525E-3    4.436668738444786E-2    5.234209884577449E-1
 6.564438607200000E9    -5.574631399404799E-2    5.660104857408991E-1    2.962287712227711E-2   -1.063704072846358E-3    2.911752838197498E-2   -1.513410618815888E-3    4.566197825980892E-2    5.232671148784989E-1
 6.564453175125000E9    -5.464831104222093E-2    5.661653720643534E-1    2.970219892327348E-2   -1.131089702182554E-3    2.916616453095242E-2   -1.620354375986563E-3    4.687643535398549E-2    5.230405357156417E-1
 6.564467743050000E9    -5.366461666802582E-2    5.663196226652939E-1    2.974957112820518E-2   -1.314762857963328E-3    2.929125571528226E-2   -1.751502207442687E-3    4.811735354623971E-2    5.229568056430953E-1
 6.564482310975000E9    -5.227250387564419E-2    5.664037665303886E-1    3.016207408373317E-2   -1.419090443708260E-3    2.962032804112386E-2   -1.784995706535940E-3    4.945015495911307E-2    5.230225608335537E-1
 6.564496878900000E9    -5.116774769514865E-2    5.664678405017571E-1    3.021315274372713E-2   -1.460262504787986E-3    2.980907512212306E-2   -1.956128907811965E-3    5.063244239131434E-2    5.227381226965900E-1
 6.564511446825000E9    -4.994071777679123E-2    5.666083637635001E-1    3.038846337395628E-2   -1.504543543293829E-3    2.984654883446282E-2   -1.964905081155511E-3    5.195655640885199E-2    5.227148949319276E-1
 6.564526014750000E9    -4.889896232446504E-2    5.667395149388688E-1    3.055132557311013E-2   -1.516713198838701E-3    3.006161561307780E-2   -2.155461723287695E-3    5.334230853752912E-2    5.225830188487458E-1
 6.564540582675000E9    -4.769109547681559E-2    5.667403016004224E-1    3.081838410030819E-2   -1.817658426900257E-3    3.017183000566746E-2   -2.164364831380027E-3    5.462027647639425E-2    5.224925897029991E-1
 6.564555150600000E9    -4.646335328072659E-2    5.668224432780354E-1    3.087793053696509E-2   -1.838612914028781E-3    3.046670614390723E-2   -2.243934840604009E-3    5.587180680981358E-2    5.221853195086594E-1
 6.564569718525000E9    -4.540290763377119E-2    5.669097615387108E-1    3.114269415975109E-2   -1.962372201983858E-3    3.064230751048282E-2   -2.332703636780660E-3    5.720096974439828E-2    5.221275171199019E-1
 6.564584286450000E9    -4.414612317214199E-2    5.669490729388100E-1    3.128628137490489E-2   -2.027624411464756E-3    3.077591077555064E-2   -2.475620654395511E-3    5.859739248331005E-2    5.220116245102174E-1
 6.564598854375000E9    -4.294441481245968E-2    5.670087694492206E-1    3.160414319674205E-2   -2.105526680310062E-3    3.094029154986783E-2   -2.618294096043945E-3    5.991383434769938E-2    5.216988388586002E-1
 6.564613422300000E9    -4.166406478032054E-2    5.671223836602791E-1    3.163457706585594E-2   -2.089813299021627E-3    3.110793267597688E-2   -2.573504540573232E-3    6.118810120037693E-2    5.216957150222052E-1
 6.564627990225000E9    -4.065944687128112E-2    5.672252641003118E-1    3.192862435946361E-2   -2.235009104584154E-3    3.130031660511939E-2   -2.716379271724191E-3    6.259620738061823E-2    5.215919526354823E-1
 6.564642558150000E9    -3.939270402196351E-2    5.672327964155337E-1    3.211994910648622E-2   -2.435058124068086E-3    3.150261611264796E-2   -2.904593897300485E-3    6.389133715821785E-2    5.215312413433307E-1
 6.564657126075000E9    -3.821080226035957E-2    5.673169999791375E-1    3.219932175671012E-2   -2.563305611047312E-3    3.170376657540930E-2   -3.005832362749006E-3    6.516726371885687E-2    5.213239296582736E-1
 6.564671694000000E9    -3.699235165182367E-2    5.674555480534929E-1    3.238301675947496E-2   -2.597086102320496E-3    3.192477448483975E-2   -3.070222998749032E-3    6.661304252272768E-2    5.210348658127969E-1
 6.564686261925000E9    -3.591546021681157E-2    5.675219711489604E-1    3.261980722137953E-2   -2.743683150668251E-3    3.205264800493344E-2   -3.178969028123496E-3    6.794809729964744E-2    5.207611047837741E-1
 6.564700829850000E9    -3.471661672660864E-2    5.675446525971691E-1    3.270558243833545E-2   -2.937730771309672E-3    3.226802356718488E-2   -3.286524769397515E-3    6.929463536912808E-2    5.206319410317639E-1
 6.564715397775000E9    -3.355001987127824E-2    5.675838752910671E-1    3.295287234734012E-2   -2.882702697473269E-3    3.231494013563329E-2   -3.415920540221597E-3    7.049895592846483E-2    5.205391847205544E-1
 6.564729965700000E9    -3.236554163360127E-2    5.676443897852532E-1    3.319139640508288E-2   -2.934723806516195E-3    3.256048208312719E-2   -3.464891985710092E-3    7.197993188733118E-2    5.203025060238039E-1
 6.564744533625000E9    -3.111187381417215E-2    5.676628012563871E-1    3.339769895874936E-2   -3.235169260518782E-3    3.278932905815161E-2   -3.689128560795469E-3    7.336626016188416E-2    5.200680496257353E-1
 6.564759101550000E9    -2.999306858678823E-2    5.676313172375553E-1    3.360885589734882E-2   -3.346550825774593E-3    3.306421741614476E-2   -3.699561558382825E-3    7.471394665978684E-2    5.199037079284689E-1
 6.564773669475000E9    -2.878141390158690E-2    5.678106805647066E-1    3.379811697065699E-2   -3.362054786835131E-3    3.326498433545229E-2   -3.830374370330316E-3    7.614904781773565E-2    5.195915366321339E-1
 6.564788237400000E9    -2.756805361268842E-2    5.678297020503967E-1    3.399408702644213E-2   -3.457066834162025E-3    3.342933274393026E-2   -4.015967107427635E-3    7.752383532238823E-2    5.194863790161527E-1
 6.564802805325000E9    -2.636844759044275E-2    5.677192956223864E-1    3.432055832918755E-2   -3.584254105521446E-3    3.359119884239115E-2   -4.169187300828959E-3    7.881145419032302E-2    5.192452142244272E-1
 6.564817373250000E9    -2.526896425540169E-2    5.678459485190551E-1    3.451960033721346E-2   -3.512232714752682E-3    3.395622014538949E-2   -4.185170153149748E-3    8.020257306209258E-2    5.189854821845168E-1
 6.564831941175000E9    -2.401520082301371E-2    5.679169957403190E-1    3.466013188142507E-2   -3.878133982435630E-3    3.408665085554486E-2   -4.257248769227287E-3    8.164645182200603E-2    5.188080250935906E-1
 6.564846509100000E9    -2.272020204174451E-2    5.678579032980916E-1    3.496335211683970E-2   -3.769258935108714E-3    3.425697625467267E-2   -4.538395929841657E-3    8.301756420463068E-2    5.186189061130205E-1
 6.564861077025000E9    -2.146230334179221E-2    5.679808578910244E-1    3.522645969164932E-2   -4.005702800386710E-3    3.452054008435042E-2   -4.643204556576770E-3    8.436554947622743E-2    5.182947304864683E-1
 6.564875644950000E9    -2.042965137015166E-2    5.680022933437254E-1    3.544692081001703E-2   -4.165256895107604E-3    3.477870896756300E-2   -4.784516577479504E-3    8.578102594828409E-2    5.182406485448872E-1
 6.564890212875000E9    -1.917951352608617E-2    5.680048677124773E-1    3.551548202866001E-2   -4.330220104648497E-3    3.498333263222188E-2   -4.911986398417947E-3    8.723764106656769E-2    5.179455735323346E-1
 6.564904780800000E9    -1.793027748124298E-2    5.679928221081266E-1    3.578841829872648E-2   -4.506391517284649E-3    3.525629124678639E-2   -4.997161900666337E-3    8.863926615198167E-2    5.176736934220874E-1
 6.564919348725000E9    -1.680527039522660E-2    5.680096144347180E-1    3.607991655248671E-2   -4.473433939417469E-3    3.550709095409730E-2   -5.223433905474757E-3    9.000089095748641E-2    5.172647744979944E-1
 6.564933916650000E9    -1.568661708145459E-2    5.679409387634672E-1    3.628300303956223E-2   -4.739276474589127E-3    3.563484878735580E-2   -5.323048689116860E-3    9.159078641352859E-2    5.171865723277175E-1
 6.564948484575000E9    -1.439819436156439E-2    5.680251996323500E-1    3.642384937982693E-2   -4.939220659526308E-3    3.595490183714956E-2   -5.475508068109549E-3    9.291797444063259E-2    5.167516590838542E-1
 6.564963052500000E9    -1.320803534097103E-2    5.680392784064417E-1    3.668773873962655E-2   -5.047045057096979E-3    3.609500359222827E-2   -5.508270113753708E-3    9.450595061684498E-2    5.166061803713325E-1
 6.564977620425000E9    -1.190866874429370E-2    5.680288290855515E-1    3.686343763678256E-2   -5.357444584629627E-3    3.634900591804052E-2   -5.722043288938569E-3    9.579236963492410E-2    5.163125244093313E-1
 6.564992188350000E9    -1.075442632666712E-2    5.680457958273594E-1    3.733099440749999E-2   -5.285559693496230E-3    3.656371503085103E-2   -5.898524167279265E-3    9.720720157612538E-2    5.159616947783477E-1
 6.565006756275000E9    -9.497337743130890E-3    5.680115759113376E-1    3.748030970796509E-2   -5.520392758681125E-3    3.682257446112183E-2   -6.022066182930236E-3    9.869226219278231E-2    5.155916465513153E-1
 6.565021324200000E9    -8.277058012413607E-3    5.680390331461140E-1    3.776482126910889E-2   -5.702067242074160E-3    3.705651565618342E-2   -6.211849911622980E-3    1.002610636054759E-1    5.153147192202445E-1
 6.565035892125000E9    -7.040138439832741E-3    5.680354920259542E-1    3.799886991020523E-2   -5.761879732630416E-3    3.730316341993217E-2   -6.283587034474559E-3    1.016071947005262E-1    5.150687203687297E-1
 6.565050460050000E9    -5.857981061359298E-3    5.679033320385244E-1    3.823119077140662E-2   -5.922188253494593E-3    3.758053209293188E-2   -6.483601113873179E-3    1.031569883555859E-1    5.146870008197915E-1
 6.565065027975000E9    -4.608504933997918E-3    5.678856776179165E-1    3.843577834410808E-2   -6.002164800645735E-3    3.790967621214238E-2   -6.587363190938188E-3    1.045837037653422E-1    5.143441508251959E-1
 6.565079595900000E9    -3.343768000765775E-3    5.679141902140421E-1    3.864001353309852E-2   -6.236502062711092E-3    3.820305460979553E-2   -6.792184815429540E-3    1.058314327950629E-1    5.140292799356992E-1
 6.565094163825000E9    -2.186852967057761E-3    5.678849124401550E-1    3.901535093666960E-2   -6.552362087960862E-3    3.844636479366769E-2   -7.009029150482602E-3    1.074210601703215E-1    5.138285389237685E-1
 6.565108731750000E9    -9.331634231407492E-4    5.678418710592849E-1    3.927085447175348E-2   -6.585003001937624E-3    3.864262781281962E-2   -7.179603633156665E-3    1.090337633419211E-1    5.134301558072039E-1
 6.565123299675000E9     3.276737235408345E-4    5.678960684478057E-1    3.961004139347807E-2   -6.949822445545701E-3    3.894995097838223E-2   -7.372637773704145E-3    1.104929487701489E-1    5.130308415556920E-1
 6.565137867600000E9     1.410917046573813E-3    5.677674870259494E-1    3.985091981603803E-2   -6.949243053698267E-3    3.919946135689097E-2   -7.457217997145955E-3    1.120518655777867E-1    5.127895678345218E-1
 6.565152435525000E9     2.863477419122444E-3    5.677134683410063E-1    4.013075123421344E-2   -7.170037096676936E-3    3.943028928678929E-2   -7.646643352982218E-3    1.134818257967387E-1    5.124048010848963E-1
 6.565167003450000E9     4.069221507305287E-3    5.677294890928399E-1    4.042910594480424E-2   -7.423600471312858E-3    3.976819776393397E-2   -7.865534690158767E-3    1.150281416607074E-1    5.120723746089193E-1
 6.565181571375000E9     5.217724382847072E-3    5.676701978368313E-1    4.075862177687831E-2   -7.574430167186686E-3    4.005413027551762E-2   -7.953553475787302E-3    1.167088345100708E-1    5.115157622012090E-1
 6.565196139300000E9     6.447857569199860E-3    5.674968705167538E-1    4.097255449064605E-2   -7.850811590803071E-3    4.034600441199241E-2   -8.265902664633326E-3    1.181601270385158E-1    5.111656131826791E-1
 6.565210707225000E9     7.798345307460059E-3    5.674943870113556E-1    4.141759669245233E-2   -7.959339941197723E-3    4.054211706298896E-2   -8.414453991293961E-3    1.196156688617540E-1    5.106229916018327E-1
 6.565225275150000E9     9.120210043112914E-3    5.674589922123852E-1    4.160175962561582E-2   -8.146964415893519E-3    4.103166657177446E-2   -8.631870489702402E-3    1.211691741628742E-1    5.102387399201763E-1
 6.565239843075000E9     1.024854058715784E-2    5.674630134193789E-1    4.196765480867554E-2   -8.437523144549784E-3    4.125293444711343E-2   -8.848781511614265E-3    1.228178923861684E-1    5.099765453765802E-1
 6.565254411000000E9     1.161326313058259E-2    5.673573996555221E-1    4.229127331236022E-2   -8.523192772225305E-3    4.149257746833890E-2   -9.028295144294601E-3    1.242018428561939E-1    5.095324737534467E-1
 6.565268978925000E9     1.284854192305167E-2    5.672034683470145E-1    4.262994676959121E-2   -8.766605786503498E-3    4.179748562176774E-2   -9.344557759730691E-3    1.260459685333737E-1    5.090632390941293E-1
 6.565283546850000E9     1.393110452297420E-2    5.670688273572817E-1    4.282234438342906E-2   -8.830912881661809E-3    4.217716966707939E-2   -9.560963132479446E-3    1.275492290680211E-1    5.085875594757433E-1
 6.565298114775000E9     1.538574965342612E-2    5.670430540289714E-1    4.323870760218170E-2   -9.191599681470297E-3    4.247456925351969E-2   -9.816684728312782E-3    1.291641733391075E-1    5.081016371304126E-1
 6.565312682700000E9     1.648711348586345E-2    5.670017665960758E-1    4.350175675082154E-2   -9.424097652409378E-3    4.294139275310891E-2   -9.936821092707626E-3    1.306933785642986E-1    5.076776630762131E-1
 6.565327250625000E9     1.784058252519302E-2    5.669201081498759E-1    4.388158920064756E-2   -9.578075906089504E-3    4.310657829612295E-2   -1.021409603235763E-2    1.322711178110419E-1    5.071439939619418E-1
 6.565341818550000E9     1.906986326588533E-2    5.667404561875654E-1    4.423973335868147E-2   -9.911706606641634E-3    4.355313501596193E-2   -1.039637065394730E-2    1.338776044895313E-1    5.065149105042294E-1
 6.565356386475000E9     2.038550730686727E-2    5.666195645646251E-1    4.468340292921472E-2   -1.010706283389621E-2    4.384208798756608E-2   -1.058432537923778E-2    1.355679281354782E-1    5.061657920408745E-1
 6.565370954400000E9     2.166084789861066E-2    5.665832377293404E-1    4.503747498731847E-2   -1.032059508961960E-2    4.416965051117030E-2   -1.086914886808656E-2    1.372273156993378E-1    5.057351805380962E-1
 6.565385522325000E9     2.297307441976948E-2    5.664936430671015E-1    4.531753945527150E-2   -1.065646619163510E-2    4.444740510428120E-2   -1.117383547075674E-2    1.387899419076864E-1    5.051144116007272E-1
 6.565400090250000E9     2.420449939549552E-2    5.663344551169659E-1    4.569974666321130E-2   -1.084982797538181E-2    4.485951843122069E-2   -1.136772600160289E-2    1.403901415184368E-1    5.045426458309226E-1
