#  HZ   S   RI   R     50.00 
! Rohde & Schwarz Vector Network Analyzer 
! Rohde-Schwarz,ZNB20-2Port,1311601062101988,3.16
! Created: UTC 3/20/2024, 4:55:16 PM
! freq[Hz]                re:S11                  im:S11                  re:S21                  im:S21                  re:S12                  im:S12                  re:S22                  im:S22
 6.564378654000000E9    -6.057672693831016E-2    5.660638620327579E-1    2.851602051119597E-2   -5.138267770315434E-4    2.804872742985719E-2   -9.917148249670921E-4    4.071951346699335E-2    5.265435125059540E-1
 6.564392002675000E9    -5.965086483139859E-2    5.661704666244837E-1    2.877106063100976E-2   -6.887410504528582E-4    2.822589292828799E-2   -9.850936165615417E-4    4.169550660558743E-2    5.264947952284473E-1
 6.564405351350000E9    -5.855507702308322E-2    5.661254758314905E-1    2.897986707499016E-2   -6.716413792783270E-4    2.841700892709908E-2   -1.216222491144706E-3    4.309399909985982E-2    5.264824803508077E-1
 6.564418700025000E9    -5.751597512921991E-2    5.663747910213458E-1    2.898007743117528E-2   -6.023583292184506E-4    2.845976941050605E-2   -1.298160992212313E-3    4.418544134069514E-2    5.263413091563957E-1
 6.564432048700000E9    -5.646898560267974E-2    5.663927140752457E-1    2.904481226126791E-2   -8.300943650207171E-4    2.869167394694847E-2   -1.284411631902831E-3    4.542689125302012E-2    5.262601615909106E-1
 6.564445397375000E9    -5.542079070017610E-2    5.666187725312223E-1    2.932859548889751E-2   -9.457799024291116E-4    2.874836289373895E-2   -1.341821253801010E-3    4.644531001718288E-2    5.261891411434757E-1
 6.564458746050000E9    -5.438869092542904E-2    5.666973218046484E-1    2.936954937835161E-2   -1.102219027541790E-3    2.889598902823554E-2   -1.509213231963014E-3    4.771212974201012E-2    5.260186238274411E-1
 6.564472094725000E9    -5.319320988641428E-2    5.667316193474337E-1    2.954563854499355E-2   -1.073351926793892E-3    2.894803817280745E-2   -1.497801829698181E-3    4.901242418041506E-2    5.259525978710741E-1
 6.564485443400000E9    -5.216008052971201E-2    5.668747973269745E-1    2.951503017647781E-2   -1.215297479969403E-3    2.923923112048324E-2   -1.546017870225230E-3    5.013190884256540E-2    5.258373806049018E-1
 6.564498792075000E9    -5.110560030632346E-2    5.668024656742295E-1    2.982523909125978E-2   -1.230085097614556E-3    2.939597868219763E-2   -1.752876155148156E-3    5.124164451537618E-2    5.257975162906987E-1
 6.564512140750000E9    -4.997081328874397E-2    5.668860654031814E-1    3.010238079849789E-2   -1.242072714303744E-3    2.948613135090988E-2   -1.696681107060772E-3    5.253615713452420E-2    5.254913391498766E-1
 6.564525489425000E9    -4.900298091109267E-2    5.670219394172292E-1    3.013932196723345E-2   -1.321234837395806E-3    2.967652157591151E-2   -1.737686873933112E-3    5.361206866372861E-2    5.255173008528186E-1
 6.564538838100000E9    -4.798443036880445E-2    5.670348740347660E-1    3.020291503333021E-2   -1.375008857668370E-3    2.982768711133382E-2   -1.876488883157695E-3    5.478113104377308E-2    5.255050089007711E-1
 6.564552186775000E9    -4.683813376930639E-2    5.672887798987839E-1    3.058104017045428E-2   -1.436212896532618E-3    3.007298801254040E-2   -1.996176208918729E-3    5.609256024379793E-2    5.254678732865160E-1
 6.564565535450000E9    -4.570236152013262E-2    5.672405042327772E-1    3.071888588614554E-2   -1.768349763278451E-3    3.009220502980020E-2   -2.118888684645005E-3    5.724416454389585E-2    5.251558231194483E-1
 6.564578884125000E9    -4.458355141984883E-2    5.673960456377474E-1    3.084323741641898E-2   -1.578096077303877E-3    3.033587486480130E-2   -2.222255032101992E-3    5.841866088993853E-2    5.250790258568950E-1
 6.564592232800000E9    -4.360133543006035E-2    5.674686315180427E-1    3.097724144697778E-2   -1.731204112392508E-3    3.043335783271664E-2   -2.218757186599669E-3    5.966589745978417E-2    5.248027250022302E-1
 6.564605581475000E9    -4.258326002734478E-2    5.676051182832939E-1    3.114092109377406E-2   -1.752420051202279E-3    3.049013030883185E-2   -2.388562651492791E-3    6.094434567702663E-2    5.249161402240741E-1
 6.564618930150000E9    -4.149464939796867E-2    5.676066475763507E-1    3.116895069578247E-2   -1.922337245006802E-3    3.074361627073271E-2   -2.418464721573807E-3    6.217546786725771E-2    5.245352210252276E-1
 6.564632278825000E9    -4.038124719250952E-2    5.677050912453258E-1    3.154249006449499E-2   -2.084776792738339E-3    3.093752209031834E-2   -2.464241697335985E-3    6.332833780800781E-2    5.246348040437406E-1
 6.564645627500000E9    -3.930782676446493E-2    5.677192730351183E-1    3.167124682391806E-2   -2.140263398470928E-3    3.110258553208431E-2   -2.584215759925555E-3    6.439343411552359E-2    5.244301895060631E-1
 6.564658976175000E9    -3.825392398846419E-2    5.677562049806492E-1    3.182101014381361E-2   -2.115635237107703E-3    3.125603022172342E-2   -2.619523046913654E-3    6.565688533455724E-2    5.243166262981935E-1
 6.564672324850000E9    -3.711906438455267E-2    5.678373531384235E-1    3.206662939347572E-2   -2.170800099595852E-3    3.132802753741968E-2   -2.682443744334365E-3    6.713536244479169E-2    5.239098790060253E-1
 6.564685673525000E9    -3.606307301163200E-2    5.678440879097020E-1    3.210183106763643E-2   -2.336919705322237E-3    3.153823631537518E-2   -2.768085613613108E-3    6.825570911082597E-2    5.239745782045521E-1
 6.564699022200000E9    -3.509700129570866E-2    5.680122873327588E-1    3.232359992640858E-2   -2.475021460255804E-3    3.177491023970251E-2   -2.999091151787500E-3    6.935075300131438E-2    5.238293975371373E-1
 6.564712370875000E9    -3.383101552691910E-2    5.680019837159914E-1    3.241471430760575E-2   -2.689460253148195E-3    3.197728642688349E-2   -3.031398744682715E-3    7.067575092623921E-2    5.237295234941095E-1
 6.564725719550000E9    -3.295543730760931E-2    5.680942087109333E-1    3.266013777591816E-2   -2.819223962932081E-3    3.200375072212821E-2   -3.172790550972756E-3    7.200121959884076E-2    5.233717795569405E-1
 6.564739068225000E9    -3.173218189500952E-2    5.680528987429058E-1    3.294116507847774E-2   -2.783179641172425E-3    3.226986539278671E-2   -3.261395835309136E-3    7.304610268860827E-2    5.232994072178743E-1
 6.564752416900000E9    -3.057330443677708E-2    5.681328731688540E-1    3.306442485434217E-2   -2.685803156628253E-3    3.247661349919454E-2   -3.341038006864054E-3    7.436515940091680E-2    5.231621170981031E-1
 6.564765765575000E9    -2.964231148638823E-2    5.682404773730044E-1    3.330227769806214E-2   -2.945836149251687E-3    3.278389275600627E-2   -3.431777832653591E-3    7.572545285110197E-2    5.229752024829019E-1
 6.564779114250000E9    -2.850817761986766E-2    5.682186174138566E-1    3.338769984331619E-2   -2.900558896526293E-3    3.286471033559555E-2   -3.567705253825635E-3    7.687947240931657E-2    5.227591608621197E-1
 6.564792462925000E9    -2.740777810404262E-2    5.682748379693406E-1    3.355517384234689E-2   -3.060996581755560E-3    3.307498870998329E-2   -3.671814204548262E-3    7.808693005853239E-2    5.224859630692943E-1
 6.564805811600000E9    -2.629953587179865E-2    5.684001282572378E-1    3.376464033913286E-2   -3.221503617101961E-3    3.319876823226282E-2   -3.751790078488732E-3    7.944366195790370E-2    5.224237856094337E-1
 6.564819160275000E9    -2.517962682079692E-2    5.683072313501590E-1    3.403900079307715E-2   -3.427531543574894E-3    3.337819134054367E-2   -3.778110336860274E-3    8.073151591282168E-2    5.220248768197161E-1
 6.564832508950000E9    -2.415514260091704E-2    5.684258269041108E-1    3.422759434609445E-2   -3.492947057144084E-3    3.363692784024249E-2   -4.010333599274574E-3    8.188120699157173E-2    5.220474388249403E-1
 6.564845857625000E9    -2.297495798940725E-2    5.683993139427506E-1    3.446244476484413E-2   -3.607504358666298E-3    3.376343982581011E-2   -4.063888603373660E-3    8.325374687239590E-2    5.218234526262515E-1
 6.564859206300000E9    -2.190994077703282E-2    5.685366519723473E-1    3.454672742134616E-2   -3.537989847601633E-3    3.399772075248453E-2   -4.214292960047676E-3    8.451175628485523E-2    5.216999369294968E-1
 6.564872554975000E9    -2.096668663802992E-2    5.684754905180950E-1    3.479679692985250E-2   -3.726727717616734E-3    3.418290353127028E-2   -4.320255034859772E-3    8.579394947669548E-2    5.213855331946560E-1
 6.564885903650000E9    -1.970175532383270E-2    5.684615432555462E-1    3.507741251268234E-2   -3.938914530450628E-3    3.443226789716070E-2   -4.315177613771017E-3    8.714916176410414E-2    5.213399156180533E-1
 6.564899252325000E9    -1.858048674747492E-2    5.685039180183254E-1    3.517408805371779E-2   -3.981925967486697E-3    3.457005369922191E-2   -4.563551815639339E-3    8.840876572412801E-2    5.209624311849844E-1
 6.564912601000000E9    -1.754124774182145E-2    5.685464012059515E-1    3.532329166991192E-2   -4.156169087219633E-3    3.475829075114457E-2   -4.667584853815018E-3    8.973355148236034E-2    5.207098234756924E-1
 6.564925949675000E9    -1.639266472551164E-2    5.685585403137612E-1    3.557347739165626E-2   -4.197125428917730E-3    3.500493140283775E-2   -4.687034004884249E-3    9.105276293209735E-2    5.205312745508310E-1
 6.564939298350000E9    -1.527910285386031E-2    5.685451957594727E-1    3.580557089517818E-2   -4.247201605721126E-3    3.513529217218572E-2   -4.872949115168358E-3    9.223349597362845E-2    5.202844055445760E-1
 6.564952647025000E9    -1.417554197510183E-2    5.685963287956647E-1    3.593704048923392E-2   -4.492673655891388E-3    3.542626086258355E-2   -4.944943183671492E-3    9.357882892534265E-2    5.200483443241871E-1
 6.564965995700000E9    -1.301050094031123E-2    5.685507769546033E-1    3.620150897296105E-2   -4.548088491062367E-3    3.551684358973267E-2   -5.092171989292589E-3    9.483585124296399E-2    5.198080036028848E-1
 6.564979344375000E9    -1.194029605012799E-2    5.684324882802764E-1    3.643765465576644E-2   -4.607750670188299E-3    3.583643638900121E-2   -5.221476684318697E-3    9.613453008357603E-2    5.195181127348736E-1
 6.564992693050000E9    -1.083676846231593E-2    5.685086433677721E-1    3.672936958424389E-2   -4.802967341409213E-3    3.608219778211194E-2   -5.391124299965459E-3    9.732154207446032E-2    5.192409035260402E-1
 6.565006041725000E9    -9.805777111633903E-3    5.685998839439104E-1    3.695486772628809E-2   -4.887348744146591E-3    3.628531552588711E-2   -5.539100240405618E-3    9.884462535930701E-2    5.189488870357587E-1
 6.565019390400000E9    -8.732538508752536E-3    5.686285997530195E-1    3.716008495319067E-2   -4.999127666552017E-3    3.641697098050472E-2   -5.601142239019337E-3    1.002277306440804E-1    5.187175021080698E-1
 6.565032739075000E9    -7.505075661497574E-3    5.686403263740143E-1    3.730601643854892E-2   -5.121439669047503E-3    3.667165122109304E-2   -5.831331755722255E-3    1.016094981769485E-1    5.184915576042455E-1
 6.565046087750000E9    -6.274974246461227E-3    5.684766674961209E-1    3.760787339308350E-2   -5.390742658768870E-3    3.685370586127652E-2   -5.911149245226730E-3    1.027993622327280E-1    5.181972752101542E-1
 6.565059436425000E9    -5.220389531167375E-3    5.685272918364340E-1    3.786360249098967E-2   -5.400315374124449E-3    3.704983242264560E-2   -6.079894882961399E-3    1.041786229899205E-1    5.178005981746506E-1
 6.565072785100000E9    -4.153317063323870E-3    5.685110087931117E-1    3.806928838759856E-2   -5.523591057216341E-3    3.728750413832441E-2   -6.161187970673923E-3    1.056031303285527E-1    5.177264434554865E-1
 6.565086133775000E9    -3.068799364671300E-3    5.684760843554522E-1    3.818932940709837E-2   -5.769960838630388E-3    3.748121827318496E-2   -6.309803205588046E-3    1.067834124240633E-1    5.172407112287556E-1
 6.565099482450000E9    -1.994838410427776E-3    5.685196682600812E-1    3.850661028163260E-2   -5.835044611818720E-3    3.783686679190480E-2   -6.373912434639866E-3    1.081747814681599E-1    5.170400586110926E-1
 6.565112831125000E9    -7.745360365894028E-4    5.684808630661005E-1    3.866734697789299E-2   -6.027787557328487E-3    3.815808779791181E-2   -6.593965668604159E-3    1.095248738196323E-1    5.168206157936506E-1
 6.565126179800000E9     4.214628149755644E-4    5.683811064099220E-1    3.892540218205603E-2   -6.257225418482267E-3    3.839844456664643E-2   -6.796310042416029E-3    1.110288401799022E-1    5.164220256932158E-1
 6.565139528475000E9     1.334525692593390E-3    5.683768852568413E-1    3.929741541800131E-2   -6.362027219642360E-3    3.852932964995141E-2   -6.892934579099297E-3    1.123919710332692E-1    5.161045394828957E-1
 6.565152877150000E9     2.653708044588941E-3    5.683840727973415E-1    3.946971807140066E-2   -6.559123173812271E-3    3.884609565370171E-2   -7.049430679585406E-3    1.137057648352191E-1    5.158616711668844E-1
 6.565166225825000E9     3.710971303397212E-3    5.682343182525287E-1    3.969674861634492E-2   -6.656818924992039E-3    3.911310320700744E-2   -7.287698537550772E-3    1.150505442157170E-1    5.153704349121065E-1
 6.565179574500000E9     4.832513295659823E-3    5.683097390166771E-1    3.998730812510867E-2   -6.878969755429223E-3    3.929171324859512E-2   -7.399692127694391E-3    1.165778918774370E-1    5.152374907069077E-1
 6.565192923175000E9     6.025982899481883E-3    5.681330690465991E-1    4.023601886700368E-2   -6.892453968475121E-3    3.964979958650743E-2   -7.592893163922691E-3    1.179226430319480E-1    5.147382575584132E-1
 6.565206271850000E9     7.232555451336625E-3    5.681857506673151E-1    4.049791861932630E-2   -7.245711192054650E-3    3.986133201310964E-2   -7.696524580391050E-3    1.193008840001005E-1    5.145075375790269E-1
 6.565219620525000E9     8.294778608599361E-3    5.682054306355302E-1    4.081023446286189E-2   -7.264827380590289E-3    4.006846264893194E-2   -7.933460684368329E-3    1.206580159422629E-1    5.141074672842043E-1
 6.565232969200000E9     9.431147849739741E-3    5.680633605956041E-1    4.110135670333561E-2   -7.504536761685147E-3    4.030937860900127E-2   -8.047057883576023E-3    1.220328081045763E-1    5.135964091019370E-1
 6.565246317875000E9     1.053143998494359E-2    5.680585701643841E-1    4.139411910246504E-2   -7.708934482281163E-3    4.054365701967078E-2   -8.181143905985551E-3    1.235977583248445E-1    5.133871120807093E-1
 6.565259666550000E9     1.173407974621780E-2    5.679083753050564E-1    4.143476832383654E-2   -7.878800107591826E-3    4.097450919558479E-2   -8.354582273840939E-3    1.249965136099548E-1    5.131017070935078E-1
 6.565273015225000E9     1.280815259037650E-2    5.678267998632922E-1    4.193883805702949E-2   -8.031911887788911E-3    4.123113563802975E-2   -8.568956313671296E-3    1.263054245502161E-1    5.124716607385127E-1
 6.565286363900000E9     1.391834140089694E-2    5.678334030513335E-1    4.238506960014530E-2   -8.272889130807667E-3    4.159079563554440E-2   -8.779132981913462E-3    1.278605784880187E-1    5.122193468187488E-1
 6.565299712575000E9     1.510888913018979E-2    5.677345812309704E-1    4.241690736578695E-2   -8.546404116416776E-3    4.171318687910484E-2   -8.948152654156456E-3    1.292769381380706E-1    5.119574181238854E-1
 6.565313061250000E9     1.633510934419474E-2    5.677013152431539E-1    4.294118417159613E-2   -8.594154816102491E-3    4.202404549823915E-2   -9.166612516777108E-3    1.306474458699381E-1    5.114193347257074E-1
 6.565326409925000E9     1.749220747870620E-2    5.676082741281219E-1    4.318054297847086E-2   -8.683961897300802E-3    4.232405397116795E-2   -9.390423196211530E-3    1.321565598603319E-1    5.108931166038413E-1
 6.565339758600000E9     1.866502632566520E-2    5.674535290934249E-1    4.341257245132474E-2   -8.922262349517984E-3    4.268618779727506E-2   -9.547778427770591E-3    1.336399914210176E-1    5.106190530692211E-1
 6.565353107275000E9     1.984597678276520E-2    5.674829895754638E-1    4.363858257354467E-2   -9.019521994634332E-3    4.287633430845513E-2   -9.731743999158013E-3    1.350220773910210E-1    5.101693297121108E-1
 6.565366455950000E9     2.100550037809652E-2    5.673559769737703E-1    4.409405766415197E-2   -9.337647510729062E-3    4.318683293483472E-2   -9.968589951033198E-3    1.367294867712236E-1    5.096711782110995E-1
 6.565379804625000E9     2.221889106872533E-2    5.672305154405569E-1    4.438290229835386E-2   -9.559129214154407E-3    4.356704681383659E-2   -1.021231802024388E-2    1.379295035860237E-1    5.091053553336472E-1
 6.565393153300000E9     2.331693584034511E-2    5.671438271461900E-1    4.460001729152831E-2   -9.811922993613919E-3    4.385425113370109E-2   -1.036462116992171E-2    1.396437395192258E-1    5.088155011661768E-1
 6.565406501975000E9     2.446206574846382E-2    5.670246038335809E-1    4.504685435673803E-2   -1.009575432797308E-2    4.418618949408269E-2   -1.058635784209800E-2    1.410575239922646E-1    5.082610942759280E-1
 6.565419850650000E9     2.568494466658839E-2    5.670421125349854E-1    4.517828911157581E-2   -1.028087857769299E-2    4.455918895783816E-2   -1.082134984897935E-2    1.426772066403523E-1    5.077280072120121E-1
 6.565433199325000E9     2.683158549302280E-2    5.669489075240604E-1    4.574426609080585E-2   -1.037235558207619E-2    4.476415051608047E-2   -1.105649999731298E-2    1.443006793702930E-1    5.071577831327074E-1
 6.565446548000000E9     2.795575629404277E-2    5.667176983933028E-1    4.593892511766521E-2   -1.056917001289408E-2    4.521193084823814E-2   -1.118014340061722E-2    1.456653265788565E-1    5.067594355344049E-1
 6.565459896675000E9     2.926515037233801E-2    5.666366302553488E-1    4.632853251648462E-2   -1.092158143331769E-2    4.553469709529713E-2   -1.139697460801476E-2    1.471090195663724E-1    5.063486668434863E-1
 6.565473245350000E9     3.029530596522052E-2    5.664942954545577E-1    4.657512169152227E-2   -1.115842587773410E-2    4.586012771772763E-2   -1.181506007877714E-2    1.487531674065817E-1    5.057511516458165E-1
 6.565486594025000E9     3.150887374545168E-2    5.663894585322055E-1    4.704273830140059E-2   -1.147564757827057E-2    4.614399867101126E-2   -1.195866982571333E-2    1.504787759616826E-1    5.052345200731042E-1
 6.565499942700000E9     3.280441155699734E-2    5.662591032008684E-1    4.731922890191423E-2   -1.159982659332948E-2    4.650508326406558E-2   -1.225925925482756E-2    1.519802992357311E-1    5.047200825369627E-1
 6.565513291375000E9     3.395143599506836E-2    5.662459532003692E-1    4.771311351491237E-2   -1.171696751484162E-2    4.683400712884322E-2   -1.253986358951293E-2    1.534536351346601E-1    5.041079671274842E-1
 6.565526640050000E9     3.513824045261423E-2    5.659747221438436E-1    4.811604473992102E-2   -1.205950187017541E-2    4.736334898318727E-2   -1.276237358060128E-2    1.551581639000458E-1    5.036498671772616E-1
 6.565539988725000E9     3.628195628289431E-2    5.657402420050547E-1    4.845418262682290E-2   -1.239400227291902E-2    4.765045635119552E-2   -1.301152028665114E-2    1.565502451163865E-1    5.029203162001594E-1
 6.565553337400000E9     3.765878428725362E-2    5.657746831719650E-1    4.881287252567303E-2   -1.259258334942441E-2    4.793088752065621E-2   -1.329146383661077E-2    1.583318278421840E-1    5.024548293016471E-1
 6.565566686075000E9     3.875632113992059E-2    5.656145188735656E-1    4.912782159744435E-2   -1.291372522981099E-2    4.836074990621392E-2   -1.360118401917602E-2    1.598906087313266E-1    5.017778944473543E-1
 6.565580034750000E9     3.998654009398869E-2    5.654075999558824E-1    4.958681993659785E-2   -1.322449590332653E-2    4.876173852249618E-2   -1.382648846130472E-2    1.615642767994392E-1    5.012111513889556E-1
