#  HZ   S   RI   R     50.00 
! Rohde & Schwarz Vector Network Analyzer 
! Rohde-Schwarz,ZNB20-2Port,1311601062101988,3.16
! Created: UTC 3/20/2024, 4:55:37 PM
! freq[Hz]                re:S11                  im:S11                  re:S21                  im:S21                  re:S12                  im:S12                  re:S22                  im:S22
 6.564349208000000E9    -6.310028293346662E-2    5.657487114136043E-1    2.825561596212923E-2   -3.369763741718930E-4    2.783313265257972E-2   -9.282603981955688E-4    3.800716287303895E-2    5.268073436921613E-1
 6.564362680950000E9    -6.195894043781385E-2    5.658750410587843E-1    2.853638520486260E-2   -4.196640260232651E-4    2.791981613119725E-2   -1.090135961249419E-3    3.952508036298692E-2    5.266348991005341E-1
 6.564376153900000E9    -6.093144672181873E-2    5.660202583941703E-1    2.859999401474575E-2   -5.870345126720880E-4    2.812830239216378E-2   -1.075573873868159E-3    4.050280547827629E-2    5.266428725819624E-1
 6.564389626850000E9    -5.986166526170586E-2    5.661015793279096E-1    2.870087451215293E-2   -6.650663009870664E-4    2.824968026472332E-2   -1.073205815141053E-3    4.160941632664542E-2    5.265019651612989E-1
 6.564403099800000E9    -5.867901735235279E-2    5.662978854560983E-1    2.890683698310789E-2   -7.469369039771605E-4    2.846765092127046E-2   -1.211413409592260E-3    4.284836407819879E-2    5.264183154425803E-1
 6.564416572750000E9    -5.765062778144282E-2    5.663641947394714E-1    2.920177994779343E-2   -7.217856906798179E-4    2.853830774059057E-2   -1.238249535593842E-3    4.410994491504502E-2    5.264940055981063E-1
 6.564430045700000E9    -5.655549076661032E-2    5.664097354359853E-1    2.923477636156007E-2   -7.976520907094275E-4    2.876396161949837E-2   -1.365216420806980E-3    4.531041236209304E-2    5.262764391426480E-1
 6.564443518650000E9    -5.549491019048641E-2    5.665161932632000E-1    2.938862814831419E-2   -8.803096865821233E-4    2.884553579131715E-2   -1.424762921788175E-3    4.635151798312328E-2    5.263102870412840E-1
 6.564456991600000E9    -5.446767273678890E-2    5.665489452530662E-1    2.942416611740548E-2   -1.046453798601884E-3    2.888507318528508E-2   -1.549738270960004E-3    4.754199427729251E-2    5.260092467615065E-1
 6.564470464550000E9    -5.343693227679197E-2    5.667757273113820E-1    2.950317463785645E-2   -1.183248689584972E-3    2.896828579349954E-2   -1.537203955885351E-3    4.890884463724373E-2    5.260346446662606E-1
 6.564483937500000E9    -5.224696213861433E-2    5.668270890678317E-1    2.972230668104259E-2   -1.117164425557425E-3    2.928591841806858E-2   -1.643842031708907E-3    4.991166578738784E-2    5.258169852838758E-1
 6.564497410450000E9    -5.125583007620220E-2    5.668605062091583E-1    2.991436768335796E-2   -1.222217284136079E-3    2.941667582268023E-2   -1.722422079693332E-3    5.128865496854183E-2    5.257724938284395E-1
 6.564510883400000E9    -5.012250615686810E-2    5.670691028966687E-1    3.009028614274547E-2   -1.355348165918625E-3    2.960847425748013E-2   -1.803417472475963E-3    5.228492125963836E-2    5.256660494924557E-1
 6.564524356350000E9    -4.907930057268907E-2    5.671644981194511E-1    3.011080238181725E-2   -1.336453415320863E-3    2.970204178623614E-2   -1.903394794721258E-3    5.371322231687906E-2    5.256317363355016E-1
 6.564537829300000E9    -4.799980875964394E-2    5.671526272819815E-1    3.020090138482225E-2   -1.503445076041864E-3    2.987148478947798E-2   -1.936551650936529E-3    5.474023668812611E-2    5.253747719848106E-1
 6.564551302250000E9    -4.695880609489345E-2    5.672899075930643E-1    3.068038748617377E-2   -1.451454852344206E-3    3.005576122903441E-2   -1.994263928005131E-3    5.605582476853124E-2    5.252734512137343E-1
 6.564564775200000E9    -4.578228578090290E-2    5.672633164520250E-1    3.064246543108367E-2   -1.494089292904600E-3    3.020387632938159E-2   -2.077432006939339E-3    5.744708756278207E-2    5.252189041683888E-1
 6.564578248150000E9    -4.479082667294507E-2    5.673142422867239E-1    3.086144389487810E-2   -1.715423480464497E-3    3.042626831409240E-2   -2.159884205202272E-3    5.844251517552487E-2    5.250660633506100E-1
 6.564591721100000E9    -4.375629799167741E-2    5.674782895754745E-1    3.099718016441756E-2   -1.839451162298967E-3    3.048584258070094E-2   -2.269776728355427E-3    5.963036416445574E-2    5.249500519362174E-1
 6.564605194050000E9    -4.263682998465740E-2    5.674940385198668E-1    3.106032545512152E-2   -1.843305403805864E-3    3.071732555460856E-2   -2.327527754163266E-3    6.106131673217569E-2    5.248927712989907E-1
 6.564618667000000E9    -4.151592489722732E-2    5.676169161844103E-1    3.127542857090620E-2   -1.863559191225257E-3    3.074619064152405E-2   -2.382027385311541E-3    6.213352064231013E-2    5.247551707138027E-1
 6.564632139950000E9    -4.049913391158871E-2    5.676834095188003E-1    3.148273858367550E-2   -1.957142995135920E-3    3.097634515894594E-2   -2.510468877603425E-3    6.329258463074129E-2    5.244695186491203E-1
 6.564645612900000E9    -3.945291192520495E-2    5.677621990476260E-1    3.169877784535294E-2   -2.198073407646502E-3    3.115222834723114E-2   -2.612576074215110E-3    6.462153676882357E-2    5.243053587066583E-1
 6.564659085850000E9    -3.827216163913205E-2    5.677794245405758E-1    3.190628958323195E-2   -2.158986340365465E-3    3.134896711458089E-2   -2.676794379337439E-3    6.601021709005223E-2    5.243030319669149E-1
 6.564672558800000E9    -3.719432615100478E-2    5.677970725416757E-1    3.220785386100538E-2   -2.314064898211313E-3    3.140062088351338E-2   -2.766459317992816E-3    6.707636034442313E-2    5.240588418922316E-1
 6.564686031750000E9    -3.604924367337644E-2    5.678857578597151E-1    3.220806448091897E-2   -2.280794258143845E-3    3.169751823567720E-2   -3.036095728481075E-3    6.835007751410443E-2    5.238482177767164E-1
 6.564699504700000E9    -3.490338796780373E-2    5.678672924240145E-1    3.243682633260786E-2   -2.464670612470686E-3    3.179876518834857E-2   -3.016629319995192E-3    6.957294988783561E-2    5.238233201181870E-1
 6.564712977650000E9    -3.390862693356998E-2    5.681098201085694E-1    3.250195761713721E-2   -2.532341619782842E-3    3.203194462176458E-2   -3.163374470295454E-3    7.086276421082756E-2    5.236807301970205E-1
 6.564726450600000E9    -3.275537445690069E-2    5.680948173492415E-1    3.271413141339050E-2   -2.618519650250463E-3    3.218404587675616E-2   -3.234027760027936E-3    7.215817237657335E-2    5.234522425223026E-1
 6.564739923550000E9    -3.171531798176062E-2    5.681492632487567E-1    3.283887768380589E-2   -2.743891873228075E-3    3.224522660599165E-2   -3.362673308949341E-3    7.328363241406828E-2    5.232296945031204E-1
 6.564753396500000E9    -3.058526237449688E-2    5.681521772650955E-1    3.315459925677987E-2   -2.979404720407192E-3    3.258526375914949E-2   -3.380979607043964E-3    7.459200134078509E-2    5.231047579445841E-1
 6.564766869450000E9    -2.948540754401234E-2    5.682384837721481E-1    3.324633101779038E-2   -3.047917981131187E-3    3.268849688500881E-2   -3.428150759854546E-3    7.594571132166650E-2    5.228871379536393E-1
 6.564780342400000E9    -2.837802056328046E-2    5.681026198887027E-1    3.335091200082371E-2   -3.082944616070093E-3    3.286548821361121E-2   -3.551871789153129E-3    7.712134304008221E-2    5.227791925141750E-1
 6.564793815350000E9    -2.718992038786251E-2    5.682851489311177E-1    3.356053611673439E-2   -3.237594674370777E-3    3.307257309097049E-2   -3.725341657054947E-3    7.834620791767063E-2    5.225827943890504E-1
 6.564807288300000E9    -2.618523674304804E-2    5.683468520575513E-1    3.395724606612800E-2   -3.447259913467289E-3    3.324595279980614E-2   -3.753155361508083E-3    7.971229637248572E-2    5.224365099357302E-1
 6.564820761250000E9    -2.500010996802696E-2    5.683512781489097E-1    3.413764536549452E-2   -3.343077231372625E-3    3.345258745176994E-2   -3.923245481501096E-3    8.093144396999627E-2    5.221201968129185E-1
 6.564834234200000E9    -2.400503179566572E-2    5.683505030659003E-1    3.428772302252580E-2   -3.559383106985853E-3    3.367256907714901E-2   -3.954030077086247E-3    8.225311823976485E-2    5.219947854875578E-1
 6.564847707150000E9    -2.290774144018974E-2    5.683429738807710E-1    3.450230026430748E-2   -3.553929352249220E-3    3.385828663458648E-2   -4.080812853221787E-3    8.349495356246880E-2    5.217533517441033E-1
 6.564861180100000E9    -2.181812346085952E-2    5.684084099114468E-1    3.465003602411360E-2   -3.737103768821656E-3    3.402222863301393E-2   -4.299726581700909E-3    8.486937367817864E-2    5.214574652882482E-1
 6.564874653050000E9    -2.059249509903350E-2    5.685307695242353E-1    3.477883426410854E-2   -3.840132298079580E-3    3.415329397015737E-2   -4.325841466574792E-3    8.611024927910521E-2    5.214304215882531E-1
 6.564888126000000E9    -1.953933357916981E-2    5.684651627133593E-1    3.507621579610065E-2   -3.990458025784986E-3    3.440067800665618E-2   -4.456219053046460E-3    8.747047357675421E-2    5.210679448400042E-1
 6.564901598950000E9    -1.837025494797789E-2    5.685492203018809E-1    3.523612858834311E-2   -4.061046156058178E-3    3.461569049681162E-2   -4.613065788158016E-3    8.867367121434838E-2    5.209216760193199E-1
 6.564915071900000E9    -1.735887033388897E-2    5.684611354863087E-1    3.547893580554588E-2   -4.188414964339876E-3    3.489184068365157E-2   -4.694644771378436E-3    8.987965909673620E-2    5.207099824687742E-1
 6.564928544850000E9    -1.615609212314873E-2    5.685096397925452E-1    3.571981360678430E-2   -4.280207592653354E-3    3.502234608703850E-2   -4.883361853447153E-3    9.127173389581258E-2    5.202902494895407E-1
 6.564942017800000E9    -1.515686527848355E-2    5.685237699344003E-1    3.591130751484736E-2   -4.419801595063023E-3    3.522438439394567E-2   -4.975574956787327E-3    9.257552530042104E-2    5.203389589203075E-1
 6.564955490750000E9    -1.392857410422587E-2    5.685040792727218E-1    3.611959915488346E-2   -4.548362729668767E-3    3.542083755382196E-2   -5.067995631027335E-3    9.397721601922891E-2    5.199864567631033E-1
 6.564968963700000E9    -1.281684184406558E-2    5.684869155651762E-1    3.632997491421339E-2   -4.667168811073865E-3    3.571543002815764E-2   -5.178367033481153E-3    9.516021743428638E-2    5.195371077119534E-1
 6.564982436650000E9    -1.170665784210412E-2    5.686303881809870E-1    3.652140326436005E-2   -4.796854736198692E-3    3.590047670978495E-2   -5.341929140516397E-3    9.654051120892966E-2    5.193615285901244E-1
 6.564995909600000E9    -1.061320366584767E-2    5.684979111181120E-1    3.678609120699854E-2   -5.006867939137682E-3    3.618519607909237E-2   -5.388228076472064E-3    9.804949286932353E-2    5.191731824347948E-1
 6.565009382550000E9    -9.526216039380746E-3    5.685485290218821E-1    3.699892194276073E-2   -4.982121689684294E-3    3.638365041157067E-2   -5.620517766365110E-3    9.918847603103674E-2    5.190064606771697E-1
 6.565022855500000E9    -8.256979005891882E-3    5.684623219212688E-1    3.715247253542163E-2   -5.371606840775998E-3    3.661309907245035E-2   -5.684784607288129E-3    1.006101291754247E-1    5.186206119799627E-1
 6.565036328450000E9    -7.174333352200151E-3    5.685211405522880E-1    3.756215093067589E-2   -5.231583173379862E-3    3.677709602894765E-2   -5.912406225073687E-3    1.019811258032506E-1    5.183755284590482E-1
 6.565049801400000E9    -6.174753048592716E-3    5.686709270802383E-1    3.766491570957681E-2   -5.221804913862763E-3    3.705997226280654E-2   -5.978299213362872E-3    1.033244317701830E-1    5.181794282910247E-1
 6.565063274350000E9    -4.893522657258296E-3    5.684385528675553E-1    3.783169818357695E-2   -5.477891206947278E-3    3.730526925410588E-2   -6.093052423874876E-3    1.047338890520873E-1    5.177780689835220E-1
 6.565076747300000E9    -3.774339043416516E-3    5.684247482477277E-1    3.815416252827940E-2   -5.750877364715432E-3    3.755355090936480E-2   -6.262683965598199E-3    1.060806627514758E-1    5.174483715622684E-1
 6.565090220250000E9    -2.603761885985867E-3    5.684861579946060E-1    3.826865706721893E-2   -5.792798149941145E-3    3.780961190474354E-2   -6.415384061544858E-3    1.073867418339010E-1    5.171959984637587E-1
 6.565103693200000E9    -1.602785568204040E-3    5.684260286899996E-1    3.874165770357950E-2   -5.969536873930108E-3    3.803691209846997E-2   -6.507080471485874E-3    1.089476782975327E-1    5.168944177402212E-1
 6.565117166150000E9    -4.441147894575025E-4    5.684344309801868E-1    3.888754547797336E-2   -6.062461464070776E-3    3.829089879389196E-2   -6.812370374846008E-3    1.101130310162763E-1    5.166032910307176E-1
 6.565130639100000E9     7.045828436105877E-4    5.683256794826905E-1    3.913775724074181E-2   -6.279661020712491E-3    3.849668548494798E-2   -6.875959979626752E-3    1.115012533893450E-1    5.162036619866655E-1
 6.565144112050000E9     1.838042977158300E-3    5.683591927001910E-1    3.934149743648762E-2   -6.449165375888146E-3    3.871307597705479E-2   -7.074917738617729E-3    1.129058701924961E-1    5.159742087385530E-1
 6.565157585000000E9     2.941411019961495E-3    5.682996910011614E-1    3.968086091453122E-2   -6.515359884066551E-3    3.890595049482463E-2   -7.127407231478491E-3    1.143113300228576E-1    5.156021947789258E-1
 6.565171057950000E9     4.078261207966397E-3    5.682452104436254E-1    4.006887640699886E-2   -6.631289661670188E-3    3.922991390854334E-2   -7.258283108632984E-3    1.157792234950716E-1    5.152399004560576E-1
 6.565184530900000E9     5.236212386852023E-3    5.680997948910376E-1    4.014472206216545E-2   -6.913931261813666E-3    3.945453639080621E-2   -7.510884184835164E-3    1.170737888651936E-1    5.149244567027298E-1
 6.565198003850000E9     6.413112127509504E-3    5.681696684787106E-1    4.033149115991491E-2   -6.957103510591621E-3    3.985552436972698E-2   -7.650236749727175E-3    1.185123510316513E-1    5.146181920279659E-1
 6.565211476800000E9     7.540210938130002E-3    5.680445664675678E-1    4.067264745187332E-2   -7.276813504757920E-3    4.003225258955904E-2   -7.887376592036099E-3    1.200294511286149E-1    5.142561814859540E-1
 6.565224949750000E9     8.810922636514762E-3    5.681965451318579E-1    4.102751123169995E-2   -7.506380539926305E-3    4.029327746105860E-2   -7.989517416682657E-3    1.212879325519064E-1    5.138278953890131E-1
 6.565238422700000E9     9.893327993660292E-3    5.680059124298034E-1    4.133534919086038E-2   -7.626573602887516E-3    4.056484625566734E-2   -8.213841724852254E-3    1.228441604076253E-1    5.134566906944482E-1
 6.565251895650000E9     1.102443077210842E-2    5.680613719778378E-1    4.151656930391639E-2   -7.832644650358517E-3    4.073684591756414E-2   -8.399816319912382E-3    1.241557473091307E-1    5.129441622026334E-1
 6.565265368600000E9     1.224234567391816E-2    5.679517808907157E-1    4.189921792466049E-2   -8.066607494941947E-3    4.117750472447682E-2   -8.567103167204259E-3    1.257072862977199E-1    5.125902272652827E-1
 6.565278841550000E9     1.335340133569321E-2    5.678175233583578E-1    4.204963667886847E-2   -8.301502144280314E-3    4.130892422906748E-2   -8.695232395508078E-3    1.271239069751758E-1    5.122328061407873E-1
 6.565292314500000E9     1.452347454177870E-2    5.678342758814862E-1    4.240798929155783E-2   -8.302533336278223E-3    4.174798992465960E-2   -8.869609122104558E-3    1.284528655001491E-1    5.118775487258966E-1
 6.565305787450000E9     1.569465067898728E-2    5.677287843332488E-1    4.260483985468214E-2   -8.530839833691940E-3    4.201738645713422E-2   -8.987096521780862E-3    1.300502789163593E-1    5.116590134380237E-1
 6.565319260400000E9     1.692150633092600E-2    5.675994531012889E-1    4.306199871387405E-2   -8.667868880479431E-3    4.221158350483593E-2   -9.259623792962007E-3    1.314998777827833E-1    5.111562981607977E-1
 6.565332733350000E9     1.813559467768922E-2    5.676102457350521E-1    4.325629529642186E-2   -8.959868256584106E-3    4.249625896435696E-2   -9.485467265806220E-3    1.331066846653014E-1    5.106086171798542E-1
 6.565346206300000E9     1.919124442134076E-2    5.674509266290505E-1    4.359581923298515E-2   -9.181674099476530E-3    4.286906692702767E-2   -9.718570053714265E-3    1.345273910394539E-1    5.102387908440496E-1
 6.565359679250000E9     2.037568961276734E-2    5.674111763779194E-1    4.387585096673065E-2   -9.355346236830127E-3    4.314912823399528E-2   -9.876234181378524E-3    1.358650710842129E-1    5.098679947706584E-1
 6.565373152200000E9     2.151306774103097E-2    5.672036651252643E-1    4.428869707929575E-2   -9.547820823618210E-3    4.354508102971552E-2   -1.016111616755913E-2    1.376102601169727E-1    5.092056454472681E-1
 6.565386625150000E9     2.276316291661853E-2    5.671391800021673E-1    4.456049534114215E-2   -9.822384187082167E-3    4.384152380768060E-2   -1.029062216262751E-2    1.390485689187934E-1    5.088411375310208E-1
 6.565400098100000E9     2.395024327798471E-2    5.669972711589802E-1    4.493406366964427E-2   -9.982020805544245E-3    4.411444089700296E-2   -1.068661229386910E-2    1.405187746565778E-1    5.084659955555931E-1
 6.565413571050000E9     2.507422433215469E-2    5.670454542505357E-1    4.516447353482939E-2   -1.020093107250951E-2    4.459422626715419E-2   -1.081415636422060E-2    1.421261935332871E-1    5.080181218333084E-1
 6.565427044000000E9     2.631589662800022E-2    5.668865140573238E-1    4.547409146369759E-2   -1.041685499735843E-2    4.474713258965403E-2   -1.108498422867702E-2    1.434755484325257E-1    5.074025459233072E-1
 6.565440516950000E9     2.745592836075764E-2    5.667299171130221E-1    4.590377986407516E-2   -1.071944441384616E-2    4.512203897843275E-2   -1.125582375003113E-2    1.451236453516320E-1    5.068238355100544E-1
 6.565453989900000E9     2.863510200831166E-2    5.666737424279943E-1    4.627117463185489E-2   -1.094856651542269E-2    4.546296084964949E-2   -1.146453982043833E-2    1.465334119483936E-1    5.064285289897930E-1
 6.565467462850000E9     2.989388415083025E-2    5.665752460538406E-1    4.666355335147217E-2   -1.122894364120074E-2    4.585981739058433E-2   -1.175926779325612E-2    1.482031160810945E-1    5.058087872390798E-1
 6.565480935800000E9     3.116822454761400E-2    5.664502687475665E-1    4.692036935809090E-2   -1.139866953055987E-2    4.617144999269975E-2   -1.202841342998995E-2    1.498065472791440E-1    5.053083592065881E-1
 6.565494408750000E9     3.225997261212046E-2    5.663081531517545E-1    4.715325134574687E-2   -1.164207192008757E-2    4.649203265562969E-2   -1.223341470307177E-2    1.513174077427363E-1    5.048338163155730E-1
 6.565507881700000E9     3.350026953498059E-2    5.661236870494412E-1    4.764704709485990E-2   -1.188513154227018E-2    4.682416688187308E-2   -1.252850424131603E-2    1.530087113407956E-1    5.041919070581027E-1
 6.565521354650000E9     3.466408929185206E-2    5.659132249224098E-1    4.798735892369346E-2   -1.217550801647152E-2    4.707945331834772E-2   -1.275349140120367E-2    1.546488764818958E-1    5.036917114427928E-1
 6.565534827600000E9     3.610276080711956E-2    5.658476177110092E-1    4.842680489541756E-2   -1.246923340391460E-2    4.749668408444849E-2   -1.302376465077473E-2    1.561959924032370E-1    5.031747827964910E-1
 6.565548300550000E9     3.720729167530838E-2    5.657839197026406E-1    4.880685553273905E-2   -1.258428286447797E-2    4.800506093918486E-2   -1.337222287151950E-2    1.577208387013489E-1    5.023947358287975E-1
 6.565561773500000E9     3.832322624478560E-2    5.656461470778308E-1    4.931626650257832E-2   -1.295107946587281E-2    4.839085210075463E-2   -1.361762137954162E-2    1.594786182891088E-1    5.018082256399834E-1
