#  HZ   S   RI   R     50.00 
! Rohde & Schwarz Vector Network Analyzer 
! Rohde-Schwarz,ZNB20-2Port,1311601062101988,3.16
! Created: UTC 3/20/2024, 4:55:45 PM
! freq[Hz]                re:S11                  im:S11                  re:S21                  im:S21                  re:S12                  im:S12                  re:S22                  im:S22
 6.564343152000000E9    -6.350866737247873E-2    5.656936892215753E-1    2.830713810627726E-2   -3.461681296529496E-4    2.785143550867256E-2   -9.922587997727493E-4    3.761560429048631E-2    5.266776075727828E-1
 6.564356647900000E9    -6.248538263402471E-2    5.658978994173429E-1    2.843842456360761E-2   -5.070811338223166E-4    2.796197467167513E-2   -9.475699116948119E-4    3.890678420784813E-2    5.266478815074679E-1
 6.564370143800000E9    -6.145107990440248E-2    5.659775261679081E-1    2.851260441541600E-2   -4.895711666249164E-4    2.805495340588156E-2   -1.005186912635632E-3    4.002518804921473E-2    5.265609060690437E-1
 6.564383639700000E9    -6.033557089223708E-2    5.659286015598067E-1    2.865030199994914E-2   -5.682053294672049E-4    2.820503823694302E-2   -1.039333446519239E-3    4.129544545257442E-2    5.265143250704540E-1
 6.564397135600000E9    -5.932531172866080E-2    5.662229414736479E-1    2.894184765112665E-2   -7.169965087268984E-4    2.838509849392885E-2   -1.142556451605227E-3    4.242679112718680E-2    5.266723665634303E-1
 6.564410631500000E9    -5.825700803345212E-2    5.661877458521569E-1    2.898693412792338E-2   -7.989139965253228E-4    2.839231797292894E-2   -1.293138612288408E-3    4.355743943553677E-2    5.264284809386288E-1
 6.564424127400000E9    -5.706218346925662E-2    5.664047265342249E-1    2.911243584426293E-2   -7.909211485285501E-4    2.858474046573364E-2   -1.319039482751891E-3    4.478619495043334E-2    5.263472609757250E-1
 6.564437623300000E9    -5.606317638261545E-2    5.665459241863284E-1    2.925886803996846E-2   -8.945892042025677E-4    2.868038513453325E-2   -1.337829257333827E-3    4.599336636258823E-2    5.262174502636208E-1
 6.564451119200000E9    -5.495617561455018E-2    5.665142507644740E-1    2.949549142831429E-2   -1.088383323760237E-3    2.890911547488959E-2   -1.511874942842956E-3    4.709682350527050E-2    5.262040899693350E-1
 6.564464615100000E9    -5.384103913559486E-2    5.666531533914825E-1    2.945781901732003E-2   -1.091941114554904E-3    2.912647629191811E-2   -1.477080769412395E-3    4.837772022755134E-2    5.260029410544276E-1
 6.564478111000000E9    -5.269685970467396E-2    5.667831945287798E-1    2.971804045700472E-2   -1.129101180703620E-3    2.914064447593091E-2   -1.663008597728680E-3    4.957618549759606E-2    5.258984618014295E-1
 6.564491606900000E9    -5.160519446905971E-2    5.669036069738808E-1    2.993703674579533E-2   -1.206276025325435E-3    2.927158774233705E-2   -1.660844187386431E-3    5.067907802031820E-2    5.258149111229846E-1
 6.564505102800000E9    -5.056166214733684E-2    5.669777878148708E-1    3.007601000076572E-2   -1.214908956021028E-3    2.951391774509253E-2   -1.791970738040805E-3    5.196718791439955E-2    5.257988067973965E-1
 6.564518598700000E9    -4.960564781111045E-2    5.670237060747445E-1    3.005848008278959E-2   -1.309727484222942E-3    2.972123537972301E-2   -1.789181671073537E-3    5.326960067282855E-2    5.256161907287158E-1
 6.564532094600000E9    -4.845211854522716E-2    5.671059675886307E-1    3.036667634325755E-2   -1.435410803332104E-3    2.973503631562396E-2   -1.839592244034193E-3    5.426682128103041E-2    5.253972943859839E-1
 6.564545590500000E9    -4.747380918510044E-2    5.671167087987565E-1    3.046271426467748E-2   -1.563517961667892E-3    2.988933096021948E-2   -2.109089974527512E-3    5.546543612020446E-2    5.254540850578585E-1
 6.564559086400000E9    -4.632433160226563E-2    5.673333723898332E-1    3.067408464290513E-2   -1.618428057542278E-3    3.013355029847573E-2   -2.072008971513846E-3    5.669315233472887E-2    5.251733831645741E-1
 6.564572582300000E9    -4.526217065646947E-2    5.673202499983657E-1    3.074091583601590E-2   -1.735494226448558E-3    3.032708232670302E-2   -2.192004326129677E-3    5.799308312601166E-2    5.251002873415668E-1
 6.564586078200000E9    -4.405913689518551E-2    5.675023270974375E-1    3.089796854235354E-2   -1.782209129274244E-3    3.035558623142783E-2   -2.182156588717431E-3    5.929532918701529E-2    5.249106184451504E-1
 6.564599574100000E9    -4.314552200463143E-2    5.675113975513943E-1    3.113436362570910E-2   -1.958331539964804E-3    3.058240408511433E-2   -2.302055383371074E-3    6.057277227117568E-2    5.250493162650153E-1
 6.564613070000000E9    -4.203078718181787E-2    5.676812408243918E-1    3.109168997137618E-2   -1.939431455306360E-3    3.074290574037085E-2   -2.433268553416710E-3    6.164002734288784E-2    5.247904666640226E-1
 6.564626565900000E9    -4.085562051105311E-2    5.675806356425407E-1    3.149347323511541E-2   -2.038251208321855E-3    3.100595285548935E-2   -2.472532399798265E-3    6.290897597459137E-2    5.246445524693384E-1
 6.564640061800000E9    -3.976821953826347E-2    5.676928796413020E-1    3.161673351432154E-2   -2.058481779095060E-3    3.108183752944891E-2   -2.634637992087669E-3    6.416388224917625E-2    5.245372678044135E-1
 6.564653557700000E9    -3.867692016679630E-2    5.677482488905513E-1    3.175775806258271E-2   -2.102100777082481E-3    3.128750245177649E-2   -2.750654918336086E-3    6.534278787893250E-2    5.242462943355425E-1
 6.564667053600000E9    -3.750540541381393E-2    5.677413962149302E-1    3.204561552386657E-2   -2.403669673245264E-3    3.146762709962056E-2   -2.765039608283612E-3    6.661061290432810E-2    5.240120928418408E-1
 6.564680549500000E9    -3.651684939054203E-2    5.678611842504048E-1    3.209304863587635E-2   -2.315112389278455E-3    3.160924669932141E-2   -2.892224487122384E-3    6.775157923227927E-2    5.240486684423918E-1
 6.564694045400000E9    -3.536096132729030E-2    5.679866334678920E-1    3.229126253451088E-2   -2.405867935030704E-3    3.171623161372555E-2   -2.904390021720491E-3    6.914110721977074E-2    5.238680409821703E-1
 6.564707541300000E9    -3.423558926034918E-2    5.679888336803323E-1    3.252293975723511E-2   -2.457454326033739E-3    3.193455239241117E-2   -3.090148116029855E-3    7.032214840834755E-2    5.235742069583692E-1
 6.564721037200000E9    -3.323973376891286E-2    5.680417855832074E-1    3.260422365254829E-2   -2.715855143998246E-3    3.221759081827091E-2   -3.167284239017700E-3    7.158920111970656E-2    5.234565742038387E-1
 6.564734533100000E9    -3.214110751553300E-2    5.680279889728280E-1    3.290781664938780E-2   -2.756904605035666E-3    3.229620913287527E-2   -3.217359127995683E-3    7.297592103618350E-2    5.233393183479889E-1
 6.564748029000000E9    -3.102578256982292E-2    5.681174469650911E-1    3.305478593133434E-2   -2.785987081960572E-3    3.252494757574163E-2   -3.408802346272904E-3    7.415934350521862E-2    5.232932595598803E-1
 6.564761524900000E9    -2.983623561565440E-2    5.682409215630329E-1    3.315127142866772E-2   -3.013933300420442E-3    3.272812454404572E-2   -3.513729848630739E-3    7.541500673345106E-2    5.229468820287929E-1
 6.564775020800000E9    -2.880132186685764E-2    5.682581037660507E-1    3.337102909321503E-2   -3.067355185713692E-3    3.283502882532584E-2   -3.500519292580078E-3    7.660024982179983E-2    5.227346668200771E-1
 6.564788516700000E9    -2.773031644130492E-2    5.682487657124722E-1    3.370257372743215E-2   -3.185788227336860E-3    3.293361656027439E-2   -3.719025901233844E-3    7.798776277411926E-2    5.225452458929896E-1
 6.564802012600000E9    -2.660918721571362E-2    5.682762893346448E-1    3.370312207687182E-2   -3.240811756729418E-3    3.322905368560469E-2   -3.727070560016152E-3    7.921527025975088E-2    5.225055619303406E-1
 6.564815508500000E9    -2.553716774666168E-2    5.683593452595241E-1    3.396634513196649E-2   -3.311098210693463E-3    3.345630297884607E-2   -3.884405245230032E-3    8.047287660355204E-2    5.223263594656584E-1
 6.564829004400000E9    -2.431805336136386E-2    5.682344863027639E-1    3.420666360268153E-2   -3.500670123408314E-3    3.357976977354014E-2   -4.028614102781803E-3    8.179524916626885E-2    5.220840828325909E-1
 6.564842500300000E9    -2.330305582244289E-2    5.683948722968936E-1    3.459253589536844E-2   -3.492558427968596E-3    3.382345420331004E-2   -4.054212349255040E-3    8.308746957564862E-2    5.218858296607616E-1
 6.564855996200000E9    -2.218845261122316E-2    5.684048427552196E-1    3.447914121502049E-2   -3.647918987345914E-3    3.399713385136308E-2   -4.277271026003735E-3    8.450557358210319E-2    5.216838012791510E-1
 6.564869492100000E9    -2.106102246313646E-2    5.684297788812844E-1    3.479844283262449E-2   -3.802168481571815E-3    3.419243461234991E-2   -4.296283780336807E-3    8.564639295631388E-2    5.214709918791790E-1
 6.564882988000000E9    -1.992073653202073E-2    5.684945558507966E-1    3.520392418507674E-2   -3.821911415721778E-3    3.442841819125709E-2   -4.377305203726979E-3    8.699711660918097E-2    5.211984102323755E-1
 6.564896483900000E9    -1.888727874173270E-2    5.683995530414766E-1    3.524314248083315E-2   -4.117003860276609E-3    3.455442258528454E-2   -4.559301833867998E-3    8.823770274954583E-2    5.210104831983133E-1
 6.564909979800000E9    -1.765594421009852E-2    5.684805463526635E-1    3.546292602474162E-2   -4.031641709828131E-3    3.472494593870380E-2   -4.634786343334961E-3    8.956189465377530E-2    5.207582854229910E-1
 6.564923475700000E9    -1.660610331716860E-2    5.685529123557310E-1    3.559195453021394E-2   -4.246724439833561E-3    3.500627496749441E-2   -4.799338574276491E-3    9.096971373726333E-2    5.204728472333432E-1
 6.564936971600000E9    -1.547592179763574E-2    5.685426777765338E-1    3.584033034468614E-2   -4.431675464915481E-3    3.520978002185773E-2   -4.893905759589887E-3    9.229019694218651E-2    5.202257544977534E-1
 6.564950467500000E9    -1.428951428772553E-2    5.685273349560094E-1    3.597754743802247E-2   -4.480119504933711E-3    3.543882754324524E-2   -5.063006782396972E-3    9.334480110119078E-2    5.199770251394746E-1
 6.564963963400000E9    -1.323589457920080E-2    5.684902246876716E-1    3.625526981172987E-2   -4.685092676659304E-3    3.562197144523976E-2   -5.155293502541837E-3    9.482722855526399E-2    5.196302260708657E-1
 6.564977459300000E9    -1.212739069619144E-2    5.685293121992373E-1    3.644229586014831E-2   -4.844424452039822E-3    3.586878753195449E-2   -5.230051631717351E-3    9.628414028042452E-2    5.194250015534740E-1
 6.564990955200000E9    -1.098834817304352E-2    5.685473370509176E-1    3.673212457429516E-2   -4.967727206740088E-3    3.610951620044180E-2   -5.371835984057158E-3    9.743824803610017E-2    5.193663544154995E-1
 6.565004451100000E9    -9.878801166655217E-3    5.684480296269401E-1    3.681616437208807E-2   -4.967492737588500E-3    3.626173203514009E-2   -5.592334132852025E-3    9.900805607640763E-2    5.187656622371298E-1
 6.565017947000000E9    -8.846430303282152E-3    5.685715322552900E-1    3.714117733480680E-2   -5.170950659962529E-3    3.655405698132885E-2   -5.617416881513111E-3    1.002486326173722E-1    5.187160306465849E-1
 6.565031442900000E9    -7.675303179773363E-3    5.685931474850252E-1    3.743536874312212E-2   -5.332383307595781E-3    3.674703766610524E-2   -5.764506440288039E-3    1.015831986372870E-1    5.183837472319459E-1
 6.565044938800000E9    -6.457132659846480E-3    5.685993823234864E-1    3.753135803264745E-2   -5.357145078113745E-3    3.700984854125625E-2   -5.936961308659016E-3    1.028052159652589E-1    5.180873305859299E-1
 6.565058434700000E9    -5.355948396515381E-3    5.685557015966914E-1    3.796099998580248E-2   -5.609534071732074E-3    3.721703990377497E-2   -6.095646376512789E-3    1.043387682903708E-1    5.179131179214042E-1
 6.565071930600000E9    -4.242807040619027E-3    5.684874126859865E-1    3.799449554671050E-2   -5.722246425180831E-3    3.732425176067124E-2   -6.242262627519938E-3    1.055247591197512E-1    5.175954513322144E-1
 6.565085426500000E9    -3.027529327735069E-3    5.684815892737703E-1    3.825024824620580E-2   -5.857351249848671E-3    3.768146910982741E-2   -6.365094661779134E-3    1.069869128054497E-1    5.172761093683340E-1
 6.565098922400000E9    -1.919927355762253E-3    5.684633077011261E-1    3.866243803703871E-2   -5.979407211474423E-3    3.790979494129645E-2   -6.581465456121010E-3    1.083511757522215E-1    5.169276080714359E-1
 6.565112418300000E9    -8.219220993158396E-4    5.683785651685647E-1    3.884780122909275E-2   -6.023881791702375E-3    3.817596929701298E-2   -6.695510037988750E-3    1.096686454071404E-1    5.167100912032319E-1
 6.565125914200000E9     4.347007454659627E-4    5.683609332891145E-1    3.908758805420517E-2   -6.410213762636353E-3    3.840976249625782E-2   -6.814641463630300E-3    1.111694464486248E-1    5.164020435000052E-1
 6.565139410100000E9     1.475217469533445E-3    5.683175630788998E-1    3.928805805249465E-2   -6.403395750612487E-3    3.864875111583416E-2   -7.021225589883458E-3    1.124873164060567E-1    5.159909982373173E-1
 6.565152906000000E9     2.620723290019742E-3    5.683469677522185E-1    3.945684566445052E-2   -6.529069747391409E-3    3.888404731139904E-2   -7.200521390248436E-3    1.139023190260348E-1    5.156275980665946E-1
 6.565166401900000E9     3.735617053658694E-3    5.682696205299674E-1    3.988920544200823E-2   -6.790536451106327E-3    3.918261041473675E-2   -7.291529803206997E-3    1.153745675461316E-1    5.153120068023765E-1
 6.565179897800000E9     4.895250726697230E-3    5.683261279929273E-1    3.999159074265003E-2   -7.057715314969411E-3    3.933984643117460E-2   -7.528279232194893E-3    1.168387806173533E-1    5.149947312669942E-1
 6.565193393700000E9     6.048465482702481E-3    5.682875478304027E-1    4.031438063424888E-2   -7.038346826918417E-3    3.967111174494575E-2   -7.680025406849338E-3    1.184166295363292E-1    5.147273840688427E-1
 6.565206889600000E9     7.165285276698538E-3    5.683508061986315E-1    4.070398101428869E-2   -7.156449762931571E-3    4.000071058903459E-2   -7.763442479914433E-3    1.195866323283444E-1    5.143795379299950E-1
 6.565220385500000E9     8.424966322184514E-3    5.681311962695138E-1    4.082520338244167E-2   -7.362850907000706E-3    4.024365067758856E-2   -7.947159832194723E-3    1.210116381333079E-1    5.139306761726887E-1
 6.565233881400000E9     9.541286526852457E-3    5.680022227633833E-1    4.114565947618640E-2   -7.624562192620984E-3    4.056110860048105E-2   -8.082404545330364E-3    1.224182805863084E-1    5.136546555803789E-1
 6.565247377300000E9     1.066635828993536E-2    5.679911963993634E-1    4.146906983667184E-2   -7.782167266285949E-3    4.077434432676144E-2   -8.374075040120402E-3    1.238517514303016E-1    5.132771388936432E-1
 6.565260873200000E9     1.185915428717506E-2    5.679420689979694E-1    4.170315483759181E-2   -7.779697392218885E-3    4.102997182446756E-2   -8.528653625778683E-3    1.254692143008037E-1    5.128739906852076E-1
 6.565274369100000E9     1.302933549721713E-2    5.678626753967815E-1    4.212254383716054E-2   -7.987804925510950E-3    4.129147630056937E-2   -8.704135786301016E-3    1.268488966167113E-1    5.124498377678760E-1
 6.565287865000000E9     1.417018660251217E-2    5.677679385653024E-1    4.233658699009829E-2   -8.272228052945699E-3    4.160724198090463E-2   -8.937861373440803E-3    1.282413195241442E-1    5.119268863431644E-1
 6.565301360900000E9     1.535790432367663E-2    5.678075290972034E-1    4.254117699591130E-2   -8.552197510688904E-3    4.190808748143682E-2   -9.162105575821826E-3    1.296146302396265E-1    5.116985475900350E-1
 6.565314856800000E9     1.649820823748934E-2    5.675617151698360E-1    4.285925922746919E-2   -8.590634664695488E-3    4.216798434370532E-2   -9.251088255355264E-3    1.310977435276732E-1    5.112062944090281E-1
 6.565328352700000E9     1.770759156320622E-2    5.674675107485170E-1    4.311736698446089E-2   -8.870286739674882E-3    4.260837439039787E-2   -9.517859721999708E-3    1.325519128661368E-1    5.107416427901580E-1
 6.565341848600000E9     1.884861890865568E-2    5.674776101012724E-1    4.347392808353005E-2   -8.942670918600914E-3    4.284193149067242E-2   -9.656074367434443E-3    1.341236637409119E-1    5.103455089553594E-1
 6.565355344500000E9     2.001356095778455E-2    5.673896526723252E-1    4.378331603787582E-2   -9.266863151202506E-3    4.306563874521132E-2   -9.875314021434156E-3    1.356229176129284E-1    5.098807132099220E-1
 6.565368840400000E9     2.113014330419793E-2    5.673143732012327E-1    4.415994847113787E-2   -9.470718649526986E-3    4.344816929012760E-2   -1.012770372033689E-2    1.370609790596151E-1    5.094026686537294E-1
 6.565382336300000E9     2.235369788601817E-2    5.672493444466571E-1    4.457210312340241E-2   -9.857541948586759E-3    4.371151084910212E-2   -1.032123002987291E-2    1.386661666918268E-1    5.089265383656147E-1
 6.565395832200000E9     2.359051620281913E-2    5.670252307846789E-1    4.476187847283711E-2   -9.928556307120792E-3    4.410191171749004E-2   -1.052432860929455E-2    1.400482711785143E-1    5.085263797610714E-1
 6.565409328100000E9     2.474657381344829E-2    5.669993010000225E-1    4.512078673236549E-2   -1.017001061066478E-2    4.444450758326157E-2   -1.074175745233315E-2    1.416705622750702E-1    5.079746028014341E-1
 6.565422824000000E9     2.588152528481088E-2    5.669907967543497E-1    4.542123000159853E-2   -1.054523045575565E-2    4.473821052840423E-2   -1.101268402793906E-2    1.433332771747475E-1    5.074378622678113E-1
 6.565436319900000E9     2.713468785923192E-2    5.667957814649290E-1    4.594658492102258E-2   -1.081884474005571E-2    4.506140167719652E-2   -1.110873851189663E-2    1.448201892457175E-1    5.070395200393425E-1
 6.565449815800000E9     2.834337164348716E-2    5.666252462918401E-1    4.610213201684733E-2   -1.094429980019675E-2    4.543630285730715E-2   -1.138538835137002E-2    1.462676623318661E-1    5.065598110241298E-1
 6.565463311700000E9     2.945207628817141E-2    5.664926403679218E-1    4.651637167906049E-2   -1.111515531666212E-2    4.575934937463828E-2   -1.175208818714936E-2    1.478542864080028E-1    5.059394749371050E-1
 6.565476807600000E9     3.072458400379368E-2    5.662440266485178E-1    4.696041919928086E-2   -1.127368919316036E-2    4.609656015552577E-2   -1.193327149823349E-2    1.495136687810994E-1    5.054970123082315E-1
 6.565490303500000E9     3.192800334836704E-2    5.663735997917499E-1    4.719108145882755E-2   -1.164756129159496E-2    4.644142505680365E-2   -1.221289862447616E-2    1.510911869150392E-1    5.046616057910032E-1
 6.565503799400000E9     3.327526413973666E-2    5.662016675089944E-1    4.756691609838132E-2   -1.188468356691209E-2    4.667620248986224E-2   -1.246153084603004E-2    1.526914493698010E-1    5.042937139287290E-1
 6.565517295300000E9     3.443568611673988E-2    5.661002230081545E-1    4.778580665623457E-2   -1.215131938393424E-2    4.712236219258602E-2   -1.267759912381515E-2    1.540801013501032E-1    5.038046325563296E-1
 6.565530791200000E9     3.555355077792097E-2    5.659300812290130E-1    4.829464044643172E-2   -1.239035176663016E-2    4.751311024269821E-2   -1.298068282389590E-2    1.556715268144640E-1    5.031693956725946E-1
 6.565544287100000E9     3.676237784293625E-2    5.657405887329864E-1    4.871775263621771E-2   -1.263406653532024E-2    4.785737703494095E-2   -1.335088158585147E-2    1.573973574814160E-1    5.025477469042977E-1
 6.565557783000000E9     3.801201317866109E-2    5.656906435284885E-1    4.904786311781522E-2   -1.284306081649567E-2    4.827751439123842E-2   -1.357045106209945E-2    1.591065010987259E-1    5.019259520629185E-1
