#  HZ   S   RI   R     50.00 
! Rohde & Schwarz Vector Network Analyzer 
! Rohde-Schwarz,ZNB20-2Port,1311601062101988,3.16
! Created: UTC 3/20/2024, 5:10:55 PM
! freq[Hz]                re:S11                  im:S11                  re:S21                  im:S21                  re:S12                  im:S12                  re:S22                  im:S22
 6.564586765000000E9    -4.522017005272301E-2    5.672341434678468E-1    2.983530350218505E-2   -1.148891867407672E-3    2.924960691297919E-2   -1.721569527631393E-3    5.569163890777106E-2    5.230482263859291E-1
 6.564599524925000E9    -4.415133762735440E-2    5.673568137685173E-1    2.989804650606798E-2   -1.347327988647198E-3    2.939861161643291E-2   -1.836126859925915E-3    5.676568869848282E-2    5.228677201439813E-1
 6.564612284850000E9    -4.310978478818567E-2    5.675147213091090E-1    3.015258025566029E-2   -1.431628359759776E-3    2.965500509729115E-2   -1.882866866116986E-3    5.785105342242558E-2    5.227781670193347E-1
 6.564625044775000E9    -4.205426824482807E-2    5.675641904822714E-1    3.038515354536066E-2   -1.460048724972983E-3    2.975743246513347E-2   -1.909787177951766E-3    5.905824980441675E-2    5.229257145975709E-1
 6.564637804700000E9    -4.098622426833799E-2    5.675363367775876E-1    3.035754798528820E-2   -1.592819530253310E-3    2.982498943793354E-2   -1.995252799471602E-3    6.024315247206177E-2    5.224621303845960E-1
 6.564650564625000E9    -4.004382871471918E-2    5.676006644164575E-1    3.040042419974174E-2   -1.752975098663190E-3    2.997024327087615E-2   -2.141521493846404E-3    6.128477998389013E-2    5.224537594109516E-1
 6.564663324550000E9    -3.897784326245522E-2    5.676764509448454E-1    3.067853710319248E-2   -1.675762818353187E-3    3.011816162819222E-2   -2.213324393534947E-3    6.241953229646650E-2    5.224203866291114E-1
 6.564676084475000E9    -3.806639866650193E-2    5.677005871711519E-1    3.093977121925895E-2   -1.809275066993200E-3    3.030682571640581E-2   -2.327679219146455E-3    6.365129701619558E-2    5.222987474474245E-1
 6.564688844400000E9    -3.690041981640985E-2    5.678506109726036E-1    3.105960891096703E-2   -1.874116740877309E-3    3.048538051291043E-2   -2.452729306735821E-3    6.487854777671551E-2    5.221000783025040E-1
 6.564701604325000E9    -3.590646302215592E-2    5.679073434326807E-1    3.110231619594905E-2   -1.963739217725347E-3    3.063945740925774E-2   -2.498025638560248E-3    6.590887542885646E-2    5.220497782310977E-1
 6.564714364250000E9    -3.476614136777278E-2    5.679317144606427E-1    3.134219174816327E-2   -1.906936217307560E-3    3.072861456611783E-2   -2.552834564568095E-3    6.698392446391027E-2    5.218834336163847E-1
 6.564727124175000E9    -3.390019054223878E-2    5.680424531402335E-1    3.154278556483662E-2   -2.353308870248361E-3    3.096828288352919E-2   -2.610700743154715E-3    6.826804746773768E-2    5.215536317531252E-1
 6.564739884100000E9    -3.279329504552118E-2    5.681339051252068E-1    3.168454311639366E-2   -2.334686600921731E-3    3.105593671641180E-2   -2.790443021864740E-3    6.942786531584230E-2    5.214639756360234E-1
 6.564752644025000E9    -3.175779486249811E-2    5.681156314606115E-1    3.184097236271334E-2   -2.298902754520857E-3    3.121772420106320E-2   -2.722954998378938E-3    7.054415185988826E-2    5.213272019437736E-1
 6.564765403950000E9    -3.072042925164099E-2    5.680532174515998E-1    3.210343488100975E-2   -2.369936225148671E-3    3.147277089943086E-2   -2.853196808657698E-3    7.160780436041260E-2    5.212621401051214E-1
 6.564778163875000E9    -2.964761675188900E-2    5.681334905930797E-1    3.196739565227221E-2   -2.428917525378838E-3    3.158845702108164E-2   -2.935188113823392E-3    7.291257265834947E-2    5.210724088558130E-1
 6.564790923800000E9    -2.863944994614087E-2    5.681731611570499E-1    3.226456002151367E-2   -2.494524773636141E-3    3.173980932849581E-2   -3.053494213641334E-3    7.407441509533264E-2    5.209560775637782E-1
 6.564803683725000E9    -2.761053269830645E-2    5.681419765284087E-1    3.248698775959163E-2   -2.657008821955598E-3    3.192069718173196E-2   -3.097440389759351E-3    7.519233181464763E-2    5.206971329426626E-1
 6.564816443650000E9    -2.654938198657261E-2    5.682918411325459E-1    3.261606727225205E-2   -2.707065117732483E-3    3.206609922725719E-2   -3.215569728667050E-3    7.629580643005505E-2    5.207438330133248E-1
 6.564829203575000E9    -2.558506135898214E-2    5.683226960558676E-1    3.271263933523395E-2   -2.826798454588684E-3    3.228404776613907E-2   -3.401396654147748E-3    7.769920335819148E-2    5.204385910052587E-1
 6.564841963500000E9    -2.451971355817716E-2    5.684215997510883E-1    3.293675225948520E-2   -2.793457015086652E-3    3.247041965848243E-2   -3.429579754462811E-3    7.888556414865858E-2    5.200729670035377E-1
 6.564854723425000E9    -2.359569685523703E-2    5.683610390169461E-1    3.311011474847710E-2   -2.897271695562129E-3    3.264606868060980E-2   -3.442146570090672E-3    8.006289608413959E-2    5.201936591783454E-1
 6.564867483350000E9    -2.251878319077539E-2    5.684565191567826E-1    3.327773417564477E-2   -2.967741661214359E-3    3.274502554242244E-2   -3.545025291256628E-3    8.121780514632776E-2    5.201159450614091E-1
 6.564880243275000E9    -2.135916298321733E-2    5.685501270433166E-1    3.351502907966267E-2   -3.166165797037575E-3    3.294631267047369E-2   -3.753164554089943E-3    8.227075715555672E-2    5.197444707918811E-1
 6.564893003200000E9    -2.034564644472452E-2    5.683663177935105E-1    3.354988164106068E-2   -3.334781067751453E-3    3.310696485584906E-2   -3.828610651779010E-3    8.379325934911895E-2    5.195709600781373E-1
 6.564905763125000E9    -1.928144113626266E-2    5.684347878914700E-1    3.375812517805853E-2   -3.356351914023442E-3    3.327532168967293E-2   -3.896306901447416E-3    8.473036478413416E-2    5.194902847342141E-1
 6.564918523050000E9    -1.831310467961430E-2    5.685592102630139E-1    3.400927717491140E-2   -3.396724840130105E-3    3.342080200047382E-2   -4.100748525579860E-3    8.604564002650769E-2    5.191636681911136E-1
 6.564931282975000E9    -1.720760899311900E-2    5.685219661593156E-1    3.418334766003529E-2   -3.545348340695233E-3    3.364377378197519E-2   -4.055081709595819E-3    8.719371407866737E-2    5.191593063312319E-1
 6.564944042900000E9    -1.625650899574516E-2    5.685828427614199E-1    3.443509299759190E-2   -3.644541254203246E-3    3.382871316210081E-2   -4.251413511735590E-3    8.854266661272089E-2    5.188662070367428E-1
 6.564956802825000E9    -1.509588336642902E-2    5.685997319037365E-1    3.470498420673433E-2   -3.877866341132804E-3    3.401237071713103E-2   -4.370396535262535E-3    8.963686214241535E-2    5.186847441306169E-1
 6.564969562750000E9    -1.405283127744157E-2    5.685330371329620E-1    3.469524255802974E-2   -3.935722564491339E-3    3.420328036854749E-2   -4.444362500373579E-3    9.084643037017560E-2    5.183573333817499E-1
 6.564982322675000E9    -1.301532742471839E-2    5.686102613687198E-1    3.492997665292784E-2   -3.991019728510795E-3    3.438979027533359E-2   -4.640135495690257E-3    9.218072334131105E-2    5.180753195108996E-1
 6.564995082600000E9    -1.200066464986967E-2    5.685818031865649E-1    3.510469312175891E-2   -4.117362264049134E-3    3.461102732301266E-2   -4.576057340872761E-3    9.340336990551498E-2    5.180720325375292E-1
 6.565007842525000E9    -1.096715208519301E-2    5.686718214428206E-1    3.540907899457980E-2   -3.996121880816428E-3    3.474305235457929E-2   -4.713610723987559E-3    9.453096685450370E-2    5.177574985997649E-1
 6.565020602450000E9    -9.939263635134509E-3    5.686651645200970E-1    3.546947416013399E-2   -4.324754729218924E-3    3.500649862688321E-2   -4.885594727641213E-3    9.593274333396713E-2    5.174462561570197E-1
 6.565033362375000E9    -8.724898356228420E-3    5.686185064371528E-1    3.566612449990788E-2   -4.468153399861309E-3    3.512541137468621E-2   -4.953739159991233E-3    9.707051573698777E-2    5.173411239978535E-1
 6.565046122300000E9    -7.738366261466440E-3    5.686322375179363E-1    3.602542773944955E-2   -4.600989453063705E-3    3.534692871674465E-2   -5.030288370008671E-3    9.821317663939128E-2    5.171254677079868E-1
 6.565058882225000E9    -6.662738353831817E-3    5.686200849638477E-1    3.598983157088589E-2   -4.596747038361181E-3    3.559104056807186E-2   -5.247437440408331E-3    9.957528621889594E-2    5.168651933868023E-1
 6.565071642150000E9    -5.638697789028571E-3    5.685688684105688E-1    3.646917605504659E-2   -4.738764627489355E-3    3.582132262404228E-2   -5.382518152472540E-3    1.007357254913099E-1    5.165284167477328E-1
 6.565084402075000E9    -4.596796587284239E-3    5.684905613356002E-1    3.644601946067635E-2   -4.877291431501831E-3    3.599915470753338E-2   -5.460857853084288E-3    1.021056403548336E-1    5.163550357482172E-1
 6.565097162000000E9    -3.488169937449282E-3    5.685189293648522E-1    3.664890681867453E-2   -5.011175803072740E-3    3.615688669716388E-2   -5.571192259542870E-3    1.032922069267708E-1    5.160280705748577E-1
 6.565109921925000E9    -2.445509766585235E-3    5.685901285116668E-1    3.710630045605556E-2   -5.195330945225850E-3    3.647078918650561E-2   -5.750344859106582E-3    1.046125085681780E-1    5.158933638328160E-1
 6.565122681850000E9    -1.339195836157601E-3    5.685231352235381E-1    3.726485264966409E-2   -5.241133732948515E-3    3.665329514335269E-2   -5.721290464030242E-3    1.058229298743896E-1    5.154847478930804E-1
 6.565135441775000E9    -2.171265715334915E-4    5.683239475638996E-1    3.751615532658618E-2   -5.486831992829055E-3    3.681257140655345E-2   -5.985340506003114E-3    1.070435645905940E-1    5.153618726090410E-1
 6.565148201700000E9     8.269532923242450E-4    5.684633631541860E-1    3.767382968766634E-2   -5.596642295537273E-3    3.705959961283611E-2   -6.041434356504064E-3    1.083794624630006E-1    5.148730707747863E-1
 6.565160961625000E9     1.873698371576048E-3    5.683665858376971E-1    3.776967227150037E-2   -5.660678274799743E-3    3.733803638306637E-2   -6.194602404623265E-3    1.097695392632205E-1    5.146698600497471E-1
 6.565173721550000E9     2.963781956328159E-3    5.683709622478271E-1    3.818643514824737E-2   -5.781307978666062E-3    3.755333580837249E-2   -6.366289520708081E-3    1.107758234321611E-1    5.143857169835971E-1
 6.565186481475000E9     3.919374902779786E-3    5.683784403185379E-1    3.834522004444078E-2   -6.042480373859924E-3    3.768571802176567E-2   -6.519003882881587E-3    1.123943269963871E-1    5.142247881884646E-1
 6.565199241400000E9     4.987411969646202E-3    5.683667089530440E-1    3.853614032536960E-2   -6.122517594396866E-3    3.788907829804936E-2   -6.661769278378371E-3    1.134543354259754E-1    5.137163125153624E-1
 6.565212001325000E9     6.123842337346663E-3    5.683315088603932E-1    3.883515873248826E-2   -6.258753876080258E-3    3.815630892807708E-2   -6.762297761992849E-3    1.148621052831123E-1    5.135047807209278E-1
 6.565224761250000E9     7.206938403015970E-3    5.683263468379089E-1    3.903830986870756E-2   -6.469762565065060E-3    3.837316608296252E-2   -6.887269797307394E-3    1.162028691771303E-1    5.133074117091561E-1
 6.565237521175000E9     8.438268250537034E-3    5.682344159115552E-1    3.949531764375441E-2   -6.477313466853065E-3    3.868556539986200E-2   -7.063832238197365E-3    1.174281588576471E-1    5.129504870625399E-1
 6.565250281100000E9     9.376085883140303E-3    5.682248319344796E-1    3.952685562199632E-2   -6.670600932160436E-3    3.900046270917257E-2   -7.160204463468444E-3    1.188119824048607E-1    5.125778541820541E-1
 6.565263041025000E9     1.055488222382856E-2    5.681672469728929E-1    3.977019052543846E-2   -6.712752979175582E-3    3.920277385990636E-2   -7.375186390028480E-3    1.201335852142722E-1    5.123029554858581E-1
 6.565275800950000E9     1.159723377019685E-2    5.681749427029101E-1    4.002347572079350E-2   -7.123657817410969E-3    3.938386550411015E-2   -7.400504527476523E-3    1.213993355635076E-1    5.121065708717715E-1
 6.565288560875000E9     1.263167833300213E-2    5.680084205491545E-1    4.032759907278859E-2   -7.007102229557681E-3    3.949829760373434E-2   -7.660552201828354E-3    1.227460542017445E-1    5.115649730513764E-1
 6.565301320800000E9     1.369450068093453E-2    5.679934405115581E-1    4.054030978587545E-2   -7.238976350592233E-3    3.996795029183650E-2   -7.774059375706996E-3    1.240429446012780E-1    5.112234848081200E-1
 6.565314080725000E9     1.484946817387073E-2    5.679765679739135E-1    4.085018527965413E-2   -7.529318497937884E-3    4.013160244548862E-2   -7.994839609665374E-3    1.253927658466154E-1    5.109345351253995E-1
 6.565326840650000E9     1.592344091262357E-2    5.678389051582986E-1    4.104998420649459E-2   -7.476943076508059E-3    4.040062022039263E-2   -8.072856190444589E-3    1.268145267210989E-1    5.106399710122539E-1
 6.565339600575000E9     1.700806112053386E-2    5.677816357884037E-1    4.136318207854532E-2   -7.801889842799230E-3    4.065680530447845E-2   -8.275438689782299E-3    1.280953665993095E-1    5.103762990302895E-1
 6.565352360500000E9     1.810325112246522E-2    5.676956364159922E-1    4.174077966754670E-2   -7.910746948147503E-3    4.092846599934680E-2   -8.400873715289366E-3    1.295831267525235E-1    5.097992752675158E-1
 6.565365120425000E9     1.921660961898751E-2    5.676985504249129E-1    4.199752347327439E-2   -8.174302511305654E-3    4.125467872020547E-2   -8.603189216936065E-3    1.308110854916303E-1    5.095371748251281E-1
 6.565377880350000E9     2.035027648894310E-2    5.676017677740535E-1    4.223544067868832E-2   -8.262056514091589E-3    4.144733722510822E-2   -8.783050262799783E-3    1.322082491558671E-1    5.090698493665250E-1
 6.565390640275000E9     2.140181711838142E-2    5.675420074351393E-1    4.250991503201115E-2   -8.440198123246870E-3    4.163211397247936E-2   -9.084248513679196E-3    1.336596557703026E-1    5.086879936986354E-1
 6.565403400200000E9     2.246641845233453E-2    5.675113025942541E-1    4.268377715177574E-2   -8.722513857723328E-3    4.192259480698831E-2   -9.137569575468555E-3    1.350449807798213E-1    5.083345032899914E-1
 6.565416160125000E9     2.375587050370273E-2    5.673218218304408E-1    4.292286940331878E-2   -8.752893970161529E-3    4.222245753553136E-2   -9.306302854789781E-3    1.364464785270130E-1    5.079041326643264E-1
 6.565428920050000E9     2.465964672196793E-2    5.672430728080498E-1    4.321404959131157E-2   -8.976429314735780E-3    4.250080924047621E-2   -9.532085557234154E-3    1.378755966940315E-1    5.075488719478179E-1
 6.565441679975000E9     2.593051804309556E-2    5.671479716833611E-1    4.341841925378726E-2   -9.112815979910640E-3    4.288188498678684E-2   -9.784135404504362E-3    1.391898333926685E-1    5.071756568586296E-1
 6.565454439900000E9     2.696966174296061E-2    5.671088651977267E-1    4.395296954876967E-2   -9.499993557234321E-3    4.312289193500699E-2   -9.933975648710519E-3    1.405793168636391E-1    5.067190444514026E-1
 6.565467199825000E9     2.811986812085569E-2    5.668921006323484E-1    4.416949277749112E-2   -9.554492076222424E-3    4.351800939849491E-2   -1.012755078569851E-2    1.420940358344413E-1    5.062841979904619E-1
 6.565479959750000E9     2.913092051925612E-2    5.668921395409732E-1    4.438796285360769E-2   -9.788426746015256E-3    4.373781407378077E-2   -1.032950787611780E-2    1.434283450264060E-1    5.057571636952524E-1
 6.565492719675000E9     3.032056206002304E-2    5.668010685913396E-1    4.491177513130458E-2   -9.997449814538857E-3    4.397755984836325E-2   -1.047800918726995E-2    1.449330510615346E-1    5.054573048117055E-1
 6.565505479600000E9     3.148814339272780E-2    5.665921442415109E-1    4.498846883828064E-2   -1.020148049517037E-2    4.433010651841678E-2   -1.062924383159135E-2    1.464441313400677E-1    5.049676175145191E-1
 6.565518239525000E9     3.256984828559782E-2    5.665198904792285E-1    4.548895103171733E-2   -1.035479459044111E-2    4.472585566029692E-2   -1.091725394158098E-2    1.478575339273525E-1    5.045385268757897E-1
 6.565530999450000E9     3.376518049849084E-2    5.663698582874557E-1    4.582718275046505E-2   -1.062132782714871E-2    4.495900638641460E-2   -1.117761836983256E-2    1.492406269125210E-1    5.040561173304202E-1
 6.565543759375000E9     3.472257855563304E-2    5.663801615283468E-1    4.602282921846833E-2   -1.084159917229188E-2    4.529264853121064E-2   -1.140104508451066E-2    1.508977872430969E-1    5.034472013386685E-1
 6.565556519300000E9     3.590104054442338E-2    5.662715021985192E-1    4.630356276509413E-2   -1.100911198076471E-2    4.572567694334848E-2   -1.159793897912189E-2    1.521127051307128E-1    5.030282217090691E-1
 6.565569279225000E9     3.698469693140318E-2    5.661094893069754E-1    4.666425652480194E-2   -1.109271930955878E-2    4.595097399564170E-2   -1.183938233959975E-2    1.536596183762137E-1    5.025202300082332E-1
 6.565582039150000E9     3.821354621655434E-2    5.659562181593510E-1    4.707524532671339E-2   -1.146582953411888E-2    4.629881348319648E-2   -1.206344052900574E-2    1.551806789579722E-1    5.020472443345938E-1
 6.565594799075000E9     3.939489061570416E-2    5.658210550568107E-1    4.743328689519398E-2   -1.164816175316298E-2    4.666234629705059E-2   -1.228008468601635E-2    1.567626950435099E-1    5.015453202573205E-1
 6.565607559000000E9     4.054601898623260E-2    5.657193586586391E-1    4.771338711830147E-2   -1.187167402230357E-2    4.688968210205256E-2   -1.259784646124511E-2    1.581016505908175E-1    5.011282640715178E-1
 6.565620318925000E9     4.163720829784964E-2    5.655929415027848E-1    4.804073751008082E-2   -1.220360169185370E-2    4.725750307455829E-2   -1.272287818830668E-2    1.596247210969127E-1    5.004229691215272E-1
 6.565633078850000E9     4.276410799394472E-2    5.654886998663428E-1    4.849267345770923E-2   -1.242722681720995E-2    4.768200195760821E-2   -1.297083672994143E-2    1.611961449639736E-1    4.999869615402455E-1
 6.565645838775000E9     4.391641781277919E-2    5.652559050837962E-1    4.888380281363138E-2   -1.267815707126894E-2    4.808369912146607E-2   -1.334681776330133E-2    1.627673112523766E-1    4.994176415963938E-1
 6.565658598700000E9     4.510953330164683E-2    5.650894291814401E-1    4.922895823926993E-2   -1.284930893581157E-2    4.843120972700279E-2   -1.352114715774358E-2    1.642111236810405E-1    4.988795799538986E-1
 6.565671358625000E9     4.622140957178578E-2    5.649033723833367E-1    4.956800025895112E-2   -1.321950166124609E-2    4.880126189683483E-2   -1.393161840576445E-2    1.659102167840210E-1    4.981701666712980E-1
 6.565684118550000E9     4.736043767482525E-2    5.647572583095262E-1    4.989419962355983E-2   -1.351500412243153E-2    4.912491998731727E-2   -1.411256642492934E-2    1.673940518144360E-1    4.975746179463207E-1
 6.565696878475000E9     4.847847022905347E-2    5.646160002981704E-1    5.032851941298969E-2   -1.373372329724451E-2    4.952152392937285E-2   -1.440537033330287E-2    1.689898431659530E-1    4.969423593861650E-1
 6.565709638400000E9     4.966262423678380E-2    5.643900536349857E-1    5.074790836825946E-2   -1.408825480294888E-2    4.989672027615980E-2   -1.472979279954586E-2    1.705425613257667E-1    4.964634875629189E-1
 6.565722398325000E9     5.085073670891130E-2    5.642243124693975E-1    5.105950958828881E-2   -1.435565797063158E-2    5.024048379261538E-2   -1.491702080653918E-2    1.721299813249324E-1    4.957868305323722E-1
 6.565735158250000E9     5.212069811123302E-2    5.640734530907534E-1    5.144813562725517E-2   -1.471764090487669E-2    5.057164173478803E-2   -1.516958542016697E-2    1.737250601415448E-1    4.950840055222041E-1
