#  HZ   S   RI   R     50.00 
! Rohde & Schwarz Vector Network Analyzer 
! Rohde-Schwarz,ZNB20-2Port,1311601062101988,3.16
! Created: UTC 3/20/2024, 4:55:49 PM
! freq[Hz]                re:S11                  im:S11                  re:S21                  im:S21                  re:S12                  im:S12                  re:S22                  im:S22
 6.564338358000000E9    -6.386816017886478E-2    5.657081134482109E-1    2.825343463752015E-2   -3.534184579268301E-4    2.776363656760135E-2   -8.553436330391288E-4    3.721406828772523E-2    5.267469095872459E-1
 6.564351872225000E9    -6.290072031578958E-2    5.657116145672596E-1    2.831573780426216E-2   -3.921317615173775E-4    2.781236913706634E-2   -9.499033940758491E-4    3.845362588501888E-2    5.266840809599321E-1
 6.564365386450000E9    -6.179227613910728E-2    5.658783658155608E-1    2.847892192660674E-2   -6.834656899549053E-4    2.795749654301022E-2   -9.874687659165975E-4    3.939819223882909E-2    5.266431529532529E-1
 6.564378900675000E9    -6.073566787275369E-2    5.659617616599910E-1    2.872251516337880E-2   -6.676700007131758E-4    2.814551579914685E-2   -1.060391256097904E-3    4.079684937367575E-2    5.265675820553674E-1
 6.564392414900000E9    -5.958934718083225E-2    5.662097283929999E-1    2.877506743858664E-2   -6.648004031087387E-4    2.832097367016687E-2   -1.224785070715677E-3    4.199906748754644E-2    5.264738616670447E-1
 6.564405929125000E9    -5.856733107537909E-2    5.662650842476005E-1    2.883657348313622E-2   -7.849727501932693E-4    2.846176267021061E-2   -1.212501759328002E-3    4.328225427642001E-2    5.264887282084005E-1
 6.564419443350000E9    -5.759995046070460E-2    5.663445209658748E-1    2.920706849722745E-2   -8.550109769175501E-4    2.863352937179760E-2   -1.356244312763137E-3    4.429850615210056E-2    5.262251218392991E-1
 6.564432957575000E9    -5.638988969201068E-2    5.664117613856280E-1    2.928002552159184E-2   -8.836840534100683E-4    2.881192457019068E-2   -1.285985950924834E-3    4.568798457738908E-2    5.261664585714702E-1
 6.564446471800000E9    -5.523051835931179E-2    5.665085086214363E-1    2.939892469615358E-2   -7.981496373891480E-4    2.882642126497333E-2   -1.447160270034395E-3    4.671964671682328E-2    5.262842068154093E-1
 6.564459986025000E9    -5.418862104510065E-2    5.666996901358559E-1    2.962899306460506E-2   -1.001683734949675E-3    2.899794957796968E-2   -1.481280212904657E-3    4.792110175166719E-2    5.261138771993976E-1
 6.564473500250000E9    -5.319042866776302E-2    5.666936993589500E-1    2.975045529695135E-2   -1.081974002473785E-3    2.916609693930122E-2   -1.564481735442683E-3    4.921229381061515E-2    5.258997623758098E-1
 6.564487014475000E9    -5.203570475284072E-2    5.667862641811251E-1    2.975556655979790E-2   -1.147573983111219E-3    2.934741972980449E-2   -1.584664597049262E-3    5.039668440241128E-2    5.259044259427638E-1
 6.564500528700000E9    -5.101649064409527E-2    5.668563644990889E-1    2.995947154645635E-2   -1.186819447789066E-3    2.936481339051653E-2   -1.702880158423054E-3    5.155313200321356E-2    5.257801588151340E-1
 6.564514042925000E9    -4.987074418483636E-2    5.669959434569137E-1    3.019256645290326E-2   -1.378307493709494E-3    2.954269145556044E-2   -1.781491657314664E-3    5.271749660046653E-2    5.255541222340093E-1
 6.564527557150000E9    -4.887021580069928E-2    5.670334546865589E-1    3.028195343076363E-2   -1.266526754541366E-3    2.971124947390752E-2   -1.818648771325158E-3    5.403671952818525E-2    5.255365745623641E-1
 6.564541071375000E9    -4.771331860160865E-2    5.670931065242480E-1    3.039132376280471E-2   -1.473842200570432E-3    2.994151607574524E-2   -1.901838524339566E-3    5.531200206496901E-2    5.254477020673366E-1
 6.564554585600000E9    -4.672922730027896E-2    5.673177652139988E-1    3.061672549444385E-2   -1.557674182752246E-3    3.001812731102530E-2   -2.064401424877294E-3    5.643437044780161E-2    5.252734948324228E-1
 6.564568099825000E9    -4.555109797979364E-2    5.673437890695451E-1    3.077312647371416E-2   -1.611147747544401E-3    3.022637584139323E-2   -2.120313387323782E-3    5.769740034479556E-2    5.251684530569329E-1
 6.564581614050000E9    -4.447216578972481E-2    5.673790863056158E-1    3.091738156171905E-2   -1.704762542023658E-3    3.037561849621259E-2   -2.305118577942367E-3    5.887623414188993E-2    5.249288375754400E-1
 6.564595128275000E9    -4.336927131243321E-2    5.674379114211016E-1    3.096147905001834E-2   -1.852675429086837E-3    3.045905528238618E-2   -2.341840636381387E-3    5.997655148856854E-2    5.247776610953383E-1
 6.564608642500000E9    -4.227062055481109E-2    5.675996945074177E-1    3.131227678724819E-2   -1.824105606841014E-3    3.075936796154958E-2   -2.408685068216266E-3    6.134712207139776E-2    5.248583042501387E-1
 6.564622156725000E9    -4.115382808111150E-2    5.676480017846132E-1    3.149983872531608E-2   -2.051430934397159E-3    3.087183676568279E-2   -2.538239824158349E-3    6.263259918051380E-2    5.247049728569599E-1
 6.564635670950000E9    -4.013092542510525E-2    5.677939903002378E-1    3.160551511192214E-2   -2.116974842467592E-3    3.106687445372658E-2   -2.537683468322726E-3    6.386389711643252E-2    5.244010476893028E-1
 6.564649185175000E9    -3.914022135144343E-2    5.677760991656245E-1    3.181032841241467E-2   -2.179234963309344E-3    3.123119796063379E-2   -2.717522604750166E-3    6.500652892305801E-2    5.242599082531604E-1
 6.564662699400000E9    -3.796407998626080E-2    5.679087713842963E-1    3.193374757550940E-2   -2.269159842080425E-3    3.150126385224194E-2   -2.776421611408300E-3    6.619586173777045E-2    5.241723363347515E-1
 6.564676213625000E9    -3.693575411566067E-2    5.677809534922164E-1    3.196922874496813E-2   -2.514309015911472E-3    3.161415311038963E-2   -2.849213041351454E-3    6.756843969656701E-2    5.241920556853535E-1
 6.564689727850000E9    -3.573134022911823E-2    5.679469822007218E-1    3.222527841971728E-2   -2.444334055612318E-3    3.178605173670358E-2   -2.983365573444209E-3    6.882804597953360E-2    5.238779878191753E-1
 6.564703242075000E9    -3.463947063094455E-2    5.680118461274567E-1    3.249554504871720E-2   -2.546087225933099E-3    3.193318730545202E-2   -3.051053456904922E-3    6.991550226455807E-2    5.238555026977885E-1
 6.564716756300000E9    -3.351779795824779E-2    5.679338321567245E-1    3.254823848036408E-2   -2.722626528180605E-3    3.212974685719185E-2   -3.095159955091873E-3    7.122761352827044E-2    5.234926733011058E-1
 6.564730270525000E9    -3.246324693947874E-2    5.680465105975224E-1    3.281798988860134E-2   -2.615848703922677E-3    3.220883133995400E-2   -3.184790335398582E-3    7.245931612023047E-2    5.233929547317344E-1
 6.564743784750000E9    -3.132915258501696E-2    5.681525788740920E-1    3.301180946080869E-2   -2.845794329692937E-3    3.254888999311486E-2   -3.338746275384190E-3    7.379951952064120E-2    5.232485582224344E-1
 6.564757298975000E9    -3.033718714097347E-2    5.682303093521314E-1    3.315748245952251E-2   -2.918391999667965E-3    3.266806674171564E-2   -3.419778095498956E-3    7.517460033632085E-2    5.230250386501302E-1
 6.564770813200000E9    -2.915184195832083E-2    5.681395051663950E-1    3.335774892559768E-2   -2.995542768550589E-3    3.287681322947555E-2   -3.611091414654780E-3    7.616930034745981E-2    5.228630234228802E-1
 6.564784327425000E9    -2.800855462500908E-2    5.682611171324775E-1    3.353677919723489E-2   -3.157308372449868E-3    3.297292960433609E-2   -3.665898701754175E-3    7.757780556343315E-2    5.227119539071693E-1
 6.564797841650000E9    -2.691457833048115E-2    5.682372626990595E-1    3.370215740636987E-2   -3.141292402863584E-3    3.318647227754043E-2   -3.660246526972712E-3    7.891125634434785E-2    5.225027996323266E-1
 6.564811355875000E9    -2.582936304601591E-2    5.683640361214924E-1    3.394348275567617E-2   -3.408665716715564E-3    3.337501517742270E-2   -3.823032520234818E-3    8.022296074853184E-2    5.224263623683807E-1
 6.564824870100000E9    -2.475048132433774E-2    5.683650486323611E-1    3.413620273565515E-2   -3.464359552056265E-3    3.364865393973679E-2   -3.918254028540939E-3    8.133369072635607E-2    5.219867178367000E-1
 6.564838384325000E9    -2.363643927537825E-2    5.684223325700208E-1    3.422384926385253E-2   -3.441008641174782E-3    3.378693036164556E-2   -4.116821385783060E-3    8.268155311611924E-2    5.218181694152983E-1
 6.564851898550000E9    -2.249102127538690E-2    5.684214211843081E-1    3.464332066519521E-2   -3.681777666477993E-3    3.398622135657531E-2   -4.167587166219295E-3    8.409532372837430E-2    5.217933141885915E-1
 6.564865412775000E9    -2.137946567774958E-2    5.684601857461575E-1    3.473987162481524E-2   -3.824901696070947E-3    3.404090666303644E-2   -4.279980604464557E-3    8.523610855672079E-2    5.214443500164777E-1
 6.564878927000000E9    -2.027031054193185E-2    5.683952142860991E-1    3.500501361518304E-2   -3.905142980528544E-3    3.440154062149574E-2   -4.331723903163521E-3    8.654459667731763E-2    5.212887270063499E-1
 6.564892441225000E9    -1.909972204086353E-2    5.684545576046984E-1    3.512121086997160E-2   -4.057864902832519E-3    3.452530870433662E-2   -4.448377020993351E-3    8.796874271437916E-2    5.207858234684609E-1
 6.564905955450000E9    -1.798602738766007E-2    5.685644850240018E-1    3.533216581660908E-2   -4.186148893227265E-3    3.479466035378968E-2   -4.607178580847560E-3    8.927583419801613E-2    5.207033917068991E-1
 6.564919469675000E9    -1.690358613483586E-2    5.684652934179610E-1    3.565974834978657E-2   -4.326920031011526E-3    3.498621238612855E-2   -4.785712854594413E-3    9.058778451887861E-2    5.205383943710333E-1
 6.564932983900000E9    -1.575044428373097E-2    5.685243015937248E-1    3.575275420783282E-2   -4.403219998129884E-3    3.519165850942811E-2   -4.861079563473126E-3    9.165652019042281E-2    5.203340052043133E-1
 6.564946498125000E9    -1.472451216201541E-2    5.684294895389466E-1    3.593407485662051E-2   -4.374192373890915E-3    3.538002156125260E-2   -5.063390722776518E-3    9.326296455305277E-2    5.202068432420200E-1
 6.564960012350000E9    -1.351044565549794E-2    5.684937302009676E-1    3.624813332803596E-2   -4.622344567172410E-3    3.563702351259342E-2   -5.115382069831653E-3    9.441271501852734E-2    5.198864683887811E-1
 6.564973526575000E9    -1.244763984627373E-2    5.684737418015959E-1    3.654805217554190E-2   -4.626942689100894E-3    3.583618617368751E-2   -5.299872465807342E-3    9.577580081820825E-2    5.195763504101487E-1
 6.564987040800000E9    -1.136809098431365E-2    5.683891219877509E-1    3.668079838109928E-2   -4.738776569315753E-3    3.601661437661011E-2   -5.395785691970900E-3    9.718593338155600E-2    5.192899430723863E-1
 6.565000555025000E9    -1.022629279293221E-2    5.685131808917315E-1    3.679106219072110E-2   -5.061581638356913E-3    3.627083213426101E-2   -5.487464231219937E-3    9.847273986351075E-2    5.190553315409687E-1
 6.565014069250000E9    -8.999317765082008E-3    5.684653905376006E-1    3.709830375171830E-2   -5.200692496537479E-3    3.648844448921565E-2   -5.643226394434347E-3    9.979980140956164E-2    5.189820692582648E-1
 6.565027583475000E9    -7.858277027909439E-3    5.685948233066549E-1    3.745094647105900E-2   -5.301187902782758E-3    3.669144595535349E-2   -5.799043670138045E-3    1.012427610805883E-1    5.185088727267406E-1
 6.565041097700000E9    -6.700863474563581E-3    5.684684371450247E-1    3.750830515782028E-2   -5.440141258544686E-3    3.702119951858166E-2   -5.961565039018118E-3    1.025647947690388E-1    5.182742796708183E-1
 6.565054611925000E9    -5.624956357098081E-3    5.685057882697829E-1    3.767141797401841E-2   -5.574658369628202E-3    3.721093355076684E-2   -6.071565156903271E-3    1.039699718093832E-1    5.179213285308963E-1
 6.565068126150000E9    -4.431798514879158E-3    5.684400476444263E-1    3.809859315357608E-2   -5.710159778884807E-3    3.734837930671251E-2   -6.166575008179901E-3    1.052241237384579E-1    5.176970413486671E-1
 6.565081640375000E9    -3.380423091685964E-3    5.685065586267073E-1    3.832295247976469E-2   -5.896147756914601E-3    3.764915063134346E-2   -6.319376644939539E-3    1.066664602885562E-1    5.173670013459070E-1
 6.565095154600000E9    -2.306156983361206E-3    5.684434031816356E-1    3.856131154070461E-2   -5.732302048798587E-3    3.782321166457569E-2   -6.470734184229132E-3    1.081374295961520E-1    5.172016080787308E-1
 6.565108668825000E9    -1.020761929012915E-3    5.683313675572622E-1    3.873092256713249E-2   -6.074061362086128E-3    3.815839256992221E-2   -6.633075781762450E-3    1.094443590326705E-1    5.167466835340813E-1
 6.565122183050000E9    -5.790889541051187E-5    5.684089103818737E-1    3.906119960914019E-2   -6.289983627717152E-3    3.840526241926699E-2   -6.741985019521100E-3    1.107175338196677E-1    5.164496619847765E-1
 6.565135697275000E9     1.134487091279055E-3    5.684828553859380E-1    3.935818267335645E-2   -6.448749446641025E-3    3.863938663026383E-2   -6.944113190025822E-3    1.121722987718111E-1    5.160771712602105E-1
 6.565149211500000E9     2.324374774123286E-3    5.684415504436998E-1    3.961782015210179E-2   -6.647314955988454E-3    3.882469204705452E-2   -7.073335946893237E-3    1.135996208244929E-1    5.157423259049571E-1
 6.565162725725000E9     3.380395294809240E-3    5.683121164691678E-1    3.978046657140732E-2   -6.763992750970087E-3    3.920697811161682E-2   -7.320664345158825E-3    1.149801904927658E-1    5.154245456858970E-1
 6.565176239950000E9     4.590900698495437E-3    5.682456914066513E-1    4.006578781950283E-2   -6.908779159569218E-3    3.936954929534498E-2   -7.473095708405026E-3    1.164496053448522E-1    5.149498317878608E-1
 6.565189754175000E9     5.762036656360945E-3    5.681757813271469E-1    4.048924392823815E-2   -7.164418006105450E-3    3.956318068161919E-2   -7.611686077897869E-3    1.178450036824409E-1    5.147848997602666E-1
 6.565203268400000E9     6.873042316920452E-3    5.680759617625871E-1    4.056126533625952E-2   -7.205802624071241E-3    3.994206795155939E-2   -7.775406251521080E-3    1.193077458122552E-1    5.142993019495353E-1
 6.565216782625000E9     8.078057362381680E-3    5.679962070805572E-1    4.092532960710556E-2   -7.438627252744134E-3    4.006468945178345E-2   -7.925605318046682E-3    1.205438397018289E-1    5.140918225422212E-1
 6.565230296850000E9     9.290981069835020E-3    5.681392339878927E-1    4.122003214065633E-2   -7.604427803586980E-3    4.050444017479414E-2   -8.162236904840588E-3    1.219253191388635E-1    5.135988150550869E-1
 6.565243811075000E9     1.046802507107875E-2    5.680429549899485E-1    4.135345149640443E-2   -7.664013136653019E-3    4.066613399701403E-2   -8.361969335213286E-3    1.235941225323260E-1    5.132314655538565E-1
 6.565257325300000E9     1.162020398930642E-2    5.679420824360660E-1    4.176526926448360E-2   -7.983638042558777E-3    4.110812804339279E-2   -8.418031826880466E-3    1.249663854686551E-1    5.128970629607664E-1
 6.565270839525000E9     1.281571972896944E-2    5.678094745119849E-1    4.187846913336052E-2   -8.035650622868861E-3    4.126591000465207E-2   -8.697865782238062E-3    1.263185914817311E-1    5.124533154596246E-1
 6.565284353750000E9     1.390012574467248E-2    5.676800497435203E-1    4.227095354555244E-2   -8.278228613964581E-3    4.151325126070663E-2   -8.843411709814168E-3    1.279300378798933E-1    5.120332154623373E-1
 6.565297867975000E9     1.506593190419810E-2    5.678041306355046E-1    4.265185240058260E-2   -8.425575744230151E-3    4.187597933477287E-2   -9.049765033755279E-3    1.293141366573878E-1    5.117705354596566E-1
 6.565311382200000E9     1.623579704058885E-2    5.676779338072727E-1    4.278466980316143E-2   -8.696566859089223E-3    4.219049871792257E-2   -9.280337427761893E-3    1.308205577849816E-1    5.112151740244674E-1
 6.565324896425000E9     1.741351592765166E-2    5.676050540057593E-1    4.327693725525249E-2   -8.974735582975110E-3    4.248780369013515E-2   -9.503703706960881E-3    1.322627340076939E-1    5.108024932616154E-1
 6.565338410650000E9     1.853005528675746E-2    5.674653615853463E-1    4.345516237093076E-2   -9.021448959753526E-3    4.273007589915954E-2   -9.695863554476948E-3    1.336367328769306E-1    5.104183177092013E-1
 6.565351924875000E9     1.977736537427701E-2    5.674291215608770E-1    4.384227571012976E-2   -9.329552585803284E-3    4.304128929409016E-2   -9.853576340222667E-3    1.352839960478342E-1    5.100015762633857E-1
 6.565365439100000E9     2.083292529445744E-2    5.672026117115609E-1    4.407818399761057E-2   -9.505471406017960E-3    4.341222141422333E-2   -1.003726508822549E-2    1.367982031295838E-1    5.094395793353648E-1
 6.565378953325000E9     2.202104755509347E-2    5.671255885529924E-1    4.440264572896279E-2   -9.664050533497942E-3    4.362845442097633E-2   -1.020975195516075E-2    1.383711376511993E-1    5.090642954166159E-1
 6.565392467550000E9     2.332188262148530E-2    5.672106364361356E-1    4.481041241424435E-2   -9.878945866431387E-3    4.403606985270639E-2   -1.055178363369576E-2    1.398184231607305E-1    5.084162254748761E-1
 6.565405981775000E9     2.447685710267310E-2    5.669552660878433E-1    4.511261588564604E-2   -1.007435079706123E-2    4.438115485009542E-2   -1.071495648705300E-2    1.412425683475482E-1    5.081761724611100E-1
 6.565419496000000E9     2.565214733622749E-2    5.669055044184399E-1    4.543224332973424E-2   -1.037349801395942E-2    4.458793730678394E-2   -1.092346206289752E-2    1.427277898547356E-1    5.076082002915973E-1
 6.565433010225000E9     2.688177123564371E-2    5.668494089979484E-1    4.578532610049988E-2   -1.055976745922781E-2    4.500387694097549E-2   -1.118304576060572E-2    1.442885978226337E-1    5.071321023764346E-1
 6.565446524450000E9     2.805040585439447E-2    5.667291390538381E-1    4.596344405005124E-2   -1.078354807842477E-2    4.532835320565254E-2   -1.139246292921670E-2    1.458690914196372E-1    5.065622823314305E-1
 6.565460038675000E9     2.930587510205510E-2    5.666332675613456E-1    4.633774718309959E-2   -1.106973724827056E-2    4.570002755676460E-2   -1.165760639165418E-2    1.473871235295693E-1    5.058033328686966E-1
 6.565473552900000E9     3.046923314510010E-2    5.664766713921192E-1    4.676483903463192E-2   -1.120591353032943E-2    4.608411267797775E-2   -1.196836102856399E-2    1.489484600396475E-1    5.054665386583076E-1
 6.565487067125000E9     3.171279416170738E-2    5.662804770248205E-1    4.726583539794860E-2   -1.149678114854355E-2    4.636152776480604E-2   -1.218852616691875E-2    1.506529004668972E-1    5.049329985242516E-1
 6.565500581350000E9     3.298562834732007E-2    5.661859883376281E-1    4.752120304913062E-2   -1.186216683371258E-2    4.670481055614137E-2   -1.249754653334657E-2    1.523439883625365E-1    5.043996519626563E-1
 6.565514095575000E9     3.411327618680300E-2    5.660525048647090E-1    4.787507428544953E-2   -1.209327678779054E-2    4.704841477329966E-2   -1.276679954922127E-2    1.537761712048838E-1    5.038202223549255E-1
 6.565527609800000E9     3.536268905631490E-2    5.658729938814772E-1    4.823302245057066E-2   -1.245596890295008E-2    4.750464430358980E-2   -1.294207299767603E-2    1.554021621965515E-1    5.033879545963804E-1
 6.565541124025000E9     3.647970532706253E-2    5.656939815975746E-1    4.859747809708619E-2   -1.248425334138922E-2    4.780884240160974E-2   -1.324698553416063E-2    1.571279960746346E-1    5.025896916021257E-1
 6.565554638250000E9     3.775399140108800E-2    5.655967987964339E-1    4.909031276200936E-2   -1.274130539222870E-2    4.833605023084862E-2   -1.353625613876784E-2    1.586548393891322E-1    5.021975362441078E-1
