#  HZ   S   RI   R     50.00 
! Rohde & Schwarz Vector Network Analyzer 
! Rohde-Schwarz,ZNB20-2Port,1311601062101988,3.16
! Created: UTC 3/20/2024, 4:55:54 PM
! freq[Hz]                re:S11                  im:S11                  re:S21                  im:S21                  re:S12                  im:S12                  re:S22                  im:S22
 6.564332872000000E9    -6.430958625782840E-2    5.655760761328034E-1    2.814330014396135E-2   -3.398962182344082E-4    2.768321415280352E-2   -8.382118580651051E-4    3.668813422082383E-2    5.268092903176568E-1
 6.564346407600000E9    -6.325878309591378E-2    5.657284729140372E-1    2.837629533869499E-2   -5.252214469549353E-4    2.783715171339915E-2   -8.280089085884198E-4    3.808747814721074E-2    5.267755702417229E-1
 6.564359943200000E9    -6.216527051248311E-2    5.658930093520934E-1    2.851552995881450E-2   -5.092701985375470E-4    2.800145618230459E-2   -1.019381522839445E-3    3.919494865058814E-2    5.267129652281786E-1
 6.564373478800000E9    -6.110464529143695E-2    5.659517745439047E-1    2.865729727131634E-2   -4.729427930566535E-4    2.809862966558643E-2   -9.823956014503824E-4    4.034034996425976E-2    5.264898523676227E-1
 6.564387014400000E9    -5.999793033803869E-2    5.660502174182120E-1    2.866168224271911E-2   -7.151183604999108E-4    2.822435066968979E-2   -1.173534350356393E-3    4.142206877514638E-2    5.265687065585321E-1
 6.564400550000000E9    -5.893831563440174E-2    5.662374458623004E-1    2.881029377847478E-2   -7.665705224920311E-4    2.837583221969105E-2   -1.180768419005595E-3    4.263063421239149E-2    5.263524939730050E-1
 6.564414085600000E9    -5.787586245584354E-2    5.662969659889109E-1    2.897707303599285E-2   -7.093441335510039E-4    2.861053363826519E-2   -1.239861292482713E-3    4.398084068875314E-2    5.262681119033077E-1
 6.564427621200000E9    -5.681516660446853E-2    5.663552068163498E-1    2.926485651273173E-2   -9.263059313300819E-4    2.863218136933287E-2   -1.295568434755972E-3    4.507040638892701E-2    5.261612380075652E-1
 6.564441156800000E9    -5.582892976406080E-2    5.664981757367081E-1    2.932721378861402E-2   -9.568673582499702E-4    2.883844092956256E-2   -1.419397428675290E-3    4.630762493006744E-2    5.262228357963477E-1
 6.564454692400000E9    -5.466035399472800E-2    5.665069260987859E-1    2.947743879104293E-2   -1.031576719738522E-3    2.901346832156354E-2   -1.443266706576509E-3    4.748242849364573E-2    5.261307815549489E-1
 6.564468228000000E9    -5.362173921364760E-2    5.666777795748023E-1    2.940044268360121E-2   -9.768454825894251E-4    2.909170614894546E-2   -1.532526348693543E-3    4.860258345885379E-2    5.259072222126335E-1
 6.564481763600000E9    -5.255109074617684E-2    5.668417045436389E-1    2.968422699239897E-2   -1.008561754170013E-3    2.924402163727425E-2   -1.611760039394672E-3    4.993511281776423E-2    5.259670743279911E-1
 6.564495299200000E9    -5.134507108409806E-2    5.667019992086366E-1    2.984112917048984E-2   -1.209933248379719E-3    2.936009928074864E-2   -1.760900353583040E-3    5.110887350234120E-2    5.257531561121979E-1
 6.564508834800000E9    -5.020778656832443E-2    5.669400374489478E-1    2.992993839960886E-2   -1.221752449756124E-3    2.953611326499615E-2   -1.724940789181745E-3    5.233470091655945E-2    5.257622125777967E-1
 6.564522370400000E9    -4.917933248432668E-2    5.670110747024661E-1    3.026774521664946E-2   -1.424484137873081E-3    2.969058549750847E-2   -1.826122468176906E-3    5.354723204841719E-2    5.255492971034580E-1
 6.564535906000000E9    -4.822037584080612E-2    5.671170232528060E-1    3.042160218191099E-2   -1.407849831620504E-3    2.981595238221358E-2   -1.992792044687529E-3    5.466302892846333E-2    5.254543593449940E-1
 6.564549441600000E9    -4.709585497614031E-2    5.672914279035163E-1    3.050486403690686E-2   -1.543733356876776E-3    3.003964662394945E-2   -1.995274318800649E-3    5.598117356351438E-2    5.254043851293375E-1
 6.564562977200000E9    -4.601126280641169E-2    5.672292410211304E-1    3.063578683452069E-2   -1.610836033052567E-3    3.023634461860357E-2   -2.161425622621782E-3    5.720804324414281E-2    5.252212639918523E-1
 6.564576512800000E9    -4.481143135627583E-2    5.673759940386449E-1    3.089855211395496E-2   -1.623401471432810E-3    3.031405418796805E-2   -2.217427787951178E-3    5.849006124510066E-2    5.250877427743762E-1
 6.564590048400000E9    -4.381528878319148E-2    5.673709794696561E-1    3.098187478545796E-2   -1.654710246940447E-3    3.053179156271395E-2   -2.267554726283633E-3    5.955997970419521E-2    5.250029657473998E-1
 6.564603584000000E9    -4.273034164369386E-2    5.675616413101021E-1    3.119113407981561E-2   -1.810449352911140E-3    3.063358448860761E-2   -2.404410999601075E-3    6.092720954007102E-2    5.247795871501237E-1
 6.564617119600000E9    -4.157755029786882E-2    5.675881338166985E-1    3.138709607437868E-2   -2.060644599630409E-3    3.087393814822532E-2   -2.482403203898087E-3    6.211599336188227E-2    5.246060035715687E-1
 6.564630655200000E9    -4.055579360171073E-2    5.677284465389715E-1    3.172906251148463E-2   -1.897146571758015E-3    3.099956763066089E-2   -2.559226873173171E-3    6.342954339975507E-2    5.245422169118583E-1
 6.564644190800000E9    -3.947101328806637E-2    5.677352943480770E-1    3.162292221014254E-2   -2.136452576754109E-3    3.121658189843756E-2   -2.693270164061505E-3    6.455068343264896E-2    5.244422960099631E-1
 6.564657726400000E9    -3.829898394027204E-2    5.678202180579288E-1    3.191247117610656E-2   -2.208063923217790E-3    3.135219206842316E-2   -2.723231170044077E-3    6.586013194955083E-2    5.243243356066492E-1
 6.564671262000000E9    -3.717646412675810E-2    5.677743045170437E-1    3.204335937713422E-2   -2.273735904444600E-3    3.147406562893197E-2   -2.765933949574919E-3    6.715007061810509E-2    5.241675578150359E-1
 6.564684797600000E9    -3.609702111468537E-2    5.679206401676390E-1    3.218398050848508E-2   -2.316273760541897E-3    3.168224693084106E-2   -2.956079751790634E-3    6.835482720635602E-2    5.240542459645393E-1
 6.564698333200000E9    -3.504781067805156E-2    5.679665425619035E-1    3.244319255523547E-2   -2.476792448909588E-3    3.181562815543128E-2   -3.002728373316789E-3    6.958204522287324E-2    5.238137832481474E-1
 6.564711868800000E9    -3.395548835528784E-2    5.680653595428014E-1    3.261117864892574E-2   -2.622946979060084E-3    3.207474970511542E-2   -3.163786152145877E-3    7.076282505881339E-2    5.237413934600454E-1
 6.564725404400000E9    -3.278784132444008E-2    5.679618621482920E-1    3.279871961814562E-2   -2.631459906554368E-3    3.217742206892355E-2   -3.250038499452185E-3    7.212634257497404E-2    5.235852522718806E-1
 6.564738940000000E9    -3.172641724213859E-2    5.681408062572880E-1    3.284831897614458E-2   -2.817134140399385E-3    3.233097804718872E-2   -3.257814874927202E-3    7.335749873867967E-2    5.232836959559971E-1
 6.564752475600000E9    -3.061269123590376E-2    5.680750268373032E-1    3.311212003826161E-2   -2.849438179533446E-3    3.258676227934439E-2   -3.457022286261980E-3    7.462928455410456E-2    5.229629261831914E-1
 6.564766011200000E9    -2.952371684522576E-2    5.682113215723620E-1    3.333339300042837E-2   -3.040936957951462E-3    3.269970891065047E-2   -3.447019927156437E-3    7.593918541212002E-2    5.230002427318960E-1
 6.564779546800000E9    -2.845978684457836E-2    5.681735523392174E-1    3.351496753141613E-2   -3.078724665538167E-3    3.285719011882476E-2   -3.605219394881634E-3    7.719820128129137E-2    5.227073857942123E-1
 6.564793082400000E9    -2.728498629343875E-2    5.682071784115715E-1    3.370578905877201E-2   -3.246454756406048E-3    3.315635444534162E-2   -3.686773300237859E-3    7.857572025275419E-2    5.224580462497714E-1
 6.564806618000000E9    -2.623408811934381E-2    5.682976397533427E-1    3.386530823721060E-2   -3.219565077332109E-3    3.339890851597076E-2   -3.887367253318859E-3    7.970437317644023E-2    5.224692735750346E-1
 6.564820153600000E9    -2.508981388644006E-2    5.683452145593967E-1    3.402072038448060E-2   -3.325476863204582E-3    3.357277298246233E-2   -3.960423118962914E-3    8.099657363896190E-2    5.222199286618641E-1
 6.564833689200000E9    -2.388995155248302E-2    5.683847539330446E-1    3.429931499420909E-2   -3.530105090598498E-3    3.373561487575264E-2   -4.033180061949350E-3    8.220521144219377E-2    5.220166191116742E-1
 6.564847224800000E9    -2.295462623102821E-2    5.684506525486394E-1    3.455454276435250E-2   -3.500114780131033E-3    3.375916177384265E-2   -4.138993277423669E-3    8.362727023309528E-2    5.217209221529620E-1
 6.564860760400000E9    -2.179282663255653E-2    5.683793573791664E-1    3.465738703611735E-2   -3.842794844836768E-3    3.407709815356016E-2   -4.258564447592138E-3    8.498745001351186E-2    5.215006253888632E-1
 6.564874296000000E9    -2.067581244249063E-2    5.684691698340814E-1    3.492765588465827E-2   -3.782704221149021E-3    3.429264616150039E-2   -4.423095474751060E-3    8.620524895617074E-2    5.213743676592559E-1
 6.564887831600000E9    -1.956137111238362E-2    5.684505914897182E-1    3.518455206441862E-2   -3.958854042019335E-3    3.455590169233243E-2   -4.518051104351778E-3    8.761580456019677E-2    5.209423110113042E-1
 6.564901367200000E9    -1.837279883753291E-2    5.684532234413718E-1    3.526139637287608E-2   -4.025846510566240E-3    3.466754072296720E-2   -4.595827333230368E-3    8.890301270589628E-2    5.208016741358477E-1
 6.564914902800000E9    -1.722551660633202E-2    5.685041707336268E-1    3.550937905216946E-2   -4.293843849047268E-3    3.492274393116477E-2   -4.834520822279957E-3    9.011359058456758E-2    5.206310052149100E-1
 6.564928438400000E9    -1.614532811869468E-2    5.684316885831658E-1    3.571951947149575E-2   -4.342150612161210E-3    3.509947397167502E-2   -4.824447041789964E-3    9.150394131922931E-2    5.202978582302940E-1
 6.564941974000000E9    -1.504711639821164E-2    5.684446227069966E-1    3.600816493336895E-2   -4.355568992806587E-3    3.532238325475477E-2   -5.049188091887757E-3    9.273706360834831E-2    5.201132558422207E-1
 6.564955509600000E9    -1.399257468622730E-2    5.686320692553082E-1    3.630411144571893E-2   -4.596193775187419E-3    3.547113504387614E-2   -5.100997401967159E-3    9.397343508016499E-2    5.198190879416484E-1
 6.564969045200000E9    -1.283246923917813E-2    5.685534371940830E-1    3.634692457511957E-2   -4.807124921783681E-3    3.572522482447697E-2   -5.257306059117897E-3    9.547307682548259E-2    5.195803466795207E-1
 6.564982580800000E9    -1.161564438904707E-2    5.684615600105953E-1    3.653506348432899E-2   -4.771268274206045E-3    3.596279177261482E-2   -5.327268099074432E-3    9.678338332309702E-2    5.194597251830633E-1
 6.564996116400000E9    -1.050198035334975E-2    5.685308459475268E-1    3.669387353362121E-2   -4.830139300439922E-3    3.619873663061688E-2   -5.451268540571682E-3    9.812760098497074E-2    5.191022461681603E-1
 6.565009652000000E9    -9.381279355009681E-3    5.685594643398202E-1    3.701701714291040E-2   -5.041276847596358E-3    3.642202649452093E-2   -5.565839512073192E-3    9.942470409256735E-2    5.189134325593348E-1
 6.565023187600000E9    -8.350216345295043E-3    5.683887458312352E-1    3.715485214614150E-2   -5.246923088926099E-3    3.665254766038883E-2   -5.752638773298017E-3    1.008931425365127E-1    5.185708101945328E-1
 6.565036723200000E9    -7.052711735041766E-3    5.683942983612883E-1    3.747626979874014E-2   -5.313429614030901E-3    3.692116376812210E-2   -5.836215457170152E-3    1.021446978208962E-1    5.184700991836714E-1
 6.565050258800000E9    -6.006681617426359E-3    5.684790506155625E-1    3.777009975177195E-2   -5.441901140031262E-3    3.715259263923592E-2   -6.079100917176518E-3    1.033702302587573E-1    5.178934767148822E-1
 6.565063794400000E9    -4.839026762223967E-3    5.683685948564758E-1    3.796904689905638E-2   -5.668922163015927E-3    3.735035334860616E-2   -6.116811724750921E-3    1.048645357786675E-1    5.176389564522919E-1
 6.565077330000000E9    -3.734740820798067E-3    5.685416584474294E-1    3.834551783005567E-2   -5.746215412647081E-3    3.756185042024542E-2   -6.238688962036428E-3    1.063442514470731E-1    5.174204933116178E-1
 6.565090865600000E9    -2.633478964992404E-3    5.683775008799287E-1    3.852140611148368E-2   -5.860366661886543E-3    3.774459947422976E-2   -6.384003951766293E-3    1.076433305567654E-1    5.170131080621047E-1
 6.565104401200000E9    -1.472549163414303E-3    5.683295957841453E-1    3.868046491322312E-2   -6.096581101602319E-3    3.804343016684952E-2   -6.638638766696442E-3    1.089386073423507E-1    5.169367577226356E-1
 6.565117936800000E9    -3.196545759008104E-4    5.683991917869607E-1    3.902206039523441E-2   -6.339055921154983E-3    3.827312507531443E-2   -6.863700288570938E-3    1.104397564756611E-1    5.163624568409906E-1
 6.565131472400000E9     8.691504709874688E-4    5.682515339779911E-1    3.929945394445921E-2   -6.406861197740550E-3    3.855664590153302E-2   -6.883857805212891E-3    1.119291528677770E-1    5.161417074519229E-1
 6.565145008000000E9     1.917550219247662E-3    5.683588069637283E-1    3.942088154624356E-2   -6.441150077852324E-3    3.880050006972412E-2   -7.074913556035631E-3    1.131244693600714E-1    5.158333744519732E-1
 6.565158543600000E9     3.062370547166249E-3    5.682957724435430E-1    3.966713731542622E-2   -6.681584238080890E-3    3.905603979836791E-2   -7.255194551112513E-3    1.145562490932426E-1    5.155061908197652E-1
 6.565172079200000E9     4.163589512982127E-3    5.682042371480706E-1    3.987444245667851E-2   -6.813191062875725E-3    3.928677223977411E-2   -7.362954896478268E-3    1.159222960392475E-1    5.150417841417374E-1
 6.565185614800000E9     5.422798830228288E-3    5.682181711235810E-1    4.042475243812006E-2   -6.979012056041847E-3    3.955561991889461E-2   -7.537506446379709E-3    1.174034303690450E-1    5.148280365220178E-1
 6.565199150400000E9     6.563251705240742E-3    5.681125623700791E-1    4.057697918779533E-2   -7.243723270876518E-3    3.975907186145124E-2   -7.609757942441412E-3    1.187562126091964E-1    5.143854733146341E-1
 6.565212686000000E9     7.766408243091156E-3    5.681138457039794E-1    4.084871737929241E-2   -7.499441592939075E-3    4.006664924487999E-2   -7.941906842076032E-3    1.202102721097018E-1    5.141316081222189E-1
 6.565226221600000E9     9.006181298195495E-3    5.679580439532820E-1    4.092805543001604E-2   -7.388244859112666E-3    4.033420147749730E-2   -8.152162204605989E-3    1.217491699815847E-1    5.137786381854410E-1
 6.565239757200000E9     9.920075562089511E-3    5.679019881313290E-1    4.127286000820739E-2   -7.690207768016628E-3    4.072042488034487E-2   -8.296930092782526E-3    1.230623891017119E-1    5.133038396974058E-1
 6.565253292800000E9     1.130739812215901E-2    5.678904772831882E-1    4.156992953728787E-2   -8.007925874709760E-3    4.093958240730897E-2   -8.415562051449329E-3    1.245461109559562E-1    5.129294021076513E-1
 6.565266828400000E9     1.242126261359354E-2    5.678647768170793E-1    4.196975271559173E-2   -8.115945200134570E-3    4.123979063374725E-2   -8.711749260442748E-3    1.260661538173883E-1    5.126548662479629E-1
 6.565280364000000E9     1.349222096494229E-2    5.678720552112275E-1    4.226542105069747E-2   -8.252814441929417E-3    4.150201553248884E-2   -8.842986319649027E-3    1.275125569446545E-1    5.121148729483069E-1
 6.565293899600000E9     1.471215622308709E-2    5.677070900411038E-1    4.243872783314977E-2   -8.415454670468402E-3    4.176020291811044E-2   -9.017672177128268E-3    1.289434658251501E-1    5.117691478803444E-1
 6.565307435200000E9     1.581107141954874E-2    5.676352558342140E-1    4.294361087271686E-2   -8.590286469170471E-3    4.206640810333834E-2   -9.255146515851546E-3    1.303641792238941E-1    5.113362355990799E-1
 6.565320970800000E9     1.709816246090146E-2    5.675544943957385E-1    4.309664653118424E-2   -8.824708820623429E-3    4.238250234228302E-2   -9.406813426933561E-3    1.319119074616212E-1    5.109594150283582E-1
 6.565334506400000E9     1.813161819885837E-2    5.675633619274592E-1    4.339354653515236E-2   -8.906492906649771E-3    4.270498502090101E-2   -9.661050120458018E-3    1.334319102407666E-1    5.103666704465832E-1
 6.565348042000000E9     1.943593186521999E-2    5.673562175704853E-1    4.371665201778277E-2   -9.125317538144393E-3    4.304057676186020E-2   -9.838487971821571E-3    1.348209497568533E-1    5.101026746470616E-1
 6.565361577600000E9     2.064394713086674E-2    5.673452198533097E-1    4.404517587040292E-2   -9.457403174882346E-3    4.331561624554487E-2   -1.003340430819630E-2    1.361922965617518E-1    5.096433085745912E-1
 6.565375113200000E9     2.178622116767980E-2    5.672547850869709E-1    4.432988133384155E-2   -9.620488919128494E-3    4.358082327124755E-2   -1.022825988095854E-2    1.378336021027493E-1    5.090899530853303E-1
 6.565388648800000E9     2.291910997682844E-2    5.669753633749351E-1    4.469637537041465E-2   -9.855052023195742E-3    4.395777664388874E-2   -1.048971577450645E-2    1.394274304483377E-1    5.086521827892074E-1
 6.565402184400000E9     2.415890238893818E-2    5.670180293180381E-1    4.490352929123792E-2   -1.005173126988271E-2    4.423110417843464E-2   -1.065250204047760E-2    1.410569926348501E-1    5.082210462971801E-1
 6.565415720000000E9     2.546436563290265E-2    5.669086882623494E-1    4.537602782094439E-2   -1.029356183017757E-2    4.458958591037363E-2   -1.087590460229027E-2    1.425509651821660E-1    5.076465138506314E-1
 6.565429255600000E9     2.654592900312246E-2    5.667550497172866E-1    4.572763879830932E-2   -1.055693958824653E-2    4.491913129896481E-2   -1.109374553431391E-2    1.439576747575119E-1    5.071590394692648E-1
 6.565442791200000E9     2.778838466167125E-2    5.666664458052846E-1    4.595990239087361E-2   -1.063681201253388E-2    4.519290166674674E-2   -1.133517047905314E-2    1.457176084808981E-1    5.066819627970144E-1
 6.565456326800000E9     2.893418601763897E-2    5.665263308253431E-1    4.650097998972427E-2   -1.115360186337824E-2    4.564899608404408E-2   -1.151477143125204E-2    1.470866988134730E-1    5.061193274564018E-1
 6.565469862400000E9     3.019088317341352E-2    5.664158977718615E-1    4.679541426144949E-2   -1.127263843208602E-2    4.595451181953170E-2   -1.197872333487072E-2    1.487010219932019E-1    5.057561203070366E-1
 6.565483398000000E9     3.138317538860895E-2    5.664510500570021E-1    4.704751448440703E-2   -1.157509615159727E-2    4.622632770914679E-2   -1.195172293478981E-2    1.503227047895136E-1    5.051980694674765E-1
 6.565496933600000E9     3.255329426513719E-2    5.661541205751149E-1    4.740776235727248E-2   -1.178239127548940E-2    4.654069358073340E-2   -1.231626722908493E-2    1.519353580505934E-1    5.045744462471107E-1
 6.565510469200000E9     3.379737439044243E-2    5.660698425110957E-1    4.778876426428019E-2   -1.196241424688771E-2    4.700855465601519E-2   -1.273165307213249E-2    1.534448136414602E-1    5.040449160698255E-1
 6.565524004800000E9     3.493415009995043E-2    5.658783107800398E-1    4.807562627601755E-2   -1.232572111270689E-2    4.740957111176460E-2   -1.295320741876604E-2    1.550452419687661E-1    5.034161632711397E-1
 6.565537540400000E9     3.623335195689155E-2    5.657284214163752E-1    4.852078734526008E-2   -1.263015696498925E-2    4.779000803865942E-2   -1.318897050995569E-2    1.566746546766346E-1    5.028875957784016E-1
 6.565551076000000E9     3.733534252913289E-2    5.656784032429724E-1    4.892366088139705E-2   -1.285567329917212E-2    4.812832460963443E-2   -1.343714689625295E-2    1.583557510051396E-1    5.021198047362093E-1
