#  HZ   S   RI   R     50.00 
! Rohde & Schwarz Vector Network Analyzer 
! Rohde-Schwarz,ZNB20-2Port,1311601062101988,3.16
! Created: UTC 3/20/2024, 5:11:20 PM
! freq[Hz]                re:S11                  im:S11                  re:S21                  im:S21                  re:S12                  im:S12                  re:S22                  im:S22
 6.564621159000000E9    -4.255810226865381E-2    5.674975647900800E-1    3.010450150863779E-2   -1.481381317775706E-3    2.954326958641938E-2   -1.939349530031243E-3    5.860586477893497E-2    5.228254224333231E-1
 6.564633797000000E9    -4.139722338006547E-2    5.675634841299031E-1    3.028210644383823E-2   -1.552421207889670E-3    2.971729252330176E-2   -2.009199386575851E-3    5.958251065054454E-2    5.227233977181489E-1
 6.564646435000000E9    -4.052344447637216E-2    5.676045657703984E-1    3.037875321213377E-2   -1.545898047422920E-3    2.982846516522994E-2   -2.085724690428011E-3    6.068407170906270E-2    5.225385009092027E-1
 6.564659073000000E9    -3.948786852250411E-2    5.675949117823339E-1    3.052697831983520E-2   -1.603539075675248E-3    2.992581886393987E-2   -2.138077209108472E-3    6.183384181964949E-2    5.224334383079223E-1
 6.564671711000000E9    -3.849579459621209E-2    5.677067076582546E-1    3.064182276542257E-2   -1.681880490204833E-3    3.014009269448235E-2   -2.126261114947203E-3    6.305102527507947E-2    5.224485282925483E-1
 6.564684349000000E9    -3.738804094966387E-2    5.677949379312360E-1    3.084504490656746E-2   -1.795354723919904E-3    3.026170372769854E-2   -2.251207868771654E-3    6.403893064393515E-2    5.222989931739073E-1
 6.564696987000000E9    -3.633245151586261E-2    5.679265376566854E-1    3.097640691586176E-2   -1.791743496870354E-3    3.042355586740860E-2   -2.415382669492212E-3    6.525344670305347E-2    5.220062373278080E-1
 6.564709625000000E9    -3.533637318749594E-2    5.679809646673973E-1    3.112462630223359E-2   -1.983184317673616E-3    3.055695253831850E-2   -2.547641661226150E-3    6.644094030462194E-2    5.221151009866858E-1
 6.564722263000000E9    -3.434149351533110E-2    5.680454202646483E-1    3.124510508442159E-2   -1.960081176951794E-3    3.074203288673058E-2   -2.516040273799679E-3    6.759197970410841E-2    5.218209901336408E-1
 6.564734901000000E9    -3.331151074770945E-2    5.679617429189758E-1    3.148180489864331E-2   -1.935179027354597E-3    3.084742128735604E-2   -2.627265436342635E-3    6.873337601854501E-2    5.216431731059392E-1
 6.564747539000000E9    -3.232114707058729E-2    5.680579180516919E-1    3.154271602293475E-2   -2.122547562575168E-3    3.105850070242730E-2   -2.692284108722011E-3    6.993672798752923E-2    5.214553811849074E-1
 6.564760177000000E9    -3.123822819710916E-2    5.681032261109749E-1    3.170760741190352E-2   -2.294075548049645E-3    3.115902228024750E-2   -2.800897479337631E-3    7.093849492563217E-2    5.213193115482735E-1
 6.564772815000000E9    -3.017375226782554E-2    5.681430411819942E-1    3.192668044408811E-2   -2.320476071553201E-3    3.139733454953300E-2   -2.809905420109695E-3    7.220943997680491E-2    5.213414348117968E-1
 6.564785453000000E9    -2.917732207453535E-2    5.682535112507626E-1    3.204397448747280E-2   -2.413159309118671E-3    3.148948958634658E-2   -3.027278181751545E-3    7.345949413377588E-2    5.210376212360135E-1
 6.564798091000000E9    -2.822236813529640E-2    5.683918095025743E-1    3.218389455402014E-2   -2.479484092852082E-3    3.169693915478873E-2   -3.123285688445409E-3    7.457048481030208E-2    5.208811087818878E-1
 6.564810729000000E9    -2.707672628654543E-2    5.681837406410165E-1    3.244396088724137E-2   -2.596574603092830E-3    3.187361097437092E-2   -3.106730959880227E-3    7.554461069409533E-2    5.207527863862145E-1
 6.564823367000000E9    -2.614347416429952E-2    5.683267833636141E-1    3.266736912344534E-2   -2.774792351094500E-3    3.200294712400246E-2   -3.221713612981019E-3    7.693814742277585E-2    5.205433112448480E-1
 6.564836005000000E9    -2.516808237253534E-2    5.684132094387369E-1    3.278858164776528E-2   -2.850994966621466E-3    3.226705078717033E-2   -3.339116771134189E-3    7.800766626795352E-2    5.205252330535658E-1
 6.564848643000000E9    -2.401707899134770E-2    5.683629831350953E-1    3.306786335614709E-2   -2.880596679935604E-3    3.234340468946231E-2   -3.507862607598692E-3    7.920069624762267E-2    5.203327342888167E-1
 6.564861281000000E9    -2.308328564689501E-2    5.684172427542900E-1    3.315689445675653E-2   -2.855172307979641E-3    3.248931637422795E-2   -3.598355088760970E-3    8.050238619780380E-2    5.200492927066057E-1
 6.564873919000000E9    -2.196883807652877E-2    5.684080295002916E-1    3.321297441931467E-2   -3.005761954812189E-3    3.275548138979950E-2   -3.588370669562131E-3    8.147127670446709E-2    5.198408598558009E-1
 6.564886557000000E9    -2.106927440159700E-2    5.685340547480401E-1    3.343761337085151E-2   -3.252091048460728E-3    3.290402008050128E-2   -3.691792124099481E-3    8.279142472383060E-2    5.198496290828134E-1
 6.564899195000000E9    -1.987574812701438E-2    5.685080440207628E-1    3.359370027019481E-2   -3.338250475282941E-3    3.302814194881743E-2   -3.871041605740187E-3    8.388919664756204E-2    5.196402939212429E-1
 6.564911833000000E9    -1.883421869430160E-2    5.686026988167791E-1    3.364259938397623E-2   -3.325872121476298E-3    3.312072081569171E-2   -3.872284783842123E-3    8.505267198807701E-2    5.194168266947961E-1
 6.564924471000000E9    -1.789940630276974E-2    5.684507516966708E-1    3.406704328800764E-2   -3.474369754315818E-3    3.337475834385210E-2   -3.975126070941726E-3    8.618971590786047E-2    5.191843122974166E-1
 6.564937109000000E9    -1.689270877220561E-2    5.685271970201502E-1    3.414212335147218E-2   -3.562474611969729E-3    3.352554052087357E-2   -4.106118412770867E-3    8.740987164987411E-2    5.190159535642734E-1
 6.564949747000000E9    -1.588921544377809E-2    5.685644259697302E-1    3.438202129358803E-2   -3.771212156880602E-3    3.381228476009482E-2   -4.177025347609419E-3    8.873571270639591E-2    5.188250589570468E-1
 6.564962385000000E9    -1.482019463120628E-2    5.686259295780496E-1    3.468610200673337E-2   -3.677585633712102E-3    3.390443452724676E-2   -4.314425156234250E-3    8.998275461895112E-2    5.186091378780574E-1
 6.564975023000000E9    -1.375852733171883E-2    5.686521787022749E-1    3.471832566111904E-2   -3.897447719790276E-3    3.416774348418379E-2   -4.354397900804618E-3    9.107639975321288E-2    5.183411934007346E-1
 6.564987661000000E9    -1.264011312695966E-2    5.686260600521121E-1    3.494489985051896E-2   -3.903039404094586E-3    3.431992639236385E-2   -4.394644967820484E-3    9.244336710636493E-2    5.181268167229530E-1
 6.565000299000000E9    -1.161943245794040E-2    5.685977891289121E-1    3.504789030698424E-2   -4.076046059723774E-3    3.448723753882339E-2   -4.583831083412641E-3    9.355329905160670E-2    5.180882696925632E-1
 6.565012937000000E9    -1.059323002216406E-2    5.687318603573048E-1    3.527300595337478E-2   -4.089889336595997E-3    3.462888944748849E-2   -4.757534350375896E-3    9.476319910511458E-2    5.177483499406422E-1
 6.565025575000000E9    -9.493931198820750E-3    5.685754939932908E-1    3.549665348386293E-2   -4.264796897677550E-3    3.485986665424380E-2   -4.877835571378926E-3    9.607307133527003E-2    5.174623269842979E-1
 6.565038213000000E9    -8.510292729993978E-3    5.686526969564643E-1    3.566006604628941E-2   -4.386670163016042E-3    3.515317429282632E-2   -4.905748751294473E-3    9.733050472530526E-2    5.173807474693740E-1
 6.565050851000000E9    -7.444992104546745E-3    5.686625976923013E-1    3.587185611211047E-2   -4.540497768023251E-3    3.537920299453860E-2   -5.074802863747443E-3    9.846106258188178E-2    5.171785998807977E-1
 6.565063489000000E9    -6.429076470054493E-3    5.686110832930229E-1    3.599295254797125E-2   -4.586691946574828E-3    3.546910425873594E-2   -5.082946062849591E-3    9.970060854564709E-2    5.167942589177057E-1
 6.565076127000000E9    -5.361451847877485E-3    5.686148402277662E-1    3.634499830978859E-2   -4.786053246060675E-3    3.564909819880571E-2   -5.191764027632896E-3    1.009474346055425E-1    5.165567845250278E-1
 6.565088765000000E9    -4.337461566023357E-3    5.685714134381709E-1    3.655502855360554E-2   -4.883021625143636E-3    3.594170373959210E-2   -5.469235481486090E-3    1.020964606593895E-1    5.163747547918236E-1
 6.565101403000000E9    -3.212159561645025E-3    5.685653319710403E-1    3.652440853825326E-2   -5.059424967193422E-3    3.610835154209294E-2   -5.556098365621496E-3    1.035706408561012E-1    5.161918077923581E-1
 6.565114041000000E9    -2.179957020701017E-3    5.685052818084980E-1    3.697987904284210E-2   -5.061850012423613E-3    3.629301299722896E-2   -5.535419726037057E-3    1.046808718372242E-1    5.158063410634502E-1
 6.565126679000000E9    -1.310207111316695E-3    5.685847458227730E-1    3.704514413037834E-2   -5.235522640002067E-3    3.653304687648610E-2   -5.812449632460571E-3    1.059639111065374E-1    5.155919841841280E-1
 6.565139317000000E9    -2.850741292588053E-5    5.686089281202190E-1    3.739748148822264E-2   -5.357352809754582E-3    3.676907502829223E-2   -5.795115200530178E-3    1.073120441967459E-1    5.152561754395182E-1
 6.565151955000000E9     9.891662938564692E-4    5.684619946376213E-1    3.749713780515615E-2   -5.426103088492056E-3    3.700082984110398E-2   -5.981686784553090E-3    1.083158568537439E-1    5.149752646037878E-1
 6.565164593000000E9     1.940996854799181E-3    5.685381156567708E-1    3.782377390591966E-2   -5.534624380376660E-3    3.714067055797851E-2   -6.203444981941836E-3    1.096551901027447E-1    5.147426996283931E-1
 6.565177231000000E9     3.035283802651748E-3    5.685393980891094E-1    3.805395249852686E-2   -5.699865904649059E-3    3.739857066500585E-2   -6.215382336007416E-3    1.110812388468562E-1    5.144991480684263E-1
 6.565189869000000E9     4.108585875321142E-3    5.684377121066660E-1    3.801599443061891E-2   -5.868955031191957E-3    3.761288805437053E-2   -6.551289219485543E-3    1.124194828679543E-1    5.142537775168375E-1
 6.565202507000000E9     5.170303816936385E-3    5.684315143539987E-1    3.847081594791925E-2   -5.944327711439473E-3    3.783559185754978E-2   -6.630458126578555E-3    1.135970994488787E-1    5.138961181498108E-1
 6.565215145000000E9     6.248904330753241E-3    5.684724258905798E-1    3.864052013770770E-2   -6.097235889626938E-3    3.801429350303939E-2   -6.704196016398664E-3    1.149307975355559E-1    5.136168844088055E-1
 6.565227783000000E9     7.337564012852272E-3    5.683020410724787E-1    3.902325555000413E-2   -6.307081694407202E-3    3.827986879368198E-2   -6.790939018227945E-3    1.161376291821706E-1    5.132644253875494E-1
 6.565240421000000E9     8.411218736952589E-3    5.683251324715120E-1    3.920020198119001E-2   -6.378843702038969E-3    3.845669813205799E-2   -6.963924663137912E-3    1.173974835640712E-1    5.129668905515213E-1
 6.565253059000000E9     9.466222922152307E-3    5.681743795841322E-1    3.947535233399217E-2   -6.638709487115006E-3    3.868115660544136E-2   -7.039206743459542E-3    1.188505307245679E-1    5.128083642944207E-1
 6.565265697000000E9     1.056581820015550E-2    5.681373866262868E-1    3.946522956363602E-2   -6.617716688898331E-3    3.901468033862478E-2   -7.180127523961860E-3    1.200876557822854E-1    5.124953247516516E-1
 6.565278335000000E9     1.163371213456587E-2    5.681697090383147E-1    3.992796634786919E-2   -6.926686625112759E-3    3.913974065151286E-2   -7.360697803205717E-3    1.214628007248902E-1    5.121500270366233E-1
 6.565290973000000E9     1.271536737470886E-2    5.681142854237444E-1    4.010879813245443E-2   -6.980178833153922E-3    3.940714129669420E-2   -7.554879175569390E-3    1.226279051012524E-1    5.117501899981179E-1
 6.565303611000000E9     1.377411506346573E-2    5.679325018719255E-1    4.049392428270473E-2   -7.152487910515079E-3    3.972449522057325E-2   -7.759526681078364E-3    1.241191107988702E-1    5.113355673618103E-1
 6.565316249000000E9     1.483409169417873E-2    5.680589161319021E-1    4.062249421444156E-2   -7.313831868614866E-3    3.996648588229158E-2   -7.936567146122751E-3    1.253223765132296E-1    5.112474150267552E-1
 6.565328887000000E9     1.597313745913199E-2    5.678540440300405E-1    4.078005613081950E-2   -7.423128666548965E-3    4.032557072194377E-2   -7.998036944476003E-3    1.266345555467383E-1    5.106971419540040E-1
 6.565341525000000E9     1.705843113712192E-2    5.678945890192515E-1    4.118404316986189E-2   -7.501226916195490E-3    4.051647822700209E-2   -8.170751916859686E-3    1.278638393123920E-1    5.103429542914567E-1
 6.565354163000000E9     1.811081061705424E-2    5.677940459824200E-1    4.135278888841480E-2   -7.849127650917508E-3    4.070114697586816E-2   -8.347187126773356E-3    1.293236693210126E-1    5.100076811222575E-1
 6.565366801000000E9     1.925022333896114E-2    5.677419664917895E-1    4.171181471451024E-2   -7.912404266288973E-3    4.100163385315091E-2   -8.387928462851846E-3    1.306414677010743E-1    5.097590338200090E-1
 6.565379439000000E9     2.020356402228844E-2    5.676800570253676E-1    4.207732968631708E-2   -8.151785749651013E-3    4.122349631477665E-2   -8.673577422315344E-3    1.320693576499163E-1    5.093204039967567E-1
 6.565392077000000E9     2.143835931079361E-2    5.676010289344980E-1    4.218960832676209E-2   -8.190804433045465E-3    4.150751741465532E-2   -8.872427886047682E-3    1.335430227348397E-1    5.090195653867159E-1
 6.565404715000000E9     2.239313975277514E-2    5.675312790106398E-1    4.259854597639105E-2   -8.568309956769542E-3    4.176465594008321E-2   -9.025255572166069E-3    1.347520816278142E-1    5.085927390432242E-1
 6.565417353000000E9     2.354232861246039E-2    5.674105800536132E-1    4.289450625653597E-2   -8.661309031257752E-3    4.211106925497062E-2   -9.194986293752578E-3    1.362298665775239E-1    5.083769051402226E-1
 6.565429991000000E9     2.457594883846224E-2    5.674163299809931E-1    4.308401231535065E-2   -8.849416706121353E-3    4.233838912454602E-2   -9.465865128571083E-3    1.375504258218471E-1    5.078143097290454E-1
 6.565442629000000E9     2.577173041449095E-2    5.673200591119335E-1    4.340172283019269E-2   -9.072175365741373E-3    4.256685103841253E-2   -9.591278086731773E-3    1.389047630049538E-1    5.074643874373846E-1
 6.565455267000000E9     2.684890058038632E-2    5.671941353440604E-1    4.370210179444418E-2   -9.150920194621669E-3    4.286682367175646E-2   -9.698659346729943E-3    1.402816468103371E-1    5.069779596883487E-1
 6.565467905000000E9     2.795708377392965E-2    5.669639936280727E-1    4.402017096683467E-2   -9.296306447791964E-3    4.313581156604856E-2   -9.872704320910837E-3    1.416843652564976E-1    5.064912526618676E-1
 6.565480543000000E9     2.906623956668962E-2    5.668879721536257E-1    4.439456564052970E-2   -9.537429275288341E-3    4.357148580561806E-2   -1.015208017813978E-2    1.431748775444686E-1    5.059991054999398E-1
 6.565493181000000E9     3.018006066326204E-2    5.667966438449541E-1    4.463590206091223E-2   -9.597775758915641E-3    4.384763500723337E-2   -1.035507315384199E-2    1.446685624901824E-1    5.056598812081783E-1
 6.565505819000000E9     3.131879440008495E-2    5.667280505160109E-1    4.480481314397985E-2   -1.021028226694653E-2    4.410056414382140E-2   -1.045320546514466E-2    1.459048906461717E-1    5.051376728090690E-1
 6.565518457000000E9     3.246000538555856E-2    5.667127727196454E-1    4.519261602128585E-2   -1.020258398023951E-2    4.453148518839761E-2   -1.084648479785720E-2    1.474226207141871E-1    5.049243946179437E-1
 6.565531095000000E9     3.354556894097350E-2    5.665556982233234E-1    4.549527888598431E-2   -1.037692297266632E-2    4.469946336451518E-2   -1.094045356497840E-2    1.488878080576050E-1    5.043549181800104E-1
 6.565543733000000E9     3.460793917617169E-2    5.663498257170558E-1    4.591757641028367E-2   -1.059711897557982E-2    4.510918587890611E-2   -1.126754510917152E-2    1.503098027394598E-1    5.037420681995929E-1
 6.565556371000000E9     3.573294474129748E-2    5.663869686671307E-1    4.615854621627591E-2   -1.083204975558720E-2    4.534896216326981E-2   -1.141868212667611E-2    1.516997145456893E-1    5.033193342835572E-1
 6.565569009000000E9     3.681581378076101E-2    5.661321389223376E-1    4.643423111906784E-2   -1.107249857063838E-2    4.571331962052198E-2   -1.158440474898356E-2    1.533161374378055E-1    5.028658930908140E-1
 6.565581647000000E9     3.800068651280045E-2    5.661351233680719E-1    4.678444053765865E-2   -1.142782602842275E-2    4.598401433725876E-2   -1.187016751146497E-2    1.546553640359968E-1    5.024103884242805E-1
 6.565594285000000E9     3.904688669401977E-2    5.659420630381591E-1    4.716389623123666E-2   -1.149221991976953E-2    4.637667502649895E-2   -1.204936703815374E-2    1.562273066984434E-1    5.018511055673964E-1
 6.565606923000000E9     4.026410381584248E-2    5.658042025251545E-1    4.743956779881466E-2   -1.186026011984307E-2    4.670701690674073E-2   -1.234833627020623E-2    1.575909861363337E-1    5.013731832792833E-1
 6.565619561000000E9     4.135687727703152E-2    5.656473265848936E-1    4.781436893889741E-2   -1.195836870569773E-2    4.703041427101454E-2   -1.260877194741783E-2    1.592110484176523E-1    5.007904143044040E-1
 6.565632199000000E9     4.241204531651179E-2    5.655817970344558E-1    4.827206105972749E-2   -1.226709861949946E-2    4.737083354138830E-2   -1.282348375946170E-2    1.605755313304848E-1    5.002776916093437E-1
 6.565644837000000E9     4.356347888431093E-2    5.654480070470023E-1    4.838606839294852E-2   -1.234627937709676E-2    4.774204693907089E-2   -1.303652637300941E-2    1.621713659210028E-1    4.997809726768175E-1
 6.565657475000000E9     4.485086686517444E-2    5.652394069678850E-1    4.884267091314167E-2   -1.264724554554418E-2    4.804315302290791E-2   -1.333492742448233E-2    1.637643000564491E-1    4.994309736678849E-1
 6.565670113000000E9     4.605053896358896E-2    5.650663383194923E-1    4.921397218573847E-2   -1.300700756522979E-2    4.842563190778003E-2   -1.349426902700893E-2    1.651897958768793E-1    4.986546424330134E-1
 6.565682751000000E9     4.705954593277646E-2    5.648848924198603E-1    4.954695349604322E-2   -1.331793353849501E-2    4.877022765207100E-2   -1.383782526561724E-2    1.667506276342060E-1    4.980850124688838E-1
 6.565695389000000E9     4.818935752755588E-2    5.647902720037054E-1    4.991932646742574E-2   -1.352971392121364E-2    4.920835116867128E-2   -1.415783353737418E-2    1.682329885482486E-1    4.975412544313877E-1
 6.565708027000000E9     4.944129472159393E-2    5.645716087170798E-1    5.030407394152765E-2   -1.382963854347983E-2    4.955111123152897E-2   -1.434146135120420E-2    1.698579536145231E-1    4.969081298741537E-1
 6.565720665000000E9     5.046877310240633E-2    5.644375151924376E-1    5.073948296097687E-2   -1.403278604926005E-2    4.986451232258505E-2   -1.479620523509677E-2    1.713995833409824E-1    4.962468492351431E-1
 6.565733303000000E9     5.175937151154219E-2    5.642277211629788E-1    5.112546383725524E-2   -1.437482225154125E-2    5.030234082776559E-2   -1.490858840614543E-2    1.730174764228855E-1    4.956400065793318E-1
 6.565745941000000E9     5.280147835886435E-2    5.640660704691255E-1    5.136943719646311E-2   -1.445176097537927E-2    5.076903952489358E-2   -1.526839649182502E-2    1.744931142810303E-1    4.948739879263996E-1
 6.565758579000000E9     5.396058355897669E-2    5.639468894245837E-1    5.196070005801520E-2   -1.503081011729107E-2    5.104212490866945E-2   -1.550658552554801E-2    1.762604276001294E-1    4.944929528458616E-1
