#  HZ   S   RI   R     50.00 
! Rohde & Schwarz Vector Network Analyzer 
! Rohde-Schwarz,ZNB20-2Port,1311601062101988,3.16
! Created: UTC 3/20/2024, 5:11:35 PM
! freq[Hz]                re:S11                  im:S11                  re:S21                  im:S21                  re:S12                  im:S12                  re:S22                  im:S22
 6.564645415000000E9    -4.050728729614702E-2    5.674943874186938E-1    3.035562239234492E-2   -1.727385804554755E-3    2.984889667363687E-2   -1.965200760439871E-3    6.062502209216136E-2    5.226141138090881E-1
 6.564657965675000E9    -3.936873111442032E-2    5.676581392157526E-1    3.037901270530112E-2   -1.586714666722568E-3    2.994906796078157E-2   -1.991719925801205E-3    6.169169049093105E-2    5.224054818215934E-1
 6.564670516350000E9    -3.834465155320579E-2    5.676469789073607E-1    3.052035459676065E-2   -1.611787810219221E-3    3.003273812264565E-2   -2.143252353444226E-3    6.275490203283363E-2    5.224042935405928E-1
 6.564683067025000E9    -3.742239980950171E-2    5.677291169208755E-1    3.062670682191830E-2   -1.744084805431882E-3    3.016739901759593E-2   -2.304829527560124E-3    6.382946803340894E-2    5.223156043263005E-1
 6.564695617700000E9    -3.637512671791028E-2    5.679001106544280E-1    3.087142392966583E-2   -1.887127985406930E-3    3.027110512446372E-2   -2.355045843691962E-3    6.519532346092161E-2    5.220888770709831E-1
 6.564708168375000E9    -3.537950303798309E-2    5.678718146471122E-1    3.111194054479955E-2   -1.909144476486580E-3    3.050655803811845E-2   -2.425457738264630E-3    6.625687308783003E-2    5.219860980701884E-1
 6.564720719050000E9    -3.445624189460431E-2    5.679413521895664E-1    3.124428889959331E-2   -1.950211870438271E-3    3.063394431674625E-2   -2.494275444011684E-3    6.739514892744271E-2    5.219461726245900E-1
 6.564733269725000E9    -3.324749227291438E-2    5.680243122237588E-1    3.125678974314268E-2   -2.101184941403554E-3    3.074679051065995E-2   -2.598006975888561E-3    6.844338635408716E-2    5.217078970880311E-1
 6.564745820400000E9    -3.234171494284921E-2    5.680164048418769E-1    3.158600576206759E-2   -2.162731708933433E-3    3.081818103151460E-2   -2.583676474802454E-3    6.944267217581541E-2    5.214898225247694E-1
 6.564758371075000E9    -3.128226460002392E-2    5.680686410687289E-1    3.167542058941464E-2   -2.132366540601008E-3    3.108742071637537E-2   -2.702619001266642E-3    7.076297372327363E-2    5.213499721464410E-1
 6.564770921750000E9    -3.035986050616301E-2    5.680610259397070E-1    3.179926912842181E-2   -2.365867129726775E-3    3.132630890076887E-2   -2.800934134470024E-3    7.179625793113517E-2    5.213456024324614E-1
 6.564783472425000E9    -2.932349441450156E-2    5.681795256905505E-1    3.184659512147760E-2   -2.391821142812151E-3    3.138735438020399E-2   -2.955271796436878E-3    7.310559918564734E-2    5.212249826748223E-1
 6.564796023100000E9    -2.830649939516825E-2    5.681596124925317E-1    3.218095009419333E-2   -2.365043729114259E-3    3.157899598646315E-2   -3.054121116622106E-3    7.428060536937993E-2    5.209123450572001E-1
 6.564808573775000E9    -2.728743732970998E-2    5.683269667147682E-1    3.236117445857731E-2   -2.625932792799001E-3    3.181247378167148E-2   -3.125170602070503E-3    7.525809288982882E-2    5.208271070920267E-1
 6.564821124450000E9    -2.629937703589091E-2    5.683808295502378E-1    3.255863464624875E-2   -2.679175748872772E-3    3.186368291203338E-2   -3.138296913341142E-3    7.635910434757047E-2    5.206653215319449E-1
 6.564833675125000E9    -2.516613983843461E-2    5.683758327833330E-1    3.270140678040474E-2   -2.764185170862580E-3    3.204243220218966E-2   -3.198978613164587E-3    7.763862413921550E-2    5.206327804235790E-1
 6.564846225800000E9    -2.424302641109900E-2    5.684317643963620E-1    3.287401201584298E-2   -2.677051767630291E-3    3.224978756140745E-2   -3.407548814275040E-3    7.880410372602131E-2    5.203037120320757E-1
 6.564858776475000E9    -2.318532491857159E-2    5.684042644356581E-1    3.293992979113530E-2   -2.904507782265430E-3    3.250212261471491E-2   -3.445732868333112E-3    7.988203582666654E-2    5.201898737519715E-1
 6.564871327150000E9    -2.217197282766627E-2    5.684326803265770E-1    3.309944578105301E-2   -2.918304908297761E-3    3.254487664301968E-2   -3.410161791265826E-3    8.113432921759908E-2    5.200379299836776E-1
 6.564883877825000E9    -2.114430226417542E-2    5.685177754126941E-1    3.332356864859596E-2   -3.116149761583613E-3    3.275564546839345E-2   -3.591069425837304E-3    8.244253156957526E-2    5.199486628880902E-1
 6.564896428500000E9    -2.021874019115496E-2    5.685255983739406E-1    3.345676389458106E-2   -3.345200464357129E-3    3.296703744239998E-2   -3.757945599904433E-3    8.347040271686672E-2    5.197340091537339E-1
 6.564908979175000E9    -1.905769730106354E-2    5.685933005973448E-1    3.366055211797606E-2   -3.404225550746255E-3    3.311639482166579E-2   -3.846910987891182E-3    8.473154001311797E-2    5.194646527506597E-1
 6.564921529850000E9    -1.811578667103409E-2    5.685470877581914E-1    3.385347156321133E-2   -3.407788136248940E-3    3.327405032503956E-2   -3.847559959891463E-3    8.603322312058610E-2    5.193473593410280E-1
 6.564934080525000E9    -1.709107830986726E-2    5.686115076785414E-1    3.411118006842624E-2   -3.536642920821917E-3    3.350942423652767E-2   -3.965638970560042E-3    8.701616287047222E-2    5.189568201433788E-1
 6.564946631200000E9    -1.596710180389488E-2    5.686137266063500E-1    3.412806167825713E-2   -3.553338759754291E-3    3.366749927157506E-2   -4.165002922146626E-3    8.837373312455361E-2    5.188764281461294E-1
 6.564959181875000E9    -1.512290598994392E-2    5.686155342632687E-1    3.441540026438111E-2   -3.812339575761692E-3    3.381252754942894E-2   -4.277131385120462E-3    8.944980486019226E-2    5.187990825634260E-1
 6.564971732550000E9    -1.390005156496660E-2    5.686637401487474E-1    3.449703501144071E-2   -3.772088045344022E-3    3.403183335761291E-2   -4.274146527018698E-3    9.064922829480397E-2    5.186238535909293E-1
 6.564984283225000E9    -1.301429498621079E-2    5.686235954065070E-1    3.486655509594445E-2   -3.886446143094245E-3    3.422039912022184E-2   -4.485765240266511E-3    9.186420305710717E-2    5.183434960721637E-1
 6.564996833900000E9    -1.193235102168408E-2    5.686606030547388E-1    3.490032203571082E-2   -3.918689356439542E-3    3.438453004229457E-2   -4.505574246358390E-3    9.299282780205986E-2    5.181929315277840E-1
 6.565009384575000E9    -1.081740980619524E-2    5.686473056346371E-1    3.523710736333965E-2   -4.152279604110749E-3    3.448583825459359E-2   -4.727494709230209E-3    9.432954476674714E-2    5.179381500880702E-1
 6.565021935250000E9    -9.773310406727506E-3    5.686824357488003E-1    3.530975723390773E-2   -4.280598426393385E-3    3.472528898977682E-2   -4.644550964623557E-3    9.562479710519385E-2    5.178395110582884E-1
 6.565034485925000E9    -8.744173887039630E-3    5.686383550555019E-1    3.549821887412594E-2   -4.372586904931449E-3    3.487206138965048E-2   -4.818827437983484E-3    9.684373431778584E-2    5.175176867753317E-1
 6.565047036600000E9    -7.753213243188325E-3    5.686383825684206E-1    3.582696525836698E-2   -4.519230613757400E-3    3.509683671963397E-2   -5.031266693744852E-3    9.791481136401116E-2    5.174308286951705E-1
 6.565059587275000E9    -6.648332627801194E-3    5.685951112186594E-1    3.591479755221128E-2   -4.588310623142904E-3    3.532045648858197E-2   -5.101465024961623E-3    9.928914152481878E-2    5.169956698947070E-1
 6.565072137950000E9    -5.604531062429521E-3    5.686725868766450E-1    3.618746209295270E-2   -4.672579267613251E-3    3.552957536611590E-2   -5.194693232174496E-3    1.004173347955507E-1    5.168056408366380E-1
 6.565084688625000E9    -4.598185622094917E-3    5.686087158731370E-1    3.636565153547978E-2   -4.680289197844727E-3    3.575849545462262E-2   -5.316472927248999E-3    1.016173913740338E-1    5.165289251876171E-1
 6.565097239300000E9    -3.551858996927711E-3    5.685969687995228E-1    3.653973185899448E-2   -4.882540810047664E-3    3.595043618467479E-2   -5.475650890637601E-3    1.028233723461797E-1    5.163049715905120E-1
 6.565109789975000E9    -2.577472655858575E-3    5.684904497396918E-1    3.682003993643201E-2   -4.966081154269572E-3    3.614196946051573E-2   -5.650964161576560E-3    1.041796999342714E-1    5.159214298957995E-1
 6.565122340650000E9    -1.463368406291034E-3    5.685297247994329E-1    3.707212332886986E-2   -5.178236327414278E-3    3.630860735919540E-2   -5.666350240994763E-3    1.054211441541956E-1    5.158297467833489E-1
 6.565134891325000E9    -3.090894092242701E-4    5.684753756888958E-1    3.727350655539779E-2   -5.336917832084054E-3    3.658452318367677E-2   -5.872391625284620E-3    1.065694917842078E-1    5.155062342594374E-1
 6.565147442000000E9     6.771749588332802E-4    5.685610305147111E-1    3.735222234752248E-2   -5.337913746356235E-3    3.673295510672309E-2   -5.860535691959918E-3    1.078154717114015E-1    5.153077142976439E-1
 6.565159992675000E9     1.690654916968818E-3    5.685763258887222E-1    3.764117920111076E-2   -5.427042504533837E-3    3.683621795704153E-2   -6.036079901922837E-3    1.091873983084505E-1    5.149120287089588E-1
 6.565172543350000E9     2.744898328228454E-3    5.684410973626349E-1    3.781815432008854E-2   -5.567287410811834E-3    3.721168561677549E-2   -6.180571223264163E-3    1.104461532256593E-1    5.147779745078955E-1
 6.565185094025000E9     3.775016953210390E-3    5.683870265156806E-1    3.800727674909628E-2   -5.639184449685396E-3    3.745965451837364E-2   -6.252088619633517E-3    1.116902601842987E-1    5.144124769285738E-1
 6.565197644700000E9     4.858884237167682E-3    5.683991455216798E-1    3.825060611090899E-2   -5.872063195885861E-3    3.771412197992129E-2   -6.413057224527691E-3    1.128691602225385E-1    5.141242257349229E-1
 6.565210195375000E9     5.896322066530242E-3    5.684026966307348E-1    3.845560668942520E-2   -6.066071385774404E-3    3.781470044828928E-2   -6.661327455851954E-3    1.141852602929638E-1    5.138601757115943E-1
 6.565222746050000E9     7.053970967756316E-3    5.683102956180595E-1    3.874061006891944E-2   -6.251157135988021E-3    3.815087779861087E-2   -6.742962424701217E-3    1.154535296672880E-1    5.135870958944171E-1
 6.565235296725000E9     8.153860804076478E-3    5.682339354195366E-1    3.893075674496221E-2   -6.288813534496376E-3    3.829020625256612E-2   -6.800352767314033E-3    1.167846225669894E-1    5.132073564902210E-1
 6.565247847400000E9     9.105037035319860E-3    5.682929349069625E-1    3.912738317181211E-2   -6.464779771121731E-3    3.854699699723884E-2   -6.967053892539416E-3    1.180846099828876E-1    5.131034932930079E-1
 6.565260398075000E9     1.009680394600196E-2    5.681999642589460E-1    3.940720187097684E-2   -6.533030461790144E-3    3.880976787559549E-2   -7.173063891133156E-3    1.194563497763966E-1    5.128190333070655E-1
 6.565272948750000E9     1.116126162939270E-2    5.680926780887017E-1    3.974214125382158E-2   -6.726261007143722E-3    3.899114684725499E-2   -7.236248967011622E-3    1.206391299930307E-1    5.123703337977082E-1
 6.565285499425000E9     1.230598866905384E-2    5.681142906948627E-1    3.998017816627763E-2   -7.028483572964902E-3    3.918395475661689E-2   -7.351255367360352E-3    1.219123165042169E-1    5.120228518812585E-1
 6.565298050100000E9     1.340662154531538E-2    5.680043650394803E-1    4.010924901216874E-2   -7.025426637207953E-3    3.948836183360088E-2   -7.573746411562059E-3    1.232919774999045E-1    5.116170870205444E-1
 6.565310600775000E9     1.431525650947951E-2    5.679649370900380E-1    4.032388902659588E-2   -7.184460912535866E-3    3.973214062740275E-2   -7.643896124524674E-3    1.245688265612987E-1    5.114216338065711E-1
 6.565323151450000E9     1.548322580047034E-2    5.679830246501754E-1    4.062469248197483E-2   -7.334753591570761E-3    3.997255480429656E-2   -7.875682991624973E-3    1.258430891945488E-1    5.110447879460495E-1
 6.565335702125000E9     1.659887309034006E-2    5.678858701068904E-1    4.085841486852349E-2   -7.469685892883265E-3    4.017228738110450E-2   -8.022591620875383E-3    1.273177818227132E-1    5.107541849727087E-1
 6.565348252800000E9     1.765491833499400E-2    5.678296955211771E-1    4.106933213719812E-2   -7.718433744030615E-3    4.046679216777614E-2   -8.303554845093743E-3    1.284200393383068E-1    5.103963861029431E-1
 6.565360803475000E9     1.873454117508809E-2    5.677884477991103E-1    4.148729650560296E-2   -7.749611265170022E-3    4.077113635881975E-2   -8.320932689736549E-3    1.298336338350279E-1    5.099974418473547E-1
 6.565373354150000E9     1.972364562073222E-2    5.676624687767776E-1    4.179545073117901E-2   -7.997181507645088E-3    4.106135669524012E-2   -8.476137153510466E-3    1.312279669519655E-1    5.096098487659064E-1
 6.565385904825000E9     2.092305100435474E-2    5.676065460639259E-1    4.191839498239442E-2   -8.193021507179887E-3    4.121164981802754E-2   -8.643291139874212E-3    1.325828971453792E-1    5.093440693633599E-1
 6.565398455500000E9     2.206477004308053E-2    5.675495203973238E-1    4.218309084385558E-2   -8.267885743949984E-3    4.155043424723696E-2   -8.841963107082025E-3    1.338806282514969E-1    5.088485504239051E-1
 6.565411006175000E9     2.300579457203846E-2    5.674187541715562E-1    4.250838588155644E-2   -8.573766236233920E-3    4.185700318510822E-2   -9.056856576746396E-3    1.352769634549849E-1    5.086887760680088E-1
 6.565423556850000E9     2.414994459404255E-2    5.673842608310595E-1    4.271827920219402E-2   -8.588426500992856E-3    4.213290813338508E-2   -9.168133100481037E-3    1.366043618214218E-1    5.082616463749428E-1
 6.565436107525000E9     2.522821979316325E-2    5.673349990326799E-1    4.313759129871659E-2   -8.886453561579424E-3    4.231061125251366E-2   -9.320960619476277E-3    1.380183912078626E-1    5.077597159271509E-1
 6.565448658200000E9     2.621270084808440E-2    5.671901147533397E-1    4.320919870832168E-2   -8.989363690636382E-3    4.269388878164036E-2   -9.557460193835679E-3    1.392880217216894E-1    5.072995146913158E-1
 6.565461208875000E9     2.749661664123302E-2    5.672131500212616E-1    4.365584676626920E-2   -9.160849983403718E-3    4.294001138443573E-2   -9.806544140539983E-3    1.408530676825664E-1    5.069211872773515E-1
 6.565473759550000E9     2.856547421827808E-2    5.670498740389696E-1    4.399715854190234E-2   -9.606991823088747E-3    4.322582856900133E-2   -9.952546993679508E-3    1.421454971711001E-1    5.065043554408946E-1
 6.565486310225000E9     2.958229547128717E-2    5.669899215551292E-1    4.412853756111270E-2   -9.606111099453031E-3    4.345963607878648E-2   -1.010666897826804E-2    1.436172126178902E-1    5.061365451618403E-1
 6.565498860900000E9     3.064998123633612E-2    5.668683577533123E-1    4.453443695868266E-2   -9.716807953731341E-3    4.384029039208566E-2   -1.030558002277621E-2    1.449628377550123E-1    5.056322348164094E-1
 6.565511411575000E9     3.165868768954803E-2    5.668273223653919E-1    4.494808946588635E-2   -9.948852763495901E-3    4.418139873620265E-2   -1.053272426300993E-2    1.462598214688708E-1    5.051387083677965E-1
 6.565523962250000E9     3.290269489312550E-2    5.666884696559276E-1    4.522055215533897E-2   -1.016354993894098E-2    4.443584392277784E-2   -1.069939544607127E-2    1.477251501814481E-1    5.047534485227564E-1
 6.565536512925000E9     3.390266164090262E-2    5.665387609621763E-1    4.550214589589736E-2   -1.042659015183949E-2    4.481366836640005E-2   -1.102543392092247E-2    1.492176431635155E-1    5.042630912812591E-1
 6.565549063600000E9     3.513062658041417E-2    5.663449586605926E-1    4.575796947781481E-2   -1.054251768184566E-2    4.500076366984266E-2   -1.114955433564220E-2    1.506602583107101E-1    5.038204467852555E-1
 6.565561614275000E9     3.633416831299257E-2    5.663865386363823E-1    4.614635325271808E-2   -1.086808880638085E-2    4.535556842191706E-2   -1.147131945564415E-2    1.521327334554224E-1    5.032860001730508E-1
 6.565574164950000E9     3.721113744422436E-2    5.662070257551126E-1    4.639335723313060E-2   -1.102378630607066E-2    4.563789226031444E-2   -1.161023640783784E-2    1.536756355050505E-1    5.027647366342626E-1
 6.565586715625000E9     3.843765997375007E-2    5.661333105609436E-1    4.687490143610826E-2   -1.117080833883367E-2    4.597776769156649E-2   -1.186952124662396E-2    1.549930623092795E-1    5.023107630258881E-1
 6.565599266300000E9     3.951136152996236E-2    5.660182196925037E-1    4.722837137860741E-2   -1.162178162949548E-2    4.625181437561018E-2   -1.203042780085121E-2    1.565733640829600E-1    5.018770132724506E-1
 6.565611816975000E9     4.067476460551516E-2    5.658953022467360E-1    4.731852477082186E-2   -1.164904757134812E-2    4.668005425364233E-2   -1.230205124150374E-2    1.579684190111924E-1    5.014741390305673E-1
 6.565624367650000E9     4.176461217917939E-2    5.657936676935129E-1    4.785811179573218E-2   -1.202710543096951E-2    4.705580018202642E-2   -1.251900013687854E-2    1.593935622535055E-1    5.007656865648256E-1
 6.565636918325000E9     4.297059364872425E-2    5.654403625709032E-1    4.815755908438377E-2   -1.232413088355623E-2    4.743448426408466E-2   -1.286935252857860E-2    1.608395096761805E-1    5.004143430689488E-1
 6.565649469000000E9     4.411440222815471E-2    5.653413337572607E-1    4.844400291178140E-2   -1.240061122595463E-2    4.764526688775812E-2   -1.293132124302342E-2    1.625476676151649E-1    4.997718713709752E-1
 6.565662019675000E9     4.511572413164360E-2    5.652564531667410E-1    4.885640247127426E-2   -1.272799480896527E-2    4.795516413095673E-2   -1.340645004485308E-2    1.639819495802322E-1    4.992389873669799E-1
 6.565674570350000E9     4.642607621383148E-2    5.650203751028033E-1    4.922532941599667E-2   -1.300401188940607E-2    4.839465359129211E-2   -1.353173188842291E-2    1.653790037142053E-1    4.986601167261888E-1
 6.565687121025000E9     4.743655973307099E-2    5.649857900927290E-1    4.954328783600827E-2   -1.324578815438439E-2    4.874763980608798E-2   -1.379209904216627E-2    1.671870803100364E-1    4.981144459200693E-1
 6.565699671700000E9     4.862094811236801E-2    5.646819639982551E-1    4.999317977473725E-2   -1.348691538061053E-2    4.907984581571101E-2   -1.405817814757492E-2    1.686174903161601E-1    4.975407231805287E-1
 6.565712222375000E9     4.979289895485522E-2    5.646491280136442E-1    5.033381296486431E-2   -1.367322059823963E-2    4.960034615021622E-2   -1.435560272968199E-2    1.702216924114540E-1    4.969057426683671E-1
 6.565724773050000E9     5.094755586006747E-2    5.644735354175608E-1    5.052142075198671E-2   -1.398898864623358E-2    4.984577972734372E-2   -1.454752940335581E-2    1.715837865000117E-1    4.963623978202512E-1
 6.565737323725000E9     5.202673377028202E-2    5.642405896828628E-1    5.114796741875213E-2   -1.430148757557976E-2    5.029846032157361E-2   -1.494014648781256E-2    1.732249723457620E-1    4.958186830829450E-1
 6.565749874400000E9     5.317129368251507E-2    5.640274244374756E-1    5.147816752239695E-2   -1.464669491972256E-2    5.069791724249129E-2   -1.508684582731668E-2    1.746524324399822E-1    4.949979817926136E-1
 6.565762425075000E9     5.424340589918362E-2    5.639044471768602E-1    5.187441844313859E-2   -1.495773161955862E-2    5.115705868502434E-2   -1.549210393929514E-2    1.764332500339159E-1    4.943480325744897E-1
 6.565774975750000E9     5.552769145648614E-2    5.637211887507444E-1    5.217423441147875E-2   -1.526122692472037E-2    5.140049559073914E-2   -1.581976702300842E-2    1.780047858923326E-1    4.937505100442409E-1
