#  HZ   S   RI   R     50.00 
! Rohde & Schwarz Vector Network Analyzer 
! Rohde-Schwarz,ZNB20-2Port,1311601062101988,3.16
! Created: UTC 3/20/2024, 4:56:40 PM
! freq[Hz]                re:S11                  im:S11                  re:S21                  im:S21                  re:S12                  im:S12                  re:S22                  im:S22
 6.564283964000000E9    -6.801409858870151E-2    5.651137868959685E-1    2.783589681734853E-2   -2.604675330303899E-4    2.727866780755403E-2   -7.187884595917822E-4    3.225889522527304E-2    5.262918020424147E-1
 6.564297696700000E9    -6.697267914323926E-2    5.652397285091328E-1    2.772782143561196E-2   -1.444741110940619E-4    2.740927799768110E-2   -7.937804092132512E-4    3.366074434810491E-2    5.261565911306576E-1
 6.564311429400000E9    -6.588763251916414E-2    5.654257300342230E-1    2.813325528239750E-2   -2.047097329216893E-4    2.765146930150860E-2   -7.960931384969510E-4    3.464225517627768E-2    5.260943427780147E-1
 6.564325162100000E9    -6.483704566443689E-2    5.654910217647985E-1    2.818594817729113E-2   -4.327426981975511E-4    2.767302465503142E-2   -7.924238990890523E-4    3.586783296118681E-2    5.258779440350737E-1
 6.564338894800000E9    -6.369071510549761E-2    5.656155886487677E-1    2.825621385968871E-2   -2.460162535376301E-4    2.789340059997021E-2   -9.211843733097538E-4    3.713463256680959E-2    5.259881264689439E-1
 6.564352627500000E9    -6.273866312747754E-2    5.657464589723410E-1    2.841227553803933E-2   -4.455847978494112E-4    2.800256560607425E-2   -9.032533730875239E-4    3.835266718363124E-2    5.259141556580156E-1
 6.564366360200000E9    -6.163275882253511E-2    5.658387057787037E-1    2.867469590301933E-2   -5.346195361137526E-4    2.806587369290343E-2   -1.052920402971978E-3    3.956186382692347E-2    5.257765683853635E-1
 6.564380092900000E9    -6.055351161666231E-2    5.658725961951634E-1    2.876727985618776E-2   -5.041849710526393E-4    2.829543837725083E-2   -1.113325039538241E-3    4.067744504132709E-2    5.257198792042822E-1
 6.564393825600000E9    -5.946156656656573E-2    5.660053095289048E-1    2.884981603710573E-2   -6.270082945232881E-4    2.848067939799187E-2   -1.110510815144256E-3    4.188519696672979E-2    5.257666378351088E-1
 6.564407558300000E9    -5.837452569676471E-2    5.661034688488241E-1    2.893807058652597E-2   -6.223488164148130E-4    2.859888515539268E-2   -1.321054040547742E-3    4.314973479280904E-2    5.255411343649340E-1
 6.564421291000000E9    -5.730097525859083E-2    5.663166430056276E-1    2.917836004702425E-2   -8.722876640741254E-4    2.865730044083258E-2   -1.359435619139709E-3    4.438472117071444E-2    5.255480732523645E-1
 6.564435023700000E9    -5.610034574863636E-2    5.664607450259808E-1    2.936065257381434E-2   -9.344227930182381E-4    2.888023639119722E-2   -1.386327316206170E-3    4.544612976340050E-2    5.253249886290935E-1
 6.564448756400000E9    -5.510119472366665E-2    5.664798461404555E-1    2.965392208794124E-2   -1.028954458998842E-3    2.893405515968588E-2   -1.568210062569608E-3    4.683151113007680E-2    5.253455656566254E-1
 6.564462489100000E9    -5.390931131321260E-2    5.665149557731618E-1    2.953079812194432E-2   -1.108112307537246E-3    2.919922079231274E-2   -1.534517057829329E-3    4.790647799499139E-2    5.251859385345422E-1
 6.564476221800000E9    -5.291204843811680E-2    5.666439014171206E-1    2.975741044630397E-2   -1.188549417363252E-3    2.927037251351289E-2   -1.674834048262713E-3    4.920974067013708E-2    5.251983776982719E-1
 6.564489954500000E9    -5.175208053171714E-2    5.667192650470132E-1    2.999832785715697E-2   -1.219275763483536E-3    2.945972580804717E-2   -1.695327749670828E-3    5.034817488115807E-2    5.250342005703886E-1
 6.564503687200000E9    -5.066244165808895E-2    5.668904464411452E-1    3.014869596402820E-2   -1.270763249388797E-3    2.958182322646784E-2   -1.777751280945551E-3    5.165715928555856E-2    5.248327199516595E-1
 6.564517419900000E9    -4.967838930087337E-2    5.668885712123508E-1    3.025210805455711E-2   -1.435583216425085E-3    2.981190465446025E-2   -1.935817657416024E-3    5.285338219640511E-2    5.247441260180324E-1
 6.564531152600000E9    -4.851786935577052E-2    5.669583461674407E-1    3.038092885899389E-2   -1.468067338728783E-3    2.990461280787716E-2   -1.995692299542073E-3    5.411804083303503E-2    5.246150751508402E-1
 6.564544885300000E9    -4.725839719152339E-2    5.670657356687542E-1    3.067442165184052E-2   -1.541098250400094E-3    3.009354968640190E-2   -2.090701885210168E-3    5.526435423552024E-2    5.244856592075231E-1
 6.564558618000000E9    -4.628929586099739E-2    5.672628910743738E-1    3.076393144352460E-2   -1.601636826324920E-3    3.020749678985750E-2   -2.268833840814434E-3    5.651645187694140E-2    5.243455404055889E-1
 6.564572350700000E9    -4.507809109196247E-2    5.672251256914270E-1    3.089190067998909E-2   -1.542608011115773E-3    3.047954182394607E-2   -2.314317613534459E-3    5.792256846889739E-2    5.242761947602476E-1
 6.564586083400000E9    -4.403317668365569E-2    5.673441459279042E-1    3.111179432946325E-2   -1.796674677628203E-3    3.056935206264468E-2   -2.344593940914657E-3    5.907722720179171E-2    5.241806298069164E-1
 6.564599816100000E9    -4.292006554150697E-2    5.674321978013451E-1    3.123005282976104E-2   -1.922306961140087E-3    3.066258622910044E-2   -2.426170223616749E-3    6.024741933474634E-2    5.240279885935909E-1
 6.564613548800000E9    -4.187274816890686E-2    5.675541385786917E-1    3.143122106092552E-2   -1.945461823510748E-3    3.089262668086337E-2   -2.354088650361159E-3    6.163018946285576E-2    5.240137662212467E-1
 6.564627281500000E9    -4.071344643199325E-2    5.674543168776653E-1    3.165139345901105E-2   -2.002386107252177E-3    3.105207334430650E-2   -2.648550340296938E-3    6.280953634557061E-2    5.237125485314352E-1
 6.564641014200000E9    -3.955254244967363E-2    5.676159837808505E-1    3.179457556218185E-2   -2.126094585960188E-3    3.127368459812417E-2   -2.627535912464934E-3    6.407785193667706E-2    5.235809003256221E-1
 6.564654746900000E9    -3.844476635708262E-2    5.676307069294301E-1    3.197150230928198E-2   -2.114846457030957E-3    3.146431925560633E-2   -2.697545034117687E-3    6.520063357240505E-2    5.233542197034118E-1
 6.564668479600000E9    -3.742019892330287E-2    5.675739871377868E-1    3.205602252935920E-2   -2.418228478670935E-3    3.157262844291821E-2   -2.811330049924945E-3    6.654849131908770E-2    5.232029583145242E-1
 6.564682212300000E9    -3.620804892589415E-2    5.677135132008745E-1    3.231772082196593E-2   -2.395595291121295E-3    3.166790464790176E-2   -2.947809671958169E-3    6.797181927564289E-2    5.230260165728666E-1
 6.564695945000000E9    -3.509524497660010E-2    5.677630071508171E-1    3.240416530531826E-2   -2.578538361967384E-3    3.194789376873948E-2   -3.022435305896676E-3    6.910074872064365E-2    5.229044483562812E-1
 6.564709677700000E9    -3.395000974528464E-2    5.678058372748176E-1    3.249363379950677E-2   -2.674143577253344E-3    3.219067560737812E-2   -3.091220583459154E-3    7.048812025771192E-2    5.227117205529601E-1
 6.564723410400000E9    -3.287826729969351E-2    5.680069320232004E-1    3.277669975607702E-2   -2.668891761207594E-3    3.234325304757836E-2   -3.208309197718155E-3    7.186400321197517E-2    5.225790233224702E-1
 6.564737143100000E9    -3.182398678903742E-2    5.680438191289714E-1    3.296742393533372E-2   -2.817360848677856E-3    3.246296165350662E-2   -3.289299995087838E-3    7.290088624854425E-2    5.225037415991672E-1
 6.564750875800000E9    -3.061227275496203E-2    5.680605314611107E-1    3.317503204017194E-2   -2.900212377891518E-3    3.267884985505177E-2   -3.419037498353064E-3    7.421281587758820E-2    5.222725677545651E-1
 6.564764608500000E9    -2.962930219416896E-2    5.680912448699765E-1    3.335146629107753E-2   -3.026060501951598E-3    3.282345176016792E-2   -3.607650237764948E-3    7.545253703972717E-2    5.219183323773011E-1
 6.564778341200000E9    -2.847096554828956E-2    5.681300324574380E-1    3.354154068811032E-2   -3.037499730336546E-3    3.306002081358991E-2   -3.759381664226912E-3    7.686224574515874E-2    5.217263647544530E-1
 6.564792073900000E9    -2.736250458211064E-2    5.681334945659894E-1    3.377609879364609E-2   -3.221800166460288E-3    3.331557718690784E-2   -3.709410470111184E-3    7.808615649087598E-2    5.215950237743343E-1
 6.564805806600000E9    -2.614819092368534E-2    5.681630954454148E-1    3.402334599807646E-2   -3.341663673484615E-3    3.343277459358249E-2   -3.811079751735528E-3    7.936971320678121E-2    5.215170123470785E-1
 6.564819539300000E9    -2.506909718177329E-2    5.683771637890167E-1    3.416412988746859E-2   -3.434331033001197E-3    3.372345585078662E-2   -3.960099635323030E-3    8.077094992425335E-2    5.213417232099190E-1
 6.564833272000000E9    -2.393747788878831E-2    5.681787670255924E-1    3.431435967294426E-2   -3.623290667334653E-3    3.381246630616113E-2   -4.069368171285426E-3    8.205709320052140E-2    5.211124215068351E-1
 6.564847004700000E9    -2.274177648450589E-2    5.682526175774214E-1    3.460840270438616E-2   -3.695742797031024E-3    3.401607405544490E-2   -4.164132262581292E-3    8.330196835452230E-2    5.206858636931704E-1
 6.564860737400000E9    -2.168341979036899E-2    5.683504414464732E-1    3.488047224406215E-2   -3.863765930177261E-3    3.419340425366733E-2   -4.356975421469192E-3    8.472400299906443E-2    5.207113704160873E-1
 6.564874470100000E9    -2.050833755813760E-2    5.683040305296726E-1    3.491543080177108E-2   -3.946761646011466E-3    3.438122474172518E-2   -4.429017124559966E-3    8.602669503626655E-2    5.204401089497028E-1
 6.564888202800000E9    -1.944430982934598E-2    5.684408761441690E-1    3.503335490711057E-2   -4.111357496179704E-3    3.465342218482297E-2   -4.549251794869874E-3    8.730273797388459E-2    5.201078634275763E-1
 6.564901935500000E9    -1.839425977191630E-2    5.684096416411559E-1    3.556128206677434E-2   -4.159770248289561E-3    3.490870227942226E-2   -4.652840166063472E-3    8.849650486424809E-2    5.199724383126496E-1
 6.564915668200000E9    -1.716880637870054E-2    5.683620911118473E-1    3.561035306146088E-2   -4.274644918155354E-3    3.507921228079951E-2   -4.916225077667711E-3    9.003058396153601E-2    5.197067985650781E-1
 6.564929400900000E9    -1.602756840698621E-2    5.684330004498812E-1    3.584531969881385E-2   -4.366131031927594E-3    3.528128267507061E-2   -4.922235203634262E-3    9.124064472654973E-2    5.194927341870380E-1
 6.564943133600000E9    -1.481391128340652E-2    5.684258155791462E-1    3.608154219268692E-2   -4.524139734856730E-3    3.555164600383652E-2   -5.091397404787415E-3    9.271388567861856E-2    5.191853697563560E-1
 6.564956866300000E9    -1.379340724474837E-2    5.685499802379544E-1    3.636264797433320E-2   -4.503642605295957E-3    3.571265118945642E-2   -5.113549660302290E-3    9.396495253372165E-2    5.191675891161329E-1
 6.564970599000000E9    -1.252221022233495E-2    5.683857329854308E-1    3.654797396936641E-2   -4.724946558206503E-3    3.596897959750543E-2   -5.361833089207158E-3    9.531285117164336E-2    5.187503830886108E-1
 6.564984331700000E9    -1.145580697102724E-2    5.683978781472153E-1    3.669934617364028E-2   -4.933947637484562E-3    3.628464655765776E-2   -5.445783711805341E-3    9.669777435578314E-2    5.185111441610597E-1
 6.564998064400000E9    -1.030756990363788E-2    5.683784965737868E-1    3.703011215753598E-2   -4.967848115098189E-3    3.632717509658500E-2   -5.600279796559023E-3    9.796684756305536E-2    5.182637198485320E-1
 6.565011797100000E9    -9.167880564458136E-3    5.684273694002857E-1    3.718871295534462E-2   -5.305025966184153E-3    3.660049627676527E-2   -5.683134650385585E-3    9.954164387698845E-2    5.178261202434303E-1
 6.565025529800000E9    -8.015319306810922E-3    5.684832097233711E-1    3.745934540180576E-2   -5.310152360542879E-3    3.679606417110450E-2   -5.788421550116880E-3    1.008587665830623E-1    5.175465388517848E-1
 6.565039262500000E9    -6.872141195774538E-3    5.684211112549721E-1    3.762436392826156E-2   -5.545937122231245E-3    3.696584623832642E-2   -6.068697352451439E-3    1.022704749588382E-1    5.174347483938572E-1
 6.565052995200000E9    -5.636855187830825E-3    5.683551061652008E-1    3.789445897100521E-2   -5.645428896152723E-3    3.730303825637027E-2   -6.176665491526123E-3    1.035269410818727E-1    5.170920825641125E-1
 6.565066727900000E9    -4.667318217756304E-3    5.684021878972133E-1    3.813827360487981E-2   -5.851546733449854E-3    3.746931399458846E-2   -6.315939925327976E-3    1.049410868117288E-1    5.167517067700031E-1
 6.565080460600000E9    -3.348341677591227E-3    5.683348431453918E-1    3.851628222369893E-2   -5.831303390376612E-3    3.780319282979042E-2   -6.434790574540671E-3    1.062617725626751E-1    5.164666480411709E-1
 6.565094193300000E9    -2.312344602106613E-3    5.683504204463509E-1    3.877952387046662E-2   -6.143379713086782E-3    3.792834869401145E-2   -6.566604094801660E-3    1.077630918480681E-1    5.161419628613070E-1
 6.565107926000000E9    -1.073448815351117E-3    5.682319475575259E-1    3.898242814477976E-2   -6.168539688550472E-3    3.819409091418242E-2   -6.778389789116349E-3    1.091189642079581E-1    5.157496043987793E-1
 6.565121658700000E9     1.537083966123892E-4    5.681870942994273E-1    3.929506957900569E-2   -6.353803962019312E-3    3.849490429750190E-2   -6.975992791774310E-3    1.105724922627309E-1    5.155018137877091E-1
 6.565135391400000E9     1.266529493238968E-3    5.681479059429230E-1    3.940445554254417E-2   -6.510982147236382E-3    3.879052029289708E-2   -6.998650481424997E-3    1.119174723472521E-1    5.151692942897662E-1
 6.565149124100000E9     2.437889548005829E-3    5.682435993483255E-1    3.966651088888769E-2   -6.850754740952504E-3    3.895709350777603E-2   -7.224281807516489E-3    1.133825206695836E-1    5.147620721264230E-1
 6.565162856800000E9     3.584401580604373E-3    5.681140904133184E-1    3.987713352278584E-2   -6.836975258289153E-3    3.933214135959722E-2   -7.366550508251920E-3    1.148409207137411E-1    5.144743634930430E-1
 6.565176589500000E9     4.702321878935599E-3    5.682084519530467E-1    4.017088234664437E-2   -7.127643350897404E-3    3.956046583389323E-2   -7.669071595046568E-3    1.161616561684704E-1    5.141762928361940E-1
 6.565190322200000E9     6.035232921872623E-3    5.679945777405730E-1    4.050443217819862E-2   -7.143397329387853E-3    3.983214770120157E-2   -7.798796587426096E-3    1.176104533531403E-1    5.137160359003800E-1
 6.565204054900000E9     7.138849051246962E-3    5.679839109539747E-1    4.078229384263433E-2   -7.524194368407031E-3    4.000523140499475E-2   -7.922711905933459E-3    1.190938440726375E-1    5.133545583663053E-1
 6.565217787600000E9     8.175665608025814E-3    5.678759675702044E-1    4.097787596902588E-2   -7.561960655055645E-3    4.040019690615869E-2   -8.181031050064385E-3    1.205741062390892E-1    5.130180407083581E-1
 6.565231520300000E9     9.525661363109651E-3    5.679383442520591E-1    4.138259785926209E-2   -7.697191488424621E-3    4.071581700122990E-2   -8.286828685963830E-3    1.219849670358302E-1    5.125530776409853E-1
 6.565245253000000E9     1.064792519646190E-2    5.678317096965486E-1    4.161285120062788E-2   -7.926522970077956E-3    4.098117917749096E-2   -8.454097671832021E-3    1.234219485294497E-1    5.121916183012382E-1
 6.565258985700000E9     1.178180581637927E-2    5.677597855102346E-1    4.180242166422936E-2   -8.091676326620037E-3    4.120573997392357E-2   -8.626451746673598E-3    1.250482904109949E-1    5.117496052806300E-1
 6.565272718400000E9     1.299134597115523E-2    5.677334446990737E-1    4.230250348667524E-2   -8.228875124265901E-3    4.140328472773042E-2   -8.973309074765160E-3    1.265411960729353E-1    5.114151806110335E-1
 6.565286451100000E9     1.414434906816934E-2    5.676082870647272E-1    4.261442878729540E-2   -8.385827258021001E-3    4.182140533432491E-2   -9.014489400676753E-3    1.279054678189490E-1    5.111173589377891E-1
 6.565300183800000E9     1.539539940351574E-2    5.675885075306447E-1    4.279647647111529E-2   -8.603103736945839E-3    4.205579159750001E-2   -9.210612112480121E-3    1.294278436530721E-1    5.105898261670307E-1
 6.565313916500000E9     1.652388977713231E-2    5.673737285763381E-1    4.316511010119849E-2   -8.880169466778026E-3    4.243096418692746E-2   -9.387939321877984E-3    1.308772449136709E-1    5.101902645645694E-1
 6.565327649200000E9     1.777086200111246E-2    5.673560560359217E-1    4.356933033099677E-2   -9.020173832475017E-3    4.274587258857269E-2   -9.570536588517758E-3    1.323167600695439E-1    5.096904607465371E-1
 6.565341381900000E9     1.894741756591677E-2    5.673827894737298E-1    4.370761690383346E-2   -9.338340069440622E-3    4.303580185423461E-2   -9.827362270550033E-3    1.340567995356948E-1    5.093313658742102E-1
 6.565355114600000E9     2.011353583944228E-2    5.671947722311618E-1    4.401824693044259E-2   -9.437279150452227E-3    4.320633459704800E-2   -1.004762373696360E-2    1.354136848324077E-1    5.087700412254430E-1
 6.565368847300000E9     2.136490361224404E-2    5.670709765493522E-1    4.435822126871440E-2   -9.655630080722859E-3    4.366826275776110E-2   -1.032956587911310E-2    1.371124532285104E-1    5.084091386529113E-1
 6.565382580000000E9     2.262548466803052E-2    5.670691602716432E-1    4.476154133060915E-2   -9.868981278135975E-3    4.397158043098307E-2   -1.047068843450344E-2    1.385681904300934E-1    5.079693894367207E-1
 6.565396312700000E9     2.383188881096593E-2    5.668840704059189E-1    4.495069873181004E-2   -1.007415239689438E-2    4.430647976954391E-2   -1.082422754874368E-2    1.401435407435024E-1    5.075791409719224E-1
 6.565410045400000E9     2.498721249056083E-2    5.668838830369406E-1    4.528996396029465E-2   -1.039314660560693E-2    4.462571035202743E-2   -1.093288001561873E-2    1.416453263724730E-1    5.068534138895119E-1
 6.565423778100000E9     2.622001981128396E-2    5.667490866075383E-1    4.575774917668302E-2   -1.056446597371263E-2    4.493414822341652E-2   -1.128229176134302E-2    1.432258207497604E-1    5.063875313026335E-1
 6.565437510800000E9     2.740282159426840E-2    5.665514397318520E-1    4.609520812842249E-2   -1.089351101589463E-2    4.536909570736572E-2   -1.154767816840719E-2    1.448731880802267E-1    5.057437769865107E-1
 6.565451243500000E9     2.867597598738204E-2    5.664609582163591E-1    4.649284033035595E-2   -1.110063883213406E-2    4.558248582046191E-2   -1.166424603020495E-2    1.464688547388820E-1    5.053105225292940E-1
 6.565464976200000E9     2.983124982461316E-2    5.663907378674924E-1    4.677555753788939E-2   -1.150676895163126E-2    4.596286541608596E-2   -1.191196842302379E-2    1.479183158388108E-1    5.047312730405300E-1
 6.565478708900000E9     3.102050856903628E-2    5.662597260174083E-1    4.733542228416503E-2   -1.166940158028483E-2    4.633919254060372E-2   -1.220108376951937E-2    1.496535412376281E-1    5.042469462441623E-1
 6.565492441600000E9     3.234411778266595E-2    5.660185602297624E-1    4.737937501471569E-2   -1.194437469896184E-2    4.679107102734621E-2   -1.240858140378652E-2    1.512335157450870E-1    5.036874828957466E-1
 6.565506174300000E9     3.355811393220769E-2    5.659170896147818E-1    4.776885146026248E-2   -1.226828124527846E-2    4.705545450727310E-2   -1.273919060892116E-2    1.528006684437137E-1    5.031224923574853E-1
 6.565519907000000E9     3.475124116916885E-2    5.658553507963315E-1    4.830764021713136E-2   -1.231720421548762E-2    4.749577546478802E-2   -1.301592411022217E-2    1.545887206660565E-1    5.024206622064534E-1
