#  HZ   S   RI   R     50.00 
! Rohde & Schwarz Vector Network Analyzer 
! Rohde-Schwarz,ZNB20-2Port,1311601062101988,3.16
! Created: UTC 3/20/2024, 5:11:50 PM
! freq[Hz]                re:S11                  im:S11                  re:S21                  im:S21                  re:S12                  im:S12                  re:S22                  im:S22
 6.564667770000000E9    -3.882814067913866E-2    5.676154579839018E-1    3.039092423242106E-2   -1.539015765963129E-3    3.002830171840652E-2   -2.034524994193636E-3    6.240602099902356E-2    5.223988570397355E-1
 6.564680238300000E9    -3.779404030400050E-2    5.678763013939107E-1    3.053870503319087E-2   -1.797033526616101E-3    3.006863416509315E-2   -2.159727996092818E-3    6.360791873506715E-2    5.223813697861913E-1
 6.564692706600000E9    -3.676637706266046E-2    5.678638791288383E-1    3.076847357300637E-2   -1.804144176398447E-3    3.021519426060974E-2   -2.267644585160069E-3    6.466220989890541E-2    5.222321308986707E-1
 6.564705174900000E9    -3.593875300069501E-2    5.679940565877339E-1    3.080094423787652E-2   -1.829371019447405E-3    3.033633088382636E-2   -2.339110779735020E-3    6.584366980045357E-2    5.220651880059811E-1
 6.564717643200000E9    -3.479396518408764E-2    5.680405915532770E-1    3.109765483139227E-2   -1.958267663311327E-3    3.061886038259021E-2   -2.337301957697305E-3    6.692480271568825E-2    5.218587086189087E-1
 6.564730111500000E9    -3.375426188298264E-2    5.681211880779238E-1    3.121818997813436E-2   -1.950373576189814E-3    3.069922631831216E-2   -2.520345068220460E-3    6.799341016559557E-2    5.218211438821743E-1
 6.564742579800000E9    -3.277582328617296E-2    5.680152241611860E-1    3.136775402277239E-2   -2.092093707590695E-3    3.073944834414863E-2   -2.524009746098048E-3    6.912365659877871E-2    5.217913215140294E-1
 6.564755048100000E9    -3.173605667148707E-2    5.682061974498620E-1    3.156137883408992E-2   -2.207624286741417E-3    3.104089167230124E-2   -2.633189167071385E-3    7.027782294585062E-2    5.216543990946407E-1
 6.564767516400000E9    -3.075236192595123E-2    5.681582474602757E-1    3.165201962105092E-2   -2.215980517592841E-3    3.115328940443098E-2   -2.800243210543928E-3    7.145805670136761E-2    5.213538888825383E-1
 6.564779984700000E9    -2.979932509487929E-2    5.682005617778934E-1    3.182975054591154E-2   -2.422362120015473E-3    3.122904518447587E-2   -2.749172221039445E-3    7.271043709620463E-2    5.213914385482729E-1
 6.564792453000000E9    -2.874470644604030E-2    5.683041720751963E-1    3.204844144584269E-2   -2.379117899083897E-3    3.151550060043370E-2   -2.926170429150156E-3    7.379419463703306E-2    5.211314948730646E-1
 6.564804921300000E9    -2.780589511502358E-2    5.682596262438049E-1    3.220608493466502E-2   -2.492110295630454E-3    3.156290825944775E-2   -2.956532470762728E-3    7.487868893106994E-2    5.209027943431388E-1
 6.564817389600000E9    -2.670277701257710E-2    5.683512957827641E-1    3.226693908072861E-2   -2.545062905481655E-3    3.184471763948771E-2   -3.079484910956323E-3    7.596215675375056E-2    5.208451781056771E-1
 6.564829857900000E9    -2.568000915329366E-2    5.684154372473600E-1    3.243309882576096E-2   -2.664922539276446E-3    3.190993080879302E-2   -3.191073550287105E-3    7.718996443774494E-2    5.206398106030509E-1
 6.564842326200000E9    -2.460834502470260E-2    5.683824318160257E-1    3.267799445643913E-2   -2.800697785306329E-3    3.216495152910191E-2   -3.394108646635063E-3    7.839459708641497E-2    5.205767798823540E-1
 6.564854794500000E9    -2.368529600025994E-2    5.684587818019111E-1    3.297699344748711E-2   -3.027829128054949E-3    3.224523488410525E-2   -3.420438982276486E-3    7.956886604130106E-2    5.202466655552056E-1
 6.564867262800000E9    -2.269233772479651E-2    5.684347813889123E-1    3.294538367205458E-2   -2.952681744502510E-3    3.241379357356521E-2   -3.425142581524115E-3    8.069896340881785E-2    5.201699085441857E-1
 6.564879731100000E9    -2.179700475872510E-2    5.684783154401833E-1    3.321865450918420E-2   -3.073830615510984E-3    3.262804838184307E-2   -3.521252687323364E-3    8.187345329507140E-2    5.200783995609710E-1
 6.564892199400000E9    -2.049547992020905E-2    5.685561968427486E-1    3.347502282232273E-2   -3.156830669930002E-3    3.275330504339901E-2   -3.679404198507787E-3    8.296990796536304E-2    5.199444673326000E-1
 6.564904667700000E9    -1.958403482189025E-2    5.685684329657865E-1    3.367347291066115E-2   -3.218513203097592E-3    3.298258321583560E-2   -3.760965501327698E-3    8.415999633702169E-2    5.195605411088364E-1
 6.564917136000000E9    -1.862459095171179E-2    5.685596910956937E-1    3.358443041309989E-2   -3.232185779439794E-3    3.303036346213974E-2   -3.846484678134061E-3    8.531900577006692E-2    5.193810484630593E-1
 6.564929604300000E9    -1.759360684318628E-2    5.684762362514053E-1    3.398184885811074E-2   -3.437495765592558E-3    3.330022420852987E-2   -3.935684806770564E-3    8.642177764913865E-2    5.194137523385338E-1
 6.564942072600000E9    -1.648225470557950E-2    5.686882230120137E-1    3.409756619321327E-2   -3.445603271190110E-3    3.347105683136116E-2   -4.049495772404809E-3    8.778913828505387E-2    5.190440846130350E-1
 6.564954540900000E9    -1.557478866248263E-2    5.686461369825403E-1    3.416074316353421E-2   -3.644986218044890E-3    3.362260722276095E-2   -4.151852010322817E-3    8.896439633553879E-2    5.188217432615915E-1
 6.564967009200000E9    -1.447861604378244E-2    5.686051148215306E-1    3.456142356028052E-2   -3.909542509198730E-3    3.381648004797424E-2   -4.139993005524584E-3    9.019812654189369E-2    5.187732889951184E-1
 6.564979477500000E9    -1.344507737905796E-2    5.686630342940561E-1    3.464428640719707E-2   -3.749986444168635E-3    3.402817508258969E-2   -4.224632214375285E-3    9.136240617082574E-2    5.184029150602063E-1
 6.564991945800000E9    -1.250060867244206E-2    5.687203731065393E-1    3.485215590438840E-2   -3.949643963142085E-3    3.421312086098852E-2   -4.496474274501262E-3    9.248508461263867E-2    5.183132436157464E-1
 6.565004414100000E9    -1.134740509428178E-2    5.687114144763409E-1    3.492401833312734E-2   -4.010798857214560E-3    3.439605352948654E-2   -4.506231391154634E-3    9.371164098361541E-2    5.180906776952180E-1
 6.565016882400000E9    -1.037749654155532E-2    5.686787095236039E-1    3.522241288670647E-2   -4.223037759967286E-3    3.462613626978332E-2   -4.737981315000167E-3    9.472035324309511E-2    5.179697135496075E-1
 6.565029350700000E9    -9.405607607154150E-3    5.685301250294609E-1    3.541347441824273E-2   -4.232549237381714E-3    3.469256947866212E-2   -4.812581932215592E-3    9.607714036801408E-2    5.175901738040962E-1
 6.565041819000000E9    -8.313554160042161E-3    5.685829154125465E-1    3.571225585417100E-2   -4.448469091739629E-3    3.499655102882159E-2   -4.859959382630205E-3    9.737428318576280E-2    5.174988197770352E-1
 6.565054287300000E9    -7.306924491310931E-3    5.686255928661215E-1    3.580523941497387E-2   -4.508318585766306E-3    3.519025430812938E-2   -4.999128603072653E-3    9.848232426408916E-2    5.172581060994048E-1
 6.565066755600000E9    -6.320950278888349E-3    5.686760638809836E-1    3.585858685697321E-2   -4.473992171897972E-3    3.538544945730096E-2   -5.064100902908462E-3    9.955841706487427E-2    5.169767215673107E-1
 6.565079223900000E9    -5.103828053812919E-3    5.686744186541036E-1    3.614064238883151E-2   -4.632062795121239E-3    3.554284292711768E-2   -5.177365877124091E-3    1.009188064711114E-1    5.167052384412256E-1
 6.565091692200000E9    -4.207010402928008E-3    5.686527284986925E-1    3.631912869525542E-2   -4.697022378096075E-3    3.582067822809192E-2   -5.344051302318633E-3    1.022670993209986E-1    5.166772180641748E-1
 6.565104160500000E9    -3.187176822570538E-3    5.687080344564998E-1    3.659193648563288E-2   -4.905866806462436E-3    3.593914183814213E-2   -5.435500515403275E-3    1.035160457734565E-1    5.162382418558455E-1
 6.565116628800000E9    -2.048854595396119E-3    5.685969374261663E-1    3.681047906819937E-2   -4.970033837404680E-3    3.607753634644056E-2   -5.556340490302437E-3    1.046736049781791E-1    5.159952370485305E-1
 6.565129097100000E9    -1.112613307936816E-3    5.686406104457268E-1    3.699740562848198E-2   -5.229028420275041E-3    3.643880433828335E-2   -5.682186531651958E-3    1.058444840741455E-1    5.157851610147609E-1
 6.565141565400000E9    -4.785685686975365E-5    5.686400793301442E-1    3.715232363349195E-2   -5.292813129894464E-3    3.657073535630732E-2   -5.731809920881064E-3    1.071271688370724E-1    5.154533026503618E-1
 6.565154033700000E9     9.983881607625324E-4    5.686014955107361E-1    3.750890837308870E-2   -5.492696918475017E-3    3.671688524249227E-2   -5.899701218579139E-3    1.083585659620241E-1    5.153220250582804E-1
 6.565166502000000E9     2.087837335125175E-3    5.684373044276071E-1    3.763876821278634E-2   -5.556624795363532E-3    3.700196072616385E-2   -5.919589919820228E-3    1.095709207497252E-1    5.149377309386249E-1
 6.565178970300000E9     3.083747181335056E-3    5.685585902583361E-1    3.786438581404568E-2   -5.601720583057165E-3    3.711553925455206E-2   -6.185881555739979E-3    1.108851216246207E-1    5.146724313409187E-1
 6.565191438600000E9     4.172695368957603E-3    5.684935015091022E-1    3.803788377791209E-2   -5.879229166097903E-3    3.736614893178924E-2   -6.334201468015129E-3    1.121129099761450E-1    5.143789444534786E-1
 6.565203906900000E9     5.135600652300810E-3    5.682783512026989E-1    3.827312907406265E-2   -6.022060055215999E-3    3.768919837583250E-2   -6.344501516127960E-3    1.134946534026414E-1    5.141236009704492E-1
 6.565216375200000E9     6.300045209446456E-3    5.683521092724541E-1    3.848328235409473E-2   -6.100392390808632E-3    3.791478595271026E-2   -6.485958408089768E-3    1.147207396439680E-1    5.138773296847182E-1
 6.565228843500000E9     7.356392802043433E-3    5.684349502534118E-1    3.883365558181610E-2   -6.130370926019589E-3    3.810738097632398E-2   -6.754929371739604E-3    1.160628758582578E-1    5.135196943245384E-1
 6.565241311800000E9     8.359789189236114E-3    5.683775002221545E-1    3.894875655944448E-2   -6.271987655118312E-3    3.831188995110556E-2   -6.860466038574363E-3    1.172263793403644E-1    5.133989295047493E-1
 6.565253780100000E9     9.472989717239541E-3    5.682899781698085E-1    3.917529221929430E-2   -6.526385166572992E-3    3.845142713562393E-2   -6.967574706961834E-3    1.184278154530473E-1    5.130552967477913E-1
 6.565266248400000E9     1.048078647210424E-2    5.682489063092711E-1    3.946194203209016E-2   -6.596409412502045E-3    3.885669314497227E-2   -7.105442758518195E-3    1.197606172355054E-1    5.128069743793272E-1
 6.565278716700000E9     1.156612388381074E-2    5.681610991924301E-1    3.964877931773076E-2   -6.637583037316491E-3    3.899079981309646E-2   -7.292039291011310E-3    1.212256338418886E-1    5.122472876144109E-1
 6.565291185000000E9     1.261263475331190E-2    5.682108206890054E-1    4.000707283013581E-2   -6.912847987178804E-3    3.920989042098875E-2   -7.405097774440575E-3    1.224052224662433E-1    5.120541255001572E-1
 6.565303653300000E9     1.368275896758830E-2    5.681449809108762E-1    4.025237462734089E-2   -6.880550193585133E-3    3.947868212875406E-2   -7.599934495389996E-3    1.236633262688941E-1    5.118277041125511E-1
 6.565316121600000E9     1.478576913432666E-2    5.680511371715464E-1    4.050109692242020E-2   -7.206752905994098E-3    3.980821466755544E-2   -7.754330824899428E-3    1.249824951052147E-1    5.115256456960177E-1
 6.565328589900000E9     1.574363737666956E-2    5.680872288867751E-1    4.069568961486104E-2   -7.395786966066985E-3    3.997689140675119E-2   -7.813276586044068E-3    1.262607478600169E-1    5.110944873988279E-1
 6.565341058200000E9     1.691850036057649E-2    5.678238622828828E-1    4.080897470711262E-2   -7.399552590950167E-3    4.027073894894338E-2   -7.952199868890945E-3    1.275677784346114E-1    5.106570843205631E-1
 6.565353526500000E9     1.790480378291893E-2    5.677605087370849E-1    4.111961243755679E-2   -7.593856757643330E-3    4.042571584404667E-2   -8.139758128358418E-3    1.290253833894362E-1    5.104608794172626E-1
 6.565365994800000E9     1.892940211856270E-2    5.677300456061555E-1    4.145892394027507E-2   -7.871162233880931E-3    4.075469432205468E-2   -8.349162921993858E-3    1.301257778752900E-1    5.100547114354070E-1
 6.565378463100000E9     2.016520583886201E-2    5.676969778792181E-1    4.167309091594428E-2   -7.903166910610939E-3    4.101301586337885E-2   -8.519607082939151E-3    1.314967792259015E-1    5.097023336304123E-1
 6.565390931400000E9     2.112712560290464E-2    5.675860400695226E-1    4.193320538296717E-2   -8.018059313358436E-3    4.136419289885016E-2   -8.611604075284737E-3    1.329225362052251E-1    5.092669924065909E-1
 6.565403399700000E9     2.232915324287937E-2    5.675059947577059E-1    4.224001179295245E-2   -8.238143846276412E-3    4.146572534975611E-2   -8.864480497050554E-3    1.340178698788936E-1    5.089590393618481E-1
 6.565415868000000E9     2.326668659010371E-2    5.674167392760494E-1    4.249655920821722E-2   -8.401475714324126E-3    4.188426005716196E-2   -8.973069226446313E-3    1.354285067745297E-1    5.085194322385077E-1
 6.565428336300000E9     2.440061099638123E-2    5.674768772095018E-1    4.275671111683037E-2   -8.668700028658162E-3    4.202149864007521E-2   -9.250067857595736E-3    1.369340632385376E-1    5.080251451787953E-1
 6.565440804600000E9     2.553681491468179E-2    5.673116371063226E-1    4.333765651423398E-2   -8.664986108032111E-3    4.237137860148465E-2   -9.324424658505026E-3    1.383216350670771E-1    5.077370878386845E-1
 6.565453272900000E9     2.654722872315189E-2    5.672805618201647E-1    4.335662361558934E-2   -9.044198707416060E-3    4.270091627325655E-2   -9.554529532385031E-3    1.395677001599107E-1    5.073672963714597E-1
 6.565465741200000E9     2.762363721495393E-2    5.671635256745726E-1    4.355157047046582E-2   -9.240932523247062E-3    4.293657071816280E-2   -9.770996459240178E-3    1.410836205892244E-1    5.069628449406485E-1
 6.565478209500000E9     2.880962405756089E-2    5.670885959270414E-1    4.378958579107400E-2   -9.361908213128944E-3    4.312231871510010E-2   -9.903679364177487E-3    1.424772281966143E-1    5.065012626929108E-1
 6.565490677800000E9     2.982450321213482E-2    5.670722750006717E-1    4.421815584693529E-2   -9.599611926410184E-3    4.351982419966322E-2   -1.022657935713008E-2    1.439102831065403E-1    5.061678330156442E-1
 6.565503146100000E9     3.093275884569780E-2    5.669830820719769E-1    4.453412330106742E-2   -9.830463240871959E-3    4.374202243174882E-2   -1.032161667631554E-2    1.452568008169292E-1    5.057974967610349E-1
 6.565515614400000E9     3.195125762416592E-2    5.668661244842127E-1    4.476561498296085E-2   -1.007873706447115E-2    4.406070282128295E-2   -1.057458500459464E-2    1.466586496617943E-1    5.052951653141992E-1
 6.565528082700000E9     3.310603379869919E-2    5.667576003878475E-1    4.518045674365091E-2   -1.029990588441016E-2    4.436561985517348E-2   -1.069820401974953E-2    1.479404298698236E-1    5.047689729527594E-1
 6.565540551000000E9     3.427681446898816E-2    5.665609272210895E-1    4.546484759978180E-2   -1.034544213721098E-2    4.472480093952078E-2   -1.096375321640317E-2    1.493494542777265E-1    5.042615407694099E-1
 6.565553019300000E9     3.528279843512211E-2    5.664296642662183E-1    4.572669310971336E-2   -1.056690038914183E-2    4.499195733327989E-2   -1.111133938987702E-2    1.507246706226416E-1    5.039161547738195E-1
 6.565565487600000E9     3.643321409038302E-2    5.663563599924939E-1    4.599480361949945E-2   -1.064694862094215E-2    4.527606859281587E-2   -1.138506748009776E-2    1.522263852008791E-1    5.034423418318479E-1
 6.565577955900000E9     3.753189600914167E-2    5.662239056652796E-1    4.643433461547122E-2   -1.090751731946271E-2    4.564965695922937E-2   -1.154125983641438E-2    1.537840089617480E-1    5.031401001785539E-1
 6.565590424200000E9     3.861526683899241E-2    5.660275547967607E-1    4.676242928601337E-2   -1.112380213298891E-2    4.581637026620955E-2   -1.185105882823296E-2    1.551623477087998E-1    5.025142858344105E-1
 6.565602892500000E9     3.978186351874884E-2    5.660321559505433E-1    4.715044313009214E-2   -1.144480643033894E-2    4.621659136904901E-2   -1.204917638685877E-2    1.566597652789098E-1    5.019910104598555E-1
 6.565615360800000E9     4.084834764219219E-2    5.659061502570815E-1    4.735820901925648E-2   -1.156596860437703E-2    4.657012330416819E-2   -1.225598749453605E-2    1.581208935251799E-1    5.015285487066848E-1
 6.565627829100000E9     4.187525236104713E-2    5.656072176378705E-1    4.767811228958272E-2   -1.186066247819162E-2    4.691963490025673E-2   -1.241412596759156E-2    1.595595825956405E-1    5.009410483560860E-1
 6.565640297400000E9     4.309664577537412E-2    5.654751245763127E-1    4.794072932247206E-2   -1.215307792377338E-2    4.718661119074642E-2   -1.273269758466192E-2    1.610825724054757E-1    5.004253059756917E-1
 6.565652765700000E9     4.429494004964651E-2    5.654206654932750E-1    4.843376899783181E-2   -1.244396426667456E-2    4.760453013545669E-2   -1.295268216305410E-2    1.626027524720306E-1    5.000089796579298E-1
 6.565665234000000E9     4.537481185274323E-2    5.652101766093127E-1    4.874782179537492E-2   -1.257052374181865E-2    4.795388635444062E-2   -1.315125734521790E-2    1.640971714188906E-1    4.993024435504222E-1
 6.565677702300000E9     4.637631391049376E-2    5.651166523259386E-1    4.905654499210567E-2   -1.292980688350465E-2    4.833562841674580E-2   -1.349655369604865E-2    1.655682692299123E-1    4.988365059686576E-1
 6.565690170600000E9     4.765049345009326E-2    5.649311561647676E-1    4.951195659207554E-2   -1.310716818762010E-2    4.871903130739140E-2   -1.361254874462823E-2    1.671017809127925E-1    4.981762139275901E-1
 6.565702638900000E9     4.878682768288444E-2    5.648057587052000E-1    4.995574331312856E-2   -1.336454750836098E-2    4.906859237548979E-2   -1.393463390319973E-2    1.685463150167424E-1    4.976918716684274E-1
 6.565715107200000E9     4.985200624372801E-2    5.645452698956045E-1    5.029498478788406E-2   -1.366969075453153E-2    4.933714232454765E-2   -1.419312902088185E-2    1.701273969190709E-1    4.971094658765643E-1
 6.565727575500000E9     5.101847952713273E-2    5.644985907578768E-1    5.065584715532285E-2   -1.399389698894943E-2    4.980853833360690E-2   -1.455291113891740E-2    1.716684356621030E-1    4.964669065281339E-1
 6.565740043800000E9     5.209727130897216E-2    5.643262280450770E-1    5.101582413729523E-2   -1.416983690376776E-2    5.010476920534514E-2   -1.476643756993683E-2    1.731277757661689E-1    4.958339820796985E-1
 6.565752512100000E9     5.334076531083756E-2    5.641336585348256E-1    5.139840542485849E-2   -1.441322133264207E-2    5.048838052397386E-2   -1.506552810310622E-2    1.749033875324691E-1    4.952263366249519E-1
 6.565764980400000E9     5.440561702220902E-2    5.639391502010133E-1    5.189251353006106E-2   -1.478010950663305E-2    5.086606908976769E-2   -1.542004914650521E-2    1.764793198532734E-1    4.945794018434012E-1
 6.565777448700000E9     5.549289050881495E-2    5.637934121345473E-1    5.219421180672891E-2   -1.506880542798386E-2    5.136912350670491E-2   -1.571870120791236E-2    1.780202217324731E-1    4.938889526679325E-1
 6.565789917000000E9     5.668464930147608E-2    5.635522256046864E-1    5.260839394205288E-2   -1.530492939985612E-2    5.172680545975352E-2   -1.603838680337204E-2    1.795506040540242E-1    4.932148995173050E-1
