#  HZ   S   RI   R     50.00 
! Rohde & Schwarz Vector Network Analyzer 
! Rohde-Schwarz,ZNB20-2Port,1311601062101988,3.16
! Created: UTC 3/20/2024, 4:56:42 PM
! freq[Hz]                re:S11                  im:S11                  re:S21                  im:S21                  re:S12                  im:S12                  re:S22                  im:S22
 6.564281282000000E9    -6.829786395273595E-2    5.650163145507168E-1    2.785683691137591E-2   -8.667290427024867E-5    2.722819357772734E-2   -5.780100092656385E-4    3.220284333906225E-2    5.261257583115576E-1
 6.564295023775000E9    -6.716381661165277E-2    5.652453929968790E-1    2.783308474127795E-2   -2.285159432145863E-4    2.734549382559210E-2   -6.510371546121550E-4    3.320379157905982E-2    5.260418886800038E-1
 6.564308765550000E9    -6.616389173854917E-2    5.653785833252513E-1    2.798632832419608E-2   -2.311114086750461E-4    2.751736169289721E-2   -7.447878385124859E-4    3.460271269504223E-2    5.261340243714968E-1
 6.564322507325000E9    -6.507484095609356E-2    5.654725076861251E-1    2.797178206891025E-2   -3.921978648480755E-4    2.765569405233522E-2   -8.445691834088574E-4    3.565643177306347E-2    5.258968782347658E-1
 6.564336249100000E9    -6.400295058184780E-2    5.655587132272183E-1    2.819541955970293E-2   -3.794419106174988E-4    2.775094238457394E-2   -1.008135327232330E-3    3.675174903639466E-2    5.261048552758925E-1
 6.564349990875000E9    -6.290407089217412E-2    5.656956424299074E-1    2.843871778478931E-2   -4.253745833988577E-4    2.801158692100509E-2   -9.352103044845562E-4    3.800568774031985E-2    5.258943902770685E-1
 6.564363732650000E9    -6.176582538376871E-2    5.657634234336369E-1    2.856654592548040E-2   -6.386758072974053E-4    2.805888655432554E-2   -1.025680777353509E-3    3.920238962152817E-2    5.257707788676930E-1
 6.564377474425000E9    -6.068585082728254E-2    5.659713958380524E-1    2.882080814953580E-2   -6.137881930969548E-4    2.823937175067498E-2   -1.135152887156875E-3    4.045405527181828E-2    5.257861465576227E-1
 6.564391216200000E9    -5.970799143898881E-2    5.659685107129470E-1    2.888393846687098E-2   -6.507667089908396E-4    2.827637720559780E-2   -1.189934814473394E-3    4.160421122628637E-2    5.257414495440793E-1
 6.564404957975000E9    -5.846308301435574E-2    5.661549978136342E-1    2.898115000536202E-2   -8.207579451503948E-4    2.856435568848228E-2   -1.169899849651118E-3    4.284849802470488E-2    5.256148623535606E-1
 6.564418699750000E9    -5.748663794057535E-2    5.662050352807958E-1    2.917109917715672E-2   -8.329978523868715E-4    2.858623147828704E-2   -1.288244560193725E-3    4.404496214637766E-2    5.254943143920988E-1
 6.564432441525000E9    -5.645247293824637E-2    5.663964333464894E-1    2.930348112294017E-2   -1.001648994802645E-3    2.881735061841755E-2   -1.439158462426825E-3    4.526612350078878E-2    5.253421170041747E-1
 6.564446183300000E9    -5.518904380042168E-2    5.664427864751738E-1    2.947570821910135E-2   -1.063102330536025E-3    2.894794412338582E-2   -1.503795142863664E-3    4.654256924392538E-2    5.254430725307715E-1
 6.564459925075000E9    -5.409888286759746E-2    5.665672715784863E-1    2.970498949968051E-2   -1.062889026341816E-3    2.914442988533597E-2   -1.503251556630429E-3    4.779466764051262E-2    5.252921689340365E-1
 6.564473666850000E9    -5.310782101153641E-2    5.665366140701740E-1    2.981704567441514E-2   -1.158648834968654E-3    2.926059803138166E-2   -1.581166049263442E-3    4.891206958231011E-2    5.250677509779581E-1
 6.564487408625000E9    -5.183175737634067E-2    5.667563342887273E-1    2.981520568110379E-2   -1.340955451962337E-3    2.947750768108786E-2   -1.768614138831415E-3    5.002317109321723E-2    5.250623312555122E-1
 6.564501150400000E9    -5.079980537054462E-2    5.667746163529899E-1    3.015074258004571E-2   -1.202844228647128E-3    2.960370684520780E-2   -1.720989894105812E-3    5.148040119224039E-2    5.248360156689984E-1
 6.564514892175000E9    -4.974077192939665E-2    5.669342550981786E-1    3.026916210990541E-2   -1.494384201896920E-3    2.969362398942900E-2   -1.782396890175777E-3    5.259330998772833E-2    5.247244654271854E-1
 6.564528633950000E9    -4.852896738706650E-2    5.669063536046526E-1    3.035517385419652E-2   -1.445982120190924E-3    2.990629588338323E-2   -1.963815372352427E-3    5.380550919933884E-2    5.244768288716610E-1
 6.564542375725000E9    -4.753073446250726E-2    5.670276644293436E-1    3.062196389237737E-2   -1.497035288749020E-3    3.005109476566689E-2   -2.116276209272589E-3    5.522928490463701E-2    5.245676481653283E-1
 6.564556117500000E9    -4.645363935170320E-2    5.671618181152470E-1    3.072242492614329E-2   -1.765506460849291E-3    3.025735539236358E-2   -2.187172022158294E-3    5.636500879942030E-2    5.243145607599613E-1
 6.564569859275000E9    -4.537226935221013E-2    5.672338128615561E-1    3.095151990926079E-2   -1.625267063340797E-3    3.038733335875747E-2   -2.246586902360980E-3    5.762389583841716E-2    5.243876586092763E-1
 6.564583601050000E9    -4.425448880367513E-2    5.672755788238585E-1    3.093207938363423E-2   -1.792365365534045E-3    3.050894386149682E-2   -2.337260443506765E-3    5.879869759639232E-2    5.240616843205091E-1
 6.564597342825000E9    -4.307922711144578E-2    5.673791075979808E-1    3.112818508400731E-2   -2.009977587207671E-3    3.069689633284384E-2   -2.370890246802277E-3    6.017103736791982E-2    5.240962042390741E-1
 6.564611084600000E9    -4.190678462998256E-2    5.674070926168738E-1    3.131471731573798E-2   -1.976472102079480E-3    3.082381483962243E-2   -2.487904563104644E-3    6.132420066870718E-2    5.237972764222701E-1
 6.564624826375000E9    -4.090684947882864E-2    5.674752765857072E-1    3.158104264398930E-2   -2.023057844603071E-3    3.100836881828510E-2   -2.616109353620212E-3    6.247870889374838E-2    5.238156408705791E-1
 6.564638568150000E9    -3.985272407637081E-2    5.675847837422616E-1    3.169443309978568E-2   -2.227761165427748E-3    3.125012202386784E-2   -2.611725308210316E-3    6.402584382719129E-2    5.235659371022159E-1
 6.564652309925000E9    -3.871782985142296E-2    5.675340778628295E-1    3.189610865199843E-2   -2.238683252314273E-3    3.137342159753835E-2   -2.771715504729519E-3    6.518881378690590E-2    5.234176705497331E-1
 6.564666051700000E9    -3.757851153195956E-2    5.677280150006172E-1    3.220736705959045E-2   -2.206893704932946E-3    3.158175718621673E-2   -2.796596529748356E-3    6.644422974535365E-2    5.233530398458373E-1
 6.564679793475000E9    -3.651949827216697E-2    5.677639982646526E-1    3.217500938972629E-2   -2.505885236954897E-3    3.175762006135412E-2   -2.867735991451236E-3    6.768936404138617E-2    5.232088684809748E-1
 6.564693535250000E9    -3.534678192029569E-2    5.678412262996859E-1    3.254468559744088E-2   -2.468117077883410E-3    3.195571921994287E-2   -3.023710742603860E-3    6.892501581003149E-2    5.229187507534991E-1
 6.564707277025000E9    -3.433512073178115E-2    5.678789802108051E-1    3.258018617308076E-2   -2.560908098352363E-3    3.212837571947727E-2   -3.154012721354762E-3    7.012228874716091E-2    5.227425731152056E-1
 6.564721018800000E9    -3.316761471381820E-2    5.679673014483396E-1    3.275237901947812E-2   -2.877501182501376E-3    3.231157717089761E-2   -3.268714084256074E-3    7.143015526051615E-2    5.225956984721531E-1
 6.564734760575000E9    -3.196050985567614E-2    5.680196408688826E-1    3.289920756842133E-2   -2.623679491612550E-3    3.256798329094604E-2   -3.327311519199431E-3    7.274384870909639E-2    5.223438595702148E-1
 6.564748502350000E9    -3.085970141785246E-2    5.679331658148373E-1    3.322393903390826E-2   -2.939378425041353E-3    3.259518628829891E-2   -3.479293163844524E-3    7.411369111217060E-2    5.222336953019683E-1
 6.564762244125000E9    -2.978679175522728E-2    5.680792125889820E-1    3.352546765687084E-2   -3.083247643992883E-3    3.283553236096651E-2   -3.486280820891136E-3    7.527334285522527E-2    5.220774242335707E-1
 6.564775985900000E9    -2.867100065333725E-2    5.681035847379716E-1    3.356061058098646E-2   -3.152796335922932E-3    3.298750053931072E-2   -3.724993872930835E-3    7.651634505824051E-2    5.218397842905934E-1
 6.564789727675000E9    -2.755154906298874E-2    5.681435308885973E-1    3.377563893018713E-2   -3.289173516494965E-3    3.321190007737999E-2   -3.774004096729101E-3    7.800718526126475E-2    5.216405728825267E-1
 6.564803469450000E9    -2.629926948749088E-2    5.682379065731294E-1    3.401352461426575E-2   -3.324652957866203E-3    3.334906624397527E-2   -3.859993829240264E-3    7.925396480067549E-2    5.215746032862733E-1
 6.564817211225000E9    -2.519268463037917E-2    5.682337847030234E-1    3.426957772937873E-2   -3.536280627480540E-3    3.370196385236615E-2   -3.990558484535144E-3    8.048733360095815E-2    5.212695509973541E-1
 6.564830953000000E9    -2.405335606059696E-2    5.681454021619546E-1    3.433622644484366E-2   -3.515168914886961E-3    3.381223428807318E-2   -4.115547768942330E-3    8.190338185925568E-2    5.209783391095905E-1
 6.564844694775000E9    -2.296019233614530E-2    5.682878323719263E-1    3.450939424459814E-2   -3.643423684352283E-3    3.398043914194334E-2   -4.139609330636827E-3    8.302597268590202E-2    5.210155707735891E-1
 6.564858436550000E9    -2.180541995707594E-2    5.682594218596645E-1    3.478216492994397E-2   -3.749257407490456E-3    3.414084880309348E-2   -4.285088611818434E-3    8.437716830552427E-2    5.205124643481988E-1
 6.564872178325000E9    -2.072103328451337E-2    5.682753678217244E-1    3.499898219382828E-2   -3.977207396245377E-3    3.443729314837229E-2   -4.371683771514230E-3    8.572614364523595E-2    5.204055350021248E-1
 6.564885920100000E9    -1.953410847573238E-2    5.682547083778186E-1    3.516872098059524E-2   -4.065410535055218E-3    3.466867217870469E-2   -4.571754092351620E-3    8.709357058095321E-2    5.203191160446211E-1
 6.564899661875000E9    -1.846160980156364E-2    5.683621671346533E-1    3.525363650161976E-2   -4.091326238076851E-3    3.470921832767215E-2   -4.597387995045996E-3    8.853965605184309E-2    5.200268043726265E-1
 6.564913403650000E9    -1.737189668370677E-2    5.684096910996375E-1    3.570518732586903E-2   -4.326707608071642E-3    3.506572646124636E-2   -4.669910876004678E-3    8.963823384694410E-2    5.197628241450846E-1
 6.564927145425000E9    -1.612563707948330E-2    5.684144512812831E-1    3.587840691792949E-2   -4.360477602211222E-3    3.519095454327766E-2   -4.837051731610472E-3    9.116879100233524E-2    5.194516452440980E-1
 6.564940887200000E9    -1.504400571427217E-2    5.683518141086769E-1    3.614453826086384E-2   -4.515109996592020E-3    3.541108719317974E-2   -5.065378586239882E-3    9.257923402028477E-2    5.193456117578570E-1
 6.564954628975000E9    -1.387331634117868E-2    5.684445569359515E-1    3.628419872359984E-2   -4.695751199506878E-3    3.562352508391924E-2   -5.169469309205573E-3    9.375585178971958E-2    5.191073173430544E-1
 6.564968370750000E9    -1.281726649186746E-2    5.684429068515270E-1    3.655361165839007E-2   -4.851616919538552E-3    3.591616342259286E-2   -5.325309028170690E-3    9.518997951848794E-2    5.188148650498253E-1
 6.564982112525000E9    -1.161008789297847E-2    5.683866632984473E-1    3.676010494364682E-2   -4.955414891239164E-3    3.607089479403801E-2   -5.552301927999152E-3    9.658614889947303E-2    5.185954574420673E-1
 6.564995854300000E9    -1.040220072783636E-2    5.684642578975247E-1    3.678439313614424E-2   -5.086807509707611E-3    3.639398870819479E-2   -5.554827963525550E-3    9.785851856276219E-2    5.182311370146081E-1
 6.565009596075000E9    -9.363226755879870E-3    5.684351555692220E-1    3.717148489774051E-2   -5.211425089613540E-3    3.651762929753834E-2   -5.675914755178155E-3    9.925053596329811E-2    5.179222712432350E-1
 6.565023337850000E9    -8.220021769454028E-3    5.684394786058721E-1    3.730615733909753E-2   -5.305232484572816E-3    3.679953615235680E-2   -5.943599417511658E-3    1.006896252968995E-1    5.176072537669901E-1
 6.565037079625000E9    -7.086827783365061E-3    5.683428536312065E-1    3.761943277725106E-2   -5.403389149193090E-3    3.707309538794463E-2   -6.027782231688574E-3    1.021245255100371E-1    5.173730480383321E-1
 6.565050821400000E9    -5.841134695209907E-3    5.683790152338501E-1    3.785089946102912E-2   -5.560997279409073E-3    3.729960516573865E-2   -6.212188535086424E-3    1.032756385926967E-1    5.171267542343021E-1
 6.565064563175000E9    -4.601776215529720E-3    5.682789125961906E-1    3.800948193434544E-2   -5.764508408012135E-3    3.751556199854014E-2   -6.334134039165454E-3    1.048458689393945E-1    5.167809967360364E-1
 6.565078304950000E9    -3.564591007728167E-3    5.683025563246384E-1    3.835600728450429E-2   -5.838983232295077E-3    3.769138239844884E-2   -6.386291301702619E-3    1.060049914618808E-1    5.165148632835870E-1
 6.565092046725000E9    -2.396193088999663E-3    5.683750231236993E-1    3.869042135353166E-2   -5.998976170284258E-3    3.803560638828758E-2   -6.537670001938131E-3    1.076432414477720E-1    5.162579026477346E-1
 6.565105788500000E9    -1.243192376217243E-3    5.682759756414671E-1    3.888049257783952E-2   -6.204028603794600E-3    3.818185264818588E-2   -6.765757774131111E-3    1.090078776984719E-1    5.158878953580288E-1
 6.565119530275000E9    -8.040640095492612E-5    5.682660384514734E-1    3.922469524550354E-2   -6.284817625052961E-3    3.859707738240818E-2   -6.943343842583208E-3    1.103993279932470E-1    5.154860345743544E-1
 6.565133272050000E9     1.081544409987328E-3    5.682219424348502E-1    3.940595824913805E-2   -6.507827445691765E-3    3.877327726747736E-2   -7.118570213126930E-3    1.117857754106246E-1    5.152550639237190E-1
 6.565147013825000E9     2.148728855918961E-3    5.682268605091678E-1    3.965227218050573E-2   -6.743790021178897E-3    3.900277369673734E-2   -7.210799465992157E-3    1.132052034744653E-1    5.147607395026880E-1
 6.565160755600000E9     3.375047657811919E-3    5.681705588710916E-1    3.995476544942847E-2   -6.801703867464047E-3    3.927687971839495E-2   -7.397868874605651E-3    1.146811337612476E-1    5.143838288966842E-1
 6.565174497375000E9     4.586388257502293E-3    5.681397373512909E-1    4.031409317823052E-2   -6.989233049475570E-3    3.951374263742553E-2   -7.578625703812645E-3    1.160762361428210E-1    5.142389365996923E-1
 6.565188239150000E9     5.753861455838389E-3    5.680036753183689E-1    4.052699957857635E-2   -7.117383068159157E-3    3.983385625309310E-2   -7.765368980227589E-3    1.176046853618359E-1    5.138210926638751E-1
 6.565201980925000E9     7.026051678041702E-3    5.679600059734676E-1    4.070698263594099E-2   -7.300925981230491E-3    4.007018296379847E-2   -7.860923272752684E-3    1.190032339912983E-1    5.133785106533492E-1
 6.565215722700000E9     8.149566123781421E-3    5.680064259923011E-1    4.097526549126034E-2   -7.640247167117874E-3    4.025912242429202E-2   -8.165207796401770E-3    1.204181863197919E-1    5.130313448415463E-1
 6.565229464475000E9     9.355593038619169E-3    5.678775333909841E-1    4.133159468873492E-2   -7.635610472955082E-3    4.064449077373938E-2   -8.316428222727514E-3    1.218319204097942E-1    5.126780359452641E-1
 6.565243206250000E9     1.049777775409168E-2    5.678705202853991E-1    4.155489047484635E-2   -7.959320077439184E-3    4.087837124324357E-2   -8.404726623850100E-3    1.232473064793542E-1    5.122771829035063E-1
 6.565256948025000E9     1.162432710290827E-2    5.678252482055690E-1    4.194645221028538E-2   -8.169221308435335E-3    4.114716387642234E-2   -8.571067643993034E-3    1.247994309485021E-1    5.119879724222218E-1
 6.565270689800000E9     1.284279955797546E-2    5.676708865488408E-1    4.221298728604732E-2   -8.169541875579299E-3    4.154788437395684E-2   -8.832981614038952E-3    1.263307035597665E-1    5.117260103839436E-1
 6.565284431575000E9     1.410055032660942E-2    5.676822614080119E-1    4.245218557549872E-2   -8.320012904706053E-3    4.182964496455197E-2   -9.002350121792147E-3    1.279577681297856E-1    5.111409599809162E-1
 6.565298173350000E9     1.520835206680151E-2    5.675342725373513E-1    4.286607529081588E-2   -8.574365807584276E-3    4.205711465800029E-2   -9.241097148196152E-3    1.292338363132998E-1    5.106568795909446E-1
 6.565311915125000E9     1.640692776930292E-2    5.675392883045671E-1    4.309019188965594E-2   -8.769905520788440E-3    4.250722006772108E-2   -9.398424743915721E-3    1.307503559145025E-1    5.103456102047498E-1
 6.565325656900000E9     1.767424799458440E-2    5.673970014513130E-1    4.343467044260450E-2   -8.937558450891156E-3    4.276692958063461E-2   -9.592385941202269E-3    1.323559706711996E-1    5.098067014359700E-1
 6.565339398675000E9     1.873915491425373E-2    5.672677303867550E-1    4.376331798341052E-2   -9.208793697173001E-3    4.308166327523019E-2   -9.864109795004489E-3    1.337511517430863E-1    5.093584557290336E-1
 6.565353140450000E9     1.992767467688025E-2    5.671562328515821E-1    4.406090463304183E-2   -9.389228449664522E-3    4.325279256778742E-2   -1.014287113333635E-2    1.352637560174735E-1    5.089219590461428E-1
 6.565366882225000E9     2.124104905474919E-2    5.670915689072774E-1    4.444474693749770E-2   -9.726661944934998E-3    4.359908904671816E-2   -1.027653076484362E-2    1.369165226196765E-1    5.084482019098089E-1
 6.565380624000000E9     2.245014008544224E-2    5.670239295901744E-1    4.483763310016610E-2   -9.867714894549325E-3    4.385656720074516E-2   -1.038117144601108E-2    1.382818108377447E-1    5.080613342571203E-1
 6.565394365775000E9     2.363546768878099E-2    5.670697622306482E-1    4.511128349246855E-2   -1.021012183031000E-2    4.433869683995998E-2   -1.067379623895770E-2    1.399832914607315E-1    5.075916408564379E-1
 6.565408107550000E9     2.479192696137802E-2    5.667581627023779E-1    4.545944633923425E-2   -1.040193281211600E-2    4.462195163917246E-2   -1.095932126713883E-2    1.414578642721384E-1    5.070195357623191E-1
 6.565421849325000E9     2.599068488968716E-2    5.667400424449017E-1    4.571617471799738E-2   -1.061845023562944E-2    4.493729483435766E-2   -1.118718663031700E-2    1.432088925264786E-1    5.063139105649298E-1
 6.565435591100000E9     2.722270760557195E-2    5.666113139931703E-1    4.604180438281302E-2   -1.089925205571900E-2    4.527903108020957E-2   -1.142280740096997E-2    1.445826315012898E-1    5.059852367260461E-1
 6.565449332875000E9     2.840363623867040E-2    5.665621189161638E-1    4.625451337710310E-2   -1.115555160793305E-2    4.560867265913323E-2   -1.160675685624210E-2    1.462431884266180E-1    5.055271171058976E-1
 6.565463074650000E9     2.973513326219579E-2    5.663086905129004E-1    4.674974220574914E-2   -1.136471217338333E-2    4.602011539506037E-2   -1.197455304120685E-2    1.479587384670137E-1    5.049676989407280E-1
 6.565476816425000E9     3.094667593739848E-2    5.661518545913238E-1    4.706527449096481E-2   -1.158234293093204E-2    4.626894176615094E-2   -1.221900067922209E-2    1.494256461439520E-1    5.042301867329754E-1
 6.565490558200000E9     3.222527396423445E-2    5.661045204452489E-1    4.746275955482985E-2   -1.193122338103650E-2    4.665762138648510E-2   -1.247688369977009E-2    1.510226978925838E-1    5.038043391129672E-1
 6.565504299975000E9     3.338505919512764E-2    5.659664672893208E-1    4.793227727971133E-2   -1.218037078685734E-2    4.711616068715938E-2   -1.276465835775109E-2    1.525872237168469E-1    5.031968071314507E-1
 6.565518041750000E9     3.455300038091270E-2    5.659253044985105E-1    4.832014501277768E-2   -1.222825788988364E-2    4.741988423442856E-2   -1.295176213112717E-2    1.543340069264709E-1    5.026365167112312E-1
