#  HZ   S   RI   R     50.00 
! Rohde & Schwarz Vector Network Analyzer 
! Rohde-Schwarz,ZNB20-2Port,1311601062101988,3.16
! Created: UTC 3/20/2024, 4:56:49 PM
! freq[Hz]                re:S11                  im:S11                  re:S21                  im:S21                  re:S12                  im:S12                  re:S22                  im:S22
 6.564272086000000E9    -6.901525000485585E-2    5.650128656838462E-1    2.767308303935406E-2   -6.314370674446037E-5    2.716153823396167E-2   -6.973281958089831E-4    3.133654636246250E-2    5.261264494553282E-1
 6.564285867725000E9    -6.802799276881055E-2    5.650576160460501E-1    2.777913457530612E-2   -8.212861867474126E-5    2.738179176707835E-2   -6.122160559321308E-4    3.247835232627762E-2    5.260884853426681E-1
 6.564299649450000E9    -6.680030359015481E-2    5.652850236487573E-1    2.799694370873509E-2   -1.773782599000511E-4    2.739147566733039E-2   -7.487856119356172E-4    3.372357519321551E-2    5.261871992629810E-1
 6.564313431175000E9    -6.574300340103195E-2    5.652536473383452E-1    2.810228602828497E-2   -3.117327038057491E-4    2.759635124041826E-2   -8.185153800045449E-4    3.480919391573719E-2    5.261800976048212E-1
 6.564327212900000E9    -6.460580999973795E-2    5.654838602427916E-1    2.815296711787102E-2   -3.125325448735235E-4    2.767358618388069E-2   -8.033528342080036E-4    3.599525217894407E-2    5.258910657193362E-1
 6.564340994625000E9    -6.369071536040807E-2    5.655861570405540E-1    2.826852958796526E-2   -3.109224318639071E-4    2.791202481898450E-2   -9.260733092031873E-4    3.721257909651924E-2    5.258726915905315E-1
 6.564354776350000E9    -6.252965624378395E-2    5.656786225678196E-1    2.844271743610358E-2   -6.159336970202834E-4    2.798536069217922E-2   -1.028161624880396E-3    3.852290944077695E-2    5.259025165957246E-1
 6.564368558075000E9    -6.143516351404289E-2    5.658322345679572E-1    2.853966952702277E-2   -5.827185899088248E-4    2.815469259882831E-2   -1.099404726615190E-3    3.960425021701028E-2    5.259051701636741E-1
 6.564382339800000E9    -6.023786601159877E-2    5.659087959208803E-1    2.871590640658683E-2   -6.195102142451899E-4    2.825285294608811E-2   -1.167605055441470E-3    4.094362038906983E-2    5.256944668238264E-1
 6.564396121525000E9    -5.927794459784146E-2    5.660223805093244E-1    2.884801668814824E-2   -7.949152724936228E-4    2.850267086933719E-2   -1.072851327926607E-3    4.207052368456071E-2    5.255929341714239E-1
 6.564409903250000E9    -5.807143703880730E-2    5.660655835305661E-1    2.900344718635278E-2   -7.708252554680906E-4    2.864023247309474E-2   -1.294192426580471E-3    4.322010848404310E-2    5.253630964781133E-1
 6.564423684975000E9    -5.707621610096267E-2    5.662213697666598E-1    2.925955412089977E-2   -8.498785835854802E-4    2.867654111350022E-2   -1.355532021895994E-3    4.429317330364576E-2    5.254436843139660E-1
 6.564437466700000E9    -5.586631284393386E-2    5.663066856481055E-1    2.939303813612438E-2   -8.866960617240190E-4    2.890151806710873E-2   -1.439226678455671E-3    4.571816728220671E-2    5.253715948179462E-1
 6.564451248425000E9    -5.485438230351437E-2    5.664367690968082E-1    2.963587962120429E-2   -9.724340612876774E-4    2.908805476528613E-2   -1.568732495327642E-3    4.687424482234881E-2    5.251156628373823E-1
 6.564465030150000E9    -5.371695192073123E-2    5.665563555565165E-1    2.971671363565272E-2   -1.138811659673905E-3    2.906544131614407E-2   -1.686016250282497E-3    4.820181258738648E-2    5.250914301790058E-1
 6.564478811875000E9    -5.266600442050082E-2    5.666533978722684E-1    2.988246089574755E-2   -1.219515433897613E-3    2.937337542703755E-2   -1.714984602944821E-3    4.948374544138701E-2    5.251456877853431E-1
 6.564492593600000E9    -5.156763022964458E-2    5.667056231324882E-1    3.003019549581409E-2   -1.257021826440256E-3    2.951940564149697E-2   -1.751758501614283E-3    5.074184619998478E-2    5.249471170737426E-1
 6.564506375325000E9    -5.043042935447387E-2    5.667736044976784E-1    3.018939782725157E-2   -1.277278967577380E-3    2.966761724366668E-2   -1.848659336618959E-3    5.169833685055559E-2    5.247926177611302E-1
 6.564520157050000E9    -4.934049442044458E-2    5.668403320009929E-1    3.029895443270365E-2   -1.443211448007011E-3    2.983510992901863E-2   -1.965749335098364E-3    5.303145299152580E-2    5.246651058100863E-1
 6.564533938775000E9    -4.824040082905416E-2    5.669568417662431E-1    3.035510885172650E-2   -1.470171456549933E-3    2.995292110858053E-2   -1.960938385699353E-3    5.445135017920392E-2    5.245779865733170E-1
 6.564547720500000E9    -4.705603316652123E-2    5.670961357684813E-1    3.063518285800714E-2   -1.597670299553923E-3    3.003448859843490E-2   -2.155383970879412E-3    5.558667344623862E-2    5.244661279560234E-1
 6.564561502225000E9    -4.602965851893751E-2    5.671440258423101E-1    3.093100688802033E-2   -1.668878566965590E-3    3.024540710855345E-2   -2.231375289169965E-3    5.681382968161838E-2    5.242776191811348E-1
 6.564575283950000E9    -4.489629955808908E-2    5.671223177226521E-1    3.102363238828816E-2   -1.820072551654077E-3    3.041623465067769E-2   -2.157009440527116E-3    5.809115094015565E-2    5.242368869917025E-1
 6.564589065675000E9    -4.373087091880581E-2    5.673948065127697E-1    3.106917944220377E-2   -1.872463105942912E-3    3.052123975608182E-2   -2.264507502056333E-3    5.916363289371454E-2    5.240454190865184E-1
 6.564602847400000E9    -4.273281029575075E-2    5.673948745555742E-1    3.123263927584122E-2   -1.834562331589563E-3    3.064222760743629E-2   -2.423137261415596E-3    6.055063522224877E-2    5.239214858903262E-1
 6.564616629125000E9    -4.153594430076147E-2    5.673922286709061E-1    3.150647075427800E-2   -2.101867616561432E-3    3.095688327712242E-2   -2.464523469421625E-3    6.168855199565366E-2    5.236433786858993E-1
 6.564630410850000E9    -4.049825570885643E-2    5.674601950298633E-1    3.166889177155544E-2   -2.128008982201673E-3    3.111275236404222E-2   -2.627677695803945E-3    6.305766092696848E-2    5.236300447064879E-1
 6.564644192575000E9    -3.928961669720190E-2    5.675104426646302E-1    3.184145945539002E-2   -2.137192456829555E-3    3.131358155324364E-2   -2.738022851599816E-3    6.438600627369392E-2    5.234727972778883E-1
 6.564657974300000E9    -3.821000981052329E-2    5.676364682489067E-1    3.207862326760464E-2   -2.240477768782079E-3    3.136088621940217E-2   -2.860113033799615E-3    6.559103851407824E-2    5.233806876435031E-1
 6.564671756025000E9    -3.715179067340087E-2    5.677262747598980E-1    3.209997397610048E-2   -2.433718452780341E-3    3.171557824036615E-2   -2.867195279748826E-3    6.687211754925930E-2    5.232302038381713E-1
 6.564685537750000E9    -3.605603951467154E-2    5.677200746314831E-1    3.229297645561045E-2   -2.512663269212332E-3    3.179437509041692E-2   -2.966597613458236E-3    6.809781935793298E-2    5.230259362115316E-1
 6.564699319475000E9    -3.486451481885402E-2    5.678726112135617E-1    3.270628650375314E-2   -2.627542315279873E-3    3.197701941583051E-2   -3.061000232453078E-3    6.948347921326226E-2    5.228001861812877E-1
 6.564713101200000E9    -3.379004569121476E-2    5.679185570640669E-1    3.267016123352274E-2   -2.651132808026804E-3    3.218490897398676E-2   -3.128058799278651E-3    7.057384230569036E-2    5.226380904840546E-1
 6.564726882925000E9    -3.256621408482402E-2    5.679029568778028E-1    3.280781525909047E-2   -2.720015593212952E-3    3.233075580972819E-2   -3.320786380831877E-3    7.198912745772405E-2    5.223895552786881E-1
 6.564740664650000E9    -3.149533836071945E-2    5.680522580915665E-1    3.307024102861792E-2   -2.820918578838010E-3    3.251841938255640E-2   -3.379396108027920E-3    7.323424808351590E-2    5.223786803460954E-1
 6.564754446375000E9    -3.034102446421853E-2    5.679721097647188E-1    3.322907180159373E-2   -2.946838619521671E-3    3.273426402405140E-2   -3.508421579846472E-3    7.453510454219497E-2    5.220510933504030E-1
 6.564768228100000E9    -2.926601371785775E-2    5.680785721943327E-1    3.345762071521369E-2   -3.058209103136789E-3    3.289256919826529E-2   -3.611770275134939E-3    7.574696860175600E-2    5.219208454633087E-1
 6.564782009825000E9    -2.811764085939059E-2    5.681887975222362E-1    3.371082364936352E-2   -3.101481122456758E-3    3.308503728836969E-2   -3.735818368823356E-3    7.729561150561171E-2    5.216807248389888E-1
 6.564795791550000E9    -2.702756629786000E-2    5.681507032923118E-1    3.395641579739388E-2   -3.317144559721954E-3    3.332959160569017E-2   -3.759009610661436E-3    7.847856548664628E-2    5.216532688203768E-1
 6.564809573275000E9    -2.587663943798494E-2    5.682666230565760E-1    3.416527390841127E-2   -3.413475887297799E-3    3.347818494004124E-2   -3.967525124693257E-3    7.971894856376145E-2    5.213225775706309E-1
 6.564823355000000E9    -2.471137606303922E-2    5.682802301429923E-1    3.429398678148678E-2   -3.519233434244187E-3    3.373640225183979E-2   -4.055049818991883E-3    8.106218450991103E-2    5.210649187116964E-1
 6.564837136725000E9    -2.349535061282517E-2    5.682342205161390E-1    3.449526473629305E-2   -3.641882277251822E-3    3.390043156773831E-2   -4.043408834686970E-3    8.234224776023188E-2    5.208482473980193E-1
 6.564850918450000E9    -2.248771308399009E-2    5.683257482942887E-1    3.473815954770633E-2   -3.820931461414498E-3    3.402580103449464E-2   -4.153233065531632E-3    8.377811398134959E-2    5.209003471218948E-1
 6.564864700175000E9    -2.135993626460786E-2    5.683307964920932E-1    3.484821870639909E-2   -3.841010501130736E-3    3.426231122076295E-2   -4.358294758894819E-3    8.503915491813034E-2    5.205518968909362E-1
 6.564878481900000E9    -2.017352966802263E-2    5.683308423152866E-1    3.524059899318165E-2   -4.147085514722165E-3    3.455141229197223E-2   -4.503384259754404E-3    8.635013374209144E-2    5.201829896623876E-1
 6.564892263625000E9    -1.907918057822192E-2    5.682472967198653E-1    3.529921596147970E-2   -4.106498057870419E-3    3.464747419044571E-2   -4.646527410732524E-3    8.772407521848864E-2    5.199110358598732E-1
 6.564906045350000E9    -1.789257939102283E-2    5.684191835450013E-1    3.558117009226263E-2   -4.416407801252929E-3    3.483339181134402E-2   -4.719419040857190E-3    8.901311207370614E-2    5.197773092900192E-1
 6.564919827075000E9    -1.682670812557506E-2    5.682809422655621E-1    3.575717126584116E-2   -4.371825305084470E-3    3.514398317426334E-2   -4.870043248183834E-3    9.042222453529526E-2    5.194796357661533E-1
 6.564933608800000E9    -1.570252243282044E-2    5.683092619098149E-1    3.600692889329869E-2   -4.427537351929246E-3    3.531786904019873E-2   -5.025202422527636E-3    9.163035667666716E-2    5.191453645817785E-1
 6.564947390525000E9    -1.440974229246714E-2    5.683181604974431E-1    3.611397839567790E-2   -4.602437017633144E-3    3.561326224735201E-2   -5.091744808043098E-3    9.311379661880992E-2    5.190872470464071E-1
 6.564961172250000E9    -1.329586168473018E-2    5.684453556136213E-1    3.627707634818089E-2   -4.779320794526676E-3    3.587777226336886E-2   -5.268665318438811E-3    9.430268811901801E-2    5.187563977598063E-1
 6.564974953975000E9    -1.224202861402726E-2    5.684000319933247E-1    3.662951539013158E-2   -4.870488399571531E-3    3.605303336167798E-2   -5.464123125884681E-3    9.577229958954324E-2    5.186276749435474E-1
 6.564988735700000E9    -1.113881036876832E-2    5.683893359493876E-1    3.693188571425785E-2   -4.931751831910675E-3    3.628357768832874E-2   -5.515293067864794E-3    9.720549849719938E-2    5.183115223923406E-1
 6.565002517425000E9    -9.908896911776051E-3    5.684275653984519E-1    3.717883018184031E-2   -5.014592687978410E-3    3.648034791658823E-2   -5.626496912466869E-3    9.852821435937394E-2    5.179652484843168E-1
 6.565016299150000E9    -8.791745018904652E-3    5.683013480437469E-1    3.729616237174939E-2   -5.287888061253795E-3    3.671325058889585E-2   -5.887321797676752E-3    9.991912359702593E-2    5.177413696187536E-1
 6.565030080875000E9    -7.653415255289096E-3    5.684212928685430E-1    3.749438476535880E-2   -5.395557832884976E-3    3.694205912689486E-2   -5.824210461477265E-3    1.014156768080876E-1    5.174503405353332E-1
 6.565043862600000E9    -6.526269551112587E-3    5.684309628334705E-1    3.774916407645378E-2   -5.526323766816830E-3    3.711925053003140E-2   -6.127853362832726E-3    1.025888550436975E-1    5.171400549187697E-1
 6.565057644325000E9    -5.294985344375335E-3    5.683070929698794E-1    3.790290497937316E-2   -5.634560070998805E-3    3.746837985874763E-2   -6.240397601327496E-3    1.041926227989086E-1    5.168422602495695E-1
 6.565071426050000E9    -4.109101929747097E-3    5.682397717386335E-1    3.830685641232764E-2   -5.907937820591427E-3    3.762474938839704E-2   -6.469746314831210E-3    1.053597895863933E-1    5.165478291684380E-1
 6.565085207775000E9    -2.990325003760551E-3    5.683149289517668E-1    3.860071034479718E-2   -5.912118262394025E-3    3.791012943959032E-2   -6.568935376541266E-3    1.068575243957365E-1    5.164187574675824E-1
 6.565098989500000E9    -1.720555794913504E-3    5.682580997913033E-1    3.901541468598591E-2   -6.108152738341087E-3    3.812977602025874E-2   -6.691636745983246E-3    1.082091846461194E-1    5.159183554207344E-1
 6.565112771225000E9    -6.190897262521559E-4    5.683608650536200E-1    3.914290662314840E-2   -6.443385434367755E-3    3.839526463399429E-2   -6.824440439764306E-3    1.096911958796749E-1    5.155821632603853E-1
 6.565126552950000E9     6.095542566306225E-4    5.681357515199099E-1    3.926236206599139E-2   -6.475049442287354E-3    3.863346208495103E-2   -6.943626540290307E-3    1.110719434065012E-1    5.152727107033407E-1
 6.565140334675000E9     1.654485398433902E-3    5.680736188451991E-1    3.947410845558127E-2   -6.537442763263610E-3    3.886939047329414E-2   -7.170776200539858E-3    1.124682226898014E-1    5.150055692074502E-1
 6.565154116400000E9     2.861457388598612E-3    5.681184244537265E-1    3.975815043751770E-2   -6.723205452805818E-3    3.919372364861062E-2   -7.354881761317157E-3    1.140222507894809E-1    5.146291518525216E-1
 6.565167898125000E9     4.030130590521443E-3    5.681880085320349E-1    4.022896611611059E-2   -7.012899722225773E-3    3.944921449657354E-2   -7.409920223489896E-3    1.153325311542123E-1    5.141882075459513E-1
 6.565181679850000E9     5.204726143058748E-3    5.680762706817845E-1    4.047958404995726E-2   -7.041800352064625E-3    3.974126541861152E-2   -7.711237664005428E-3    1.168978613796113E-1    5.139437913050635E-1
 6.565195461575000E9     6.312969601498728E-3    5.680006069859939E-1    4.064408447213167E-2   -7.230696458370160E-3    3.993877738732354E-2   -7.729252933805318E-3    1.183083464200636E-1    5.135104474750835E-1
 6.565209243300000E9     7.601909184782406E-3    5.680448056193355E-1    4.089104440034021E-2   -7.433214567738063E-3    4.022688586508458E-2   -8.064340039115468E-3    1.195759047341247E-1    5.132284885605096E-1
 6.565223025025000E9     8.754666793065292E-3    5.678869767862252E-1    4.125725815573935E-2   -7.600354050911585E-3    4.057920096233898E-2   -8.225705696242397E-3    1.211966327033641E-1    5.127482206057262E-1
 6.565236806750000E9     9.984394462333158E-3    5.678223275600917E-1    4.147457995754623E-2   -7.785841034405263E-3    4.072952349179661E-2   -8.471607528843439E-3    1.227256007544050E-1    5.122752234137167E-1
 6.565250588475000E9     1.104291883772896E-2    5.678280957829466E-1    4.184371955178207E-2   -7.985513691810183E-3    4.111493509557611E-2   -8.462053873316274E-3    1.241044548689519E-1    5.119669410673605E-1
 6.565264370200000E9     1.223515311063187E-2    5.676705914318034E-1    4.212518992723145E-2   -8.107731063810582E-3    4.140155522409919E-2   -8.810766684626855E-3    1.256039016428292E-1    5.116122002507839E-1
 6.565278151925000E9     1.348509175056081E-2    5.676275016467700E-1    4.245735234745010E-2   -8.374311484071067E-3    4.164890054964530E-2   -9.029366477641633E-3    1.269579381460783E-1    5.112510350047460E-1
 6.565291933650000E9     1.455700398102826E-2    5.675849471378115E-1    4.266125342694725E-2   -8.507807042548247E-3    4.202352374720322E-2   -9.095350728061627E-3    1.284767366286810E-1    5.107918741541791E-1
 6.565305715375000E9     1.584901957944308E-2    5.676029964072210E-1    4.307274915250357E-2   -8.806526998599446E-3    4.220170919942597E-2   -9.359023392895027E-3    1.300429831697511E-1    5.105023933671130E-1
 6.565319497100000E9     1.703085635892881E-2    5.674353865807846E-1    4.345175533775701E-2   -9.094801644833291E-3    4.265372958715817E-2   -9.581263356700334E-3    1.315687002533927E-1    5.099225278953490E-1
 6.565333278825000E9     1.821648012423663E-2    5.673458643110761E-1    4.357054982820527E-2   -9.170209815727044E-3    4.289864619081375E-2   -9.846465314748247E-3    1.331219023944082E-1    5.094131705826822E-1
 6.565347060550000E9     1.950001537470066E-2    5.672372619721117E-1    4.406124474387346E-2   -9.527438223033945E-3    4.322263941247736E-2   -9.998937588190071E-3    1.346556030776197E-1    5.089077737489518E-1
 6.565360842275000E9     2.063551773785429E-2    5.670946887385678E-1    4.426366173919266E-2   -9.666490092357018E-3    4.350092102891172E-2   -1.021023863278351E-2    1.362044854871135E-1    5.085976713319420E-1
 6.565374624000000E9     2.197496078116138E-2    5.670466330490419E-1    4.459401196511644E-2   -9.768095510661321E-3    4.381264383297771E-2   -1.043354636778196E-2    1.378917507240992E-1    5.082072434591047E-1
 6.565388405725000E9     2.299342932339438E-2    5.670287015791362E-1    4.488216711460200E-2   -1.017849552781028E-2    4.423196494895119E-2   -1.064478865129313E-2    1.391755037071476E-1    5.077187742249066E-1
 6.565402187450000E9     2.434124214109226E-2    5.668473288181347E-1    4.527551002285399E-2   -1.021872568480348E-2    4.450085539645408E-2   -1.093159854528111E-2    1.408295146999576E-1    5.070830161492719E-1
 6.565415969175000E9     2.550845088436041E-2    5.666107948587469E-1    4.562640487024202E-2   -1.055470291194507E-2    4.488304163230267E-2   -1.103988040937274E-2    1.424113205401182E-1    5.065497656167743E-1
 6.565429750900000E9     2.669164877272298E-2    5.666266160981789E-1    4.592380995286657E-2   -1.070199241370595E-2    4.516154303557741E-2   -1.134419142023435E-2    1.440597484196878E-1    5.061830008722857E-1
 6.565443532625000E9     2.782941102733173E-2    5.665556203041631E-1    4.640045850831438E-2   -1.109288612132626E-2    4.555566828977914E-2   -1.167594220646949E-2    1.456375763532142E-1    5.056873314850161E-1
 6.565457314350000E9     2.923985560908234E-2    5.664420606457750E-1    4.666944553688408E-2   -1.131994721265448E-2    4.587488343307585E-2   -1.179303946585506E-2    1.471181410672856E-1    5.049342089174521E-1
 6.565471096075000E9     3.043818944855493E-2    5.662563333072608E-1    4.696715784389131E-2   -1.148739689723379E-2    4.622233103726250E-2   -1.214692680578482E-2    1.487852050628432E-1    5.044431681846596E-1
 6.565484877800000E9     3.159479293275463E-2    5.660601569927036E-1    4.734898568789165E-2   -1.185010013983644E-2    4.664988675718833E-2   -1.246772085256064E-2    1.504180854153282E-1    5.039988331426676E-1
 6.565498659525000E9     3.279360138343097E-2    5.660263539654078E-1    4.784419529277066E-2   -1.213685511856818E-2    4.697997010666001E-2   -1.258691542903664E-2    1.520088105866077E-1    5.032994033572199E-1
 6.565512441250000E9     3.407350388544384E-2    5.658775939711963E-1    4.812920034037650E-2   -1.231621328660368E-2    4.732908925516915E-2   -1.303426458791459E-2    1.537884200144610E-1    5.027155137038327E-1
