#  HZ   S   RI   R     50.00 
! Rohde & Schwarz Vector Network Analyzer 
! Rohde-Schwarz,ZNB20-2Port,1311601062101988,3.16
! Created: UTC 3/20/2024, 5:12:04 PM
! freq[Hz]                re:S11                  im:S11                  re:S21                  im:S21                  re:S12                  im:S12                  re:S22                  im:S22
 6.564690724000000E9    -3.692460685314407E-2    5.678317030792945E-1    3.052235103383074E-2   -1.784726744295302E-3    3.010855209657129E-2   -2.300380474889303E-3    6.444243779944180E-2    5.223150321278179E-1
 6.564703110050000E9    -3.592573583858589E-2    5.679005015157667E-1    3.068137152570057E-2   -1.767572990089521E-3    3.030050407675381E-2   -2.304738019867379E-3    6.555555961429238E-2    5.223141862140155E-1
 6.564715496100000E9    -3.500496482170923E-2    5.679551256175497E-1    3.088458585601184E-2   -1.818472414345669E-3    3.037363542795225E-2   -2.440680949066035E-3    6.663222940051916E-2    5.220175094600870E-1
 6.564727882150000E9    -3.399496246951330E-2    5.680736849560185E-1    3.116560078154975E-2   -1.908049227238050E-3    3.059700321036694E-2   -2.528609746359571E-3    6.773956938157065E-2    5.219321231633806E-1
 6.564740268200000E9    -3.293756384648047E-2    5.681421221103699E-1    3.134538774217036E-2   -2.140435525138142E-3    3.072606525682044E-2   -2.492466658365469E-3    6.880094294661668E-2    5.218860101391259E-1
 6.564752654250000E9    -3.192256538692399E-2    5.681584616081559E-1    3.136975928881029E-2   -2.106077143417691E-3    3.083055353260633E-2   -2.572166350822468E-3    6.999227779905964E-2    5.216669777644753E-1
 6.564765040300000E9    -3.102536955683603E-2    5.682034159776528E-1    3.150249877575507E-2   -2.114721706055898E-3    3.096592037977445E-2   -2.700696671160105E-3    7.124529637430980E-2    5.215503550637387E-1
 6.564777426350000E9    -3.014549071565427E-2    5.681956152034904E-1    3.177379760710126E-2   -2.305319165788182E-3    3.118827282468195E-2   -2.780467222874226E-3    7.231866388193402E-2    5.214383468008554E-1
 6.564789812400000E9    -2.904808849372706E-2    5.682092920343469E-1    3.189622953565561E-2   -2.313319368750907E-3    3.135737403080924E-2   -2.941816734145936E-3    7.343075191341096E-2    5.212361959274107E-1
 6.564802198450000E9    -2.795162591260889E-2    5.682304502556087E-1    3.205812119195064E-2   -2.592532085341918E-3    3.150311285193444E-2   -2.977983122071494E-3    7.442679409353233E-2    5.210235820386565E-1
 6.564814584500000E9    -2.702328863617060E-2    5.683497462110551E-1    3.222690767330196E-2   -2.546457729445374E-3    3.165205417296752E-2   -3.056167645677431E-3    7.561522453521984E-2    5.208656542464583E-1
 6.564826970550000E9    -2.596611576822942E-2    5.683126655453811E-1    3.230936781936696E-2   -2.584252910121776E-3    3.181777955394061E-2   -3.134197309368109E-3    7.673850608633304E-2    5.207377394121615E-1
 6.564839356600000E9    -2.502245968119159E-2    5.684380393857347E-1    3.244325226987375E-2   -2.690293627562434E-3    3.200674105359298E-2   -3.188265650742692E-3    7.792998712013320E-2    5.206220945440738E-1
 6.564851742650000E9    -2.400258056047605E-2    5.684748703640859E-1    3.259383198639245E-2   -2.765984789645453E-3    3.220766076235782E-2   -3.313255926758596E-3    7.925692358340540E-2    5.204477027854414E-1
 6.564864128700000E9    -2.293283654334828E-2    5.685148594813331E-1    3.288197765847753E-2   -2.901976108097708E-3    3.226004431318753E-2   -3.405523440458056E-3    8.042788164706542E-2    5.202542689169520E-1
 6.564876514750000E9    -2.192550130124740E-2    5.685172790055004E-1    3.316614199683181E-2   -3.078335905252627E-3    3.259069691794001E-2   -3.417483508317362E-3    8.140017092114460E-2    5.202088205378032E-1
 6.564888900800000E9    -2.092982633052327E-2    5.686283456681482E-1    3.313980867825395E-2   -3.075845300958177E-3    3.265993797088931E-2   -3.572279486438400E-3    8.266555861210313E-2    5.199318918479516E-1
 6.564901286850000E9    -1.994546057155521E-2    5.685468916558533E-1    3.338558242475009E-2   -3.159681970461298E-3    3.273243294355812E-2   -3.685813911591169E-3    8.386924139006009E-2    5.197596307567425E-1
 6.564913672900000E9    -1.888000440048451E-2    5.686271852723348E-1    3.347059438121491E-2   -3.307181103539433E-3    3.306898281737396E-2   -3.775409756330755E-3    8.498587313215840E-2    5.195629845366345E-1
 6.564926058950000E9    -1.793367815223353E-2    5.684753456206406E-1    3.386571440003996E-2   -3.354128502469499E-3    3.314355502074746E-2   -3.834894605123611E-3    8.604351119112538E-2    5.194180972792583E-1
 6.564938445000000E9    -1.683338437605248E-2    5.686219845032042E-1    3.388438647326821E-2   -3.480146522804337E-3    3.328620243675224E-2   -3.928517899253186E-3    8.732352799272364E-2    5.193154101504633E-1
 6.564950831050000E9    -1.594678213818408E-2    5.686561131545644E-1    3.414368341505819E-2   -3.602937126243786E-3    3.358410343942594E-2   -4.199915222374709E-3    8.831170844823102E-2    5.191605696737160E-1
 6.564963217100000E9    -1.484568819223569E-2    5.686391486547335E-1    3.424660065242386E-2   -3.645582322609994E-3    3.368730265220359E-2   -4.124096282819067E-3    8.959620029599964E-2    5.189195079169421E-1
 6.564975603150000E9    -1.368333890199877E-2    5.686296025123764E-1    3.448569159019970E-2   -3.745418155793941E-3    3.387712096612583E-2   -4.217926068116271E-3    9.088475823785065E-2    5.187399454426215E-1
 6.564987989200000E9    -1.275803600259024E-2    5.686922713030862E-1    3.469285470075637E-2   -3.944268530896562E-3    3.402567511695479E-2   -4.317957127822221E-3    9.192872213559246E-2    5.183685251492781E-1
 6.565000375250000E9    -1.181320044740985E-2    5.685723679143733E-1    3.485678346679599E-2   -3.948672016780468E-3    3.424692197300976E-2   -4.420972070612993E-3    9.311855619384646E-2    5.184305938881681E-1
 6.565012761300000E9    -1.076585670198575E-2    5.687594539990405E-1    3.494601220128513E-2   -3.977490665324272E-3    3.432671444280058E-2   -4.513251341811052E-3    9.433235645393291E-2    5.179384868714297E-1
 6.565025147350000E9    -9.818221854527668E-3    5.687521247328452E-1    3.508301027795587E-2   -4.314100564434612E-3    3.452659015860532E-2   -4.618794450907989E-3    9.549588506623047E-2    5.178844006868161E-1
 6.565037533400000E9    -8.733879637219267E-3    5.687451743052697E-1    3.545775416103365E-2   -4.112849257570538E-3    3.477723606141459E-2   -4.733049208965744E-3    9.691467348522047E-2    5.175312665455207E-1
 6.565049919450000E9    -7.672828899954943E-3    5.687001798992265E-1    3.557612540797198E-2   -4.285233895919958E-3    3.495170594516270E-2   -4.903398333288281E-3    9.795466568644803E-2    5.174152028292350E-1
 6.565062305500000E9    -6.777160922408538E-3    5.686368681566644E-1    3.569486169828356E-2   -4.546807856760398E-3    3.513432228857547E-2   -5.047660816766744E-3    9.906533632621045E-2    5.171584059714431E-1
 6.565074691550000E9    -5.625268539635725E-3    5.686294399170532E-1    3.595863369241763E-2   -4.524520066434242E-3    3.538258798012675E-2   -5.124669949349197E-3    1.004156520644418E-1    5.167286973440809E-1
 6.565087077600000E9    -4.603076042018136E-3    5.686676935851654E-1    3.618582122953473E-2   -4.727066843059874E-3    3.556594249095361E-2   -5.171166203304966E-3    1.015990859567241E-1    5.166108937917361E-1
 6.565099463650000E9    -3.504042982272310E-3    5.686675758972877E-1    3.627198523218101E-2   -4.857458139204899E-3    3.567273502523746E-2   -5.359782739489716E-3    1.028640878095635E-1    5.164184184779319E-1
 6.565111849700000E9    -2.585675208330529E-3    5.685914648087811E-1    3.658525090510852E-2   -4.863271271784033E-3    3.600366527347995E-2   -5.388840795746496E-3    1.041113063188791E-1    5.162714969113972E-1
 6.565124235750000E9    -1.516525575641953E-3    5.686199362737469E-1    3.686263136916632E-2   -5.018941760633474E-3    3.621268951072472E-2   -5.632532335939198E-3    1.051775212503827E-1    5.160737031500644E-1
 6.565136621800000E9    -5.691784598227653E-4    5.686603068628213E-1    3.693757500562270E-2   -5.101789808122956E-3    3.638824245466950E-2   -5.640848826045907E-3    1.064383524742193E-1    5.157648095874532E-1
 6.565149007850000E9     5.603802339607031E-4    5.685679231411517E-1    3.720344219921844E-2   -5.191982416303843E-3    3.661173313422829E-2   -5.845163800977595E-3    1.079377063420262E-1    5.154620515868692E-1
 6.565161393900000E9     1.545599176197934E-3    5.686013502295436E-1    3.744757975275111E-2   -5.246150543563711E-3    3.668490394847214E-2   -5.987675406297644E-3    1.088815557092148E-1    5.152163575003392E-1
 6.565173779950000E9     2.656728172750488E-3    5.685746520829227E-1    3.766315904196488E-2   -5.439600917874428E-3    3.697587523637162E-2   -6.073102747002663E-3    1.101943819187237E-1    5.148254748588007E-1
 6.565186166000000E9     3.689090470133455E-3    5.685187427038479E-1    3.785661823977150E-2   -5.678834208349028E-3    3.729043805673713E-2   -6.127162773695994E-3    1.112865015319965E-1    5.145164728238175E-1
 6.565198552050000E9     4.680058099133303E-3    5.685000840517686E-1    3.814282871096054E-2   -5.843123863456428E-3    3.742573961398275E-2   -6.278201590057684E-3    1.128454537451352E-1    5.144193797462490E-1
 6.565210938100000E9     5.755786029729910E-3    5.685245913005611E-1    3.830481541118398E-2   -6.026800212596401E-3    3.755865532780178E-2   -6.450540283071658E-3    1.139281916692304E-1    5.141348136886353E-1
 6.565223324150000E9     6.786373924110825E-3    5.684840389232991E-1    3.859580327562422E-2   -6.015085642971676E-3    3.798727377673122E-2   -6.583719753822048E-3    1.152321947427204E-1    5.138740046778567E-1
 6.565235710200000E9     7.883995891695545E-3    5.684052499683074E-1    3.879887389333349E-2   -6.149260567397157E-3    3.800645896902518E-2   -6.666687278757592E-3    1.164314148671285E-1    5.135669417086894E-1
 6.565248096250000E9     8.921903325085837E-3    5.684389129638296E-1    3.900122805039969E-2   -6.359438763494480E-3    3.841981433621229E-2   -6.895517389849886E-3    1.177352801157230E-1    5.132823358524847E-1
 6.565260482300000E9     9.863419044429885E-3    5.681908876893826E-1    3.929442515924945E-2   -6.528080179008407E-3    3.848255671659817E-2   -6.901856176361238E-3    1.189398562722821E-1    5.129401661465220E-1
 6.565272868350000E9     1.102731687132071E-2    5.683215838820038E-1    3.952538178277777E-2   -6.607006950261203E-3    3.881430077228257E-2   -7.013009580027325E-3    1.203271735831769E-1    5.126422258040521E-1
 6.565285254400000E9     1.199113912085914E-2    5.682208956977435E-1    3.974157945102163E-2   -6.784191206410698E-3    3.903309584043924E-2   -7.260039371542807E-3    1.216274807623350E-1    5.123463248607895E-1
 6.565297640450000E9     1.300960840248821E-2    5.681933352610881E-1    4.001269103936764E-2   -6.889486351456635E-3    3.924585048823136E-2   -7.370500124819200E-3    1.228981593503709E-1    5.121275421588448E-1
 6.565310026500000E9     1.421958270716070E-2    5.680305954133578E-1    4.021795625791170E-2   -7.035118715671366E-3    3.948447204503989E-2   -7.590751089315384E-3    1.241964168054619E-1    5.116541187659253E-1
 6.565322412550000E9     1.522404342588181E-2    5.680685154288968E-1    4.039207545708059E-2   -7.195123663101461E-3    3.965864744216317E-2   -7.689621254399626E-3    1.254352624057460E-1    5.113209854681570E-1
 6.565334798600000E9     1.626939477706749E-2    5.679417914434108E-1    4.062906476596850E-2   -7.392248889459532E-3    3.996447726421846E-2   -7.802633099661610E-3    1.267601024413263E-1    5.109748508866842E-1
 6.565347184650000E9     1.733645407006827E-2    5.679308527796594E-1    4.087616608990355E-2   -7.552013306676812E-3    4.020840693169735E-2   -8.007771811296131E-3    1.278732636495127E-1    5.106596938162281E-1
 6.565359570700000E9     1.842101528232813E-2    5.678650731229723E-1    4.117320498731364E-2   -7.615343775266095E-3    4.056397946579762E-2   -8.189124668284030E-3    1.292917179701463E-1    5.103230490629168E-1
 6.565371956750000E9     1.943835511310800E-2    5.678542617579546E-1    4.152088523327709E-2   -7.830957727789753E-3    4.081623634030720E-2   -8.415534556753097E-3    1.307848756445198E-1    5.099675878547215E-1
 6.565384342800000E9     2.049065617887456E-2    5.677188989191551E-1    4.167954040111745E-2   -7.870581989182796E-3    4.101064865089497E-2   -8.553909647637312E-3    1.320072711769331E-1    5.094771343137742E-1
 6.565396728850000E9     2.170096779766813E-2    5.676097292379831E-1    4.192480478662736E-2   -8.121443109450770E-3    4.124347935735893E-2   -8.602365075495669E-3    1.333167153799405E-1    5.092672173387002E-1
 6.565409114900000E9     2.269103239179384E-2    5.676285040560585E-1    4.214875898352503E-2   -8.320583272704209E-3    4.152369815047772E-2   -8.803883901982185E-3    1.347416339427290E-1    5.089737272190831E-1
 6.565421500950000E9     2.367573128262366E-2    5.674891475035074E-1    4.239286881830998E-2   -8.401369578965496E-3    4.175689275652548E-2   -8.901271225652086E-3    1.359435995157655E-1    5.085894506747807E-1
 6.565433887000000E9     2.484058433573043E-2    5.674660109801341E-1    4.282107713099295E-2   -8.628346298833099E-3    4.203293468359386E-2   -9.139152902209081E-3    1.374175654995134E-1    5.082572007826051E-1
 6.565446273050000E9     2.596401531338582E-2    5.673742763846001E-1    4.305647963852425E-2   -8.776655682585968E-3    4.245266179091502E-2   -9.396867007122372E-3    1.388366483764199E-1    5.078019863801387E-1
 6.565458659100000E9     2.695212628107179E-2    5.672261236537125E-1    4.331471779671771E-2   -8.910225612397144E-3    4.256420537989344E-2   -9.528756892876819E-3    1.401492052774042E-1    5.072706532357170E-1
 6.565471045150000E9     2.810451622076250E-2    5.671736746399866E-1    4.370077379138913E-2   -9.293361200574796E-3    4.286063468663637E-2   -9.762387825021642E-3    1.413094993842736E-1    5.069570805534775E-1
 6.565483431200000E9     2.905332173363887E-2    5.671662905648505E-1    4.403093648706635E-2   -9.280424650304632E-3    4.311847170542839E-2   -9.974377977314281E-3    1.426654873307786E-1    5.065406005295947E-1
 6.565495817250000E9     3.019545749696087E-2    5.669930338382818E-1    4.411351741657456E-2   -9.565191466680523E-3    4.344334268898465E-2   -1.015500570368590E-2    1.441458424401600E-1    5.061819765935044E-1
 6.565508203300000E9     3.133122938102507E-2    5.668771096692234E-1    4.444092905129401E-2   -9.588699589944785E-3    4.374404864670475E-2   -1.030785057845376E-2    1.454902971091959E-1    5.057365448120741E-1
 6.565520589350000E9     3.242893281348303E-2    5.667899167802301E-1    4.485861372328238E-2   -9.977966347923778E-3    4.398385934276124E-2   -1.040225543118741E-2    1.469933827499419E-1    5.051854667312952E-1
 6.565532975400000E9     3.351210856151019E-2    5.666958126710663E-1    4.522684307898646E-2   -1.014123742887542E-2    4.430829413457463E-2   -1.068935493677126E-2    1.483648953164260E-1    5.047552238644583E-1
 6.565545361450000E9     3.450151565244707E-2    5.666091884914229E-1    4.524261122666846E-2   -1.047900964860557E-2    4.455486776556743E-2   -1.089697445955398E-2    1.497851831370863E-1    5.043038867076611E-1
 6.565557747500000E9     3.561947232830977E-2    5.664094079841412E-1    4.570530763253516E-2   -1.048188557059965E-2    4.496786016682299E-2   -1.107572139819942E-2    1.512379072770864E-1    5.038834540461354E-1
 6.565570133550000E9     3.676800975338063E-2    5.662413240156451E-1    4.589371719778315E-2   -1.072710328833101E-2    4.525075957099965E-2   -1.129566542343773E-2    1.526153644414799E-1    5.035453193612758E-1
 6.565582519600000E9     3.779138810114433E-2    5.662848883470482E-1    4.637399452669187E-2   -1.089418449947711E-2    4.555726238704086E-2   -1.148002232161014E-2    1.540459424571685E-1    5.029312455208130E-1
 6.565594905650000E9     3.899190891419745E-2    5.660893701488897E-1    4.662205056954727E-2   -1.126677996916998E-2    4.600991899901781E-2   -1.176151068054116E-2    1.554829271172052E-1    5.023858249450343E-1
 6.565607291700000E9     3.988272341885354E-2    5.659944104769969E-1    4.704921379470960E-2   -1.148071766012664E-2    4.620764908051577E-2   -1.190971868970941E-2    1.569320868736803E-1    5.020123402728788E-1
 6.565619677750000E9     4.109335769048064E-2    5.657442086423274E-1    4.737195066926963E-2   -1.152762817479595E-2    4.655912365320840E-2   -1.214812097426900E-2    1.583684668671665E-1    5.015539055676185E-1
 6.565632063800000E9     4.228492140755495E-2    5.657652413393567E-1    4.769582954216192E-2   -1.181306346113036E-2    4.689431276886176E-2   -1.235379333364730E-2    1.598058042250303E-1    5.009394792328370E-1
 6.565644449850000E9     4.341414664850831E-2    5.655562915360998E-1    4.799109907189760E-2   -1.215573601878099E-2    4.714461388300798E-2   -1.265584513317772E-2    1.613831569385008E-1    5.004631265974354E-1
 6.565656835900000E9     4.450725785779765E-2    5.654399145170723E-1    4.835794955325091E-2   -1.239157884243793E-2    4.762958919268942E-2   -1.292572094630967E-2    1.627239640565247E-1    4.999498042804018E-1
 6.565669221950000E9     4.559265513747032E-2    5.652636595156592E-1    4.862173765800500E-2   -1.256242794083569E-2    4.784311785760180E-2   -1.322395034860656E-2    1.642666847160901E-1    4.994832578932618E-1
 6.565681608000000E9     4.672065666170529E-2    5.651565830442701E-1    4.901289285852021E-2   -1.283868437785286E-2    4.831713342039946E-2   -1.344344431879368E-2    1.659044227038726E-1    4.989016900948496E-1
 6.565693994050000E9     4.792961745247757E-2    5.649951757791863E-1    4.945941859173762E-2   -1.311478468918205E-2    4.863325339720716E-2   -1.363285852277652E-2    1.672983745647438E-1    4.983764352436317E-1
 6.565706380100000E9     4.899243024105104E-2    5.647451492072476E-1    4.971592388029816E-2   -1.333445631186048E-2    4.892988784459539E-2   -1.395859700082108E-2    1.688123091606333E-1    4.977875423497459E-1
 6.565718766150000E9     5.011261975949424E-2    5.645892377433864E-1    5.009807713779313E-2   -1.360679683901999E-2    4.933150573687969E-2   -1.421919719590879E-2    1.704149180246770E-1    4.971240789194583E-1
 6.565731152200000E9     5.126902990165459E-2    5.644784699916379E-1    5.054630388024844E-2   -1.392284157426107E-2    4.971319060875932E-2   -1.443603538386973E-2    1.718388585402680E-1    4.963714364096060E-1
 6.565743538250000E9     5.235827731602896E-2    5.643093022150755E-1    5.094192496713947E-2   -1.412977990649767E-2    5.011922962632533E-2   -1.465948059969809E-2    1.733191607941128E-1    4.960512199159297E-1
 6.565755924300000E9     5.360746116892737E-2    5.642538630646424E-1    5.134837174610447E-2   -1.433866840052577E-2    5.051617753640041E-2   -1.509596212744900E-2    1.749213954310287E-1    4.952900841126024E-1
 6.565768310350000E9     5.456010731442655E-2    5.640542355431495E-1    5.177163770294652E-2   -1.468904921812816E-2    5.083366505205681E-2   -1.530600315034332E-2    1.764688186391252E-1    4.947236204402812E-1
 6.565780696400000E9     5.580060066960719E-2    5.638454716652493E-1    5.207564901765832E-2   -1.500345108635656E-2    5.136445799113859E-2   -1.563039029564073E-2    1.781883393885069E-1    4.940549462080902E-1
 6.565793082450000E9     5.688145581751652E-2    5.635246536650480E-1    5.236493059078540E-2   -1.535131128948285E-2    5.155203459997201E-2   -1.588523026787158E-2    1.795972547024038E-1    4.933648275978402E-1
 6.565805468500000E9     5.805228052205971E-2    5.633873888236904E-1    5.286363519910110E-2   -1.567779962428080E-2    5.213060474787289E-2   -1.624878004783049E-2    1.811748698861936E-1    4.927189342605047E-1
