#  HZ   S   RI   R     50.00 
! Rohde & Schwarz Vector Network Analyzer 
! Rohde-Schwarz,ZNB20-2Port,1311601062101988,3.16
! Created: UTC 3/20/2024, 4:49:18 PM
! freq[Hz]                re:S11                  im:S11                  re:S21                  im:S21                  re:S12                  im:S12                  re:S22                  im:S22
 6.564859850000000E9    -2.229614958633641E-2    5.690918274228493E-1    3.346728906938917E-2   -2.812172987845935E-3    3.285092909606201E-2   -3.361720567601703E-3    8.353437560304335E-2    5.235622444532586E-1
 6.564871260350000E9    -2.135166993929796E-2    5.690575405555138E-1    3.344657330921419E-2   -2.788598293179566E-3    3.287742194438254E-2   -3.378378958289332E-3    8.445120525795659E-2    5.234024321373406E-1
 6.564882670700000E9    -2.034514713033428E-2    5.691413228572895E-1    3.359167974979681E-2   -3.057320882521583E-3    3.309759436721794E-2   -3.564748339460952E-3    8.543744524077029E-2    5.230564085879011E-1
 6.564894081050000E9    -1.955923584785583E-2    5.690723965923454E-1    3.384897095616789E-2   -3.031723284779182E-3    3.326623161211736E-2   -3.563517406393795E-3    8.661769820777304E-2    5.229683230429607E-1
 6.564905491400000E9    -1.856883504340077E-2    5.691453512901192E-1    3.401505209735019E-2   -3.179516691816448E-3    3.345791497526932E-2   -3.660120100527733E-3    8.777829013560995E-2    5.227581398248692E-1
 6.564916901750000E9    -1.749876905779294E-2    5.692938087728809E-1    3.415177080584702E-2   -3.290633661881451E-3    3.358996620056550E-2   -3.727228083740525E-3    8.884290846373255E-2    5.226989970315088E-1
 6.564928312100000E9    -1.665726503443284E-2    5.692222446571865E-1    3.438237977360883E-2   -3.281265317114159E-3    3.370829500495342E-2   -3.868232491318809E-3    8.990567686857519E-2    5.224308933286622E-1
 6.564939722450000E9    -1.567305978188414E-2    5.691391700634536E-1    3.447995204198119E-2   -3.408680978917226E-3    3.390979228514290E-2   -4.005590138457221E-3    9.105816632078841E-2    5.221029018188229E-1
 6.564951132800000E9    -1.477888891948229E-2    5.692824047063381E-1    3.466690792726898E-2   -3.640730703130356E-3    3.415701805440022E-2   -4.060197316395935E-3    9.211075865008198E-2    5.220069975790647E-1
 6.564962543150000E9    -1.384012773916170E-2    5.691528661749250E-1    3.494452396550449E-2   -3.648960553811301E-3    3.421139027004940E-2   -4.140175890994948E-3    9.324784599612093E-2    5.218878641360746E-1
 6.564973953500000E9    -1.278256135934088E-2    5.691881237467495E-1    3.504776253629694E-2   -3.714141205787891E-3    3.435973357065102E-2   -4.206839952995230E-3    9.436843225801356E-2    5.217423910940497E-1
 6.564985363850000E9    -1.180026783895687E-2    5.692665443181112E-1    3.513176167670401E-2   -3.932656077815966E-3    3.461236091805070E-2   -4.317200650346583E-3    9.533940245424752E-2    5.215086281780981E-1
 6.564996774200000E9    -1.097512727754613E-2    5.692585365291208E-1    3.526739843498630E-2   -3.967981312880460E-3    3.476084483232502E-2   -4.362614426819229E-3    9.646242554838684E-2    5.213360445703458E-1
 6.565008184550000E9    -1.006364768837240E-2    5.692464812593705E-1    3.553787195732530E-2   -3.946585362491585E-3    3.493017072610236E-2   -4.477139958302778E-3    9.744464930017267E-2    5.212906612685771E-1
 6.565019594900000E9    -9.084940544521190E-3    5.693454489438698E-1    3.571472065460643E-2   -4.251131583725570E-3    3.513719671704994E-2   -4.506086006054146E-3    9.877313004312903E-2    5.209236179631144E-1
 6.565031005250000E9    -8.189366744876586E-3    5.692318186217558E-1    3.596339497284193E-2   -4.182779676140253E-3    3.528166749444673E-2   -4.712010040686937E-3    9.993981809437040E-2    5.207813201161575E-1
 6.565042415600000E9    -7.185287629896247E-3    5.693422670371164E-1    3.612381127939174E-2   -4.218557215830665E-3    3.545997119954315E-2   -4.906726589143672E-3    1.010116097623589E-1    5.204460182251858E-1
 6.565053825950000E9    -6.211188699813767E-3    5.692093641350895E-1    3.623022092058940E-2   -4.344716013067114E-3    3.572626144550482E-2   -4.923259294387128E-3    1.020185807657562E-1    5.202040222340599E-1
 6.565065236300000E9    -5.356646408580361E-3    5.693245560552095E-1    3.647989673018834E-2   -4.534131093025785E-3    3.587437123944559E-2   -5.007871728941481E-3    1.032577079223910E-1    5.201652427573441E-1
 6.565076646650000E9    -4.432508158578265E-3    5.692562703142001E-1    3.681300904077877E-2   -4.691230616715804E-3    3.602560512195067E-2   -5.100236463571725E-3    1.043247910915990E-1    5.198984612007702E-1
 6.565088057000000E9    -3.420024454730314E-3    5.692363224466074E-1    3.688215574593683E-2   -4.712537514064618E-3    3.628892996933809E-2   -5.190584471799349E-3    1.054873193407210E-1    5.196975158634772E-1
 6.565099467350000E9    -2.365167864556293E-3    5.692457165937488E-1    3.697254463134944E-2   -4.769175415714292E-3    3.644428999465309E-2   -5.327636871581121E-3    1.066740142846025E-1    5.197297298677664E-1
 6.565110877700000E9    -1.592397000392716E-3    5.693105000939604E-1    3.719049479162812E-2   -4.874100587001110E-3    3.660110480013599E-2   -5.414340747979089E-3    1.078072464047838E-1    5.192666242945876E-1
 6.565122288050000E9    -4.612158249489412E-4    5.692212557557719E-1    3.732113133730788E-2   -4.927181675906822E-3    3.678786366794521E-2   -5.489091008416665E-3    1.089878997913509E-1    5.189199866334738E-1
 6.565133698400000E9     4.646197040175463E-4    5.692178618751611E-1    3.760076262519234E-2   -5.121110334551805E-3    3.703269273126551E-2   -5.668441351219687E-3    1.101469135657106E-1    5.188036078812913E-1
 6.565145108750000E9     1.344440600225552E-3    5.692960158052695E-1    3.783855073713138E-2   -5.333246843216370E-3    3.716660961252207E-2   -5.706584635464725E-3    1.112928260862692E-1    5.185830511854775E-1
 6.565156519100000E9     2.361106454877781E-3    5.692751225085267E-1    3.792624820747757E-2   -5.424146101832767E-3    3.739523989040183E-2   -5.836021224569086E-3    1.123982140973888E-1    5.182495626929640E-1
 6.565167929450000E9     3.349872307545284E-3    5.691231426934570E-1    3.827538220768500E-2   -5.417655980399173E-3    3.753522094121889E-2   -6.020524123129548E-3    1.136247930464557E-1    5.181304754775988E-1
 6.565179339800000E9     4.314162170836727E-3    5.691777632806871E-1    3.843815663638881E-2   -5.513929496928873E-3    3.781823186748060E-2   -6.149976115253226E-3    1.147900905172497E-1    5.177261786208146E-1
 6.565190750150000E9     5.194042886896284E-3    5.691434089972846E-1    3.857125322357609E-2   -5.794319153557398E-3    3.801941206033116E-2   -6.294690756104932E-3    1.159324085421330E-1    5.175011470055305E-1
 6.565202160500000E9     6.164243913884561E-3    5.690779678663822E-1    3.888969154117487E-2   -5.832534699102037E-3    3.820897879742885E-2   -6.442748487475838E-3    1.170364149075971E-1    5.171747519438022E-1
 6.565213570850000E9     7.256696344094382E-3    5.689835408832781E-1    3.914018043632658E-2   -5.956716192040259E-3    3.847306794516906E-2   -6.524503352186149E-3    1.181124806938301E-1    5.168675877736595E-1
 6.565224981200000E9     8.213795418822913E-3    5.689848217536568E-1    3.923749643034807E-2   -5.998501909964939E-3    3.862086604560604E-2   -6.655733176438983E-3    1.195261860704195E-1    5.167602699907800E-1
 6.565236391550000E9     9.132640036959169E-3    5.689898866113281E-1    3.950916087118798E-2   -6.167249180843678E-3    3.886416574079493E-2   -6.756203827866593E-3    1.205258704821068E-1    5.164673763372052E-1
 6.565247801900000E9     1.014411755058481E-2    5.689602211170287E-1    3.980202066517168E-2   -6.299316096997578E-3    3.899963161753343E-2   -6.760091224180676E-3    1.217060817102495E-1    5.162504814647468E-1
 6.565259212250000E9     1.110359684225721E-2    5.688931495745027E-1    3.990456016968739E-2   -6.340630031107145E-3    3.919435938452940E-2   -7.020618283843526E-3    1.230437361553981E-1    5.157726807139650E-1
 6.565270622600000E9     1.206119170002135E-2    5.687815262203416E-1    4.009302180146736E-2   -6.470383206937855E-3    3.955440606698938E-2   -7.132920216447105E-3    1.242353283766668E-1    5.156390303629824E-1
 6.565282032950000E9     1.302078944471731E-2    5.686681285265913E-1    4.038392373798794E-2   -6.665746790618319E-3    3.983496394743802E-2   -7.188959458801170E-3    1.254762919982869E-1    5.152762207677780E-1
 6.565293443300000E9     1.398266654493785E-2    5.687165106454122E-1    4.068363173665696E-2   -6.718755139531945E-3    3.992381304811447E-2   -7.524928006272974E-3    1.266019249851848E-1    5.149758132080160E-1
 6.565304853650000E9     1.496550128438678E-2    5.686262150508029E-1    4.080383534814042E-2   -6.993213483128953E-3    4.017450332879978E-2   -7.545139786955004E-3    1.279223145810565E-1    5.147776923668926E-1
 6.565316264000000E9     1.599332355346548E-2    5.686915042966127E-1    4.105957510431273E-2   -7.156618003116465E-3    4.050863549198027E-2   -7.699530874129108E-3    1.290575465358587E-1    5.144224584833735E-1
 6.565327674350000E9     1.685806323819216E-2    5.686415547928532E-1    4.142241646871573E-2   -7.217437701261002E-3    4.068965456347968E-2   -7.816936392480951E-3    1.302557115684335E-1    5.140311932142032E-1
 6.565339084700000E9     1.791316224658202E-2    5.685220973391809E-1    4.165476455538816E-2   -7.339712917621540E-3    4.087925682761091E-2   -7.997192978105137E-3    1.314960089979782E-1    5.138281052541570E-1
 6.565350495050000E9     1.892839365609397E-2    5.685760612206585E-1    4.181597063606672E-2   -7.518821861492313E-3    4.115142231881033E-2   -8.018870231405359E-3    1.328881131817455E-1    5.134035103562636E-1
 6.565361905400000E9     1.978025716545709E-2    5.684105424260102E-1    4.221224889590117E-2   -7.601222699139414E-3    4.144416671979357E-2   -8.226197157211339E-3    1.339032803934761E-1    5.130569472440503E-1
 6.565373315750000E9     2.093433618864600E-2    5.683607840541571E-1    4.232567263540633E-2   -7.810532340650378E-3    4.163391928828442E-2   -8.348526847968820E-3    1.352645433423603E-1    5.127597232902302E-1
 6.565384726100000E9     2.192552167841422E-2    5.683928008771081E-1    4.260360413117722E-2   -7.920359977577267E-3    4.180952043567062E-2   -8.596958835386404E-3    1.364033852229683E-1    5.124856292132917E-1
 6.565396136450000E9     2.275989354209394E-2    5.682348626621732E-1    4.276247486950118E-2   -8.168598270868604E-3    4.217952141558217E-2   -8.674033560195462E-3    1.375604441390821E-1    5.119864042727728E-1
 6.565407546800000E9     2.380404765982632E-2    5.681175557529985E-1    4.321581445607475E-2   -8.204691127411706E-3    4.240774680897454E-2   -8.902030548675926E-3    1.389898544310628E-1    5.118512837762723E-1
 6.565418957150000E9     2.485569899053999E-2    5.681969126406536E-1    4.335767841082825E-2   -8.369617033448894E-3    4.270242812679105E-2   -9.027180931808659E-3    1.400646512111684E-1    5.113397851769740E-1
 6.565430367500000E9     2.581084934615261E-2    5.680299678980093E-1    4.366404331860727E-2   -8.535997485972486E-3    4.290242523704569E-2   -9.106321948694587E-3    1.416143987955629E-1    5.112017505421177E-1
 6.565441777850000E9     2.675336554726079E-2    5.679372985357747E-1    4.373146300076790E-2   -8.711081020494643E-3    4.319497132610382E-2   -9.302370329002045E-3    1.427714979228285E-1    5.106567443381321E-1
 6.565453188200000E9     2.785952057484417E-2    5.677866637538609E-1    4.408080202802957E-2   -8.894850538103889E-3    4.340414763624831E-2   -9.516743715976697E-3    1.439356979435801E-1    5.103267581355979E-1
 6.565464598550000E9     2.881447094820718E-2    5.678053229993998E-1    4.444586595548926E-2   -9.128283483570761E-3    4.375368247808509E-2   -9.674511617092081E-3    1.452419037018485E-1    5.099555461627695E-1
 6.565476008900000E9     2.969994757017452E-2    5.677792566467750E-1    4.471719920556286E-2   -9.287893411939471E-3    4.399398165650713E-2   -9.846032979686876E-3    1.466054538017010E-1    5.096063739961975E-1
 6.565487419250000E9     3.078244107287779E-2    5.676532730848958E-1    4.508979958220855E-2   -9.337742253131345E-3    4.426804921266597E-2   -1.009917129408385E-2    1.480004193919038E-1    5.090757441752986E-1
 6.565498829600000E9     3.195348402519251E-2    5.675972172236330E-1    4.530446854178131E-2   -9.660929347796828E-3    4.457704564325290E-2   -1.017915430689382E-2    1.491759940504591E-1    5.087542375276120E-1
 6.565510239950000E9     3.276654069976321E-2    5.674053188517827E-1    4.558842912330513E-2   -9.753272638183352E-3    4.482694562354380E-2   -1.039475125294643E-2    1.506073149583272E-1    5.081224608322429E-1
 6.565521650300000E9     3.379045942256669E-2    5.674063674824469E-1    4.585997109575853E-2   -9.922303712463202E-3    4.509622613140732E-2   -1.049612279783357E-2    1.517969896929420E-1    5.078288188561110E-1
 6.565533060650000E9     3.488685650540360E-2    5.673159704105307E-1    4.615396264814504E-2   -1.009794219111209E-2    4.526329082628162E-2   -1.072672177441408E-2    1.530085681472151E-1    5.073827841220964E-1
 6.565544471000000E9     3.578834834472616E-2    5.671381977793567E-1    4.638201024523195E-2   -1.032305670965909E-2    4.566678222305818E-2   -1.099030396995747E-2    1.544116860096119E-1    5.070288345566284E-1
 6.565555881350000E9     3.682444141817949E-2    5.670780807690912E-1    4.668756082123293E-2   -1.050827566786442E-2    4.592426640863597E-2   -1.113017124310172E-2    1.557866679570866E-1    5.065762410771760E-1
 6.565567291700000E9     3.792646772846615E-2    5.668953373784805E-1    4.702832480688614E-2   -1.087378807222236E-2    4.625092333728288E-2   -1.130188491488954E-2    1.570828055533594E-1    5.061585864948264E-1
 6.565578702050000E9     3.893881596186505E-2    5.668054958454954E-1    4.730923108834357E-2   -1.096482519654701E-2    4.662196416371071E-2   -1.149037427861679E-2    1.584154270027883E-1    5.056138901135675E-1
 6.565590112400000E9     3.995243490166478E-2    5.667145863935771E-1    4.757435878773100E-2   -1.104977830943838E-2    4.681072429677718E-2   -1.168877963253132E-2    1.597856400466655E-1    5.053804272999330E-1
 6.565601522750000E9     4.096092973822574E-2    5.665496872329842E-1    4.803107668601934E-2   -1.131338457891479E-2    4.713925715964987E-2   -1.186686270669021E-2    1.611794063609265E-1    5.048272549749664E-1
 6.565612933100000E9     4.199846886673629E-2    5.664395585379551E-1    4.823253777619237E-2   -1.153052574754113E-2    4.748037210272137E-2   -1.219032534891422E-2    1.625265834777614E-1    5.042511686173851E-1
 6.565624343450000E9     4.305705260662041E-2    5.663407441932194E-1    4.865784335830247E-2   -1.183565645629429E-2    4.782334931756544E-2   -1.241447857137655E-2    1.639394185772379E-1    5.038906938455093E-1
 6.565635753800000E9     4.408292438300241E-2    5.661471058323876E-1    4.892158127152572E-2   -1.189058914758131E-2    4.808838353213978E-2   -1.256010486775089E-2    1.651638144912685E-1    5.033621416544868E-1
 6.565647164150000E9     4.503126798544387E-2    5.660943333231512E-1    4.937615094458559E-2   -1.224978016413318E-2    4.846575766562347E-2   -1.277196935700186E-2    1.668050990533496E-1    5.028452093416980E-1
 6.565658574500000E9     4.601646679055123E-2    5.659187184630592E-1    4.957057055574188E-2   -1.240382062803349E-2    4.878956001434655E-2   -1.296647748395712E-2    1.680923164900294E-1    5.023215759369952E-1
 6.565669984850000E9     4.709909185980488E-2    5.657952648430924E-1    4.999559677843463E-2   -1.275015816011111E-2    4.907467197344903E-2   -1.327435302719866E-2    1.694132842216625E-1    5.018872631232071E-1
 6.565681395200000E9     4.823082087036978E-2    5.657102118352835E-1    5.030173683522810E-2   -1.285014352838306E-2    4.947379387798923E-2   -1.351281580966969E-2    1.709395551202427E-1    5.013260401091479E-1
 6.565692805550000E9     4.922406822792137E-2    5.655385065807026E-1    5.069961228737422E-2   -1.316948234955277E-2    4.982335608481308E-2   -1.378764030148610E-2    1.722983593371038E-1    5.008270044008648E-1
 6.565704215900000E9     5.025080799885577E-2    5.653313255884658E-1    5.082961209678670E-2   -1.341541343251532E-2    5.023577201391090E-2   -1.396190282076138E-2    1.737000103998048E-1    5.003710894288461E-1
 6.565715626250000E9     5.120087776382299E-2    5.652116508447440E-1    5.143681198397614E-2   -1.357681682440506E-2    5.057501853639988E-2   -1.423274953812573E-2    1.752626238797375E-1    4.997559470926321E-1
 6.565727036600000E9     5.233104195328992E-2    5.650569237499203E-1    5.168092585210710E-2   -1.382542120689473E-2    5.097720863146171E-2   -1.440827366384436E-2    1.765813624838596E-1    4.991425715435520E-1
 6.565738446950000E9     5.339277810943284E-2    5.650795567591071E-1    5.207665898075562E-2   -1.428204065765712E-2    5.126135094430176E-2   -1.475799577762911E-2    1.781495339328403E-1    4.985198044740616E-1
 6.565749857300000E9     5.443148043543165E-2    5.647211312675228E-1    5.240539600418867E-2   -1.427749061818935E-2    5.151961590211669E-2   -1.508283677806973E-2    1.796873478164483E-1    4.981267046036862E-1
 6.565761267650000E9     5.552051782934329E-2    5.647547732700408E-1    5.279972769080548E-2   -1.474403285142912E-2    5.201665159709085E-2   -1.530498282518734E-2    1.812171900041631E-1    4.973015787188649E-1
 6.565772678000000E9     5.668904637933792E-2    5.644219328181072E-1    5.323049037289755E-2   -1.493529155888166E-2    5.243908479139441E-2   -1.558258908236350E-2    1.824675829520238E-1    4.967229219168418E-1
 6.565784088350000E9     5.766107895999504E-2    5.642054147194382E-1    5.368963812185174E-2   -1.515693757636016E-2    5.267436921950928E-2   -1.588253795661414E-2    1.839517104659366E-1    4.961425843083318E-1
 6.565795498700000E9     5.877954982854983E-2    5.639671031436680E-1    5.395257785499535E-2   -1.556615430208603E-2    5.314799524183840E-2   -1.605240933899684E-2    1.855415952658065E-1    4.954022869957000E-1
 6.565806909050000E9     5.988572443637799E-2    5.639143085973302E-1    5.454635406839205E-2   -1.585440700745986E-2    5.357215055541736E-2   -1.655871016102080E-2    1.870865957727538E-1    4.948495127948160E-1
 6.565818319400000E9     6.090960424309232E-2    5.636973154345368E-1    5.477768459421464E-2   -1.608552268512130E-2    5.394769078820261E-2   -1.673673448052202E-2    1.885687629517170E-1    4.941818424855526E-1
 6.565829729750000E9     6.203685237870887E-2    5.635799872153932E-1    5.514041226528197E-2   -1.642346683690954E-2    5.441532485030034E-2   -1.705472152355877E-2    1.901921749768252E-1    4.935563979868269E-1
 6.565841140100000E9     6.314216770065473E-2    5.633263036674894E-1    5.561522434389747E-2   -1.654653551083950E-2    5.469175006008779E-2   -1.732808520092427E-2    1.915899093676206E-1    4.928786839272918E-1
 6.565852550450000E9     6.425265805500646E-2    5.631986052247721E-1    5.605193140944045E-2   -1.700505965064414E-2    5.516358515276201E-2   -1.766159827445954E-2    1.931533963861883E-1    4.921872860228803E-1
 6.565863960800000E9     6.530160685860885E-2    5.629472733027786E-1    5.640677901778935E-2   -1.733243788816193E-2    5.562975767703233E-2   -1.797102659376965E-2    1.947968528956740E-1    4.914576794265353E-1
 6.565875371150000E9     6.635359817011408E-2    5.627212000099685E-1    5.693040225261074E-2   -1.766157091436657E-2    5.606449139574153E-2   -1.822630969114919E-2    1.963175265831808E-1    4.907727916011473E-1
 6.565886781500000E9     6.747014755083099E-2    5.624825378600375E-1    5.743561061344544E-2   -1.789431633109329E-2    5.654222167312979E-2   -1.867897661572758E-2    1.980368755576464E-1    4.900820608912992E-1
