#  HZ   S   RI   R     50.00 
! Rohde & Schwarz Vector Network Analyzer 
! Rohde-Schwarz,ZNB20-2Port,1311601062101988,3.16
! Created: UTC 3/20/2024, 5:12:14 PM
! freq[Hz]                re:S11                  im:S11                  re:S21                  im:S21                  re:S12                  im:S12                  re:S22                  im:S22
 6.564704016000000E9    -3.589113974005871E-2    5.679735219547684E-1    3.084022917658674E-2   -1.842116108243348E-3    3.031079685200805E-2   -2.387316742440462E-3    6.553935138722997E-2    5.222235146204782E-1
 6.564716357500000E9    -3.488288002308085E-2    5.680665521396799E-1    3.094340395563608E-2   -1.863273519638590E-3    3.047516586220026E-2   -2.389201291044677E-3    6.659369102397455E-2    5.220960583450193E-1
 6.564728699000000E9    -3.405474886463658E-2    5.681540306760851E-1    3.117096026957995E-2   -1.953819138860890E-3    3.061839892214539E-2   -2.421681865255548E-3    6.806894535966035E-2    5.219763309565139E-1
 6.564741040500000E9    -3.285655873174032E-2    5.681198298037240E-1    3.126877321248677E-2   -2.067108716076853E-3    3.067973528100627E-2   -2.514525833914467E-3    6.878085972419673E-2    5.219443916778421E-1
 6.564753382000000E9    -3.193020046799641E-2    5.681584880867931E-1    3.139231907604188E-2   -2.111703896125598E-3    3.083884636695792E-2   -2.529746426372917E-3    7.014542877154220E-2    5.216009451607153E-1
 6.564765723500000E9    -3.088068650049494E-2    5.681367649625363E-1    3.155712872730989E-2   -2.229473562080668E-3    3.096780081319024E-2   -2.625421891988189E-3    7.107710989550624E-2    5.215245494563246E-1
 6.564778065000000E9    -2.995300322828251E-2    5.682543879329793E-1    3.171400023930396E-2   -2.234462635560308E-3    3.116467676233757E-2   -2.741618147007944E-3    7.233482105898907E-2    5.215276257098103E-1
 6.564790406500000E9    -2.886941434244291E-2    5.682904567307997E-1    3.181337858739720E-2   -2.408448543049869E-3    3.127886701381838E-2   -2.890801282038531E-3    7.345029855027360E-2    5.212868193549770E-1
 6.564802748000000E9    -2.791714380995726E-2    5.682947026031200E-1    3.216895109193511E-2   -2.412791086704183E-3    3.141633915637365E-2   -2.958065816246720E-3    7.449551791724060E-2    5.211743678333011E-1
 6.564815089500000E9    -2.695918747973778E-2    5.683675933107725E-1    3.228419642029610E-2   -2.500896635872686E-3    3.165938554604070E-2   -3.017829611701146E-3    7.562758631009792E-2    5.210607558856098E-1
 6.564827431000000E9    -2.600906593569074E-2    5.683966123404768E-1    3.240078379800711E-2   -2.532179351853012E-3    3.175661138871009E-2   -3.082404840079529E-3    7.683113566205856E-2    5.207746712363704E-1
 6.564839772500000E9    -2.500399921938198E-2    5.685001397899183E-1    3.242656797437323E-2   -2.653416718933383E-3    3.199606659088206E-2   -3.249869294707151E-3    7.799148557072766E-2    5.206454507958256E-1
 6.564852114000000E9    -2.388754776857948E-2    5.684587725174984E-1    3.267341715606219E-2   -2.707107181759351E-3    3.205976250636042E-2   -3.233113896762376E-3    7.908388591101956E-2    5.204152574376020E-1
 6.564864455500000E9    -2.282374495290014E-2    5.684157392754560E-1    3.292631108389393E-2   -2.894818117199033E-3    3.220775982125277E-2   -3.413045071499188E-3    8.009720782215352E-2    5.203438597463417E-1
 6.564876797000000E9    -2.198551106241734E-2    5.685116731183316E-1    3.297636904234881E-2   -2.914200933603559E-3    3.244799598954690E-2   -3.511711925697133E-3    8.145955086618212E-2    5.202336782671413E-1
 6.564889138500000E9    -2.094289911907461E-2    5.684951021246687E-1    3.307565688663698E-2   -2.915408373105646E-3    3.253427789484266E-2   -3.510087397940638E-3    8.257267456499059E-2    5.201733317263928E-1
 6.564901480000000E9    -1.988108899760506E-2    5.687277972801987E-1    3.334386618995017E-2   -3.188426390071888E-3    3.286667430448990E-2   -3.651693829245684E-3    8.371803741672444E-2    5.198641011652106E-1
 6.564913821500000E9    -1.882682829246473E-2    5.685550326141592E-1    3.339574534687545E-2   -3.304358932554145E-3    3.297943537829767E-2   -3.717699700970723E-3    8.490796058405996E-2    5.196229682432485E-1
 6.564926163000000E9    -1.784348679917841E-2    5.686354097433509E-1    3.370046118132067E-2   -3.156506541162451E-3    3.313315281167821E-2   -3.846508035438652E-3    8.595539654758760E-2    5.194567099995273E-1
 6.564938504500000E9    -1.683059163489238E-2    5.686150586040668E-1    3.383537816289573E-2   -3.493701380691360E-3    3.331528784927383E-2   -3.838408488222626E-3    8.716622248786791E-2    5.192701198388977E-1
 6.564950846000000E9    -1.578343119729644E-2    5.686661191133875E-1    3.413660936994243E-2   -3.431467140806354E-3    3.347234198018531E-2   -4.035556011517755E-3    8.838445052193818E-2    5.191109975685775E-1
 6.564963187500000E9    -1.493135885476981E-2    5.686442081458186E-1    3.422537586328928E-2   -3.565386375895491E-3    3.361299475639096E-2   -4.137055182928163E-3    8.946386862699325E-2    5.189244454139806E-1
 6.564975529000000E9    -1.381431224125289E-2    5.686878167205242E-1    3.439522606016666E-2   -3.773395050630141E-3    3.378290595945247E-2   -4.237738812239168E-3    9.072205547772152E-2    5.186969786757366E-1
 6.564987870500000E9    -1.282848359325988E-2    5.686837339425476E-1    3.457160728326471E-2   -3.808111331313746E-3    3.403054984562407E-2   -4.401137988004830E-3    9.179425035354635E-2    5.184906734970631E-1
 6.565000212000000E9    -1.185870791354922E-2    5.686738801832131E-1    3.475378298784353E-2   -3.896005401686604E-3    3.413819045335052E-2   -4.515298376119351E-3    9.299738770539884E-2    5.182645680965631E-1
 6.565012553500000E9    -1.085925800210707E-2    5.686887338181582E-1    3.498103832324085E-2   -3.996655518539143E-3    3.441087641087879E-2   -4.497460590458293E-3    9.446511765523086E-2    5.181803952295759E-1
 6.565024895000000E9    -9.664539037613835E-3    5.687805850807013E-1    3.518614498012267E-2   -4.174110110792661E-3    3.450366634959857E-2   -4.683416541835878E-3    9.549318264099597E-2    5.179568774999858E-1
 6.565037236500000E9    -8.646257705782229E-3    5.687212981352697E-1    3.540973358166626E-2   -4.100358085811872E-3    3.479544292263861E-2   -4.794692862727407E-3    9.656531134656353E-2    5.177525549091837E-1
 6.565049578000000E9    -7.763442288152415E-3    5.686460546906168E-1    3.548178172679341E-2   -4.327062011707176E-3    3.495262592873060E-2   -4.869430865319911E-3    9.788739880263482E-2    5.173179329570878E-1
 6.565061919500000E9    -6.681279934670125E-3    5.686357585440268E-1    3.577172901129975E-2   -4.409490649155202E-3    3.513016257273312E-2   -4.927857293348192E-3    9.907684542001242E-2    5.172357096712111E-1
 6.565074261000000E9    -5.647805866934536E-3    5.686597185938772E-1    3.585825312827658E-2   -4.578931675556213E-3    3.532495259308090E-2   -5.094849269718747E-3    1.003234654899542E-1    5.171040928032935E-1
 6.565086602500000E9    -4.621529365299121E-3    5.687381857166263E-1    3.615588155935400E-2   -4.611219580358708E-3    3.552312441663723E-2   -5.151386414904340E-3    1.016074101094340E-1    5.167473431305604E-1
 6.565098944000000E9    -3.639387774105204E-3    5.687070447237655E-1    3.618274380519872E-2   -4.830587076007590E-3    3.561506967587490E-2   -5.360923878579161E-3    1.026502824651829E-1    5.164629795059698E-1
 6.565111285500000E9    -2.717705098845995E-3    5.686247896706753E-1    3.649008242487378E-2   -4.809337918823205E-3    3.583294464515754E-2   -5.221916157237445E-3    1.038412182897016E-1    5.162203115359563E-1
 6.565123627000000E9    -1.500559979364448E-3    5.686527435519182E-1    3.671844600058547E-2   -4.928784367675839E-3    3.610456922164509E-2   -5.521596492321190E-3    1.051259270434072E-1    5.161503682002111E-1
 6.565135968500000E9    -6.788885954062621E-4    5.686842347677615E-1    3.695027145294941E-2   -5.010697185369807E-3    3.629761245346549E-2   -5.642606516696551E-3    1.063793952700995E-1    5.158290228256944E-1
 6.565148310000000E9     5.707197913669112E-4    5.686354484536741E-1    3.703614800704152E-2   -5.217067507407273E-3    3.652767227959856E-2   -5.821385365740634E-3    1.075573992738366E-1    5.155762109644960E-1
 6.565160651500000E9     1.628065746538299E-3    5.685929113911968E-1    3.733194563562796E-2   -5.375004725780559E-3    3.659359669888008E-2   -5.893832166128763E-3    1.087136891689090E-1    5.153526780216923E-1
 6.565172993000000E9     2.476142844076794E-3    5.685851850637842E-1    3.762762623963045E-2   -5.496042932658159E-3    3.692120291638119E-2   -6.083281898078778E-3    1.100111885735114E-1    5.150658422901162E-1
 6.565185334500000E9     3.537362938946297E-3    5.683635530960551E-1    3.782040814832026E-2   -5.488680521583701E-3    3.715848801238031E-2   -6.052316214481638E-3    1.112348844143328E-1    5.147191242612955E-1
 6.565197676000000E9     4.573227623664525E-3    5.684873042779462E-1    3.797388941862162E-2   -5.543483636206554E-3    3.728407508025108E-2   -6.217974702719854E-3    1.123537696018081E-1    5.144527222794887E-1
 6.565210017500000E9     5.756604794241250E-3    5.684204312900756E-1    3.826274560139049E-2   -5.882419782586267E-3    3.755236838288521E-2   -6.428068813371727E-3    1.136670573306086E-1    5.141472675841033E-1
 6.565222359000000E9     6.802270818249679E-3    5.684094197231557E-1    3.845560310101769E-2   -5.879891913321427E-3    3.772198439434246E-2   -6.511701021373447E-3    1.150393711863613E-1    5.139852603830839E-1
 6.565234700500000E9     7.745610686930775E-3    5.684666638409061E-1    3.872920498940124E-2   -6.183327680265194E-3    3.807804714132886E-2   -6.652210391044075E-3    1.162582108329178E-1    5.136876032959287E-1
 6.565247042000000E9     8.782034136412070E-3    5.683469652107053E-1    3.896394300537027E-2   -6.287771988555980E-3    3.819759854241191E-2   -6.727912802983718E-3    1.175218413186507E-1    5.133764567721520E-1
 6.565259383500000E9     9.866395773589458E-3    5.683530871475952E-1    3.902017231799119E-2   -6.436529335550529E-3    3.844280602724410E-2   -6.908241938183573E-3    1.187471761537946E-1    5.131400007171171E-1
 6.565271725000000E9     1.087941012128152E-2    5.682810774670402E-1    3.921721407947502E-2   -6.602436546744643E-3    3.867954121450261E-2   -7.169371136897023E-3    1.199922057040311E-1    5.126627880098527E-1
 6.565284066500000E9     1.196141906663717E-2    5.682848982940931E-1    3.963276837933252E-2   -6.621320830633223E-3    3.888902621592158E-2   -7.219500602530075E-3    1.212635507677575E-1    5.125432320429520E-1
 6.565296408000000E9     1.292145188735321E-2    5.682142760111641E-1    3.978848416010346E-2   -6.879660832349300E-3    3.900832516708866E-2   -7.357460506535504E-3    1.225854095182544E-1    5.121391365926473E-1
 6.565308749500000E9     1.391214882886693E-2    5.681352189221419E-1    4.007299165102280E-2   -7.097200584121776E-3    3.948068853693566E-2   -7.574426429199334E-3    1.238103921784308E-1    5.117686376911230E-1
 6.565321091000000E9     1.498297426620935E-2    5.681325827972141E-1    4.040494939251347E-2   -7.210544745803993E-3    3.962197665586577E-2   -7.577645262863479E-3    1.251860796219649E-1    5.116319086533346E-1
 6.565333432500000E9     1.613927972013043E-2    5.679559158732518E-1    4.056519585120116E-2   -7.076280233185159E-3    3.988347609524025E-2   -7.690687081402211E-3    1.264276103269689E-1    5.111331777087046E-1
 6.565345774000000E9     1.725064356431540E-2    5.680070655759570E-1    4.082835342502868E-2   -7.354948549602506E-3    4.013668032412217E-2   -7.970252020316655E-3    1.278607543269397E-1    5.109179548694617E-1
 6.565358115500000E9     1.825916196374597E-2    5.678821888727321E-1    4.097062008983678E-2   -7.483844386852408E-3    4.035241455348916E-2   -8.106740139010329E-3    1.288943898646032E-1    5.104496698712631E-1
 6.565370457000000E9     1.923113797754512E-2    5.678144593932785E-1    4.132250167141958E-2   -7.719545456419181E-3    4.067390740158369E-2   -8.329360881598044E-3    1.302748936270778E-1    5.100523024449100E-1
 6.565382798500000E9     2.032978559266072E-2    5.677934695455251E-1    4.144066359147246E-2   -7.833834782409300E-3    4.093965556305986E-2   -8.384850379547771E-3    1.317120147344809E-1    5.099508365537382E-1
 6.565395140000000E9     2.138787865859490E-2    5.677112721911942E-1    4.188151736466735E-2   -8.054147353285242E-3    4.108004655968250E-2   -8.555833995612815E-3    1.330141196935717E-1    5.093322722862469E-1
 6.565407481500000E9     2.260682288158833E-2    5.676814923158904E-1    4.203250753408256E-2   -8.366723346824671E-3    4.135996795504381E-2   -8.801223667880820E-3    1.343389006729871E-1    5.089560001309175E-1
 6.565419823000000E9     2.363518932499711E-2    5.676161996548954E-1    4.242312177404201E-2   -8.345710802131858E-3    4.162253732010472E-2   -8.905454819186486E-3    1.355399690594941E-1    5.086909713880977E-1
 6.565432164500000E9     2.467842639110544E-2    5.674801150408739E-1    4.256886911599877E-2   -8.512368318401999E-3    4.192926971019879E-2   -9.116718899820469E-3    1.369640910302760E-1    5.082746890600435E-1
 6.565444506000000E9     2.561513273082703E-2    5.673419392761626E-1    4.290946453210117E-2   -8.884055770180354E-3    4.216255685310819E-2   -9.235378658254148E-3    1.382565097864145E-1    5.078670365085641E-1
 6.565456847500000E9     2.684435284654287E-2    5.671942032454262E-1    4.319428553838498E-2   -8.986272392713006E-3    4.246079361622702E-2   -9.434082683553393E-3    1.398198613185878E-1    5.075876615299842E-1
 6.565469189000000E9     2.783384509884438E-2    5.671743645707343E-1    4.356338463613139E-2   -9.187721996882772E-3    4.267333387118046E-2   -9.716495025426168E-3    1.411823366999601E-1    5.072156342666352E-1
 6.565481530500000E9     2.892628963163817E-2    5.671101521147266E-1    4.382529957057922E-2   -9.171206032428570E-3    4.297995236089096E-2   -9.812870547226018E-3    1.424004627477692E-1    5.068052644207248E-1
 6.565493872000000E9     2.998811585764893E-2    5.669837156007855E-1    4.402526364882474E-2   -9.361245434375156E-3    4.329829707604065E-2   -1.006547784363238E-2    1.437552331890799E-1    5.063026863157127E-1
 6.565506213500000E9     3.118548266539097E-2    5.667596257564231E-1    4.437454823841262E-2   -9.552656997594677E-3    4.350921503415574E-2   -1.004197748595373E-2    1.450738858527720E-1    5.060065319128135E-1
 6.565518555000000E9     3.215820763921526E-2    5.667471187735248E-1    4.455918163831846E-2   -9.759260671547013E-3    4.382795703403969E-2   -1.039258583332563E-2    1.466127519316586E-1    5.053893629788851E-1
 6.565530896500000E9     3.333077087162757E-2    5.666140726842732E-1    4.487464306484773E-2   -1.010699654093631E-2    4.423554302332123E-2   -1.058869356898823E-2    1.479963661631864E-1    5.049338793344776E-1
 6.565543238000000E9     3.425231151370676E-2    5.667726753917660E-1    4.527038922904727E-2   -1.019249528880986E-2    4.449734340286803E-2   -1.085875080332097E-2    1.492757647043426E-1    5.046407034185472E-1
 6.565555579500000E9     3.540167736145516E-2    5.665159393751906E-1    4.558351991864855E-2   -1.046077990803458E-2    4.482270601218149E-2   -1.112892761060831E-2    1.507413437552761E-1    5.042967277196800E-1
 6.565567921000000E9     3.652802446083989E-2    5.663002243306523E-1    4.587088996847302E-2   -1.067883709005111E-2    4.518885748376899E-2   -1.125555020096622E-2    1.521413330352341E-1    5.035288495334342E-1
 6.565580262500000E9     3.756277319853214E-2    5.662182827504120E-1    4.614223179541908E-2   -1.079100866505559E-2    4.539723382676748E-2   -1.141442641962911E-2    1.535148789913361E-1    5.032507254280832E-1
 6.565592604000000E9     3.867864677309326E-2    5.661166426624400E-1    4.661003053767665E-2   -1.104499958618486E-2    4.574360134014571E-2   -1.163856025064029E-2    1.549760573758668E-1    5.026282638311239E-1
 6.565604945500000E9     3.978827321672355E-2    5.660125459077292E-1    4.687692909338214E-2   -1.120233077660300E-2    4.601238863182123E-2   -1.184951070065630E-2    1.564335192556286E-1    5.023684365824514E-1
 6.565617287000000E9     4.092022320460236E-2    5.658640944369614E-1    4.713279238902228E-2   -1.137022956437357E-2    4.630862289013598E-2   -1.206427658018406E-2    1.579145334931945E-1    5.016936004357397E-1
 6.565629628500000E9     4.207214935008727E-2    5.657730472543395E-1    4.755440940445304E-2   -1.166865021602633E-2    4.678715204322575E-2   -1.220493179363639E-2    1.592489305378901E-1    5.013186938642039E-1
 6.565641970000000E9     4.305782200100051E-2    5.656406531856473E-1    4.785544305064419E-2   -1.212102919635670E-2    4.701797810338765E-2   -1.250533159677468E-2    1.608498225491712E-1    5.008000150417270E-1
 6.565654311500000E9     4.418911838025359E-2    5.655256891647336E-1    4.814338944232215E-2   -1.220507124939037E-2    4.731379653854072E-2   -1.278104420107888E-2    1.623353373051091E-1    5.001852498382294E-1
 6.565666653000000E9     4.532511603671299E-2    5.652855707244289E-1    4.842139368759084E-2   -1.237199811242211E-2    4.767071003127708E-2   -1.306321556433906E-2    1.638188129884039E-1    4.995014691532521E-1
 6.565678994500000E9     4.647562061215646E-2    5.651863541126076E-1    4.880581579605409E-2   -1.256936246895171E-2    4.803891258045266E-2   -1.314926213466341E-2    1.652251712398372E-1    4.990433092601649E-1
 6.565691336000000E9     4.750838813453508E-2    5.649688690720868E-1    4.925632993198291E-2   -1.288406081744387E-2    4.842650059490296E-2   -1.345525566384685E-2    1.667270529815006E-1    4.985098782372626E-1
 6.565703677500000E9     4.868801013600681E-2    5.649904257517058E-1    4.972356737062855E-2   -1.318861835232090E-2    4.875221931399082E-2   -1.374414247435712E-2    1.683129094667360E-1    4.980564949709128E-1
 6.565716019000000E9     4.976200218780076E-2    5.647225864583914E-1    4.990383146701787E-2   -1.347919243070786E-2    4.904640318137381E-2   -1.398650932990805E-2    1.698535525986646E-1    4.973400554129264E-1
 6.565728360500000E9     5.082450359373047E-2    5.645643683753382E-1    5.047941309638895E-2   -1.370278829510174E-2    4.942692762898240E-2   -1.434136310362175E-2    1.713275493054642E-1    4.969476759586647E-1
 6.565740702000000E9     5.204276552299247E-2    5.644322213885911E-1    5.067301676798162E-2   -1.397197925733505E-2    4.980845495838511E-2   -1.462317921820204E-2    1.727811847552804E-1    4.962927293601016E-1
 6.565753043500000E9     5.326652105537817E-2    5.643271188581829E-1    5.115299377663961E-2   -1.432454776725644E-2    5.024272493813826E-2   -1.486004703758565E-2    1.744857105756371E-1    4.956848222868305E-1
 6.565765385000000E9     5.441598662746833E-2    5.640567951217752E-1    5.146950447648758E-2   -1.458032005330876E-2    5.060856142519000E-2   -1.523014571659185E-2    1.759264721581474E-1    4.949776339539438E-1
 6.565777726500000E9     5.544502157054289E-2    5.638967369989919E-1    5.183809003269254E-2   -1.490839543396516E-2    5.102627161001362E-2   -1.543975151254685E-2    1.775805970806425E-1    4.943165400042792E-1
 6.565790068000000E9     5.650522167593312E-2    5.637308967917485E-1    5.220732645210666E-2   -1.518340056390740E-2    5.144068771781803E-2   -1.580684570757011E-2    1.790596369362348E-1    4.937784433765831E-1
 6.565802409500000E9     5.772664436429730E-2    5.635641708397094E-1    5.267470081388025E-2   -1.541978557844594E-2    5.189420857161330E-2   -1.605267611770047E-2    1.806968208607342E-1    4.931782496473557E-1
 6.565814751000000E9     5.894671643557602E-2    5.632262723979780E-1    5.305580476849915E-2   -1.571199492144784E-2    5.215102623897813E-2   -1.641527958137827E-2    1.823202318482920E-1    4.923110389077287E-1
