#  HZ   S   RI   R     50.00 
! Rohde & Schwarz Vector Network Analyzer 
! Rohde-Schwarz,ZNB20-2Port,1311601062101988,3.16
! Created: UTC 3/20/2024, 5:12:21 PM
! freq[Hz]                re:S11                  im:S11                  re:S21                  im:S21                  re:S12                  im:S12                  re:S22                  im:S22
 6.564718940000000E9    -3.482067437293968E-2    5.680160783898291E-1    3.089965638373620E-2   -1.807297356254053E-3    3.044312138024903E-2   -2.379437783911777E-3    6.690768098330889E-2    5.220855839466858E-1
 6.564731222225000E9    -3.377891241271520E-2    5.681444048477411E-1    3.108654052428149E-2   -2.000394418879779E-3    3.050272582453911E-2   -2.396789940115072E-3    6.809502458444398E-2    5.220825039128453E-1
 6.564743504450000E9    -3.270690081843123E-2    5.681035918684155E-1    3.118430581813587E-2   -2.013370218802929E-3    3.075859623539811E-2   -2.572713031464373E-3    6.911905081138212E-2    5.218357311196523E-1
 6.564755786675000E9    -3.176745411489405E-2    5.681670988265520E-1    3.128257233541863E-2   -2.002297817993077E-3    3.089224458606300E-2   -2.625485615037324E-3    7.022703701895132E-2    5.218074159902268E-1
 6.564768068900000E9    -3.084263755792634E-2    5.682183276165428E-1    3.139823421979447E-2   -2.227531015213648E-3    3.095013781733254E-2   -2.593945704333657E-3    7.132675859420012E-2    5.215644050839087E-1
 6.564780351125000E9    -2.975481141679974E-2    5.682221453797210E-1    3.175582613877247E-2   -2.217600266262629E-3    3.111931443417218E-2   -2.803255487351405E-3    7.234279832889184E-2    5.213950865691873E-1
 6.564792633350000E9    -2.875977090463685E-2    5.682305208535674E-1    3.181776964159046E-2   -2.363452792864226E-3    3.127894105965184E-2   -2.770612444545097E-3    7.370056178378370E-2    5.214090086299040E-1
 6.564804915575000E9    -2.777016397090037E-2    5.683075702646407E-1    3.214572948570451E-2   -2.615394984445962E-3    3.143506768982822E-2   -3.004667756321913E-3    7.472656741472221E-2    5.211311273619528E-1
 6.564817197800000E9    -2.686531809454349E-2    5.684108142297415E-1    3.203404693482105E-2   -2.642438118283554E-3    3.150715769112926E-2   -2.910914028339919E-3    7.572912246346072E-2    5.209562936156757E-1
 6.564829480025000E9    -2.576872595158530E-2    5.684154410302912E-1    3.235029573297804E-2   -2.609885769276004E-3    3.164400566314630E-2   -3.108398740273301E-3    7.715044177236562E-2    5.208342441282161E-1
 6.564841762250000E9    -2.478052515915543E-2    5.684646770193360E-1    3.236507930044559E-2   -2.671120155469908E-3    3.199072972327063E-2   -3.203439877729196E-3    7.811257729171539E-2    5.205320953083513E-1
 6.564854044475000E9    -2.381011173690530E-2    5.684962610490693E-1    3.266914773385144E-2   -2.745765416309610E-3    3.201302678782300E-2   -3.273959966133053E-3    7.923420525131213E-2    5.205466132819073E-1
 6.564866326700000E9    -2.278753941242377E-2    5.684876695984697E-1    3.274278682453030E-2   -2.796017813372438E-3    3.224567265116825E-2   -3.376299958417209E-3    8.061403362840107E-2    5.203193359984291E-1
 6.564878608925000E9    -2.178026920866586E-2    5.685781635910385E-1    3.292171277506459E-2   -3.071341252585533E-3    3.243275210591508E-2   -3.504194634523113E-3    8.145223160974470E-2    5.201933688494161E-1
 6.564890891150000E9    -2.075561101088852E-2    5.685411438313585E-1    3.296349192099698E-2   -2.885666774059726E-3    3.259685480759345E-2   -3.565314329399148E-3    8.264245323672260E-2    5.199616696150132E-1
 6.564903173375000E9    -1.968730124423907E-2    5.685044383418245E-1    3.319431898688473E-2   -3.218104033559363E-3    3.281081910321881E-2   -3.665704722334027E-3    8.398754832469765E-2    5.198551839613613E-1
 6.564915455600000E9    -1.885610187229190E-2    5.686978461002428E-1    3.346685667983809E-2   -3.273078094516038E-3    3.283721232288280E-2   -3.653858266056742E-3    8.492824981461702E-2    5.196126006324834E-1
 6.564927737825000E9    -1.771217303837518E-2    5.686673309853746E-1    3.363626223855971E-2   -3.345356165411997E-3    3.308129504328507E-2   -3.788664139725096E-3    8.610117283207898E-2    5.193570074056018E-1
 6.564940020050000E9    -1.675433014624445E-2    5.685379271043821E-1    3.384107537708625E-2   -3.482095153906216E-3    3.334195594694146E-2   -3.868769886762560E-3    8.733514094360320E-2    5.194041193788302E-1
 6.564952302275000E9    -1.575483152862520E-2    5.686883197013495E-1    3.392455629957224E-2   -3.414410250469111E-3    3.341040318740938E-2   -3.951729649249082E-3    8.840390089660956E-2    5.191000741463305E-1
 6.564964584500000E9    -1.470697691516541E-2    5.686677903338536E-1    3.421508635614088E-2   -3.465782816758215E-3    3.354845293509242E-2   -4.044930153661964E-3    8.958192891110084E-2    5.189574575004529E-1
 6.564976866725000E9    -1.377744381294443E-2    5.685571359058209E-1    3.434655603362679E-2   -3.798524911685333E-3    3.381389561595331E-2   -4.259005021644001E-3    9.081549312020805E-2    5.187437208479527E-1
 6.564989148950000E9    -1.273657772552217E-2    5.687092167498140E-1    3.442655557457385E-2   -3.787874955676865E-3    3.387069832778136E-2   -4.263238618471500E-3    9.187921103438672E-2    5.185688463584858E-1
 6.565001431175000E9    -1.181037895958094E-2    5.687776848514945E-1    3.462444272941377E-2   -3.782650420220454E-3    3.418597099281356E-2   -4.461487199276468E-3    9.307698508548433E-2    5.183813680573784E-1
 6.565013713400000E9    -1.076586447419478E-2    5.686965860231242E-1    3.494132956788994E-2   -4.054489724124618E-3    3.432438135046115E-2   -4.529534332589760E-3    9.440688455307845E-2    5.180164497717192E-1
 6.565025995625000E9    -9.656652731076997E-3    5.686731568854871E-1    3.508187937762890E-2   -3.965234280760910E-3    3.444786368220813E-2   -4.660979726819992E-3    9.555540608652410E-2    5.179394802440455E-1
 6.565038277850000E9    -8.610515945361176E-3    5.687190510951943E-1    3.525946501270822E-2   -4.220788177752724E-3    3.476994687279855E-2   -4.757748017659467E-3    9.677816473367029E-2    5.177035795602462E-1
 6.565050560075000E9    -7.644912125061992E-3    5.687196721741924E-1    3.549000265676722E-2   -4.326560690595250E-3    3.485040334322886E-2   -4.813863465661156E-3    9.789205821482397E-2    5.174590544824694E-1
 6.565062842300000E9    -6.581256318892672E-3    5.686939349143331E-1    3.560226632163623E-2   -4.400657659934814E-3    3.513641031552923E-2   -4.924580105108941E-3    9.892148967901666E-2    5.173198301319841E-1
 6.565075124525000E9    -5.634411567100904E-3    5.686845618201773E-1    3.584657752424539E-2   -4.492302090421983E-3    3.525487477936595E-2   -5.191039934301413E-3    1.003552901156866E-1    5.171093324022076E-1
 6.565087406750000E9    -4.609153096577344E-3    5.686302700400502E-1    3.611401732271725E-2   -4.596057150146455E-3    3.541026532909392E-2   -5.126756250032767E-3    1.014343094972759E-1    5.168362441586498E-1
 6.565099688975000E9    -3.570558453566731E-3    5.686071792289695E-1    3.637265707629377E-2   -4.753125326498303E-3    3.565778691518755E-2   -5.233511916555102E-3    1.026646190617262E-1    5.165246243298803E-1
 6.565111971200000E9    -2.655152145697169E-3    5.686319958525045E-1    3.646723747241144E-2   -4.863318423479264E-3    3.591216136386895E-2   -5.428549777349930E-3    1.037881066152455E-1    5.162392264884165E-1
 6.565124253425000E9    -1.599311684062141E-3    5.687116042565130E-1    3.658908843116167E-2   -4.961769564468201E-3    3.596804978512447E-2   -5.474531465488922E-3    1.051716571521342E-1    5.161034090696083E-1
 6.565136535650000E9    -4.990432431480076E-4    5.686093938523832E-1    3.696186051604260E-2   -5.107065013152062E-3    3.618116243014700E-2   -5.611873183777846E-3    1.062581986492124E-1    5.159828611989915E-1
 6.565148817875000E9     5.623848107395348E-4    5.686285817310106E-1    3.714091308150014E-2   -5.132604683827842E-3    3.649750331601853E-2   -5.692070889403478E-3    1.074704442090201E-1    5.156022808513961E-1
 6.565161100100000E9     1.420595554113899E-3    5.685794276649851E-1    3.735267334769301E-2   -5.371125220012304E-3    3.668199678718376E-2   -5.919791764992019E-3    1.087278411066432E-1    5.152811621135709E-1
 6.565173382325000E9     2.535319870341167E-3    5.686199173016099E-1    3.749265755016238E-2   -5.454743781972387E-3    3.683483901346564E-2   -5.969480700097268E-3    1.100020795011940E-1    5.151313587140051E-1
 6.565185664550000E9     3.552658998528165E-3    5.685293510899526E-1    3.769778974788394E-2   -5.543993119807284E-3    3.703542347948015E-2   -6.093587526695005E-3    1.110424506664796E-1    5.149138332210392E-1
 6.565197946775000E9     4.683226380742951E-3    5.685613747141094E-1    3.799751083524310E-2   -5.530468451741017E-3    3.731669169886492E-2   -6.173606959126290E-3    1.124535343848474E-1    5.145993082737141E-1
 6.565210229000000E9     5.654539478593274E-3    5.684271576014995E-1    3.811725610054574E-2   -5.825006395939849E-3    3.749599358590393E-2   -6.362693037671523E-3    1.136115975322852E-1    5.144194992690629E-1
 6.565222511225000E9     6.696753392668254E-3    5.684829227793861E-1    3.843098777936252E-2   -6.032503979660513E-3    3.774224976139847E-2   -6.554534375015765E-3    1.147863864814151E-1    5.139333331894094E-1
 6.565234793450000E9     7.715126879076347E-3    5.684703932658919E-1    3.858106916002541E-2   -6.003570558842080E-3    3.802923694318519E-2   -6.650636365758940E-3    1.161894555518973E-1    5.138100198104152E-1
 6.565247075675000E9     8.789677129260371E-3    5.683645473845147E-1    3.888716133822714E-2   -6.165971011713565E-3    3.817118765331513E-2   -6.724923578092691E-3    1.173810564848097E-1    5.134639719725381E-1
 6.565259357900000E9     9.802787905986623E-3    5.683559199851369E-1    3.894858363935266E-2   -6.413420998507833E-3    3.839034211794382E-2   -6.830882398834013E-3    1.187465699608234E-1    5.130942483257499E-1
 6.565271640125000E9     1.078649523274817E-2    5.682482521688755E-1    3.937822024927411E-2   -6.444543007338985E-3    3.857179379851775E-2   -7.054801160918221E-3    1.198775133030954E-1    5.129095017940155E-1
 6.565283922350000E9     1.186146638611441E-2    5.682939914864540E-1    3.943325696977854E-2   -6.697987726651989E-3    3.893726991082728E-2   -7.173615032141274E-3    1.213146832806954E-1    5.124659958179740E-1
 6.565296204575000E9     1.282910465979812E-2    5.681913599154785E-1    3.974959594785542E-2   -6.668982609127634E-3    3.912445196032937E-2   -7.313233426430856E-3    1.224884622419909E-1    5.120916169802952E-1
 6.565308486800000E9     1.402119883035345E-2    5.681907148822317E-1    4.001261193621563E-2   -7.019059249374792E-3    3.936865629764084E-2   -7.407926208319158E-3    1.239312561637318E-1    5.119912126887509E-1
 6.565320769025000E9     1.510237465082863E-2    5.681411570470690E-1    4.014339812559072E-2   -7.096142919262144E-3    3.954185750803830E-2   -7.600798368123253E-3    1.251579193868110E-1    5.117412119682890E-1
 6.565333051250000E9     1.600548701153266E-2    5.679583609861574E-1    4.035919234491089E-2   -7.289279048237400E-3    3.988936163923934E-2   -7.770519207079524E-3    1.263261809550705E-1    5.112110664426742E-1
 6.565345333475000E9     1.713335400839025E-2    5.680415655789340E-1    4.072145267936444E-2   -7.228353146479116E-3    4.004789202969539E-2   -7.876455863603027E-3    1.276975534381614E-1    5.110631530479532E-1
 6.565357615700000E9     1.815911575954787E-2    5.679475146676419E-1    4.096333230638358E-2   -7.581723264904252E-3    4.025799109974390E-2   -8.058650834045533E-3    1.289299908641502E-1    5.104880895536942E-1
 6.565369897925000E9     1.921387982118217E-2    5.678476797115071E-1    4.127735288880140E-2   -7.637512929317029E-3    4.057287278684685E-2   -8.107168007481225E-3    1.302383426395929E-1    5.100997888312764E-1
 6.565382180150000E9     2.036350637826830E-2    5.678473236498625E-1    4.145855075019113E-2   -7.814837875064156E-3    4.086676575599692E-2   -8.353906010881087E-3    1.316184141512388E-1    5.098469267891554E-1
 6.565394462375000E9     2.138025384304230E-2    5.677115969771237E-1    4.179866903137539E-2   -8.008119668704759E-3    4.101792010757774E-2   -8.582542688994993E-3    1.328317808900815E-1    5.095546307272740E-1
 6.565406744600000E9     2.247811513335579E-2    5.676290235245603E-1    4.209288691634229E-2   -8.155268278102151E-3    4.128526539126681E-2   -8.725302980540068E-3    1.343319518174600E-1    5.092225071036831E-1
 6.565419026825000E9     2.349632418536528E-2    5.674991547767855E-1    4.206191053046589E-2   -8.307800246502985E-3    4.169115740171631E-2   -8.906705285980395E-3    1.354452039129540E-1    5.088169437862762E-1
 6.565431309050000E9     2.467401245619306E-2    5.673889296397927E-1    4.265026240925904E-2   -8.507463990486096E-3    4.190512230966264E-2   -8.968898299037511E-3    1.369195319201348E-1    5.083280326708250E-1
 6.565443591275000E9     2.564372840064737E-2    5.674738577806577E-1    4.291407547741669E-2   -8.718315672223212E-3    4.208111083680303E-2   -9.136729892992076E-3    1.381616223449116E-1    5.080515079065466E-1
 6.565455873500000E9     2.665536603084223E-2    5.672353902874123E-1    4.327766895563587E-2   -8.818573328178288E-3    4.228251580934515E-2   -9.370312239517288E-3    1.395098227269415E-1    5.076332836177163E-1
 6.565468155725000E9     2.775948669368601E-2    5.672436369433896E-1    4.327540601670288E-2   -8.973093925003088E-3    4.257293708627682E-2   -9.614858593251688E-3    1.408103991825941E-1    5.071231245527867E-1
 6.565480437950000E9     2.889877581837350E-2    5.671647569429370E-1    4.376743433760931E-2   -9.036791323857219E-3    4.301326894293705E-2   -9.708316977173937E-3    1.422166504183704E-1    5.069521725988768E-1
 6.565492720175000E9     2.987987055635840E-2    5.670443147327623E-1    4.394218347990385E-2   -9.520945377925966E-3    4.318598103206919E-2   -9.841342967678610E-3    1.435898166278925E-1    5.064225698080611E-1
 6.565505002400000E9     3.101583033908996E-2    5.669932292916153E-1    4.426642302334004E-2   -9.521442550233118E-3    4.365089299269018E-2   -9.959347407949171E-3    1.449363759407957E-1    5.059627264415436E-1
 6.565517284625000E9     3.206934712102812E-2    5.668346346120410E-1    4.463519244792256E-2   -9.775264736523414E-3    4.382033282191154E-2   -1.026036837521028E-2    1.462879689755662E-1    5.056912907993402E-1
 6.565529566850000E9     3.312871455837896E-2    5.666938462712676E-1    4.485916948220431E-2   -9.837686909978658E-3    4.418887581431088E-2   -1.052480402087500E-2    1.477823198832350E-1    5.051778362410041E-1
 6.565541849075000E9     3.430030201610516E-2    5.666156719502684E-1    4.515140425845269E-2   -1.007485876174049E-2    4.437035548961008E-2   -1.078679099851765E-2    1.490325889352751E-1    5.046692010987971E-1
 6.565554131300000E9     3.523644608393491E-2    5.665559994966096E-1    4.542729834156728E-2   -1.041444435297119E-2    4.468866500025141E-2   -1.083695969813649E-2    1.504964916880922E-1    5.044557203051834E-1
 6.565566413525000E9     3.625533640998727E-2    5.664295034478499E-1    4.574553667283381E-2   -1.044010320941682E-2    4.497144288284486E-2   -1.101190747405722E-2    1.519230835912463E-1    5.038736730053902E-1
 6.565578695750000E9     3.746767758371461E-2    5.663305974807097E-1    4.607687668044515E-2   -1.070193571658730E-2    4.524571421694847E-2   -1.128843804126905E-2    1.532681953243787E-1    5.033703178577174E-1
 6.565590977975000E9     3.844801838658442E-2    5.661626889254697E-1    4.640188079451184E-2   -1.105639384304967E-2    4.556778929954031E-2   -1.147845183205143E-2    1.547999834064296E-1    5.030671549300325E-1
 6.565603260200000E9     3.967766161604622E-2    5.662046480087468E-1    4.673559043977406E-2   -1.124265560652786E-2    4.594310434210420E-2   -1.168836474128771E-2    1.561060288571814E-1    5.024440649012164E-1
 6.565615542425000E9     4.078079649675130E-2    5.659120182456626E-1    4.694380867173859E-2   -1.143735129825026E-2    4.620295935965517E-2   -1.199116868231756E-2    1.575670352549387E-1    5.018843924958364E-1
 6.565627824650000E9     4.179266599111310E-2    5.658563518802060E-1    4.732825362532395E-2   -1.170651685460220E-2    4.664444269709062E-2   -1.214960252647718E-2    1.590760675778728E-1    5.014282333181903E-1
 6.565640106875000E9     4.292144660228570E-2    5.657427152125696E-1    4.767045416802582E-2   -1.194358095866605E-2    4.689268685078107E-2   -1.240723450609163E-2    1.604667185751595E-1    5.011113030530356E-1
 6.565652389100000E9     4.401916627545114E-2    5.656246973709932E-1    4.803834988065090E-2   -1.217566760785044E-2    4.720976837037500E-2   -1.263397988205517E-2    1.619711109209597E-1    5.004062430601094E-1
 6.565664671325000E9     4.509635398649030E-2    5.654200966817504E-1    4.836083274426587E-2   -1.233539010880213E-2    4.760561867564853E-2   -1.286874503167853E-2    1.634091368930454E-1    4.998386263569660E-1
 6.565676953550000E9     4.615137068150688E-2    5.652482944442645E-1    4.873011596576794E-2   -1.253636993609574E-2    4.801962973095329E-2   -1.316900775356646E-2    1.648223031956494E-1    4.993295472689107E-1
 6.565689235775000E9     4.727314728757601E-2    5.650774068287763E-1    4.907776256206702E-2   -1.283989278885464E-2    4.822000610467111E-2   -1.332240344882102E-2    1.662140867996445E-1    4.988481733137737E-1
 6.565701518000000E9     4.844797141153748E-2    5.650722522928339E-1    4.952191690112053E-2   -1.291760068334758E-2    4.863091370251717E-2   -1.358680058601245E-2    1.677894437204809E-1    4.982948857761272E-1
 6.565713800225000E9     4.960639974477505E-2    5.646950895890038E-1    4.984882470486422E-2   -1.339183851310758E-2    4.893136170894920E-2   -1.389244685846887E-2    1.695529851261619E-1    4.977507838984046E-1
 6.565726082450000E9     5.068743751149001E-2    5.646169171993271E-1    5.015268132666486E-2   -1.354255589441723E-2    4.933734502436236E-2   -1.414895447450214E-2    1.708955221754209E-1    4.971233350282460E-1
 6.565738364675000E9     5.178632252763472E-2    5.645491836830818E-1    5.064357233661945E-2   -1.387073304859572E-2    4.966510103127964E-2   -1.444726897943546E-2    1.724004850334541E-1    4.965681546705000E-1
 6.565750646900000E9     5.292807316305214E-2    5.643374705696512E-1    5.088886209708378E-2   -1.402197110120997E-2    5.007914721067957E-2   -1.463153195422550E-2    1.738313177058385E-1    4.958924527848968E-1
 6.565762929125000E9     5.402228625405263E-2    5.639863590233914E-1    5.134335235907860E-2   -1.437556358615436E-2    5.044639320253252E-2   -1.505191151276920E-2    1.754889180641068E-1    4.952526883501732E-1
 6.565775211350000E9     5.509534375238161E-2    5.638644968682959E-1    5.174119334878930E-2   -1.454471950248929E-2    5.085875206102226E-2   -1.530529507588328E-2    1.771501528502923E-1    4.946789384859525E-1
 6.565787493575000E9     5.624791190206273E-2    5.637042745483325E-1    5.191419746961930E-2   -1.492010310460017E-2    5.111174158038655E-2   -1.557351676814713E-2    1.785872270602438E-1    4.941501877707303E-1
 6.565799775800000E9     5.749868193659794E-2    5.636770670998347E-1    5.252928550752147E-2   -1.528406327246591E-2    5.161211237378825E-2   -1.592206416650560E-2    1.801111507020389E-1    4.933312401327929E-1
 6.565812058025000E9     5.849834561730557E-2    5.634330709588433E-1    5.297050450428515E-2   -1.560883281521278E-2    5.213158279641024E-2   -1.616904453622215E-2    1.818352566887969E-1    4.926973285104412E-1
 6.565824340250000E9     5.967133306959842E-2    5.632419295878149E-1    5.339462369595483E-2   -1.587727500082461E-2    5.248465231994947E-2   -1.654968684686798E-2    1.833852299551885E-1    4.920928268085348E-1
