#  HZ   S   RI   R     50.00 
! Rohde & Schwarz Vector Network Analyzer 
! Rohde-Schwarz,ZNB20-2Port,1311601062101988,3.16
! Created: UTC 3/20/2024, 5:12:32 PM
! freq[Hz]                re:S11                  im:S11                  re:S21                  im:S21                  re:S12                  im:S12                  re:S22                  im:S22
 6.564727288000000E9    -3.379043324072500E-2    5.680213194140834E-1    3.091078275301916E-2   -1.972728156851749E-3    3.043840362002864E-2   -2.423750518797370E-3    6.756914224989670E-2    5.220727850069166E-1
 6.564739539100000E9    -3.287742087029317E-2    5.680410853315080E-1    3.107808583677548E-2   -1.859961497918508E-3    3.058280623216545E-2   -2.475641907318102E-3    6.868540935399885E-2    5.219418645335114E-1
 6.564751790200000E9    -3.182694028255570E-2    5.680213571335403E-1    3.132217641028189E-2   -2.069505291174270E-3    3.077299146044030E-2   -2.559735553938147E-3    6.985777886206793E-2    5.218108510474195E-1
 6.564764041300000E9    -3.098832539949600E-2    5.681663146513872E-1    3.136828824610899E-2   -2.095290121238052E-3    3.092869245593049E-2   -2.589764109124931E-3    7.090617053933888E-2    5.217643659022633E-1
 6.564776292400000E9    -2.984697726084813E-2    5.682828192402473E-1    3.155942372779413E-2   -2.249251776108817E-3    3.104080080082431E-2   -2.710185920864925E-3    7.210095484542579E-2    5.216108071964302E-1
 6.564788543500000E9    -2.892389060910458E-2    5.682846869444403E-1    3.160368088145852E-2   -2.347305961741450E-3    3.119489534454192E-2   -2.786096207057431E-3    7.323759593717256E-2    5.213705278664889E-1
 6.564800794600000E9    -2.786181080880503E-2    5.683286267485947E-1    3.183780798164289E-2   -2.402957930944666E-3    3.130274707045233E-2   -2.925129911479383E-3    7.430125914782454E-2    5.213007920891936E-1
 6.564813045700000E9    -2.700290777124138E-2    5.683744733598262E-1    3.216142637162828E-2   -2.504888774706702E-3    3.149828852271989E-2   -3.002166635281783E-3    7.538708531555048E-2    5.211091965214470E-1
 6.564825296800000E9    -2.598505997105476E-2    5.683448215956522E-1    3.203679313956277E-2   -2.561957381589537E-3    3.171951176619735E-2   -2.966363736683923E-3    7.658629476103120E-2    5.210152572920687E-1
 6.564837547900000E9    -2.499983795950772E-2    5.684635840457724E-1    3.240540557052918E-2   -2.554272976642757E-3    3.169144905434845E-2   -3.231470278286505E-3    7.777034665361306E-2    5.208052162442890E-1
 6.564849799000000E9    -2.392506103043580E-2    5.684092131849602E-1    3.261714392379516E-2   -2.636156347744143E-3    3.195506763063426E-2   -3.141805810165490E-3    7.894563761980983E-2    5.206354053529612E-1
 6.564862050100000E9    -2.303774509010684E-2    5.685567829308401E-1    3.270552220798409E-2   -2.831851805944149E-3    3.208868063560602E-2   -3.282353074493542E-3    7.994348879820608E-2    5.202722176316379E-1
 6.564874301200000E9    -2.197982017970028E-2    5.685060268262249E-1    3.279595119585801E-2   -2.832324044499448E-3    3.241114882476855E-2   -3.347452919702913E-3    8.115297286342479E-2    5.203801694051852E-1
 6.564886552300000E9    -2.090707134002593E-2    5.685086885564296E-1    3.301788105893588E-2   -2.958992825303783E-3    3.238918717668756E-2   -3.477605529252747E-3    8.219178363007978E-2    5.203046862033617E-1
 6.564898803400000E9    -1.997149711653724E-2    5.685164010775235E-1    3.319512441924466E-2   -2.981417474194593E-3    3.260523379607901E-2   -3.582618156812275E-3    8.337936939373372E-2    5.200055415343858E-1
 6.564911054500000E9    -1.895102151544941E-2    5.686232313890413E-1    3.335862987293741E-2   -3.174539347234817E-3    3.281115647571711E-2   -3.615858438956145E-3    8.465592882318636E-2    5.195622400290427E-1
 6.564923305600000E9    -1.798217223992994E-2    5.685965971863404E-1    3.351070945131853E-2   -3.210498517522318E-3    3.297097609292840E-2   -3.692336097720021E-3    8.568623932760866E-2    5.197727956677873E-1
 6.564935556700000E9    -1.698219973925313E-2    5.686349945474529E-1    3.366424245848815E-2   -3.383677031399373E-3    3.302869521210598E-2   -3.834778345299002E-3    8.672977555589510E-2    5.193581004125848E-1
 6.564947807800000E9    -1.591397971631139E-2    5.686156649774688E-1    3.383476831596429E-2   -3.408801404469145E-3    3.329462474394131E-2   -3.939388755702039E-3    8.795282271269678E-2    5.191169396986025E-1
 6.564960058900000E9    -1.497109495401809E-2    5.687816415726435E-1    3.418400257167283E-2   -3.538010406178351E-3    3.340793298676691E-2   -3.940350086465802E-3    8.922050203047378E-2    5.190924459918576E-1
 6.564972310000000E9    -1.394203148087278E-2    5.685957033548723E-1    3.410471120081053E-2   -3.602725223859384E-3    3.364145414645374E-2   -4.152382346757889E-3    9.031990463462373E-2    5.188795667134871E-1
 6.564984561100000E9    -1.292861635952782E-2    5.686951449100172E-1    3.429372396279659E-2   -3.751417269111117E-3    3.387501801858479E-2   -4.282585782279843E-3    9.143021611100742E-2    5.186567038133949E-1
 6.564996812200000E9    -1.194245747251343E-2    5.687376012489562E-1    3.457363824626530E-2   -3.845098665361674E-3    3.402089458229206E-2   -4.277693762337515E-3    9.284913497705272E-2    5.184508290994861E-1
 6.565009063300000E9    -1.093412748735321E-2    5.686496405090884E-1    3.472117749501672E-2   -3.942486343142925E-3    3.417367021251692E-2   -4.463224533924026E-3    9.383787048588303E-2    5.183073266891731E-1
 6.565021314400000E9    -9.918283651960928E-3    5.685870029480569E-1    3.504778281165370E-2   -4.099087729396006E-3    3.451792052345445E-2   -4.561594724507482E-3    9.500208669917384E-2    5.180919514119882E-1
 6.565033565500000E9    -8.901397085461071E-3    5.686879623921676E-1    3.518334857674136E-2   -4.158897512202449E-3    3.458017101691382E-2   -4.666553589299900E-3    9.625219876454569E-2    5.177961147032587E-1
 6.565045816600000E9    -7.952576214639268E-3    5.686067586939907E-1    3.534761935553304E-2   -4.247834303357465E-3    3.469757119863584E-2   -4.751250968322785E-3    9.722956987800062E-2    5.176909085638228E-1
 6.565058067700000E9    -6.914589618701401E-3    5.687707441408203E-1    3.551825703117308E-2   -4.451617580343191E-3    3.486518270733926E-2   -4.831428942288776E-3    9.867025085647893E-2    5.174754637045658E-1
 6.565070318800000E9    -6.005424702876855E-3    5.687680523190626E-1    3.572298140270218E-2   -4.387712808599334E-3    3.505155546348386E-2   -4.885741116959269E-3    9.978016499015413E-2    5.172325009578415E-1
 6.565082569900000E9    -4.835952885785017E-3    5.686939595011320E-1    3.582057607400791E-2   -4.451519845795181E-3    3.529477259541228E-2   -5.096233070904899E-3    1.009616586946965E-1    5.168263851946036E-1
 6.565094821000000E9    -3.880811320609997E-3    5.686114790498104E-1    3.613997300950909E-2   -4.750147000307675E-3    3.550862615187437E-2   -5.149197904309935E-3    1.021627577252175E-1    5.167406255640915E-1
 6.565107072100000E9    -2.856386780845206E-3    5.686267431411488E-1    3.632495922700728E-2   -4.745173223672797E-3    3.560592064459722E-2   -5.313583967759833E-3    1.033513528193066E-1    5.165340032405922E-1
 6.565119323200000E9    -1.805924658253262E-3    5.686453834620496E-1    3.643735427670143E-2   -4.958919833936141E-3    3.589058641018618E-2   -5.450582092551988E-3    1.045674252167552E-1    5.161987461155308E-1
 6.565131574300000E9    -8.438801205614225E-4    5.687236085274254E-1    3.671399139882610E-2   -4.928170585776140E-3    3.604933578570240E-2   -5.595798542557737E-3    1.057516909711017E-1    5.160700103524203E-1
 6.565143825400000E9     2.603119605768125E-4    5.686646093732995E-1    3.691559465228734E-2   -5.038885280841764E-3    3.620782686281259E-2   -5.519059510568291E-3    1.069465586489221E-1    5.157680871362156E-1
 6.565156076500000E9     1.272199383774990E-3    5.685681388750266E-1    3.695912371447827E-2   -5.348090946525165E-3    3.646291887907485E-2   -5.725454273590298E-3    1.082019510973011E-1    5.155262700330525E-1
 6.565168327600000E9     2.195279570732852E-3    5.686693080827500E-1    3.742707688357581E-2   -5.282104619759836E-3    3.678469440014807E-2   -5.880558651504000E-3    1.094331774066854E-1    5.153389350444406E-1
 6.565180578700000E9     3.229475923669580E-3    5.685638507768001E-1    3.756701047455344E-2   -5.465468017203215E-3    3.685360546531487E-2   -5.941422175850326E-3    1.105147739692033E-1    5.150652811372699E-1
 6.565192829800000E9     4.306572525680410E-3    5.684573357430793E-1    3.773735197107111E-2   -5.595475956072125E-3    3.707121155266578E-2   -6.076946831998391E-3    1.119400949155179E-1    5.147990485151713E-1
 6.565205080900000E9     5.266229009466681E-3    5.686410448345256E-1    3.788669626292276E-2   -5.780668410631311E-3    3.739715708856821E-2   -6.285500863562469E-3    1.131319205120011E-1    5.143964558806068E-1
 6.565217332000000E9     6.343516594360794E-3    5.684971796767008E-1    3.813427913514533E-2   -5.893894547227415E-3    3.749555948545141E-2   -6.364114049382551E-3    1.143603178965282E-1    5.142040333553821E-1
 6.565229583100000E9     7.421008319070392E-3    5.684619549809052E-1    3.833693273991731E-2   -5.932066898653627E-3    3.773780174762301E-2   -6.441025331152320E-3    1.156365834018293E-1    5.138895495285043E-1
 6.565241834200000E9     8.528371923448984E-3    5.684007754238632E-1    3.844907961723686E-2   -6.072863581781155E-3    3.801311572734662E-2   -6.703925513464070E-3    1.169072517849285E-1    5.135163074951384E-1
 6.565254085300000E9     9.455145297585432E-3    5.683897670154071E-1    3.887061708603615E-2   -6.281394606895332E-3    3.826457413443717E-2   -6.833020396795559E-3    1.180220993518619E-1    5.134802835625939E-1
 6.565266336400000E9     1.043923498287180E-2    5.683827836052775E-1    3.911484578663384E-2   -6.415184569152141E-3    3.853002095093753E-2   -6.930594635484158E-3    1.193719805089233E-1    5.131815338806159E-1
 6.565278587500000E9     1.153925452746100E-2    5.682292570417699E-1    3.925410561542136E-2   -6.524324931612385E-3    3.865806174369037E-2   -7.074023856577545E-3    1.206312110617465E-1    5.127192864799635E-1
 6.565290838600000E9     1.253293120763051E-2    5.682822269908946E-1    3.943457535411203E-2   -6.637194855303379E-3    3.881066793626594E-2   -7.248953838908613E-3    1.219027456794147E-1    5.123279296619587E-1
 6.565303089700000E9     1.367374473258820E-2    5.682022226835118E-1    3.972433047895151E-2   -6.812167891969759E-3    3.914538155265544E-2   -7.332205429289150E-3    1.231875314686095E-1    5.122189066039272E-1
 6.565315340800000E9     1.473087520130041E-2    5.680965546214738E-1    4.002650858362605E-2   -6.928890533827260E-3    3.933488940903314E-2   -7.476244100187538E-3    1.243319656365201E-1    5.118935445925239E-1
 6.565327591900000E9     1.569144058895117E-2    5.681763219479081E-1    4.025453521314293E-2   -7.155031829355427E-3    3.960779992154581E-2   -7.622068203380414E-3    1.255495456531934E-1    5.115191968415509E-1
 6.565339843000000E9     1.675753841695081E-2    5.679375744460380E-1    4.040544024045812E-2   -7.118274619305186E-3    3.985921105575235E-2   -7.778978749069584E-3    1.268398284563418E-1    5.111591254643888E-1
 6.565352094100000E9     1.778727907001729E-2    5.679746490192679E-1    4.072114197505925E-2   -7.286981298499693E-3    4.003762161270868E-2   -7.999500185515557E-3    1.282368731224488E-1    5.109296349379161E-1
 6.565364345200000E9     1.887795981304724E-2    5.678847423995127E-1    4.100101089777997E-2   -7.558355336683357E-3    4.029453897659411E-2   -8.146032014665334E-3    1.295832243491686E-1    5.105908085160966E-1
 6.565376596300000E9     1.984445974465060E-2    5.678542583083260E-1    4.140160917281717E-2   -7.648231033714454E-3    4.057716482588439E-2   -8.221252526203733E-3    1.308516268412465E-1    5.099818979064400E-1
 6.565388847400000E9     2.098608029666636E-2    5.677885659811186E-1    4.156542461986493E-2   -7.891419033272498E-3    4.073749129043746E-2   -8.346763794458506E-3    1.322130318431144E-1    5.098005218048793E-1
 6.565401098500000E9     2.191852089323933E-2    5.676029027416229E-1    4.178593216688251E-2   -8.069131432764852E-3    4.110747967190231E-2   -8.484058585067560E-3    1.336627058440241E-1    5.094874297197973E-1
 6.565413349600000E9     2.308457324005855E-2    5.676363667676078E-1    4.197347974616759E-2   -8.188724322336660E-3    4.135218238628884E-2   -8.722717647952334E-3    1.347772624837351E-1    5.091603244097292E-1
 6.565425600700000E9     2.410882032551785E-2    5.675782778176380E-1    4.233179641031552E-2   -8.383287799001037E-3    4.156046717517142E-2   -8.844982509817943E-3    1.361846766219836E-1    5.086902201702703E-1
 6.565437851800000E9     2.517669909587552E-2    5.675156077504528E-1    4.259275207005710E-2   -8.411521017028085E-3    4.191419953229944E-2   -9.063918044683870E-3    1.374372290830899E-1    5.083919164605912E-1
 6.565450102900000E9     2.621745743523430E-2    5.672769721660047E-1    4.274318109194841E-2   -8.683439164718464E-3    4.212868360756872E-2   -9.261072609393642E-3    1.388729231501196E-1    5.078713108993637E-1
 6.565462354000000E9     2.724753309936388E-2    5.672778323337158E-1    4.316917344183167E-2   -8.895201665912631E-3    4.237096268436168E-2   -9.378278771153313E-3    1.400866719278927E-1    5.075763933644962E-1
 6.565474605100000E9     2.848258459008329E-2    5.671412013950063E-1    4.344685245060637E-2   -9.044603956993021E-3    4.272714457412530E-2   -9.594475715647338E-3    1.414588355218458E-1    5.072365803101648E-1
 6.565486856200000E9     2.943822598100055E-2    5.671378719894079E-1    4.364791350200545E-2   -9.229295457414431E-3    4.301762068170206E-2   -9.847939324002504E-3    1.429070999169478E-1    5.067729640122655E-1
 6.565499107300000E9     3.043961632514835E-2    5.669985151019121E-1    4.401513269049413E-2   -9.338137727281422E-3    4.318441708049130E-2   -9.937977875364934E-3    1.442381154398300E-1    5.063451191107672E-1
 6.565511358400000E9     3.158224837471417E-2    5.669987060387586E-1    4.431568884996482E-2   -9.662790216043417E-3    4.349438269087796E-2   -1.017450143716279E-2    1.455020226493786E-1    5.058325003219822E-1
 6.565523609500000E9     3.263669807811079E-2    5.668322818254443E-1    4.456569764415463E-2   -9.822001384183895E-3    4.391879502342105E-2   -1.022488031546836E-2    1.468851304765174E-1    5.055549696179381E-1
 6.565535860600000E9     3.377062727484309E-2    5.667178120867703E-1    4.497959082025951E-2   -9.962177251864367E-3    4.415327349987307E-2   -1.057461396734106E-2    1.482386794882985E-1    5.050568439166376E-1
 6.565548111700000E9     3.478007661874650E-2    5.665938756293802E-1    4.511955532763402E-2   -1.009500967701552E-2    4.449110484606468E-2   -1.084937142304916E-2    1.497033487739823E-1    5.047116692277224E-1
 6.565560362800000E9     3.598375697864603E-2    5.664248713337090E-1    4.558904979821066E-2   -1.038883087243286E-2    4.475913226970184E-2   -1.090585704359237E-2    1.511393311500831E-1    5.043109141804318E-1
 6.565572613900000E9     3.701432091106011E-2    5.664110832140311E-1    4.586254369283413E-2   -1.060432430686322E-2    4.502271775103771E-2   -1.119769129842533E-2    1.525975895075678E-1    5.036985920043490E-1
 6.565584865000000E9     3.812058335017859E-2    5.662419411828585E-1    4.601933230607755E-2   -1.086009128915233E-2    4.529150907337660E-2   -1.122957682850688E-2    1.539100243195919E-1    5.031626394103603E-1
 6.565597116100000E9     3.914275798909036E-2    5.660670992919258E-1    4.640169879228281E-2   -1.094381170336948E-2    4.568337367515055E-2   -1.157640344769175E-2    1.553197269458018E-1    5.028465978441751E-1
 6.565609367200000E9     4.019042083699662E-2    5.659847451758457E-1    4.683113478572158E-2   -1.124392619682814E-2    4.596090160082632E-2   -1.179417790514264E-2    1.568125406415790E-1    5.022948596592741E-1
 6.565621618300000E9     4.131184516594386E-2    5.659672343310299E-1    4.716545488054164E-2   -1.135634506327400E-2    4.622852349329483E-2   -1.198877878608516E-2    1.581374633064650E-1    5.018461762737552E-1
 6.565633869400000E9     4.237533527589740E-2    5.657822632289380E-1    4.747752760646562E-2   -1.166156641457013E-2    4.657911347635805E-2   -1.224882562922124E-2    1.595712050671280E-1    5.013758376260053E-1
 6.565646120500000E9     4.345942375463734E-2    5.656128425131520E-1    4.761164907677132E-2   -1.201791319008870E-2    4.705039919109683E-2   -1.242117160362814E-2    1.610960296369508E-1    5.007549575370369E-1
 6.565658371600000E9     4.459990506641048E-2    5.654905014411060E-1    4.803774183711999E-2   -1.213300801726894E-2    4.728318155605918E-2   -1.270938947640980E-2    1.625919177210873E-1    5.002981757486787E-1
 6.565670622700000E9     4.575101450608725E-2    5.653381736954888E-1    4.847435455595765E-2   -1.234872754581347E-2    4.756070726289580E-2   -1.296748822680582E-2    1.640565553638632E-1    4.998132404866661E-1
 6.565682873800000E9     4.686014740356115E-2    5.651817174798242E-1    4.872536624946355E-2   -1.260499164379601E-2    4.797736528642619E-2   -1.325893045647219E-2    1.653957751391947E-1    4.992949496137583E-1
 6.565695124900000E9     4.792736688966879E-2    5.651208545113265E-1    4.917031099307933E-2   -1.276707405930845E-2    4.829286936029520E-2   -1.340281825886519E-2    1.669640852323570E-1    4.986914832391777E-1
 6.565707376000000E9     4.903071424670948E-2    5.648044932150580E-1    4.947945918363931E-2   -1.307545789018084E-2    4.859720906208563E-2   -1.360648628043467E-2    1.682726646080511E-1    4.980414636397293E-1
 6.565719627100000E9     5.018355085296435E-2    5.646563253036516E-1    4.980428774552056E-2   -1.335269321655832E-2    4.898425976301218E-2   -1.393924083906636E-2    1.699761591494909E-1    4.975457436717515E-1
 6.565731878200000E9     5.114420932878982E-2    5.645351844445285E-1    5.033611452842754E-2   -1.367433392687737E-2    4.940375292452847E-2   -1.426772649083233E-2    1.715726995652710E-1    4.969681729048297E-1
 6.565744129300000E9     5.232047857126732E-2    5.644347010862112E-1    5.052868006131801E-2   -1.379741175324598E-2    4.972223775554861E-2   -1.440839062176327E-2    1.729007809543998E-1    4.965822342124974E-1
 6.565756380400000E9     5.354765371740729E-2    5.643839907581157E-1    5.086390771706122E-2   -1.430605821343883E-2    5.019681731252351E-2   -1.465410807721017E-2    1.745567606577099E-1    4.958704289864355E-1
 6.565768631500000E9     5.463763479116219E-2    5.640251639788961E-1    5.152902872837711E-2   -1.433106368447081E-2    5.043449711302715E-2   -1.501187885492299E-2    1.760193334900108E-1    4.951632422162796E-1
 6.565780882600000E9     5.576882172864056E-2    5.638449275941795E-1    5.174238789760889E-2   -1.467912082645616E-2    5.092865018821910E-2   -1.534451796574809E-2    1.774799221376828E-1    4.945897887247456E-1
 6.565793133700000E9     5.686464034374031E-2    5.637240668712644E-1    5.206140221964575E-2   -1.489967341144685E-2    5.119883315526490E-2   -1.566124771984215E-2    1.792024842036467E-1    4.939996482190913E-1
 6.565805384800000E9     5.800646928737163E-2    5.635456072111150E-1    5.244640121312900E-2   -1.521753264899304E-2    5.161841383864759E-2   -1.583120209504076E-2    1.806483573251793E-1    4.932379230377782E-1
 6.565817635900000E9     5.918920814379128E-2    5.633872002832768E-1    5.289231535157420E-2   -1.560474405988648E-2    5.212150367514556E-2   -1.622981795301424E-2    1.822930768771936E-1    4.926914581636948E-1
 6.565829887000000E9     6.026198980880856E-2    5.631906256582876E-1    5.336815967261709E-2   -1.592598761903355E-2    5.243428375330180E-2   -1.661115807630491E-2    1.838897991761474E-1    4.920191462779273E-1
