#  HZ   S   RI   R     50.00 
! Rohde & Schwarz Vector Network Analyzer 
! Rohde-Schwarz,ZNB20-2Port,1311601062101988,3.16
! Created: UTC 3/20/2024, 4:57:18 PM
! freq[Hz]                re:S11                  im:S11                  re:S21                  im:S21                  re:S12                  im:S12                  re:S22                  im:S22
 6.564242903000000E9    -7.130455510535053E-2    5.648158839786708E-1    2.744353496945888E-2    1.398114139122998E-4    2.685086875671260E-2   -3.736344932055256E-4    2.865460970697015E-2    5.258935943630445E-1
 6.564256798875000E9    -7.028014000174669E-2    5.648101003615015E-1    2.757802315756617E-2    2.936701486301176E-5    2.711148915187408E-2   -5.341684252490432E-4    2.979973380228681E-2    5.258871685319130E-1
 6.564270694750000E9    -6.918235171920846E-2    5.649203192449782E-1    2.768086954218830E-2   -1.703366344350180E-4    2.727256984048840E-2   -6.008372699879833E-4    3.114645735789294E-2    5.256902360294393E-1
 6.564284590625000E9    -6.808389707376920E-2    5.649937670034431E-1    2.772943968506331E-2   -8.450251393857624E-5    2.740388452750557E-2   -6.343002380928291E-4    3.222132446955805E-2    5.258703592887805E-1
 6.564298486500000E9    -6.706051354107256E-2    5.652609616455105E-1    2.787069617775319E-2   -2.412109030869884E-4    2.745723729401858E-2   -7.564851683167384E-4    3.336394364205389E-2    5.258167102010414E-1
 6.564312382375000E9    -6.577178137519724E-2    5.653739022208943E-1    2.813811846621942E-2   -3.356089455918578E-4    2.761304729443479E-2   -8.282258272793736E-4    3.472899382230116E-2    5.255124751119887E-1
 6.564326278250000E9    -6.475213412555474E-2    5.654128824604706E-1    2.830066299805400E-2   -3.035742109338015E-4    2.777166771176969E-2   -9.237895276491868E-4    3.595878959359099E-2    5.255033899723632E-1
 6.564340174125000E9    -6.373551598402277E-2    5.655525434307362E-1    2.839285351563764E-2   -4.095182241035035E-4    2.782727905961240E-2   -9.480297050904107E-4    3.705121403170347E-2    5.253928320536796E-1
 6.564354070000000E9    -6.251593791746166E-2    5.657223721597660E-1    2.856673858933033E-2   -5.781007086533929E-4    2.800853542558302E-2   -1.028299978486039E-3    3.830384704290130E-2    5.253674639413161E-1
 6.564367965875000E9    -6.139606785530469E-2    5.657586289837855E-1    2.854840789702525E-2   -5.151639883700713E-4    2.825297206186238E-2   -1.118393757026767E-3    3.932963826930789E-2    5.252659107576383E-1
 6.564381861750000E9    -6.029162583627425E-2    5.660101005745161E-1    2.877037122532708E-2   -7.326912197090927E-4    2.828541126835976E-2   -1.154636379552103E-3    4.082834704295166E-2    5.251780349058446E-1
 6.564395757625000E9    -5.934697304743831E-2    5.660326078689575E-1    2.900573012728941E-2   -7.288870727751591E-4    2.840898835954764E-2   -1.237539926012266E-3    4.203519706336840E-2    5.251577129237859E-1
 6.564409653500000E9    -5.819758028115218E-2    5.660310172059124E-1    2.911708735806877E-2   -7.062862495407193E-4    2.860114445269597E-2   -1.244635700546443E-3    4.316781744069749E-2    5.251366348409923E-1
 6.564423549375000E9    -5.703747487604142E-2    5.661364814419932E-1    2.920943029058700E-2   -8.494102861938355E-4    2.888405667526109E-2   -1.461511967341415E-3    4.443426493159021E-2    5.250297118202847E-1
 6.564437445250000E9    -5.593387209488837E-2    5.662245858900463E-1    2.950415981769675E-2   -1.049012794160400E-3    2.891328599365799E-2   -1.451455615467202E-3    4.557555692489468E-2    5.248248998707779E-1
 6.564451341125000E9    -5.494109967988561E-2    5.663650153068931E-1    2.947562169969654E-2   -8.774041807617314E-4    2.912247969751332E-2   -1.599830504958031E-3    4.698919515616514E-2    5.248742526341454E-1
 6.564465237000000E9    -5.364592843623973E-2    5.664627555759186E-1    2.985719728476069E-2   -1.159176135417840E-3    2.926107696887765E-2   -1.614485150194048E-3    4.813003167482804E-2    5.247738613017677E-1
 6.564479132875000E9    -5.261424189497346E-2    5.666371034998435E-1    2.998403777019665E-2   -1.217703225096468E-3    2.944871018465224E-2   -1.800840944203639E-3    4.930155392635228E-2    5.245871526545416E-1
 6.564493028750000E9    -5.153530055239498E-2    5.666850963399014E-1    2.989030729510104E-2   -1.324532462936070E-3    2.958515568399260E-2   -1.806193541497572E-3    5.068279398850385E-2    5.245637160781493E-1
 6.564506924625000E9    -5.040229108729243E-2    5.667657076831395E-1    3.020586096448527E-2   -1.279885489106010E-3    2.968110730635792E-2   -2.029135554370623E-3    5.193599491371406E-2    5.243458137229166E-1
 6.564520820500000E9    -4.935907651521505E-2    5.668648582507956E-1    3.035468023374647E-2   -1.305118959534185E-3    2.987754541647090E-2   -2.020999110863104E-3    5.309770506450305E-2    5.242270476826981E-1
 6.564534716375000E9    -4.813748632967140E-2    5.669916942409645E-1    3.066683197173922E-2   -1.541326062195195E-3    3.009554920460337E-2   -2.071339910950865E-3    5.448338280779722E-2    5.241348573340012E-1
 6.564548612250000E9    -4.704358970397727E-2    5.670892658227239E-1    3.064853125544667E-2   -1.637056363150160E-3    3.012617602704641E-2   -2.104152582895809E-3    5.555521841709311E-2    5.239760534398572E-1
 6.564562508125000E9    -4.590285217111491E-2    5.671173865134943E-1    3.087301815968398E-2   -1.644367203645510E-3    3.032960803989003E-2   -2.178338293570719E-3    5.676889517925364E-2    5.238550239978589E-1
 6.564576404000000E9    -4.482610859316299E-2    5.671221667698528E-1    3.108930666533641E-2   -1.793207265031835E-3    3.051294740698029E-2   -2.419106408964435E-3    5.798801490418602E-2    5.239089942454935E-1
 6.564590299875000E9    -4.364566400892028E-2    5.673267514316014E-1    3.124421369507036E-2   -1.894772945265584E-3    3.067357453460516E-2   -2.424817690509282E-3    5.937577060454533E-2    5.236866163695857E-1
 6.564604195750000E9    -4.264070265374214E-2    5.673450012031233E-1    3.143667551230426E-2   -1.871053499869399E-3    3.097603714869780E-2   -2.424559244934498E-3    6.058273467764982E-2    5.234283122692603E-1
 6.564618091625000E9    -4.147879499086892E-2    5.673657136345699E-1    3.147979513850144E-2   -2.004590448670445E-3    3.106385727474408E-2   -2.647996803854669E-3    6.177938490806135E-2    5.233977763659612E-1
 6.564631987500000E9    -4.035480711840731E-2    5.675506928227054E-1    3.171594052754787E-2   -2.038478528819310E-3    3.118465991408090E-2   -2.720808439546624E-3    6.313094413992755E-2    5.232255081557668E-1
 6.564645883375000E9    -3.922633483434010E-2    5.675553437622477E-1    3.197919291152308E-2   -2.316234890001788E-3    3.139781075256372E-2   -2.735632478640689E-3    6.443903570162095E-2    5.231110006971932E-1
 6.564659779250000E9    -3.803064274602383E-2    5.674902361071165E-1    3.203271714493691E-2   -2.406632830175615E-3    3.155181519797837E-2   -2.917153243827030E-3    6.581069725190028E-2    5.229562226978272E-1
 6.564673675125000E9    -3.700298927371533E-2    5.676662162771556E-1    3.228116570349189E-2   -2.477659775234462E-3    3.171523884849180E-2   -2.992514379210542E-3    6.702179210215935E-2    5.226960180086453E-1
 6.564687571000000E9    -3.575560497765565E-2    5.676716561453072E-1    3.241044505188794E-2   -2.521010087218305E-3    3.197071034162964E-2   -3.069759279683514E-3    6.831326176791595E-2    5.225706165203379E-1
 6.564701466875000E9    -3.469771710944432E-2    5.678322793779872E-1    3.265830028719813E-2   -2.668763175241149E-3    3.204268545426504E-2   -3.208461851597870E-3    6.951536230381920E-2    5.223986555064383E-1
 6.564715362750000E9    -3.351987529117285E-2    5.678525659805913E-1    3.278142004532265E-2   -2.730690552923631E-3    3.222967947399976E-2   -3.238444517001783E-3    7.084147922585476E-2    5.222573035611131E-1
 6.564729258625000E9    -3.252578355663615E-2    5.678688572777103E-1    3.298487042948603E-2   -2.774089438693944E-3    3.251460173800112E-2   -3.392070166219810E-3    7.217830701209632E-2    5.220599064471795E-1
 6.564743154500000E9    -3.121652407597916E-2    5.678620548110436E-1    3.324084471116097E-2   -2.941098820027813E-3    3.254927256127708E-2   -3.507684569187285E-3    7.349496983707719E-2    5.218650140586519E-1
 6.564757050375000E9    -3.020328891228649E-2    5.681726654902195E-1    3.350357623607691E-2   -2.934406676739624E-3    3.285403270472510E-2   -3.582735370930007E-3    7.474265804452368E-2    5.217754432180284E-1
 6.564770946250000E9    -2.896887635745799E-2    5.680513793007530E-1    3.362071080089449E-2   -3.086219370226121E-3    3.298690717748582E-2   -3.644895361338437E-3    7.597839063810312E-2    5.215115186030317E-1
 6.564784842125000E9    -2.785032154807740E-2    5.680828948411634E-1    3.389844617329937E-2   -3.235962969835792E-3    3.309229783733632E-2   -3.843150312556361E-3    7.730814800156265E-2    5.213927978014866E-1
 6.564798738000000E9    -2.676531419490698E-2    5.679958780274659E-1    3.402430987199993E-2   -3.212507538420028E-3    3.336298012279554E-2   -3.893845176840841E-3    7.875705388864554E-2    5.209252635876339E-1
 6.564812633875000E9    -2.565800839031996E-2    5.681004776479810E-1    3.423087007131463E-2   -3.519392694486756E-3    3.363386229391944E-2   -3.967300603165603E-3    8.003811101663287E-2    5.208558955052185E-1
 6.564826529750000E9    -2.457224094631082E-2    5.680933340183241E-1    3.447909208125921E-2   -3.464862604493631E-3    3.390224803764937E-2   -4.132265025871230E-3    8.134991270114368E-2    5.207088340601984E-1
 6.564840425625000E9    -2.330184793156844E-2    5.682589908144619E-1    3.470957943611211E-2   -3.648893642523980E-3    3.405882171881685E-2   -4.169809194683622E-3    8.259262968369539E-2    5.205026928362526E-1
 6.564854321500000E9    -2.224353289933056E-2    5.682715595861111E-1    3.489302738790635E-2   -3.745773371047568E-3    3.427616539260132E-2   -4.385700788402283E-3    8.401066245445608E-2    5.202904651001908E-1
 6.564868217375000E9    -2.101462529491686E-2    5.682932009343151E-1    3.492252215222003E-2   -4.016144740540511E-3    3.440644383828367E-2   -4.463667408996230E-3    8.544686043563796E-2    5.200269799723549E-1
 6.564882113250000E9    -1.998831721067942E-2    5.681820244316913E-1    3.505606144823861E-2   -4.018449121466790E-3    3.464758779877873E-2   -4.586855242021797E-3    8.662437136200657E-2    5.197817353810449E-1
 6.564896009125000E9    -1.878753827324149E-2    5.682840137923895E-1    3.545458811930281E-2   -4.044283202733971E-3    3.482756215695623E-2   -4.704248661797796E-3    8.805233792483841E-2    5.196392779460106E-1
 6.564909905000000E9    -1.756288565197187E-2    5.683043954323302E-1    3.550908105944218E-2   -4.297618686725271E-3    3.505508082324376E-2   -4.832153729953889E-3    8.939164746727825E-2    5.193787137996108E-1
 6.564923800875000E9    -1.649074239643251E-2    5.683833289477336E-1    3.584626017448558E-2   -4.349050937907124E-3    3.527536238121060E-2   -4.916012595059044E-3    9.062973401046692E-2    5.190948608733595E-1
 6.564937696750000E9    -1.529964768505014E-2    5.682590835755751E-1    3.607072391120235E-2   -4.569540530070573E-3    3.543056599451414E-2   -5.055716818196592E-3    9.206218513526532E-2    5.186968641600607E-1
 6.564951592625000E9    -1.415082213282091E-2    5.683234267948581E-1    3.633819179462051E-2   -4.630047532142313E-3    3.572690969742374E-2   -5.190674721741684E-3    9.342394673708233E-2    5.187836612110645E-1
 6.564965488500000E9    -1.297675439846345E-2    5.682992066588197E-1    3.662567417102081E-2   -4.748611190698958E-3    3.600194702159083E-2   -5.369920978009791E-3    9.489735339349539E-2    5.183278290865744E-1
 6.564979384375000E9    -1.189958110950408E-2    5.684646957495383E-1    3.684964729799713E-2   -5.109335279399554E-3    3.616274767967730E-2   -5.472557917074568E-3    9.609580822619336E-2    5.181469790526682E-1
 6.564993280250000E9    -1.062929603188476E-2    5.682791676610869E-1    3.703183590670032E-2   -5.276612357135077E-3    3.649287930112381E-2   -5.571763698507679E-3    9.742851859931421E-2    5.177808380843786E-1
 6.565007176125000E9    -9.501219972937474E-3    5.683633557344342E-1    3.720005675443897E-2   -5.187421599299637E-3    3.654558648996548E-2   -5.753914864873144E-3    9.897437809639503E-2    5.173691226857308E-1
 6.565021072000000E9    -8.348174690104408E-3    5.683129003454405E-1    3.750047182987544E-2   -5.326130666305704E-3    3.682329169366299E-2   -5.898591301097460E-3    1.003643274465738E-1    5.172054175841193E-1
 6.565034967875000E9    -7.135585561140097E-3    5.683477114694556E-1    3.774387489221932E-2   -5.593539839706824E-3    3.710999501487366E-2   -6.133935779937546E-3    1.016591423474307E-1    5.169249739535118E-1
 6.565048863750000E9    -5.961092758838707E-3    5.683111502656654E-1    3.809009970194001E-2   -5.552679397722543E-3    3.736588933022822E-2   -6.148236213650750E-3    1.030552633790767E-1    5.166022732371309E-1
 6.565062759625000E9    -4.847523120597477E-3    5.682050148344285E-1    3.820801823677245E-2   -5.847847972360137E-3    3.764373335089970E-2   -6.368855533898441E-3    1.045650489321214E-1    5.163095183682264E-1
 6.565076655500000E9    -3.680635551753590E-3    5.682190469735895E-1    3.864724754292601E-2   -5.943036456828444E-3    3.787247161992852E-2   -6.511161743134513E-3    1.059799508469973E-1    5.160032393503059E-1
 6.565090551375000E9    -2.500504415054192E-3    5.681911688176590E-1    3.880876850970031E-2   -6.216745285636568E-3    3.811370417850130E-2   -6.729552025989935E-3    1.073655560993270E-1    5.156999831514618E-1
 6.565104447250000E9    -1.429777771709211E-3    5.681722640434446E-1    3.901737542948876E-2   -6.262683749395895E-3    3.831577306222201E-2   -6.790512435805016E-3    1.086706710155340E-1    5.154469587804059E-1
 6.565118343125000E9    -1.024122894524134E-4    5.681846814004073E-1    3.929479266023699E-2   -6.369313575659430E-3    3.860022681056358E-2   -7.020434952783212E-3    1.101530467112537E-1    5.149625938498564E-1
 6.565132239000000E9     1.026465602062719E-3    5.680522117213587E-1    3.952557636015563E-2   -6.689961617981848E-3    3.880139536450126E-2   -7.145179167246079E-3    1.118195550856762E-1    5.146736874435015E-1
 6.565146134875000E9     2.289927584029380E-3    5.681294896066794E-1    3.983655922598353E-2   -6.768415309532919E-3    3.911911657734356E-2   -7.355079762219772E-3    1.130331480779267E-1    5.143725057588482E-1
 6.565160030750000E9     3.398682124093524E-3    5.680130268372168E-1    3.998329723012149E-2   -6.926878852589291E-3    3.934088154054033E-2   -7.498602703257611E-3    1.145195893448935E-1    5.139846175633559E-1
 6.565173926625000E9     4.509486495384187E-3    5.679949190264048E-1    4.041102491436251E-2   -7.149122962251083E-3    3.963628583254517E-2   -7.617130282659796E-3    1.160114835102037E-1    5.135030196918707E-1
 6.565187822500000E9     5.726923436474487E-3    5.679930423981614E-1    4.060975326867718E-2   -7.286938750043621E-3    3.996489210336588E-2   -7.811859564332146E-3    1.176162612084997E-1    5.132260748526168E-1
 6.565201718375000E9     6.930031358292617E-3    5.679508986237676E-1    4.081678960970082E-2   -7.388911772061245E-3    4.025123686582647E-2   -8.012944968513474E-3    1.187694264971784E-1    5.130761796487076E-1
 6.565215614250000E9     8.160146267122330E-3    5.678802007855733E-1    4.107786414037388E-2   -7.756700004173158E-3    4.045764129973102E-2   -8.154028801037291E-3    1.204432237437251E-1    5.126175408607676E-1
 6.565229510125000E9     9.330408692892088E-3    5.677836010689703E-1    4.133985600225484E-2   -7.854094941801601E-3    4.079223558537964E-2   -8.311029461267336E-3    1.218148495655696E-1    5.121455348617484E-1
 6.565243406000000E9     1.047350742923321E-2    5.677196929263897E-1    4.170550094791110E-2   -8.069757754373456E-3    4.105127321603903E-2   -8.539688077065058E-3    1.233239881431867E-1    5.118144533536853E-1
 6.565257301875000E9     1.169483771863754E-2    5.677022978545604E-1    4.217566900216465E-2   -8.240420320866413E-3    4.134166899868470E-2   -8.792994092262935E-3    1.247246143554564E-1    5.112474210538394E-1
 6.565271197750000E9     1.275742797776257E-2    5.675623015614503E-1    4.228843336139807E-2   -8.415418948158462E-3    4.162221912629462E-2   -8.909783856443969E-3    1.262569720890149E-1    5.109597875463728E-1
 6.565285093625000E9     1.401967954346951E-2    5.675503915557566E-1    4.263014503005972E-2   -8.461485314795646E-3    4.194342840303988E-2   -9.147285899978309E-3    1.278725182545758E-1    5.105283955406202E-1
 6.565298989500000E9     1.529464579679220E-2    5.674217300540708E-1    4.286451727569372E-2   -8.770604349184996E-3    4.221132573147311E-2   -9.323204096279993E-3    1.294057386737700E-1    5.100938284078897E-1
 6.565312885375000E9     1.653016490080064E-2    5.674373318959011E-1    4.330500554399963E-2   -9.055005622379375E-3    4.258588870850610E-2   -9.551493742730982E-3    1.307239721334182E-1    5.097612820345566E-1
 6.565326781250000E9     1.775441340696753E-2    5.672713030944605E-1    4.355137824486337E-2   -9.131037930446348E-3    4.287143446908538E-2   -9.772656417697088E-3    1.324536422393416E-1    5.092849107528524E-1
 6.565340677125000E9     1.890271000769867E-2    5.672609600255406E-1    4.389504419890258E-2   -9.448724251469068E-3    4.316518467014524E-2   -9.954411736914475E-3    1.339253592521333E-1    5.085687125537434E-1
 6.565354573000000E9     2.013443758708389E-2    5.670900999694698E-1    4.421394103024427E-2   -9.687692234487105E-3    4.353878675987965E-2   -1.024665695712736E-2    1.353325730876046E-1    5.083436427382598E-1
 6.565368468875000E9     2.137569458448384E-2    5.671061680887615E-1    4.458695491900999E-2   -9.836544860106558E-3    4.387161734990477E-2   -1.049732355203604E-2    1.371006034547860E-1    5.078641614393634E-1
 6.565382364750000E9     2.253243241674819E-2    5.668284585853751E-1    4.488172165179912E-2   -1.002549294816169E-2    4.404397610122903E-2   -1.061307581654380E-2    1.385332858997039E-1    5.074577515819727E-1
 6.565396260625000E9     2.389982968025980E-2    5.667630149759106E-1    4.519632263721789E-2   -1.046767506137079E-2    4.449605915815259E-2   -1.091519789094587E-2    1.402083352419926E-1    5.067418363913272E-1
 6.565410156500000E9     2.510488955019456E-2    5.667373557585197E-1    4.561766690192705E-2   -1.064333527894878E-2    4.485812325872716E-2   -1.110073574160937E-2    1.416670010535709E-1    5.063554228603591E-1
 6.565424052375000E9     2.622226330385613E-2    5.666187610770702E-1    4.587492657473725E-2   -1.084173641683607E-2    4.507940248554741E-2   -1.139379220699194E-2    1.433301384280470E-1    5.057239730833061E-1
 6.565437948250000E9     2.740743706868987E-2    5.663890578130174E-1    4.626160473346922E-2   -1.103763561464343E-2    4.543034368299569E-2   -1.159234752432138E-2    1.448534435651744E-1    5.052870818406845E-1
 6.565451844125000E9     2.864951655965926E-2    5.663364154896012E-1    4.660341374437756E-2   -1.127836752115649E-2    4.578830404097303E-2   -1.182346616419615E-2    1.464423153239287E-1    5.045988973417536E-1
 6.565465740000000E9     2.999354547373249E-2    5.662836698401910E-1    4.690957144924818E-2   -1.154996427284795E-2    4.615463779228530E-2   -1.211393355392045E-2    1.480243456540355E-1    5.042748618883691E-1
 6.565479635875000E9     3.130356353225245E-2    5.660192589098894E-1    4.746510646734464E-2   -1.204544720247934E-2    4.650816426458024E-2   -1.237348648245145E-2    1.497397992628894E-1    5.034712108142182E-1
 6.565493531750000E9     3.246389753366152E-2    5.659826332393832E-1    4.771100575642664E-2   -1.198457514491854E-2    4.691220730192053E-2   -1.262146279732934E-2    1.513644709972670E-1    5.029636816029365E-1
