#  HZ   S   RI   R     50.00 
! Rohde & Schwarz Vector Network Analyzer 
! Rohde-Schwarz,ZNB20-2Port,1311601062101988,3.16
! Created: UTC 3/20/2024, 4:57:23 PM
! freq[Hz]                re:S11                  im:S11                  re:S21                  im:S21                  re:S12                  im:S12                  re:S22                  im:S22
 6.564236540000000E9    -7.189849132543980E-2    5.646861264023194E-1    2.731443446196243E-2   -5.415120228985902E-5    2.687560587811553E-2   -4.173708426933629E-4    2.813198290623811E-2    5.259035871723462E-1
 6.564250465000000E9    -7.073313965637340E-2    5.647653572142960E-1    2.742971888284918E-2    8.179489549130111E-6    2.702627433026696E-2   -5.464393867756687E-4    2.935387120929593E-2    5.258339478887857E-1
 6.564264390000000E9    -6.961739341596038E-2    5.648876798776847E-1    2.757070732239039E-2   -1.230753350370609E-4    2.713453400226452E-2   -5.186912706083412E-4    3.054913854479621E-2    5.258066414708740E-1
 6.564278315000000E9    -6.856010205563220E-2    5.649308525167740E-1    2.775700166975213E-2   -9.010483278548170E-5    2.731178286393104E-2   -6.038720411926411E-4    3.171877779460443E-2    5.257528688791170E-1
 6.564292240000000E9    -6.749030081996112E-2    5.652024412280117E-1    2.795922637638799E-2   -1.603911610278147E-4    2.749521850106364E-2   -7.220495932742046E-4    3.276579547217457E-2    5.257480467001494E-1
 6.564306165000000E9    -6.644904269413575E-2    5.653001701259734E-1    2.802413434295212E-2   -2.362621545266459E-4    2.756104401082397E-2   -6.640617046935553E-4    3.404117249049888E-2    5.256500995761659E-1
 6.564320090000000E9    -6.527131747381242E-2    5.653800349472932E-1    2.824133245902428E-2   -3.559566969291089E-4    2.774710008858186E-2   -8.445622509767307E-4    3.526299164402221E-2    5.256178428897347E-1
 6.564334015000000E9    -6.425097434270886E-2    5.654831051471157E-1    2.830095627996304E-2   -4.162033877915510E-4    2.784533154002126E-2   -9.065839731351270E-4    3.662500196263005E-2    5.253379116395117E-1
 6.564347940000000E9    -6.320723482493196E-2    5.656006790717505E-1    2.854165300292649E-2   -5.063345572442465E-4    2.799387956257670E-2   -9.758960190413330E-4    3.775784293123417E-2    5.253827443162856E-1
 6.564361865000000E9    -6.196273485727073E-2    5.657543806316346E-1    2.873911761328470E-2   -4.976596104323604E-4    2.816963361000132E-2   -1.104828551623571E-3    3.898995692551183E-2    5.253828840682343E-1
 6.564375790000000E9    -6.091503725632903E-2    5.658387496243362E-1    2.870678550550997E-2   -6.206190922580789E-4    2.835371189886566E-2   -1.205992529794476E-3    4.019969011032937E-2    5.252833218239745E-1
 6.564389715000000E9    -5.972092876397357E-2    5.660027784916783E-1    2.887811210102269E-2   -7.676165576388610E-4    2.844922236659413E-2   -1.232823800064506E-3    4.135763023371313E-2    5.252873418179633E-1
 6.564403640000000E9    -5.865103585900001E-2    5.661492281993322E-1    2.915084228291498E-2   -9.176204996464626E-4    2.862488593891361E-2   -1.232298546198363E-3    4.269299769033566E-2    5.251789981952458E-1
 6.564417565000000E9    -5.755308157445649E-2    5.662063587226798E-1    2.918690917885338E-2   -8.466816457894264E-4    2.870461798484022E-2   -1.314745437368160E-3    4.392785607907602E-2    5.251511560052405E-1
 6.564431490000000E9    -5.642257411041955E-2    5.661831443758555E-1    2.931089666906294E-2   -9.441922846849233E-4    2.887358026050719E-2   -1.372134887139632E-3    4.503924184946533E-2    5.249768119904752E-1
 6.564445415000000E9    -5.537548465470819E-2    5.662869481489704E-1    2.952508933331007E-2   -9.536997858785629E-4    2.908818797791331E-2   -1.507087547655206E-3    4.633847503742437E-2    5.249864222981456E-1
 6.564459340000000E9    -5.418362965207781E-2    5.665553433965482E-1    2.972988051836331E-2   -1.049869335960444E-3    2.923762086828601E-2   -1.530132037285814E-3    4.745158388606264E-2    5.247155121922502E-1
 6.564473265000000E9    -5.321115795725822E-2    5.664775551618003E-1    2.997794974606622E-2   -1.106953021287610E-3    2.933669948453459E-2   -1.761632910348037E-3    4.872513088403219E-2    5.245125737390699E-1
 6.564487190000000E9    -5.204865085762061E-2    5.665701755020295E-1    2.997145251796142E-2   -1.201323788595607E-3    2.949941550174562E-2   -1.720649525974872E-3    5.005714356189461E-2    5.246404311046827E-1
 6.564501115000000E9    -5.082260505233025E-2    5.667682309111137E-1    3.011691660030665E-2   -1.319218437473194E-3    2.971786090428541E-2   -1.832372511164847E-3    5.134084798435225E-2    5.242740322713817E-1
 6.564515040000000E9    -4.970418406254704E-2    5.668682862080995E-1    3.041125545910517E-2   -1.442543786272437E-3    2.978661034743052E-2   -1.919061523331813E-3    5.261999646200393E-2    5.241998640690527E-1
 6.564528965000000E9    -4.861527311639893E-2    5.668104077088072E-1    3.049354012336724E-2   -1.510442242471758E-3    2.999976785530537E-2   -2.069858389052445E-3    5.367693430558632E-2    5.242680360180381E-1
 6.564542890000000E9    -4.758999339054220E-2    5.669994321757127E-1    3.065975033595879E-2   -1.547685921714977E-3    3.009567334359333E-2   -2.144737614213623E-3    5.500104139531899E-2    5.239874593645881E-1
 6.564556815000000E9    -4.634807124086252E-2    5.670380650520721E-1    3.086437722660203E-2   -1.758316657629835E-3    3.030638588915168E-2   -2.175899557976886E-3    5.641885182943308E-2    5.239627102548426E-1
 6.564570740000000E9    -4.532577181887543E-2    5.671781193504672E-1    3.083939874261548E-2   -1.828161857339067E-3    3.050733424357019E-2   -2.251381589348045E-3    5.750869201510660E-2    5.238317619037643E-1
 6.564584665000000E9    -4.418856568733295E-2    5.672803264860630E-1    3.118044843439570E-2   -1.792040538512704E-3    3.062376536927693E-2   -2.372829803750792E-3    5.871028825546096E-2    5.235875650780633E-1
 6.564598590000000E9    -4.310385372954324E-2    5.673208684499078E-1    3.133857819281215E-2   -1.800375989678474E-3    3.075203464562216E-2   -2.456089406632519E-3    6.026546551236275E-2    5.235602921893696E-1
 6.564612515000000E9    -4.195994599279460E-2    5.673000908931585E-1    3.137570905611724E-2   -2.073967598470997E-3    3.092290389241518E-2   -2.576933563093907E-3    6.129338571974780E-2    5.234144670390783E-1
 6.564626440000000E9    -4.076359201294229E-2    5.674761918427819E-1    3.152653042292178E-2   -2.137435738949974E-3    3.116966085948373E-2   -2.633923744894947E-3    6.280033210435454E-2    5.232789786609178E-1
 6.564640365000000E9    -3.966881129377922E-2    5.675197951028020E-1    3.186304476663571E-2   -2.221999594929226E-3    3.133754812221123E-2   -2.716676283666482E-3    6.380328113840537E-2    5.231948495938208E-1
 6.564654290000000E9    -3.855701770408416E-2    5.676251494946452E-1    3.212471462682692E-2   -2.200200959947726E-3    3.155388873294992E-2   -2.772812377124283E-3    6.516116723428722E-2    5.229002064970727E-1
 6.564668215000000E9    -3.739909376486687E-2    5.675991992218524E-1    3.217845031361050E-2   -2.361766404194169E-3    3.165800426544892E-2   -2.895374137859664E-3    6.640720411323339E-2    5.227502354752788E-1
 6.564682140000000E9    -3.630479761074878E-2    5.676294429073900E-1    3.239072876218000E-2   -2.447140616683804E-3    3.180083370826287E-2   -2.981563800142529E-3    6.765321345616328E-2    5.226368244237862E-1
 6.564696065000000E9    -3.521950312222542E-2    5.677563932490549E-1    3.265162955867816E-2   -2.597977809151551E-3    3.198636857112965E-2   -3.208338812904633E-3    6.903316914640314E-2    5.223002251019297E-1
 6.564709990000000E9    -3.400537916006394E-2    5.677361728182462E-1    3.284083209631704E-2   -2.712460833433469E-3    3.225735458166997E-2   -3.240214668775494E-3    7.028712152621418E-2    5.222932196585091E-1
 6.564723915000000E9    -3.280222923122973E-2    5.680151471730615E-1    3.284321874138092E-2   -2.733018432485634E-3    3.236484044019294E-2   -3.333326935728792E-3    7.164660171270444E-2    5.220798137615762E-1
 6.564737840000000E9    -3.174516264081747E-2    5.679877446894858E-1    3.315849194152824E-2   -2.893401523531748E-3    3.261169438418742E-2   -3.351981076555471E-3    7.290364864780416E-2    5.218550380949568E-1
 6.564751765000000E9    -3.072210392728476E-2    5.679604052464993E-1    3.332710915452767E-2   -3.027378633671446E-3    3.280685109557985E-2   -3.449492113929897E-3    7.426363187733170E-2    5.218394603953423E-1
 6.564765690000000E9    -2.949911073191067E-2    5.679757728884193E-1    3.357126881114528E-2   -3.132219251557085E-3    3.295111567895610E-2   -3.685035351409126E-3    7.558485376925848E-2    5.214775230958066E-1
 6.564779615000000E9    -2.832660231043188E-2    5.680756135355616E-1    3.378078522226101E-2   -3.167260058996488E-3    3.318663704899721E-2   -3.720804849235215E-3    7.700329486148685E-2    5.212755831085437E-1
 6.564793540000000E9    -2.717402196583415E-2    5.680321553051645E-1    3.395751936424260E-2   -3.253301451870425E-3    3.337502556096348E-2   -3.867851075204512E-3    7.816961980856901E-2    5.211783750901127E-1
 6.564807465000000E9    -2.603729512233933E-2    5.680119699586250E-1    3.408409335669543E-2   -3.319280776647947E-3    3.355071898234434E-2   -4.000394518040861E-3    7.936302028536206E-2    5.209213286211107E-1
 6.564821390000000E9    -2.494017796890145E-2    5.680632682851748E-1    3.442370317033184E-2   -3.546293052457047E-3    3.366723881448659E-2   -4.096956003116757E-3    8.081255456998375E-2    5.206976897234626E-1
 6.564835315000000E9    -2.384739493534362E-2    5.681044011097177E-1    3.453927471127168E-2   -3.594566005336153E-3    3.387030535557793E-2   -4.295891655704211E-3    8.226438402740384E-2    5.204149536604594E-1
 6.564849240000000E9    -2.265465142825204E-2    5.681270715200242E-1    3.461072937637995E-2   -3.778012809086050E-3    3.415667763658692E-2   -4.347657667194475E-3    8.349400505454524E-2    5.203575433266098E-1
 6.564863165000000E9    -2.148822541555510E-2    5.683042434899721E-1    3.491504684289188E-2   -3.973615176784732E-3    3.442979926778051E-2   -4.362266367488333E-3    8.476721113146633E-2    5.200955694490987E-1
 6.564877090000000E9    -2.039502320743809E-2    5.682031791800332E-1    3.521425017070338E-2   -3.929650798233312E-3    3.460923084425852E-2   -4.553650685437871E-3    8.622788214506040E-2    5.198963300433840E-1
 6.564891015000000E9    -1.919800203332158E-2    5.682145811615762E-1    3.546232319702618E-2   -4.133207269300716E-3    3.482193432455138E-2   -4.648025448786224E-3    8.752074373507611E-2    5.195358119869271E-1
 6.564904940000000E9    -1.797136772183962E-2    5.683057342298843E-1    3.555632363182080E-2   -4.252341483829245E-3    3.491546586913834E-2   -4.785348967526776E-3    8.874316763940086E-2    5.193771609470021E-1
 6.564918865000000E9    -1.696043251562249E-2    5.683584495607996E-1    3.581945586777749E-2   -4.415455345382641E-3    3.514549350902282E-2   -4.928848658883682E-3    9.018274911143152E-2    5.192482779733294E-1
 6.564932790000000E9    -1.571213359382094E-2    5.683528873168620E-1    3.600940698526118E-2   -4.556763708454719E-3    3.537542404749901E-2   -4.980940661696033E-3    9.160314033520242E-2    5.188258364504362E-1
 6.564946715000000E9    -1.450961319876973E-2    5.683642805298573E-1    3.624109366194583E-2   -4.627824685364663E-3    3.565249430513609E-2   -5.151991597207676E-3    9.300119565263523E-2    5.187086850645370E-1
 6.564960640000000E9    -1.344741782948973E-2    5.681844047332780E-1    3.652234158645984E-2   -4.765270633857833E-3    3.586845261068194E-2   -5.323596642956664E-3    9.430264967386390E-2    5.184173648958988E-1
 6.564974565000000E9    -1.227561308337970E-2    5.682909097639165E-1    3.671483069710810E-2   -4.862874932619591E-3    3.610038455481367E-2   -5.505353253467758E-3    9.572893310367488E-2    5.180770809843478E-1
 6.564988490000000E9    -1.108527094905580E-2    5.683400211190028E-1    3.687933725997287E-2   -4.959952526049272E-3    3.643243313089239E-2   -5.614170827324121E-3    9.706410764506916E-2    5.177641835284437E-1
 6.565002415000000E9    -1.003994045440728E-2    5.683251559148456E-1    3.722237067118429E-2   -5.184115882352821E-3    3.658508671107633E-2   -5.762159494775233E-3    9.841468853000450E-2    5.176511265100708E-1
 6.565016340000000E9    -8.757292653449853E-3    5.683231744114389E-1    3.741992663636147E-2   -5.401483844852639E-3    3.677369037939662E-2   -5.866038249164139E-3    9.984487293334640E-2    5.173455066452570E-1
 6.565030265000000E9    -7.551082870561185E-3    5.683821168268745E-1    3.757235998191564E-2   -5.458343423757952E-3    3.702642663077772E-2   -5.955940466290783E-3    1.011753473375251E-1    5.169032774364942E-1
 6.565044190000000E9    -6.456334230784304E-3    5.683024295555085E-1    3.794011515016513E-2   -5.666377065708899E-3    3.730045836452447E-2   -6.137240616566825E-3    1.026030342949236E-1    5.166614911330747E-1
 6.565058115000000E9    -5.305475362879001E-3    5.682566438621394E-1    3.813427964729395E-2   -5.683849120881426E-3    3.748112298156660E-2   -6.334649533416977E-3    1.040916403449021E-1    5.164268652042741E-1
 6.565072040000000E9    -4.092607179230160E-3    5.683198156302832E-1    3.840589720646109E-2   -5.948380803470371E-3    3.782402040191108E-2   -6.508490585609610E-3    1.054203004265853E-1    5.160824261560552E-1
 6.565085965000000E9    -2.894204472083859E-3    5.681557579129963E-1    3.871513245243509E-2   -6.115408701108048E-3    3.798774769718691E-2   -6.659069328309099E-3    1.066963122459784E-1    5.157019258186641E-1
 6.565099890000000E9    -1.735634879565638E-3    5.681039448123718E-1    3.894272751822835E-2   -6.272015970248160E-3    3.823350478155297E-2   -6.709360174454773E-3    1.083385125855244E-1    5.154467568210311E-1
 6.565113815000000E9    -5.116141782665241E-4    5.681310798531988E-1    3.916251673855808E-2   -6.371651896976334E-3    3.846582284724834E-2   -6.877467939937515E-3    1.097826791622730E-1    5.152229141250667E-1
 6.565127740000000E9     5.977714420966482E-4    5.681450110124436E-1    3.936222625105767E-2   -6.608768528145386E-3    3.873566115672736E-2   -7.075814599919677E-3    1.111806256519335E-1    5.148423455464628E-1
 6.565141665000000E9     1.819043427124786E-3    5.681076098774455E-1    3.957261273151064E-2   -6.728488029520635E-3    3.912106181104598E-2   -7.188676030053557E-3    1.128114058282475E-1    5.144280145647824E-1
 6.565155590000000E9     3.008937876676547E-3    5.680975477448261E-1    3.999630989823730E-2   -6.916699808360818E-3    3.935895800742878E-2   -7.432128395265991E-3    1.140428803240021E-1    5.139352693202178E-1
 6.565169515000000E9     4.175433241468900E-3    5.680855796572258E-1    4.025112921068418E-2   -6.925724092085035E-3    3.951274585995877E-2   -7.515491173474528E-3    1.155097053198296E-1    5.137479604754176E-1
 6.565183440000000E9     5.386041958192716E-3    5.679489997718888E-1    4.052920221993056E-2   -7.216258951028860E-3    3.984166633273986E-2   -7.730274389809609E-3    1.169108642239814E-1    5.132861441700184E-1
 6.565197365000000E9     6.561993988677880E-3    5.679933795376679E-1    4.077596009480310E-2   -7.413016807960128E-3    4.016273218831376E-2   -8.000641596634316E-3    1.184408440667715E-1    5.129897823917386E-1
 6.565211290000000E9     7.684564446195746E-3    5.678342415184190E-1    4.096852979040205E-2   -7.649363027888782E-3    4.034506195177338E-2   -8.163809871531161E-3    1.198371665893882E-1    5.125975931111899E-1
 6.565225215000000E9     8.900757257205337E-3    5.678647893964903E-1    4.154410449766001E-2   -7.706089540835881E-3    4.063437598875374E-2   -8.334236549313584E-3    1.213546278689099E-1    5.122231236383598E-1
 6.565239140000000E9     1.003644782646176E-2    5.677612714902091E-1    4.177331019398679E-2   -7.968739713899583E-3    4.089767029841857E-2   -8.522485318443209E-3    1.228963318232683E-1    5.119756927603186E-1
 6.565253065000000E9     1.126036969348162E-2    5.677354775946630E-1    4.195636336224492E-2   -8.073402218853644E-3    4.126500935486473E-2   -8.743401856861717E-3    1.242742526103335E-1    5.114820169753116E-1
 6.565266990000000E9     1.255433914349273E-2    5.675876326382047E-1    4.228334079657465E-2   -8.248454288935076E-3    4.161253337943584E-2   -8.968320395181625E-3    1.258620157950242E-1    5.109403165793343E-1
 6.565280915000000E9     1.375492848084147E-2    5.675678315943408E-1    4.266396647937481E-2   -8.613079454660055E-3    4.191637139307360E-2   -9.071116835808491E-3    1.274033121859128E-1    5.106646887643821E-1
 6.565294840000000E9     1.503169408170650E-2    5.673824387066155E-1    4.296542930022972E-2   -8.618106095600439E-3    4.215401206936142E-2   -9.261612726259446E-3    1.288523414650592E-1    5.102062245178437E-1
 6.565308765000000E9     1.619710068002707E-2    5.673483981318834E-1    4.318518938572515E-2   -8.938855951140089E-3    4.248890626385079E-2   -9.413699495753061E-3    1.305108795452098E-1    5.097089582876749E-1
 6.565322690000000E9     1.727553336287347E-2    5.672920405645515E-1    4.353752501830885E-2   -9.214317635074460E-3    4.278015777108381E-2   -9.721215009150023E-3    1.318169990710728E-1    5.093687602706199E-1
 6.565336615000000E9     1.862622940768710E-2    5.673017301649379E-1    4.380540243956588E-2   -9.451438124605104E-3    4.302680114552655E-2   -9.894431933945444E-3    1.334586128158664E-1    5.087920108521110E-1
 6.565350540000000E9     1.980185171245875E-2    5.671365446500519E-1    4.416853028495300E-2   -9.528277552731048E-3    4.335203453971467E-2   -1.013661171366018E-2    1.350674082224395E-1    5.083917599307863E-1
 6.565364465000000E9     2.098639521337550E-2    5.670241396391174E-1    4.452166682806386E-2   -9.749296598880519E-3    4.363425084171199E-2   -1.037351064365580E-2    1.367212326209199E-1    5.078465428936527E-1
 6.565378390000000E9     2.223987367539607E-2    5.668167425749706E-1    4.482626991150991E-2   -1.001703135294129E-2    4.400997825197312E-2   -1.063061742522097E-2    1.380833958703071E-1    5.074685840083478E-1
 6.565392315000000E9     2.343316503947342E-2    5.667710966642679E-1    4.514303835677830E-2   -1.026175525431680E-2    4.441437490296594E-2   -1.087918969168327E-2    1.396474746331821E-1    5.068530044932215E-1
 6.565406240000000E9     2.473839295960107E-2    5.666995862865934E-1    4.560311513661849E-2   -1.050466171178341E-2    4.470961554952695E-2   -1.109931375247247E-2    1.412429316495838E-1    5.063186891677780E-1
 6.565420165000000E9     2.586870802397067E-2    5.666141870276444E-1    4.581527337546286E-2   -1.071093324451299E-2    4.515255532002560E-2   -1.131016317132788E-2    1.428622621195322E-1    5.057911548155919E-1
 6.565434090000000E9     2.713424295527015E-2    5.664987756498620E-1    4.624542306647544E-2   -1.097826811157210E-2    4.546952239393068E-2   -1.160330731514913E-2    1.443790558555870E-1    5.052274585050276E-1
 6.565448015000000E9     2.841419470368265E-2    5.662929276739701E-1    4.641550382822059E-2   -1.129282894793481E-2    4.569611730326344E-2   -1.180676851366563E-2    1.461469713015204E-1    5.046459394914943E-1
 6.565461940000000E9     2.960300419650276E-2    5.662536328360064E-1    4.695852557133924E-2   -1.155102307334081E-2    4.625033670432856E-2   -1.203782225431831E-2    1.476451687195334E-1    5.042582363820693E-1
 6.565475865000000E9     3.081913588419725E-2    5.661065424578735E-1    4.721533227439653E-2   -1.175017831061492E-2    4.645925080791362E-2   -1.233507382368682E-2    1.495101063262411E-1    5.036880544768341E-1
 6.565489790000000E9     3.204180725813802E-2    5.659961897447187E-1    4.773127097023153E-2   -1.201210113352630E-2    4.683466459502995E-2   -1.268483892481741E-2    1.510139555003364E-1    5.030520916712522E-1
