#  HZ   S   RI   R     50.00 
! Rohde & Schwarz Vector Network Analyzer 
! Rohde-Schwarz,ZNB20-2Port,1311601062101988,3.16
! Created: UTC 3/20/2024, 5:12:37 PM
! freq[Hz]                re:S11                  im:S11                  re:S21                  im:S21                  re:S12                  im:S12                  re:S22                  im:S22
 6.564742737000000E9    -3.285597151090217E-2    5.681346780736128E-1    3.118949910731376E-2   -1.889842321455573E-3    3.068286389929829E-2   -2.526600346327258E-3    6.893593908677231E-2    5.219385619333925E-1
 6.564754933925000E9    -3.191819900125928E-2    5.681605964003705E-1    3.127504081278969E-2   -1.951754640812879E-3    3.084104389592365E-2   -2.516551990977922E-3    7.011798251141128E-2    5.217259670584770E-1
 6.564767130850000E9    -3.096091206397308E-2    5.682238941471447E-1    3.129730650398282E-2   -2.101185831706794E-3    3.084793315378466E-2   -2.750353998798918E-3    7.122701858843564E-2    5.216766797934264E-1
 6.564779327775000E9    -2.990958903141058E-2    5.683092049123323E-1    3.151498875592857E-2   -2.331083344389052E-3    3.099686407022293E-2   -2.634540120563649E-3    7.223168284642452E-2    5.216894237189369E-1
 6.564791524700000E9    -2.890347986494752E-2    5.682610948841847E-1    3.155249780480175E-2   -2.217317846736799E-3    3.115858832988005E-2   -2.841220379668051E-3    7.346667678530645E-2    5.212725370812851E-1
 6.564803721625000E9    -2.786711855521991E-2    5.683253335386770E-1    3.182002090714484E-2   -2.470338588449091E-3    3.140462632654178E-2   -2.888141787213580E-3    7.434163784198113E-2    5.212245502063194E-1
 6.564815918550000E9    -2.688621087378539E-2    5.684256505924659E-1    3.193303078715694E-2   -2.475855985911930E-3    3.156629425184899E-2   -2.898923121749213E-3    7.552275182295108E-2    5.210258285059861E-1
 6.564828115475000E9    -2.586951892242824E-2    5.684686140747692E-1    3.221990538228452E-2   -2.599319824315246E-3    3.164148269098681E-2   -2.923128047373466E-3    7.669632047601485E-2    5.209153115226799E-1
 6.564840312400000E9    -2.501551012108168E-2    5.685146710906083E-1    3.237193886576317E-2   -2.704061627296680E-3    3.182967708458603E-2   -3.082525858892607E-3    7.792831379301764E-2    5.207696647827528E-1
 6.564852509325000E9    -2.389758374183773E-2    5.685001816185326E-1    3.260115413320969E-2   -2.886902070276422E-3    3.201887326566812E-2   -3.238048366478972E-3    7.908378716788661E-2    5.206783249686061E-1
 6.564864706250000E9    -2.297614441367095E-2    5.685530842860850E-1    3.279705501259605E-2   -2.883404723574385E-3    3.209839038532504E-2   -3.376296957066809E-3    8.013316053265268E-2    5.205003015036627E-1
 6.564876903175000E9    -2.191654371120957E-2    5.685502037851419E-1    3.287417764479016E-2   -2.864195583144101E-3    3.232962676747957E-2   -3.434955754198130E-3    8.113927535529084E-2    5.202741742598022E-1
 6.564889100100000E9    -2.090310018601901E-2    5.686214721363894E-1    3.309241412392042E-2   -3.015397162877029E-3    3.243008618255806E-2   -3.524165279664040E-3    8.246521228030704E-2    5.201197105394506E-1
 6.564901297025000E9    -2.003188657952626E-2    5.685804459147734E-1    3.327532147750085E-2   -3.038011486424242E-3    3.276994498483524E-2   -3.592704527797002E-3    8.353328686079334E-2    5.199558225655834E-1
 6.564913493950000E9    -1.894577119091905E-2    5.686601768281465E-1    3.346974463506772E-2   -3.171730968051110E-3    3.275541338381336E-2   -3.640340752041506E-3    8.473895975467666E-2    5.198100824356962E-1
 6.564925690875000E9    -1.799921394257415E-2    5.685691730342781E-1    3.344861573132344E-2   -3.364582350394840E-3    3.293830977570365E-2   -3.766408418286889E-3    8.588260620294548E-2    5.195722992928725E-1
 6.564937887800000E9    -1.701992126465458E-2    5.686384073362984E-1    3.375397843677758E-2   -3.393010680425990E-3    3.316825762320372E-2   -3.869419146368868E-3    8.697313866569466E-2    5.195610867647975E-1
 6.564950084725000E9    -1.599500439994925E-2    5.686637280479414E-1    3.381725176192388E-2   -3.341917839673716E-3    3.327144710319763E-2   -3.898485457723728E-3    8.821076001043304E-2    5.192544388724921E-1
 6.564962281650000E9    -1.491532515041244E-2    5.687194745012041E-1    3.402175364649495E-2   -3.558199873521052E-3    3.348645443328882E-2   -4.066642140291956E-3    8.918112162264903E-2    5.192504429090122E-1
 6.564974478575000E9    -1.394865010171222E-2    5.687461031598923E-1    3.406589947875426E-2   -3.534472799560770E-3    3.358899079921378E-2   -4.018155262906037E-3    9.061178725638032E-2    5.189029760510172E-1
 6.564986675500000E9    -1.301260496396016E-2    5.686727362587253E-1    3.442603624043193E-2   -3.809720184324727E-3    3.384078411007037E-2   -4.173663408931052E-3    9.164689752564846E-2    5.187406725396713E-1
 6.564998872425000E9    -1.196200049571119E-2    5.688316340019463E-1    3.463763166686345E-2   -3.812441548313136E-3    3.388672896172759E-2   -4.376957906089105E-3    9.283911082363457E-2    5.185592845594693E-1
 6.565011069350000E9    -1.101504981557284E-2    5.687384234811348E-1    3.479673018823983E-2   -3.911687049298895E-3    3.421109530932315E-2   -4.518309331482810E-3    9.383958929313438E-2    5.182454184952415E-1
 6.565023266275000E9    -9.866275966429817E-3    5.687320046386960E-1    3.487590838971302E-2   -3.982785927800998E-3    3.434818485422435E-2   -4.533355887706254E-3    9.517456965752194E-2    5.181175911710957E-1
 6.565035463200000E9    -8.964084231351312E-3    5.687487852849634E-1    3.517024356050713E-2   -4.208507782023454E-3    3.458819981692772E-2   -4.618576588181033E-3    9.631945461811775E-2    5.178680496337430E-1
 6.565047660125000E9    -7.890674504637119E-3    5.686684050747026E-1    3.510987418245801E-2   -4.189973666991824E-3    3.471121696608307E-2   -4.777049235442941E-3    9.753241934195747E-2    5.175026257728222E-1
 6.565059857050000E9    -6.884334473346021E-3    5.687126071585590E-1    3.558265461278326E-2   -4.336460226178713E-3    3.495724221712757E-2   -4.793083534510027E-3    9.868765423707908E-2    5.174972073090306E-1
 6.565072053975000E9    -5.899517362703609E-3    5.687487974481151E-1    3.576088432094940E-2   -4.465081207420912E-3    3.510584439622403E-2   -4.880712950711325E-3    9.985479035714406E-2    5.170829118189014E-1
 6.565084250900000E9    -4.825431756560305E-3    5.688222132822951E-1    3.598078425979691E-2   -4.534455282953515E-3    3.530159679645502E-2   -5.061984681773003E-3    1.011007876034353E-1    5.170136856623512E-1
 6.565096447825000E9    -3.825970908161684E-3    5.686436667512338E-1    3.608641596481098E-2   -4.637747269258989E-3    3.540315872535391E-2   -5.234791858564897E-3    1.021667426450422E-1    5.166405275771301E-1
 6.565108644750000E9    -2.885435371095180E-3    5.686534695541910E-1    3.623056455179826E-2   -4.747478454235426E-3    3.569954445229823E-2   -5.277032172341734E-3    1.034399079516640E-1    5.165313976358676E-1
 6.565120841675000E9    -1.841926576953575E-3    5.687365468634696E-1    3.665793776384701E-2   -4.828902903410925E-3    3.584572164294593E-2   -5.288435205863772E-3    1.045701742313099E-1    5.162397595431873E-1
 6.565133038600000E9    -9.012412626300624E-4    5.687279649619832E-1    3.671906349649359E-2   -4.991958838212373E-3    3.609140267162427E-2   -5.463077353203678E-3    1.057186913106004E-1    5.159707715958494E-1
 6.565145235525000E9     1.677706729456469E-4    5.686401634255381E-1    3.693605230273424E-2   -5.058178292500013E-3    3.627836286265841E-2   -5.626800094441024E-3    1.071824060782521E-1    5.157532329803287E-1
 6.565157432450000E9     1.201952601146601E-3    5.686602356660340E-1    3.715598486368828E-2   -5.276992630935116E-3    3.646315647322401E-2   -5.820378366509102E-3    1.082888334193970E-1    5.155241298464909E-1
 6.565169629375000E9     2.190372388091446E-3    5.686132092517422E-1    3.739830259286867E-2   -5.285605047043499E-3    3.667952637001030E-2   -5.852375428119602E-3    1.094647532182602E-1    5.152580722567089E-1
 6.565181826300000E9     3.231002433250084E-3    5.685938978530805E-1    3.756002523805854E-2   -5.440391339649081E-3    3.687088701558865E-2   -6.018856732441155E-3    1.106059273948867E-1    5.150620534970834E-1
 6.565194023225000E9     4.246259104921294E-3    5.685968449179952E-1    3.769629780125446E-2   -5.515845311280289E-3    3.711331828961782E-2   -6.129623119453678E-3    1.118371100757910E-1    5.147671667756096E-1
 6.565206220150000E9     5.168991308227079E-3    5.685868315251281E-1    3.803430644598078E-2   -5.657776737705823E-3    3.734528388745854E-2   -6.133701361455328E-3    1.131016866718316E-1    5.144707605945631E-1
 6.565218417075000E9     6.230095103576256E-3    5.685286878077419E-1    3.826746736500213E-2   -5.974843599270052E-3    3.746687024684862E-2   -6.432077280226881E-3    1.142756338091331E-1    5.143173471865982E-1
 6.565230614000000E9     7.375786946212716E-3    5.683786435253994E-1    3.841947091163438E-2   -5.856934948555191E-3    3.766219193579055E-2   -6.448027166843565E-3    1.155890687970869E-1    5.139221334271056E-1
 6.565242810925000E9     8.283582713034539E-3    5.684744773094988E-1    3.871856963354126E-2   -6.099636395739478E-3    3.796649989423798E-2   -6.666974217241653E-3    1.169326012925350E-1    5.137318078968572E-1
 6.565255007850000E9     9.321315831619955E-3    5.684722631384014E-1    3.875994291637311E-2   -6.336045455241486E-3    3.820234687538804E-2   -6.686695231013926E-3    1.180665172615089E-1    5.133742450086398E-1
 6.565267204775000E9     1.042278908228868E-2    5.684291668438584E-1    3.907231487348459E-2   -6.363630372812624E-3    3.835755448354953E-2   -6.900557645502859E-3    1.193819872985895E-1    5.130420987036075E-1
 6.565279401700000E9     1.143929539536581E-2    5.683342710030198E-1    3.925401070292159E-2   -6.472389544343556E-3    3.862466987563824E-2   -7.001778659624118E-3    1.207652301815431E-1    5.128511859956333E-1
 6.565291598625000E9     1.258889851155555E-2    5.682718379098597E-1    3.950881993513509E-2   -6.597122260588824E-3    3.889730232755612E-2   -7.165772443530948E-3    1.217994679331450E-1    5.124311187542558E-1
 6.565303795550000E9     1.350734268864162E-2    5.682968258330547E-1    3.980118916190449E-2   -6.837908664939799E-3    3.909458705565960E-2   -7.212463744230907E-3    1.231710079160350E-1    5.121185284045860E-1
 6.565315992475000E9     1.449114545955181E-2    5.681867876072724E-1    3.991299422616777E-2   -7.045970472307557E-3    3.927472591834577E-2   -7.479745219491241E-3    1.243976963509952E-1    5.118786436066455E-1
 6.565328189400000E9     1.564502123264968E-2    5.680666475989244E-1    4.025960359108916E-2   -7.061736776770878E-3    3.965751806829201E-2   -7.734049180157580E-3    1.256957471545526E-1    5.115373623757914E-1
 6.565340386325000E9     1.661274795250288E-2    5.679864676984717E-1    4.034421547319510E-2   -7.287262499321561E-3    3.974206066575252E-2   -7.740331933114256E-3    1.270083644433833E-1    5.112297324808933E-1
 6.565352583250000E9     1.772585830680045E-2    5.679873142748857E-1    4.068417286892265E-2   -7.474734451791551E-3    4.009907733368345E-2   -7.968617976773175E-3    1.282425126610006E-1    5.107235714718354E-1
 6.565364780175000E9     1.877035933487838E-2    5.680107026929522E-1    4.103052489442353E-2   -7.418020116606084E-3    4.031464190418919E-2   -8.007207655493332E-3    1.296436165780056E-1    5.105615992960579E-1
 6.565376977100000E9     1.982615544347696E-2    5.677672629566873E-1    4.126670052592655E-2   -7.629831090552422E-3    4.050443445036429E-2   -8.163826572015975E-3    1.308870626153876E-1    5.101614779709818E-1
 6.565389174025000E9     2.077461011102073E-2    5.677172447475419E-1    4.139454541915662E-2   -7.836687558821158E-3    4.072985021240649E-2   -8.341764043524364E-3    1.322008711240233E-1    5.097664162080677E-1
 6.565401370950000E9     2.188232619024253E-2    5.677091479142440E-1    4.160198013279139E-2   -7.893798266044845E-3    4.108528130025497E-2   -8.506156969189273E-3    1.334141448108810E-1    5.095385484833613E-1
 6.565413567875000E9     2.294017616634979E-2    5.675763188536062E-1    4.208657350626562E-2   -8.220994574362674E-3    4.138336300306204E-2   -8.732387508477017E-3    1.347899776232628E-1    5.091269704760171E-1
 6.565425764800000E9     2.405384604929070E-2    5.676895729198348E-1    4.219923733195752E-2   -8.299330486718258E-3    4.151696138233808E-2   -8.896856448814716E-3    1.360303006472910E-1    5.087240330320472E-1
 6.565437961725000E9     2.513871289310024E-2    5.675959649736306E-1    4.254183756730839E-2   -8.550841956860782E-3    4.186903471336792E-2   -8.956945935964061E-3    1.373620580422172E-1    5.084475888649704E-1
 6.565450158650000E9     2.619609248260081E-2    5.674144462075728E-1    4.285641540355142E-2   -8.537850550396785E-3    4.212016522855622E-2   -9.193148362775830E-3    1.387348329123554E-1    5.080258114571260E-1
 6.565462355575000E9     2.708954651018847E-2    5.673429942684503E-1    4.309533553167764E-2   -8.796088715921753E-3    4.238800141908822E-2   -9.326673769458373E-3    1.400001915358917E-1    5.077508521655609E-1
 6.565474552500000E9     2.821449680991422E-2    5.672441944893239E-1    4.330668193427266E-2   -9.044813060836264E-3    4.268628669030535E-2   -9.473802109609162E-3    1.412061842548645E-1    5.072880010178056E-1
 6.565486749425000E9     2.928575031245627E-2    5.671908167886951E-1    4.365565281029682E-2   -9.078652385204512E-3    4.289403063225251E-2   -9.762044339188718E-3    1.427267107174888E-1    5.068700618152764E-1
 6.565498946350000E9     3.038077761289351E-2    5.669694772444028E-1    4.398048174029832E-2   -9.358493862553113E-3    4.323495494516343E-2   -1.000859996310168E-2    1.441149943611308E-1    5.063978397730753E-1
 6.565511143275000E9     3.140566947096644E-2    5.670185351939333E-1    4.431255342556501E-2   -9.483682836092175E-3    4.345127472853660E-2   -1.013892298555172E-2    1.453851532141872E-1    5.060429053972524E-1
 6.565523340200000E9     3.250009560317576E-2    5.669038961826706E-1    4.452010057609272E-2   -9.762248292438998E-3    4.376137790755460E-2   -1.034899199022899E-2    1.468706204240499E-1    5.055686309542037E-1
 6.565535537125000E9     3.361836831613324E-2    5.667716543068849E-1    4.482407138004735E-2   -9.984809890183490E-3    4.396863688846025E-2   -1.058242834318242E-2    1.481079948346221E-1    5.051251251345300E-1
 6.565547734050000E9     3.464125675472404E-2    5.666006768448029E-1    4.519087973791986E-2   -1.016759325813775E-2    4.435561138706483E-2   -1.064296306580720E-2    1.493576867591407E-1    5.048266689843539E-1
 6.565559930975000E9     3.567114138603289E-2    5.665342090684927E-1    4.554119699302539E-2   -1.034922989109213E-2    4.454640535538763E-2   -1.088015649804163E-2    1.509895116302490E-1    5.043376368117396E-1
 6.565572127900000E9     3.675535287488375E-2    5.664994864609721E-1    4.574654074831695E-2   -1.054431084196785E-2    4.498699216712980E-2   -1.108003233331731E-2    1.523124381063962E-1    5.037699279103495E-1
 6.565584324825000E9     3.777599869189978E-2    5.663623540982383E-1    4.616235378013261E-2   -1.071609547252148E-2    4.525110692044247E-2   -1.127197917256153E-2    1.537741755118425E-1    5.034364275175137E-1
 6.565596521750000E9     3.895963732117707E-2    5.663327343832391E-1    4.639894500451234E-2   -1.086050386832445E-2    4.561501252831630E-2   -1.153980643935180E-2    1.551152492621342E-1    5.029336834184110E-1
 6.565608718675000E9     3.997867281869281E-2    5.661075849174175E-1    4.663854980238171E-2   -1.118711717192649E-2    4.587761545015292E-2   -1.176812112660771E-2    1.566147150749986E-1    5.023137712207149E-1
 6.565620915600000E9     4.104099318409285E-2    5.659206507332240E-1    4.693971548215523E-2   -1.129889256364319E-2    4.614479359798517E-2   -1.188532602212675E-2    1.578999257571963E-1    5.019958068630318E-1
 6.565633112525000E9     4.215823660397463E-2    5.658393149248164E-1    4.735196565145990E-2   -1.155127849371275E-2    4.652093709351710E-2   -1.215686243160778E-2    1.594480179735842E-1    5.014221790527941E-1
 6.565645309450000E9     4.331245410335709E-2    5.657168366243291E-1    4.766986883292307E-2   -1.187040031080865E-2    4.680886121978294E-2   -1.242244109031654E-2    1.608621671390969E-1    5.010443864541297E-1
 6.565657506375000E9     4.434749477900260E-2    5.655419870680582E-1    4.814617125076889E-2   -1.198582628232471E-2    4.712821636043842E-2   -1.264117504937793E-2    1.624007874651907E-1    5.005080364968305E-1
 6.565669703300000E9     4.539546150030347E-2    5.654022605252248E-1    4.832088427617883E-2   -1.230195243090854E-2    4.757421396633831E-2   -1.293459454334151E-2    1.637743010704037E-1    5.000548648369805E-1
 6.565681900225000E9     4.660528407761305E-2    5.651406248263192E-1    4.872232971889741E-2   -1.255320589903034E-2    4.787485907106771E-2   -1.304981073747171E-2    1.651932861902527E-1    4.994080965735552E-1
 6.565694097150000E9     4.767320369521507E-2    5.651755749639024E-1    4.893160438505826E-2   -1.266190934671857E-2    4.829537308053647E-2   -1.337625625193071E-2    1.667873115790034E-1    4.989185102376422E-1
 6.565706294075000E9     4.889198695553934E-2    5.649977037232476E-1    4.940405725542397E-2   -1.311659424710398E-2    4.857236372697991E-2   -1.364031431486971E-2    1.682002140572175E-1    4.983006887161736E-1
 6.565718491000000E9     4.986730713320182E-2    5.647927746922889E-1    4.983698249819603E-2   -1.320489947781793E-2    4.895273680409180E-2   -1.381339304938182E-2    1.697268305111241E-1    4.978115616642316E-1
 6.565730687925000E9     5.101208973876949E-2    5.645592228683154E-1    5.011906367340839E-2   -1.350224098483013E-2    4.929281891322375E-2   -1.415216426947361E-2    1.711977147731408E-1    4.971533696834259E-1
 6.565742884850000E9     5.214002052518298E-2    5.644534772849297E-1    5.037936579639548E-2   -1.379593913739428E-2    4.969288875110645E-2   -1.438107866358437E-2    1.727035575696316E-1    4.966820111128822E-1
 6.565755081775000E9     5.323679913931804E-2    5.643020763265411E-1    5.092889768495990E-2   -1.404767341858907E-2    5.002651382734082E-2   -1.463084857359006E-2    1.742552273420551E-1    4.960419868819536E-1
 6.565767278700000E9     5.430845657599636E-2    5.641416418154239E-1    5.123433227901322E-2   -1.432512790511561E-2    5.044938320603679E-2   -1.504265116716640E-2    1.758273489222945E-1    4.954240873672237E-1
 6.565779475625000E9     5.540451185146348E-2    5.640313109513385E-1    5.176506040506156E-2   -1.457307528985791E-2    5.083534825057143E-2   -1.524486566047435E-2    1.772898748363406E-1    4.947165944260462E-1
 6.565791672550000E9     5.654170859227739E-2    5.638488609731216E-1    5.195420535393542E-2   -1.487611379175365E-2    5.117756177384127E-2   -1.549622233900660E-2    1.788924225923686E-1    4.941377851235795E-1
 6.565803869475000E9     5.774431412019092E-2    5.636179857748231E-1    5.238258103236281E-2   -1.508314942720988E-2    5.157114477823591E-2   -1.579430913644144E-2    1.804554992980460E-1    4.933676231294941E-1
 6.565816066400000E9     5.882361087722138E-2    5.634277057672316E-1    5.294063820609435E-2   -1.562850958080260E-2    5.193369312210501E-2   -1.613675092568160E-2    1.820306171433884E-1    4.927692753748373E-1
 6.565828263325000E9     6.007036587329635E-2    5.633045239721283E-1    5.315844917958260E-2   -1.580524976234819E-2    5.248787632612781E-2   -1.645781256457655E-2    1.834928700065456E-1    4.921675576630021E-1
 6.565840460250000E9     6.111537797730807E-2    5.630462708150575E-1    5.376394444579883E-2   -1.616640879891381E-2    5.280299504289324E-2   -1.672733459580658E-2    1.851022816110306E-1    4.915585223637058E-1
