#  HZ   S   RI   R     50.00 
! Rohde & Schwarz Vector Network Analyzer 
! Rohde-Schwarz,ZNB20-2Port,1311601062101988,3.16
! Created: UTC 3/20/2024, 5:12:42 PM
! freq[Hz]                re:S11                  im:S11                  re:S21                  im:S21                  re:S12                  im:S12                  re:S22                  im:S22
 6.564751363000000E9    -3.217522929764929E-2    5.681779515850780E-1    3.119292661985050E-2   -2.018011309882198E-3    3.075383961291000E-2   -2.507235952538301E-3    6.960940808591738E-2    5.218092817340697E-1
 6.564763527050000E9    -3.124865610654061E-2    5.681832572275496E-1    3.129622580005238E-2   -2.131231034172074E-3    3.084617532242747E-2   -2.541101192387827E-3    7.079223660645032E-2    5.218742209915888E-1
 6.564775691100000E9    -3.018826777191818E-2    5.683284293306146E-1    3.147463994780973E-2   -2.208242036670958E-3    3.092821775977148E-2   -2.731955031048121E-3    7.179452013761828E-2    5.215573211346807E-1
 6.564787855150000E9    -2.933191611797385E-2    5.684326778199462E-1    3.157295955197514E-2   -2.344007952669582E-3    3.110629832537491E-2   -2.784272844034551E-3    7.300675032207760E-2    5.214399256505136E-1
 6.564800019200000E9    -2.815620549344982E-2    5.682968662160096E-1    3.189397776137292E-2   -2.326455327610261E-3    3.123857944792306E-2   -2.825280085235973E-3    7.403070569676236E-2    5.213679217799462E-1
 6.564812183250000E9    -2.719040279304920E-2    5.684647650183642E-1    3.196830366795939E-2   -2.476689426832955E-3    3.147149553303402E-2   -2.899936915021536E-3    7.527493539621602E-2    5.211790484714557E-1
 6.564824347300000E9    -2.629931198303669E-2    5.683995008904602E-1    3.199147438766186E-2   -2.453033232180203E-3    3.154772162176782E-2   -2.980708364860832E-3    7.631355268089625E-2    5.210935680655032E-1
 6.564836511350000E9    -2.520944514850013E-2    5.684620310819630E-1    3.215202211028936E-2   -2.652358278451704E-3    3.173751062130849E-2   -3.048072899347604E-3    7.744852069397176E-2    5.209486791743513E-1
 6.564848675400000E9    -2.436737028020358E-2    5.684687552361232E-1    3.240497857537623E-2   -2.733264078956208E-3    3.190870306414680E-2   -3.221688270054145E-3    7.860098001048553E-2    5.207147317493779E-1
 6.564860839450000E9    -2.326409792223760E-2    5.684779173790306E-1    3.271648268104470E-2   -2.761162584404626E-3    3.204756752988359E-2   -3.318390914150548E-3    7.973220206014901E-2    5.205258242122180E-1
 6.564873003500000E9    -2.236199230288339E-2    5.685405313549801E-1    3.277928832978445E-2   -2.868703623626952E-3    3.221751846909844E-2   -3.361644547819039E-3    8.070756416896670E-2    5.204321334147022E-1
 6.564885167550000E9    -2.125719696824942E-2    5.685581236715747E-1    3.305268724234491E-2   -2.953998991509593E-3    3.241936293059115E-2   -3.424389995110757E-3    8.192964850675701E-2    5.203658404239956E-1
 6.564897331600000E9    -2.034761290082022E-2    5.685885536170434E-1    3.316070460684983E-2   -2.893457725132504E-3    3.261193700629054E-2   -3.572564617240473E-3    8.316213291149983E-2    5.200908658495411E-1
 6.564909495650000E9    -1.937315245750893E-2    5.686492123233173E-1    3.330111270512819E-2   -3.104090000576282E-3    3.268080148844819E-2   -3.598276780997206E-3    8.415799139996370E-2    5.197773537649337E-1
 6.564921659700000E9    -1.824736660188045E-2    5.687558222382122E-1    3.337727886465842E-2   -3.242406864994201E-3    3.276976606291165E-2   -3.636772863048158E-3    8.542567054825458E-2    5.197564234520174E-1
 6.564933823750000E9    -1.735020579261166E-2    5.685890811548203E-1    3.355886730123701E-2   -3.338304266629348E-3    3.310145800637672E-2   -3.754668044138474E-3    8.667044629556007E-2    5.195056035932970E-1
 6.564945987800000E9    -1.640687920357396E-2    5.687083633262858E-1    3.382132315598285E-2   -3.345902281441398E-3    3.316128829982200E-2   -3.833367264931435E-3    8.771703939755680E-2    5.194022407592420E-1
 6.564958151850000E9    -1.526701537320703E-2    5.686946400736802E-1    3.386736664296509E-2   -3.497240269300049E-3    3.338049227853102E-2   -3.957391184641577E-3    8.882313422988097E-2    5.191042778411584E-1
 6.564970315900000E9    -1.427612504329956E-2    5.686769515558302E-1    3.411628621907839E-2   -3.565640125670871E-3    3.348931194464433E-2   -4.091689169408294E-3    9.002868067640549E-2    5.190261695638740E-1
 6.564982479950000E9    -1.331275495308073E-2    5.686097790488261E-1    3.426456333808064E-2   -3.609798344963055E-3    3.378681208350225E-2   -4.161086516877118E-3    9.112631437196451E-2    5.187580379183635E-1
 6.564994644000000E9    -1.237290547140644E-2    5.688074018268596E-1    3.467465364238694E-2   -3.639819802641757E-3    3.401390145850344E-2   -4.293775535001286E-3    9.215730399035367E-2    5.185696647138968E-1
 6.565006808050000E9    -1.133711638949325E-2    5.686856586616895E-1    3.468452621954687E-2   -3.848400863366064E-3    3.411726043312167E-2   -4.448420887748596E-3    9.358663217720452E-2    5.183730833523554E-1
 6.565018972100000E9    -1.037448420922210E-2    5.686960355738602E-1    3.487388199498573E-2   -3.974261011790630E-3    3.428373905980734E-2   -4.508588905973232E-3    9.463187681323622E-2    5.181030830091898E-1
 6.565031136150000E9    -9.358809218987052E-3    5.687994237984473E-1    3.505832775320650E-2   -4.133461746072039E-3    3.448590693468905E-2   -4.536579997272406E-3    9.584116543745921E-2    5.180062581692694E-1
 6.565043300200000E9    -8.291789936527256E-3    5.688486636396510E-1    3.512614422805295E-2   -4.273826789144933E-3    3.459617793698540E-2   -4.645672841464706E-3    9.694784522580288E-2    5.178242802428721E-1
 6.565055464250000E9    -7.199037800767988E-3    5.687224890068554E-1    3.550836540592170E-2   -4.275016978975468E-3    3.471535529718157E-2   -4.776981775822884E-3    9.810215425624884E-2    5.175556540907702E-1
 6.565067628300000E9    -6.295521360222630E-3    5.687103563199503E-1    3.559564438555864E-2   -4.252930026517128E-3    3.502325167919967E-2   -4.880670099967471E-3    9.933180238777568E-2    5.172532804673216E-1
 6.565079792350000E9    -5.210148856942538E-3    5.686982859630890E-1    3.578918767314471E-2   -4.445885296386108E-3    3.517908260847176E-2   -5.010261549441042E-3    1.005149800212321E-1    5.170939822328747E-1
 6.565091956400000E9    -4.265567665367845E-3    5.688097082259737E-1    3.601182221617800E-2   -4.618820074325776E-3    3.545897201899747E-2   -5.159508772305334E-3    1.018823382618965E-1    5.168931069145236E-1
 6.565104120450000E9    -3.158374822045850E-3    5.686848315082997E-1    3.618676029505630E-2   -4.693225976358018E-3    3.554247178954494E-2   -5.217526874031009E-3    1.028538260709978E-1    5.166183223868179E-1
 6.565116284500000E9    -2.205202438669491E-3    5.687315007870946E-1    3.644464744809555E-2   -4.885655144527536E-3    3.580645966863688E-2   -5.351667422630823E-3    1.040460713036371E-1    5.163971698304738E-1
 6.565128448550000E9    -1.213470287871173E-3    5.687549988071761E-1    3.662702248672325E-2   -4.925135585801680E-3    3.600635204401802E-2   -5.489864722674494E-3    1.053421890541108E-1    5.160833049131335E-1
 6.565140612600000E9    -2.494754177900076E-4    5.686468348587784E-1    3.682916503163075E-2   -5.006298782063784E-3    3.613697896396750E-2   -5.595668463439559E-3    1.064618710782755E-1    5.160107067517846E-1
 6.565152776650000E9     8.287582855083007E-4    5.686337667971340E-1    3.706378535603214E-2   -5.133802831754793E-3    3.637374602509697E-2   -5.788790202549289E-3    1.076994929329871E-1    5.156896443066377E-1
 6.565164940700000E9     1.775734381918723E-3    5.686962637668387E-1    3.717290169814233E-2   -5.189107457802118E-3    3.648097225671492E-2   -5.801071800015504E-3    1.087324973700450E-1    5.154416237499539E-1
 6.565177104750000E9     2.908624564229159E-3    5.685775599512131E-1    3.749129429136154E-2   -5.471879199203229E-3    3.673698465643672E-2   -5.839620201932753E-3    1.100906599909684E-1    5.151965643029169E-1
 6.565189268800000E9     3.889623540344036E-3    5.686290442872624E-1    3.769845070487038E-2   -5.383949012667692E-3    3.698891900791277E-2   -6.069222066818189E-3    1.113974825466562E-1    5.149504748636035E-1
 6.565201432850000E9     4.769384298993086E-3    5.684748154458270E-1    3.784928065029124E-2   -5.603879445731361E-3    3.716670543644215E-2   -6.126428563194740E-3    1.127034693491443E-1    5.147073601931145E-1
 6.565213596900000E9     5.944520151285856E-3    5.684934135312296E-1    3.804738039244861E-2   -5.759025850222903E-3    3.747167588805300E-2   -6.339681958656427E-3    1.137243029530884E-1    5.142913261129843E-1
 6.565225760950000E9     6.857209609024919E-3    5.685542024276030E-1    3.807367016837874E-2   -5.817820367266126E-3    3.766476071988881E-2   -6.473518789688359E-3    1.150157313174292E-1    5.140817403152349E-1
 6.565237925000000E9     7.998065530051354E-3    5.684304158899947E-1    3.842083106517050E-2   -6.085651750955769E-3    3.785283938952792E-2   -6.570641119233398E-3    1.162419151185428E-1    5.136927721102499E-1
 6.565250089050000E9     8.922040268468072E-3    5.683891243645844E-1    3.877752260956405E-2   -5.947237331326248E-3    3.801229736720740E-2   -6.706033582383365E-3    1.176041703750954E-1    5.134107769020947E-1
 6.565262253100000E9     9.912547749778799E-3    5.684129290287222E-1    3.895562630882431E-2   -6.273744677063923E-3    3.839378177686156E-2   -6.781209352056376E-3    1.187580964730112E-1    5.132758891830168E-1
 6.565274417150000E9     1.100347668236078E-2    5.683589008140915E-1    3.923655702482045E-2   -6.511824050127423E-3    3.847725258956498E-2   -7.006970062991467E-3    1.200147661355744E-1    5.129526732433038E-1
 6.565286581200000E9     1.199545054022711E-2    5.683776444797298E-1    3.933171727301685E-2   -6.555603365068012E-3    3.874707703731021E-2   -7.162044068799311E-3    1.213320444512143E-1    5.125757543603247E-1
 6.565298745250000E9     1.312767422237536E-2    5.682688294350779E-1    3.971872720517815E-2   -6.765058674558127E-3    3.895512135399738E-2   -7.286186875380730E-3    1.224435200817029E-1    5.123571917648340E-1
 6.565310909300000E9     1.410335535720452E-2    5.681403615010960E-1    3.986199831081981E-2   -6.960692887201957E-3    3.920244221700590E-2   -7.449361408859100E-3    1.238379771880648E-1    5.121001468497739E-1
 6.565323073350000E9     1.515621705216540E-2    5.681389428366376E-1    4.022496257609090E-2   -7.017353007853370E-3    3.945584380602362E-2   -7.592407001337222E-3    1.250877885704267E-1    5.117757533884997E-1
 6.565335237400000E9     1.622367378946226E-2    5.681840699855547E-1    4.040920923260827E-2   -7.045418338251791E-3    3.978900568097829E-2   -7.630836082853542E-3    1.263020849823612E-1    5.113578733478498E-1
 6.565347401450000E9     1.736812825572807E-2    5.679849759419444E-1    4.055813232863101E-2   -7.332173141590968E-3    3.984550131160953E-2   -7.795069705735952E-3    1.276332251942219E-1    5.110904238729249E-1
 6.565359565500000E9     1.829642157272381E-2    5.680048379092772E-1    4.089419133823068E-2   -7.562682649087209E-3    4.018897215317056E-2   -7.944433930743325E-3    1.288009401758317E-1    5.107720523926637E-1
 6.565371729550000E9     1.939354341402146E-2    5.679096523722986E-1    4.096509097422516E-2   -7.507066257371115E-3    4.044556627461427E-2   -8.069092520161804E-3    1.302293528200825E-1    5.104730300970000E-1
 6.565383893600000E9     2.032957675504939E-2    5.678796853266930E-1    4.141274901838715E-2   -7.729429252874815E-3    4.077491447613765E-2   -8.364467643728597E-3    1.314239771071805E-1    5.101085005971520E-1
 6.565396057650000E9     2.146305906168731E-2    5.677819568220547E-1    4.171070900407157E-2   -7.907414931444612E-3    4.091340865085043E-2   -8.483399730158934E-3    1.328096626487774E-1    5.096017181276352E-1
 6.565408221700000E9     2.250594491507422E-2    5.676561279443250E-1    4.172337198372498E-2   -7.975660221158946E-3    4.118191602667546E-2   -8.578538270537128E-3    1.340833015501799E-1    5.094616922766122E-1
 6.565420385750000E9     2.348231685705191E-2    5.675762442010036E-1    4.205523066811769E-2   -8.134281662641433E-3    4.139103184932669E-2   -8.810999247719645E-3    1.353629383869624E-1    5.090580052587136E-1
 6.565432549800000E9     2.463131814410432E-2    5.675574044296335E-1    4.240390153263528E-2   -8.469454086559433E-3    4.162746619574811E-2   -8.844641601343203E-3    1.366837658860874E-1    5.085731108898721E-1
 6.565444713850000E9     2.568234155588158E-2    5.674246242544377E-1    4.270251489056082E-2   -8.505070661268403E-3    4.193763359900442E-2   -9.170220331390914E-3    1.380885844474204E-1    5.083331075386122E-1
 6.565456877900000E9     2.660541408866523E-2    5.673652238340083E-1    4.290704186994492E-2   -8.679670404429444E-3    4.220189339985093E-2   -9.242346884681495E-3    1.394635121387550E-1    5.079036656716341E-1
 6.565469041950000E9     2.765887983655707E-2    5.673176947291945E-1    4.321649304426418E-2   -8.972471508488036E-3    4.256522071708670E-2   -9.497856445525038E-3    1.408204050403229E-1    5.074428257255441E-1
 6.565481206000000E9     2.875020121470152E-2    5.671637210146988E-1    4.344306438536355E-2   -8.915033015195837E-3    4.283759450577118E-2   -9.589214693536866E-3    1.420856868050517E-1    5.069832167224420E-1
 6.565493370050000E9     2.982548495868361E-2    5.671544697803621E-1    4.367876854536668E-2   -9.404698244902086E-3    4.302793996520321E-2   -9.792424004480365E-3    1.432736176772253E-1    5.065540507958857E-1
 6.565505534100000E9     3.080881884319472E-2    5.669565891364016E-1    4.406601121848280E-2   -9.350750648511154E-3    4.325313479555343E-2   -9.969332294707528E-3    1.448359934569534E-1    5.063073356464706E-1
 6.565517698150000E9     3.199225450686900E-2    5.669454109511609E-1    4.437983560491178E-2   -9.712725372813657E-3    4.361354120873201E-2   -1.011747640779427E-2    1.461846398686427E-1    5.057871005783472E-1
 6.565529862200000E9     3.294684508334512E-2    5.668502596339022E-1    4.468733061109390E-2   -9.688198345055082E-3    4.391118934855501E-2   -1.035361526122776E-2    1.475272900688180E-1    5.055070421139616E-1
 6.565542026250000E9     3.414502805557527E-2    5.667491870465480E-1    4.490646011475535E-2   -9.995199195120910E-3    4.413740701048201E-2   -1.064698258597302E-2    1.487499366652386E-1    5.050724820922857E-1
 6.565554190300000E9     3.517963556581392E-2    5.667021654383976E-1    4.520621961388948E-2   -1.012350799172413E-2    4.439671361476084E-2   -1.083329578476545E-2    1.501115524577913E-1    5.046769581950825E-1
 6.565566354350000E9     3.624481192120464E-2    5.665244174521217E-1    4.550809305389353E-2   -1.035851535750686E-2    4.481524601726559E-2   -1.093409583011708E-2    1.514864619617853E-1    5.040675695142043E-1
 6.565578518400000E9     3.722290262295248E-2    5.663281302685405E-1    4.572646320848954E-2   -1.055693885614405E-2    4.513874167410972E-2   -1.113647643875021E-2    1.530989701529273E-1    5.037955905179415E-1
 6.565590682450000E9     3.847580722293252E-2    5.662139030306924E-1    4.616654181155522E-2   -1.088871656756817E-2    4.541042012122935E-2   -1.145332100271287E-2    1.542776784954264E-1    5.030262010957555E-1
 6.565602846500000E9     3.948558562124390E-2    5.662589361248431E-1    4.645894251693004E-2   -1.091212256543220E-2    4.566074764244311E-2   -1.155448504156319E-2    1.557246059508492E-1    5.027545130682949E-1
 6.565615010550000E9     4.054082431725147E-2    5.660543655645269E-1    4.677057028542866E-2   -1.117321389515052E-2    4.594693058198915E-2   -1.190696509664702E-2    1.571535235524696E-1    5.023706451256805E-1
 6.565627174600000E9     4.167596103756407E-2    5.658418018920435E-1    4.709286826955320E-2   -1.137304924265305E-2    4.639408936667886E-2   -1.195231678734099E-2    1.586638438443600E-1    5.018132400840991E-1
 6.565639338650000E9     4.275042935826616E-2    5.657316106740282E-1    4.737295024256277E-2   -1.172752551249988E-2    4.663719346043328E-2   -1.228262184067410E-2    1.599680468341819E-1    5.013267777681759E-1
 6.565651502700000E9     4.379238510751517E-2    5.656664631563491E-1    4.769781285106132E-2   -1.174757394106002E-2    4.693175884208640E-2   -1.254813353434668E-2    1.615097393484765E-1    5.006899585786333E-1
 6.565663666750000E9     4.486199997760550E-2    5.656556360799715E-1    4.822678048984524E-2   -1.197756412937654E-2    4.725784863990939E-2   -1.260198776354590E-2    1.630292016789278E-1    5.003299254361465E-1
 6.565675830800000E9     4.595484381748523E-2    5.653031865652469E-1    4.852113395704359E-2   -1.237697100384872E-2    4.771740810780870E-2   -1.283660231462034E-2    1.643615854820302E-1    4.997467869610343E-1
 6.565687994850000E9     4.701516142719028E-2    5.651934581975795E-1    4.879455166319291E-2   -1.268175059689501E-2    4.804656590520270E-2   -1.317321662690805E-2    1.658556640340264E-1    4.991074459847913E-1
 6.565700158900000E9     4.815772138596679E-2    5.650803591209375E-1    4.924894875390991E-2   -1.284113408764712E-2    4.837687023639019E-2   -1.352335594771271E-2    1.672928218366497E-1    4.985961623273897E-1
 6.565712322950000E9     4.933955493400678E-2    5.648474953193701E-1    4.959221684060709E-2   -1.306201001745085E-2    4.869685359110417E-2   -1.362071373921009E-2    1.688284947177000E-1    4.980675516992966E-1
 6.565724487000000E9     5.036994193042159E-2    5.648016202512868E-1    4.983453603075100E-2   -1.321739649334097E-2    4.909987674626076E-2   -1.397521022782969E-2    1.702172755519905E-1    4.975779904930021E-1
 6.565736651050000E9     5.137974016439283E-2    5.644875653022048E-1    5.023379911263369E-2   -1.350719071786502E-2    4.939137049068545E-2   -1.415629530142655E-2    1.717166450271299E-1    4.968893501770046E-1
 6.565748815100000E9     5.259490106114260E-2    5.644561224688113E-1    5.061331743663451E-2   -1.395067882680384E-2    4.973002008374736E-2   -1.444838357340927E-2    1.733596891661723E-1    4.964158807563562E-1
 6.565760979150000E9     5.368258501809504E-2    5.643054058189003E-1    5.103941124818343E-2   -1.419872240477712E-2    5.011715670759490E-2   -1.482839541082769E-2    1.749305287878425E-1    4.958817497846879E-1
 6.565773143200000E9     5.472652344602225E-2    5.641268718342756E-1    5.122790404800251E-2   -1.435803080154299E-2    5.049747158206450E-2   -1.507116852996124E-2    1.764556629292775E-1    4.951350336182142E-1
 6.565785307250000E9     5.592301214265046E-2    5.638504584845146E-1    5.181846435092328E-2   -1.468004091154307E-2    5.091797304312418E-2   -1.526163425818739E-2    1.778893964874547E-1    4.945522955085493E-1
 6.565797471300000E9     5.712314951645300E-2    5.637137420695885E-1    5.202983069862020E-2   -1.496130538168697E-2    5.129988048026184E-2   -1.569219277769657E-2    1.794701431563334E-1    4.939567545812255E-1
 6.565809635350000E9     5.821571174615783E-2    5.635536896899669E-1    5.259320269000348E-2   -1.528352071186336E-2    5.161286203253824E-2   -1.592317308477466E-2    1.810283240366748E-1    4.932769095834644E-1
 6.565821799400000E9     5.934717707297565E-2    5.633683879480439E-1    5.300115849611876E-2   -1.553238833580023E-2    5.208285021284038E-2   -1.624297433663344E-2    1.825325936289903E-1    4.926592788458464E-1
 6.565833963450000E9     6.053675140568444E-2    5.631118073359067E-1    5.342462215558983E-2   -1.580265298926387E-2    5.250975535865367E-2   -1.649998031780169E-2    1.841313640641044E-1    4.921082652015115E-1
 6.565846127500000E9     6.156362278082852E-2    5.629811156475739E-1    5.369849367468668E-2   -1.620547493770515E-2    5.289509750315847E-2   -1.684799438510465E-2    1.858737141519400E-1    4.912780402646394E-1
