#  HZ   S   RI   R     50.00 
! Rohde & Schwarz Vector Network Analyzer 
! Rohde-Schwarz,ZNB20-2Port,1311601062101988,3.16
! Created: UTC 3/20/2024, 4:57:49 PM
! freq[Hz]                re:S11                  im:S11                  re:S21                  im:S21                  re:S12                  im:S12                  re:S22                  im:S22
 6.564204441000000E9    -7.426261484232077E-2    5.643253264880820E-1    2.703045551758235E-2    2.248986361726214E-4    2.665136663375343E-2   -2.277053803694141E-4    2.565182251894638E-2    5.258519617174271E-1
 6.564218500475000E9    -7.313950752925465E-2    5.644737420365631E-1    2.711667618032401E-2    2.210595636583852E-7    2.677407332281689E-2   -3.076872676341461E-4    2.682467481736674E-2    5.258991946268186E-1
 6.564232559950000E9    -7.208597550445194E-2    5.645607918605805E-1    2.721116717283033E-2    6.685842296078192E-5    2.684499522663085E-2   -4.848227668574363E-4    2.795302644510542E-2    5.257762643990564E-1
 6.564246619425000E9    -7.096986109176434E-2    5.647261604544945E-1    2.744377305862883E-2    4.712449972664346E-5    2.699243411340531E-2   -4.936942440285958E-4    2.902318996699831E-2    5.259114566199268E-1
 6.564260678900000E9    -6.994623973898544E-2    5.648584411385363E-1    2.774392267692575E-2   -1.051102212791500E-4    2.711678348534059E-2   -5.837720387730760E-4    3.038404183772118E-2    5.257414206048135E-1
 6.564274738375000E9    -6.880764991353955E-2    5.650852819185582E-1    2.777916989702633E-2   -2.484116722065359E-4    2.722603820656874E-2   -7.217827333832550E-4    3.156456598195301E-2    5.256886940600914E-1
 6.564288797850000E9    -6.776609601084374E-2    5.650570804167806E-1    2.793727955212932E-2   -2.439205951691434E-4    2.748040087342584E-2   -7.212429270384346E-4    3.270286960766038E-2    5.256280712963824E-1
 6.564302857325000E9    -6.653776506586402E-2    5.651487898153298E-1    2.813471238233739E-2   -1.453470572535910E-4    2.753822722852332E-2   -8.441145526857440E-4    3.407954195720931E-2    5.255515803950332E-1
 6.564316916800000E9    -6.545028066239554E-2    5.652486528572530E-1    2.816512803427105E-2   -2.964507411334082E-4    2.774902548446448E-2   -8.974093288174068E-4    3.524814404657058E-2    5.256070471576965E-1
 6.564330976275000E9    -6.436216728928033E-2    5.654041381579590E-1    2.842077994587738E-2   -3.893741982466526E-4    2.791405075963230E-2   -9.383876705777623E-4    3.646334809838494E-2    5.253307437048419E-1
 6.564345035750000E9    -6.333145392066532E-2    5.656322774282728E-1    2.844400604005550E-2   -5.795425922966877E-4    2.804771174954004E-2   -9.648841862267969E-4    3.774852172659401E-2    5.251991948093248E-1
 6.564359095225000E9    -6.212146313389139E-2    5.657042365837013E-1    2.855177240734710E-2   -5.355107506290373E-4    2.814971405485245E-2   -1.124493866108280E-3    3.877196920925868E-2    5.252058787126088E-1
 6.564373154700000E9    -6.095223871891695E-2    5.657037352496664E-1    2.879671359594313E-2   -7.087466011861141E-4    2.836096685827870E-2   -1.108994514871962E-3    4.010447742432180E-2    5.252022171350453E-1
 6.564387214175000E9    -5.982507205878028E-2    5.658650223549545E-1    2.893198800131187E-2   -7.547391605581454E-4    2.848877470977111E-2   -1.231305702624692E-3    4.134396453346250E-2    5.250420805475956E-1
 6.564401273650000E9    -5.868823545803579E-2    5.659127627559045E-1    2.907040573131503E-2   -8.227179849359683E-4    2.858953839782523E-2   -1.351636410994542E-3    4.255286005270018E-2    5.251305093329554E-1
 6.564415333125000E9    -5.766230509997461E-2    5.661383523720724E-1    2.919492965926710E-2   -9.356809621738834E-4    2.882631558473586E-2   -1.359463628285637E-3    4.376126286933368E-2    5.249179041865780E-1
 6.564429392600000E9    -5.655173343167100E-2    5.662788776079619E-1    2.937909764619732E-2   -9.643820189482657E-4    2.898209864387347E-2   -1.521056846107302E-3    4.506641911553273E-2    5.247156121933256E-1
 6.564443452075000E9    -5.540690368139678E-2    5.663684167196742E-1    2.965314356522458E-2   -9.924399711704189E-4    2.908413060783128E-2   -1.591181108106933E-3    4.626100430865510E-2    5.247120909030940E-1
 6.564457511550000E9    -5.424339228357054E-2    5.664112048475740E-1    2.963947758031997E-2   -1.067010226624799E-3    2.923893741248671E-2   -1.607844159565097E-3    4.764640421682920E-2    5.247321846595813E-1
 6.564471571025000E9    -5.315348042171092E-2    5.664426710510801E-1    2.980480185566773E-2   -1.193734428332341E-3    2.936605393478780E-2   -1.642004295564079E-3    4.879154441674848E-2    5.245409081870926E-1
 6.564485630500000E9    -5.198776179780634E-2    5.667110630050162E-1    3.001731435135130E-2   -1.384389374846636E-3    2.952386361728210E-2   -1.847115391821177E-3    5.017679390017035E-2    5.244716303057290E-1
 6.564499689975000E9    -5.084387939333504E-2    5.667023170029235E-1    3.021912143061632E-2   -1.269358636911729E-3    2.960597548012262E-2   -1.810697331444404E-3    5.141941125891408E-2    5.243910555948110E-1
 6.564513749450000E9    -4.979733311455325E-2    5.667794095852668E-1    3.038841597380286E-2   -1.524118174778977E-3    2.981684749640249E-2   -1.909037902733285E-3    5.252193538670616E-2    5.240504496405727E-1
 6.564527808925000E9    -4.874574025718884E-2    5.669249416439341E-1    3.038345547994440E-2   -1.641336427474651E-3    2.996957424478513E-2   -2.056185813813089E-3    5.389807100442052E-2    5.239484482714747E-1
 6.564541868400000E9    -4.747660298647077E-2    5.669484935465922E-1    3.065626274395666E-2   -1.708656529818266E-3    3.021566752362815E-2   -2.204531154215159E-3    5.513506685856014E-2    5.240390216047139E-1
 6.564555927875000E9    -4.633810976788314E-2    5.670920791547295E-1    3.082925803075890E-2   -1.726772165188749E-3    3.034779374286870E-2   -2.266420742197917E-3    5.640079518307526E-2    5.235855998670597E-1
 6.564569987350000E9    -4.517157443691751E-2    5.671622142976658E-1    3.096066081936767E-2   -1.778854408074758E-3    3.047209352911054E-2   -2.319679835202738E-3    5.767140453643088E-2    5.237288836928411E-1
 6.564584046825000E9    -4.417175415871938E-2    5.671130993935475E-1    3.118604723550589E-2   -1.915212426182009E-3    3.066040881389578E-2   -2.355107211904291E-3    5.900170653588607E-2    5.234754202210814E-1
 6.564598106300000E9    -4.299962595562568E-2    5.672615059291767E-1    3.144575788501196E-2   -1.911793719678511E-3    3.076078787767885E-2   -2.492358218975398E-3    6.012974486973652E-2    5.233991129349177E-1
 6.564612165775000E9    -4.189923664455381E-2    5.673634788516920E-1    3.163394530485681E-2   -2.089003578178596E-3    3.106297569694547E-2   -2.651385241970456E-3    6.147649128341366E-2    5.233489628544894E-1
 6.564626225250000E9    -4.078184561912261E-2    5.674432699214849E-1    3.169965680457720E-2   -2.180351983366787E-3    3.113187321076932E-2   -2.573735999126781E-3    6.268675172012945E-2    5.231263442416807E-1
 6.564640284725000E9    -3.961012996012794E-2    5.674154827575086E-1    3.197568464545825E-2   -2.244058962148899E-3    3.128305186875253E-2   -2.798598737549764E-3    6.414038182332267E-2    5.229492400449337E-1
 6.564654344200000E9    -3.844278544345243E-2    5.675125020352758E-1    3.211774705650861E-2   -2.359526555336828E-3    3.157406708841503E-2   -2.789526990491451E-3    6.534435196890941E-2    5.228044339711958E-1
 6.564668403675000E9    -3.725882280207318E-2    5.676700788590555E-1    3.238581858818494E-2   -2.513293801069958E-3    3.164872380219808E-2   -3.073513574519719E-3    6.671247168001447E-2    5.226133231875747E-1
 6.564682463150000E9    -3.607992606498646E-2    5.677142172902087E-1    3.238459737923693E-2   -2.586737789366483E-3    3.187959603196084E-2   -3.083300515824162E-3    6.784636086735316E-2    5.225021514065711E-1
 6.564696522625000E9    -3.498899683844205E-2    5.676817079338531E-1    3.257653573863876E-2   -2.620279395215491E-3    3.211454525021887E-2   -3.082644102053000E-3    6.934831570526222E-2    5.222815248561211E-1
 6.564710582100000E9    -3.395397785594497E-2    5.678099176221628E-1    3.266217182649188E-2   -2.777491627549997E-3    3.214845898899018E-2   -3.284088239817027E-3    7.064342718927051E-2    5.221815209534064E-1
 6.564724641575000E9    -3.275916925031366E-2    5.678526941108227E-1    3.311339104362942E-2   -2.901074223565017E-3    3.244550016500767E-2   -3.414438997284403E-3    7.189640948103507E-2    5.218485662333177E-1
 6.564738701050000E9    -3.160694048949868E-2    5.678709316136017E-1    3.325752266175666E-2   -2.980895990327077E-3    3.274829344249450E-2   -3.416640847432249E-3    7.321967217910912E-2    5.218242414973699E-1
 6.564752760525000E9    -3.037387658801250E-2    5.679511482580929E-1    3.337404082543182E-2   -2.970438775390243E-3    3.290643300791828E-2   -3.591241735477222E-3    7.449359631328806E-2    5.214709728259088E-1
 6.564766820000000E9    -2.923332989252290E-2    5.679484511638889E-1    3.368211945578738E-2   -3.237345077449174E-3    3.304009762477391E-2   -3.641503811581146E-3    7.585663988119395E-2    5.214508491812565E-1
 6.564780879475000E9    -2.822288083390539E-2    5.680722123841196E-1    3.375263933126215E-2   -3.357861753588907E-3    3.322943532003171E-2   -3.815732912585418E-3    7.723746826356780E-2    5.212262496575080E-1
 6.564794938950000E9    -2.693212448099665E-2    5.680805096356559E-1    3.392389433563776E-2   -3.345548502138701E-3    3.333939484580575E-2   -3.948622602899191E-3    7.844865713744026E-2    5.209783680403425E-1
 6.564808998425000E9    -2.588888212563537E-2    5.680962611843767E-1    3.428389437310058E-2   -3.540047758624302E-3    3.360291836258035E-2   -4.034721522100960E-3    7.995269016020226E-2    5.205951714810774E-1
 6.564823057900000E9    -2.469476791947206E-2    5.680964265367172E-1    3.429944956500534E-2   -3.675573832929751E-3    3.382603761384326E-2   -4.171558842719384E-3    8.123733720021807E-2    5.204927356202842E-1
 6.564837117375000E9    -2.352568865110938E-2    5.681477598181156E-1    3.453989567903647E-2   -3.756351505097896E-3    3.402592278274709E-2   -4.265495107487544E-3    8.244890984792745E-2    5.203674389771057E-1
 6.564851176850000E9    -2.233493953892290E-2    5.682408199651137E-1    3.484510916762699E-2   -3.864531971204988E-3    3.429353836333887E-2   -4.386498455782754E-3    8.396865329924436E-2    5.200881342489582E-1
 6.564865236325000E9    -2.126416958524643E-2    5.681228696129254E-1    3.513511269261393E-2   -3.914438868031151E-3    3.449527726970923E-2   -4.507232570197060E-3    8.527915886277203E-2    5.199196580050482E-1
 6.564879295800000E9    -2.022785805362690E-2    5.681763625118393E-1    3.530502948390285E-2   -4.045075789666300E-3    3.474319849140160E-2   -4.606117920794226E-3    8.660027464974061E-2    5.195922574507135E-1
 6.564893355275000E9    -1.890446792091215E-2    5.683107288845463E-1    3.547840593072434E-2   -4.256278946835404E-3    3.483176470775950E-2   -4.752250341175802E-3    8.798482775280742E-2    5.194965287591273E-1
 6.564907414750000E9    -1.774695244374834E-2    5.683122819696814E-1    3.580654525811708E-2   -4.200547145342212E-3    3.505019625045146E-2   -4.992786645744680E-3    8.929808993788478E-2    5.192448892435847E-1
 6.564921474225000E9    -1.658873515332435E-2    5.682989317212190E-1    3.588538563598635E-2   -4.490087656026255E-3    3.526294296290725E-2   -4.956568100209936E-3    9.077907083244975E-2    5.189047421121382E-1
 6.564935533700000E9    -1.534855031976408E-2    5.683005235735035E-1    3.623389109658283E-2   -4.697261727570343E-3    3.546267739392275E-2   -5.088719412407908E-3    9.207493790961579E-2    5.188216099672569E-1
 6.564949593175000E9    -1.419808982012522E-2    5.683620605152322E-1    3.625687389666941E-2   -4.748524508852668E-3    3.581975787150193E-2   -5.301623874390865E-3    9.358721954888992E-2    5.183979219623973E-1
 6.564963652650000E9    -1.309861841164105E-2    5.682485935171144E-1    3.672197620186520E-2   -4.901561049743267E-3    3.600475478065811E-2   -5.385677974753713E-3    9.473347155564624E-2    5.180581347813977E-1
 6.564977712125000E9    -1.181232964908346E-2    5.682980256028560E-1    3.691397040659848E-2   -5.024036127749706E-3    3.626333723839689E-2   -5.522405369375072E-3    9.615442829526646E-2    5.177624763768357E-1
 6.564991771600000E9    -1.075007929202234E-2    5.683046236097927E-1    3.704441694442115E-2   -5.027120309876972E-3    3.643941518165618E-2   -5.639567627958794E-3    9.747788842922181E-2    5.175362693752058E-1
 6.565005831075000E9    -9.518534770838463E-3    5.683292276400596E-1    3.726395325491878E-2   -5.192633129396231E-3    3.666637494570742E-2   -5.840226663496019E-3    9.907551281030533E-2    5.172645339223784E-1
 6.565019890550000E9    -8.391322635730229E-3    5.683616424718231E-1    3.758620309229349E-2   -5.533586196208604E-3    3.686358747131316E-2   -5.919592597622425E-3    1.003846628889707E-1    5.169779414845717E-1
 6.565033950025000E9    -7.063360159267216E-3    5.682588736014011E-1    3.771310121817987E-2   -5.534600544798182E-3    3.711991805873303E-2   -6.122300680771506E-3    1.018501064581843E-1    5.166863121525954E-1
 6.565048009500000E9    -6.061881326140284E-3    5.681186567641158E-1    3.811240689551830E-2   -5.718452596331340E-3    3.747123615650565E-2   -6.236702030406340E-3    1.032499299344720E-1    5.165282647158260E-1
 6.565062068975000E9    -4.789053299504958E-3    5.681329069118682E-1    3.825963766455766E-2   -5.896833839581565E-3    3.758386375998919E-2   -6.447378254721465E-3    1.046937636332716E-1    5.161806067555297E-1
 6.565076128450000E9    -3.662609146666733E-3    5.681238044675558E-1    3.853984173861341E-2   -6.089241988410555E-3    3.798187586781125E-2   -6.601981845659934E-3    1.061192480744521E-1    5.158022573702485E-1
 6.565090187925000E9    -2.402198845684056E-3    5.681232347952206E-1    3.883993162384491E-2   -6.248100845792037E-3    3.813518876004947E-2   -6.660433701598229E-3    1.076029008886297E-1    5.154088983094705E-1
 6.565104247400000E9    -1.238798993731327E-3    5.681153795363021E-1    3.916682595922892E-2   -6.313537734117750E-3    3.845850640516860E-2   -6.949056065371855E-3    1.089319008069807E-1    5.152031601794704E-1
 6.565118306875000E9    -9.076714736011744E-5    5.680151553692430E-1    3.935992575670759E-2   -6.550236726069487E-3    3.869892446676367E-2   -7.139978368777155E-3    1.104237067247835E-1    5.147572066998400E-1
 6.565132366350000E9     1.189369680486399E-3    5.681048482314054E-1    3.974630127493069E-2   -6.699636001973860E-3    3.895416202449507E-2   -7.162685056653358E-3    1.118522947473404E-1    5.145250960524119E-1
 6.565146425825000E9     2.358856890224421E-3    5.680673665454555E-1    3.987330855504737E-2   -6.882161388814743E-3    3.913051588857110E-2   -7.373442942337547E-3    1.133414954068352E-1    5.141793722815499E-1
 6.565160485300000E9     3.507539778398858E-3    5.679918779508853E-1    4.016776222964630E-2   -7.087601006211324E-3    3.949817791591471E-2   -7.538828872836370E-3    1.148365617922083E-1    5.138201081363071E-1
 6.565174544775000E9     4.675523661036175E-3    5.679378200951000E-1    4.054502525003147E-2   -7.250358469415772E-3    3.970526053144240E-2   -7.793282528449592E-3    1.161657553239007E-1    5.133250059402383E-1
 6.565188604250000E9     5.825071682761018E-3    5.678563634379868E-1    4.066132029256862E-2   -7.417219172926423E-3    3.996190925243569E-2   -7.950021309073175E-3    1.177592610420889E-1    5.130107321348185E-1
 6.565202663725000E9     7.133532152892980E-3    5.678135162774638E-1    4.105969392850838E-2   -7.596687948650615E-3    4.017740741053525E-2   -8.158092067959227E-3    1.190296610635129E-1    5.126955497030735E-1
 6.565216723200000E9     8.337294399722995E-3    5.677562943369617E-1    4.129603273293628E-2   -7.715446915800160E-3    4.052678111402241E-2   -8.363160809966711E-3    1.208246018013874E-1    5.122419217370190E-1
 6.565230782675000E9     9.509022191437559E-3    5.677055452286212E-1    4.151362204432846E-2   -7.900698477846043E-3    4.088956008117733E-2   -8.631502744193657E-3    1.221363117055585E-1    5.118664970198561E-1
 6.565244842150000E9     1.082894278661423E-2    5.676953704017808E-1    4.184323717744171E-2   -8.211518023032528E-3    4.116612897605438E-2   -8.642938126300685E-3    1.237482236147821E-1    5.113277620105559E-1
 6.565258901625000E9     1.198504335066109E-2    5.676553559277560E-1    4.216148566821155E-2   -8.292812380593801E-3    4.144298045149847E-2   -8.812224879650343E-3    1.251422722113905E-1    5.110102578855920E-1
 6.565272961100000E9     1.313342252939464E-2    5.674890061651962E-1    4.253078516478150E-2   -8.599815279334670E-3    4.179872744837779E-2   -9.156008493896568E-3    1.267667535108363E-1    5.106212252728153E-1
 6.565287020575000E9     1.439978688564656E-2    5.674737674722777E-1    4.273002600125941E-2   -8.702966063849935E-3    4.202031040272792E-2   -9.249828264524978E-3    1.283801837195194E-1    5.101954808360966E-1
 6.565301080050000E9     1.561358243734796E-2    5.674083251762503E-1    4.316388895365598E-2   -8.944501797731782E-3    4.233399866086120E-2   -9.481128636904354E-3    1.296842611664117E-1    5.097407933720255E-1
 6.565315139525000E9     1.678264411423898E-2    5.672713269792680E-1    4.349287700411197E-2   -9.300288453997822E-3    4.260603168703104E-2   -9.610658650909504E-3    1.312837269169624E-1    5.091764981708815E-1
 6.565329199000000E9     1.800368735570726E-2    5.672732150706753E-1    4.374360151323019E-2   -9.369591261514659E-3    4.312488510553462E-2   -9.935441055927788E-3    1.329454720368911E-1    5.087430889703304E-1
 6.565343258475000E9     1.928403103225874E-2    5.670445256265700E-1    4.403599326960665E-2   -9.569188287211086E-3    4.332147892623844E-2   -1.016204309557576E-2    1.344193622395946E-1    5.083121806163871E-1
 6.565357317950000E9     2.053048279638682E-2    5.670557537900677E-1    4.441739027582151E-2   -9.948737808287226E-3    4.358935275747539E-2   -1.032226955651021E-2    1.359367090146096E-1    5.079126044975977E-1
 6.565371377425000E9     2.170042571371314E-2    5.668876567087301E-1    4.480613581939127E-2   -9.977670651197652E-3    4.397711373506416E-2   -1.056706881479650E-2    1.375473562596275E-1    5.073861171342938E-1
 6.565385436900000E9     2.289211578200424E-2    5.667379102813755E-1    4.505562951210165E-2   -1.019944345807562E-2    4.434806703463729E-2   -1.084979347130746E-2    1.392241222376483E-1    5.068427260999702E-1
 6.565399496375000E9     2.414454308165188E-2    5.667519582984074E-1    4.543422696949313E-2   -1.039648785257057E-2    4.463835239701288E-2   -1.111308553926678E-2    1.406721594197134E-1    5.064092661018467E-1
 6.565413555850000E9     2.542393152441435E-2    5.666399097065686E-1    4.574548412222196E-2   -1.057228688798293E-2    4.499638180892838E-2   -1.133637145933847E-2    1.424281934589823E-1    5.060281277252225E-1
 6.565427615325000E9     2.672914112738459E-2    5.664810709948830E-1    4.612284256693707E-2   -1.098648358864955E-2    4.531920595086070E-2   -1.165166434474398E-2    1.440667999850810E-1    5.053634025992807E-1
 6.565441674800000E9     2.791424325455426E-2    5.663994067349625E-1    4.656287968875993E-2   -1.133100060298779E-2    4.575731461782675E-2   -1.191599077610702E-2    1.456399392215451E-1    5.049088459017321E-1
 6.565455734275000E9     2.929133001716324E-2    5.661155848823551E-1    4.685432923738974E-2   -1.150938253315801E-2    4.602647477759137E-2   -1.214984595608110E-2    1.473382353032375E-1    5.041660590912852E-1
 6.565469793750000E9     3.039413670273164E-2    5.661845280626360E-1    4.729239291655015E-2   -1.186554848434039E-2    4.651723495289219E-2   -1.246079770404910E-2    1.489219049080855E-1    5.036323466851754E-1
