#  HZ   S   RI   R     50.00 
! Rohde & Schwarz Vector Network Analyzer 
! Rohde-Schwarz,ZNB20-2Port,1311601062101988,3.16
! Created: UTC 3/20/2024, 4:57:59 PM
! freq[Hz]                re:S11                  im:S11                  re:S21                  im:S21                  re:S12                  im:S12                  re:S22                  im:S22
 6.564196885000000E9    -7.495181376761625E-2    5.642370319014632E-1    2.710927874253184E-2    2.048676108095738E-4    2.656584518724870E-2   -2.672340204869639E-4    2.490931017874734E-2    5.259126568258899E-1
 6.564210974750000E9    -7.385170470468219E-2    5.643542220781079E-1    2.712704387120275E-2    6.347936203759963E-5    2.665264447096195E-2   -4.979001061742350E-4    2.613228105177901E-2    5.259208403439557E-1
 6.564225064500000E9    -7.264101621999933E-2    5.643653785327741E-1    2.727598507513938E-2    5.099117635559361E-5    2.682554238465476E-2   -4.173378023297390E-4    2.727314166328679E-2    5.256869753767603E-1
 6.564239154250000E9    -7.156991133231838E-2    5.645953287805496E-1    2.742455757191858E-2   -3.119485799407109E-5    2.690405701629095E-2   -5.741319843971813E-4    2.862023118502215E-2    5.256391348255209E-1
 6.564253244000000E9    -7.033798020887980E-2    5.647875808863614E-1    2.755855438384624E-2   -1.863321596287187E-4    2.714081211200617E-2   -5.375895588833490E-4    2.965853251531825E-2    5.255981697581825E-1
 6.564267333750000E9    -6.936803944015990E-2    5.648796968055130E-1    2.772632214095042E-2   -1.590626303679071E-4    2.726113102917720E-2   -5.853590760197370E-4    3.082973424848545E-2    5.255815364137889E-1
 6.564281423500000E9    -6.815213626272411E-2    5.649154509445665E-1    2.792411452013982E-2   -1.446697235964146E-4    2.735938498961218E-2   -6.735352287587608E-4    3.217379534422660E-2    5.256415388367300E-1
 6.564295513250000E9    -6.706020642859165E-2    5.651900448023287E-1    2.797909761065653E-2   -3.250920251372008E-4    2.759770444651922E-2   -6.539492364750347E-4    3.341589649582360E-2    5.256956818601142E-1
 6.564309603000000E9    -6.609842991719828E-2    5.652128505050129E-1    2.819402230010257E-2   -3.729691440282160E-4    2.762013301004905E-2   -8.910326610466595E-4    3.473236038356339E-2    5.255719224371619E-1
 6.564323692750000E9    -6.478732392472611E-2    5.654335100306508E-1    2.823277442211661E-2   -3.356375390018345E-4    2.775242894625723E-2   -9.213701976778612E-4    3.589442153808723E-2    5.254191031426295E-1
 6.564337782500000E9    -6.374317288983404E-2    5.654414774343358E-1    2.845334257762014E-2   -4.317279377864582E-4    2.788367557874794E-2   -9.937810388126384E-4    3.702429977337760E-2    5.252348739902545E-1
 6.564351872250000E9    -6.267866426377350E-2    5.656118110365714E-1    2.861804125528928E-2   -5.760979108094425E-4    2.801301920642909E-2   -9.964649120634171E-4    3.830040293474764E-2    5.252655768726244E-1
 6.564365962000000E9    -6.150784544782156E-2    5.657755673702884E-1    2.883621521400507E-2   -5.866006249826598E-4    2.825446527294549E-2   -1.057793740787969E-3    3.961833615420167E-2    5.252303550531695E-1
 6.564380051750000E9    -6.052564971870131E-2    5.658595225814034E-1    2.892224977033940E-2   -7.220057254653396E-4    2.834803842854460E-2   -1.169393796864646E-3    4.079586415884062E-2    5.252404571798179E-1
 6.564394141500000E9    -5.936451130931920E-2    5.659472283459267E-1    2.901982880786085E-2   -8.448340522787588E-4    2.855222950577677E-2   -1.342986557377443E-3    4.205389033283093E-2    5.249420769910776E-1
 6.564408231250000E9    -5.816107975454947E-2    5.660284876733842E-1    2.907654746976206E-2   -7.779254772317731E-4    2.868561035879513E-2   -1.347842809957841E-3    4.314446629683851E-2    5.250452278797034E-1
 6.564422321000000E9    -5.697967937086219E-2    5.661750413706572E-1    2.929698526630065E-2   -1.004552833649965E-3    2.886914904048297E-2   -1.437690125164227E-3    4.454614598290416E-2    5.248253564133768E-1
 6.564436410750000E9    -5.598447931823140E-2    5.663277442799475E-1    2.969002892809119E-2   -9.084762084584203E-4    2.904361758683998E-2   -1.508677699800096E-3    4.582557990349970E-2    5.247146300894888E-1
 6.564450500500000E9    -5.483780261264441E-2    5.663515287684217E-1    2.967346433484667E-2   -1.086451763028489E-3    2.911260595755476E-2   -1.634299976126419E-3    4.702110920005366E-2    5.247513863694437E-1
 6.564464590250000E9    -5.370978535187037E-2    5.663861603178287E-1    2.979515272058452E-2   -1.227870045473450E-3    2.931717974962397E-2   -1.691858372094574E-3    4.812986481287734E-2    5.245116967360455E-1
 6.564478680000000E9    -5.257655551371783E-2    5.665520799794799E-1    2.989173041188593E-2   -1.383912736803214E-3    2.943967150073184E-2   -1.714160110550960E-3    4.959187369382698E-2    5.244642241811822E-1
 6.564492769750000E9    -5.148957707648743E-2    5.666412878741547E-1    3.011384046871214E-2   -1.299257733712199E-3    2.954066596442416E-2   -1.824442647288516E-3    5.077524074735842E-2    5.242999232217362E-1
 6.564506859500000E9    -5.027848932952188E-2    5.666893460892194E-1    3.039081528633772E-2   -1.503865099241059E-3    2.979498291372237E-2   -1.827048812711146E-3    5.201458522543125E-2    5.241661749527453E-1
 6.564520949250000E9    -4.913246930804767E-2    5.667509341347314E-1    3.050085707526352E-2   -1.492411801261554E-3    2.996264490434194E-2   -2.020621810800862E-3    5.331947732105559E-2    5.240005286017327E-1
 6.564535039000000E9    -4.807031724635702E-2    5.669408119188577E-1    3.057693348121022E-2   -1.613510415578636E-3    3.014622956119024E-2   -2.154664661684149E-3    5.451163041005733E-2    5.239890469115691E-1
 6.564549128750000E9    -4.688479788399628E-2    5.669005863665189E-1    3.083411683213802E-2   -1.657569492492157E-3    3.024469051952553E-2   -2.257778951308458E-3    5.586195227975956E-2    5.238776358310967E-1
 6.564563218500000E9    -4.570817358480806E-2    5.671187293274039E-1    3.098575434572665E-2   -1.838332094870322E-3    3.048570049086072E-2   -2.297160742616735E-3    5.706938564694383E-2    5.236084683633607E-1
 6.564577308250000E9    -4.472900889699535E-2    5.671397189691185E-1    3.115479901176425E-2   -1.909750314738274E-3    3.065235659002433E-2   -2.415253841965648E-3    5.835840510193258E-2    5.236591380809708E-1
 6.564591398000000E9    -4.353255820612070E-2    5.671502564967217E-1    3.130303811003576E-2   -1.901350907285180E-3    3.070939435937237E-2   -2.512706104221003E-3    5.960020165982605E-2    5.233771933565269E-1
 6.564605487750000E9    -4.239543460032376E-2    5.673272418787314E-1    3.151981811253393E-2   -2.056444857588146E-3    3.091229846525245E-2   -2.498883915173869E-3    6.102475607631024E-2    5.232225124671945E-1
 6.564619577500000E9    -4.110731059798103E-2    5.673743144061426E-1    3.174712868630781E-2   -2.072489409671857E-3    3.109644293309162E-2   -2.622222739233237E-3    6.216674370493868E-2    5.230400647046216E-1
 6.564633667250000E9    -4.005681747465679E-2    5.674190102440033E-1    3.181224015315130E-2   -2.102630216134545E-3    3.133451419977148E-2   -2.721091682508685E-3    6.364152141636704E-2    5.228372039893850E-1
 6.564647757000000E9    -3.899012778012054E-2    5.674302630522393E-1    3.214304032110192E-2   -2.338649931363378E-3    3.149819800557076E-2   -2.812299372740406E-3    6.481131612786610E-2    5.228038632891182E-1
 6.564661846750000E9    -3.786385975562933E-2    5.675620241735815E-1    3.212837599817334E-2   -2.344095889851508E-3    3.167232081967257E-2   -2.929130103628566E-3    6.608395271791200E-2    5.226795422189108E-1
 6.564675936500000E9    -3.671958970447200E-2    5.676485285662326E-1    3.245781517922890E-2   -2.451920796178077E-3    3.181680984057718E-2   -3.055526914054917E-3    6.740403324289125E-2    5.223891842863212E-1
 6.564690026250000E9    -3.558032305124482E-2    5.677084039494199E-1    3.269158557469297E-2   -2.710801689502507E-3    3.201835146329038E-2   -3.055479286539091E-3    6.880557309848372E-2    5.223090563687595E-1
 6.564704116000000E9    -3.434608572223725E-2    5.677277453472193E-1    3.274023124657258E-2   -2.720293978058340E-3    3.213643383156632E-2   -3.125615739636647E-3    7.003041623272600E-2    5.221793334315564E-1
 6.564718205750000E9    -3.317295253286143E-2    5.678720640832564E-1    3.293831423632511E-2   -2.841967053898198E-3    3.237791875147438E-2   -3.273457187242779E-3    7.132892071002112E-2    5.219161642208965E-1
 6.564732295500000E9    -3.201044599540315E-2    5.679125631941301E-1    3.315445990783360E-2   -2.929279783904520E-3    3.262139839333148E-2   -3.485887346186023E-3    7.273701504907772E-2    5.218423824919853E-1
 6.564746385250000E9    -3.098274876232765E-2    5.678239558552156E-1    3.328501984568665E-2   -2.962325993604666E-3    3.273933805858330E-2   -3.550047696400107E-3    7.401898316021796E-2    5.217211204239343E-1
 6.564760475000000E9    -2.975066776257952E-2    5.678680028065128E-1    3.347652945450281E-2   -3.179988986302030E-3    3.297064685778167E-2   -3.691659186531136E-3    7.521448468415641E-2    5.213271725599309E-1
 6.564774564750000E9    -2.872310772270936E-2    5.679592883700687E-1    3.363177561147981E-2   -3.211974775392144E-3    3.318770550590477E-2   -3.680423585678145E-3    7.660733071637116E-2    5.211915718207275E-1
 6.564788654500000E9    -2.749149048227849E-2    5.680227587507112E-1    3.390828637527728E-2   -3.366133085361373E-3    3.339542629327658E-2   -3.924895805507466E-3    7.800612343026077E-2    5.209857599035900E-1
 6.564802744250000E9    -2.640770542829129E-2    5.679994197667791E-1    3.415553395307018E-2   -3.403152090458552E-3    3.352683650680152E-2   -4.009372994005925E-3    7.935353799248311E-2    5.206908796662710E-1
 6.564816834000000E9    -2.509526898632969E-2    5.681365071313880E-1    3.435331170299423E-2   -3.555530981778182E-3    3.385346703432052E-2   -4.120972483697198E-3    8.075970252868268E-2    5.204081119348407E-1
 6.564830923750000E9    -2.412896623267112E-2    5.681614120791733E-1    3.459375638753798E-2   -3.760971027278454E-3    3.397923805560990E-2   -4.243713026246291E-3    8.198470163864159E-2    5.205650117305858E-1
 6.564845013500000E9    -2.282028832601476E-2    5.681082514890160E-1    3.489547393203348E-2   -3.945164508799440E-3    3.418530637874247E-2   -4.363808423544466E-3    8.332398264990307E-2    5.199680791354491E-1
 6.564859103250000E9    -2.159798603281842E-2    5.680936230573443E-1    3.488404152228956E-2   -3.936768171273414E-3    3.440939073702817E-2   -4.561566551855061E-3    8.465846018185819E-2    5.201099931619338E-1
 6.564873193000000E9    -2.046854315450379E-2    5.681309048160174E-1    3.513819909250699E-2   -4.002428669897382E-3    3.463478260117973E-2   -4.615559005248729E-3    8.603542303079074E-2    5.196430249857406E-1
 6.564887282750000E9    -1.941806863996210E-2    5.682198716610923E-1    3.544185877681971E-2   -4.173730971918164E-3    3.490249846185233E-2   -4.703350867960169E-3    8.738731712576325E-2    5.195271897805100E-1
 6.564901372500000E9    -1.822953178183309E-2    5.683214981369235E-1    3.566717261260845E-2   -4.357719493991895E-3    3.510150876505463E-2   -4.924186410650523E-3    8.874817409403295E-2    5.193220273191673E-1
 6.564915462250000E9    -1.716620150780606E-2    5.682918205925995E-1    3.589319256339261E-2   -4.465913928466332E-3    3.526284197369150E-2   -4.938985005093688E-3    9.012197905679362E-2    5.189869384208303E-1
 6.564929552000000E9    -1.582490634695269E-2    5.682851853849391E-1    3.599740400284392E-2   -4.544845637726368E-3    3.537837628945186E-2   -5.047121273054780E-3    9.155253569382091E-2    5.185606008577954E-1
 6.564943641750000E9    -1.472122749611139E-2    5.682903574634481E-1    3.621745301860788E-2   -4.863657305562095E-3    3.559184354666092E-2   -5.283548751327189E-3    9.295347750758647E-2    5.184806685750249E-1
 6.564957731500000E9    -1.353125199860553E-2    5.682118523506567E-1    3.642987248571473E-2   -4.795936642467513E-3    3.589475757540764E-2   -5.307983947756525E-3    9.434265505402131E-2    5.182469898589444E-1
 6.564971821250000E9    -1.238956184033745E-2    5.683002636237114E-1    3.680627097012387E-2   -5.000448678440266E-3    3.617005543187819E-2   -5.497210209666815E-3    9.565916232691200E-2    5.179598499525573E-1
 6.564985911000000E9    -1.118736245045734E-2    5.683116273867926E-1    3.698411443070920E-2   -5.076678951888430E-3    3.625521419266996E-2   -5.568473646669790E-3    9.699912184225214E-2    5.175968633975003E-1
 6.565000000750000E9    -1.000386411831919E-2    5.682203681796942E-1    3.721514218288311E-2   -5.232037248353571E-3    3.663981014267793E-2   -5.773412689437797E-3    9.854883922368701E-2    5.175117422534123E-1
 6.565014090500000E9    -8.804747438195976E-3    5.683544304962548E-1    3.763581826348379E-2   -5.468539538902778E-3    3.680951206190804E-2   -5.924611348501763E-3    1.000227944621793E-1    5.171992865711116E-1
 6.565028180250000E9    -7.652347847236949E-3    5.682403969427862E-1    3.774576451706763E-2   -5.561772480478431E-3    3.722096251183710E-2   -6.075355038320094E-3    1.012646590646294E-1    5.167291584095804E-1
 6.565042270000000E9    -6.452077317706510E-3    5.682326304784672E-1    3.789712791317344E-2   -5.630316248369154E-3    3.737711559674636E-2   -6.230652414149419E-3    1.025838586775948E-1    5.162798640198154E-1
 6.565056359750000E9    -5.343126287777646E-3    5.681940496080128E-1    3.820092620930383E-2   -5.867578197093210E-3    3.760295388132535E-2   -6.417536505348482E-3    1.041705487725277E-1    5.162672107924994E-1
 6.565070449500000E9    -4.144529701081785E-3    5.681898332860570E-1    3.848647059930848E-2   -5.917011455619809E-3    3.782437169000070E-2   -6.540163225803666E-3    1.055530076198063E-1    5.159626263242376E-1
 6.565084539250000E9    -2.904418379219158E-3    5.682018250173732E-1    3.872841032329269E-2   -6.193889793403834E-3    3.809023514883751E-2   -6.731396053163420E-3    1.070037118276916E-1    5.154716768677041E-1
 6.565098629000000E9    -1.750920054606267E-3    5.680772811847131E-1    3.901001125706660E-2   -6.321699594832640E-3    3.831382474075458E-2   -6.805523282787732E-3    1.084214581881194E-1    5.150547691878057E-1
 6.565112718750000E9    -5.379597556964826E-4    5.681058885858277E-1    3.930189416714614E-2   -6.464383141922909E-3    3.863228600671528E-2   -7.016044600168378E-3    1.097819485807249E-1    5.148057489789875E-1
 6.565126808500000E9     7.122755276301342E-4    5.679776728683070E-1    3.952265253647300E-2   -6.570560961295104E-3    3.886653873234712E-2   -7.119354497733434E-3    1.112297210189342E-1    5.145026299303129E-1
 6.565140898250000E9     1.806972545108418E-3    5.680605453696468E-1    3.987271244902772E-2   -6.921719940349686E-3    3.919898352388912E-2   -7.342711872222330E-3    1.129012890674757E-1    5.142316945967298E-1
 6.565154988000000E9     3.015690532219995E-3    5.680184152770822E-1    4.008704244209196E-2   -6.907795245147493E-3    3.940027296186152E-2   -7.528071394267136E-3    1.143224406615283E-1    5.139081507167749E-1
 6.565169077750000E9     4.361291917679859E-3    5.678406391888503E-1    4.017238765815156E-2   -7.146205951964092E-3    3.972284580875372E-2   -7.749976993797751E-3    1.158368892102741E-1    5.133617580883598E-1
 6.565183167500000E9     5.465455570822827E-3    5.679024789050450E-1    4.064233884755600E-2   -7.345603764051924E-3    3.998293259250767E-2   -7.918934141989784E-3    1.171931721289987E-1    5.129746180737681E-1
 6.565197257250000E9     6.644049036546350E-3    5.678025880679397E-1    4.096189555973326E-2   -7.411573671956538E-3    4.028142212455292E-2   -8.137271033194844E-3    1.187821065126008E-1    5.127813365280836E-1
 6.565211347000000E9     7.898531053549266E-3    5.677389843324387E-1    4.112676770581666E-2   -7.710334875099249E-3    4.054713151866141E-2   -8.234467447524580E-3    1.202723561782395E-1    5.125423596980356E-1
 6.565225436750000E9     9.143571307378315E-3    5.677829722359768E-1    4.147327457750315E-2   -8.039182471832695E-3    4.083730047846237E-2   -8.444263631225133E-3    1.218013720631355E-1    5.117682852628784E-1
 6.565239526500000E9     1.013320792100527E-2    5.676447415057297E-1    4.175182156520173E-2   -8.133079637986412E-3    4.105277903765819E-2   -8.676130562398096E-3    1.231128844260973E-1    5.116145883695710E-1
 6.565253616250000E9     1.153677088182281E-2    5.676642894802072E-1    4.208493724515847E-2   -8.134470799398115E-3    4.135736819345860E-2   -8.877514271839282E-3    1.245670305079268E-1    5.112502869964012E-1
 6.565267706000000E9     1.260541118225851E-2    5.674820733210697E-1    4.239330356175497E-2   -8.337219254366446E-3    4.179847328379562E-2   -9.057222040309039E-3    1.262482939015225E-1    5.107758316936677E-1
 6.565281795750000E9     1.391784317548039E-2    5.674623074938639E-1    4.279773904249724E-2   -8.627851787457060E-3    4.198785939711414E-2   -9.314539812414296E-3    1.278362921042595E-1    5.100973698206542E-1
 6.565295885500000E9     1.515299910163918E-2    5.672441789294856E-1    4.284299204108268E-2   -8.835919962583517E-3    4.225236945459386E-2   -9.441277728622887E-3    1.294277540361014E-1    5.097546757040341E-1
 6.565309975250000E9     1.634509740422422E-2    5.674966931590372E-1    4.332804003495323E-2   -9.084402983617701E-3    4.263326853400223E-2   -9.700983610991367E-3    1.308101933777601E-1    5.094112174806203E-1
 6.565324065000000E9     1.749903995395668E-2    5.672463213843149E-1    4.362845182031159E-2   -9.335913799100714E-3    4.295444546995995E-2   -9.912807525511878E-3    1.324223870563616E-1    5.088444958344961E-1
 6.565338154750000E9     1.878247498531542E-2    5.670293514778508E-1    4.395660025853020E-2   -9.465049032759021E-3    4.318593113427487E-2   -1.014458443286279E-2    1.339303555658167E-1    5.083878199029584E-1
 6.565352244500000E9     2.017233728990079E-2    5.669875989095667E-1    4.437234059540867E-2   -9.792678083719400E-3    4.364375511519572E-2   -1.041047248748742E-2    1.355006033022386E-1    5.079213740628945E-1
 6.565366334250000E9     2.136709143976570E-2    5.669887110801326E-1    4.452044398694611E-2   -9.987456313230246E-3    4.395224250676150E-2   -1.053962128585425E-2    1.370858396879918E-1    5.075149858937944E-1
 6.565380424000000E9     2.256832378553689E-2    5.667865966282173E-1    4.510195889705904E-2   -1.032074148928583E-2    4.421757886720666E-2   -1.075335650199773E-2    1.386239144271008E-1    5.069477969608210E-1
 6.565394513750000E9     2.379657343822864E-2    5.666870637801138E-1    4.547053324144124E-2   -1.051651862822840E-2    4.462840188458179E-2   -1.107564730268162E-2    1.403592494242227E-1    5.064948746001815E-1
 6.565408603500000E9     2.504210807239041E-2    5.665726606446969E-1    4.554825945550160E-2   -1.064807402788580E-2    4.503680191096701E-2   -1.131467379236561E-2    1.419011492265901E-1    5.058839950704495E-1
 6.565422693250000E9     2.618850478827829E-2    5.664632810752365E-1    4.602296427670514E-2   -1.090899181103663E-2    4.523848818759545E-2   -1.148080066387040E-2    1.434872930222350E-1    5.054411715213566E-1
 6.565436783000000E9     2.759657214996616E-2    5.662771659659245E-1    4.647583043946873E-2   -1.121629817044605E-2    4.559718008998357E-2   -1.174616544757416E-2    1.450595297481802E-1    5.048386794177254E-1
 6.565450872750000E9     2.873091594073191E-2    5.662651236379744E-1    4.667410866130630E-2   -1.144624256992233E-2    4.603104821432190E-2   -1.209669533060901E-2    1.467502662852282E-1    5.043028312653201E-1
 6.565464962500000E9     2.996444254873654E-2    5.660943866812204E-1    4.710684369247713E-2   -1.174263015227665E-2    4.638710981550274E-2   -1.231227255865052E-2    1.484166039276149E-1    5.037154513689145E-1
