#  HZ   S   RI   R     50.00 
! Rohde & Schwarz Vector Network Analyzer 
! Rohde-Schwarz,ZNB20-2Port,1311601062101988,3.16
! Created: UTC 3/20/2024, 4:58:09 PM
! freq[Hz]                re:S11                  im:S11                  re:S21                  im:S21                  re:S12                  im:S12                  re:S22                  im:S22
 6.564185275000000E9    -7.575244611790515E-2    5.639537349736498E-1    2.693667626137987E-2    3.344386128838211E-4    2.654387762669783E-2   -1.893674392382964E-4    2.395233649049003E-2    5.256480557142118E-1
 6.564199411975000E9    -7.469634012308590E-2    5.641987982177333E-1    2.696736358280414E-2    1.254375826009200E-4    2.671135652028793E-2   -2.695898841908264E-4    2.506378327091413E-2    5.256401261921454E-1
 6.564213548950000E9    -7.360702301882964E-2    5.643065662348046E-1    2.725425812375707E-2    2.620867667745711E-4    2.675780535822677E-2   -4.018838483431015E-4    2.634706856380694E-2    5.256244876641577E-1
 6.564227685925000E9    -7.245113798743420E-2    5.644938131284897E-1    2.743115994790079E-2    1.257237772459232E-4    2.681139232453340E-2   -4.099449742302324E-4    2.767127485366025E-2    5.255635228234951E-1
 6.564241822900000E9    -7.127332333024641E-2    5.646786322716474E-1    2.753170744680255E-2   -5.143108728717628E-5    2.694020224235781E-2   -5.529555786330873E-4    2.875768654967708E-2    5.254936598462742E-1
 6.564255959875000E9    -7.030960185954187E-2    5.647377689345185E-1    2.771155696279329E-2   -1.003814214037922E-4    2.714260326476937E-2   -6.024170080459084E-4    2.992541328229292E-2    5.253991764895498E-1
 6.564270096850000E9    -6.916821715930854E-2    5.648550228583270E-1    2.775697360642548E-2   -1.853059498434924E-4    2.734339779427763E-2   -6.761457106101347E-4    3.109690149863943E-2    5.253673252277922E-1
 6.564284233825000E9    -6.797602687800434E-2    5.651404344921230E-1    2.784419695179999E-2   -1.178019661686454E-4    2.741367353591375E-2   -7.498576201387418E-4    3.229415985134838E-2    5.254827308418361E-1
 6.564298370800000E9    -6.682475276025533E-2    5.651590839474190E-1    2.811602957853379E-2   -1.886659961697901E-4    2.753778719587677E-2   -7.193244840700702E-4    3.368501382211372E-2    5.253264251012105E-1
 6.564312507775000E9    -6.573828844182379E-2    5.652990911129998E-1    2.825007675356392E-2   -3.244341127139698E-4    2.769153257058311E-2   -8.732325068693739E-4    3.488674522354897E-2    5.251658726322610E-1
 6.564326644750000E9    -6.468813199984741E-2    5.655032168118108E-1    2.828787420682181E-2   -4.211774638900518E-4    2.776047353192482E-2   -8.851369564170587E-4    3.617425724738610E-2    5.250960275774886E-1
 6.564340781725000E9    -6.342650985760576E-2    5.655204890548209E-1    2.839826408562274E-2   -5.354463627142061E-4    2.802498634374596E-2   -9.927214677311227E-4    3.736010128473370E-2    5.251122737151162E-1
 6.564354918700000E9    -6.239775540509040E-2    5.656602246109178E-1    2.857341169311506E-2   -6.534917347512619E-4    2.817600379321824E-2   -9.903542283398142E-4    3.839902083651981E-2    5.249931266958706E-1
 6.564369055675000E9    -6.128895425486908E-2    5.658763897780913E-1    2.883735907446593E-2   -6.351292354800148E-4    2.816446805681014E-2   -1.201577213333566E-3    3.967859911292899E-2    5.248589223065434E-1
 6.564383192650000E9    -6.011997422235634E-2    5.658634522119236E-1    2.894259947846651E-2   -7.407083523268609E-4    2.839886003437797E-2   -1.206175389076259E-3    4.103787368378044E-2    5.248680760820209E-1
 6.564397329625000E9    -5.907074054980876E-2    5.660459008009482E-1    2.905167241347745E-2   -7.557936126023919E-4    2.864534940552516E-2   -1.320765238480040E-3    4.221139299364345E-2    5.248174862355681E-1
 6.564411466600000E9    -5.793649072363038E-2    5.660565919810997E-1    2.922820445665006E-2   -9.092909374687083E-4    2.877335929445241E-2   -1.387586772392593E-3    4.362290172266937E-2    5.246708002942496E-1
 6.564425603575000E9    -5.678916281472231E-2    5.662224827730531E-1    2.934190919859529E-2   -9.198856320775555E-4    2.884726526292154E-2   -1.473429151509433E-3    4.475054021317895E-2    5.246508958194434E-1
 6.564439740550000E9    -5.576768334664005E-2    5.661801003947722E-1    2.959156828365979E-2   -9.891544941761949E-4    2.897718636715073E-2   -1.603940363825157E-3    4.602971516947822E-2    5.245318453911234E-1
 6.564453877525000E9    -5.447715370100788E-2    5.663533329731177E-1    2.970695928432724E-2   -1.151843211995880E-3    2.924931225798850E-2   -1.634116911975353E-3    4.731339405128606E-2    5.245165397124789E-1
 6.564468014500000E9    -5.333112596255791E-2    5.665512518554765E-1    2.990463007562655E-2   -1.204788359276504E-3    2.937828984182820E-2   -1.632486433593713E-3    4.857552125709105E-2    5.242025230629830E-1
 6.564482151475000E9    -5.229725306878612E-2    5.666595092566983E-1    3.003570523970969E-2   -1.291689344234814E-3    2.959937806166490E-2   -1.631720101544517E-3    4.973265181273406E-2    5.242121313796060E-1
 6.564496288450000E9    -5.110926376744338E-2    5.667579248550918E-1    3.019555540988109E-2   -1.411661246048986E-3    2.965767129823145E-2   -1.880236747900922E-3    5.101360113902938E-2    5.240178136850515E-1
 6.564510425425000E9    -4.999956407440032E-2    5.668221525041015E-1    3.029049277397362E-2   -1.420798483519604E-3    2.990649218026759E-2   -1.946105886638268E-3    5.221390678468143E-2    5.239746180614098E-1
 6.564524562400000E9    -4.890197950216917E-2    5.668572019683810E-1    3.055553650850090E-2   -1.488347525247929E-3    3.005345433354943E-2   -2.005896809058163E-3    5.358426657147614E-2    5.237819029750292E-1
 6.564538699375000E9    -4.772119389977025E-2    5.669844392428249E-1    3.061801856709824E-2   -1.619144664928331E-3    3.017283238143366E-2   -2.157458015218982E-3    5.484504298236391E-2    5.236385682035137E-1
 6.564552836350000E9    -4.655908850519247E-2    5.669585349887406E-1    3.087029552267113E-2   -1.563272128524623E-3    3.030537153758850E-2   -2.175799082750134E-3    5.609370496581824E-2    5.235827584167762E-1
 6.564566973325000E9    -4.543714796744988E-2    5.670707222765251E-1    3.103752101463029E-2   -1.697446099492915E-3    3.048277704211228E-2   -2.315978605280616E-3    5.735391007844003E-2    5.234893740372294E-1
 6.564581110300000E9    -4.435389767485809E-2    5.672321097131607E-1    3.128780875226900E-2   -1.885554565955284E-3    3.060808646904777E-2   -2.302965204157422E-3    5.864577116676444E-2    5.233116946329404E-1
 6.564595247275000E9    -4.311878099617269E-2    5.671814201776156E-1    3.142035288185371E-2   -1.949399611205422E-3    3.086910610513460E-2   -2.457168648777376E-3    6.000842692818566E-2    5.232363089124895E-1
 6.564609384250000E9    -4.201916366477738E-2    5.673292494218384E-1    3.146499080531946E-2   -2.074657844253109E-3    3.094651047558816E-2   -2.535097952450932E-3    6.123198492488313E-2    5.227966325106859E-1
 6.564623521225000E9    -4.084105893910621E-2    5.672702821932404E-1    3.172743007329097E-2   -2.170485772762484E-3    3.122847434927990E-2   -2.651841348858886E-3    6.251887596801732E-2    5.229155375588672E-1
 6.564637658200000E9    -3.987664588683896E-2    5.674345341094331E-1    3.187462098876281E-2   -2.251038483436108E-3    3.132582859464630E-2   -2.754736133013482E-3    6.381585549704286E-2    5.226951155129665E-1
 6.564651795175000E9    -3.860565759634980E-2    5.676277969633208E-1    3.209048792648134E-2   -2.511237140357787E-3    3.158540073039970E-2   -2.899396308049054E-3    6.522561311609135E-2    5.223827744854472E-1
 6.564665932150000E9    -3.739679678976104E-2    5.675828641143790E-1    3.238682622946954E-2   -2.481896823352187E-3    3.175982027671913E-2   -2.923349959902121E-3    6.643402342545204E-2    5.223044079028423E-1
 6.564680069125000E9    -3.631490915501995E-2    5.675836285237008E-1    3.245085278674029E-2   -2.604407259607912E-3    3.183689443450577E-2   -3.079606811010269E-3    6.773334248409522E-2    5.222342535324317E-1
 6.564694206100000E9    -3.520354206251181E-2    5.677355548561942E-1    3.264634524748514E-2   -2.628213886099280E-3    3.198530436893574E-2   -3.214738366952077E-3    6.906761841870394E-2    5.219211827799061E-1
 6.564708343075000E9    -3.398351620647602E-2    5.677601639228986E-1    3.270642477057732E-2   -2.647041802881838E-3    3.229316402356689E-2   -3.230781850886145E-3    7.026405867043581E-2    5.219241069374059E-1
 6.564722480050000E9    -3.282909436185899E-2    5.679100989376311E-1    3.296527817913933E-2   -2.824587914238127E-3    3.248667333881822E-2   -3.371823310236930E-3    7.169459317982992E-2    5.217983294221025E-1
 6.564736617025000E9    -3.172862038157576E-2    5.679516880007577E-1    3.309313000774856E-2   -3.018701412565231E-3    3.264987827322969E-2   -3.496632627591560E-3    7.297453977214528E-2    5.215747146826969E-1
 6.564750754000000E9    -3.066413877418201E-2    5.679294723629635E-1    3.347509087631779E-2   -3.153484736201901E-3    3.276860201325783E-2   -3.542881396360018E-3    7.429225371437045E-2    5.213838486314691E-1
 6.564764890975000E9    -2.947964581458352E-2    5.679306598190730E-1    3.366905709335886E-2   -3.298771733510475E-3    3.299227931185824E-2   -3.698732275860929E-3    7.550995130418856E-2    5.210313050883071E-1
 6.564779027950000E9    -2.821509097224683E-2    5.679866786972168E-1    3.372483437156411E-2   -3.253071066761177E-3    3.322073130449710E-2   -3.797188703041480E-3    7.700202343021915E-2    5.209130707518950E-1
 6.564793164925000E9    -2.711645043691159E-2    5.680626577275097E-1    3.401275335434233E-2   -3.540532999460302E-3    3.347269139975485E-2   -4.003627759763782E-3    7.832551324875381E-2    5.207791154797263E-1
 6.564807301900000E9    -2.601898804961082E-2    5.680967348496613E-1    3.430042381008847E-2   -3.388943982950927E-3    3.365084017862576E-2   -4.135436104607096E-3    7.980477731440069E-2    5.205367327794009E-1
 6.564821438875000E9    -2.470767524481877E-2    5.681393938719623E-1    3.449674223677737E-2   -3.691367793023992E-3    3.389549011591135E-2   -4.128952296168773E-3    8.104404966864912E-2    5.202775032195449E-1
 6.564835575850000E9    -2.367391249072916E-2    5.680501366763778E-1    3.459495048984520E-2   -3.776370184563809E-3    3.414080711722730E-2   -4.325241386159170E-3    8.243425841202522E-2    5.200554253023607E-1
 6.564849712825000E9    -2.240036716921563E-2    5.681173049858147E-1    3.496758547078634E-2   -3.899545514243521E-3    3.426104829977141E-2   -4.375468991284083E-3    8.371216358447478E-2    5.199558628469284E-1
 6.564863849800000E9    -2.135920111955042E-2    5.682099364476837E-1    3.509087818371057E-2   -3.926822129092583E-3    3.445099709450154E-2   -4.549554085582845E-3    8.510240005576632E-2    5.195543302019390E-1
 6.564877986775000E9    -2.009232126910527E-2    5.683131078828696E-1    3.527335404272929E-2   -4.013724764065869E-3    3.474208006163470E-2   -4.669307388485026E-3    8.643990058971045E-2    5.193672925289020E-1
 6.564892123750000E9    -1.886195214166074E-2    5.681932997728045E-1    3.567090194236352E-2   -4.135751691190306E-3    3.489848853372891E-2   -4.806166207273250E-3    8.770508445837982E-2    5.192340235375015E-1
 6.564906260725000E9    -1.767971575930894E-2    5.682708161996858E-1    3.586320515044408E-2   -4.365648325871774E-3    3.510507054211209E-2   -4.866981115316312E-3    8.919469683258476E-2    5.189191318382192E-1
 6.564920397700000E9    -1.655020782151992E-2    5.682629372676603E-1    3.595763588829456E-2   -4.684164918855347E-3    3.542030682877667E-2   -5.022527695051662E-3    9.061384373538148E-2    5.186670438798197E-1
 6.564934534675000E9    -1.540072371056818E-2    5.682513376794043E-1    3.619717379708318E-2   -4.553074135234746E-3    3.557983492784002E-2   -5.250149237776953E-3    9.194462334997322E-2    5.183700565232854E-1
 6.564948671650000E9    -1.432928039008684E-2    5.683424674627741E-1    3.636326884282959E-2   -4.816730866593713E-3    3.577252540657146E-2   -5.273378854239476E-3    9.333616552475195E-2    5.181208696178020E-1
 6.564962808625000E9    -1.306993746906904E-2    5.683083483436535E-1    3.664544835034272E-2   -4.865329951790974E-3    3.600781250668432E-2   -5.483502090727367E-3    9.478323182562921E-2    5.179306837433481E-1
 6.564976945600000E9    -1.184906456707944E-2    5.683185219470513E-1    3.687029360737232E-2   -5.075741048302508E-3    3.625601755289232E-2   -5.491981252359464E-3    9.620786693348707E-2    5.176792177079169E-1
 6.564991082575000E9    -1.067810628179485E-2    5.681977921660237E-1    3.723797424985727E-2   -5.119880760589114E-3    3.652038963001387E-2   -5.708685801228317E-3    9.738711117820732E-2    5.173552815840798E-1
 6.565005219550000E9    -9.674949210675890E-3    5.683490563763299E-1    3.744284919939273E-2   -5.453308589045333E-3    3.678682529837302E-2   -5.863161886616818E-3    9.894144106155867E-2    5.169725846155264E-1
 6.565019356525000E9    -8.286711357661012E-3    5.682388144149331E-1    3.756677210453015E-2   -5.447881597357459E-3    3.704841555557630E-2   -5.949503634423785E-3    1.003973743537634E-1    5.165589605903154E-1
 6.565033493500000E9    -7.175218144026522E-3    5.681878992519430E-1    3.782959212905480E-2   -5.642464645622558E-3    3.711915333570062E-2   -6.050827582903299E-3    1.017548895779764E-1    5.163862413261422E-1
 6.565047630475000E9    -5.983244285448516E-3    5.683509080373457E-1    3.813744142051671E-2   -5.876889995226852E-3    3.741109476689463E-2   -6.271167250974075E-3    1.032428578397484E-1    5.161521387634586E-1
 6.565061767450000E9    -4.731768686769095E-3    5.682060564777415E-1    3.830689200462416E-2   -5.941556053041315E-3    3.765008016998976E-2   -6.472109878106114E-3    1.046863927151243E-1    5.158175080148385E-1
 6.565075904425000E9    -3.685233780443977E-3    5.681881600214673E-1    3.863598938109569E-2   -6.107767388639455E-3    3.805634380047861E-2   -6.672467947419393E-3    1.060165650696670E-1    5.153716767480382E-1
 6.565090041400000E9    -2.426378179842261E-3    5.681837998589934E-1    3.886120139359940E-2   -6.246686842984758E-3    3.816538114307068E-2   -6.885966430735588E-3    1.074881465136264E-1    5.151986898291399E-1
 6.565104178375000E9    -1.244123161998042E-3    5.681670124961116E-1    3.926333618894131E-2   -6.466356028741307E-3    3.851006946800470E-2   -7.053784213642531E-3    1.089383145975280E-1    5.148036337579110E-1
 6.565118315350000E9    -1.969593676726338E-5    5.680930752794261E-1    3.936955043348224E-2   -6.584885284880961E-3    3.874355732964316E-2   -7.123248134620456E-3    1.103255859166589E-1    5.144052236722735E-1
 6.565132452325000E9     1.087028735951142E-3    5.681138359638687E-1    3.974195479101375E-2   -6.664803724172319E-3    3.894267375512927E-2   -7.261032969550091E-3    1.117868955539843E-1    5.142635406986701E-1
 6.565146589300000E9     2.415491937443456E-3    5.679611339409046E-1    3.989242977368257E-2   -6.896609834970814E-3    3.927841735847330E-2   -7.463849446367186E-3    1.133002086728480E-1    5.138043980262620E-1
 6.565160726275000E9     3.664775746068002E-3    5.678731097616697E-1    4.027209745262379E-2   -7.097940768846927E-3    3.948895645169321E-2   -7.570064773237611E-3    1.148797499106196E-1    5.134169248663868E-1
 6.565174863250000E9     4.793119976423049E-3    5.679229126591215E-1    4.052951826612754E-2   -7.151923821464977E-3    3.980979710246042E-2   -7.871913528144011E-3    1.163600925357891E-1    5.131395541300491E-1
 6.565189000225000E9     5.937585492917552E-3    5.679746473539121E-1    4.069498294572569E-2   -7.386697661500402E-3    4.011338932500187E-2   -7.990169668848556E-3    1.178226597069009E-1    5.126977311684131E-1
 6.565203137200000E9     7.265833268633222E-3    5.678302626132716E-1    4.088868972795410E-2   -7.632334101130293E-3    4.035743416228155E-2   -8.208864210440155E-3    1.193970638327272E-1    5.123388759457710E-1
 6.565217274175000E9     8.501139693167310E-3    5.677129731256854E-1    4.141667573287193E-2   -7.784470504071346E-3    4.068685706409584E-2   -8.307699361383408E-3    1.208021405226924E-1    5.118981757084949E-1
 6.565231411150000E9     9.678601205190462E-3    5.677277288130972E-1    4.165419318952739E-2   -8.185892739521498E-3    4.095917037800891E-2   -8.572438530073523E-3    1.222574870758314E-1    5.115370768934228E-1
 6.565245548125000E9     1.082205856012892E-2    5.676168279803924E-1    4.192296743519767E-2   -8.266498690406668E-3    4.125691607564822E-2   -8.797367143473052E-3    1.237784714399132E-1    5.111293632985165E-1
 6.565259685100000E9     1.213520297427893E-2    5.675357703502124E-1    4.222044696140116E-2   -8.389135942077946E-3    4.146762665314043E-2   -8.949922767771805E-3    1.253599741471728E-1    5.107261138187414E-1
 6.565273822075000E9     1.337222685632500E-2    5.674309205086067E-1    4.259992356207192E-2   -8.638341798603680E-3    4.184460833295171E-2   -9.194734238812514E-3    1.268316733044732E-1    5.102003635294863E-1
 6.565287959050000E9     1.451331347328334E-2    5.673965207065591E-1    4.302700462444841E-2   -8.861005399743951E-3    4.217040378073649E-2   -9.403501802288118E-3    1.285366612874161E-1    5.097602380944375E-1
 6.565302096025000E9     1.576367198431687E-2    5.673682219898963E-1    4.309079423797761E-2   -8.961155888224621E-3    4.247775093418434E-2   -9.569372976361245E-3    1.299087209341397E-1    5.093432115179727E-1
 6.565316233000000E9     1.692284003147406E-2    5.671785582567308E-1    4.348875726450938E-2   -9.276493250843192E-3    4.284016457052795E-2   -9.857406618766410E-3    1.315531925995786E-1    5.089902647592268E-1
 6.565330369975000E9     1.820447223702112E-2    5.670892337703902E-1    4.386998797623125E-2   -9.439669323887732E-3    4.307264878445408E-2   -1.004924023261121E-2    1.331025160738341E-1    5.084655039559641E-1
 6.565344506950000E9     1.942797036252788E-2    5.670789277884346E-1    4.415111794897245E-2   -9.754475784597627E-3    4.343846731438608E-2   -1.018982246570030E-2    1.346339914154114E-1    5.078344317960513E-1
 6.565358643925000E9     2.069684638282584E-2    5.670184104611997E-1    4.458373866423430E-2   -9.865447009536446E-3    4.370890886779955E-2   -1.046126558182936E-2    1.361338141638152E-1    5.073538290199013E-1
 6.565372780900000E9     2.193531441284528E-2    5.667904806285141E-1    4.484208270042227E-2   -1.009360236534367E-2    4.404328544152215E-2   -1.065824578587029E-2    1.378768264358129E-1    5.068927761985366E-1
 6.565386917875000E9     2.312984527113528E-2    5.668028186633146E-1    4.524869248621581E-2   -1.040101831252738E-2    4.437304354204860E-2   -1.106933369803685E-2    1.393627569828106E-1    5.064736950676488E-1
 6.565401054850000E9     2.439572781070785E-2    5.666713784087092E-1    4.566365275476362E-2   -1.061835441329804E-2    4.479022013728355E-2   -1.121870477831542E-2    1.410084270815471E-1    5.058838868341103E-1
 6.565415191825000E9     2.570671495598443E-2    5.665171550051028E-1    4.569745819123268E-2   -1.079171987929271E-2    4.514505804463847E-2   -1.145765371231622E-2    1.426262096307802E-1    5.053938126583873E-1
 6.565429328800000E9     2.686697586441685E-2    5.663873412826856E-1    4.618362629844180E-2   -1.109227763957504E-2    4.546391691978860E-2   -1.166955962585625E-2    1.442150857952489E-1    5.047671607500709E-1
 6.565443465775000E9     2.812865231235277E-2    5.662702179040544E-1    4.661527028447036E-2   -1.136037351303142E-2    4.583493996368407E-2   -1.195195795148763E-2    1.458956435067179E-1    5.044996426350927E-1
 6.565457602750000E9     2.936692060786306E-2    5.661676265667300E-1    4.695657387292849E-2   -1.169434393964938E-2    4.621679649425244E-2   -1.221272988156845E-2    1.476398216652630E-1    5.038177917932286E-1
