#  HZ   S   RI   R     50.00 
! Rohde & Schwarz Vector Network Analyzer 
! Rohde-Schwarz,ZNB20-2Port,1311601062101988,3.16
! Created: UTC 3/20/2024, 4:58:11 PM
! freq[Hz]                re:S11                  im:S11                  re:S21                  im:S21                  re:S12                  im:S12                  re:S22                  im:S22
 6.564181570000000E9    -7.606740746165443E-2    5.641060977132824E-1    2.688213765135238E-2    1.986698676195023E-4    2.638516021581030E-2   -2.454225999636107E-4    2.339990377400128E-2    5.252820287076002E-1
 6.564195723550000E9    -7.489815312744905E-2    5.642207571079750E-1    2.709713379235553E-2    3.041293023572561E-4    2.661421889790113E-2   -2.531619273296862E-4    2.459028173828366E-2    5.253791992220631E-1
 6.564209877100000E9    -7.381950187521005E-2    5.643170968216870E-1    2.715073891255455E-2    1.669696283014202E-4    2.665226537290433E-2   -3.000979575276129E-4    2.585040029223213E-2    5.251596115783466E-1
 6.564224030650000E9    -7.271418727414510E-2    5.645282704438362E-1    2.730071406102547E-2    1.476884300370778E-4    2.681432781076343E-2   -4.100329487321155E-4    2.711618826917847E-2    5.251809630063730E-1
 6.564238184200000E9    -7.168516273411256E-2    5.645769437603259E-1    2.743001292770749E-2    6.984451434031181E-5    2.693921686357163E-2   -5.312497392368458E-4    2.820866667072702E-2    5.251826159143752E-1
 6.564252337750000E9    -7.051448744997395E-2    5.647655459260129E-1    2.751520135929551E-2    6.988078908586729E-5    2.720582799223604E-2   -5.117779938208607E-4    2.943616764360039E-2    5.250775676138461E-1
 6.564266491300000E9    -6.941123517740523E-2    5.648519260096498E-1    2.770221762216529E-2   -2.213722366326853E-4    2.730839687755476E-2   -5.650995635808141E-4    3.071924325444481E-2    5.251050655728852E-1
 6.564280644850000E9    -6.824187136105030E-2    5.650634948004544E-1    2.775343862066555E-2   -2.180559614028168E-4    2.747201723678451E-2   -6.518008206944192E-4    3.198030184394716E-2    5.250033988691616E-1
 6.564294798400000E9    -6.716982474588117E-2    5.651128336679652E-1    2.815895740020718E-2   -9.108718940083715E-5    2.751742203699495E-2   -6.823923751917074E-4    3.316468570807495E-2    5.249380766137557E-1
 6.564308951950000E9    -6.603462585615802E-2    5.651901274231982E-1    2.807226903865449E-2   -1.965569478998398E-4    2.767402744814482E-2   -8.670913453347445E-4    3.428841035913273E-2    5.248844521148047E-1
 6.564323105500000E9    -6.494245333655629E-2    5.654526670002538E-1    2.827935553570552E-2   -4.771827890472651E-4    2.787379059328929E-2   -9.935304689957219E-4    3.560403610021177E-2    5.248853053506215E-1
 6.564337259050000E9    -6.375855436216755E-2    5.655295468760790E-1    2.850001313312351E-2   -3.648467307751411E-4    2.790327224828763E-2   -1.091779818808275E-3    3.686508433162949E-2    5.248779658229080E-1
 6.564351412600000E9    -6.270507432680841E-2    5.655427151492414E-1    2.862964345031574E-2   -5.086252804479685E-4    2.804506004649401E-2   -9.734536201046347E-4    3.800880285342304E-2    5.248519200605879E-1
 6.564365566150000E9    -6.160719804989209E-2    5.657377169912181E-1    2.884216799649923E-2   -5.401269348663178E-4    2.820708511260652E-2   -1.150175187520567E-3    3.937512920969084E-2    5.245077301966886E-1
 6.564379719700000E9    -6.042778087941256E-2    5.658141926559830E-1    2.887715893346099E-2   -7.014047785043585E-4    2.836009907084321E-2   -1.185176431422374E-3    4.068865408153517E-2    5.245963321690419E-1
 6.564393873250000E9    -5.930706985625671E-2    5.659131760708657E-1    2.895657062135682E-2   -7.396074097290442E-4    2.858103489790762E-2   -1.311998074224095E-3    4.173216266823514E-2    5.244807042265359E-1
 6.564408026800000E9    -5.815777785571937E-2    5.660796272136858E-1    2.931820629721362E-2   -7.612377584644920E-4    2.870443619124510E-2   -1.265025221084853E-3    4.298569486320701E-2    5.245381762386931E-1
 6.564422180350000E9    -5.709055242921125E-2    5.661926096176290E-1    2.942545595668478E-2   -1.002893455379415E-3    2.890951662684101E-2   -1.409882051179114E-3    4.427347341811159E-2    5.243026007131897E-1
 6.564436333900000E9    -5.592852736978150E-2    5.662980994009895E-1    2.961098999536998E-2   -9.730729833159002E-4    2.896233365782863E-2   -1.592378443324892E-3    4.568032605427729E-2    5.241943039991959E-1
 6.564450487450000E9    -5.477383853723589E-2    5.663949911465346E-1    2.964002463433215E-2   -9.509816134068206E-4    2.911440990921311E-2   -1.620472348350417E-3    4.679984294487278E-2    5.240140874094507E-1
 6.564464641000000E9    -5.362723658707423E-2    5.664812649166344E-1    2.981325948606960E-2   -1.168621416032100E-3    2.936065122086278E-2   -1.620748230647933E-3    4.805633026429731E-2    5.239763046241928E-1
 6.564478794550000E9    -5.257174535584760E-2    5.665201621689664E-1    2.999649986468848E-2   -1.227406503413422E-3    2.944800680163157E-2   -1.814289184430736E-3    4.931800835813981E-2    5.238269481726556E-1
 6.564492948100000E9    -5.142097349825290E-2    5.667226635728614E-1    3.014319159403553E-2   -1.287194827660367E-3    2.957995435367134E-2   -1.890534083591008E-3    5.061544823604445E-2    5.238820331497930E-1
 6.564507101650000E9    -5.032806039792581E-2    5.668344844797351E-1    3.039472427423257E-2   -1.448228080653460E-3    2.985327921677701E-2   -1.855384717771525E-3    5.176006503283576E-2    5.236055853620978E-1
 6.564521255200000E9    -4.908606523127293E-2    5.668181719476718E-1    3.047953769001960E-2   -1.387065268174033E-3    2.991287556726668E-2   -2.052104134049117E-3    5.320963292810074E-2    5.234994566877706E-1
 6.564535408750000E9    -4.797698841775938E-2    5.669529080722095E-1    3.068775759216393E-2   -1.563417078002378E-3    3.009987954755485E-2   -2.147131648160310E-3    5.456832497613048E-2    5.233539287570167E-1
 6.564549562300000E9    -4.694143023349188E-2    5.671082235803068E-1    3.075754882834985E-2   -1.715634054919978E-3    3.029995495580913E-2   -2.121411619887441E-3    5.576004250471010E-2    5.232479898750871E-1
 6.564563715850000E9    -4.568458395390836E-2    5.670764850861941E-1    3.106580803430890E-2   -1.748529995739066E-3    3.042422024517743E-2   -2.243530251439191E-3    5.689678108331315E-2    5.231579227500194E-1
 6.564577869400000E9    -4.455175532679606E-2    5.671382078941014E-1    3.126814825694692E-2   -1.729037802534501E-3    3.060420161677544E-2   -2.384790582619636E-3    5.816541565949995E-2    5.228856240336013E-1
 6.564592022950000E9    -4.348091067739358E-2    5.672229092880574E-1    3.142842569498824E-2   -1.740857749500049E-3    3.087686745731297E-2   -2.586439510625511E-3    5.957286664554366E-2    5.229541503509628E-1
 6.564606176500000E9    -4.227674255730830E-2    5.673277492605622E-1    3.152611150888718E-2   -1.928926713359012E-3    3.102046501805623E-2   -2.588739425558542E-3    6.081147086108579E-2    5.226708680423635E-1
 6.564620330050000E9    -4.112992539702878E-2    5.673967031378098E-1    3.176855646003300E-2   -2.218761128455289E-3    3.118170756448625E-2   -2.655869717165393E-3    6.207040497723998E-2    5.225879541854381E-1
 6.564634483600000E9    -4.006515460422922E-2    5.675033644490765E-1    3.187538232582805E-2   -2.131906194503703E-3    3.136525743313534E-2   -2.735082716078482E-3    6.345654260282679E-2    5.224845039367643E-1
 6.564648637150000E9    -3.882367325235592E-2    5.674750072088606E-1    3.201373527472471E-2   -2.320347020807501E-3    3.145799061723697E-2   -2.852730782982849E-3    6.469351619367496E-2    5.222686125969992E-1
 6.564662790700000E9    -3.775408415625226E-2    5.676396238431853E-1    3.225480139794950E-2   -2.548664109489037E-3    3.175116617672780E-2   -2.853959123816658E-3    6.605567887670387E-2    5.221382203043871E-1
 6.564676944250000E9    -3.652657712781163E-2    5.676595814871209E-1    3.242882509296489E-2   -2.419548085241828E-3    3.186328141179721E-2   -3.026912999006998E-3    6.735945822390940E-2    5.219084569660212E-1
 6.564691097800000E9    -3.537235866603696E-2    5.676779857004884E-1    3.270456272811539E-2   -2.635746713176532E-3    3.212313458642541E-2   -3.150819123956157E-3    6.866330534642488E-2    5.217722997877793E-1
 6.564705251350000E9    -3.433920790043216E-2    5.676428234302919E-1    3.286724277810173E-2   -2.698238400561577E-3    3.226225719855162E-2   -3.248941970809003E-3    7.003688760153066E-2    5.215084000404715E-1
 6.564719404900000E9    -3.303976767215402E-2    5.677761542400969E-1    3.297448430150077E-2   -2.915299364592115E-3    3.248850293033696E-2   -3.357822566576235E-3    7.132717609761087E-2    5.214427054530307E-1
 6.564733558450000E9    -3.202066072207124E-2    5.678264055348801E-1    3.322945457085789E-2   -3.026385335782304E-3    3.267386648521092E-2   -3.415400076558519E-3    7.262751636615733E-2    5.212789528428011E-1
 6.564747712000000E9    -3.085678291663313E-2    5.679811281607253E-1    3.334139276426994E-2   -2.951434366446705E-3    3.283177896825205E-2   -3.563476394131594E-3    7.401573276828632E-2    5.210326733522015E-1
 6.564761865550000E9    -2.959228271239548E-2    5.679835971741465E-1    3.366212297018609E-2   -3.163727686048828E-3    3.299915733600105E-2   -3.687787787061208E-3    7.518364941297496E-2    5.208149252238833E-1
 6.564776019100000E9    -2.864923081240506E-2    5.680167919172514E-1    3.365028219702555E-2   -3.286674355082886E-3    3.320975653059822E-2   -3.725491043298480E-3    7.664226245933280E-2    5.206488878729975E-1
 6.564790172650000E9    -2.740533376398762E-2    5.680443423845084E-1    3.396948906274581E-2   -3.286740989459110E-3    3.337041324298491E-2   -3.856623315060321E-3    7.801029907387363E-2    5.204691827961564E-1
 6.564804326200000E9    -2.622816840264753E-2    5.680696549912867E-1    3.423150724895866E-2   -3.407346994760725E-3    3.366119994114823E-2   -4.014542138957902E-3    7.916975152013586E-2    5.202258119318500E-1
 6.564818479750000E9    -2.501202918875729E-2    5.680821693251030E-1    3.445318479371796E-2   -3.573676915866395E-3    3.373411745672372E-2   -4.094030754414851E-3    8.073822169503675E-2    5.199384242384331E-1
 6.564832633300000E9    -2.376481728235155E-2    5.681866538197721E-1    3.457222895245934E-2   -3.851278972995841E-3    3.397530607022325E-2   -4.209878522404347E-3    8.200057064198772E-2    5.197519752605810E-1
 6.564846786850000E9    -2.273624716228907E-2    5.681374237074414E-1    3.489772187838003E-2   -3.920244925577156E-3    3.423075563955803E-2   -4.469274476729386E-3    8.334253523072074E-2    5.196188118675414E-1
 6.564860940400000E9    -2.149886320435496E-2    5.681632857103150E-1    3.505086306389264E-2   -3.901116190078109E-3    3.449595391655048E-2   -4.464902196640536E-3    8.462633077544945E-2    5.194507377712432E-1
 6.564875093950000E9    -2.025939886136997E-2    5.681892277786742E-1    3.534652450135659E-2   -4.121478648928019E-3    3.468225752688015E-2   -4.548897937421361E-3    8.613055816483375E-2    5.189839484504937E-1
 6.564889247500000E9    -1.914308650569120E-2    5.682059631649106E-1    3.561219318672541E-2   -4.288311686635944E-3    3.486874480832803E-2   -4.808165071432470E-3    8.752076680487376E-2    5.189596721994626E-1
 6.564903401050000E9    -1.801152019351970E-2    5.680764568258273E-1    3.577403818643908E-2   -4.414211337312493E-3    3.508725633495451E-2   -4.969262244084032E-3    8.873480368455028E-2    5.185974099564605E-1
 6.564917554600000E9    -1.686116241990851E-2    5.682727423317613E-1    3.604394941662092E-2   -4.367517289163071E-3    3.537044550575053E-2   -5.037932161247817E-3    9.020003066718328E-2    5.185179786494940E-1
 6.564931708150000E9    -1.564165408761309E-2    5.683281472142852E-1    3.619422581454600E-2   -4.604438090933178E-3    3.549883764922881E-2   -5.104735717918117E-3    9.146681639272648E-2    5.181403205622158E-1
 6.564945861700000E9    -1.446866976391004E-2    5.682366330485075E-1    3.619795077768137E-2   -4.734403166782444E-3    3.577529867346037E-2   -5.247247830203567E-3    9.295772322123812E-2    5.178906330412235E-1
 6.564960015250000E9    -1.336840961589697E-2    5.683117929823517E-1    3.665618955846046E-2   -4.854296722281989E-3    3.613398790285259E-2   -5.438933029820330E-3    9.415479449155822E-2    5.176132114309667E-1
 6.564974168800000E9    -1.217431766514939E-2    5.683232663064036E-1    3.688355276751248E-2   -5.065495647738959E-3    3.615734521143361E-2   -5.585785953928772E-3    9.577346620506122E-2    5.171796262526607E-1
 6.564988322350000E9    -1.104484612477362E-2    5.682987242680423E-1    3.718998670139756E-2   -5.136431416672228E-3    3.649287108035212E-2   -5.698565179284106E-3    9.722437971048936E-2    5.169649127641536E-1
 6.565002475900000E9    -9.763516451532797E-3    5.682565454326012E-1    3.740674590421055E-2   -5.338134962904650E-3    3.672162380709414E-2   -5.834543930856036E-3    9.863836064856486E-2    5.168178552857274E-1
 6.565016629450000E9    -8.578606965215224E-3    5.681840677183357E-1    3.747348716686869E-2   -5.604880166103767E-3    3.698925520574468E-2   -6.007724864741670E-3    9.998918579641271E-2    5.165316871297929E-1
 6.565030783000000E9    -7.481198063093451E-3    5.681927095964182E-1    3.783302091044170E-2   -5.541157298371235E-3    3.717999379083897E-2   -6.214947222318871E-3    1.013278438294942E-1    5.161540697958207E-1
 6.565044936550000E9    -6.194371211562910E-3    5.682680359953599E-1    3.799894695180592E-2   -5.733881714968084E-3    3.738401492158518E-2   -6.354164762646431E-3    1.026819582657843E-1    5.159935195920499E-1
 6.565059090100000E9    -4.935095099411207E-3    5.682136781586828E-1    3.835131628193738E-2   -5.810021197564130E-3    3.770439659843910E-2   -6.420534576760659E-3    1.042855244295358E-1    5.156063275523499E-1
 6.565073243650000E9    -3.888921630161664E-3    5.681688710511776E-1    3.860080557694801E-2   -6.074878033977765E-3    3.781503516112075E-2   -6.568071086963474E-3    1.056015758307419E-1    5.152967472499734E-1
 6.565087397200000E9    -2.629554744409325E-3    5.680999489518215E-1    3.876925618443380E-2   -6.174297778887544E-3    3.810803630984928E-2   -6.764229038136387E-3    1.070868438118315E-1    5.149644574619623E-1
 6.565101550750000E9    -1.423010532407895E-3    5.681117877583094E-1    3.897629078293482E-2   -6.363096671216544E-3    3.838482224386820E-2   -6.880569084692112E-3    1.086154586413527E-1    5.146975042292402E-1
 6.565115704300000E9    -2.328638926924604E-4    5.680714916755774E-1    3.923789279390547E-2   -6.567452607052413E-3    3.863488175709534E-2   -7.153280933802115E-3    1.099546577573750E-1    5.144434788834066E-1
 6.565129857850000E9     9.217825548867329E-4    5.681443485571240E-1    3.972783153441441E-2   -6.749921733388259E-3    3.892751347363758E-2   -7.286501180606639E-3    1.114993417212412E-1    5.139239342821857E-1
 6.565144011400000E9     2.092212211559829E-3    5.680177596591257E-1    3.982532789571936E-2   -6.888933833567569E-3    3.918440785527216E-2   -7.381658710725699E-3    1.129367271093764E-1    5.136794760247582E-1
 6.565158164950000E9     3.328649998183685E-3    5.678787209191133E-1    4.017284162046792E-2   -7.120341859455999E-3    3.940224747627318E-2   -7.557739367218618E-3    1.143497964678120E-1    5.131602647547023E-1
 6.565172318500000E9     4.564571210191924E-3    5.679799235137430E-1    4.052889228183579E-2   -7.199342717367815E-3    3.983242095194548E-2   -7.827389563855477E-3    1.159940576048086E-1    5.128489035746514E-1
 6.565186472050000E9     5.839186007178371E-3    5.678814751025547E-1    4.076171637194630E-2   -7.477688366135109E-3    4.002351597596539E-2   -7.920542010297104E-3    1.172920873722393E-1    5.125843374605886E-1
 6.565200625600000E9     6.941798462182468E-3    5.678129310508359E-1    4.101256120166078E-2   -7.648282273539269E-3    4.039361362294075E-2   -8.120211929118984E-3    1.187692563577584E-1    5.123548370738846E-1
 6.565214779150000E9     8.121957049607338E-3    5.678316238667910E-1    4.131616754487438E-2   -7.707685479280412E-3    4.057975322423055E-2   -8.338609154463798E-3    1.202400506492943E-1    5.117181114444944E-1
 6.565228932700000E9     9.467229727505605E-3    5.677077123151746E-1    4.174841895159397E-2   -7.968364694141300E-3    4.094852485515767E-2   -8.586527531525867E-3    1.218588389903926E-1    5.113248511534523E-1
 6.565243086250000E9     1.064982825580358E-2    5.676370969341787E-1    4.186664983624386E-2   -8.216466612461285E-3    4.117266062421494E-2   -8.661712602790266E-3    1.233222927174646E-1    5.108205210667262E-1
 6.565257239800000E9     1.186276852420676E-2    5.676538732685754E-1    4.219879819136016E-2   -8.403974716259052E-3    4.155941915818817E-2   -8.878483242273954E-3    1.249770883420662E-1    5.103973225670532E-1
 6.565271393350000E9     1.299295938955532E-2    5.675579107344778E-1    4.248388289636486E-2   -8.603574992461045E-3    4.182104328672159E-2   -9.116633815042826E-3    1.265406024076731E-1    5.099851303604876E-1
 6.565285546900000E9     1.441447040617504E-2    5.674851801561032E-1    4.286383807245552E-2   -8.798697277110707E-3    4.221464283582760E-2   -9.292131112614862E-3    1.281408185118440E-1    5.096404006024895E-1
 6.565299700450000E9     1.554405867746064E-2    5.673474961475232E-1    4.321289447511570E-2   -8.952388068934948E-3    4.237249754959087E-2   -9.468188509462764E-3    1.295675384621752E-1    5.092205007854980E-1
 6.565313854000000E9     1.679209587254258E-2    5.672412484933198E-1    4.348774354170516E-2   -9.115570822404360E-3    4.276037397322998E-2   -9.761677287512985E-3    1.309516708276042E-1    5.087438557131230E-1
 6.565328007550000E9     1.802377647310365E-2    5.671391367392445E-1    4.394539380256544E-2   -9.355164524223660E-3    4.302899952425123E-2   -1.004779986768218E-2    1.327410376938951E-1    5.081979460981142E-1
 6.565342161100000E9     1.915349286481416E-2    5.671185829522241E-1    4.408319932515157E-2   -9.649992446912519E-3    4.334043870489989E-2   -1.021105788078863E-2    1.342902779242212E-1    5.078197863150831E-1
 6.565356314650000E9     2.054350282081656E-2    5.669660128032700E-1    4.447140453583162E-2   -9.808675561564202E-3    4.381376193598160E-2   -1.042320083429031E-2    1.357420491586390E-1    5.073494218808341E-1
 6.565370468200000E9     2.173491237767001E-2    5.668260836148639E-1    4.466654838105898E-2   -1.019694793972526E-2    4.409044349299183E-2   -1.065589841336105E-2    1.374042061888946E-1    5.068637375307120E-1
 6.565384621750000E9     2.297001922598018E-2    5.667241676991279E-1    4.527375997235114E-2   -1.032065884773108E-2    4.433531107505514E-2   -1.092282047505391E-2    1.390057117460780E-1    5.062700187936958E-1
 6.565398775300000E9     2.417770666474873E-2    5.667523209693093E-1    4.552309601239848E-2   -1.049833738999752E-2    4.476494865054372E-2   -1.116793217663266E-2    1.404899709096798E-1    5.057141148420687E-1
 6.565412928850000E9     2.541056346335768E-2    5.664842323226912E-1    4.573005217146400E-2   -1.067451841099188E-2    4.511238937582160E-2   -1.150997082111002E-2    1.423164351939317E-1    5.052844183392043E-1
 6.565427082400000E9     2.670291929862748E-2    5.663367253412492E-1    4.631212494341520E-2   -1.109115473996436E-2    4.545668205456534E-2   -1.169705038804107E-2    1.438837967654026E-1    5.046618275907739E-1
 6.565441235950000E9     2.792424593049908E-2    5.663155246352787E-1    4.655260678671839E-2   -1.123075449891131E-2    4.577871292810457E-2   -1.195162243035335E-2    1.456210822557391E-1    5.042025708847920E-1
 6.565455389500000E9     2.929753696359135E-2    5.662079132290684E-1    4.693294259920795E-2   -1.156027069956342E-2    4.608932604632806E-2   -1.221619551334959E-2    1.470941601225640E-1    5.035704325656065E-1
