#  HZ   S   RI   R     50.00 
! Rohde & Schwarz Vector Network Analyzer 
! Rohde-Schwarz,ZNB20-2Port,1311601062101988,3.16
! Created: UTC 3/20/2024, 5:13:34 PM
! freq[Hz]                re:S11                  im:S11                  re:S21                  im:S21                  re:S12                  im:S12                  re:S22                  im:S22
 6.564840617000000E9    -2.494101996158484E-2    5.684904879273878E-1    3.194695051562067E-2   -2.401593393439953E-3    3.138636437732865E-2   -3.086451190616870E-3    7.762104420165356E-2    5.210300779844584E-1
 6.564852454075000E9    -2.388833651664074E-2    5.685954267426343E-1    3.236151435744249E-2   -2.630412290128810E-3    3.168950333527748E-2   -3.124769509305486E-3    7.852923494481366E-2    5.210074722037177E-1
 6.564864291150000E9    -2.312212932274815E-2    5.685703801593924E-1    3.243386568291810E-2   -2.623895962204368E-3    3.189713008116813E-2   -3.139493663460120E-3    7.979518463662726E-2    5.207602979921702E-1
 6.564876128225000E9    -2.210615355067985E-2    5.685761571613180E-1    3.241772926684065E-2   -2.771151028384581E-3    3.195413308780772E-2   -3.248100702570024E-3    8.076666910563636E-2    5.205668876186662E-1
 6.564887965300000E9    -2.114834947103936E-2    5.686949683394491E-1    3.269693137614337E-2   -2.781404464538973E-3    3.210278754199349E-2   -3.328156499791343E-3    8.179962985404883E-2    5.203689838585931E-1
 6.564899802375000E9    -2.012216542770637E-2    5.686750118255389E-1    3.288440981449474E-2   -2.791860147370723E-3    3.227159397443687E-2   -3.374315890076547E-3    8.295847253317706E-2    5.202638876025050E-1
 6.564911639450000E9    -1.912356372496538E-2    5.686384863308002E-1    3.298900802606055E-2   -2.980519639642284E-3    3.232347766082246E-2   -3.479068673212069E-3    8.406779658236645E-2    5.201292714010654E-1
 6.564923476525000E9    -1.827490286632392E-2    5.687404510640518E-1    3.311820134598750E-2   -3.020850235538155E-3    3.262501684571087E-2   -3.585841242766303E-3    8.529148435657141E-2    5.199121392359007E-1
 6.564935313600000E9    -1.722783050275557E-2    5.687244500505786E-1    3.326469689610253E-2   -3.103735695907548E-3    3.270604431566872E-2   -3.664514014038542E-3    8.627630509041201E-2    5.197533509450299E-1
 6.564947150675000E9    -1.629676222337651E-2    5.687002155481217E-1    3.339737482500566E-2   -3.229014812919050E-3    3.298038913323171E-2   -3.688131148533834E-3    8.735045465167661E-2    5.195338282436009E-1
 6.564958987750000E9    -1.534437992642842E-2    5.688719193489837E-1    3.350033294813908E-2   -3.247763575513538E-3    3.307860337292998E-2   -3.883359706375583E-3    8.849234135113446E-2    5.193737222950680E-1
 6.564970824825000E9    -1.432794901702543E-2    5.688229324175913E-1    3.386427555000196E-2   -3.487440666770506E-3    3.319915816518563E-2   -3.914615180025707E-3    8.962632872621763E-2    5.192976827640392E-1
 6.564982661900000E9    -1.328884275745723E-2    5.688084169526200E-1    3.392652731455011E-2   -3.519525018413397E-3    3.345679151328020E-2   -3.968179128814800E-3    9.066801919441000E-2    5.190573849564837E-1
 6.564994498975000E9    -1.244385808585160E-2    5.688314998784867E-1    3.420216780008725E-2   -3.589008250762246E-3    3.356641805758540E-2   -4.003656106796960E-3    9.179674865941567E-2    5.187773900411762E-1
 6.565006336050000E9    -1.143395500358353E-2    5.688299647078950E-1    3.436425748545033E-2   -3.705371337201473E-3    3.376387130731464E-2   -4.235163494556930E-3    9.301023854597598E-2    5.186491435793912E-1
 6.565018173125000E9    -1.039881326088056E-2    5.687829801130900E-1    3.441819250477272E-2   -3.827936466199657E-3    3.391536818035855E-2   -4.267335465043224E-3    9.416678751946841E-2    5.185051499701373E-1
 6.565030010200000E9    -9.473850857651796E-3    5.687687070927514E-1    3.470076663541501E-2   -3.853183786094274E-3    3.404439678994786E-2   -4.386430291665210E-3    9.523899446628085E-2    5.182322600948992E-1
 6.565041847275000E9    -8.466709988619476E-3    5.688489301870419E-1    3.488734440397216E-2   -3.945640032340835E-3    3.424267475189772E-2   -4.562124129687438E-3    9.648713361389034E-2    5.181246181798826E-1
 6.565053684350000E9    -7.569543911470887E-3    5.687763805700192E-1    3.512431014907072E-2   -4.050847596134637E-3    3.449511261642947E-2   -4.622199958002748E-3    9.760621158750427E-2    5.179142862222976E-1
 6.565065521425000E9    -6.614436611048567E-3    5.687878695261003E-1    3.523473868938608E-2   -4.232449014485521E-3    3.473359305177588E-2   -4.652938975662542E-3    9.872351282544611E-2    5.177701391728208E-1
 6.565077358500000E9    -5.482343443854904E-3    5.689330901710266E-1    3.539902816236321E-2   -4.221855570438401E-3    3.487099788127850E-2   -4.835753158689880E-3    9.977065993498946E-2    5.175122577938326E-1
 6.565089195575000E9    -4.666709877455015E-3    5.687383970559702E-1    3.555720290478995E-2   -4.323721659359551E-3    3.489811874710864E-2   -5.001439366045191E-3    1.009086523867244E-1    5.172363286766226E-1
 6.565101032650000E9    -3.638427368669029E-3    5.687696415865732E-1    3.575580530891410E-2   -4.564185307181141E-3    3.518298763315940E-2   -5.008782545931780E-3    1.022570381916143E-1    5.170032304580597E-1
 6.565112869725000E9    -2.648626929110964E-3    5.687258884081779E-1    3.591698971041581E-2   -4.541745922125405E-3    3.539806392822495E-2   -5.076547877952619E-3    1.032434147601281E-1    5.168888696258621E-1
 6.565124706800000E9    -1.654399667198890E-3    5.687760741301712E-1    3.616382991019339E-2   -4.693479093494123E-3    3.548396909559553E-2   -5.162261008181456E-3    1.045436146067974E-1    5.165241976376702E-1
 6.565136543875000E9    -6.629752012696487E-4    5.687476029697589E-1    3.632210085570448E-2   -4.853624777582718E-3    3.572463600817186E-2   -5.280146059919399E-3    1.056041185440178E-1    5.162781558308482E-1
 6.565148380950000E9     2.580771430307356E-4    5.688184148435960E-1    3.651018588088257E-2   -5.018941799161110E-3    3.597374757073062E-2   -5.475308714420813E-3    1.069115484033863E-1    5.161463211318726E-1
 6.565160218025000E9     1.319969212557646E-3    5.687876365596962E-1    3.669027919476121E-2   -4.997249464664263E-3    3.605491131852953E-2   -5.510294997060181E-3    1.079209641388814E-1    5.158563278512976E-1
 6.565172055100000E9     2.216111399199396E-3    5.687371729499648E-1    3.692994271922364E-2   -5.172837703375870E-3    3.636132684800546E-2   -5.685219056307998E-3    1.089834920364298E-1    5.155954782623302E-1
 6.565183892175000E9     3.243500824168352E-3    5.686248335656617E-1    3.704903817433840E-2   -5.258220221491998E-3    3.647065818324385E-2   -5.721090966022469E-3    1.102546058345118E-1    5.153621134854238E-1
 6.565195729250000E9     4.297258661466782E-3    5.686433558317892E-1    3.726223418730798E-2   -5.383259570401130E-3    3.673077614229895E-2   -5.987887373608696E-3    1.114883199596553E-1    5.151996542069727E-1
 6.565207566325000E9     5.337233667394845E-3    5.686482478628959E-1    3.744702492083421E-2   -5.553393949550117E-3    3.694444347389059E-2   -6.005308739014849E-3    1.125855064451015E-1    5.149148015845412E-1
 6.565219403400000E9     6.245160947678744E-3    5.686115564146671E-1    3.778037653832972E-2   -5.501293084993798E-3    3.705910486059810E-2   -6.066904942015947E-3    1.139249623557808E-1    5.146026281664674E-1
 6.565231240475000E9     7.287795337035906E-3    5.685783754472545E-1    3.799896031031680E-2   -5.682760718003606E-3    3.732206502380734E-2   -6.248671970565722E-3    1.150994357388213E-1    5.143759985018475E-1
 6.565243077550000E9     8.234477494080114E-3    5.686157530404199E-1    3.816084638604146E-2   -5.817514621074351E-3    3.756778287597453E-2   -6.370497698963523E-3    1.162162895887045E-1    5.140635127189711E-1
 6.565254914625000E9     9.209602705639731E-3    5.684130764242115E-1    3.837049750812554E-2   -5.878860579874426E-3    3.770581719302073E-2   -6.394355857297815E-3    1.174833972583224E-1    5.137082878155036E-1
 6.565266751700000E9     1.020731983383175E-2    5.684389990216533E-1    3.855756605181335E-2   -6.142716640559472E-3    3.796288774696288E-2   -6.617798437453688E-3    1.186413953866395E-1    5.135891331010536E-1
 6.565278588775000E9     1.128220473374473E-2    5.684434098024784E-1    3.889146320280700E-2   -6.203114225453480E-3    3.821483412855473E-2   -6.840006719213544E-3    1.198407938525509E-1    5.132684800710972E-1
 6.565290425850000E9     1.220544877867981E-2    5.683398325335164E-1    3.891100541582641E-2   -6.301216480408821E-3    3.841722074456833E-2   -6.793798814943188E-3    1.212154673835409E-1    5.129829065186337E-1
 6.565302262925000E9     1.328824314361618E-2    5.683482705506165E-1    3.928369455360704E-2   -6.497230775831723E-3    3.861131599919958E-2   -7.049828436314280E-3    1.223063261987288E-1    5.127743052014634E-1
 6.565314100000000E9     1.423738524077521E-2    5.682809397543164E-1    3.932511894871145E-2   -6.612348299723078E-3    3.878526166697793E-2   -7.207543310728375E-3    1.234522934191971E-1    5.123830718206974E-1
 6.565325937075000E9     1.514199376847102E-2    5.682250782979006E-1    3.970456582291015E-2   -6.719360779182487E-3    3.902935329354546E-2   -7.362899423757862E-3    1.246563896083506E-1    5.121273867652986E-1
 6.565337774150000E9     1.622198350286065E-2    5.682013124640044E-1    3.987493855145421E-2   -6.790968496674901E-3    3.936290181211083E-2   -7.410964891237970E-3    1.259109290418192E-1    5.118273446595214E-1
 6.565349611225000E9     1.719694542814360E-2    5.681563293660195E-1    4.018072013862119E-2   -7.011464849446363E-3    3.947000869503584E-2   -7.531469653449573E-3    1.272419779083564E-1    5.114419464610173E-1
 6.565361448300000E9     1.818618001020724E-2    5.680894285237557E-1    4.045470177184866E-2   -7.181384627579970E-3    3.972747699726542E-2   -7.729141992326923E-3    1.283331121235330E-1    5.113357610581498E-1
 6.565373285375000E9     1.929435034738868E-2    5.680728261414076E-1    4.055587165821206E-2   -7.364386577398277E-3    4.004604983041773E-2   -7.864878695696357E-3    1.296767058918041E-1    5.107319891580430E-1
 6.565385122450000E9     2.028186979114023E-2    5.679193969479528E-1    4.098085284963170E-2   -7.381957520638781E-3    4.014885037380406E-2   -8.003066752106811E-3    1.310292473232991E-1    5.105074518929311E-1
 6.565396959525000E9     2.141316640185880E-2    5.679619853857302E-1    4.121283075829853E-2   -7.646482189960280E-3    4.053370872027584E-2   -8.188348038949599E-3    1.322839996663470E-1    5.102926242376030E-1
 6.565408796600000E9     2.227384366767648E-2    5.677593595299200E-1    4.145341302720464E-2   -7.648089233228301E-3    4.072382366666773E-2   -8.246970800101111E-3    1.333660449455192E-1    5.098489967620902E-1
 6.565420633675000E9     2.326993017024217E-2    5.678863573416241E-1    4.158918265639567E-2   -7.978517937624918E-3    4.093383322743158E-2   -8.440073822269304E-3    1.347500413056860E-1    5.094500486742812E-1
 6.565432470750000E9     2.431230389768846E-2    5.677536979732040E-1    4.181000116831816E-2   -8.263415535043735E-3    4.121685838456739E-2   -8.675048488527433E-3    1.361340843693934E-1    5.092192447203228E-1
 6.565444307825000E9     2.529956320766391E-2    5.675470800030825E-1    4.218646292209055E-2   -8.139516904566524E-3    4.143240643735312E-2   -8.715225111642485E-3    1.372200759632844E-1    5.087947002798773E-1
 6.565456144900000E9     2.633986893062492E-2    5.675240426826954E-1    4.243745019351700E-2   -8.327745637153558E-3    4.164229236644250E-2   -8.863325257562451E-3    1.383925541115231E-1    5.084023664206708E-1
 6.565467981975000E9     2.741367590634552E-2    5.674932810911903E-1    4.268541965104900E-2   -8.599339333198758E-3    4.194318115654915E-2   -9.055415709459582E-3    1.397758897939256E-1    5.081087965697342E-1
 6.565479819050000E9     2.846169590110996E-2    5.673775150931000E-1    4.295832318346325E-2   -8.845665098149935E-3    4.221386582575348E-2   -9.322827484614596E-3    1.410904931969777E-1    5.077270475275893E-1
 6.565491656125000E9     2.940579893733738E-2    5.672990316330447E-1    4.305121562019080E-2   -8.849146885356632E-3    4.256468823226021E-2   -9.439097134897000E-3    1.424375519476172E-1    5.074030202862395E-1
 6.565503493200000E9     3.045518756009806E-2    5.672058049449882E-1    4.352802284773474E-2   -9.040173716123770E-3    4.267482252232460E-2   -9.607589521442965E-3    1.438860637435156E-1    5.070101334233882E-1
 6.565515330275000E9     3.157214156487070E-2    5.671021355590854E-1    4.373830320394154E-2   -9.267051758175984E-3    4.300135317199946E-2   -9.785197878064254E-3    1.450193131548317E-1    5.065289047451119E-1
 6.565527167350000E9     3.254821077838105E-2    5.671466195953372E-1    4.406927790819810E-2   -9.311536635177938E-3    4.325802811063086E-2   -9.954989452688823E-3    1.463864521129417E-1    5.061788005636005E-1
 6.565539004425000E9     3.371521545060493E-2    5.669959840720930E-1    4.424254068159710E-2   -9.655563996462127E-3    4.362098262810409E-2   -1.026700748204472E-2    1.477810024879075E-1    5.059304565984640E-1
 6.565550841500000E9     3.467419050509962E-2    5.668620779727728E-1    4.442209790771420E-2   -9.794731374644159E-3    4.386143675749971E-2   -1.032688298887014E-2    1.490857672580201E-1    5.053374661733476E-1
 6.565562678575000E9     3.565703331568378E-2    5.668096345751379E-1    4.487696608376390E-2   -9.958121487030664E-3    4.420465347197643E-2   -1.055991357732263E-2    1.503223910269493E-1    5.048870491050043E-1
 6.565574515650000E9     3.666566557735185E-2    5.666516241914397E-1    4.508953960560426E-2   -1.001542756464858E-2    4.438799571739878E-2   -1.058920440482766E-2    1.517641957127569E-1    5.045458053105798E-1
 6.565586352725000E9     3.770960080452607E-2    5.664886457229571E-1    4.554727765912422E-2   -1.028825504963875E-2    4.478792984773303E-2   -1.078689987081297E-2    1.530719706384170E-1    5.041429809005057E-1
 6.565598189800000E9     3.879311386936733E-2    5.663992551540370E-1    4.579307229743157E-2   -1.053523117006554E-2    4.498305044706014E-2   -1.106483278727365E-2    1.545132725066795E-1    5.036029699636182E-1
 6.565610026875000E9     3.989033853770269E-2    5.663140195266719E-1    4.593581283212975E-2   -1.062330763985765E-2    4.529093702337948E-2   -1.124827843079734E-2    1.557634297332036E-1    5.032045650324115E-1
 6.565621863950000E9     4.089433993298346E-2    5.662697700293849E-1    4.631400516959674E-2   -1.090580660925848E-2    4.561806298543485E-2   -1.147859645232627E-2    1.570475950349646E-1    5.028322946918752E-1
 6.565633701025000E9     4.194916078823683E-2    5.660700579511645E-1    4.669817756686123E-2   -1.112981084685343E-2    4.591063704180708E-2   -1.163935480219296E-2    1.585291804482185E-1    5.023298622290180E-1
 6.565645538100000E9     4.302009134514009E-2    5.659339855601782E-1    4.701255217235434E-2   -1.123205435110983E-2    4.618463599037557E-2   -1.191763627427483E-2    1.600215582153957E-1    5.017937133507721E-1
 6.565657375175000E9     4.403088468808097E-2    5.658726400154134E-1    4.729944082580844E-2   -1.152371248266115E-2    4.651852905598317E-2   -1.215068079307214E-2    1.611318807002206E-1    5.013250727222945E-1
 6.565669212250000E9     4.510532596274523E-2    5.657172709285665E-1    4.749655126818721E-2   -1.165511081557980E-2    4.684533503343672E-2   -1.232142665705130E-2    1.626312468173609E-1    5.009195329600877E-1
 6.565681049325000E9     4.616559792130555E-2    5.655064693202122E-1    4.790093873983630E-2   -1.189435100077983E-2    4.715057220328675E-2   -1.252514511793571E-2    1.640231189005735E-1    5.004059493895030E-1
 6.565692886400000E9     4.723873511180453E-2    5.654469129357920E-1    4.811602399084655E-2   -1.212279573064282E-2    4.756166542255835E-2   -1.273477022589558E-2    1.653964976394951E-1    4.998521580529396E-1
 6.565704723475000E9     4.824885371217524E-2    5.652772914081431E-1    4.865247586428402E-2   -1.251514463165702E-2    4.782278358329792E-2   -1.295625187961441E-2    1.668786390351892E-1    4.993707372767810E-1
 6.565716560550000E9     4.943005123723052E-2    5.651390851570069E-1    4.888361342454105E-2   -1.254511272348410E-2    4.824027932149410E-2   -1.317884298622726E-2    1.684840797101537E-1    4.988681350188128E-1
 6.565728397625000E9     5.054533740638290E-2    5.650132659075404E-1    4.933654919115465E-2   -1.287431711869659E-2    4.844756467192696E-2   -1.346363509165538E-2    1.699238247112654E-1    4.984332251037402E-1
 6.565740234700000E9     5.149672958222631E-2    5.647192953286098E-1    4.964137097097544E-2   -1.305874022240421E-2    4.889836126546329E-2   -1.378288137475020E-2    1.711589548962611E-1    4.978296234893726E-1
 6.565752071775000E9     5.259169801801312E-2    5.647156464247564E-1    5.001586348265996E-2   -1.347456282903715E-2    4.916174307312842E-2   -1.402517975081056E-2    1.726934509573872E-1    4.970942244781765E-1
 6.565763908850000E9     5.371445847236032E-2    5.644526135352275E-1    5.040754489085663E-2   -1.364296612101462E-2    4.954487575387809E-2   -1.419216706570209E-2    1.743006791650470E-1    4.967582918483747E-1
 6.565775745925000E9     5.481065197720252E-2    5.643332333290560E-1    5.073470130309635E-2   -1.399334130502016E-2    4.994110708171295E-2   -1.444248575192292E-2    1.755577753711670E-1    4.959132709236106E-1
 6.565787583000000E9     5.585936262204481E-2    5.641599073075100E-1    5.113345743569966E-2   -1.418889161160001E-2    5.019858413649562E-2   -1.479806821149471E-2    1.771903939546788E-1    4.954296407322374E-1
 6.565799420075000E9     5.691598126278496E-2    5.639649050206057E-1    5.143152610431563E-2   -1.425272074576229E-2    5.062561438914873E-2   -1.500893551198233E-2    1.786919245933766E-1    4.949297081475228E-1
 6.565811257150000E9     5.803182210880648E-2    5.638040154991866E-1    5.182275489028064E-2   -1.469596456244178E-2    5.097775223016008E-2   -1.537006998919658E-2    1.801824119814636E-1    4.942762933835154E-1
 6.565823094225000E9     5.924616057354687E-2    5.636479786592615E-1    5.221618239283658E-2   -1.505855608828032E-2    5.141815304685006E-2   -1.556722026315060E-2    1.817594769190363E-1    4.936260239501576E-1
 6.565834931300000E9     6.017645989827880E-2    5.634761834221158E-1    5.251649593872346E-2   -1.514682692044557E-2    5.188811653857373E-2   -1.593052015521145E-2    1.831416444407724E-1    4.930897364937923E-1
 6.565846768375000E9     6.129458280825129E-2    5.632760724826525E-1    5.304399795864134E-2   -1.540470233086945E-2    5.223413376309399E-2   -1.616636912009582E-2    1.847615451930343E-1    4.924679278516960E-1
 6.565858605450000E9     6.239427013179253E-2    5.630825246105009E-1    5.345593003226497E-2   -1.586595862543507E-2    5.259233799880023E-2   -1.642761570785748E-2    1.862374890127081E-1    4.917702251972437E-1
 6.565870442525000E9     6.355875809495115E-2    5.629229521288133E-1    5.394217430435936E-2   -1.626931296705280E-2    5.302353254104012E-2   -1.668810753387786E-2    1.878722495740510E-1    4.910440371111305E-1
 6.565882279600000E9     6.473454975445660E-2    5.625869432678208E-1    5.429001658001899E-2   -1.645690546980094E-2    5.338192553252780E-2   -1.719400039903558E-2    1.893385930578695E-1    4.903856812537321E-1
 6.565894116675000E9     6.577981497511474E-2    5.624058054740203E-1    5.462814073172170E-2   -1.670235628893184E-2    5.385871964620680E-2   -1.744683899448702E-2    1.909326151868706E-1    4.896852184863399E-1
 6.565905953750000E9     6.690093665563733E-2    5.623123190062720E-1    5.508206067361553E-2   -1.706371508212501E-2    5.420530720599608E-2   -1.767698557382661E-2    1.925239694986634E-1    4.889189591461404E-1
