#  HZ   S   RI   R     50.00 
! Rohde & Schwarz Vector Network Analyzer 
! Rohde-Schwarz,ZNB20-2Port,1311601062101988,3.16
! Created: UTC 3/20/2024, 4:58:23 PM
! freq[Hz]                re:S11                  im:S11                  re:S21                  im:S21                  re:S12                  im:S12                  re:S22                  im:S22
 6.564168190000000E9    -7.705859326708893E-2    5.639130421968597E-1    2.679602005164945E-2    2.931183950920963E-4    2.627794147920883E-2   -1.601700820819289E-4    2.227818198394858E-2    5.252331787871735E-1
 6.564182396925000E9    -7.602133387471201E-2    5.640218601414869E-1    2.699545099263607E-2    2.103247351070043E-4    2.644930337090160E-2   -2.455868911627396E-4    2.351183906914332E-2    5.251931620322592E-1
 6.564196603850000E9    -7.490182277672973E-2    5.643053169474485E-1    2.715003368595241E-2    3.448543872807526E-4    2.663896119466265E-2   -2.828793423159343E-4    2.457524411971143E-2    5.249808608739273E-1
 6.564210810775000E9    -7.375077956300635E-2    5.645050091855199E-1    2.717614317868656E-2   -5.123595629644467E-5    2.675042989148955E-2   -4.008510331592306E-4    2.594306375630422E-2    5.251948985596002E-1
 6.564225017700000E9    -7.270868028710513E-2    5.645603881463044E-1    2.742803962977939E-2    2.097707079163373E-5    2.690099858621790E-2   -4.811011934351021E-4    2.705630106698568E-2    5.249284794673958E-1
 6.564239224625000E9    -7.163043066942336E-2    5.646600965426368E-1    2.749912005707903E-2    5.759892958076484E-5    2.698287091550551E-2   -5.825287381432408E-4    2.826546892637384E-2    5.250139800069581E-1
 6.564253431550000E9    -7.042007846186381E-2    5.646999217279888E-1    2.761654522897823E-2   -1.099928671999633E-4    2.727370301464205E-2   -5.261403821373309E-4    2.959077809604009E-2    5.251242507226651E-1
 6.564267638475000E9    -6.919065164250787E-2    5.648027091277815E-1    2.782802287922728E-2   -1.539010460417995E-4    2.731024780734541E-2   -6.722047176417265E-4    3.075061665929757E-2    5.249511671181101E-1
 6.564281845400000E9    -6.815098416199518E-2    5.650081202177761E-1    2.790803154802292E-2   -2.174873558960591E-4    2.750027745081462E-2   -7.654539334472192E-4    3.194531286767125E-2    5.248502509692633E-1
 6.564296052325000E9    -6.710357531634355E-2    5.651911596998818E-1    2.814855590648776E-2   -2.180898423869724E-4    2.759016111263573E-2   -7.884352268261636E-4    3.308331517827520E-2    5.246526409056089E-1
 6.564310259250000E9    -6.588353147479813E-2    5.652921952860918E-1    2.812572639805256E-2   -4.002909524209313E-4    2.771359553449653E-2   -6.952718009820572E-4    3.453420691958602E-2    5.248816857278922E-1
 6.564324466175000E9    -6.480404995209281E-2    5.652960954142120E-1    2.837703968265448E-2   -5.468269570450598E-4    2.787294443604764E-2   -9.648330261121618E-4    3.563365886228020E-2    5.245804564276096E-1
 6.564338673100000E9    -6.367023081639078E-2    5.655184220989086E-1    2.853433792208271E-2   -4.748010710747534E-4    2.803996405013382E-2   -1.078641102382673E-3    3.692892340942461E-2    5.246703791733393E-1
 6.564352880025000E9    -6.242508456246498E-2    5.655503429637690E-1    2.857149002615548E-2   -5.902706596533047E-4    2.817152767399880E-2   -1.064570915157409E-3    3.806605978811713E-2    5.246038462238201E-1
 6.564367086950000E9    -6.134992097995317E-2    5.656675336221617E-1    2.879217193744997E-2   -6.654147709401005E-4    2.829770851575725E-2   -1.098871815010275E-3    3.934322775955968E-2    5.246042106831742E-1
 6.564381293875000E9    -6.025937834065936E-2    5.659339606162728E-1    2.893424062176502E-2   -6.648998643376374E-4    2.842508484202526E-2   -1.237144078975355E-3    4.071563527274090E-2    5.243792043761379E-1
 6.564395500800000E9    -5.915198012933173E-2    5.659300367533953E-1    2.916131589224545E-2   -8.701154226915389E-4    2.866319600977646E-2   -1.269145621309435E-3    4.198270503262391E-2    5.243315964508053E-1
 6.564409707725000E9    -5.808012526549637E-2    5.659683078441682E-1    2.934102844386079E-2   -9.390713022222913E-4    2.881145591584306E-2   -1.333365283249804E-3    4.317197919599725E-2    5.242271347606697E-1
 6.564423914650000E9    -5.685910404312881E-2    5.661532151724236E-1    2.943049807572264E-2   -9.375242475533560E-4    2.892264914604270E-2   -1.468861642986161E-3    4.432578757669769E-2    5.241127821482665E-1
 6.564438121575000E9    -5.578962656160018E-2    5.662565767752517E-1    2.953009927346269E-2   -9.925373969196811E-4    2.907132401391450E-2   -1.513236659150849E-3    4.573689519838195E-2    5.239707769917387E-1
 6.564452328500000E9    -5.454085706866286E-2    5.663637115115443E-1    2.956309574290164E-2   -1.150256718515912E-3    2.924321693824062E-2   -1.551366390064769E-3    4.690550629734468E-2    5.238383819098794E-1
 6.564466535425000E9    -5.339133562301583E-2    5.664571242161230E-1    2.976226776781758E-2   -1.176040086236356E-3    2.943368761184255E-2   -1.820441698532896E-3    4.801623926882944E-2    5.237747371753629E-1
 6.564480742350000E9    -5.240353472577281E-2    5.664392696176965E-1    2.997010838043208E-2   -1.146862172858758E-3    2.951012157267735E-2   -1.781291526315477E-3    4.955206243610125E-2    5.235355714448069E-1
 6.564494949275000E9    -5.124317239379537E-2    5.666692526715053E-1    3.024426297909436E-2   -1.355019840404541E-3    2.977960273187762E-2   -1.985440676816953E-3    5.076485041432749E-2    5.236282482897155E-1
 6.564509156200000E9    -5.007251507551730E-2    5.667801758348261E-1    3.034629537030125E-2   -1.504494407957614E-3    2.981869163737262E-2   -1.943002187361568E-3    5.199903696721921E-2    5.235605898626824E-1
 6.564523363125000E9    -4.892188826241679E-2    5.668637380174451E-1    3.052342597461419E-2   -1.526172368745939E-3    3.006170420804968E-2   -2.046836130111249E-3    5.331337441240353E-2    5.233850291349588E-1
 6.564537570050000E9    -4.787672544535379E-2    5.668764334265188E-1    3.071417587556672E-2   -1.651546696305202E-3    3.006489349744346E-2   -2.039492455280872E-3    5.461611637847848E-2    5.233602467823921E-1
 6.564551776975000E9    -4.666754536007402E-2    5.670188904454205E-1    3.088536809169555E-2   -1.577163461939495E-3    3.037114345711977E-2   -2.154972876940135E-3    5.580446507283569E-2    5.229664206628531E-1
 6.564565983900000E9    -4.554670683939674E-2    5.670626014901063E-1    3.106783764343921E-2   -1.857128645701465E-3    3.051718735581515E-2   -2.342404172987208E-3    5.694480385117766E-2    5.229186906294826E-1
 6.564580190825000E9    -4.440454731275696E-2    5.672188616169619E-1    3.125340619654900E-2   -1.877996255443238E-3    3.073117337382089E-2   -2.309247146699664E-3    5.833761934842946E-2    5.227420628668803E-1
 6.564594397750000E9    -4.321779942657850E-2    5.672150250170457E-1    3.142956053478980E-2   -2.137956697312709E-3    3.088309578397832E-2   -2.574186601921869E-3    5.971405943170962E-2    5.226468166040367E-1
 6.564608604675000E9    -4.205680742761949E-2    5.673865340019719E-1    3.165511978685396E-2   -2.070039947034848E-3    3.103609690932943E-2   -2.627938473713869E-3    6.101029209109201E-2    5.223885908607944E-1
 6.564622811600000E9    -4.092808256906692E-2    5.673844331490221E-1    3.170054179550803E-2   -2.184501672908900E-3    3.114239467279418E-2   -2.710699429698291E-3    6.228553917345223E-2    5.223994051653533E-1
 6.564637018525000E9    -3.973793781216919E-2    5.674268276652240E-1    3.189309241209293E-2   -2.333661163396239E-3    3.138545789679160E-2   -2.740548108458792E-3    6.358942789931429E-2    5.221759908188889E-1
 6.564651225450000E9    -3.865661267260013E-2    5.674725369285577E-1    3.219858860183544E-2   -2.373332539483047E-3    3.152904023116967E-2   -2.859112774058875E-3    6.488253051757371E-2    5.221594560308612E-1
 6.564665432375000E9    -3.759447266009201E-2    5.675759549479541E-1    3.235721561963348E-2   -2.613249371540899E-3    3.172371026486171E-2   -2.953983241395047E-3    6.630170473524415E-2    5.219042411360757E-1
 6.564679639300000E9    -3.631030508949119E-2    5.675921280179760E-1    3.254268641510107E-2   -2.453894796328971E-3    3.189353239503869E-2   -3.127399947271334E-3    6.749482963173414E-2    5.217374446518118E-1
 6.564693846225000E9    -3.519600152506836E-2    5.677443441148738E-1    3.270150702064171E-2   -2.650512559542785E-3    3.214587426296637E-2   -3.159862539811023E-3    6.884321027791991E-2    5.216331374238374E-1
 6.564708053150000E9    -3.403207514157638E-2    5.677749966471013E-1    3.289016147231383E-2   -2.693484824403264E-3    3.227161203948407E-2   -3.342195872315811E-3    7.022806984898093E-2    5.213913813365648E-1
 6.564722260075000E9    -3.290905925344986E-2    5.677671994984042E-1    3.299996980914134E-2   -2.899721365378283E-3    3.245559621500076E-2   -3.354653800910574E-3    7.146252437305380E-2    5.211938123622721E-1
 6.564736467000000E9    -3.172331322271781E-2    5.678463973075312E-1    3.334996008691146E-2   -2.925244905117930E-3    3.260175639752499E-2   -3.450065893953811E-3    7.285369710406868E-2    5.208778796342901E-1
 6.564750673925000E9    -3.057875156106756E-2    5.679197940121254E-1    3.336200737934241E-2   -3.111552464766755E-3    3.289255336505565E-2   -3.492350197495419E-3    7.414688535632957E-2    5.207783670759157E-1
 6.564764880850000E9    -2.944056079380168E-2    5.679789747724300E-1    3.365596898133001E-2   -3.298606379838454E-3    3.309535818826586E-2   -3.721165509153810E-3    7.539304185630653E-2    5.205938137517302E-1
 6.564779087775000E9    -2.812126434077234E-2    5.679561268182172E-1    3.375757121309144E-2   -3.336348897593007E-3    3.329705187929802E-2   -3.828997509081861E-3    7.681413309823985E-2    5.204880763355891E-1
 6.564793294700000E9    -2.710134890609055E-2    5.680277302099421E-1    3.417642532305167E-2   -3.396081993281606E-3    3.336088083593695E-2   -3.920267016975568E-3    7.824365861027248E-2    5.201952960779954E-1
 6.564807501625000E9    -2.586581208926489E-2    5.681367393891616E-1    3.426267851820367E-2   -3.604254180711015E-3    3.382197163365694E-2   -4.074783893284951E-3    7.954862873233352E-2    5.199374906837848E-1
 6.564821708550000E9    -2.462368013213843E-2    5.681404350366019E-1    3.444091631359895E-2   -3.552188406730172E-3    3.384465553770653E-2   -4.087744638363308E-3    8.078730415916517E-2    5.199119112126962E-1
 6.564835915475000E9    -2.361379517241081E-2    5.680633741584827E-1    3.459935206777867E-2   -3.873946358690356E-3    3.417655475825235E-2   -4.262464756493826E-3    8.220845707904445E-2    5.196649013030847E-1
 6.564850122400000E9    -2.252488764733825E-2    5.680463303065452E-1    3.490206733122821E-2   -3.966121258414404E-3    3.433484281205866E-2   -4.417388179645577E-3    8.349112873797071E-2    5.191212124597934E-1
 6.564864329325000E9    -2.115553230418483E-2    5.681948979942260E-1    3.522950308015970E-2   -4.099305208337923E-3    3.447481059405779E-2   -4.567873595683467E-3    8.505496758817244E-2    5.190457313613729E-1
 6.564878536250000E9    -1.997994211331355E-2    5.682105203674266E-1    3.530087151817754E-2   -4.122859544590607E-3    3.473063217329055E-2   -4.772600358491683E-3    8.627529431638192E-2    5.189480015585202E-1
 6.564892743175000E9    -1.891514485270555E-2    5.682711949487185E-1    3.558464903850538E-2   -4.429497117401922E-3    3.498573316392403E-2   -4.769512041750391E-3    8.749153494707446E-2    5.187390942289716E-1
 6.564906950100000E9    -1.769839567234572E-2    5.681592174068987E-1    3.575035208587482E-2   -4.499403599991165E-3    3.511822165863110E-2   -4.946316252650550E-3    8.902261891156979E-2    5.183080083249186E-1
 6.564921157025000E9    -1.655197717536537E-2    5.681889608657100E-1    3.598381920441950E-2   -4.453238532499656E-3    3.541461239378356E-2   -4.993319857369510E-3    9.041674830535829E-2    5.180213750357542E-1
 6.564935363950000E9    -1.529244147695307E-2    5.682029996616368E-1    3.623069183850193E-2   -4.625996686246068E-3    3.556946876302330E-2   -5.336016930208205E-3    9.181449024641300E-2    5.178878498207288E-1
 6.564949570875000E9    -1.404704611192278E-2    5.682035048506923E-1    3.651083032664788E-2   -4.808675217750540E-3    3.580176905164565E-2   -5.359784554960901E-3    9.319073007038670E-2    5.176350506099688E-1
 6.564963777800000E9    -1.296141555119555E-2    5.681990050970546E-1    3.671582923235087E-2   -4.758712360827830E-3    3.607782805200069E-2   -5.458976639718991E-3    9.462039705738258E-2    5.173322542584096E-1
 6.564977984725000E9    -1.189803673812454E-2    5.682809024978414E-1    3.696091078976074E-2   -5.206051568707333E-3    3.633520619526753E-2   -5.711589847480020E-3    9.593014608453854E-2    5.170163513316823E-1
 6.564992191650000E9    -1.059238812573789E-2    5.682053893492982E-1    3.724949689589428E-2   -5.245817436161749E-3    3.649768166335780E-2   -5.765674940054446E-3    9.735083782582331E-2    5.167177067902571E-1
 6.565006398575000E9    -9.480503213463515E-3    5.682905760398441E-1    3.730504636080140E-2   -5.446034290418550E-3    3.681352444667790E-2   -5.880057481105705E-3    9.891282135967268E-2    5.165890362558664E-1
 6.565020605500000E9    -8.322212516581735E-3    5.681212401060950E-1    3.769376685113923E-2   -5.586515818531742E-3    3.708677533718129E-2   -5.948174676397327E-3    1.001715385002009E-1    5.162409137645629E-1
 6.565034812425000E9    -7.080195121065138E-3    5.682340185589750E-1    3.795662248455319E-2   -5.696121965334094E-3    3.730173897296425E-2   -6.233094861459022E-3    1.017963107605665E-1    5.160351232637513E-1
 6.565049019350000E9    -5.839989846199893E-3    5.682175672685987E-1    3.822050175324080E-2   -5.770887651867324E-3    3.751089127699441E-2   -6.355287054239413E-3    1.030405156537392E-1    5.156359549937390E-1
 6.565063226275000E9    -4.605430489791301E-3    5.681718736192097E-1    3.837440688238147E-2   -5.994930201476643E-3    3.771936183362400E-2   -6.567339715865829E-3    1.045595513856961E-1    5.152956954386014E-1
 6.565077433200000E9    -3.423744066421668E-3    5.681447395579982E-1    3.864759067318451E-2   -6.212304737150820E-3    3.803383805585022E-2   -6.660956789519030E-3    1.059987771764695E-1    5.149000225382188E-1
 6.565091640125000E9    -2.230834200344822E-3    5.682123853503536E-1    3.907588488111802E-2   -6.393167542683836E-3    3.829913888631804E-2   -6.829526993964851E-3    1.073299861182859E-1    5.145940765233495E-1
 6.565105847050000E9    -1.048055900793703E-3    5.680095873046734E-1    3.919864486196713E-2   -6.422473910457025E-3    3.848385533915343E-2   -7.027414862975408E-3    1.088895984678156E-1    5.143638627471037E-1
 6.565120053975000E9     2.146450813789625E-4    5.681570458459481E-1    3.929110947641094E-2   -6.591597722955654E-3    3.882904666705978E-2   -7.135447353273569E-3    1.103765834802250E-1    5.140995835349806E-1
 6.565134260900000E9     1.358453393643341E-3    5.680840369085596E-1    3.979521876017478E-2   -6.682196824883854E-3    3.913613018037662E-2   -7.384626672091856E-3    1.118259472606304E-1    5.135962792691934E-1
 6.565148467825000E9     2.692569259144535E-3    5.679202332014329E-1    4.005358252510092E-2   -6.852133973484089E-3    3.938576642576735E-2   -7.451107662674161E-3    1.133351362842838E-1    5.133508031559969E-1
 6.565162674750000E9     3.804979566486545E-3    5.679562713763286E-1    4.026103153530514E-2   -7.228952723415203E-3    3.964507098618241E-2   -7.727011703307154E-3    1.148301555233322E-1    5.130030736172859E-1
 6.565176881675000E9     5.067120908221525E-3    5.679208937136557E-1    4.054264169628465E-2   -7.202817022094780E-3    3.988866514454067E-2   -7.891391265234823E-3    1.162649161852439E-1    5.125834606954166E-1
 6.565191088600000E9     6.206590365236656E-3    5.678180663671071E-1    4.092757615356096E-2   -7.504968095720438E-3    4.016013980546953E-2   -8.004613302880461E-3    1.176940635948310E-1    5.121494465172576E-1
 6.565205295525000E9     7.443154705376169E-3    5.678255528118671E-1    4.123840470583458E-2   -7.701212399132478E-3    4.046501324470687E-2   -8.207928897341508E-3    1.192290032985176E-1    5.116868491463481E-1
 6.565219502450000E9     8.663062682377263E-3    5.677249185009778E-1    4.155607429141379E-2   -7.915775639963310E-3    4.074725655049127E-2   -8.366971796590027E-3    1.208577828050573E-1    5.113985354699015E-1
 6.565233709375000E9     9.744117500406215E-3    5.676862153040806E-1    4.169287889347052E-2   -8.069391249418429E-3    4.104094583765115E-2   -8.620482037043263E-3    1.222739319230875E-1    5.110391156224161E-1
 6.565247916300000E9     1.104452807337958E-2    5.675160185721815E-1    4.198309052749367E-2   -8.219217397566907E-3    4.128937256048941E-2   -8.768120758581389E-3    1.240704589313973E-1    5.105508360374804E-1
 6.565262123225000E9     1.232170546739294E-2    5.674935062387760E-1    4.236764662546522E-2   -8.496837424467650E-3    4.162102540417466E-2   -9.002931636459181E-3    1.253599751548755E-1    5.100801551500989E-1
 6.565276330150000E9     1.345530335780228E-2    5.674691062509747E-1    4.260701123368635E-2   -8.608361864301800E-3    4.202343115915655E-2   -9.402471650392747E-3    1.269302211297300E-1    5.096695224922156E-1
 6.565290537075000E9     1.463441562692960E-2    5.674175752831838E-1    4.295153576620322E-2   -8.819500271399668E-3    4.227296141128654E-2   -9.519991099501692E-3    1.283995783935427E-1    5.090721605774960E-1
 6.565304744000000E9     1.598471506460226E-2    5.673308293277165E-1    4.330023326400632E-2   -9.138300000255214E-3    4.256949923815953E-2   -9.582772140122221E-3    1.299026318993647E-1    5.088677037075255E-1
 6.565318950925000E9     1.737341208981639E-2    5.671974208529109E-1    4.360353613967106E-2   -9.317032353197868E-3    4.287301012304322E-2   -9.795697381772455E-3    1.316182765366858E-1    5.083348130820208E-1
 6.565333157850000E9     1.843379662206091E-2    5.671266283033701E-1    4.390675237613247E-2   -9.609594873917880E-3    4.313377305984101E-2   -1.003797233681830E-2    1.331049969781037E-1    5.078431785198874E-1
 6.565347364775000E9     1.970603787766154E-2    5.669613357952210E-1    4.428767745897333E-2   -9.821473907434441E-3    4.360016712470232E-2   -1.032237851149391E-2    1.347084231748895E-1    5.074028088917402E-1
 6.565361571700000E9     2.093836706708174E-2    5.668761513382692E-1    4.458320448769803E-2   -1.000783413415347E-2    4.381392824807148E-2   -1.052098798769226E-2    1.364872377996492E-1    5.068401566599824E-1
 6.565375778625000E9     2.217310726697852E-2    5.667589738048893E-1    4.507019782832796E-2   -1.016085650672951E-2    4.412753519651864E-2   -1.084258838101650E-2    1.379554731573138E-1    5.062620199193352E-1
 6.565389985550000E9     2.344241975172345E-2    5.667698664085299E-1    4.538030424550125E-2   -1.036073648755851E-2    4.453857950449317E-2   -1.105313332282111E-2    1.395420103522344E-1    5.059640421156655E-1
 6.565404192475000E9     2.468630616169901E-2    5.665886562188654E-1    4.558199433292659E-2   -1.063525562233440E-2    4.483561414222046E-2   -1.139774758527189E-2    1.410274438176697E-1    5.053412673045754E-1
 6.565418399400000E9     2.598277961128208E-2    5.664533648469628E-1    4.604217275111474E-2   -1.078334744284368E-2    4.524171357543537E-2   -1.151378002817129E-2    1.427788282189643E-1    5.047047900862567E-1
 6.565432606325000E9     2.717930621765736E-2    5.663581814776141E-1    4.623760900565688E-2   -1.130912721959182E-2    4.564005049181954E-2   -1.179971975819343E-2    1.443805146243947E-1    5.042532743297209E-1
 6.565446813250000E9     2.841359828656901E-2    5.662740323219239E-1    4.674434906346630E-2   -1.138950994351364E-2    4.596779453795660E-2   -1.203747412756169E-2    1.460997940864540E-1    5.037198440071878E-1
