#  HZ   S   RI   R     50.00 
! Rohde & Schwarz Vector Network Analyzer 
! Rohde-Schwarz,ZNB20-2Port,1311601062101988,3.16
! Created: UTC 3/20/2024, 5:13:48 PM
! freq[Hz]                re:S11                  im:S11                  re:S21                  im:S21                  re:S12                  im:S12                  re:S22                  im:S22
 6.564860906000000E9    -2.356227032102926E-2    5.685174331020184E-1    3.231849536902106E-2   -2.555237228623433E-3    3.170784848481779E-2   -3.025471408599137E-3    7.933345577481565E-2    5.209829073117851E-1
 6.564872672700000E9    -2.247332661011102E-2    5.686529488573087E-1    3.235381556347904E-2   -2.657049814605059E-3    3.176103266442334E-2   -3.132708671780973E-3    8.042863450948495E-2    5.206762104880444E-1
 6.564884439400000E9    -2.166383182539761E-2    5.685846851356779E-1    3.236895115297817E-2   -2.715014630970645E-3    3.197936560623704E-2   -3.272181217612375E-3    8.139960186010498E-2    5.206083196396919E-1
 6.564896206100000E9    -2.067863674499316E-2    5.686847841036746E-1    3.269621651046238E-2   -2.798521324987665E-3    3.208333067178192E-2   -3.273389900583005E-3    8.246812580854124E-2    5.203830578688787E-1
 6.564907972800000E9    -1.962649324476853E-2    5.687076031290028E-1    3.266248418203332E-2   -2.895168972450767E-3    3.228790586913535E-2   -3.454470273893061E-3    8.358258803321626E-2    5.204025115988330E-1
 6.564919739500000E9    -1.875121198962723E-2    5.686495211982421E-1    3.302078966960043E-2   -2.982137871368995E-3    3.242526534770670E-2   -3.457545135511345E-3    8.482962966016061E-2    5.202078801884015E-1
 6.564931506200000E9    -1.769023185551175E-2    5.687309533989362E-1    3.315111241383940E-2   -3.118765400638607E-3    3.257011216379996E-2   -3.636310489128634E-3    8.581221301909531E-2    5.198182421215524E-1
 6.564943272900000E9    -1.680527090337146E-2    5.687035439895702E-1    3.322020626883015E-2   -3.290295203226573E-3    3.276781563968788E-2   -3.695572303763543E-3    8.702856851396386E-2    5.196927270968615E-1
 6.564955039600000E9    -1.587345198766697E-2    5.687348648923749E-1    3.341042699937952E-2   -3.220773439146189E-3    3.290487686484889E-2   -3.695180038684910E-3    8.807760751310093E-2    5.195435282371977E-1
 6.564966806300000E9    -1.486972453728759E-2    5.688623713593892E-1    3.365801125610310E-2   -3.395409118485052E-3    3.306305028768857E-2   -3.847788041750408E-3    8.904853278246530E-2    5.193042185771661E-1
 6.564978573000000E9    -1.393966941031323E-2    5.687266217044321E-1    3.378166526925080E-2   -3.460361729328329E-3    3.325158568633686E-2   -3.932614393819148E-3    9.027498946150946E-2    5.191962631017796E-1
 6.564990339700000E9    -1.289341220749955E-2    5.688736422483810E-1    3.398850016175985E-2   -3.334010154334543E-3    3.343870421099792E-2   -4.052968550908319E-3    9.134324284685476E-2    5.190888429692287E-1
 6.565002106400000E9    -1.185605190433506E-2    5.686797385710193E-1    3.416894473258913E-2   -3.533121382956350E-3    3.362575242614530E-2   -4.159963318424406E-3    9.250573950568125E-2    5.188711365907354E-1
 6.565013873100000E9    -1.101794415388481E-2    5.688177902139595E-1    3.439024483594132E-2   -3.683560384582074E-3    3.376775677428936E-2   -4.152280524255974E-3    9.348772423247302E-2    5.186956353249543E-1
 6.565025639800000E9    -1.006343118540167E-2    5.687887547977923E-1    3.436145195891131E-2   -3.876451332215804E-3    3.400176452501100E-2   -4.266412943834292E-3    9.461260484555208E-2    5.185316037154065E-1
 6.565037406500000E9    -9.084627788591013E-3    5.686967980981869E-1    3.487000437361196E-2   -4.021973765934730E-3    3.415096148922075E-2   -4.461747012792300E-3    9.574811732515140E-2    5.183228086917546E-1
 6.565049173200000E9    -8.116405482482762E-3    5.688119421706260E-1    3.486961452613482E-2   -3.850909056824432E-3    3.424771064993474E-2   -4.453944902777535E-3    9.700484619528191E-2    5.180467387129809E-1
 6.565060939900000E9    -7.143508389141114E-3    5.688198937184861E-1    3.498829074640312E-2   -4.098322625856139E-3    3.444698934786849E-2   -4.578101398898582E-3    9.807178872439605E-2    5.178252993652978E-1
 6.565072706600000E9    -6.076698046126507E-3    5.688026491638312E-1    3.531368515012134E-2   -4.216783546093461E-3    3.460095297938721E-2   -4.748460513478314E-3    9.938821240781169E-2    5.176043983885850E-1
 6.565084473300000E9    -5.231836848171963E-3    5.688163667160653E-1    3.528261455452563E-2   -4.346090799039654E-3    3.483277999101145E-2   -4.732584626706550E-3    1.003481451239372E-1    5.173055883175377E-1
 6.565096240000000E9    -4.262280968955415E-3    5.687387828907949E-1    3.559257811394298E-2   -4.252515465794839E-3    3.497262096607923E-2   -4.912529936462427E-3    1.014416737770478E-1    5.172257966197513E-1
 6.565108006700000E9    -3.252159745966510E-3    5.689278411881581E-1    3.583566557308963E-2   -4.525415218192523E-3    3.526132279203004E-2   -5.008937763343489E-3    1.026683334390982E-1    5.169838701471452E-1
 6.565119773400000E9    -2.204520265874534E-3    5.688723176555563E-1    3.585251472229096E-2   -4.701298120683283E-3    3.535744237032264E-2   -5.153928340235620E-3    1.039370796765188E-1    5.168087494445301E-1
 6.565131540100000E9    -1.313510990973076E-3    5.688148684789042E-1    3.620616940003055E-2   -4.674167658664256E-3    3.558340889310987E-2   -5.249040690505653E-3    1.049273702275316E-1    5.166685244200911E-1
 6.565143306800000E9    -2.708462957877954E-4    5.687653302901580E-1    3.636873162016623E-2   -4.919984236255495E-3    3.572352741550016E-2   -5.339593866266839E-3    1.059478691261549E-1    5.163228753057670E-1
 6.565155073500000E9     6.089735159981180E-4    5.688046010655176E-1    3.645234664257996E-2   -4.920873005242135E-3    3.587700844203290E-2   -5.330364015024026E-3    1.072880926423427E-1    5.160827163399391E-1
 6.565166840200000E9     1.731344386690415E-3    5.687360309188355E-1    3.674610332770949E-2   -5.027726600897849E-3    3.608265269301281E-2   -5.549928745064008E-3    1.084895283870218E-1    5.157913104901012E-1
 6.565178606900000E9     2.723549574603746E-3    5.688294501529082E-1    3.695235438839839E-2   -5.280440487194642E-3    3.631441682519260E-2   -5.631106820956384E-3    1.096032293020644E-1    5.157253353616491E-1
 6.565190373600000E9     3.602410679450902E-3    5.686783055093090E-1    3.712520787778117E-2   -5.207888160988853E-3    3.648352306103157E-2   -5.787458349243314E-3    1.106612534075944E-1    5.153693766508685E-1
 6.565202140300000E9     4.644763896104774E-3    5.686434411341742E-1    3.728635365210670E-2   -5.286112023539269E-3    3.661437487359428E-2   -5.844301477839662E-3    1.119765415108164E-1    5.149790980472152E-1
 6.565213907000000E9     5.569755795864563E-3    5.686917582015680E-1    3.759911127772566E-2   -5.555472658847370E-3    3.687433317024392E-2   -6.044237160686530E-3    1.132045184663322E-1    5.149596736204355E-1
 6.565225673700000E9     6.538872647497015E-3    5.686574225937295E-1    3.771536136750284E-2   -5.499797052320685E-3    3.710334539662142E-2   -6.122132290328378E-3    1.143594778636646E-1    5.145748447968626E-1
 6.565237440400000E9     7.585919506718201E-3    5.685830443498289E-1    3.797715103970335E-2   -5.807968980261397E-3    3.731380652190078E-2   -6.231398865672856E-3    1.155227457863467E-1    5.144944567520698E-1
 6.565249207100000E9     8.604912520959473E-3    5.685633068034178E-1    3.807089952742441E-2   -5.862479142530653E-3    3.755290571664208E-2   -6.360696870894094E-3    1.165869576190882E-1    5.141860749233401E-1
 6.565260973800000E9     9.557578126557088E-3    5.684351835977173E-1    3.832140020899630E-2   -5.934208398391656E-3    3.769854601192574E-2   -6.488347433315574E-3    1.178004443712523E-1    5.138344675955631E-1
 6.565272740500000E9     1.057439190993116E-2    5.684390485946170E-1    3.863303578562932E-2   -6.067231404834049E-3    3.795835400954068E-2   -6.659888252026795E-3    1.191080296705742E-1    5.134682305777294E-1
 6.565284507200000E9     1.153067684266396E-2    5.684773514731384E-1    3.878956357576254E-2   -6.184349921276519E-3    3.817860957715457E-2   -6.762335560130791E-3    1.202872559883462E-1    5.131603011933600E-1
 6.565296273900000E9     1.253231488905931E-2    5.683441220567877E-1    3.898264284367728E-2   -6.343777593782244E-3    3.838243780783636E-2   -6.875912926595616E-3    1.214425547752688E-1    5.128531755595391E-1
 6.565308040600000E9     1.345903071346374E-2    5.683498278751151E-1    3.924600955781714E-2   -6.370466985413422E-3    3.855271110865106E-2   -7.001847760914417E-3    1.226783188134351E-1    5.128092282970887E-1
 6.565319807300000E9     1.458302503358493E-2    5.682313646631075E-1    3.935839962723333E-2   -6.529808744197842E-3    3.880367743928564E-2   -7.124200608702627E-3    1.239002279427446E-1    5.124199220615220E-1
 6.565331574000000E9     1.551329707316423E-2    5.681791235601926E-1    3.973014407391821E-2   -6.691419864312002E-3    3.917046059671541E-2   -7.209320495276958E-3    1.250388728067599E-1    5.121648818587058E-1
 6.565343340700000E9     1.658249035244190E-2    5.682408554537924E-1    3.984625170759146E-2   -6.852538385903740E-3    3.929424236990398E-2   -7.362834341790808E-3    1.263979451166790E-1    5.118349830209399E-1
 6.565355107400000E9     1.752214701301314E-2    5.681336902157180E-1    4.014678268039400E-2   -7.003388686116913E-3    3.957458262067094E-2   -7.594615079527532E-3    1.276501377114864E-1    5.115128919645439E-1
 6.565366874100000E9     1.842313653790281E-2    5.681067501863298E-1    4.051781818228192E-2   -7.108780436864699E-3    3.969946320887657E-2   -7.616485387589867E-3    1.288638247669084E-1    5.112430341737149E-1
 6.565378640800000E9     1.944331856060175E-2    5.679237649174798E-1    4.060139402629531E-2   -7.160186045497901E-3    3.993352108816601E-2   -7.764149599388661E-3    1.299585656464465E-1    5.107172092535810E-1
 6.565390407500000E9     2.054621260247882E-2    5.679997390179500E-1    4.095886674234426E-2   -7.401988708587362E-3    4.024021849485237E-2   -7.951265135323436E-3    1.314364638892140E-1    5.105860046945401E-1
 6.565402174200000E9     2.167914246281882E-2    5.679131306345120E-1    4.098821729394504E-2   -7.533490620290575E-3    4.048481517833668E-2   -8.172600669964759E-3    1.325827278327302E-1    5.102272919357203E-1
 6.565413940900000E9     2.261229274290468E-2    5.677703237512839E-1    4.127358208736320E-2   -7.676949752005194E-3    4.064914131070388E-2   -8.296425931785112E-3    1.336591771648807E-1    5.099105196664681E-1
 6.565425707600000E9     2.363396102852351E-2    5.678426261429872E-1    4.157461045903255E-2   -7.841620975008711E-3    4.089598324134791E-2   -8.422731387768195E-3    1.349983604657083E-1    5.096764833648544E-1
 6.565437474300000E9     2.460038022042386E-2    5.676789963561829E-1    4.180942143832549E-2   -8.016048697534268E-3    4.104060488424836E-2   -8.633540053740091E-3    1.363009399088866E-1    5.091748074384335E-1
 6.565449241000000E9     2.552310843142967E-2    5.676271903361459E-1    4.206597865189678E-2   -8.067905460998103E-3    4.139335386175779E-2   -8.760312895371372E-3    1.376277235689032E-1    5.089408284075569E-1
 6.565461007700000E9     2.662344830443526E-2    5.674151260181611E-1    4.241935777214401E-2   -8.356110924789047E-3    4.165453193012975E-2   -8.917002497744358E-3    1.388839209355385E-1    5.085613056275289E-1
 6.565472774400000E9     2.758504020984755E-2    5.675499850563511E-1    4.276389183983108E-2   -8.576408039929062E-3    4.191503465265452E-2   -9.073377770346554E-3    1.400622484932966E-1    5.080597953805320E-1
 6.565484541100000E9     2.872370412602375E-2    5.674165906295574E-1    4.287442455148101E-2   -8.613294892519312E-3    4.214887056201874E-2   -9.210302693310926E-3    1.414547538807693E-1    5.077782436672384E-1
 6.565496307800000E9     2.971967878874137E-2    5.672374969502616E-1    4.326194672529735E-2   -8.923352279730472E-3    4.242636394823054E-2   -9.375800503706117E-3    1.427736933470951E-1    5.074204462151539E-1
 6.565508074500000E9     3.080905653339581E-2    5.672156195581342E-1    4.338982363620676E-2   -9.094212523975976E-3    4.268738719642400E-2   -9.552691593565940E-3    1.439657425023712E-1    5.070237989276661E-1
 6.565519841200000E9     3.162736719456200E-2    5.670311467575009E-1    4.368614639456241E-2   -9.125505862040370E-3    4.298203579537446E-2   -9.796639975066235E-3    1.453952911718630E-1    5.067173827302521E-1
 6.565531607900000E9     3.268261401269255E-2    5.670486390604090E-1    4.399185331259239E-2   -9.229414714765219E-3    4.327328734209224E-2   -9.904472528121771E-3    1.467575205815357E-1    5.061346338232863E-1
 6.565543374600000E9     3.384585551073319E-2    5.669666608824014E-1    4.440313806080620E-2   -9.489521091639865E-3    4.348827112971024E-2   -1.014400166603636E-2    1.478032511538364E-1    5.057440900634106E-1
 6.565555141300000E9     3.478326862370799E-2    5.668438699710711E-1    4.447622279015107E-2   -9.887940747606962E-3    4.382321838684288E-2   -1.029202761671807E-2    1.492853636119648E-1    5.054169584984383E-1
 6.565566908000000E9     3.590130603608878E-2    5.667254582937103E-1    4.488781639090383E-2   -9.861640610246960E-3    4.401914413418787E-2   -1.048670209097756E-2    1.506240354249997E-1    5.051056944134401E-1
 6.565578674700000E9     3.694688715116987E-2    5.666929714174236E-1    4.511284342514658E-2   -1.013788437257621E-2    4.438412771182826E-2   -1.062169578876987E-2    1.519195999907587E-1    5.046451592420501E-1
 6.565590441400000E9     3.791004769143883E-2    5.664074738102532E-1    4.547102161235062E-2   -1.026792921364299E-2    4.473390661824068E-2   -1.088684615367664E-2    1.533460968942304E-1    5.041587422417357E-1
 6.565602208100000E9     3.893543256570868E-2    5.664027908124676E-1    4.563413340438831E-2   -1.061811814732289E-2    4.490647815358524E-2   -1.107437551406115E-2    1.545780887991388E-1    5.036836106261463E-1
 6.565613974800000E9     4.007030991561019E-2    5.662999789434543E-1    4.598094446397915E-2   -1.053742406401942E-2    4.515393294346227E-2   -1.118679012691544E-2    1.559633497806588E-1    5.033226804110279E-1
 6.565625741500000E9     4.110384654497144E-2    5.661987345078836E-1    4.632104024230074E-2   -1.087725941766811E-2    4.549785098113794E-2   -1.148223718722060E-2    1.572064572252409E-1    5.028456557201231E-1
 6.565637508200000E9     4.212038681776178E-2    5.660151807683639E-1    4.665064149026334E-2   -1.106626060367226E-2    4.583757558548671E-2   -1.160593393630945E-2    1.586872809397118E-1    5.024336404189126E-1
 6.565649274900000E9     4.311147616322152E-2    5.659660637499085E-1    4.699008485712652E-2   -1.128242657802818E-2    4.619485136116496E-2   -1.182882122843569E-2    1.600040624254075E-1    5.019848392872527E-1
 6.565661041600000E9     4.422092298008027E-2    5.658368709742365E-1    4.711921145238403E-2   -1.133809235644496E-2    4.640273105642975E-2   -1.198292091100994E-2    1.614548454803474E-1    5.015090454188385E-1
 6.565672808300000E9     4.523778904882424E-2    5.656067974279226E-1    4.770058002874876E-2   -1.175035517822384E-2    4.683687699605309E-2   -1.226613830210655E-2    1.628917991178222E-1    5.009616372057324E-1
 6.565684575000000E9     4.638093425880298E-2    5.655728800235329E-1    4.785250254630951E-2   -1.185891543963469E-2    4.711675529328587E-2   -1.252104440613797E-2    1.642136826476268E-1    5.004167446215053E-1
 6.565696341700000E9     4.743257331677006E-2    5.653581242085733E-1    4.821112203049985E-2   -1.218638682945516E-2    4.745038029107490E-2   -1.267793926051422E-2    1.656039247996041E-1    4.999195845756337E-1
 6.565708108400000E9     4.832317320315861E-2    5.653992428755905E-1    4.855209926467265E-2   -1.240263534342201E-2    4.776138347375274E-2   -1.303036618659814E-2    1.670720639420407E-1    4.994354558555932E-1
 6.565719875100000E9     4.946916781968953E-2    5.651611585153384E-1    4.892204861511051E-2   -1.256966971009237E-2    4.812312024763638E-2   -1.318083185441550E-2    1.684885879176488E-1    4.989262407076674E-1
 6.565731641800000E9     5.050233639585785E-2    5.650046512020189E-1    4.930265954846597E-2   -1.277424476648217E-2    4.834592397875766E-2   -1.345734375357007E-2    1.696684796061664E-1    4.982851850488297E-1
 6.565743408500000E9     5.158100257616113E-2    5.648674769197727E-1    4.955693246227297E-2   -1.303788147389524E-2    4.878334779009211E-2   -1.360853580750625E-2    1.714059803440471E-1    4.979167253164674E-1
 6.565755175200000E9     5.264545952528493E-2    5.647394192133143E-1    4.993283127151541E-2   -1.320719512866965E-2    4.909772907524602E-2   -1.390344828091069E-2    1.727811194927271E-1    4.973541315710430E-1
 6.565766941900000E9     5.372762734116456E-2    5.646025326413724E-1    5.034030465331461E-2   -1.349749370048208E-2    4.946926938913362E-2   -1.421040486794547E-2    1.742804347812628E-1    4.968652017472852E-1
 6.565778708600000E9     5.489851839403460E-2    5.644621930915098E-1    5.065846802527395E-2   -1.383564575033839E-2    4.991278528309833E-2   -1.430847922009450E-2    1.757043790817944E-1    4.962624740967650E-1
 6.565790475300000E9     5.588281688050657E-2    5.642133210944614E-1    5.098835849456421E-2   -1.409483778301271E-2    5.014486119166111E-2   -1.468824655570802E-2    1.772224456730851E-1    4.955276729486404E-1
 6.565802242000000E9     5.699535654147229E-2    5.639186353947937E-1    5.132396603857965E-2   -1.428327838503692E-2    5.055272212994612E-2   -1.490011004661872E-2    1.786266007630246E-1    4.951263308229297E-1
 6.565814008700000E9     5.817036626957584E-2    5.637109268085172E-1    5.170926973536830E-2   -1.454746908676542E-2    5.099220341905989E-2   -1.522350911153034E-2    1.802077040551394E-1    4.944185545132462E-1
 6.565825775400000E9     5.919900741356993E-2    5.636706619182813E-1    5.219362929714692E-2   -1.496154971577421E-2    5.134992175139425E-2   -1.538667390706739E-2    1.814903967023411E-1    4.938893982462785E-1
 6.565837542100000E9     6.025342446469944E-2    5.635569412424851E-1    5.251186166618513E-2   -1.512251868970433E-2    5.165575428915498E-2   -1.579139620308379E-2    1.832212894156812E-1    4.933142843348522E-1
 6.565849308800000E9     6.131121070729968E-2    5.633440594138109E-1    5.279860608098564E-2   -1.544867184716783E-2    5.207598086696611E-2   -1.609690168746880E-2    1.847246568344062E-1    4.926382711306403E-1
 6.565861075500000E9     6.244398502592693E-2    5.631133489470939E-1    5.330704484426392E-2   -1.580015694541625E-2    5.253976006209231E-2   -1.632596985602218E-2    1.862865189620589E-1    4.919117613525580E-1
 6.565872842200000E9     6.357534804708359E-2    5.630959607860251E-1    5.385652805855962E-2   -1.593065839123997E-2    5.290960978276053E-2   -1.666167162868889E-2    1.877659002866617E-1    4.912264370247773E-1
 6.565884608900000E9     6.464833611898836E-2    5.626698523551470E-1    5.409222614528596E-2   -1.628461194999739E-2    5.334576600085874E-2   -1.700073166423267E-2    1.892651439138173E-1    4.906678836204320E-1
 6.565896375600000E9     6.578560469547359E-2    5.624629532271120E-1    5.449210782103546E-2   -1.662071969528124E-2    5.359964425061221E-2   -1.728718875309456E-2    1.909525256283988E-1    4.899078925453891E-1
 6.565908142300000E9     6.690961154512806E-2    5.622916561458439E-1    5.486629995909623E-2   -1.694662771716498E-2    5.412885977189814E-2   -1.765944024116545E-2    1.924713770634267E-1    4.892562218175807E-1
 6.565919909000000E9     6.799628200294459E-2    5.621703093335066E-1    5.534033058451833E-2   -1.730150706755506E-2    5.451509995130627E-2   -1.797158550419580E-2    1.940133984936602E-1    4.885888591220930E-1
