#  HZ   S   RI   R     50.00 
! Rohde & Schwarz Vector Network Analyzer 
! Rohde-Schwarz,ZNB20-2Port,1311601062101988,3.16
! Created: UTC 3/20/2024, 5:13:51 PM
! freq[Hz]                re:S11                  im:S11                  re:S21                  im:S21                  re:S12                  im:S12                  re:S22                  im:S22
 6.564865281000000E9    -2.311538254267952E-2    5.687553570153282E-1    3.231501839002397E-2   -2.518092715463982E-3    3.169519320185493E-2   -3.160021562382289E-3    7.961629602797146E-2    5.208142052079067E-1
 6.564877032050000E9    -2.221770476181177E-2    5.686092327669995E-1    3.239965811010833E-2   -2.712388503203456E-3    3.193548542790130E-2   -3.186849672282343E-3    8.075630462436929E-2    5.206192129858767E-1
 6.564888783100000E9    -2.128716620952587E-2    5.686930258037319E-1    3.253758025740151E-2   -2.743865245482188E-3    3.197858493836239E-2   -3.291838823982246E-3    8.171006822276097E-2    5.205737205461036E-1
 6.564900534150000E9    -2.019974146576361E-2    5.687689435086519E-1    3.275871660029443E-2   -2.849022763031269E-3    3.215395819724375E-2   -3.314069419820305E-3    8.298442122046423E-2    5.203824486195074E-1
 6.564912285200000E9    -1.918610693757744E-2    5.686814741803121E-1    3.280896214537309E-2   -2.900931087347074E-3    3.227212835785151E-2   -3.443943529209030E-3    8.395614567906637E-2    5.202748583843871E-1
 6.564924036250000E9    -1.838456308294404E-2    5.687356097082178E-1    3.308444595825717E-2   -3.016943027004134E-3    3.255653697434358E-2   -3.555502783487398E-3    8.518150418293617E-2    5.200173401728915E-1
 6.564935787300000E9    -1.733541692884774E-2    5.687791996137922E-1    3.325331591126916E-2   -3.149308908237600E-3    3.271641890101561E-2   -3.560441467382644E-3    8.610691137417899E-2    5.199436763362610E-1
 6.564947538350000E9    -1.641808999474548E-2    5.687964119763478E-1    3.330025211056335E-2   -3.068043667990330E-3    3.275642386531510E-2   -3.722111105827393E-3    8.732555426179664E-2    5.196469692110630E-1
 6.564959289400000E9    -1.550865686661751E-2    5.687553410082052E-1    3.352970874776883E-2   -3.341463512704804E-3    3.297616381730620E-2   -3.740002930698664E-3    8.829109100513878E-2    5.195409930935831E-1
 6.564971040450000E9    -1.447063536157266E-2    5.687531799269129E-1    3.367669027852450E-2   -3.404383614788752E-3    3.316471142571714E-2   -3.859344608103821E-3    8.945178690719729E-2    5.193232401770657E-1
 6.564982791500000E9    -1.358981415249676E-2    5.688974149370859E-1    3.381402130466207E-2   -3.583114827485074E-3    3.326523489277398E-2   -3.966367026483489E-3    9.059924579294366E-2    5.192256909647806E-1
 6.564994542550000E9    -1.260176402284557E-2    5.687952428356099E-1    3.398410399310599E-2   -3.453611117511165E-3    3.348669328081529E-2   -4.050298944567310E-3    9.166733426792970E-2    5.190500916425277E-1
 6.565006293600000E9    -1.166466997035600E-2    5.688341241028078E-1    3.421131745790076E-2   -3.510645283546151E-3    3.367353497534831E-2   -4.127479668303652E-3    9.277317654015554E-2    5.188433322689869E-1
 6.565018044650000E9    -1.070865215220633E-2    5.688327431034876E-1    3.441262605253393E-2   -3.870572306686301E-3    3.376980948906033E-2   -4.312441981755102E-3    9.400599721985382E-2    5.186966824557411E-1
 6.565029795700000E9    -9.649013068542329E-3    5.688570705314058E-1    3.454871304286690E-2   -3.840704337048406E-3    3.402335070632590E-2   -4.252273150262998E-3    9.504602494838897E-2    5.183571433232186E-1
 6.565041546750000E9    -8.766606987434693E-3    5.689162655603512E-1    3.476554539375984E-2   -4.057945379759538E-3    3.406914336294450E-2   -4.505135747437270E-3    9.608045511191914E-2    5.182346507088260E-1
 6.565053297800000E9    -7.792143391411934E-3    5.689097697432959E-1    3.492912279549616E-2   -4.027032677844978E-3    3.441753635226548E-2   -4.532882462956128E-3    9.741973038653813E-2    5.180952286157908E-1
 6.565065048850000E9    -6.875874373298317E-3    5.688659326602271E-1    3.504545333837890E-2   -4.147502426930359E-3    3.445150068848379E-2   -4.623516819764598E-3    9.842342403419559E-2    5.177405463722310E-1
 6.565076799900000E9    -5.887092556465474E-3    5.688025391568977E-1    3.519271421177586E-2   -4.162546458821915E-3    3.468041946239682E-2   -4.748951332580425E-3    9.957737089535804E-2    5.176255414935035E-1
 6.565088550950000E9    -4.902364545157087E-3    5.687880678234181E-1    3.551706055780050E-2   -4.379005655048856E-3    3.483842600281125E-2   -4.777562433038878E-3    1.006467672155598E-1    5.173910815783676E-1
 6.565100302000000E9    -3.795887963884618E-3    5.688491912290302E-1    3.556426795314739E-2   -4.447246859343350E-3    3.504984743672414E-2   -4.851645965976604E-3    1.018672462726492E-1    5.171671446250621E-1
 6.565112053050000E9    -2.873148734149844E-3    5.687922088851316E-1    3.586642026838305E-2   -4.581762188195845E-3    3.535057145522838E-2   -5.100920070672199E-3    1.030863324594951E-1    5.170438988372120E-1
 6.565123804100000E9    -1.930665827188342E-3    5.687065358972772E-1    3.594270922178328E-2   -4.630093330056190E-3    3.538133003238628E-2   -5.222060142811024E-3    1.042370739451566E-1    5.168222014044739E-1
 6.565135555150000E9    -9.504146810767134E-4    5.688973465538677E-1    3.614312782164334E-2   -4.729059654453790E-3    3.553953341770603E-2   -5.245848661606535E-3    1.053291788539924E-1    5.164758702454977E-1
 6.565147306200000E9     1.141446263805174E-4    5.687180559609907E-1    3.634960164000589E-2   -4.841455022612280E-3    3.577543526721309E-2   -5.320995764437700E-3    1.064742391411910E-1    5.163135880914996E-1
 6.565159057250000E9     9.593425978211616E-4    5.687289940369666E-1    3.662156856361962E-2   -4.975438898541425E-3    3.598910004265182E-2   -5.461548570331655E-3    1.075666142045960E-1    5.160546340971183E-1
 6.565170808300000E9     2.049209763418299E-3    5.687665303657307E-1    3.669914373600364E-2   -5.051966265877157E-3    3.619534657270026E-2   -5.564058821120257E-3    1.088117953090772E-1    5.158267949633816E-1
 6.565182559350000E9     2.950838522971142E-3    5.687283745110818E-1    3.697549303936701E-2   -5.130436337603351E-3    3.629844129323609E-2   -5.710791433242908E-3    1.100819422496894E-1    5.156044606731497E-1
 6.565194310400000E9     3.999694683929580E-3    5.686394848727635E-1    3.700377556558006E-2   -5.221558465814870E-3    3.651407208871850E-2   -5.789342914217678E-3    1.110304760175027E-1    5.153718454788391E-1
 6.565206061450000E9     4.974066623167591E-3    5.687479177019076E-1    3.739589817955552E-2   -5.259553619543979E-3    3.678132651845904E-2   -5.970191925517929E-3    1.123798349583263E-1    5.151386400504848E-1
 6.565217812500000E9     5.788083006450780E-3    5.686795558197871E-1    3.759855201060405E-2   -5.604782958532722E-3    3.698734730940012E-2   -5.974918233076843E-3    1.134627550294544E-1    5.148877841344988E-1
 6.565229563550000E9     6.891610522522281E-3    5.685341957210263E-1    3.780252257651072E-2   -5.625247200864385E-3    3.718943942489963E-2   -6.167771012152908E-3    1.146280948128602E-1    5.145685465943458E-1
 6.565241314600000E9     7.883896723121545E-3    5.685761087274620E-1    3.799273497527416E-2   -5.794644665884722E-3    3.739565827871696E-2   -6.290434957557819E-3    1.158825620017525E-1    5.143747454692262E-1
 6.565253065650000E9     8.933676870933136E-3    5.686655472411540E-1    3.815617429783364E-2   -6.019852475809980E-3    3.756928360729957E-2   -6.384924092563525E-3    1.171147840009302E-1    5.139637553595449E-1
 6.565264816700000E9     9.854600818939541E-3    5.685559141661460E-1    3.848705315765876E-2   -5.975825389969860E-3    3.779776964818444E-2   -6.482829208272728E-3    1.182467802386239E-1    5.139176889503081E-1
 6.565276567750000E9     1.100025235781481E-2    5.685644466752254E-1    3.859492650945312E-2   -6.151932761573513E-3    3.803674268694222E-2   -6.699132650161441E-3    1.193595818218463E-1    5.134015628941706E-1
 6.565288318800000E9     1.185423950693627E-2    5.684327153990976E-1    3.885776623049216E-2   -6.308701111770095E-3    3.814761419678799E-2   -6.817530673405566E-3    1.206777965372136E-1    5.131934375321580E-1
 6.565300069850000E9     1.288401571879849E-2    5.684297515907191E-1    3.896912201057953E-2   -6.378302605906843E-3    3.842887736744565E-2   -6.897705624934856E-3    1.217649445463142E-1    5.128934947009445E-1
 6.565311820900000E9     1.389829605533911E-2    5.683455434446187E-1    3.927517023418794E-2   -6.470161616946695E-3    3.866215749609268E-2   -6.989723787670592E-3    1.230482807529399E-1    5.127682348138349E-1
 6.565323571950000E9     1.488296791126744E-2    5.683052679582361E-1    3.942137388880304E-2   -6.622604757811876E-3    3.888430618102897E-2   -7.157473109161963E-3    1.243601381843139E-1    5.123654404682884E-1
 6.565335323000000E9     1.588316281330154E-2    5.682568976094307E-1    3.974929844483074E-2   -6.710153808828474E-3    3.908841216869897E-2   -7.357970951117266E-3    1.255033347395008E-1    5.120694700847078E-1
 6.565347074050000E9     1.679585869056871E-2    5.682196731243608E-1    4.000546257856644E-2   -6.824894897569459E-3    3.928098798349168E-2   -7.344475724327819E-3    1.267291267258302E-1    5.117706486004989E-1
 6.565358825100000E9     1.788996041710764E-2    5.681717467999051E-1    4.025249768677919E-2   -7.128861429488325E-3    3.959753249777482E-2   -7.534667814930119E-3    1.278486902114851E-1    5.114504934907026E-1
 6.565370576150000E9     1.883683154592259E-2    5.680411027947182E-1    4.048453022088208E-2   -7.036394272639082E-3    3.980613524408316E-2   -7.721722171262090E-3    1.291496671026107E-1    5.110934029407531E-1
 6.565382327200000E9     1.992455769110226E-2    5.679561719795245E-1    4.076406434092728E-2   -7.278729436743911E-3    4.002519751198610E-2   -7.916619321843845E-3    1.303223936900977E-1    5.107288409723707E-1
 6.565394078250000E9     2.083708177901546E-2    5.678285633095858E-1    4.096708330342281E-2   -7.477706046435402E-3    4.024761374107574E-2   -7.948759688975165E-3    1.317805840962998E-1    5.104941235965514E-1
 6.565405829300000E9     2.183362549622406E-2    5.679182035949519E-1    4.108339098900036E-2   -7.503604737009077E-3    4.051145809085682E-2   -8.189616645305799E-3    1.328833495163667E-1    5.100383204052574E-1
 6.565417580350000E9     2.280041811664206E-2    5.678717977529774E-1    4.142293049103036E-2   -7.732731844525440E-3    4.079706282174110E-2   -8.296255830366620E-3    1.341887689923769E-1    5.098459788883942E-1
 6.565429331400000E9     2.384476548858558E-2    5.677133478549590E-1    4.169952504640736E-2   -7.966783675516583E-3    4.092689246035867E-2   -8.416135284278337E-3    1.352697805732653E-1    5.094352648860814E-1
 6.565441082450000E9     2.486268650299676E-2    5.676804525784828E-1    4.191408016443483E-2   -7.953672982789126E-3    4.127488682887464E-2   -8.698237254852071E-3    1.365901441378889E-1    5.091645039761836E-1
 6.565452833500000E9     2.592582637847956E-2    5.676467855694988E-1    4.214061124363679E-2   -8.077006979144092E-3    4.144556167669095E-2   -8.660406758670088E-3    1.378373900201866E-1    5.087656918319955E-1
 6.565464584550000E9     2.695923147555376E-2    5.674973681549860E-1    4.241354903048719E-2   -8.345651225642780E-3    4.170625274305947E-2   -8.847781926150919E-3    1.391473887981496E-1    5.083763336831739E-1
 6.565476335600000E9     2.788755053578086E-2    5.675073433475532E-1    4.269958015628062E-2   -8.519790325988335E-3    4.202088529451844E-2   -9.073253764001756E-3    1.405307404915988E-1    5.082040833373759E-1
 6.565488086650000E9     2.896906400149212E-2    5.673330137949775E-1    4.291187122433027E-2   -8.598124539165352E-3    4.225683627664758E-2   -9.289216947797409E-3    1.417253946870744E-1    5.077243073473471E-1
 6.565499837700000E9     3.001862463493184E-2    5.673072624875415E-1    4.323085920932306E-2   -8.894244482490233E-3    4.248943486483241E-2   -9.405945710321658E-3    1.430191463813701E-1    5.073871742611027E-1
 6.565511588750000E9     3.099289561702405E-2    5.671623968194992E-1    4.343846536459079E-2   -9.264687395953477E-3    4.271758951291123E-2   -9.598024493250422E-3    1.443911311027110E-1    5.068813822288942E-1
 6.565523339800000E9     3.200949094892028E-2    5.671933451645095E-1    4.381088003628840E-2   -9.257835483573970E-3    4.309651870691983E-2   -9.784325565971216E-3    1.457596132178213E-1    5.064231562671584E-1
 6.565535090850000E9     3.309396134484360E-2    5.670919509680323E-1    4.420228184663488E-2   -9.468578385351476E-3    4.324780445066362E-2   -9.922166285352882E-3    1.468721781332046E-1    5.061456834206847E-1
 6.565546841900000E9     3.411828871169292E-2    5.668674503328974E-1    4.435545850614875E-2   -9.583188535221925E-3    4.363216109934578E-2   -1.010393929824115E-2    1.483476168764785E-1    5.058828924435271E-1
 6.565558592950000E9     3.514116689235987E-2    5.667370084354384E-1    4.461523805126998E-2   -9.716130948327083E-3    4.385010246226270E-2   -1.026537683485806E-2    1.495915351901264E-1    5.053026363754994E-1
 6.565570344000000E9     3.614856703218859E-2    5.666993413281546E-1    4.496480662992840E-2   -9.981656720463975E-3    4.418087377207919E-2   -1.051647055700089E-2    1.509253156163375E-1    5.049694829355321E-1
 6.565582095050000E9     3.715700866560891E-2    5.666598404870220E-1    4.512832259821034E-2   -1.001828701036759E-2    4.439962225860025E-2   -1.062393871537940E-2    1.523109967587561E-1    5.045089821615288E-1
 6.565593846100000E9     3.817582973030489E-2    5.666313146260433E-1    4.547595514880700E-2   -1.027273056849186E-2    4.467672538360527E-2   -1.083046441119690E-2    1.536174348673655E-1    5.039493697481436E-1
 6.565605597150000E9     3.922838447723483E-2    5.663283743379682E-1    4.578139819916714E-2   -1.048073851626131E-2    4.496352721243405E-2   -1.106409694073239E-2    1.548899147541831E-1    5.036367216267021E-1
 6.565617348200000E9     4.030908460269645E-2    5.663323827656245E-1    4.592119935250295E-2   -1.080858765422547E-2    4.537595751741743E-2   -1.122406583921434E-2    1.563831139830941E-1    5.031893436255790E-1
 6.565629099250000E9     4.132654704879991E-2    5.662278150200240E-1    4.656270104463549E-2   -1.092490703610797E-2    4.567560006139883E-2   -1.155752762779044E-2    1.576343742699675E-1    5.028063276737966E-1
 6.565640850300000E9     4.238530230954230E-2    5.661759618141733E-1    4.659920852026014E-2   -1.107080731572118E-2    4.585109356754245E-2   -1.175549050863413E-2    1.589426686615129E-1    5.023630743362021E-1
 6.565652601350000E9     4.338559287837280E-2    5.659760858507824E-1    4.694467661113008E-2   -1.135886573991256E-2    4.619948442645751E-2   -1.186213778023444E-2    1.604447222259504E-1    5.017966718952953E-1
 6.565664352400000E9     4.451418790797541E-2    5.658145455020283E-1    4.717472043555315E-2   -1.160907474958573E-2    4.651291580346070E-2   -1.206720339612186E-2    1.618327330029861E-1    5.013698800078951E-1
 6.565676103450000E9     4.554400924316433E-2    5.657217840103520E-1    4.779166767598247E-2   -1.177156363115902E-2    4.690189961404464E-2   -1.223527696180365E-2    1.632862350468390E-1    5.008338479751024E-1
 6.565687854500000E9     4.648643580358934E-2    5.654458071879246E-1    4.799744146911969E-2   -1.186618795783332E-2    4.715362391772918E-2   -1.252523827119806E-2    1.646115342874828E-1    5.003793054573786E-1
 6.565699605550000E9     4.762279206795075E-2    5.652886177498322E-1    4.830824745943609E-2   -1.215921872768362E-2    4.752168152089101E-2   -1.272014885108600E-2    1.659438026425517E-1    4.999813775756241E-1
 6.565711356600000E9     4.870861365125352E-2    5.652117612363486E-1    4.858906731973565E-2   -1.238600238577780E-2    4.782736086037043E-2   -1.288067392340126E-2    1.674323064757179E-1    4.992866080399769E-1
 6.565723107650000E9     4.976701050305096E-2    5.651898413577751E-1    4.893695619138815E-2   -1.251409659549796E-2    4.807933003811303E-2   -1.310729271996423E-2    1.688525597973730E-1    4.989116223705967E-1
 6.565734858700000E9     5.090900826814092E-2    5.650579376189346E-1    4.938762438631514E-2   -1.283256240410823E-2    4.851870962788591E-2   -1.350551293419050E-2    1.701330177046599E-1    4.982267419428638E-1
 6.565746609750000E9     5.196249570337082E-2    5.648005730905978E-1    4.964506520976238E-2   -1.309346373609210E-2    4.887245102973781E-2   -1.379146379989466E-2    1.718545386005168E-1    4.977601741956203E-1
 6.565758360800000E9     5.293765420232140E-2    5.646062321949866E-1    5.008058991367448E-2   -1.329669344582535E-2    4.926623191599029E-2   -1.399758375958349E-2    1.730050600797497E-1    4.972218719398106E-1
 6.565770111850000E9     5.402436378250398E-2    5.644985324775664E-1    5.037014159233331E-2   -1.367790776595874E-2    4.949229488633859E-2   -1.422777352279461E-2    1.746155884838093E-1    4.967585128786224E-1
 6.565781862900000E9     5.513438748338534E-2    5.643711028276263E-1    5.072572375747590E-2   -1.382351291094157E-2    4.984022840669405E-2   -1.449861540927207E-2    1.761422214801540E-1    4.960698478647586E-1
 6.565793613950000E9     5.610061842899023E-2    5.640363128321911E-1    5.105705678465504E-2   -1.411454226017468E-2    5.027274252633976E-2   -1.459604479285506E-2    1.774604853062314E-1    4.955659940923047E-1
 6.565805365000000E9     5.728834907075196E-2    5.639535347901916E-1    5.148572819499299E-2   -1.450314552918041E-2    5.059376319203549E-2   -1.498093944915822E-2    1.791371592714205E-1    4.948281966052026E-1
 6.565817116050000E9     5.829422459964943E-2    5.638863677482349E-1    5.176749376732247E-2   -1.464483027982715E-2    5.100410736899356E-2   -1.528975104770912E-2    1.804251746102334E-1    4.943716203095151E-1
 6.565828867100000E9     5.943781688489034E-2    5.636931602479163E-1    5.224883902827111E-2   -1.496412353348219E-2    5.137098523478706E-2   -1.555936402137583E-2    1.819654169405351E-1    4.936691395320345E-1
 6.565840618150000E9     6.048852342987075E-2    5.635112133081080E-1    5.258747591907782E-2   -1.506744101823130E-2    5.178939748449918E-2   -1.585689414537928E-2    1.835523598007641E-1    4.931597912248433E-1
 6.565852369200000E9     6.151308753895104E-2    5.632184934277996E-1    5.289462316199648E-2   -1.544096600323994E-2    5.214180634140115E-2   -1.607285994275027E-2    1.850190707308386E-1    4.925944462013104E-1
 6.565864120250000E9     6.269366972739447E-2    5.630969200681359E-1    5.332334980580764E-2   -1.582808246801326E-2    5.253912088822430E-2   -1.625128128799778E-2    1.865747610121410E-1    4.917983832684410E-1
 6.565875871300000E9     6.393453414221517E-2    5.629326964081354E-1    5.394470851867811E-2   -1.617720340202823E-2    5.296013928028257E-2   -1.673687726575559E-2    1.881635875463660E-1    4.910357698214391E-1
 6.565887622350000E9     6.488655299559380E-2    5.627508730145365E-1    5.423984664522636E-2   -1.638849471611733E-2    5.331483230802598E-2   -1.704721527526805E-2    1.897101550161633E-1    4.904241513134963E-1
 6.565899373400000E9     6.607936831123663E-2    5.626003025780342E-1    5.454411228054653E-2   -1.675068698245874E-2    5.364385914171078E-2   -1.728027882382922E-2    1.912500547609566E-1    4.897880152704654E-1
 6.565911124450000E9     6.713987805626540E-2    5.623373679867720E-1    5.506387400787992E-2   -1.697995767153810E-2    5.426953009013576E-2   -1.762387386254955E-2    1.928475144652291E-1    4.892289371435745E-1
 6.565922875500000E9     6.821148428719478E-2    5.620379132982458E-1    5.556789740453425E-2   -1.743380342800794E-2    5.454030812451960E-2   -1.795317933704946E-2    1.943963302669036E-1    4.883601233718967E-1
