#  HZ   S   RI   R     50.00 
! Rohde & Schwarz Vector Network Analyzer 
! Rohde-Schwarz,ZNB20-2Port,1311601062101988,3.16
! Created: UTC 3/20/2024, 4:58:54 PM
! freq[Hz]                re:S11                  im:S11                  re:S21                  im:S21                  re:S12                  im:S12                  re:S22                  im:S22
 6.564133949000000E9    -7.974603984415986E-2    5.635143823661998E-1    2.647372775569577E-2    3.580717853544803E-4    2.598115411867855E-2   -4.363218895808567E-5    1.919544021613440E-2    5.250651071528865E-1
 6.564148297825000E9    -7.870397252949150E-2    5.637469672184523E-1    2.661622736544501E-2    3.318943604873929E-4    2.621068057050566E-2   -5.579128634856150E-5    2.031590158289735E-2    5.250063077143569E-1
 6.564162646650000E9    -7.750887572798330E-2    5.638440850758908E-1    2.676137610963160E-2    2.773953710591770E-4    2.632047939640770E-2   -1.786497558911659E-4    2.158169532266870E-2    5.249642107105182E-1
 6.564176995475000E9    -7.631825204230087E-2    5.639710695605288E-1    2.688928575900688E-2    2.492774617993990E-4    2.641179337791224E-2   -2.414781139957118E-4    2.278377172531975E-2    5.248613321590905E-1
 6.564191344300000E9    -7.529049909516741E-2    5.640365817631300E-1    2.710157705623865E-2    2.084830384355815E-4    2.658284971784217E-2   -2.480174689461780E-4    2.394473195292382E-2    5.249202540690583E-1
 6.564205693125000E9    -7.416118084995685E-2    5.642285779648125E-1    2.720298990571935E-2    2.385968221908164E-4    2.678833687598341E-2   -3.108185160857950E-4    2.529530840773849E-2    5.248323071695934E-1
 6.564220041950000E9    -7.302728201714932E-2    5.643655328153527E-1    2.738280643318319E-2    8.190792340645398E-5    2.692839487896152E-2   -4.292010532155503E-4    2.649361107377375E-2    5.249060386929737E-1
 6.564234390775000E9    -7.196512114051000E-2    5.646468018346328E-1    2.743839450480999E-2    2.297428786681607E-5    2.698947679467100E-2   -4.456511022739839E-4    2.780445276478106E-2    5.247574867038953E-1
 6.564248739600000E9    -7.077837401154202E-2    5.646625346799544E-1    2.761851623510477E-2   -1.540311990280053E-5    2.713559208772308E-2   -5.321762399331343E-4    2.896595107829436E-2    5.246324641713420E-1
 6.564263088425000E9    -6.972796385036835E-2    5.647140191426133E-1    2.772038364551056E-2   -1.174559949686163E-4    2.735068319146314E-2   -6.063718337474765E-4    3.031873692895574E-2    5.246816454048048E-1
 6.564277437250000E9    -6.847144458686746E-2    5.649361552805608E-1    2.786603185749421E-2   -2.307840259475273E-4    2.743399280952545E-2   -7.982929534852286E-4    3.141185741392967E-2    5.246237522859227E-1
 6.564291786075000E9    -6.740190489882926E-2    5.650366080456907E-1    2.799204798034750E-2   -1.882136761951114E-4    2.754245656236867E-2   -8.136885786837894E-4    3.268115115523664E-2    5.245528285776112E-1
 6.564306134900000E9    -6.625622795841789E-2    5.651386304311141E-1    2.825344193977063E-2   -4.259526856916594E-4    2.765657057407425E-2   -8.013545864020553E-4    3.411930371078583E-2    5.245218519722056E-1
 6.564320483725000E9    -6.511274907283855E-2    5.652755427537925E-1    2.839101414412691E-2   -5.215340772081723E-4    2.789677397243305E-2   -8.397196210331387E-4    3.525899109215720E-2    5.245343884412028E-1
 6.564334832550000E9    -6.384649631191179E-2    5.654144304203265E-1    2.847630503383250E-2   -4.434656562747672E-4    2.798941595730045E-2   -9.422075724045191E-4    3.642050442444263E-2    5.244771697257870E-1
 6.564349181375000E9    -6.287644737644274E-2    5.655301199751663E-1    2.866584081481224E-2   -5.499487821897810E-4    2.811463940216895E-2   -1.074688249308006E-3    3.760507740307724E-2    5.242375712491262E-1
 6.564363530200000E9    -6.170845749759462E-2    5.656709196987771E-1    2.871139416351998E-2   -6.044798947459496E-4    2.823300503195544E-2   -1.136026251427826E-3    3.886599794469269E-2    5.241930637085700E-1
 6.564377879025000E9    -6.058945708180816E-2    5.657240814650253E-1    2.895030121739892E-2   -7.105884927812977E-4    2.850456610550189E-2   -1.331469375924756E-3    4.031682540995996E-2    5.240774744592033E-1
 6.564392227850000E9    -5.937526078050450E-2    5.658440571572113E-1    2.911550890881268E-2   -7.896604606730621E-4    2.869395056131578E-2   -1.372172956112364E-3    4.147377257831271E-2    5.239312025641421E-1
 6.564406576675000E9    -5.823757713228720E-2    5.660585594858785E-1    2.937935785935038E-2   -9.768565136222620E-4    2.880665327960660E-2   -1.475739325467630E-3    4.267437094298791E-2    5.239654470823271E-1
 6.564420925500000E9    -5.714684932309152E-2    5.659825703290063E-1    2.945459544926310E-2   -1.044742914192037E-3    2.890915817374824E-2   -1.471216461878891E-3    4.387147833148095E-2    5.237497330543026E-1
 6.564435274325000E9    -5.598733494789434E-2    5.662137286179938E-1    2.971145437555922E-2   -1.056278862628704E-3    2.905263349890677E-2   -1.596891739020552E-3    4.526471716940843E-2    5.238122497271280E-1
 6.564449623150000E9    -5.495338092923179E-2    5.663543868629055E-1    2.973035186685294E-2   -1.141114741491809E-3    2.928878579778622E-2   -1.600034511745247E-3    4.656127951680524E-2    5.236336660388876E-1
 6.564463971975000E9    -5.365508713872630E-2    5.663453956712501E-1    2.989399490938927E-2   -1.218659077709131E-3    2.939900172646499E-2   -1.738699686001408E-3    4.788626871952156E-2    5.235122189385049E-1
 6.564478320800000E9    -5.248900463912922E-2    5.663677166239872E-1    3.011887707806136E-2   -1.266267429645695E-3    2.958696704032705E-2   -1.704287604990362E-3    4.914607344891324E-2    5.234121995108016E-1
 6.564492669625000E9    -5.135740907332620E-2    5.666986493633798E-1    3.031671279016516E-2   -1.352526182681480E-3    2.975998861677984E-2   -1.873924444864088E-3    5.040797194674298E-2    5.232452790952361E-1
 6.564507018450000E9    -5.025522479510704E-2    5.667175889315893E-1    3.047795142433946E-2   -1.361276641826584E-3    2.982943575523077E-2   -1.946696875853660E-3    5.168975290100553E-2    5.231186139316660E-1
 6.564521367275000E9    -4.910185765133806E-2    5.667841725568952E-1    3.053092836978062E-2   -1.580092373453644E-3    3.012898319316343E-2   -1.981455305110060E-3    5.299621142399631E-2    5.230117200400951E-1
 6.564535716100000E9    -4.793504516599582E-2    5.668255996656910E-1    3.068726307624815E-2   -1.683486379400628E-3    3.022405171145602E-2   -2.141375944411039E-3    5.423214698449770E-2    5.229726107522282E-1
 6.564550064925000E9    -4.676290990045039E-2    5.670338862624308E-1    3.090527885120411E-2   -1.783197794464278E-3    3.042078138347936E-2   -2.258051420670560E-3    5.548772213510678E-2    5.227753275567422E-1
 6.564564413750000E9    -4.566903091266245E-2    5.669924976898598E-1    3.103458623685506E-2   -1.843439594889528E-3    3.054909031555491E-2   -2.215680205498977E-3    5.679013006355368E-2    5.226692505127045E-1
 6.564578762575000E9    -4.453599909225632E-2    5.671313803081527E-1    3.137811818056344E-2   -1.927402367371025E-3    3.073011998471573E-2   -2.412193264449914E-3    5.808737483365781E-2    5.225179410262828E-1
 6.564593111400000E9    -4.335769126338542E-2    5.672031139901347E-1    3.147580030697792E-2   -2.013061092835759E-3    3.089549603843394E-2   -2.502518461950695E-3    5.948018427106714E-2    5.222917085995187E-1
 6.564607460225000E9    -4.214034096347965E-2    5.672940151351561E-1    3.155400007615167E-2   -2.165465230781235E-3    3.101357840903733E-2   -2.548558372054483E-3    6.076100929588178E-2    5.222209003280261E-1
 6.564621809050000E9    -4.100585148956194E-2    5.674255136222643E-1    3.187838225325063E-2   -2.098785212722907E-3    3.131723797721765E-2   -2.720894131495706E-3    6.210315167418768E-2    5.221364853636595E-1
 6.564636157875000E9    -3.984379247254917E-2    5.673853765755166E-1    3.207923004741842E-2   -2.246630449738831E-3    3.150886414590109E-2   -2.818895758828518E-3    6.337951028367524E-2    5.217451272535928E-1
 6.564650506700000E9    -3.862784167503899E-2    5.676342068612494E-1    3.222734545006845E-2   -2.382566429042307E-3    3.166486309099128E-2   -3.017780496118947E-3    6.466455268169016E-2    5.216855666483613E-1
 6.564664855525000E9    -3.745208823899134E-2    5.675813461914826E-1    3.236689344638223E-2   -2.487957498362363E-3    3.187055564675632E-2   -2.926574202732108E-3    6.608803892113604E-2    5.215079058101821E-1
 6.564679204350000E9    -3.643255187479022E-2    5.675735796927415E-1    3.254212198765422E-2   -2.525850933817300E-3    3.198582507412940E-2   -3.126729042453068E-3    6.730178795645271E-2    5.214521069051886E-1
 6.564693553175000E9    -3.524660761166486E-2    5.676769636717196E-1    3.277601690486837E-2   -2.822030880703504E-3    3.225323062482059E-2   -3.206805811140083E-3    6.868858967520899E-2    5.213530622697272E-1
 6.564707902000000E9    -3.398615196557369E-2    5.677067714223207E-1    3.292459648490852E-2   -2.860303896473212E-3    3.241550014255881E-2   -3.319687570998850E-3    7.004667036316338E-2    5.211255972072165E-1
 6.564722250825000E9    -3.289084592630841E-2    5.678001691727294E-1    3.305978276496246E-2   -2.880049708126340E-3    3.262482826872794E-2   -3.387653092529475E-3    7.118219158077833E-2    5.208919727223897E-1
 6.564736599650000E9    -3.166788724210882E-2    5.677754331349859E-1    3.333121821316390E-2   -3.054713140437531E-3    3.281413127780122E-2   -3.481508075901552E-3    7.283933137970289E-2    5.208298907665260E-1
 6.564750948475000E9    -3.053084558059316E-2    5.678293289481667E-1    3.353676941722010E-2   -3.093201617163133E-3    3.295883131709855E-2   -3.672734697257578E-3    7.408995181502438E-2    5.206245400563987E-1
 6.564765297300000E9    -2.930626822418972E-2    5.679205868484460E-1    3.368957490882026E-2   -3.338107617379517E-3    3.320083060089081E-2   -3.793403263194760E-3    7.534396795274174E-2    5.202702965480498E-1
 6.564779646125000E9    -2.823571120645583E-2    5.678833837612991E-1    3.391256108246968E-2   -3.371258949232485E-3    3.334914931048573E-2   -3.875286912589989E-3    7.684956533059949E-2    5.201108299357025E-1
 6.564793994950000E9    -2.693650941135664E-2    5.679258086278031E-1    3.414346734424992E-2   -3.382846561541759E-3    3.365959682738943E-2   -3.881985519289216E-3    7.805856145414826E-2    5.198542606708496E-1
 6.564808343775000E9    -2.571630266303405E-2    5.680810373301248E-1    3.437539004428019E-2   -3.549883684021542E-3    3.381383074110140E-2   -4.132244297560798E-3    7.945365164525520E-2    5.196717767745559E-1
 6.564822692600000E9    -2.474436932164966E-2    5.679943746784265E-1    3.453537279628868E-2   -3.697696829742285E-3    3.394020727206544E-2   -4.219825011596565E-3    8.088012461476606E-2    5.195071430931477E-1
 6.564837041425000E9    -2.346589550790557E-2    5.680798401354973E-1    3.469894386536138E-2   -3.755758677980464E-3    3.415546234025134E-2   -4.396782946551992E-3    8.217011621178388E-2    5.192714643385370E-1
 6.564851390250000E9    -2.221750836372206E-2    5.680574281164192E-1    3.500334591973431E-2   -3.919352128014559E-3    3.436738124860824E-2   -4.507920495945203E-3    8.366641803250244E-2    5.189531064750164E-1
 6.564865739075000E9    -2.116227332603736E-2    5.681895759880022E-1    3.531206950767782E-2   -4.098371047721774E-3    3.468144902249762E-2   -4.555475625225553E-3    8.494845854783246E-2    5.186994482950517E-1
 6.564880087900000E9    -1.986351870027232E-2    5.681370498539204E-1    3.551426726315288E-2   -4.173687944615655E-3    3.479715709642790E-2   -4.742464434545346E-3    8.633094669938171E-2    5.184758284046413E-1
 6.564894436725000E9    -1.866771262693900E-2    5.681664460343266E-1    3.557938230843437E-2   -4.369410286210227E-3    3.510424044121075E-2   -4.874960323945389E-3    8.768583563178392E-2    5.183880772282752E-1
 6.564908785550000E9    -1.762072455244964E-2    5.681791516202260E-1    3.594980024373258E-2   -4.587916354205366E-3    3.525053493296221E-2   -4.954752313736703E-3    8.910495332898437E-2    5.180627153274174E-1
 6.564923134375000E9    -1.640252805196984E-2    5.681648563525682E-1    3.597533988991271E-2   -4.463970520111397E-3    3.546309294552465E-2   -5.036404674445877E-3    9.071483306684132E-2    5.177057240675873E-1
 6.564937483200000E9    -1.513950032801149E-2    5.682182743646543E-1    3.622421225395429E-2   -4.652481563906639E-3    3.583031988712090E-2   -5.320666397290005E-3    9.192861091133971E-2    5.175696758872979E-1
 6.564951832025000E9    -1.388679778012950E-2    5.682673013034941E-1    3.654840557928565E-2   -4.848793732396987E-3    3.602581981518949E-2   -5.422936768779838E-3    9.336906409977193E-2    5.172474981168954E-1
 6.564966180850000E9    -1.275621280680043E-2    5.681387138582961E-1    3.689106431116784E-2   -5.012623780374331E-3    3.624761997283604E-2   -5.552346420775787E-3    9.472565950990143E-2    5.169675875073322E-1
 6.564980529675000E9    -1.154178154939892E-2    5.681962002321909E-1    3.715009246554976E-2   -5.010560677076823E-3    3.640636971600337E-2   -5.647256483183784E-3    9.616776889432112E-2    5.166701269829754E-1
 6.564994878500000E9    -1.027783277887964E-2    5.681296124869623E-1    3.731075917801416E-2   -5.237382827169957E-3    3.666921430132682E-2   -5.922236735260690E-3    9.749008671017538E-2    5.164449916091991E-1
 6.565009227325000E9    -9.123935392962659E-3    5.681974027577033E-1    3.749300845179628E-2   -5.565959884297885E-3    3.697097440442711E-2   -5.983924195416896E-3    9.903416215552557E-2    5.161251712802848E-1
 6.565023576150000E9    -7.948548746859931E-3    5.681239876258496E-1    3.782610390270189E-2   -5.712511722616230E-3    3.712583860693382E-2   -6.133758188300060E-3    1.005636167907103E-1    5.159537451545080E-1
 6.565037924975000E9    -6.764149445165893E-3    5.681606862020665E-1    3.804001045687055E-2   -5.745880549419958E-3    3.751468709525565E-2   -6.357416168308016E-3    1.019567874660869E-1    5.154139756448688E-1
 6.565052273800000E9    -5.657056128290295E-3    5.681928809869424E-1    3.830013063325124E-2   -5.825334453378187E-3    3.775053082496958E-2   -6.501912673412572E-3    1.034800870922680E-1    5.152222584147225E-1
 6.565066622625000E9    -4.392715107553248E-3    5.681752478097538E-1    3.850205621916418E-2   -6.149608959937508E-3    3.791680032439124E-2   -6.709477940839954E-3    1.047846789836606E-1    5.149718937998861E-1
 6.565080971450000E9    -3.081718566765956E-3    5.681139122867095E-1    3.889642864412261E-2   -6.229201369916912E-3    3.822725235103847E-2   -6.826144864520521E-3    1.063054444010978E-1    5.145745375986752E-1
 6.565095320275000E9    -1.929728715912615E-3    5.680855244779709E-1    3.919641889561176E-2   -6.336616251850321E-3    3.843988178276077E-2   -6.998991306054118E-3    1.077938530690207E-1    5.143674377513220E-1
 6.565109669100000E9    -7.326174898601049E-4    5.680577540319273E-1    3.930055605694747E-2   -6.492993553502161E-3    3.869635976837473E-2   -7.083960010612952E-3    1.092295684006586E-1    5.138372274277823E-1
 6.565124017925000E9     5.143424446800018E-4    5.679721496419604E-1    3.971572333191117E-2   -6.790468949795354E-3    3.895576986161719E-2   -7.238366680065412E-3    1.107932240801864E-1    5.134248420726781E-1
 6.565138366750000E9     1.820436939641989E-3    5.678710714010717E-1    4.000215654393762E-2   -6.918780021343461E-3    3.924383799485014E-2   -7.534924126405560E-3    1.122473991277192E-1    5.132131519593580E-1
 6.565152715575000E9     2.963372475031208E-3    5.678687283665472E-1    4.012497194962455E-2   -7.031870177921341E-3    3.957452643716194E-2   -7.669191691957459E-3    1.136613092226890E-1    5.126848870455836E-1
 6.565167064400000E9     4.172618011139381E-3    5.679434032860511E-1    4.034243418458319E-2   -7.314629230533943E-3    3.979505756815107E-2   -7.902650900397625E-3    1.152377736473710E-1    5.124533470598328E-1
 6.565181413225000E9     5.457574005464657E-3    5.678158071696243E-1    4.081986072683217E-2   -7.448545734990485E-3    4.015817276973301E-2   -7.951939743078713E-3    1.167126879574826E-1    5.119752271027306E-1
 6.565195762050000E9     6.603394127530586E-3    5.677869066229078E-1    4.099020249954726E-2   -7.679222739308527E-3    4.031510736838304E-2   -8.175286607702966E-3    1.182978705871084E-1    5.115658137501329E-1
 6.565210110875000E9     7.845869163754609E-3    5.676424797930750E-1    4.147606222253361E-2   -7.756513977014289E-3    4.065725511480334E-2   -8.333528231900377E-3    1.198635646404490E-1    5.114604842167472E-1
 6.565224459700000E9     9.033885122568124E-3    5.675811445549176E-1    4.157472044432477E-2   -7.961318964476776E-3    4.089879218890737E-2   -8.547139391898063E-3    1.213288839325931E-1    5.107961957915983E-1
 6.565238808525000E9     1.036846246545448E-2    5.676117978114690E-1    4.189470116340984E-2   -8.141736324304901E-3    4.125858161945747E-2   -8.741745811993889E-3    1.227747702148830E-1    5.104455794641928E-1
 6.565253157350000E9     1.154804876086103E-2    5.674544131726174E-1    4.234948363475287E-2   -8.352134083385645E-3    4.152222924845266E-2   -8.925056134200792E-3    1.244031438037711E-1    5.100439888783533E-1
 6.565267506175000E9     1.279999855908941E-2    5.673484616655952E-1    4.262262967603694E-2   -8.623028780425208E-3    4.195179667522264E-2   -9.247260839765759E-3    1.259825658970589E-1    5.095728548656902E-1
 6.565281855000000E9     1.417567027379697E-2    5.674044440018648E-1    4.296582905387017E-2   -8.835386429792820E-3    4.214007850303954E-2   -9.463195704809394E-3    1.274884341130982E-1    5.091373809344490E-1
 6.565296203825000E9     1.534960576408174E-2    5.672593768097705E-1    4.315017258826109E-2   -9.008707069793027E-3    4.247662931413800E-2   -9.628652966650320E-3    1.289532484313335E-1    5.087087476053859E-1
 6.565310552650000E9     1.650328337647431E-2    5.671652195710920E-1    4.357198909938695E-2   -9.248690451355422E-3    4.283347352858104E-2   -9.724139439767094E-3    1.304930712521677E-1    5.081520318152375E-1
 6.565324901475000E9     1.787092572891707E-2    5.670604241408370E-1    4.388168334679809E-2   -9.373171214498434E-3    4.318878332648465E-2   -1.012580543291665E-2    1.321802646081084E-1    5.077563038935531E-1
 6.565339250300000E9     1.899257375182527E-2    5.669590036150218E-1    4.437360332998679E-2   -9.737556615147542E-3    4.342462060181483E-2   -1.021712413628511E-2    1.339238468892891E-1    5.071589992513985E-1
 6.565353599125000E9     2.017061534252410E-2    5.669228641428086E-1    4.453424453952023E-2   -9.923085034033241E-3    4.382279099698309E-2   -1.050870185895783E-2    1.353335081207888E-1    5.067846762185435E-1
 6.565367947950000E9     2.155643756632693E-2    5.667609204340261E-1    4.494656480975912E-2   -1.011896643767522E-2    4.411947074092130E-2   -1.076285075170776E-2    1.369050504489224E-1    5.063271263337853E-1
 6.565382296775000E9     2.277793758727270E-2    5.666974960490974E-1    4.524999264620755E-2   -1.060045484031813E-2    4.447993349331979E-2   -1.109548248864069E-2    1.387472460304625E-1    5.057844903487219E-1
 6.565396645600000E9     2.412761781103941E-2    5.664968078575812E-1    4.565089378555945E-2   -1.074331811352901E-2    4.485477125081184E-2   -1.122293870688969E-2    1.401882589617117E-1    5.050776848893218E-1
 6.565410994425000E9     2.530226175134649E-2    5.664323515587023E-1    4.595633658819774E-2   -1.102052671283810E-2    4.523225395238449E-2   -1.148213994641299E-2    1.418949147163540E-1    5.046353044753245E-1
 6.565425343250000E9     2.665459165405246E-2    5.662507595224727E-1    4.631623758173379E-2   -1.114299908309003E-2    4.552020261758263E-2   -1.179441599750164E-2    1.436913866609510E-1    5.041816629667706E-1
