#  HZ   S   RI   R     50.00 
! Rohde & Schwarz Vector Network Analyzer 
! Rohde-Schwarz,ZNB20-2Port,1311601062101988,3.16
! Created: UTC 3/20/2024, 4:59:01 PM
! freq[Hz]                re:S11                  im:S11                  re:S21                  im:S21                  re:S12                  im:S12                  re:S22                  im:S22
 6.564131974000000E9    -8.001158364926871E-2    5.635332145598848E-1    2.639371983952508E-2    4.608292188065730E-4    2.607843220323566E-2   -6.437403408309785E-5    1.895785017787696E-2    5.249803387776639E-1
 6.564146327450000E9    -7.883112718419988E-2    5.635317557004984E-1    2.657136789817263E-2    3.697806907925989E-4    2.629382074005210E-2   -1.331164122805228E-4    2.016673877742714E-2    5.250149735090168E-1
 6.564160680900000E9    -7.765077499625818E-2    5.637557836147546E-1    2.667974266691778E-2    2.138095029117953E-4    2.634012368439022E-2   -1.219661030662615E-4    2.139223347454336E-2    5.248365285994554E-1
 6.564175034350000E9    -7.662106225729752E-2    5.640135208767463E-1    2.690768613711407E-2    1.736610293204080E-4    2.640882647199341E-2   -3.191696849558513E-4    2.255160857522655E-2    5.248843753093815E-1
 6.564189387800000E9    -7.553038925976570E-2    5.640665522430847E-1    2.693426025692317E-2    1.261973392962738E-4    2.673334839151555E-2   -3.307259437404853E-4    2.393710662839927E-2    5.248489770238477E-1
 6.564203741250000E9    -7.430989765748891E-2    5.641359768426366E-1    2.720037906234937E-2    3.911184595001910E-5    2.667056896019300E-2   -4.426357208665985E-4    2.507534088826120E-2    5.247771779852840E-1
 6.564218094700000E9    -7.318002211259950E-2    5.642704710598068E-1    2.731671587304264E-2    9.987453937506703E-5    2.686249893668241E-2   -4.142856410221055E-4    2.637937749544915E-2    5.247976797045543E-1
 6.564232448150000E9    -7.207519913542797E-2    5.644757047159313E-1    2.754406393101356E-2   -8.479860386773755E-6    2.707185797456416E-2   -5.650126535185669E-4    2.756056169082470E-2    5.247388735391825E-1
 6.564246801600000E9    -7.094679357222841E-2    5.645840424578601E-1    2.758359346711355E-2   -1.125822429705378E-4    2.711572983898409E-2   -5.156207572169423E-4    2.884502962580768E-2    5.246603962635884E-1
 6.564261155050000E9    -6.978073069436128E-2    5.646748889711530E-1    2.764509713371078E-2   -7.972529742605942E-5    2.724558776421667E-2   -6.242639303408545E-4    2.999690451809949E-2    5.247165416159859E-1
 6.564275508500000E9    -6.859154445542706E-2    5.649374620711665E-1    2.785803747174313E-2   -2.311016642731125E-4    2.736022233831455E-2   -6.244897137400436E-4    3.130240419718507E-2    5.245863550950626E-1
 6.564289861950000E9    -6.763797659183204E-2    5.650629320164630E-1    2.799606086393545E-2   -3.368853401408067E-4    2.752780066352647E-2   -9.129605717695501E-4    3.259495573021038E-2    5.244468058923788E-1
 6.564304215400000E9    -6.639852646648835E-2    5.652397744974541E-1    2.813322966108769E-2   -3.297590992634613E-4    2.781516169023494E-2   -8.271174815284357E-4    3.370910567586102E-2    5.243130883133813E-1
 6.564318568850000E9    -6.534939550673158E-2    5.652642619448756E-1    2.836208075312508E-2   -4.187265212843947E-4    2.794245688563901E-2   -9.243141852590631E-4    3.501055214657642E-2    5.241418827380334E-1
 6.564332922300000E9    -6.421178557235581E-2    5.654024152251207E-1    2.852944337658490E-2   -5.617890670459609E-4    2.798775471244602E-2   -1.012914759785628E-3    3.621038147711646E-2    5.242539377039387E-1
 6.564347275750000E9    -6.302975023004169E-2    5.654823882014411E-1    2.873308118233504E-2   -5.242264353305340E-4    2.815857800106470E-2   -1.021712409806020E-3    3.751436257698913E-2    5.241672287051098E-1
 6.564361629200000E9    -6.188453245946126E-2    5.655759621895312E-1    2.873111816070505E-2   -6.068090356871242E-4    2.833263854412710E-2   -1.147300139955471E-3    3.880808077897940E-2    5.241478287715424E-1
 6.564375982650000E9    -6.061699884035894E-2    5.657948435447389E-1    2.908201461871400E-2   -7.717146014792348E-4    2.842429869930107E-2   -1.238871558083453E-3    4.000574500968655E-2    5.240007647796604E-1
 6.564390336100000E9    -5.958518427225565E-2    5.659212096854787E-1    2.908650721879688E-2   -9.169583759986666E-4    2.862626509993395E-2   -1.240311403282420E-3    4.133748566422648E-2    5.238943674046587E-1
 6.564404689550000E9    -5.843630464269785E-2    5.660118512198840E-1    2.920096001083700E-2   -7.726727285261496E-4    2.887596840232413E-2   -1.405464568785319E-3    4.265746013837551E-2    5.238467787929734E-1
 6.564419043000000E9    -5.722093809656429E-2    5.660362255638098E-1    2.953200504734041E-2   -1.003589396985003E-3    2.890085618749993E-2   -1.459262838401110E-3    4.378267904261990E-2    5.237469521114744E-1
 6.564433396450000E9    -5.614729914172354E-2    5.661201666388489E-1    2.967978438901082E-2   -1.075439995875255E-3    2.912282128082211E-2   -1.498105799111448E-3    4.497592196978152E-2    5.236277264961986E-1
 6.564447749900000E9    -5.505351724906811E-2    5.662902288155501E-1    2.973777677659904E-2   -9.900822149235306E-4    2.925405814224229E-2   -1.573867127770141E-3    4.628526937889702E-2    5.236406679085999E-1
 6.564462103350000E9    -5.374559940726123E-2    5.664150100357949E-1    2.989582297647203E-2   -1.206802581405302E-3    2.941256032944453E-2   -1.732676684057030E-3    4.775533453834008E-2    5.234047562988421E-1
 6.564476456800000E9    -5.266560022542677E-2    5.664490298221179E-1    3.017889755675878E-2   -1.319280861078009E-3    2.952093893487969E-2   -1.803059970323872E-3    4.897431435655119E-2    5.233718080086259E-1
 6.564490810250000E9    -5.159915659756006E-2    5.665965564823380E-1    3.014552602594345E-2   -1.330950048031270E-3    2.974855837629855E-2   -1.884591442135275E-3    5.019820947432856E-2    5.233040271959840E-1
 6.564505163700000E9    -5.040897880476031E-2    5.667031443509030E-1    3.036131224422924E-2   -1.515588545141895E-3    2.984943604831503E-2   -1.929719190946691E-3    5.137366746156426E-2    5.231429334940726E-1
 6.564519517150000E9    -4.925619996714524E-2    5.667504230611390E-1    3.047927985147552E-2   -1.727219544984317E-3    3.001919367398329E-2   -1.981553476048811E-3    5.275405970035068E-2    5.230477555381243E-1
 6.564533870600000E9    -4.809177094165543E-2    5.668100842975581E-1    3.071298855121979E-2   -1.733417641770551E-3    3.025534743485380E-2   -2.168002905100029E-3    5.406437063455293E-2    5.229868751704372E-1
 6.564548224050000E9    -4.693289119078498E-2    5.668839976343710E-1    3.097376495743313E-2   -1.588877636156666E-3    3.032766819942904E-2   -2.342477205718269E-3    5.541739475375140E-2    5.227725494611655E-1
 6.564562577500000E9    -4.578610689824513E-2    5.670423029943819E-1    3.121325269287921E-2   -1.729635556827344E-3    3.057939849847013E-2   -2.356587024655408E-3    5.658857120788132E-2    5.226516780186657E-1
 6.564576930950000E9    -4.459209052137539E-2    5.671150173013594E-1    3.115544994010062E-2   -1.858876446283230E-3    3.069411952430699E-2   -2.493724750938340E-3    5.793877479391810E-2    5.225152056598290E-1
 6.564591284400000E9    -4.358302784350247E-2    5.672128268126884E-1    3.133177217618294E-2   -2.027265159782036E-3    3.093583977481580E-2   -2.459708219917151E-3    5.921053259459320E-2    5.222766524784979E-1
 6.564605637850000E9    -4.231824949860395E-2    5.671879639031490E-1    3.156998756077287E-2   -1.960319637514165E-3    3.110931060910693E-2   -2.568456769400111E-3    6.056643059856638E-2    5.222646226588400E-1
 6.564619991300000E9    -4.119681110527294E-2    5.673135442098788E-1    3.171475791339413E-2   -2.183977820945181E-3    3.127448152255492E-2   -2.732607447202019E-3    6.186105986393708E-2    5.221232742158675E-1
 6.564634344750000E9    -3.998848889982966E-2    5.673586522382043E-1    3.202070218676929E-2   -2.158199073298557E-3    3.141966827370775E-2   -2.840869771378839E-3    6.320904573712441E-2    5.217389557022970E-1
 6.564648698200000E9    -3.893161837283349E-2    5.673525267031811E-1    3.209881643780109E-2   -2.402401977011996E-3    3.158446492364029E-2   -2.925809981144942E-3    6.444751836767218E-2    5.217986907239108E-1
 6.564663051650000E9    -3.771666186728174E-2    5.675150539445997E-1    3.232466869220969E-2   -2.536100849541980E-3    3.178520963196097E-2   -3.051861341314801E-3    6.596636982013064E-2    5.215304586801262E-1
 6.564677405100000E9    -3.648377019766236E-2    5.675650259697930E-1    3.246126594556331E-2   -2.602918472685509E-3    3.196531901669436E-2   -3.163616711625334E-3    6.712708569954684E-2    5.215391596323297E-1
 6.564691758550000E9    -3.547724626061032E-2    5.676941014080925E-1    3.288077544422920E-2   -2.735188805306204E-3    3.221177598627072E-2   -3.245219848946141E-3    6.851062220398538E-2    5.212953107757617E-1
 6.564706112000000E9    -3.421584455267461E-2    5.676914314414068E-1    3.277667998020931E-2   -2.705344932367137E-3    3.237649515428052E-2   -3.320934334039009E-3    6.977174881976347E-2    5.210877488361308E-1
 6.564720465450000E9    -3.304366040718580E-2    5.677569346571403E-1    3.312579385647543E-2   -3.050456609407262E-3    3.259770600721425E-2   -3.402449618345411E-3    7.110334140774356E-2    5.209278152217199E-1
 6.564734818900000E9    -3.182732893220903E-2    5.678242808523638E-1    3.341410882127837E-2   -3.152775108549632E-3    3.274851199292119E-2   -3.530733890868575E-3    7.252654346326051E-2    5.205904769245930E-1
 6.564749172350000E9    -3.067700679819122E-2    5.677540364120164E-1    3.346132410075441E-2   -3.151761875283188E-3    3.297375183836324E-2   -3.694221209359782E-3    7.384808197508476E-2    5.205213794442124E-1
 6.564763525800000E9    -2.944087283525967E-2    5.678072461181771E-1    3.366060443085998E-2   -3.216410186519255E-3    3.319198727014466E-2   -3.674097660014094E-3    7.527513582814403E-2    5.202143047562277E-1
 6.564777879250000E9    -2.832974983990823E-2    5.679898211031722E-1    3.392625932525484E-2   -3.379101300768091E-3    3.327629417065345E-2   -3.857415629129181E-3    7.657316549678221E-2    5.200869726798367E-1
 6.564792232700000E9    -2.719511138162039E-2    5.679720974357582E-1    3.412723963494185E-2   -3.399848769599373E-3    3.352548458989494E-2   -3.917925054467446E-3    7.789813944626291E-2    5.198100719657219E-1
 6.564806586150000E9    -2.586223084836100E-2    5.679907965410280E-1    3.439862343644601E-2   -3.425790984458035E-3    3.377927570354228E-2   -4.150813954783547E-3    7.915324779332741E-2    5.197309994508361E-1
 6.564820939600000E9    -2.483444556050653E-2    5.679803839705301E-1    3.455119882284711E-2   -3.788230248001144E-3    3.395518698927354E-2   -4.261052180812731E-3    8.063040886308229E-2    5.194513316975796E-1
 6.564835293050000E9    -2.364614122835000E-2    5.680296204616199E-1    3.466730646064134E-2   -3.850682646153362E-3    3.429520300890638E-2   -4.329353935004615E-3    8.191844709091887E-2    5.192389794189352E-1
 6.564849646500000E9    -2.244601091432375E-2    5.680782823038785E-1    3.510773426499371E-2   -3.895564814199420E-3    3.438643244948984E-2   -4.502236685469985E-3    8.339023275475627E-2    5.189318877650251E-1
 6.564863999950000E9    -2.118208253977324E-2    5.680837656445763E-1    3.518399280274206E-2   -4.070451565266007E-3    3.466841071895992E-2   -4.618740113444449E-3    8.473525894567252E-2    5.186192727306832E-1
 6.564878353400000E9    -2.005647636352994E-2    5.681869854392050E-1    3.545404687284574E-2   -4.053995158058684E-3    3.478004494547653E-2   -4.787481885347228E-3    8.621336719431176E-2    5.186307067691819E-1
 6.564892706850000E9    -1.888988738682314E-2    5.682119830192930E-1    3.564379926522628E-2   -4.276174963293467E-3    3.509651279051643E-2   -4.787213967303596E-3    8.738601889071386E-2    5.183731755743892E-1
 6.564907060300000E9    -1.762202954279148E-2    5.681566549025260E-1    3.589120565217107E-2   -4.457335088438949E-3    3.531382133815235E-2   -5.046077337061136E-3    8.888988740322962E-2    5.179755526844173E-1
 6.564921413750000E9    -1.653267718902949E-2    5.681301752854315E-1    3.609741709667682E-2   -4.541543199145350E-3    3.547293491437924E-2   -5.206874825949736E-3    9.040182508173054E-2    5.177530826894347E-1
 6.564935767200000E9    -1.520835787849753E-2    5.681555548032798E-1    3.640086468617498E-2   -4.675779245857281E-3    3.572677262083941E-2   -5.201962204119482E-3    9.156376298092998E-2    5.175294629782531E-1
 6.564950120650000E9    -1.404914095344490E-2    5.681189794981300E-1    3.641219511192651E-2   -4.756141107183423E-3    3.597812956971960E-2   -5.493773178994045E-3    9.321844504806320E-2    5.172470697315140E-1
 6.564964474100000E9    -1.286819729763269E-2    5.682142268216138E-1    3.684078347757017E-2   -5.028778218156747E-3    3.616085088126337E-2   -5.518443508167856E-3    9.458617426353746E-2    5.168470031817866E-1
 6.564978827550000E9    -1.167055112075724E-2    5.681000481077850E-1    3.711971511466556E-2   -5.093381503692201E-3    3.640958900852090E-2   -5.678565704710949E-3    9.602370745473843E-2    5.166787088796311E-1
 6.564993181000000E9    -1.047049524604106E-2    5.682413121289585E-1    3.732126072427414E-2   -5.276073760942838E-3    3.658283132664567E-2   -5.903907681724993E-3    9.748311855836723E-2    5.164860155430882E-1
 6.565007534450000E9    -9.265204329541048E-3    5.681920362058271E-1    3.752416979763096E-2   -5.480126085163618E-3    3.682839148174070E-2   -5.998477732775662E-3    9.893483956116690E-2    5.159413581736574E-1
 6.565021887900000E9    -8.075726164786060E-3    5.681392732646631E-1    3.764928417416553E-2   -5.485977526107988E-3    3.720962689998034E-2   -6.073876240910268E-3    1.003548101521879E-1    5.158324762766487E-1
 6.565036241350000E9    -6.984943862643805E-3    5.681866959562080E-1    3.800648873099695E-2   -5.818086433730261E-3    3.743516093826775E-2   -6.328230308625068E-3    1.017423313884817E-1    5.154836038730765E-1
 6.565050594800000E9    -5.607840395797049E-3    5.681139719520801E-1    3.825250093292624E-2   -5.955056451966755E-3    3.758840400155345E-2   -6.410498433003851E-3    1.031527077209419E-1    5.153136221847646E-1
 6.565064948250000E9    -4.500081179719060E-3    5.681673565378560E-1    3.852830938953950E-2   -5.932488717705933E-3    3.788160985629702E-2   -6.606524264347053E-3    1.046045921391593E-1    5.148845188133663E-1
 6.565079301700000E9    -3.198640093110676E-3    5.681031815300984E-1    3.896060485896152E-2   -6.251143757547506E-3    3.823796672074149E-2   -6.686950884463859E-3    1.061698676370856E-1    5.145309227424633E-1
 6.565093655150000E9    -2.072601101968150E-3    5.680144007419671E-1    3.916350617276688E-2   -6.475537494241131E-3    3.847921201893066E-2   -6.908061672410765E-3    1.073961179988620E-1    5.141710932757566E-1
 6.565108008600000E9    -8.374195344813002E-4    5.678913226947223E-1    3.932873274311511E-2   -6.592883469233432E-3    3.867365245187641E-2   -7.068317142718272E-3    1.090861860698897E-1    5.138024885738246E-1
 6.565122362050000E9     4.128571492425232E-4    5.679627551579376E-1    3.960199414435273E-2   -6.730528321750613E-3    3.902677623341463E-2   -7.273820321815155E-3    1.104288271868434E-1    5.135017646825559E-1
 6.565136715500000E9     1.593422590219969E-3    5.678334506701070E-1    3.999480070209949E-2   -6.884885337280651E-3    3.923273909781502E-2   -7.467534001880087E-3    1.121941456309522E-1    5.130663209497122E-1
 6.565151068950000E9     2.738951510559075E-3    5.678511714613189E-1    4.013159668368917E-2   -7.002998741618875E-3    3.946141015082737E-2   -7.714228191114197E-3    1.135582116664030E-1    5.127317146526460E-1
 6.565165422400000E9     4.061226443988839E-3    5.678282243631027E-1    4.039980567236059E-2   -7.132602818124968E-3    3.984129354059816E-2   -7.826999970599227E-3    1.151824476819862E-1    5.124407495869445E-1
 6.565179775850000E9     5.251208259812555E-3    5.678400374175889E-1    4.070773166288012E-2   -7.421801484266888E-3    4.000175311684523E-2   -8.040007506431558E-3    1.164377990890951E-1    5.120286780415115E-1
 6.565194129300000E9     6.422851058163430E-3    5.676671939626998E-1    4.117360453332807E-2   -7.583994654002002E-3    4.046020374320074E-2   -8.252248943716286E-3    1.180569982654795E-1    5.117115577308714E-1
 6.565208482750000E9     7.773072255050739E-3    5.677386809078971E-1    4.138288855279575E-2   -7.888745068881851E-3    4.060300956596483E-2   -8.299927063372677E-3    1.195657856810734E-1    5.112069322143989E-1
 6.565222836200000E9     8.933616184077906E-3    5.675779123956036E-1    4.165441614682154E-2   -8.039729040632774E-3    4.091202092570922E-2   -8.633271168301752E-3    1.210460033511414E-1    5.108210951104877E-1
 6.565237189650000E9     1.015887187432272E-2    5.676735189813937E-1    4.204200628813017E-2   -8.157914189259600E-3    4.129059201139129E-2   -8.757194193755450E-3    1.226363584487131E-1    5.103743367707111E-1
 6.565251543100000E9     1.147060964624926E-2    5.674774994253328E-1    4.227941830623891E-2   -8.511978424698273E-3    4.151853617636572E-2   -8.932538553172003E-3    1.241488845255480E-1    5.099411670073982E-1
 6.565265896550000E9     1.270105107258869E-2    5.674321802988191E-1    4.256061086649591E-2   -8.653685930754438E-3    4.185398119795283E-2   -9.203020592605634E-3    1.257176932744066E-1    5.096650042993556E-1
 6.565280250000000E9     1.395013231272116E-2    5.672802817409998E-1    4.290534226944175E-2   -8.839491223085390E-3    4.210340011967581E-2   -9.393168576204359E-3    1.272621063839884E-1    5.092000030205683E-1
 6.565294603450000E9     1.504882515908212E-2    5.671757102019984E-1    4.322657803818654E-2   -9.085677299706774E-3    4.251115608706595E-2   -9.608321696229898E-3    1.289632635501709E-1    5.086970352076463E-1
 6.565308956900000E9     1.634867431037624E-2    5.671376673356920E-1    4.354444261701916E-2   -9.217168264032351E-3    4.279623014933890E-2   -9.857846775305172E-3    1.305256805927801E-1    5.082451307473440E-1
 6.565323310350000E9     1.771803496829441E-2    5.671542377050557E-1    4.378649375541158E-2   -9.560370264892388E-3    4.319405149181119E-2   -1.007553980770940E-2    1.320891534390768E-1    5.076916859496601E-1
 6.565337663800000E9     1.889298713091937E-2    5.669840147642017E-1    4.431751424831998E-2   -9.663412164148580E-3    4.349523074029840E-2   -1.033576214868005E-2    1.336025278330988E-1    5.071969062881138E-1
 6.565352017250000E9     2.012776442781959E-2    5.669205546684586E-1    4.464185162192999E-2   -9.947707413083493E-3    4.385998598077920E-2   -1.052958610063587E-2    1.352242200666638E-1    5.067293506197983E-1
 6.565366370700000E9     2.149368934294243E-2    5.667756352659605E-1    4.490944477626554E-2   -1.011761208821967E-2    4.418030948614764E-2   -1.086110755651842E-2    1.368345190897136E-1    5.062945345503427E-1
 6.565380724150000E9     2.269466267328251E-2    5.666861017384237E-1    4.530845489276331E-2   -1.042457348963205E-2    4.448131772707858E-2   -1.101339215389656E-2    1.384309875194525E-1    5.057426606925547E-1
 6.565395077600000E9     2.387695761318879E-2    5.666733106493753E-1    4.546610955268626E-2   -1.061081361983099E-2    4.470972215633704E-2   -1.134562293130438E-2    1.401345785577743E-1    5.052202712216846E-1
 6.565409431050000E9     2.514858325627812E-2    5.663610799757850E-1    4.587901765475915E-2   -1.088876370148164E-2    4.517107689478080E-2   -1.156909470253061E-2    1.417731128969077E-1    5.047723158536259E-1
 6.565423784500000E9     2.644222152574698E-2    5.663039932217645E-1    4.627978359636259E-2   -1.133766914527873E-2    4.545297612283615E-2   -1.181854233293408E-2    1.434233121913535E-1    5.040771707706159E-1
