#  HZ   S   RI   R     50.00 
! Rohde & Schwarz Vector Network Analyzer 
! Rohde-Schwarz,ZNB20-2Port,1311601062101988,3.16
! Created: UTC 3/20/2024, 4:59:06 PM
! freq[Hz]                re:S11                  im:S11                  re:S21                  im:S21                  re:S12                  im:S12                  re:S22                  im:S22
 6.564122901000000E9    -8.055826522330897E-2    5.633719099547791E-1    2.629383766299836E-2    4.194935627025696E-4    2.600656214970037E-2   -7.281650895940716E-5    1.831993664472550E-2    5.248550015788346E-1
 6.564137295150000E9    -7.937089954935321E-2    5.634834476946933E-1    2.654723645613567E-2    5.215113394077798E-4    2.609431041615477E-2   -2.036760944888149E-6    1.933767421410178E-2    5.249733817028117E-1
 6.564151689300000E9    -7.831369595017906E-2    5.636634883078062E-1    2.684671212003659E-2    3.631935384099952E-4    2.623667654335453E-2   -4.715943265464198E-5    2.059694844726626E-2    5.247914508157020E-1
 6.564166083450000E9    -7.731328853714045E-2    5.638435953176590E-1    2.693802611648305E-2    2.272362413311098E-4    2.645930916635452E-2   -1.582830997097051E-4    2.178393965744353E-2    5.249000285932429E-1
 6.564180477600000E9    -7.614418770410469E-2    5.639650774123244E-1    2.708852709571898E-2    2.087731434924533E-4    2.650797844304888E-2   -3.326043986249199E-4    2.314572772367843E-2    5.249824312461667E-1
 6.564194871750000E9    -7.504997833939905E-2    5.640520188077783E-1    2.702260217253073E-2    1.864199661640226E-4    2.672626970526469E-2   -3.193477197148534E-4    2.435780507078095E-2    5.247868714059029E-1
 6.564209265900000E9    -7.387582714273473E-2    5.643294941845513E-1    2.713364305770719E-2    1.115272478629430E-4    2.679763229018872E-2   -4.967419568000968E-4    2.573377051321626E-2    5.247508373803088E-1
 6.564223660050000E9    -7.272546617015903E-2    5.644202239417965E-1    2.741717965607662E-2    1.518401739964865E-4    2.687085280861776E-2   -4.620127916527863E-4    2.693963637330581E-2    5.247532059720509E-1
 6.564238054200000E9    -7.157129286358889E-2    5.646111657214243E-1    2.753886038715954E-2   -6.372390232425670E-6    2.704142325830087E-2   -6.059589095572702E-4    2.802183234583574E-2    5.246612003453903E-1
 6.564252448350000E9    -7.041258197570187E-2    5.648063444568479E-1    2.772112895341367E-2   -1.425491723106534E-4    2.713229015301627E-2   -5.456839696161384E-4    2.917732769879446E-2    5.246964482586658E-1
 6.564266842500000E9    -6.924508686583651E-2    5.647123905234170E-1    2.778299285379962E-2   -1.874117800855983E-4    2.737601666471451E-2   -6.976849834188810E-4    3.065949114849752E-2    5.244859111947396E-1
 6.564281236650000E9    -6.816110347950048E-2    5.649505849886484E-1    2.788812902141813E-2   -2.698802827029566E-4    2.751601254782125E-2   -7.777430900121708E-4    3.180893951008845E-2    5.245444470198248E-1
 6.564295630800000E9    -6.707759892437820E-2    5.651407262244094E-1    2.815064308493321E-2   -3.327561412235509E-4    2.764008284246881E-2   -8.318581571911796E-4    3.301255721303399E-2    5.245578496919842E-1
 6.564310024950000E9    -6.595346566039233E-2    5.652142272213646E-1    2.825862202111578E-2   -3.701692012183386E-4    2.774449382383958E-2   -8.849530215117226E-4    3.431751663397371E-2    5.243982560066404E-1
 6.564324419100000E9    -6.482330976542060E-2    5.653231922941448E-1    2.844404219685026E-2   -5.237614864397940E-4    2.787006705012256E-2   -9.286058338555936E-4    3.553341931670674E-2    5.242961660766868E-1
 6.564338813250000E9    -6.355377141812929E-2    5.653365111337176E-1    2.855509528499464E-2   -5.163338387819256E-4    2.806030373725705E-2   -1.042114592088296E-3    3.674743500670107E-2    5.242749616834930E-1
 6.564353207400000E9    -6.238696868340938E-2    5.655631398268531E-1    2.873806727960549E-2   -5.240751641624584E-4    2.821885283117089E-2   -1.149804883935842E-3    3.805009218698531E-2    5.242678948380098E-1
 6.564367601550000E9    -6.132690315096005E-2    5.656718393879470E-1    2.892121695708840E-2   -5.688239254511168E-4    2.840033872983874E-2   -1.164191806013873E-3    3.924041990451719E-2    5.240664665893201E-1
 6.564381995700000E9    -6.028130763703513E-2    5.657890195796278E-1    2.895741218478838E-2   -7.500586551670284E-4    2.848825336965479E-2   -1.288873120302107E-3    4.066018622665204E-2    5.239451208772703E-1
 6.564396389850000E9    -5.916843397547115E-2    5.659317947454172E-1    2.920860590244541E-2   -8.276610537305907E-4    2.867888079606716E-2   -1.382861070517323E-3    4.185440214789637E-2    5.239120075393836E-1
 6.564410784000000E9    -5.788570090390712E-2    5.659729945966563E-1    2.935831587330032E-2   -1.001719333756829E-3    2.879544270162649E-2   -1.364366452138272E-3    4.298827832908465E-2    5.238174915016334E-1
 6.564425178150000E9    -5.678670846639727E-2    5.660886985757626E-1    2.955470931351517E-2   -1.023740519058006E-3    2.901921060901835E-2   -1.493780952719706E-3    4.438780039629239E-2    5.237952973078515E-1
 6.564439572300000E9    -5.569377234591609E-2    5.661772412849149E-1    2.967747695293590E-2   -1.051266531489034E-3    2.911813630257584E-2   -1.613197552704384E-3    4.563482546589743E-2    5.236279637763318E-1
 6.564453966450000E9    -5.447090566884034E-2    5.663536988628252E-1    2.986161089024056E-2   -1.108935924524639E-3    2.933788971093421E-2   -1.635030228082460E-3    4.693950269309007E-2    5.234986867176805E-1
 6.564468360600000E9    -5.331178471416084E-2    5.665125009600559E-1    3.000958207434969E-2   -1.289927003266615E-3    2.945398849008740E-2   -1.716235451179391E-3    4.813747580563461E-2    5.234008568560997E-1
 6.564482754750000E9    -5.226780776775462E-2    5.665107011069934E-1    3.023299579339651E-2   -1.282247899291578E-3    2.970739621341597E-2   -1.841749801451871E-3    4.962064308944946E-2    5.232229584734346E-1
 6.564497148900000E9    -5.107987959892996E-2    5.667100229305033E-1    3.032536926495605E-2   -1.407253584735259E-3    2.985281746081701E-2   -1.850699454511142E-3    5.057122428471393E-2    5.232021598325557E-1
 6.564511543050000E9    -4.983417253610800E-2    5.667400997602861E-1    3.054273662434157E-2   -1.545856837302077E-3    2.998406229701185E-2   -1.981216725612188E-3    5.193694219388111E-2    5.231087730374078E-1
 6.564525937200000E9    -4.874341169003849E-2    5.667972952880247E-1    3.067716035947322E-2   -1.525384427684228E-3    3.015275654181348E-2   -2.084897624423541E-3    5.341119051362909E-2    5.229595214739071E-1
 6.564540331350000E9    -4.758805792493537E-2    5.669321694277698E-1    3.084459424406081E-2   -1.652530028487196E-3    3.030942296085148E-2   -2.160257104813821E-3    5.464034848611828E-2    5.227282382546575E-1
 6.564554725500000E9    -4.639178362790302E-2    5.670167675730240E-1    3.112350457808191E-2   -1.750405850799713E-3    3.047077963002295E-2   -2.244246553102814E-3    5.596232643768537E-2    5.226518717308892E-1
 6.564569119650000E9    -4.523930503095502E-2    5.671329631539338E-1    3.111285467555896E-2   -1.795719358472594E-3    3.063312965728071E-2   -2.458136948415894E-3    5.729630625305517E-2    5.225224693042856E-1
 6.564583513800000E9    -4.415722344579109E-2    5.670841100644446E-1    3.137283361709459E-2   -2.033625092663071E-3    3.082200122839927E-2   -2.533724307271237E-3    5.857107402379690E-2    5.223325700712156E-1
 6.564597907950000E9    -4.291078274666096E-2    5.671831473337836E-1    3.150959322472218E-2   -1.861964744364353E-3    3.101433288222232E-2   -2.563964928040321E-3    5.987751852257785E-2    5.222126207186130E-1
 6.564612302100000E9    -4.176365298808891E-2    5.673148061016464E-1    3.167160534897340E-2   -1.994320811262505E-3    3.122126604532807E-2   -2.721884121131928E-3    6.103167036980013E-2    5.221197933370044E-1
 6.564626696250000E9    -4.046520849050238E-2    5.672790223769273E-1    3.192367378475527E-2   -2.186035204157993E-3    3.142833520962882E-2   -2.763668895209358E-3    6.266453932256075E-2    5.217902937675379E-1
 6.564641090400000E9    -3.946214256699416E-2    5.674106862600765E-1    3.210367040255181E-2   -2.395490536854887E-3    3.153583571027215E-2   -2.789820264961068E-3    6.382799426966708E-2    5.217980322400776E-1
 6.564655484550000E9    -3.827171393260881E-2    5.675085313963664E-1    3.226562013577889E-2   -2.483134905776596E-3    3.173809890563680E-2   -2.944810761080704E-3    6.499499745550931E-2    5.216238608475996E-1
 6.564669878700000E9    -3.719229326058569E-2    5.675427110254345E-1    3.249494325099834E-2   -2.655795258374083E-3    3.202151539613041E-2   -3.014877270844760E-3    6.647834198546794E-2    5.213391881382979E-1
 6.564684272850000E9    -3.590993887975775E-2    5.676918315620967E-1    3.261890412906226E-2   -2.578605915286590E-3    3.213777062813378E-2   -3.089555867231348E-3    6.774557767758785E-2    5.213845512023594E-1
 6.564698667000000E9    -3.485911922064536E-2    5.676358040347955E-1    3.280676834373426E-2   -2.729149828971805E-3    3.228340793520803E-2   -3.242605181669307E-3    6.919646807925638E-2    5.211297410682242E-1
 6.564713061150000E9    -3.363763852072923E-2    5.677246251481459E-1    3.302823373387656E-2   -2.906424018919843E-3    3.242003794420508E-2   -3.394677941615291E-3    7.053032330832358E-2    5.208218471131502E-1
 6.564727455300000E9    -3.236511423086480E-2    5.677116601205043E-1    3.324177386715244E-2   -3.007779727117281E-3    3.268035199984930E-2   -3.569619873756659E-3    7.175578800832058E-2    5.206476845105109E-1
 6.564741849450000E9    -3.127457652544100E-2    5.678408032465251E-1    3.343513816769556E-2   -3.166259642234271E-3    3.288554637336597E-2   -3.604877907461891E-3    7.313409899779329E-2    5.204546767780031E-1
 6.564756243600000E9    -3.010284937766563E-2    5.678561259885841E-1    3.373217220219269E-2   -3.194686747084317E-3    3.314610454498882E-2   -3.741188765456364E-3    7.454830070633880E-2    5.204370905380282E-1
 6.564770637750000E9    -2.877582648354409E-2    5.679360598948969E-1    3.384481596272351E-2   -3.315879385717445E-3    3.327528843324581E-2   -3.827019590834131E-3    7.604790080122513E-2    5.202286132132846E-1
 6.564785031900000E9    -2.769406566226993E-2    5.679895689836536E-1    3.408761992490097E-2   -3.406014765644276E-3    3.348144536171478E-2   -3.953394483404444E-3    7.729904658953171E-2    5.199788963247591E-1
 6.564799426050000E9    -2.656593295417181E-2    5.679608169184135E-1    3.427076252308579E-2   -3.533976951187133E-3    3.362687352525299E-2   -4.117309982765644E-3    7.859070644952104E-2    5.197441352132759E-1
 6.564813820200000E9    -2.546323792250271E-2    5.679084109999063E-1    3.448472644920364E-2   -3.782465418482382E-3    3.393222523314230E-2   -4.112776654615450E-3    8.004793876456372E-2    5.194251286104130E-1
 6.564828214350000E9    -2.427092654061120E-2    5.679827152466868E-1    3.463314578900555E-2   -3.799860280938140E-3    3.412748250838993E-2   -4.351915024852366E-3    8.144502373713722E-2    5.193550278860187E-1
 6.564842608500000E9    -2.291632034420509E-2    5.680651388257825E-1    3.475600164014617E-2   -3.783232995062244E-3    3.426729423625857E-2   -4.438402455806257E-3    8.278677830630084E-2    5.189638674109819E-1
 6.564857002650000E9    -2.176284483986658E-2    5.681325461459507E-1    3.509916351617283E-2   -3.970959437257173E-3    3.452302800619421E-2   -4.581611199890304E-3    8.417950479387967E-2    5.188057533703804E-1
 6.564871396800000E9    -2.067047832461787E-2    5.681878293977465E-1    3.534576323484991E-2   -4.141770512889003E-3    3.472894630847883E-2   -4.746099401651017E-3    8.555574465295337E-2    5.185257888768032E-1
 6.564885790950000E9    -1.941071570021349E-2    5.681332128142996E-1    3.547946092424981E-2   -4.257823886026399E-3    3.495372315800670E-2   -4.853239533176438E-3    8.683311162841999E-2    5.183905697223937E-1
 6.564900185100000E9    -1.813782195152234E-2    5.681148907151315E-1    3.591259527887342E-2   -4.429252625642231E-3    3.509978830282575E-2   -4.855031658452037E-3    8.812746932845435E-2    5.180920893675999E-1
 6.564914579250000E9    -1.700876438222205E-2    5.681215401977247E-1    3.599519932494544E-2   -4.561202597994848E-3    3.537612552104364E-2   -5.044403882276032E-3    8.972737466776846E-2    5.178920144428256E-1
 6.564928973400000E9    -1.583236571836681E-2    5.681345375396677E-1    3.628408572913980E-2   -4.641396798446150E-3    3.581090372966186E-2   -5.220561818712150E-3    9.093235263423309E-2    5.176208682553702E-1
 6.564943367550000E9    -1.460558508022845E-2    5.682320356815437E-1    3.658753047444287E-2   -4.702217732463225E-3    3.585763330477324E-2   -5.350289563818043E-3    9.258382419091309E-2    5.172984470010071E-1
 6.564957761700000E9    -1.345756936497822E-2    5.682973714971632E-1    3.673614076853356E-2   -4.893922547001548E-3    3.601226306210905E-2   -5.494318052441154E-3    9.407047613461890E-2    5.170074888908056E-1
 6.564972155850000E9    -1.227626011322732E-2    5.681200466209225E-1    3.683498955779902E-2   -5.096949400048057E-3    3.631858545839105E-2   -5.611902358767519E-3    9.523887600496844E-2    5.167379159770079E-1
 6.564986550000000E9    -1.102666089396344E-2    5.681729228426741E-1    3.709390313981084E-2   -5.310111922440690E-3    3.650069177857201E-2   -5.832351719664270E-3    9.702600043603261E-2    5.164809898976226E-1
 6.565000944150000E9    -9.742799258412210E-3    5.682327942852681E-1    3.756596240799165E-2   -5.383756411144896E-3    3.684482048960729E-2   -5.965681373206767E-3    9.833578021276691E-2    5.162859169671956E-1
 6.565015338300000E9    -8.556140682180672E-3    5.681574927554708E-1    3.769907930954632E-2   -5.582948177979382E-3    3.692155708060722E-2   -6.042666167926508E-3    9.967246592313235E-2    5.158774264770756E-1
 6.565029732450000E9    -7.512986253476595E-3    5.681463749722573E-1    3.785583388773733E-2   -5.773573915677483E-3    3.729896818741031E-2   -6.274917931189397E-3    1.010733156162545E-1    5.155195260920613E-1
 6.565044126600000E9    -6.201527170705616E-3    5.681257499487496E-1    3.820561052025934E-2   -5.818394448339427E-3    3.754154302786255E-2   -6.438577859605004E-3    1.024596436564221E-1    5.153414436648437E-1
 6.565058520750000E9    -4.876788819846320E-3    5.681336584801380E-1    3.854303811338976E-2   -5.881570539727627E-3    3.777788966166076E-2   -6.571770126543794E-3    1.040580160910978E-1    5.149328540555577E-1
 6.565072914900000E9    -3.875229504063130E-3    5.680913331647071E-1    3.862945608224148E-2   -6.089408057177574E-3    3.806181304385202E-2   -6.734076565986805E-3    1.055440026248038E-1    5.147364509021858E-1
 6.565087309050000E9    -2.644187924172668E-3    5.680081564499717E-1    3.909820834043529E-2   -6.403870316134173E-3    3.826425665818263E-2   -6.844612342121933E-3    1.069238709111853E-1    5.143145853586703E-1
 6.565101703200000E9    -1.389617347436903E-3    5.680383601529050E-1    3.927738318138019E-2   -6.451424521369022E-3    3.868114534323818E-2   -7.026104479355080E-3    1.084959819466949E-1    5.138853854202198E-1
 6.565116097350000E9    -1.322045401530450E-4    5.679104587424343E-1    3.956611583860482E-2   -6.630164614901916E-3    3.891706924068659E-2   -7.238160975672397E-3    1.099531159410890E-1    5.136040551446516E-1
 6.565130491500000E9     9.518046291612845E-4    5.678916144098255E-1    3.993286189661453E-2   -6.974475846776496E-3    3.915374747939995E-2   -7.396829111675709E-3    1.114196164052292E-1    5.132811750325885E-1
 6.565144885650000E9     2.368631403820432E-3    5.678127313467507E-1    4.022285632673189E-2   -6.966129736395336E-3    3.945043930737516E-2   -7.544111035368600E-3    1.129678028638713E-1    5.127730253650234E-1
 6.565159279800000E9     3.641801115124603E-3    5.678799664598994E-1    4.043985838824519E-2   -7.236912330160510E-3    3.978793526111943E-2   -7.733437646048003E-3    1.143324825921930E-1    5.125345982510764E-1
 6.565173673950000E9     4.636549829745169E-3    5.677635015709638E-1    4.068961731425474E-2   -7.378164603445167E-3    3.985564350305718E-2   -7.961792503914484E-3    1.159552955788968E-1    5.120583996277721E-1
 6.565188068100000E9     5.990762835968610E-3    5.677636811218626E-1    4.088930203649640E-2   -7.560626010182379E-3    4.029501903469533E-2   -8.180224305426122E-3    1.172554874417984E-1    5.116368309539594E-1
 6.565202462250000E9     7.216602836782127E-3    5.677082649928523E-1    4.121000959528433E-2   -7.779195829870252E-3    4.056506776358199E-2   -8.287069128518077E-3    1.189554557092956E-1    5.115282787233282E-1
 6.565216856400000E9     8.451942956340665E-3    5.676652819555836E-1    4.153808691629619E-2   -7.943769651761181E-3    4.078068860084049E-2   -8.523222605534547E-3    1.205029089639031E-1    5.108577566038465E-1
 6.565231250550000E9     9.702607120317673E-3    5.675293802278054E-1    4.176282247287866E-2   -8.183102800267836E-3    4.116489925343618E-2   -8.616625163284477E-3    1.220795224042755E-1    5.103733778641844E-1
 6.565245644700000E9     1.092461163953766E-2    5.675479217498561E-1    4.215765739913706E-2   -8.333879176796514E-3    4.155152867695599E-2   -8.919793293749995E-3    1.234810682324426E-1    5.101480335110142E-1
 6.565260038850000E9     1.218421889991265E-2    5.675237066651800E-1    4.239858993522688E-2   -8.508171691053543E-3    4.172193409390357E-2   -9.172803298771971E-3    1.251381225698825E-1    5.096598286839222E-1
 6.565274433000000E9     1.340578463049679E-2    5.672828929787557E-1    4.273026577914657E-2   -8.723636119270864E-3    4.202261761635170E-2   -9.482233234059251E-3    1.268264036163732E-1    5.091809276598158E-1
 6.565288827150000E9     1.461817928420005E-2    5.672821132762498E-1    4.305840573376587E-2   -8.936746054903006E-3    4.241503796877014E-2   -9.634931709875295E-3    1.283009711337596E-1    5.087606921170024E-1
 6.565303221300000E9     1.595322812398734E-2    5.672124129958100E-1    4.352012063636219E-2   -9.325572381032605E-3    4.268169917875347E-2   -9.748138296153007E-3    1.298135314200767E-1    5.084227672694165E-1
 6.565317615450000E9     1.714734113101917E-2    5.671278321117815E-1    4.370657979503216E-2   -9.535742693196443E-3    4.296989395408659E-2   -1.001259325224218E-2    1.313199817609608E-1    5.079213854587245E-1
 6.565332009600000E9     1.838083919788574E-2    5.670585144186951E-1    4.408385789073502E-2   -9.576191615708702E-3    4.335959052979681E-2   -1.018735639431631E-2    1.329324046168439E-1    5.073914661173541E-1
 6.565346403750000E9     1.967226108023487E-2    5.668307796044857E-1    4.450616199972358E-2   -9.887630120079325E-3    4.365549492927918E-2   -1.038446243133878E-2    1.346001692397882E-1    5.069967176765632E-1
 6.565360797900000E9     2.096929399287360E-2    5.667733997827435E-1    4.484659892969575E-2   -1.000077443906236E-2    4.397204244332825E-2   -1.071422143268865E-2    1.361291597628566E-1    5.063522269450635E-1
 6.565375192050000E9     2.221129968715968E-2    5.666886311582000E-1    4.514141368072549E-2   -1.037441847061434E-2    4.436277570376198E-2   -1.087027033512285E-2    1.378158131074626E-1    5.058358572264309E-1
 6.565389586200000E9     2.361448688240376E-2    5.665491505541210E-1    4.542939966950413E-2   -1.060220565754811E-2    4.470616564850584E-2   -1.122139979084536E-2    1.395007130847147E-1    5.053725279933744E-1
 6.565403980350000E9     2.477710650494533E-2    5.664161603187878E-1    4.584915970499875E-2   -1.087092942977168E-2    4.496387092500940E-2   -1.136711641755366E-2    1.411146522480059E-1    5.049068649224563E-1
 6.565418374500000E9     2.604645660405443E-2    5.663677964404465E-1    4.623418182780709E-2   -1.101142322760407E-2    4.539652166094213E-2   -1.160887159309468E-2    1.428627130328753E-1    5.042216206849620E-1
