#  HZ   S   RI   R     50.00 
! Rohde & Schwarz Vector Network Analyzer 
! Rohde-Schwarz,ZNB20-2Port,1311601062101988,3.16
! Created: UTC 3/20/2024, 5:14:15 PM
! freq[Hz]                re:S11                  im:S11                  re:S21                  im:S21                  re:S12                  im:S12                  re:S22                  im:S22
 6.564897033000000E9    -2.065125824777267E-2    5.687368970316208E-1    3.255437615280420E-2   -2.684134607606493E-3    3.196887221164032E-2   -3.380724156126317E-3    8.245740501055439E-2    5.204648598438707E-1
 6.564908679675000E9    -1.966230689357291E-2    5.687818655959053E-1    3.271452467556683E-2   -2.832712799623775E-3    3.223234314437961E-2   -3.394808134031581E-3    8.355366304029842E-2    5.204519288506901E-1
 6.564920326350000E9    -1.875224299347933E-2    5.687605374163355E-1    3.272690301945329E-2   -2.880620430104063E-3    3.227124867361737E-2   -3.392579272638615E-3    8.459769293453442E-2    5.201486480274340E-1
 6.564931973025000E9    -1.773841578816125E-2    5.688790818611251E-1    3.307423207521197E-2   -3.059271363530462E-3    3.251648573359874E-2   -3.576303597765512E-3    8.582408180889559E-2    5.201357525705846E-1
 6.564943619700000E9    -1.683148385943640E-2    5.688261329771439E-1    3.315513564468820E-2   -3.088058215391722E-3    3.264199167727395E-2   -3.616464411347696E-3    8.679198678706394E-2    5.199413804118828E-1
 6.564955266375000E9    -1.592851014838794E-2    5.688538397289382E-1    3.338178723898234E-2   -3.289762882566400E-3    3.277028150566233E-2   -3.754993310301470E-3    8.785945619101891E-2    5.197597477088709E-1
 6.564966913050000E9    -1.505832785776263E-2    5.687855663859630E-1    3.354817954652566E-2   -3.253202737999052E-3    3.283412383262269E-2   -3.803109602145550E-3    8.909784330924442E-2    5.194430373800452E-1
 6.564978559725000E9    -1.398637115711845E-2    5.688444499302310E-1    3.371856129341248E-2   -3.422017464623417E-3    3.308255123898354E-2   -3.775586174332794E-3    9.009907018477582E-2    5.196072771439849E-1
 6.564990206400000E9    -1.312119432828697E-2    5.688283064523444E-1    3.377288846856433E-2   -3.415857924639984E-3    3.324194612875377E-2   -3.891334263777886E-3    9.105358367081583E-2    5.191014087119695E-1
 6.565001853075000E9    -1.209614385574224E-2    5.689203258889426E-1    3.393750892483616E-2   -3.513659329955056E-3    3.341391387289517E-2   -4.122247624783759E-3    9.229217630954313E-2    5.189297448227415E-1
 6.565013499750000E9    -1.116931995178551E-2    5.688658104517035E-1    3.411426812236222E-2   -3.667799520764885E-3    3.360612151624809E-2   -4.146835836566523E-3    9.329176303815957E-2    5.189361364904204E-1
 6.565025146425000E9    -1.011448311485938E-2    5.689142452465153E-1    3.433568456467297E-2   -3.699819608522710E-3    3.381204427854007E-2   -4.332447685266790E-3    9.447236803311669E-2    5.187820223005511E-1
 6.565036793100000E9    -9.222050701054484E-3    5.687887713476137E-1    3.447911107335187E-2   -3.836595879727860E-3    3.382197692608560E-2   -4.235086391377456E-3    9.559398266694277E-2    5.184670438264839E-1
 6.565048439775000E9    -8.247805458484274E-3    5.688365966285861E-1    3.475668077129971E-2   -3.880342000535097E-3    3.419990751861154E-2   -4.398460746435321E-3    9.655681547309210E-2    5.182141760531978E-1
 6.565060086450000E9    -7.252014486615107E-3    5.688368647592464E-1    3.482332249060872E-2   -3.966567213934062E-3    3.423770430395359E-2   -4.563992860477459E-3    9.786384135054059E-2    5.180879783278982E-1
 6.565071733125000E9    -6.277791242342992E-3    5.688436643315914E-1    3.509311458730538E-2   -4.080125902383187E-3    3.446028100064435E-2   -4.614040472428288E-3    9.895823042138002E-2    5.178157926975051E-1
 6.565083379800000E9    -5.383384463966096E-3    5.688716710528494E-1    3.512954572514080E-2   -4.024187773494027E-3    3.459679453305775E-2   -4.709841067608286E-3    1.000195566023562E-1    5.174780049431336E-1
 6.565095026475000E9    -4.407576008413463E-3    5.689287284991594E-1    3.541908385186419E-2   -4.272508840746611E-3    3.471850045467835E-2   -4.774729698313071E-3    1.011503556681591E-1    5.174153475863046E-1
 6.565106673150000E9    -3.354632716800937E-3    5.689154241629969E-1    3.556078948102484E-2   -4.325479026423712E-3    3.505438692571664E-2   -4.907360471636351E-3    1.023707750754346E-1    5.171398999961464E-1
 6.565118319825000E9    -2.535171053186169E-3    5.688864074037351E-1    3.573999787388388E-2   -4.527991768512516E-3    3.509859668502285E-2   -5.083551661117107E-3    1.035048786294861E-1    5.170482299428972E-1
 6.565129966500000E9    -1.563094507190490E-3    5.688589087559136E-1    3.590002281227238E-2   -4.674265034143484E-3    3.538712955206696E-2   -5.100284764126232E-3    1.044909103305971E-1    5.168707364479536E-1
 6.565141613175000E9    -4.951683720367822E-4    5.687095018342483E-1    3.610242023906843E-2   -4.667369838097070E-3    3.551310553606883E-2   -5.136015342179837E-3    1.058613027248608E-1    5.164994723592182E-1
 6.565153259850000E9     4.322415763522808E-4    5.688087129245297E-1    3.644886944381682E-2   -4.845328286886542E-3    3.565064457833350E-2   -5.296397879132315E-3    1.068380108749831E-1    5.164405888953969E-1
 6.565164906525000E9     1.430478376083374E-3    5.688080102806270E-1    3.665657155775396E-2   -4.869800707978918E-3    3.590914722143457E-2   -5.470694477503186E-3    1.080306483796747E-1    5.161622786255652E-1
 6.565176553200000E9     2.458466578806361E-3    5.687801800116592E-1    3.676649787328731E-2   -5.006824996448605E-3    3.604360726329402E-2   -5.537191298157712E-3    1.090762841609530E-1    5.158062421573562E-1
 6.565188199875000E9     3.305459865979866E-3    5.687441593327268E-1    3.688725683564660E-2   -5.112720762106850E-3    3.629129057309668E-2   -5.662750948088671E-3    1.103376681648761E-1    5.156663050020329E-1
 6.565199846550000E9     4.344444165276092E-3    5.687236068527147E-1    3.707782960576098E-2   -5.361836706108504E-3    3.656983898523783E-2   -5.731840149422948E-3    1.115012699971523E-1    5.154593613647478E-1
 6.565211493225000E9     5.382888664282033E-3    5.686864795406978E-1    3.722181550610864E-2   -5.442099205343499E-3    3.677975685035598E-2   -5.944925428336890E-3    1.126466446395665E-1    5.150839384841867E-1
 6.565223139900000E9     6.208337717019802E-3    5.686970619968518E-1    3.756138474289082E-2   -5.511376835498879E-3    3.686797235807768E-2   -5.946985149068123E-3    1.137894893752143E-1    5.148906168821691E-1
 6.565234786575000E9     7.244157464765042E-3    5.686531734174173E-1    3.761602333583216E-2   -5.596727068346604E-3    3.710465741045457E-2   -6.215224148234330E-3    1.151201870063187E-1    5.147844192580853E-1
 6.565246433250000E9     8.203313719253468E-3    5.685233974368556E-1    3.790728754635182E-2   -5.698293119886185E-3    3.719932826994248E-2   -6.206468575174035E-3    1.161641248562857E-1    5.144490786004514E-1
 6.565258079925000E9     9.222475852017770E-3    5.686041136081643E-1    3.822394051125860E-2   -5.815704210957009E-3    3.750934813236184E-2   -6.377623912929548E-3    1.171868275669246E-1    5.139928354373779E-1
 6.565269726600000E9     1.020048818789198E-2    5.686247567827577E-1    3.833684992251468E-2   -5.843098969776696E-3    3.778582877704563E-2   -6.467130035166193E-3    1.184771897835730E-1    5.138242870729609E-1
 6.565281373275000E9     1.118640351305659E-2    5.684417787605938E-1    3.865693199166825E-2   -6.065554115381517E-3    3.796489975308777E-2   -6.592563194811807E-3    1.197551694102379E-1    5.135172957479610E-1
 6.565293019950000E9     1.224266554136649E-2    5.684948908382824E-1    3.865958940331485E-2   -6.143905949352150E-3    3.809308444091061E-2   -6.693319320857759E-3    1.210239013941101E-1    5.132944332211070E-1
 6.565304666625000E9     1.309212135084775E-2    5.684492010622230E-1    3.891643523759124E-2   -6.301530744979916E-3    3.838712356500571E-2   -6.875474542441605E-3    1.219997300673037E-1    5.129486318735801E-1
 6.565316313300000E9     1.407666041810623E-2    5.683459018052508E-1    3.915930437526691E-2   -6.438319776620884E-3    3.852684018438540E-2   -7.065220420206270E-3    1.232357192222065E-1    5.127646067515959E-1
 6.565327959975000E9     1.516506687755050E-2    5.684587478090913E-1    3.940201334771616E-2   -6.573362116070244E-3    3.880506974756190E-2   -7.154956936815618E-3    1.243389771488058E-1    5.124072171937271E-1
 6.565339606650000E9     1.606799490545802E-2    5.682416128193281E-1    3.958001660514954E-2   -6.754638076592913E-3    3.892759919172074E-2   -7.218919919850028E-3    1.256777935277753E-1    5.121052998261325E-1
 6.565351253325000E9     1.705219428778254E-2    5.683220818392328E-1    3.986822086803284E-2   -6.740633275947651E-3    3.910586900278738E-2   -7.353339846923757E-3    1.269391823063531E-1    5.118078980216424E-1
 6.565362900000000E9     1.817213727014401E-2    5.681803263863177E-1    4.016731150573872E-2   -6.879457742991881E-3    3.936433208356413E-2   -7.492773287190675E-3    1.281866166982608E-1    5.116532697251245E-1
 6.565374546675000E9     1.917074634493923E-2    5.681672432703694E-1    4.031268259479632E-2   -7.104515500209111E-3    3.971867288208410E-2   -7.669726046537967E-3    1.292409199633922E-1    5.111854653453378E-1
 6.565386193350000E9     2.010869839073128E-2    5.680757224952067E-1    4.045507869680171E-2   -7.239214213248064E-3    3.987105398281868E-2   -7.816836136554376E-3    1.306541387444189E-1    5.107818124828847E-1
 6.565397840025000E9     2.108437487218585E-2    5.680856250765461E-1    4.069245392495528E-2   -7.467393417993531E-3    4.005080727228812E-2   -8.058055835128544E-3    1.317318482244474E-1    5.104784563536306E-1
 6.565409486700000E9     2.207790989761545E-2    5.680161532041276E-1    4.100376501790906E-2   -7.621635850872884E-3    4.036221951661179E-2   -8.122597684577865E-3    1.329391155903095E-1    5.103551391117114E-1
 6.565421133375000E9     2.302831520990139E-2    5.678423315540653E-1    4.129961247936683E-2   -7.584990889836670E-3    4.065846672328829E-2   -8.243214670101962E-3    1.342062160962695E-1    5.101057693981308E-1
 6.565432780050000E9     2.410487338907593E-2    5.678123699370410E-1    4.152039591602533E-2   -7.856269064528841E-3    4.079884533129167E-2   -8.394700156120255E-3    1.355481026827164E-1    5.094808942089725E-1
 6.565444426725000E9     2.507839552384718E-2    5.677119654240165E-1    4.174802646194398E-2   -8.173768636264607E-3    4.098531818396584E-2   -8.499346139096550E-3    1.366801435396313E-1    5.092542186479810E-1
 6.565456073400000E9     2.612511033783401E-2    5.677437251866393E-1    4.204231688916001E-2   -8.111446081683113E-3    4.128484613788933E-2   -8.618831622837917E-3    1.380379825170527E-1    5.089505303387779E-1
 6.565467720075000E9     2.710085539556966E-2    5.674934072055717E-1    4.227659522948027E-2   -8.374388421402304E-3    4.153284526492363E-2   -8.904383752295675E-3    1.393114636023114E-1    5.085742734623260E-1
 6.565479366750000E9     2.809154881995536E-2    5.675148611568260E-1    4.251146180866501E-2   -8.362296872653214E-3    4.174695208864504E-2   -8.942371503389319E-3    1.405023831979900E-1    5.081864876689814E-1
 6.565491013425000E9     2.918623198626525E-2    5.674584574412023E-1    4.271842027128620E-2   -8.611114204319915E-3    4.207244473154351E-2   -9.122161259532866E-3    1.418478072197692E-1    5.078795540334101E-1
 6.565502660100000E9     3.022107619160516E-2    5.673580763759891E-1    4.296387868138932E-2   -8.766734370129772E-3    4.227554650847623E-2   -9.350144371463975E-3    1.430933764471943E-1    5.074997391428743E-1
 6.565514306775000E9     3.113644544762459E-2    5.672657073427410E-1    4.327463392531273E-2   -8.907680337129017E-3    4.257913406642738E-2   -9.488162035672912E-3    1.444130342017523E-1    5.071485619076432E-1
 6.565525953450000E9     3.208450114245863E-2    5.672094743779139E-1    4.362544804394743E-2   -9.163301873397808E-3    4.296690525332943E-2   -9.569925196661562E-3    1.456617592313396E-1    5.068570243721517E-1
 6.565537600125000E9     3.309736711084096E-2    5.670748008507036E-1    4.383002202877408E-2   -9.289874327072302E-3    4.304589214471555E-2   -9.774040320748875E-3    1.469698113974743E-1    5.064399607827710E-1
 6.565549246800000E9     3.423648737199863E-2    5.669661340369344E-1    4.404570080732027E-2   -9.550255569034731E-3    4.345999722447926E-2   -1.001705938893091E-2    1.482019902383619E-1    5.060766512499887E-1
 6.565560893475000E9     3.524062746929189E-2    5.669670951306345E-1    4.430489471821882E-2   -9.658907807155927E-3    4.364597445402868E-2   -1.027541281259982E-2    1.494574018761423E-1    5.054857614146848E-1
 6.565572540150000E9     3.621944896590994E-2    5.667535004479037E-1    4.465931447549801E-2   -9.851631042682350E-3    4.394001317754032E-2   -1.033675829161450E-2    1.508375555389586E-1    5.052171261221512E-1
 6.565584186825000E9     3.727545200109020E-2    5.666261123496849E-1    4.508601351904112E-2   -1.009793103681302E-2    4.422905357734030E-2   -1.054279400871766E-2    1.521975507286784E-1    5.047115997503681E-1
 6.565595833500000E9     3.827953474801338E-2    5.666422687828587E-1    4.526701318031145E-2   -1.015838785191931E-2    4.451429857398607E-2   -1.075287469800430E-2    1.535515540736488E-1    5.043641321254393E-1
 6.565607480175000E9     3.928830840446029E-2    5.664234893288987E-1    4.555339075281209E-2   -1.050328075501786E-2    4.474652125431233E-2   -1.095996446232944E-2    1.547802073032719E-1    5.038759543787275E-1
 6.565619126850000E9     4.035892365106428E-2    5.663379924079782E-1    4.582891948847366E-2   -1.053626753173655E-2    4.510204160553224E-2   -1.120159133075869E-2    1.561169956815998E-1    5.032929648430369E-1
 6.565630773525000E9     4.142366797168183E-2    5.662822442469262E-1    4.615322954035830E-2   -1.084604959548807E-2    4.538611414891449E-2   -1.131303380910312E-2    1.575801181407885E-1    5.029041662007182E-1
 6.565642420200000E9     4.244519423255501E-2    5.661454156299838E-1    4.637632034118866E-2   -1.098254003065137E-2    4.562130647839539E-2   -1.150704956304163E-2    1.589034990548581E-1    5.025444595639921E-1
 6.565654066875000E9     4.344134570691986E-2    5.658702761762964E-1    4.681740953022225E-2   -1.120863250536295E-2    4.597567324174766E-2   -1.179215212800741E-2    1.602694155368093E-1    5.021007031798008E-1
 6.565665713550000E9     4.446574641400277E-2    5.659174367191471E-1    4.712176413433809E-2   -1.137716988463314E-2    4.634897491153105E-2   -1.190993677844826E-2    1.615938271300448E-1    5.016152734873395E-1
 6.565677360225000E9     4.545812267029563E-2    5.657603019147888E-1    4.739336156120980E-2   -1.158766446492324E-2    4.654862366378102E-2   -1.217729484785970E-2    1.629235938520529E-1    5.010489095650824E-1
 6.565689006900000E9     4.653495417073035E-2    5.656086603953664E-1    4.771592535983608E-2   -1.169566968648524E-2    4.688440647233350E-2   -1.233163820430275E-2    1.644043061735731E-1    5.007625883540108E-1
 6.565700653575000E9     4.756977439064151E-2    5.654346360405520E-1    4.810592244617312E-2   -1.197468613900319E-2    4.723714196174691E-2   -1.259150188267556E-2    1.657410459284066E-1    5.002294106250894E-1
 6.565712300250000E9     4.859270948395768E-2    5.653515411168589E-1    4.839129402944077E-2   -1.228467197680069E-2    4.762298558069523E-2   -1.273964176069082E-2    1.672417019114749E-1    4.996716280909659E-1
 6.565723946925000E9     4.962942080602083E-2    5.651734562699461E-1    4.864599544510718E-2   -1.254988407827894E-2    4.781396478059267E-2   -1.311450222016339E-2    1.685348415668183E-1    4.991980038505589E-1
 6.565735593600000E9     5.072194093987668E-2    5.649843471848714E-1    4.907185349029306E-2   -1.267314748559156E-2    4.823292570873858E-2   -1.326459691855330E-2    1.699500582066039E-1    4.988638618197989E-1
 6.565747240275000E9     5.177424651772059E-2    5.648416731614132E-1    4.938002321495979E-2   -1.293996781958478E-2    4.857511563697923E-2   -1.356826730914850E-2    1.712360972237945E-1    4.981114663665068E-1
 6.565758886950000E9     5.296456403622445E-2    5.648021893806003E-1    4.967539585750524E-2   -1.326284201042718E-2    4.892523874480655E-2   -1.375682740978326E-2    1.727789507120862E-1    4.975798508652934E-1
 6.565770533625000E9     5.388138382243244E-2    5.646088234139585E-1    5.007174932927383E-2   -1.339883045498729E-2    4.916800787213761E-2   -1.402294668279732E-2    1.742721755113335E-1    4.970800493848467E-1
 6.565782180300000E9     5.499309740031052E-2    5.644435698001928E-1    5.052039663842006E-2   -1.359991419686910E-2    4.953577737775795E-2   -1.423903182496240E-2    1.756338035774572E-1    4.965509019413746E-1
 6.565793826975000E9     5.603919068787738E-2    5.643041428381740E-1    5.069349456609221E-2   -1.398399868384401E-2    4.987430534548463E-2   -1.454296279796839E-2    1.769970791777225E-1    4.959411211010923E-1
 6.565805473650000E9     5.710258240042296E-2    5.640352997657425E-1    5.116532751494954E-2   -1.407665457611114E-2    5.035640652912684E-2   -1.480753953397170E-2    1.785453294011582E-1    4.954790376764465E-1
 6.565817120325000E9     5.814399934160856E-2    5.640336106034258E-1    5.157194469019769E-2   -1.429779417205019E-2    5.063918818505827E-2   -1.502796750352791E-2    1.799710199961927E-1    4.947284281021800E-1
 6.565828767000000E9     5.921201253078121E-2    5.637891761616947E-1    5.186250775396044E-2   -1.475228208038199E-2    5.101325060956956E-2   -1.531232940849744E-2    1.815697723715579E-1    4.942238605889967E-1
 6.565840413675000E9     6.030013544472214E-2    5.636587096439698E-1    5.233011163336069E-2   -1.494342721138838E-2    5.128762357836379E-2   -1.556902846829237E-2    1.830028872176032E-1    4.937977777367936E-1
 6.565852060350000E9     6.145260327593460E-2    5.634143695620395E-1    5.258106530938225E-2   -1.540991049609604E-2    5.187273089096604E-2   -1.588369500653933E-2    1.844507047433646E-1    4.929500224135584E-1
 6.565863707025000E9     6.247227121080804E-2    5.632952725605344E-1    5.296595395489264E-2   -1.556872423980534E-2    5.218270935459490E-2   -1.612477182799488E-2    1.859439827558935E-1    4.923624814671205E-1
 6.565875353700000E9     6.359847341157115E-2    5.630438474595307E-1    5.343914164555324E-2   -1.578636900152013E-2    5.257548167608159E-2   -1.648541545302338E-2    1.873326255163021E-1    4.916784319579399E-1
 6.565887000375000E9     6.462002546781137E-2    5.628572078879754E-1    5.387844366789613E-2   -1.608369052210622E-2    5.296764866844900E-2   -1.671776828412195E-2    1.890813443210834E-1    4.910960204236668E-1
 6.565898647050000E9     6.576492933983895E-2    5.626892250123051E-1    5.431006811427793E-2   -1.646417474587812E-2    5.337078571247211E-2   -1.704397556325756E-2    1.905701833469705E-1    4.904947561044357E-1
 6.565910293725000E9     6.680118459578480E-2    5.624266556643237E-1    5.454170928505465E-2   -1.680651117793379E-2    5.373315510666019E-2   -1.733687328961253E-2    1.921307750772027E-1    4.895317445811599E-1
 6.565921940400000E9     6.793424999742041E-2    5.622041271075673E-1    5.516826350630264E-2   -1.700408955450428E-2    5.416439004269071E-2   -1.766748372827930E-2    1.935677598984580E-1    4.891030930594963E-1
 6.565933587075000E9     6.906345792029184E-2    5.620702092721692E-1    5.555574564183825E-2   -1.734052062010683E-2    5.454061005811224E-2   -1.792505725344256E-2    1.951967652999871E-1    4.882801598600799E-1
 6.565945233750000E9     7.010126933685586E-2    5.618113409843931E-1    5.589294097620510E-2   -1.766443395697978E-2    5.502131373582377E-2   -1.827976582077194E-2    1.967721187487963E-1    4.876212738442146E-1
