#  HZ   S   RI   R     50.00 
! Rohde & Schwarz Vector Network Analyzer 
! Rohde-Schwarz,ZNB20-2Port,1311601062101988,3.16
! Created: UTC 3/20/2024, 5:14:20 PM
! freq[Hz]                re:S11                  im:S11                  re:S21                  im:S21                  re:S12                  im:S12                  re:S22                  im:S22
 6.564903915000000E9    -2.009084802753891E-2    5.687600250634107E-1    3.258624396381449E-2   -2.850018384787222E-3    3.198066622111058E-2   -3.326814922835518E-3    8.309141855263735E-2    5.202356647508262E-1
 6.564915541575000E9    -1.921928789547523E-2    5.687829939430162E-1    3.272958860225730E-2   -2.872909813689248E-3    3.224502801204406E-2   -3.397260482010905E-3    8.419578843140378E-2    5.203056225610425E-1
 6.564927168150000E9    -1.821428517061829E-2    5.687621843438571E-1    3.294141132223387E-2   -3.068222352458363E-3    3.231688304280537E-2   -3.455242811451834E-3    8.513920469596972E-2    5.202041174074896E-1
 6.564938794725000E9    -1.728890214961844E-2    5.688302761755248E-1    3.296645224754559E-2   -3.096737157417154E-3    3.251419193804789E-2   -3.595769670979303E-3    8.626399269885898E-2    5.199525579722827E-1
 6.564950421300000E9    -1.634675935976216E-2    5.688184162301222E-1    3.322624930990363E-2   -3.150660314769408E-3    3.257261370923253E-2   -3.611352425894566E-3    8.739780622212900E-2    5.197949298267158E-1
 6.564962047875000E9    -1.538527914053195E-2    5.687781025871901E-1    3.339244858270088E-2   -3.117005111738731E-3    3.276971109444166E-2   -3.839985558825675E-3    8.845435624821420E-2    5.196925989440955E-1
 6.564973674450000E9    -1.459589077124959E-2    5.688492492432088E-1    3.351941973606064E-2   -3.307460223990787E-3    3.299270132259596E-2   -3.785590880099187E-3    8.966781123161531E-2    5.195149713181536E-1
 6.564985301025000E9    -1.340318384426929E-2    5.689049364996496E-1    3.377902957947698E-2   -3.390035723555029E-3    3.317222966053174E-2   -3.889384004190310E-3    9.079518326853092E-2    5.192660337780458E-1
 6.564996927600000E9    -1.258725361616866E-2    5.689832606430004E-1    3.376224866420195E-2   -3.485462309577666E-3    3.322824344757397E-2   -4.054849999254280E-3    9.174691225685368E-2    5.191621591345096E-1
 6.565008554175000E9    -1.142383868036931E-2    5.688860229909917E-1    3.401535101036644E-2   -3.677218870324642E-3    3.348741347269398E-2   -4.117580507875248E-3    9.281875997555472E-2    5.189467392495930E-1
 6.565020180750000E9    -1.069830663715741E-2    5.689018174531951E-1    3.419334132059032E-2   -3.747420555713464E-3    3.355286186189631E-2   -4.167906314245685E-3    9.390705046766477E-2    5.187847104207006E-1
 6.565031807325000E9    -9.694893802666801E-3    5.688483233908468E-1    3.442974483555412E-2   -3.822750767676868E-3    3.379094326038685E-2   -4.295866803643283E-3    9.509033011021294E-2    5.186246442642390E-1
 6.565043433900000E9    -8.684730162400392E-3    5.688642097859382E-1    3.456112612832637E-2   -3.886706664186062E-3    3.404610389991006E-2   -4.294492062663600E-3    9.609735338174237E-2    5.183444322387634E-1
 6.565055060475000E9    -7.687040361605430E-3    5.687865274943297E-1    3.476057326745121E-2   -3.929362841075223E-3    3.412327384450254E-2   -4.466812956233662E-3    9.741338344292870E-2    5.181908146897987E-1
 6.565066687050000E9    -6.765057146120109E-3    5.688796132025956E-1    3.482090002776601E-2   -4.152305028249638E-3    3.428125363828935E-2   -4.585330360010285E-3    9.845875702337040E-2    5.179843535495571E-1
 6.565078313625000E9    -5.707130296957521E-3    5.689174697029022E-1    3.487248710299590E-2   -4.105694231770372E-3    3.453111867978746E-2   -4.643915811994734E-3    9.950250321826649E-2    5.177452428447316E-1
 6.565089940200000E9    -4.787744154071602E-3    5.689053358099779E-1    3.517656426425225E-2   -4.274259982732195E-3    3.469523853478809E-2   -4.749819216863104E-3    1.005773052459173E-1    5.175262105689372E-1
 6.565101566775000E9    -3.976601345638779E-3    5.689173450725903E-1    3.538539362258245E-2   -4.345171826038600E-3    3.482227535457238E-2   -4.794508368557313E-3    1.016987383398988E-1    5.172489961112962E-1
 6.565113193350000E9    -2.878668616039248E-3    5.689420532167964E-1    3.569123945419739E-2   -4.455128186998226E-3    3.510356944681062E-2   -4.907538569566243E-3    1.027466067546099E-1    5.171047570125477E-1
 6.565124819925000E9    -2.034573201332769E-3    5.688131539971049E-1    3.580278600225505E-2   -4.533025173876253E-3    3.511560745481215E-2   -4.976621584411617E-3    1.040459214705896E-1    5.169996217448404E-1
 6.565136446500000E9    -1.061750465769588E-3    5.689321983623405E-1    3.611109801886812E-2   -4.675943629711151E-3    3.549352917513190E-2   -5.063163743481961E-3    1.051286372390417E-1    5.166586309505720E-1
 6.565148073075000E9    -3.108128357766968E-5    5.687566747221861E-1    3.607554168670739E-2   -4.718307150539593E-3    3.561626529104696E-2   -5.239514053060141E-3    1.063347728404110E-1    5.165347421397294E-1
 6.565159699650000E9     9.658698348826395E-4    5.688134876082506E-1    3.642224733556042E-2   -4.819377361552442E-3    3.576193883326310E-2   -5.473627347953596E-3    1.074284993355456E-1    5.161084885691568E-1
 6.565171326225000E9     1.959557067457691E-3    5.688516779348988E-1    3.667519972272809E-2   -5.012389476892898E-3    3.595086941162446E-2   -5.435959269674500E-3    1.087538056152875E-1    5.160164444859905E-1
 6.565182952800000E9     2.920246322756755E-3    5.686781784458484E-1    3.675496259089454E-2   -5.064702796030544E-3    3.615774488897117E-2   -5.539904534264731E-3    1.098173257572880E-1    5.156675326109862E-1
 6.565194579375000E9     3.925957795779009E-3    5.687058138465272E-1    3.684045786777013E-2   -5.284860334585373E-3    3.640380989268466E-2   -5.664997687030442E-3    1.108671961115930E-1    5.156652323014602E-1
 6.565206205950000E9     4.806732095077940E-3    5.686487752900709E-1    3.719913799502145E-2   -5.442369109736920E-3    3.660842527806643E-2   -5.879625666736687E-3    1.120466543678926E-1    5.152266100952168E-1
 6.565217832525000E9     5.792083543830882E-3    5.687008988646366E-1    3.738019853998826E-2   -5.358048082475227E-3    3.673229183889746E-2   -5.957510623631172E-3    1.132969269822768E-1    5.149515522446730E-1
 6.565229459100000E9     6.807373912338661E-3    5.687214154443054E-1    3.743079498825094E-2   -5.469830943689795E-3    3.689761408259581E-2   -6.009777147320329E-3    1.143636080743378E-1    5.146893748061515E-1
 6.565241085675000E9     7.642977749803288E-3    5.686431828004027E-1    3.772558268509368E-2   -5.647177559601173E-3    3.724578411636685E-2   -6.132481205436445E-3    1.155721083106721E-1    5.144352489227436E-1
 6.565252712250000E9     8.721478940041511E-3    5.686414726951007E-1    3.815761910311520E-2   -5.858682779917864E-3    3.718888685415126E-2   -6.307268882858051E-3    1.167351844009281E-1    5.142650187453504E-1
 6.565264338825000E9     9.806721270179532E-3    5.685413262031179E-1    3.820288493573235E-2   -5.958124216014129E-3    3.754070981745854E-2   -6.317918645128487E-3    1.179764542870848E-1    5.139717607853317E-1
 6.565275965400000E9     1.069726981381354E-2    5.685084796543678E-1    3.842507507678584E-2   -5.931973452596141E-3    3.776448471455812E-2   -6.493352500234775E-3    1.190897265236890E-1    5.137490021314350E-1
 6.565287591975000E9     1.169369187422587E-2    5.684198635502609E-1    3.862190769217418E-2   -6.130041363585352E-3    3.799995207275026E-2   -6.681342263789509E-3    1.203264004981612E-1    5.134859481697611E-1
 6.565299218550000E9     1.269058565127054E-2    5.684648495795251E-1    3.896397472380290E-2   -6.276108569874360E-3    3.815906249826692E-2   -6.760474548239219E-3    1.213029585276543E-1    5.132694375237721E-1
 6.565310845125000E9     1.364332870941817E-2    5.683880084572216E-1    3.908569623432086E-2   -6.423023363401200E-3    3.831854568944904E-2   -6.921994311128956E-3    1.226203111695435E-1    5.130117544586664E-1
 6.565322471700000E9     1.457838801777895E-2    5.684175658072611E-1    3.918334272731977E-2   -6.573020531757100E-3    3.866424396138891E-2   -7.010825025122325E-3    1.237432201384002E-1    5.126146786601141E-1
 6.565334098275000E9     1.559692468924734E-2    5.683205843347618E-1    3.949552770954936E-2   -6.647343511368264E-3    3.878891911140320E-2   -7.050868571696664E-3    1.251478442179224E-1    5.122051827886687E-1
 6.565345724850000E9     1.663744465219690E-2    5.682632607977974E-1    3.980386957373005E-2   -6.585425481459816E-3    3.902940455685320E-2   -7.269745482584022E-3    1.261871735467989E-1    5.120423385462232E-1
 6.565357351425000E9     1.767621321595215E-2    5.682739223568724E-1    3.992258432304999E-2   -6.863891304474618E-3    3.931890244767425E-2   -7.454445668995731E-3    1.273732696654352E-1    5.117321688275416E-1
 6.565368978000000E9     1.851070493396944E-2    5.681959260976037E-1    4.035560237176129E-2   -7.098018443375008E-3    3.944491477237624E-2   -7.597619157659074E-3    1.286567972304408E-1    5.112945970593051E-1
 6.565380604575000E9     1.953832283137549E-2    5.679860733340901E-1    4.026130391224507E-2   -7.305195295635660E-3    3.958994923850959E-2   -7.766861140917105E-3    1.299234106656660E-1    5.109268225854980E-1
 6.565392231150000E9     2.061141288151430E-2    5.681495849519564E-1    4.057637820733088E-2   -7.295280820663629E-3    3.990448690056272E-2   -7.846027448218915E-3    1.310764179316343E-1    5.107379140170893E-1
 6.565403857725000E9     2.152886620737380E-2    5.680125788944251E-1    4.083649601468439E-2   -7.402235976449816E-3    4.010473934464800E-2   -8.032933954788405E-3    1.322991961160390E-1    5.104381357076160E-1
 6.565415484300000E9     2.260578214639423E-2    5.679186365314391E-1    4.111415046192235E-2   -7.738651234924317E-3    4.051233299643996E-2   -8.105566174854403E-3    1.334430664793309E-1    5.100522370236684E-1
 6.565427110875000E9     2.352720526812003E-2    5.678939372157153E-1    4.129242507488357E-2   -7.795036841726337E-3    4.066673129043149E-2   -8.274601358517854E-3    1.348148725510529E-1    5.098173929298025E-1
 6.565438737450000E9     2.453998635371722E-2    5.678687691075306E-1    4.151149588822081E-2   -7.718297275230004E-3    4.080846926118183E-2   -8.478598857207999E-3    1.361186350805347E-1    5.094412072533467E-1
 6.565450364025000E9     2.553537046294859E-2    5.677528005215159E-1    4.192270403498499E-2   -7.895269685106758E-3    4.111994640185331E-2   -8.474382836729783E-3    1.374011023633384E-1    5.089491983126517E-1
 6.565461990600000E9     2.650141061737845E-2    5.676021324205082E-1    4.211662461783327E-2   -8.421664430104232E-3    4.137752349082706E-2   -8.812785145349899E-3    1.384557901045762E-1    5.088754397938450E-1
 6.565473617175000E9     2.759806381130749E-2    5.675879646820257E-1    4.230808876070830E-2   -8.330395616967976E-3    4.156034983056044E-2   -8.958730035319077E-3    1.398354759154701E-1    5.084119030370953E-1
 6.565485243750000E9     2.859184780236888E-2    5.674494433838898E-1    4.270594213345928E-2   -8.426825652421538E-3    4.187581589605554E-2   -8.985892658534602E-3    1.409036034183018E-1    5.079804540664083E-1
 6.565496870325000E9     2.964590043701367E-2    5.673772770009290E-1    4.286178584186282E-2   -8.722939611487715E-3    4.213363619790415E-2   -9.217874114390250E-3    1.423537024782156E-1    5.076719334876937E-1
 6.565508496900000E9     3.063420451008638E-2    5.674522466256036E-1    4.302474827770673E-2   -8.904656546622742E-3    4.235366537474090E-2   -9.447058515042243E-3    1.435675136298764E-1    5.074724947250735E-1
 6.565520123475000E9     3.160580462139678E-2    5.672209684680067E-1    4.336000177480376E-2   -9.019647012700060E-3    4.256061373329008E-2   -9.565484809166152E-3    1.448658536161871E-1    5.069672532423196E-1
 6.565531750050000E9     3.262726836734665E-2    5.672312776957881E-1    4.371638093014707E-2   -9.159262315280360E-3    4.293916642530262E-2   -9.706296144224800E-3    1.460803123691461E-1    5.066576141797166E-1
 6.565543376625000E9     3.364866418822708E-2    5.670260823087061E-1    4.399809032578915E-2   -9.246997988722196E-3    4.308261623084849E-2   -9.895326173383437E-3    1.474833516039555E-1    5.062478241912226E-1
 6.565555003200000E9     3.468626991893390E-2    5.669155257477292E-1    4.422317366679387E-2   -9.625678628312368E-3    4.351453273487677E-2   -1.003277817026680E-2    1.486943797746975E-1    5.058175234758538E-1
 6.565566629775000E9     3.571370621198908E-2    5.668735765247248E-1    4.444470995944776E-2   -9.580706319938860E-3    4.374777880742908E-2   -1.027326854372481E-2    1.500318923632251E-1    5.053994123144544E-1
 6.565578256350000E9     3.669743125846198E-2    5.667310011277316E-1    4.472002997220235E-2   -9.837776712703071E-3    4.402412316122935E-2   -1.047816295368372E-2    1.512946968894981E-1    5.051723371308559E-1
 6.565589882925000E9     3.768360136775631E-2    5.667386998650571E-1    4.501913919923066E-2   -9.988619519155735E-3    4.429358652076669E-2   -1.056872087026059E-2    1.527630073256326E-1    5.045400113693544E-1
 6.565601509500000E9     3.881099372996914E-2    5.665582918017084E-1    4.514166922347049E-2   -1.020754130123533E-2    4.446504095910792E-2   -1.080723662956822E-2    1.540418460011709E-1    5.041771198584457E-1
 6.565613136075000E9     3.978170633976544E-2    5.665416894584042E-1    4.561658769130565E-2   -1.030337351411351E-2    4.486440658906875E-2   -1.099592104807817E-2    1.553468427315331E-1    5.038568764145435E-1
 6.565624762650000E9     4.065962572844602E-2    5.663373877717562E-1    4.586278263847009E-2   -1.063520325857723E-2    4.523076837639269E-2   -1.122206394730917E-2    1.567702223980639E-1    5.034189013879848E-1
 6.565636389225000E9     4.184957173061142E-2    5.661341580205291E-1    4.611137558301025E-2   -1.083287224935187E-2    4.545726849344340E-2   -1.138025803260463E-2    1.581574616430027E-1    5.028753869504313E-1
 6.565648015800000E9     4.280597655683330E-2    5.661425964623532E-1    4.647264628009175E-2   -1.098429024066341E-2    4.569123410670251E-2   -1.164418083819224E-2    1.593919238853089E-1    5.024790652960038E-1
 6.565659642375000E9     4.378118134955723E-2    5.659257319662208E-1    4.683509982916614E-2   -1.129727267665703E-2    4.598946451713648E-2   -1.180142249245489E-2    1.607456779496338E-1    5.018260333965566E-1
 6.565671268950000E9     4.491659622506334E-2    5.658814433275063E-1    4.722439745191390E-2   -1.158389424174564E-2    4.637577869473664E-2   -1.214038329004326E-2    1.620710484800544E-1    5.014538787072608E-1
 6.565682895525000E9     4.596270370270421E-2    5.657618969809250E-1    4.749329963926096E-2   -1.160415383209020E-2    4.656404931110845E-2   -1.220709391269486E-2    1.634456640204029E-1    5.009272897092810E-1
 6.565694522100000E9     4.701509538673176E-2    5.655863197692335E-1    4.772919654241319E-2   -1.188819711895559E-2    4.697626904783697E-2   -1.243500489931781E-2    1.647456526697641E-1    5.004985295672141E-1
 6.565706148675000E9     4.790922837661477E-2    5.654663722485916E-1    4.813083101527055E-2   -1.201084009331983E-2    4.726330591878111E-2   -1.267396651793565E-2    1.664645600704018E-1    5.000176090071423E-1
 6.565717775250000E9     4.914932192484243E-2    5.652548114574450E-1    4.848071380235593E-2   -1.234907998718453E-2    4.768420792895741E-2   -1.281174120901470E-2    1.676869091534738E-1    4.995472378953733E-1
 6.565729401825000E9     5.011209479586846E-2    5.652430061035814E-1    4.875731165278423E-2   -1.256409763709490E-2    4.803173700750502E-2   -1.308564180095031E-2    1.691204036532352E-1    4.989257196758143E-1
 6.565741028400000E9     5.116902988228568E-2    5.649969029120345E-1    4.905488671651954E-2   -1.278582052984824E-2    4.829950148359175E-2   -1.331027524029876E-2    1.705123379674276E-1    4.984109689755410E-1
 6.565752654975000E9     5.216996690306738E-2    5.648959368624168E-1    4.936917380167785E-2   -1.299200933061090E-2    4.853763207374219E-2   -1.370566085219092E-2    1.718961482280737E-1    4.980111087674289E-1
 6.565764281550000E9     5.324352472408472E-2    5.647239417140236E-1    4.967293366736958E-2   -1.321947211001588E-2    4.894363743685563E-2   -1.381260634449333E-2    1.730759729777266E-1    4.973212811899660E-1
 6.565775908125000E9     5.436563346294877E-2    5.646020649904184E-1    5.005764313050523E-2   -1.333869038739643E-2    4.933612827935795E-2   -1.410731467795321E-2    1.747035775963255E-1    4.968217407916695E-1
 6.565787534700000E9     5.539625612961274E-2    5.643858266233350E-1    5.058532022105282E-2   -1.370490636181696E-2    4.963215687210940E-2   -1.433671427914393E-2    1.761521059795334E-1    4.962503384882939E-1
 6.565799161275000E9     5.643742874718530E-2    5.642392869417606E-1    5.070453317974674E-2   -1.389049179974542E-2    5.003997521015102E-2   -1.458213693583329E-2    1.775415494108865E-1    4.957053432370782E-1
 6.565810787850000E9     5.752728996858550E-2    5.641055682126718E-1    5.109354549559703E-2   -1.430262461391464E-2    5.031525087247520E-2   -1.480279680890820E-2    1.790102314299727E-1    4.953259610031222E-1
 6.565822414425000E9     5.858379042376838E-2    5.638380994012118E-1    5.152218851267946E-2   -1.461668231538132E-2    5.077714140100010E-2   -1.507986403359655E-2    1.804241948290295E-1    4.946371728874878E-1
 6.565834041000000E9     5.967075250778676E-2    5.637464534611043E-1    5.186550684320335E-2   -1.471693617412562E-2    5.109502964095244E-2   -1.539221243146622E-2    1.820263778306220E-1    4.940094617897585E-1
 6.565845667575000E9     6.080301785695898E-2    5.634434270340386E-1    5.233221583920466E-2   -1.503148901965541E-2    5.144581387214712E-2   -1.562764455337259E-2    1.836187393859183E-1    4.933710165045776E-1
 6.565857294150000E9     6.186688659899168E-2    5.632997274058975E-1    5.268614609884228E-2   -1.538870278237663E-2    5.189421310597525E-2   -1.592057947795579E-2    1.850059756475710E-1    4.927612839421507E-1
 6.565868920725000E9     6.292243383624235E-2    5.632301194327759E-1    5.308024587190443E-2   -1.564806244328978E-2    5.227096867742144E-2   -1.617668911663544E-2    1.865579591373236E-1    4.920014591580304E-1
 6.565880547300000E9     6.405196064086846E-2    5.630897915074659E-1    5.352792334353675E-2   -1.582053674788557E-2    5.275994599939444E-2   -1.649428349135657E-2    1.879773494849349E-1    4.913434044247311E-1
 6.565892173875000E9     6.511616817565825E-2    5.628263105397981E-1    5.393672614096093E-2   -1.613701331223494E-2    5.307813670486299E-2   -1.694158370735503E-2    1.895379382908937E-1    4.909730802941286E-1
 6.565903800450000E9     6.617477652723798E-2    5.626689534449388E-1    5.428987537222156E-2   -1.647381209255087E-2    5.339603439251912E-2   -1.709171311939072E-2    1.909626828065900E-1    4.900696485150682E-1
 6.565915427025000E9     6.720517716509877E-2    5.623824867693409E-1    5.476707427197736E-2   -1.668343245073800E-2    5.391437546999556E-2   -1.746736278987994E-2    1.925828232385744E-1    4.894104866278023E-1
 6.565927053600000E9     6.835666793284417E-2    5.622501499654194E-1    5.507611539194894E-2   -1.699422076044249E-2    5.436165135283980E-2   -1.766683536482546E-2    1.942088169461886E-1    4.888515459412114E-1
 6.565938680175000E9     6.951574238208498E-2    5.620871788639223E-1    5.565186316829886E-2   -1.734770654343359E-2    5.464398955067071E-2   -1.803334232788036E-2    1.956863885987006E-1    4.881290086400007E-1
 6.565950306750000E9     7.058103772204061E-2    5.616907023804760E-1    5.602836420942974E-2   -1.761705436843448E-2    5.510336856837801E-2   -1.845025175792209E-2    1.972781993710877E-1    4.873895019190445E-1
