#  HZ   S   RI   R     50.00 
! Rohde & Schwarz Vector Network Analyzer 
! Rohde-Schwarz,ZNB20-2Port,1311601062101988,3.16
! Created: UTC 3/20/2024, 5:14:33 PM
! freq[Hz]                re:S11                  im:S11                  re:S21                  im:S21                  re:S12                  im:S12                  re:S22                  im:S22
 6.564912240000000E9    -1.936505109900349E-2    5.687241710060590E-1    3.252421237554494E-2   -2.922712309617459E-3    3.215101708818761E-2   -3.367144975701121E-3    8.378639678259256E-2    5.204256402243409E-1
 6.564923845175000E9    -1.835841209489621E-2    5.687837517635873E-1    3.271931144957737E-2   -2.915425525465610E-3    3.218246919831064E-2   -3.453438097741797E-3    8.484294454713191E-2    5.203366800764324E-1
 6.564935450350000E9    -1.748825101262153E-2    5.687770185405912E-1    3.289341343800849E-2   -2.882608002683250E-3    3.241441693526194E-2   -3.456466458362513E-3    8.595014950577458E-2    5.201335312612089E-1
 6.564947055525000E9    -1.654866766707993E-2    5.687325541090895E-1    3.313813173039303E-2   -3.026314927994143E-3    3.247638274236812E-2   -3.566349604391076E-3    8.699611021889379E-2    5.199990983512878E-1
 6.564958660700000E9    -1.560195347848005E-2    5.688498853714634E-1    3.330820248939471E-2   -3.170953466741028E-3    3.271157659710362E-2   -3.666898015399731E-3    8.815255798831080E-2    5.197635031786910E-1
 6.564970265875000E9    -1.457092195741810E-2    5.688920524433578E-1    3.347946666652569E-2   -3.295270647706961E-3    3.277360990848031E-2   -3.733574103409765E-3    8.928871660703523E-2    5.196410786515319E-1
 6.564981871050000E9    -1.365612665917823E-2    5.688128298152508E-1    3.361985593332773E-2   -3.363343911120448E-3    3.294347264753107E-2   -3.884037020963996E-3    9.027979496046062E-2    5.193941184903008E-1
 6.564993476225000E9    -1.272911672744990E-2    5.688728951236532E-1    3.370547684466973E-2   -3.502190641740132E-3    3.314728217364680E-2   -3.904680028398106E-3    9.135480436778941E-2    5.192277402138994E-1
 6.565005081400000E9    -1.177481338005662E-2    5.688547691400616E-1    3.387124003439204E-2   -3.566574951561884E-3    3.335044997043318E-2   -3.992819427530243E-3    9.249411347355928E-2    5.190945944454406E-1
 6.565016686575000E9    -1.088417350395204E-2    5.688902285228103E-1    3.409969666220941E-2   -3.626041293253206E-3    3.340877750491929E-2   -4.062621939186445E-3    9.352624691997183E-2    5.189355295666126E-1
 6.565028291750000E9    -9.966090684720470E-3    5.687213762801766E-1    3.426411649705857E-2   -3.740096795775050E-3    3.352059721696912E-2   -4.144005214198746E-3    9.452242827569171E-2    5.187281280983114E-1
 6.565039896925000E9    -9.025624401893213E-3    5.688702941822932E-1    3.429158644522308E-2   -3.748529103585334E-3    3.387989064991229E-2   -4.310483863186569E-3    9.560838300286893E-2    5.184333558014109E-1
 6.565051502100000E9    -7.974766466679498E-3    5.689332795305270E-1    3.446083927474514E-2   -3.826642959662643E-3    3.401085722078869E-2   -4.374319245190494E-3    9.676962124783302E-2    5.183564458000816E-1
 6.565063107275000E9    -7.039970026645032E-3    5.689379517542517E-1    3.470228943566485E-2   -4.069230276514547E-3    3.413635365128228E-2   -4.518027507782805E-3    9.792981822452547E-2    5.180452662142268E-1
 6.565074712450000E9    -6.123069637101321E-3    5.689495388546454E-1    3.489484025766112E-2   -4.044735707670291E-3    3.441748085343664E-2   -4.608064810789692E-3    9.903442817570188E-2    5.179426597570548E-1
 6.565086317625000E9    -5.168713775129231E-3    5.689081654260658E-1    3.521070128600261E-2   -4.113565871521068E-3    3.451886962277550E-2   -4.606322970363660E-3    1.001406514277084E-1    5.176693336097179E-1
 6.565097922800000E9    -4.198196370278031E-3    5.688122119204478E-1    3.528349945052978E-2   -4.138243449255856E-3    3.466580393509043E-2   -4.744604205110559E-3    1.012081652392047E-1    5.174665387348607E-1
 6.565109527975000E9    -3.190023218265746E-3    5.688220474509899E-1    3.538797254998906E-2   -4.340453189259004E-3    3.485524984680645E-2   -4.845267622952005E-3    1.023121242975935E-1    5.173263365530867E-1
 6.565121133150000E9    -2.200621398953943E-3    5.687898840587003E-1    3.558628941134934E-2   -4.439464310018895E-3    3.500693167628099E-2   -5.023908296436536E-3    1.035289887928888E-1    5.171088699795874E-1
 6.565132738325000E9    -1.239295595424591E-3    5.687534776439304E-1    3.583836702366741E-2   -4.561513883222297E-3    3.524124620377417E-2   -4.995310877398291E-3    1.046178670804252E-1    5.168866089078158E-1
 6.565144343500000E9    -3.812461123476756E-4    5.688511312933445E-1    3.612275372510347E-2   -4.698106680246186E-3    3.534343960539684E-2   -5.196590695237244E-3    1.058252562511621E-1    5.165995436283483E-1
 6.565155948675000E9     6.824056182932859E-4    5.688166999332470E-1    3.619973347753919E-2   -4.745390492944413E-3    3.558709150163510E-2   -5.279334255379534E-3    1.069742083163944E-1    5.164435153158723E-1
 6.565167553850000E9     1.625530381327785E-3    5.687616044009930E-1    3.644460543115329E-2   -4.887389123634281E-3    3.574366241953565E-2   -5.347970358985133E-3    1.080764544760182E-1    5.160274318377073E-1
 6.565179159025000E9     2.551193439313672E-3    5.687259507756295E-1    3.660608967936759E-2   -5.050553540993263E-3    3.595144250032033E-2   -5.492377589389584E-3    1.092852978912703E-1    5.160291189914961E-1
 6.565190764200000E9     3.558227845184174E-3    5.687499861447948E-1    3.684531157883954E-2   -5.099580249353060E-3    3.612388664144581E-2   -5.632076411440852E-3    1.103319577768905E-1    5.156959393664295E-1
 6.565202369375000E9     4.546078462134901E-3    5.687200624941270E-1    3.705722489116255E-2   -5.281488619652637E-3    3.635785743231013E-2   -5.691298005940182E-3    1.115968155150181E-1    5.154573794032660E-1
 6.565213974550000E9     5.567973039769222E-3    5.688728702722478E-1    3.726261666943920E-2   -5.264132108841303E-3    3.653488252243995E-2   -5.793679171807358E-3    1.126724086312021E-1    5.152381171525404E-1
 6.565225579725000E9     6.420824630807530E-3    5.686614274184162E-1    3.732690244625912E-2   -5.340726081180891E-3    3.677839375974431E-2   -5.921922196148898E-3    1.137991757263679E-1    5.148929568284971E-1
 6.565237184900000E9     7.371154035004795E-3    5.686836997996322E-1    3.757287455509085E-2   -5.537923766403243E-3    3.698710279593013E-2   -6.060149340693538E-3    1.149346583294068E-1    5.147336023608652E-1
 6.565248790075000E9     8.544692124822423E-3    5.686518957075140E-1    3.787954107294393E-2   -5.605768529633783E-3    3.710233641512641E-2   -6.234762554245504E-3    1.162117031586649E-1    5.144288473821460E-1
 6.565260395250000E9     9.350082071388578E-3    5.685386007482903E-1    3.801972374769259E-2   -5.735231841953279E-3    3.730055144324967E-2   -6.298478064261852E-3    1.173607408017325E-1    5.141778774800426E-1
 6.565272000425000E9     1.026026233011105E-2    5.686452979917856E-1    3.812949635395448E-2   -5.900119199180121E-3    3.758173882718251E-2   -6.442850601005988E-3    1.184806961228981E-1    5.139920978969437E-1
 6.565283605600000E9     1.134279942339103E-2    5.684670534315484E-1    3.845227522138746E-2   -6.170546033557125E-3    3.775280631184694E-2   -6.585261345662294E-3    1.196251214236717E-1    5.136668747176413E-1
 6.565295210775000E9     1.239742564399590E-2    5.684865061862371E-1    3.856821668828344E-2   -6.258937671666373E-3    3.791985047038574E-2   -6.719883812307494E-3    1.208513799250189E-1    5.134867830678569E-1
 6.565306815950000E9     1.329995961270134E-2    5.683152377579780E-1    3.871448195440264E-2   -6.325791343992106E-3    3.817245353777005E-2   -6.869939677878694E-3    1.219639486909529E-1    5.131753638070390E-1
 6.565318421125000E9     1.417440043398619E-2    5.683158075957697E-1    3.898896871880210E-2   -6.338617238095154E-3    3.839502367882443E-2   -7.014082403158263E-3    1.232517695972289E-1    5.126983947653826E-1
 6.565330026300000E9     1.524036614637604E-2    5.683956368987612E-1    3.910910451493162E-2   -6.357486320299649E-3    3.865299091558679E-2   -7.027887150554020E-3    1.242917202767565E-1    5.126402438794035E-1
 6.565341631475000E9     1.624360646620783E-2    5.683324292120439E-1    3.947125198417575E-2   -6.734236666311865E-3    3.887727337786303E-2   -7.187516154485734E-3    1.255852921527239E-1    5.122509584670122E-1
 6.565353236650000E9     1.717494071659696E-2    5.683325621577925E-1    3.979774097459143E-2   -6.820253620829959E-3    3.897147052154124E-2   -7.331247543930758E-3    1.267891426023204E-1    5.119644900149859E-1
 6.565364841825000E9     1.820557979464376E-2    5.682047572063048E-1    3.984412399048891E-2   -6.991255735853059E-3    3.937452129856267E-2   -7.516650450482951E-3    1.279898869951232E-1    5.117370285024537E-1
 6.565376447000000E9     1.916967474961263E-2    5.680876555706477E-1    4.016839167780248E-2   -6.984038131126501E-3    3.949473490009520E-2   -7.493082416285011E-3    1.292762818880122E-1    5.113382791103619E-1
 6.565388052175000E9     2.016835438038781E-2    5.680994594170299E-1    4.033741563406541E-2   -7.162004549945740E-3    3.967019456091948E-2   -7.783137791167062E-3    1.304534827819875E-1    5.111793774271605E-1
 6.565399657350000E9     2.122592183301468E-2    5.679967654588044E-1    4.066363107713265E-2   -7.290982793365261E-3    3.990490370100804E-2   -7.941567131968155E-3    1.315558998966997E-1    5.108081269592957E-1
 6.565411262525000E9     2.217080182660756E-2    5.679235362437006E-1    4.095615309923904E-2   -7.567548600590368E-3    4.015220812736610E-2   -8.058948546832109E-3    1.329404808192962E-1    5.104809452697181E-1
 6.565422867700000E9     2.309513790522141E-2    5.677630319334960E-1    4.106864257355250E-2   -7.699072439511040E-3    4.043381917319916E-2   -8.175796575496667E-3    1.342387627312617E-1    5.101153010074906E-1
 6.565434472875000E9     2.418226610159841E-2    5.678131550782717E-1    4.146262902556448E-2   -7.761340968012435E-3    4.069119752617556E-2   -8.312095440282517E-3    1.353720530481928E-1    5.097939703094722E-1
 6.565446078050000E9     2.516263319885011E-2    5.676929236797058E-1    4.166469107342111E-2   -7.934163252262325E-3    4.090646108799986E-2   -8.452215285863382E-3    1.365855682945219E-1    5.094324130374587E-1
 6.565457683225000E9     2.611959830007175E-2    5.676927758832941E-1    4.174661867076431E-2   -8.058740341891293E-3    4.115643685200649E-2   -8.518029906266961E-3    1.378884956368595E-1    5.091506604437174E-1
 6.565469288400000E9     2.717060334050534E-2    5.675787042647368E-1    4.194732465316956E-2   -8.164656734670176E-3    4.150284971844839E-2   -8.791920037956874E-3    1.390616538100020E-1    5.087527811743233E-1
 6.565480893575000E9     2.820089463950557E-2    5.675166340396224E-1    4.230413239067316E-2   -8.259043965599759E-3    4.158279580727944E-2   -8.847878725548946E-3    1.402798263014837E-1    5.085277559564479E-1
 6.565492498750000E9     2.910594001295643E-2    5.674870840048616E-1    4.258382522790261E-2   -8.566785398533200E-3    4.188430059953933E-2   -9.106963220397144E-3    1.416205566900787E-1    5.081585170436619E-1
 6.565504103925000E9     3.008784954867247E-2    5.674305393194519E-1    4.281479964100347E-2   -8.714226228610981E-3    4.217060396299220E-2   -9.190010359183574E-3    1.429868507719899E-1    5.077149974811328E-1
 6.565515709100000E9     3.127177544532102E-2    5.672486308094599E-1    4.308700438177143E-2   -8.842631263682062E-3    4.237670754057592E-2   -9.407791344315195E-3    1.441834520550982E-1    5.071871980590024E-1
 6.565527314275000E9     3.219009326520344E-2    5.671279545214671E-1    4.351816627701197E-2   -8.932336680938541E-3    4.266038291783856E-2   -9.384014251867601E-3    1.453091368967254E-1    5.069247793868936E-1
 6.565538919450000E9     3.314666415226510E-2    5.671628403939976E-1    4.363954644747776E-2   -9.275074904245482E-3    4.295955137807082E-2   -9.675912671284786E-3    1.468703732797737E-1    5.065476374289912E-1
 6.565550524625000E9     3.417114965415376E-2    5.669994236419235E-1    4.389234708596216E-2   -9.350872382783133E-3    4.323565991322598E-2   -9.843003819248158E-3    1.481079454369195E-1    5.061043515711475E-1
 6.565562129800000E9     3.524958075050263E-2    5.668894775746182E-1    4.415037494633859E-2   -9.573123317938958E-3    4.345027877115520E-2   -1.005568171609832E-2    1.492776527358515E-1    5.057236707155166E-1
 6.565573734975000E9     3.616738216202626E-2    5.668603744253977E-1    4.462360819690560E-2   -9.698256578580018E-3    4.374569623669274E-2   -1.024770553492149E-2    1.506690696219072E-1    5.055276250655392E-1
 6.565585340150000E9     3.725952345011775E-2    5.665825063902000E-1    4.471676063446881E-2   -9.943060364491349E-3    4.404490184365950E-2   -1.042435696717677E-2    1.520551414567664E-1    5.050995129449590E-1
 6.565596945325000E9     3.824766646267625E-2    5.667737683208629E-1    4.509157077962764E-2   -1.008998082473810E-2    4.425501852634165E-2   -1.061886718664738E-2    1.532106244127607E-1    5.044182941383226E-1
 6.565608550500000E9     3.935317011452943E-2    5.665626034519894E-1    4.531037746258965E-2   -1.028956995558814E-2    4.448116043056337E-2   -1.075380026524108E-2    1.545365405156071E-1    5.042583217005004E-1
 6.565620155675000E9     4.036682489579958E-2    5.663819025505590E-1    4.550579949230846E-2   -1.053109812636007E-2    4.475936247172359E-2   -1.094888497965534E-2    1.560311551660317E-1    5.035150444041715E-1
 6.565631760850000E9     4.147722389565433E-2    5.662975416045318E-1    4.586364893754238E-2   -1.064756327845955E-2    4.510874604226564E-2   -1.125600823574773E-2    1.574013460952876E-1    5.032382317596159E-1
 6.565643366025000E9     4.240933838198718E-2    5.661743137024988E-1    4.613624878051306E-2   -1.072120489350525E-2    4.546170836517350E-2   -1.138217464381554E-2    1.585106681739067E-1    5.026950869275094E-1
 6.565654971200000E9     4.339073050332170E-2    5.659889112455757E-1    4.653791543553754E-2   -1.102548428223890E-2    4.569847344587381E-2   -1.157435917954927E-2    1.598648433373785E-1    5.022945645408069E-1
 6.565666576375000E9     4.441168132819839E-2    5.659626281536994E-1    4.676050249891297E-2   -1.116915374816835E-2    4.605734750244292E-2   -1.180965154530556E-2    1.611655437054618E-1    5.017781439720638E-1
 6.565678181550000E9     4.543677668436993E-2    5.658324788994954E-1    4.716124571843668E-2   -1.144004304678529E-2    4.640305592567961E-2   -1.203416504983185E-2    1.626005874445325E-1    5.013106184195875E-1
 6.565689786725000E9     4.643898893593059E-2    5.657136426345533E-1    4.742816893836648E-2   -1.165990085878212E-2    4.668743949857850E-2   -1.220378528180351E-2    1.640155748248085E-1    5.008358538838338E-1
 6.565701391900000E9     4.768921324592219E-2    5.655408796899055E-1    4.769116560552508E-2   -1.175970144992746E-2    4.698221720721373E-2   -1.235215892764707E-2    1.653111824679373E-1    5.004174138179041E-1
 6.565712997075000E9     4.859360953802110E-2    5.654834116311074E-1    4.814355663269598E-2   -1.198795782985093E-2    4.736845974714866E-2   -1.258884584954875E-2    1.667643542060960E-1    4.998644124947276E-1
 6.565724602250000E9     4.967103994614338E-2    5.651554616610303E-1    4.837761631222718E-2   -1.220492900915588E-2    4.759376214384856E-2   -1.299816793465826E-2    1.681171346521073E-1    4.994346568042908E-1
 6.565736207425000E9     5.074679551142458E-2    5.651746375596379E-1    4.886046444107763E-2   -1.246419961567569E-2    4.792871940692336E-2   -1.309537738648253E-2    1.694082719781131E-1    4.988769641017151E-1
 6.565747812600000E9     5.157757274804399E-2    5.650668679316431E-1    4.913447382475994E-2   -1.278982276890392E-2    4.830250014172612E-2   -1.336168225240380E-2    1.708806823202235E-1    4.985431344081294E-1
 6.565759417775000E9     5.287030680479905E-2    5.647917590352153E-1    4.926947780768601E-2   -1.299559731745076E-2    4.865177596478700E-2   -1.353890390368581E-2    1.725965760310823E-1    4.979168425130419E-1
 6.565771022950000E9     5.387334349828873E-2    5.647118598707740E-1    4.970534819386952E-2   -1.323768569116101E-2    4.897432614017319E-2   -1.377843396683068E-2    1.737902095762304E-1    4.974397289597549E-1
 6.565782628125000E9     5.479870056934646E-2    5.646267370464731E-1    5.013335304683107E-2   -1.343995557137052E-2    4.924692481617248E-2   -1.408565225749568E-2    1.752840317435052E-1    4.968696272007681E-1
 6.565794233300000E9     5.595703331094609E-2    5.644601275105842E-1    5.045842005447365E-2   -1.364437348092616E-2    4.969608027051349E-2   -1.426735653866589E-2    1.766931786857492E-1    4.962385678345469E-1
 6.565805838475000E9     5.706651089396792E-2    5.641941783670499E-1    5.092047223793295E-2   -1.401107925600500E-2    4.997264149161979E-2   -1.462128595139900E-2    1.780433096451730E-1    4.955810534292416E-1
 6.565817443650000E9     5.806964512076453E-2    5.640161656441125E-1    5.124034076605540E-2   -1.407278011633263E-2    5.045624876662134E-2   -1.486952187491584E-2    1.796221754935823E-1    4.951900993238462E-1
 6.565829048825000E9     5.908741764783022E-2    5.638321589924864E-1    5.160147695341445E-2   -1.450850898464564E-2    5.072601392188367E-2   -1.496867898618971E-2    1.810061906382374E-1    4.946296976296899E-1
 6.565840654000000E9     6.025660231310279E-2    5.637715847728738E-1    5.191138144437157E-2   -1.467820721881064E-2    5.114689756060260E-2   -1.534793132180460E-2    1.824581100099743E-1    4.938614649689192E-1
 6.565852259175000E9     6.139154738140175E-2    5.635963347075887E-1    5.236997077263473E-2   -1.496717590316291E-2    5.147515907478322E-2   -1.565785684951744E-2    1.839304907864391E-1    4.933134206766639E-1
 6.565863864350000E9     6.230147827960014E-2    5.633589949151138E-1    5.268707713268861E-2   -1.536045010377392E-2    5.185781491248187E-2   -1.592625250781064E-2    1.854865948530248E-1    4.926910468423815E-1
 6.565875469525000E9     6.342433395610131E-2    5.631581417215571E-1    5.315128529694808E-2   -1.566512026241621E-2    5.224433046094193E-2   -1.628352937819257E-2    1.869063621064305E-1    4.921067549723996E-1
 6.565887074700000E9     6.453411780372859E-2    5.629037195488700E-1    5.346647093650540E-2   -1.584653510854146E-2    5.261439683042963E-2   -1.652986663538259E-2    1.885093234797816E-1    4.913796869730950E-1
 6.565898679875000E9     6.560374048185562E-2    5.627701168351534E-1    5.397777070123770E-2   -1.622633684664168E-2    5.298008238712130E-2   -1.670715087308190E-2    1.899494721583750E-1    4.906568449091872E-1
 6.565910285050000E9     6.655201585336373E-2    5.625015902133618E-1    5.420112930257367E-2   -1.653623533727258E-2    5.352362188900265E-2   -1.710707563171927E-2    1.915786114488634E-1    4.901685162236095E-1
 6.565921890225000E9     6.784081333278237E-2    5.622720534335038E-1    5.469759126721854E-2   -1.687700206093014E-2    5.384354907109228E-2   -1.743414200492590E-2    1.931380049678252E-1    4.895146084249121E-1
 6.565933495400000E9     6.892800357879575E-2    5.621318431839767E-1    5.530230947660326E-2   -1.703935626869224E-2    5.426267624772153E-2   -1.773990096543173E-2    1.945990154202221E-1    4.888273693520070E-1
 6.565945100575000E9     6.998794719075081E-2    5.619858400764205E-1    5.560824916477579E-2   -1.726787081942270E-2    5.464500314601945E-2   -1.801823822546127E-2    1.961929806998249E-1    4.879582491811423E-1
 6.565956705750000E9     7.107727332661012E-2    5.617240281317201E-1    5.600177447864400E-2   -1.769681032774618E-2    5.518976128841552E-2   -1.832100535129057E-2    1.977438255895021E-1    4.872918797436250E-1
