#  HZ   S   RI   R     50.00 
! Rohde & Schwarz Vector Network Analyzer 
! Rohde-Schwarz,ZNB20-2Port,1311601062101988,3.16
! Created: UTC 3/20/2024, 4:59:38 PM
! freq[Hz]                re:S11                  im:S11                  re:S21                  im:S21                  re:S12                  im:S12                  re:S22                  im:S22
 6.564085223000000E9    -8.360418901924900E-2    5.628745134384620E-1    2.621227334184048E-2    6.100355749170255E-4    2.576347955826224E-2    1.935079490056866E-4    1.513083134507639E-2    5.249524385357907E-1
 6.564099776000000E9    -8.245314323384911E-2    5.629696555503547E-1    2.630359796261269E-2    6.099002557668612E-4    2.587460569913243E-2    6.212613623866580E-5    1.649879313516198E-2    5.250281039186687E-1
 6.564114329000000E9    -8.125353602393785E-2    5.632044409789847E-1    2.646842936647923E-2    5.211091105300950E-4    2.599514429886523E-2    6.890108619550235E-5    1.764839247999188E-2    5.248541775093141E-1
 6.564128882000000E9    -8.019772523520469E-2    5.634341873751120E-1    2.660258241600441E-2    5.025683115317421E-4    2.617381624461475E-2    5.419844719740654E-6    1.882611968868891E-2    5.248206554020265E-1
 6.564143435000000E9    -7.902975842246238E-2    5.636030823488841E-1    2.679165045487932E-2    3.554804234332823E-4    2.621845351774067E-2   -1.133537481271157E-4    2.006480630438739E-2    5.248694375326142E-1
 6.564157988000000E9    -7.785691478360941E-2    5.637795200001405E-1    2.687012221094098E-2    4.799046106093800E-4    2.633059510488564E-2   -1.958878603239759E-4    2.140894433011377E-2    5.247948303968077E-1
 6.564172541000000E9    -7.672814149817550E-2    5.638613497083557E-1    2.691641688708134E-2    1.774353839438955E-4    2.652294382494449E-2   -2.897710059416356E-4    2.254768635788244E-2    5.246897700101301E-1
 6.564187094000000E9    -7.549329995493392E-2    5.639944336983899E-1    2.710965266411264E-2    8.371609766494503E-5    2.663713618098874E-2   -2.732726986913416E-4    2.373267892292736E-2    5.246372376135127E-1
 6.564201647000000E9    -7.438711390408168E-2    5.642347259986895E-1    2.727664854910371E-2    1.010525454790628E-4    2.687966441350884E-2   -4.112425236100569E-4    2.506755048157824E-2    5.245471959368427E-1
 6.564216200000000E9    -7.329761605463395E-2    5.642332896387781E-1    2.736055191800990E-2    9.592702572839975E-5    2.681937178479349E-2   -4.436654204181341E-4    2.626669721661912E-2    5.246823812407994E-1
 6.564230753000000E9    -7.223604334177632E-2    5.645007775905432E-1    2.757272405769804E-2   -1.332665108778375E-5    2.705670479345174E-2   -4.536497299154280E-4    2.759738187941507E-2    5.244860817731595E-1
 6.564245306000000E9    -7.107746591334670E-2    5.645287733721366E-1    2.776882265166905E-2   -1.706506238702815E-4    2.730469458663157E-2   -5.850408642290583E-4    2.883032889522593E-2    5.245965326106542E-1
 6.564259859000000E9    -6.979958194891357E-2    5.647853621942871E-1    2.776522674400128E-2   -1.809167061083015E-4    2.729171297814787E-2   -6.923448647557039E-4    2.996447906028207E-2    5.245791044148904E-1
 6.564274412000000E9    -6.872418213488099E-2    5.648848582433584E-1    2.799536065360802E-2   -2.304985318084454E-4    2.755121649824996E-2   -6.960448435791424E-4    3.138436106523318E-2    5.243862026139641E-1
 6.564288965000000E9    -6.751988320710287E-2    5.650270660884992E-1    2.800834961073761E-2   -3.745064488856918E-4    2.769331409271414E-2   -7.982258693341141E-4    3.262808564627832E-2    5.242373157347119E-1
 6.564303518000000E9    -6.639322806722227E-2    5.651275607147509E-1    2.827094657066649E-2   -1.644049207866438E-4    2.786211282084423E-2   -8.958216188038058E-4    3.370731993570457E-2    5.242621017642177E-1
 6.564318071000000E9    -6.526209845818702E-2    5.652120997281550E-1    2.836143187706661E-2   -4.918764870001817E-4    2.797802009320664E-2   -9.181854623975217E-4    3.519168458641730E-2    5.242620922984127E-1
 6.564332624000000E9    -6.408617975390225E-2    5.653924775976624E-1    2.852546734454255E-2   -4.676435020769427E-4    2.799144703864423E-2   -9.949059323556256E-4    3.641121539587135E-2    5.240190222273371E-1
 6.564347177000000E9    -6.303920987524286E-2    5.654886896977112E-1    2.872675707008414E-2   -6.811569679702461E-4    2.830584152137263E-2   -1.117821951538518E-3    3.780555835591290E-2    5.238743138919261E-1
 6.564361730000000E9    -6.176484759980858E-2    5.657160664671413E-1    2.893103696684575E-2   -6.720607743908910E-4    2.840757219631026E-2   -1.172468503435772E-3    3.905418463663619E-2    5.239028190324503E-1
 6.564376283000000E9    -6.065567042986803E-2    5.657051829285157E-1    2.907279441715438E-2   -7.635981469141896E-4    2.847599129958333E-2   -1.282923498307647E-3    4.021297520081155E-2    5.237663279562430E-1
 6.564390836000000E9    -5.949498745127298E-2    5.658838421365162E-1    2.932409727275827E-2   -8.922872761976063E-4    2.871705387697568E-2   -1.310450523687419E-3    4.142134657055676E-2    5.238003411571824E-1
 6.564405389000000E9    -5.829319232493971E-2    5.659445575400950E-1    2.935455000980626E-2   -8.924816235107542E-4    2.887885093678125E-2   -1.437393871412110E-3    4.264848634400712E-2    5.237221987874695E-1
 6.564419942000000E9    -5.717294684737752E-2    5.661043939974300E-1    2.949945272676331E-2   -1.017004329752544E-3    2.898993860775236E-2   -1.519839197467301E-3    4.401578014109525E-2    5.236392779611122E-1
 6.564434495000000E9    -5.605531260672110E-2    5.661755887478978E-1    2.954301631032758E-2   -1.158220638994095E-3    2.908304711693866E-2   -1.503522034864011E-3    4.540148740007185E-2    5.234854885145630E-1
 6.564449048000000E9    -5.473863814793269E-2    5.663556362565276E-1    2.982928486297426E-2   -1.084465636775596E-3    2.931027331253733E-2   -1.713526404881874E-3    4.665201746018953E-2    5.234903924979200E-1
 6.564463601000000E9    -5.364757754721721E-2    5.663620640177408E-1    3.000118015258170E-2   -1.287956220533133E-3    2.952169337008466E-2   -1.765139960161878E-3    4.787913634271823E-2    5.233880797362876E-1
 6.564478154000000E9    -5.242674757102558E-2    5.664819895156090E-1    3.014861907021754E-2   -1.340460542426790E-3    2.969229662630850E-2   -1.861884438621672E-3    4.926056494855555E-2    5.231982452719989E-1
 6.564492707000000E9    -5.127214026259681E-2    5.665854121502408E-1    3.033140555362393E-2   -1.360650031549252E-3    2.975977710825648E-2   -1.928124806762880E-3    5.061567095358430E-2    5.231515598217502E-1
 6.564507260000000E9    -5.018437931144838E-2    5.666980531798147E-1    3.062216561570284E-2   -1.465096419161070E-3    3.003568914709488E-2   -2.015317914022301E-3    5.188290333129782E-2    5.228585624427624E-1
 6.564521813000000E9    -4.889422420214116E-2    5.667574375143372E-1    3.072852551545046E-2   -1.564162692025612E-3    3.011559485412368E-2   -2.219109844234445E-3    5.307104636513875E-2    5.227916359358695E-1
 6.564536366000000E9    -4.775441091329337E-2    5.668295662408379E-1    3.099142045896459E-2   -1.740752626617072E-3    3.035129068735626E-2   -2.159204974559510E-3    5.438739516681480E-2    5.226703450442743E-1
 6.564550919000000E9    -4.667322704648819E-2    5.668211914224968E-1    3.107894540768598E-2   -1.851198009407155E-3    3.049101093537021E-2   -2.229434327016067E-3    5.575531787362404E-2    5.224759555561410E-1
 6.564565472000000E9    -4.552944816155145E-2    5.670382223112922E-1    3.123071823934137E-2   -1.919752743037167E-3    3.072295041733191E-2   -2.386632559485019E-3    5.712525473943932E-2    5.223953883461786E-1
 6.564580025000000E9    -4.428309277292521E-2    5.669941649647893E-1    3.142866001054297E-2   -2.025803910104417E-3    3.084444011913564E-2   -2.483655742039084E-3    5.836870704352711E-2    5.221746289835979E-1
 6.564594578000000E9    -4.318115027739438E-2    5.671868741419707E-1    3.159498885882167E-2   -2.122562046415648E-3    3.112232745238657E-2   -2.581141455349538E-3    5.980284725883869E-2    5.219778137095240E-1
 6.564609131000000E9    -4.193129885445335E-2    5.671807371382662E-1    3.180501970725063E-2   -2.110396513449239E-3    3.118981059802483E-2   -2.767181233708553E-3    6.107944740021227E-2    5.220833082645859E-1
 6.564623684000000E9    -4.086166833502548E-2    5.673857264703250E-1    3.211526743099034E-2   -2.238274958334585E-3    3.130243094147018E-2   -2.797504748695736E-3    6.241153441714751E-2    5.217369057632090E-1
 6.564638237000000E9    -3.968030222563645E-2    5.673053366418090E-1    3.213732167790095E-2   -2.252144939369634E-3    3.158950327640994E-2   -2.994962740891912E-3    6.379897011031978E-2    5.215319246277247E-1
 6.564652790000000E9    -3.845079407043771E-2    5.674481837444429E-1    3.231011246231411E-2   -2.518266206318960E-3    3.168076309776709E-2   -3.010717371338308E-3    6.494927580043558E-2    5.215333658158229E-1
 6.564667343000000E9    -3.728095328226429E-2    5.674958382010151E-1    3.262262007459130E-2   -2.585666086191800E-3    3.190902890128713E-2   -3.182031093316228E-3    6.636697724356176E-2    5.213069557226786E-1
 6.564681896000000E9    -3.603162710480887E-2    5.676174797179104E-1    3.272426185515606E-2   -2.593182664355962E-3    3.207693108843451E-2   -3.201711434997310E-3    6.795939978121519E-2    5.211121534730989E-1
 6.564696449000000E9    -3.487617276074219E-2    5.675920050081236E-1    3.279318407627924E-2   -2.967781026943780E-3    3.228598288869666E-2   -3.372187227441102E-3    6.922744827010323E-2    5.209205704199577E-1
 6.564711002000000E9    -3.379389047033093E-2    5.676299161323465E-1    3.317422264084754E-2   -2.885284537924495E-3    3.247049294021798E-2   -3.431179457652579E-3    7.043458117983500E-2    5.207452399989143E-1
 6.564725555000000E9    -3.254857146052476E-2    5.676572024629870E-1    3.322725710513526E-2   -2.975316836884950E-3    3.278386692727568E-2   -3.529323946015324E-3    7.179409771286394E-2    5.204516174000435E-1
 6.564740108000000E9    -3.136329355526572E-2    5.677693506500288E-1    3.347192564639843E-2   -3.096484261000877E-3    3.296766641287033E-2   -3.700231681669018E-3    7.332794078181634E-2    5.204291054483187E-1
 6.564754661000000E9    -3.019419685242850E-2    5.677919095267494E-1    3.347194220077266E-2   -3.200538941069474E-3    3.306148453670409E-2   -3.745514476755101E-3    7.460034616797404E-2    5.200614598268983E-1
 6.564769214000000E9    -2.899853578485816E-2    5.678252864048009E-1    3.395702994347255E-2   -3.355075924045257E-3    3.328424760712503E-2   -3.893199593185122E-3    7.590372523243212E-2    5.199841516122636E-1
 6.564783767000000E9    -2.780059634818924E-2    5.678472039161674E-1    3.408486998693847E-2   -3.415339858985178E-3    3.349774530421203E-2   -3.989402340964973E-3    7.727676956526103E-2    5.197798595670299E-1
 6.564798320000000E9    -2.651558950909293E-2    5.678447938048076E-1    3.428691695336037E-2   -3.542476891613754E-3    3.375904460555448E-2   -4.136961329010966E-3    7.885271036339760E-2    5.194580134350976E-1
 6.564812873000000E9    -2.553300270294575E-2    5.678638636221506E-1    3.459398087624745E-2   -3.624828909123699E-3    3.388150650803193E-2   -4.320906153175160E-3    8.020364861489263E-2    5.193791239710313E-1
 6.564827426000000E9    -2.414587222805531E-2    5.680451443610105E-1    3.467737046470174E-2   -3.807924211957794E-3    3.409734916192549E-2   -4.427664573866535E-3    8.145344426867406E-2    5.191668751605387E-1
 6.564841979000000E9    -2.296184053396415E-2    5.680059821483265E-1    3.496146110080578E-2   -3.923300466207779E-3    3.434290489949821E-2   -4.540105960869358E-3    8.285648971032032E-2    5.188407512774379E-1
 6.564856532000000E9    -2.171847193558655E-2    5.681737602650224E-1    3.515191501220874E-2   -4.021563685120129E-3    3.456819767412630E-2   -4.611361322475290E-3    8.421523459069452E-2    5.187499763893130E-1
 6.564871085000000E9    -2.063742899973419E-2    5.679687693215739E-1    3.537736811039000E-2   -4.267476843664978E-3    3.478389742393604E-2   -4.711709549349909E-3    8.568371811359998E-2    5.183363232083339E-1
 6.564885638000000E9    -1.930689420672565E-2    5.681075813684363E-1    3.575161054787446E-2   -4.334730811643575E-3    3.503051352828432E-2   -4.871471230002540E-3    8.705365379066791E-2    5.182395030525172E-1
 6.564900191000000E9    -1.821100448630051E-2    5.680704198819794E-1    3.584395090424949E-2   -4.528965389549682E-3    3.527580500072128E-2   -5.083712684803264E-3    8.855224909391393E-2    5.178887528232039E-1
 6.564914744000000E9    -1.696348268912957E-2    5.681662191028020E-1    3.620186268547521E-2   -4.671997417194054E-3    3.550949352098220E-2   -5.179560752489439E-3    9.008945841017485E-2    5.177036677680072E-1
 6.564929297000000E9    -1.576624217813559E-2    5.680903541348366E-1    3.630647044788154E-2   -4.777096374401281E-3    3.571571020217168E-2   -5.299249772434498E-3    9.129747204720108E-2    5.173306193225335E-1
 6.564943850000000E9    -1.434040882806680E-2    5.681535842922837E-1    3.653965961383850E-2   -4.826085932751968E-3    3.588105961501751E-2   -5.490815819499544E-3    9.287173553014148E-2    5.171430096064510E-1
 6.564958403000000E9    -1.332188601550574E-2    5.681001864417237E-1    3.682485061499262E-2   -5.062128116742217E-3    3.613684596519418E-2   -5.565789333457141E-3    9.422397723189585E-2    5.169233244831839E-1
 6.564972956000000E9    -1.206647714066246E-2    5.681724766394215E-1    3.711947007027096E-2   -5.283822720551279E-3    3.641932835894930E-2   -5.698787702316553E-3    9.567360354130858E-2    5.166101297270960E-1
 6.564987509000000E9    -1.086469911291144E-2    5.681156417740316E-1    3.734065501590850E-2   -5.463860165550766E-3    3.662451761036324E-2   -5.930621396932941E-3    9.700955038694362E-2    5.163854210335871E-1
 6.565002062000000E9    -9.572442031187518E-3    5.681140259613001E-1    3.750701624100529E-2   -5.495479540821986E-3    3.695756978343613E-2   -6.072730823201018E-3    9.848183993386680E-2    5.160177374832153E-1
 6.565016615000000E9    -8.477125445936208E-3    5.680587487871337E-1    3.775770842553048E-2   -5.681769025613644E-3    3.712091327834143E-2   -6.145301792669530E-3    1.000336197532282E-1    5.155391154167098E-1
 6.565031168000000E9    -7.090399679456003E-3    5.680151031817529E-1    3.813286576009407E-2   -5.821568449288063E-3    3.745756331197257E-2   -6.320613929979386E-3    1.016049110634848E-1    5.154737374121989E-1
 6.565045721000000E9    -6.024697106349312E-3    5.680343003659137E-1    3.839266188176025E-2   -5.899143629914641E-3    3.779404252706822E-2   -6.468920420681943E-3    1.030027810780617E-1    5.149270233929791E-1
 6.565060274000000E9    -4.727431383764116E-3    5.680308257271303E-1    3.853844365179764E-2   -6.062804270062324E-3    3.794740988452154E-2   -6.563886165486864E-3    1.044603959801301E-1    5.147069016807337E-1
 6.565074827000000E9    -3.549892994522410E-3    5.679699445646039E-1    3.885655615808160E-2   -6.210169784042676E-3    3.812250394508624E-2   -6.914594030543581E-3    1.058007390059767E-1    5.144236242024884E-1
 6.565089380000000E9    -2.350909657440867E-3    5.679130009763104E-1    3.930056696714344E-2   -6.412536383011495E-3    3.842762904361150E-2   -6.921714197599278E-3    1.075256118635008E-1    5.140320423350760E-1
 6.565103933000000E9    -1.038253328773855E-3    5.679762260231743E-1    3.947746915608279E-2   -6.553599929110021E-3    3.864215908852867E-2   -7.103930846332368E-3    1.089046308213428E-1    5.137669673751452E-1
 6.565118486000000E9     2.087188408225562E-4    5.678931918536605E-1    3.954810926114689E-2   -6.695334395108827E-3    3.897887153471447E-2   -7.359869650293999E-3    1.103776953921483E-1    5.133351101691380E-1
 6.565133039000000E9     1.310473429250530E-3    5.678647563915035E-1    3.994952839037356E-2   -6.883188623873088E-3    3.928088198242898E-2   -7.484011254569749E-3    1.118027901507471E-1    5.129948950075424E-1
 6.565147592000000E9     2.651452569458935E-3    5.678699389550348E-1    4.031100346958866E-2   -7.254828826871488E-3    3.958074758617002E-2   -7.726379003828135E-3    1.135171763719650E-1    5.124937585393016E-1
 6.565162145000000E9     3.833684558806697E-3    5.677728570799330E-1    4.063166316899421E-2   -7.424146161773892E-3    3.992945991791166E-2   -7.858886058381000E-3    1.149786383441435E-1    5.121344958893600E-1
 6.565176698000000E9     5.113371742188895E-3    5.677736234206302E-1    4.078182661254959E-2   -7.571745868570909E-3    4.012811204078493E-2   -8.040442590701859E-3    1.163388874137155E-1    5.118480371066035E-1
 6.565191251000000E9     6.387748391806559E-3    5.676975452981562E-1    4.101745768382788E-2   -7.738954303260338E-3    4.037588019854876E-2   -8.266374538086549E-3    1.180344758285342E-1    5.114147353067755E-1
 6.565205804000000E9     7.663800322164723E-3    5.675657118908918E-1    4.142403036724261E-2   -7.878125848516276E-3    4.072900029626723E-2   -8.490255279577436E-3    1.196760338178809E-1    5.110448670244292E-1
 6.565220357000000E9     8.820342767738420E-3    5.674824379795449E-1    4.182699347155957E-2   -8.122985853149214E-3    4.097992991755897E-2   -8.673501547985329E-3    1.210402517035326E-1    5.107003700776238E-1
 6.565234910000000E9     1.015810266491674E-2    5.674810887919335E-1    4.207102741954165E-2   -8.319763396418068E-3    4.134816846443033E-2   -8.959165434665517E-3    1.227038325077825E-1    5.100969103992390E-1
 6.565249463000000E9     1.137782141918075E-2    5.674490081589880E-1    4.234888438949970E-2   -8.576929575544855E-3    4.159932405787897E-2   -9.179479847194688E-3    1.242794433956529E-1    5.097533143976978E-1
 6.565264016000000E9     1.265475469133009E-2    5.673938621954756E-1    4.277110401241373E-2   -8.784167984890914E-3    4.193851187203888E-2   -9.340467597320962E-3    1.257503302826677E-1    5.093256394368276E-1
 6.565278569000000E9     1.388984440376197E-2    5.672185137626142E-1    4.304794023175240E-2   -9.003797588153398E-3    4.230784383093179E-2   -9.651952568856184E-3    1.272366421132764E-1    5.088087296470878E-1
 6.565293122000000E9     1.517453920224307E-2    5.671293445557292E-1    4.344325906415449E-2   -9.249610593670281E-3    4.255811141696413E-2   -9.785710893181398E-3    1.289702542375987E-1    5.083688146211766E-1
 6.565307675000000E9     1.649403204203140E-2    5.671068670005551E-1    4.367946997272897E-2   -9.423239242498665E-3    4.297636270929606E-2   -9.948232981494408E-3    1.307260408542815E-1    5.079486668308982E-1
 6.565322228000000E9     1.759797385236007E-2    5.669360347249481E-1    4.407627530933588E-2   -9.677828042844614E-3    4.325307709108047E-2   -1.021483309817008E-2    1.321977189688102E-1    5.072134543677621E-1
 6.565336781000000E9     1.897958064875019E-2    5.669275039217249E-1    4.430443599842696E-2   -9.864655172669322E-3    4.346501663491927E-2   -1.043994855748121E-2    1.337098193229606E-1    5.069561636747816E-1
 6.565351334000000E9     2.022406122902828E-2    5.666787382974789E-1    4.476765791988589E-2   -1.002469569183917E-2    4.394439259819190E-2   -1.065516334060610E-2    1.354309805242469E-1    5.065082780799138E-1
 6.565365887000000E9     2.136229187726386E-2    5.667121287063609E-1    4.501214750641943E-2   -1.043748287966153E-2    4.413927219149908E-2   -1.103678675430992E-2    1.371854896051274E-1    5.058217731214831E-1
 6.565380440000000E9     2.277053379146806E-2    5.665658844312647E-1    4.529389035458208E-2   -1.059999133377224E-2    4.455251381102029E-2   -1.119788253074745E-2    1.386132367487621E-1    5.053238737618725E-1
 6.565394993000000E9     2.403554487868932E-2    5.665366922713411E-1    4.577181040670811E-2   -1.084636495178906E-2    4.500107376592298E-2   -1.139112126920922E-2    1.403880121943441E-1    5.048347700592795E-1
