#  HZ   S   RI   R     50.00 
! Rohde & Schwarz Vector Network Analyzer 
! Rohde-Schwarz,ZNB20-2Port,1311601062101988,3.16
! Created: UTC 3/20/2024, 4:59:46 PM
! freq[Hz]                re:S11                  im:S11                  re:S21                  im:S21                  re:S12                  im:S12                  re:S22                  im:S22
 6.564079105000000E9    -8.403192792090118E-2    5.628375644652966E-1    2.602729898830458E-2    6.480565905288499E-4    2.566253432188595E-2    1.101947733329756E-4    1.465034915515763E-2    5.247704899858038E-1
 6.564093682075000E9    -8.285552934168060E-2    5.630973117742715E-1    2.620147215261338E-2    6.019420821474316E-4    2.579101598298244E-2    1.520495431378676E-4    1.583644775364150E-2    5.248517083149514E-1
 6.564108259150000E9    -8.172927612048428E-2    5.632489205542878E-1    2.636749912699361E-2    5.416257900760883E-4    2.595874374073992E-2    5.032772358337455E-5    1.715147657355556E-2    5.248480047860937E-1
 6.564122836225000E9    -8.052715924182699E-2    5.633976372273516E-1    2.654050313470840E-2    3.802161463521805E-4    2.601889138257818E-2    2.306483496073242E-5    1.855322528885707E-2    5.247118411189696E-1
 6.564137413300000E9    -7.950322595100683E-2    5.634762890725400E-1    2.669150033472291E-2    3.678176511183192E-4    2.615202883874495E-2   -1.125700779012531E-4    1.967181080338288E-2    5.247463516398649E-1
 6.564151990375000E9    -7.831143335238494E-2    5.636410909216001E-1    2.681061955913249E-2    3.675108644927013E-4    2.632770679433001E-2   -8.985355097052225E-5    2.085896087943503E-2    5.249265408265651E-1
 6.564166567450000E9    -7.716127463239736E-2    5.638196203258896E-1    2.691316147551336E-2    3.163212929902187E-4    2.649231198737397E-2   -1.325917326225368E-4    2.217832022732195E-2    5.247754817575014E-1
 6.564181144525000E9    -7.590257037284072E-2    5.640622873642197E-1    2.702162459807464E-2    1.979637879106280E-4    2.665111022977795E-2   -2.809996718600427E-4    2.336396489554077E-2    5.247161437916508E-1
 6.564195721600000E9    -7.487211106508883E-2    5.641323682004096E-1    2.713327483147689E-2    2.972672017127807E-4    2.667819206161877E-2   -3.419839652200609E-4    2.448736968418322E-2    5.246087489547403E-1
 6.564210298675000E9    -7.382262165587714E-2    5.643062352277470E-1    2.728956105002442E-2    2.651134033635495E-4    2.679479728942625E-2   -3.819860113447535E-4    2.572500729847766E-2    5.247081914066097E-1
 6.564224875750000E9    -7.267341529711228E-2    5.643778015702144E-1    2.756172976673130E-2    7.262165192887949E-6    2.706872368026420E-2   -6.048344111907351E-4    2.699613512439261E-2    5.246131524335439E-1
 6.564239452825000E9    -7.149053262170683E-2    5.645899457871640E-1    2.755139632632340E-2   -1.013373954064361E-4    2.712061969428964E-2   -5.643174609725281E-4    2.838048350964633E-2    5.243144736314247E-1
 6.564254029900000E9    -7.022471522873495E-2    5.646356232508256E-1    2.780844265917563E-2   -2.210262684124551E-4    2.734406404261937E-2   -6.643773984015323E-4    2.962065109213776E-2    5.244218618468972E-1
 6.564268606975000E9    -6.913574747928967E-2    5.647842277238467E-1    2.794931748858413E-2   -1.646562162026911E-4    2.747340468566821E-2   -7.162483522909718E-4    3.090841539793743E-2    5.243698007164720E-1
 6.564283184050000E9    -6.798423428864508E-2    5.649134217648604E-1    2.801863304889647E-2   -3.534520536067846E-4    2.770952718060537E-2   -6.892472343417073E-4    3.223755060102334E-2    5.243329851827676E-1
 6.564297761125000E9    -6.690808361974157E-2    5.650049797736452E-1    2.828378267499168E-2   -3.385494210219813E-4    2.767598909425759E-2   -8.591819261714103E-4    3.336969376498186E-2    5.242098324706368E-1
 6.564312338200000E9    -6.570143272373191E-2    5.651816385552048E-1    2.835186599746684E-2   -5.068349418432123E-4    2.795705662221150E-2   -8.278754583239823E-4    3.468968891690262E-2    5.243415326108156E-1
 6.564326915275000E9    -6.455137213665953E-2    5.652885303437659E-1    2.849651230013549E-2   -5.046114109735279E-4    2.806749658147277E-2   -1.014248214529524E-3    3.578587961651081E-2    5.242745197573186E-1
 6.564341492350000E9    -6.329705570539769E-2    5.655089116239266E-1    2.852084731325324E-2   -5.219655205416851E-4    2.815533681233832E-2   -9.960318937370146E-4    3.736414177635191E-2    5.240591327790144E-1
 6.564356069425000E9    -6.224256240875530E-2    5.655259086436626E-1    2.883481206298587E-2   -6.174622518356620E-4    2.831232481203408E-2   -1.214817739108795E-3    3.844661830446068E-2    5.240293387678152E-1
 6.564370646500000E9    -6.100379470751310E-2    5.657720458828208E-1    2.897731561725036E-2   -6.520793543331392E-4    2.836445372398859E-2   -1.233552682093835E-3    3.977861155059875E-2    5.237114271375883E-1
 6.564385223575000E9    -5.994420678660935E-2    5.656705860590248E-1    2.906259466370381E-2   -8.494217896372355E-4    2.860492273471738E-2   -1.324720091251059E-3    4.100916647413715E-2    5.237911364951262E-1
 6.564399800650000E9    -5.876683975587090E-2    5.658799401979988E-1    2.925715534181382E-2   -9.445973178611308E-4    2.876524347381585E-2   -1.398193645849324E-3    4.244388885258869E-2    5.237579499682944E-1
 6.564414377725000E9    -5.764078344472497E-2    5.660495043016229E-1    2.956666358894353E-2   -8.767637604615653E-4    2.904888260659704E-2   -1.541211857525408E-3    4.351615630977728E-2    5.237208114114106E-1
 6.564428954800000E9    -5.637789616914497E-2    5.661445649587111E-1    2.964746958896139E-2   -1.039014768995785E-3    2.907859277928195E-2   -1.593718048749634E-3    4.491817144069399E-2    5.234224027332259E-1
 6.564443531875000E9    -5.533843683780742E-2    5.661997063162156E-1    2.968800249597212E-2   -1.143314504815046E-3    2.928787672640853E-2   -1.638326230062770E-3    4.617721175042565E-2    5.235336676274315E-1
 6.564458108950000E9    -5.418413950779630E-2    5.664184600311003E-1    2.991156103652516E-2   -1.202159879204088E-3    2.946208827513028E-2   -1.769584402839100E-3    4.751338950050195E-2    5.233798422533759E-1
 6.564472686025000E9    -5.290141361885092E-2    5.663789813783391E-1    3.005048809291517E-2   -1.304904594987507E-3    2.963495504894942E-2   -1.747901716336428E-3    4.876438905450459E-2    5.232227057238222E-1
 6.564487263100000E9    -5.172279711879246E-2    5.664814783382179E-1    3.025643931306287E-2   -1.510638286344373E-3    2.979517881240802E-2   -1.867014376222541E-3    5.005094532851981E-2    5.229566994943345E-1
 6.564501840175000E9    -5.056887794812291E-2    5.665213762150707E-1    3.036072115838569E-2   -1.449819374128174E-3    2.983995948913646E-2   -1.907538434368246E-3    5.134203615900061E-2    5.228997584180142E-1
 6.564516417250000E9    -4.949484520066910E-2    5.667388319723161E-1    3.051912738746307E-2   -1.580159304024960E-3    3.011930763868215E-2   -2.112814642622994E-3    5.272748006619695E-2    5.226451948052876E-1
 6.564530994325000E9    -4.820395167037666E-2    5.668532074331426E-1    3.076936968846755E-2   -1.610551775706011E-3    3.032738804131711E-2   -2.197254739273276E-3    5.415203340284436E-2    5.227417351361323E-1
 6.564545571400000E9    -4.704611245775964E-2    5.668613978619343E-1    3.101347875761273E-2   -1.765166170545051E-3    3.047913295790615E-2   -2.266177630156084E-3    5.542329152911343E-2    5.225616251378210E-1
 6.564560148475000E9    -4.582865704774085E-2    5.669699894779686E-1    3.109814072977330E-2   -1.779166021724649E-3    3.060499581855278E-2   -2.385435864121536E-3    5.661589349859742E-2    5.223317065514168E-1
 6.564574725550000E9    -4.466659416585957E-2    5.669984221397043E-1    3.132802769857678E-2   -1.956638581144706E-3    3.080058346993134E-2   -2.576597825678902E-3    5.795593747361497E-2    5.222755899180000E-1
 6.564589302625000E9    -4.361608964767136E-2    5.672260144942739E-1    3.129160975634757E-2   -2.038650812704626E-3    3.100014803619616E-2   -2.527202458278751E-3    5.931172071513751E-2    5.220685638245950E-1
 6.564603879700000E9    -4.243655773044111E-2    5.671427184821418E-1    3.171417281016180E-2   -2.169650929119069E-3    3.119833381917858E-2   -2.713714026408401E-3    6.064980931390896E-2    5.220047125190547E-1
 6.564618456775000E9    -4.122505635754233E-2    5.671733286827237E-1    3.195872495999509E-2   -2.175517597634309E-3    3.131440290212666E-2   -2.748166535799474E-3    6.180956674307180E-2    5.218764056405765E-1
 6.564633033850000E9    -3.999926717635047E-2    5.672575062854663E-1    3.204185246465169E-2   -2.368301492046494E-3    3.153062519004722E-2   -2.884071257171588E-3    6.329913464327221E-2    5.215949263940615E-1
 6.564647610925000E9    -3.876838191391937E-2    5.673978195764603E-1    3.220426655277531E-2   -2.348074092179348E-3    3.176670343246898E-2   -2.921495389964925E-3    6.459698945764614E-2    5.215078424255890E-1
 6.564662188000000E9    -3.762855340205203E-2    5.674161888064952E-1    3.248816623739517E-2   -2.480689167695486E-3    3.182463553523125E-2   -3.035446590229113E-3    6.599155963769016E-2    5.213986462939910E-1
 6.564676765075000E9    -3.638820626956588E-2    5.674184973948188E-1    3.261155309089567E-2   -2.604689227343735E-3    3.212283927800013E-2   -3.146611696470532E-3    6.739622684953120E-2    5.211716982993222E-1
 6.564691342150000E9    -3.528465166184371E-2    5.675810641113346E-1    3.279523353034695E-2   -2.766610703501298E-3    3.230834982335841E-2   -3.265181636418975E-3    6.864346734455327E-2    5.209974209598472E-1
 6.564705919225000E9    -3.412724902033979E-2    5.677115556925632E-1    3.324536519124083E-2   -2.870900138986257E-3    3.243210199378857E-2   -3.403455857196439E-3    7.008716434590667E-2    5.208584744790521E-1
 6.564720496300000E9    -3.287237829933454E-2    5.676990113358468E-1    3.321973840263952E-2   -3.079148717405038E-3    3.260643482349499E-2   -3.530228044549759E-3    7.138494114389732E-2    5.205948407655709E-1
 6.564735073375000E9    -3.183252796261098E-2    5.676909359929184E-1    3.345703825922252E-2   -3.190984417111928E-3    3.292238392248326E-2   -3.679121339162288E-3    7.277938941805052E-2    5.203536049915939E-1
 6.564749650450000E9    -3.053113060768662E-2    5.678275930142952E-1    3.361738508552218E-2   -3.171089550391584E-3    3.310132398270069E-2   -3.724308282144667E-3    7.410595077032955E-2    5.202753102724514E-1
 6.564764227525000E9    -2.933447036826445E-2    5.678076107093523E-1    3.380714867455702E-2   -3.308823907880558E-3    3.330352871170799E-2   -3.900704143677834E-3    7.567651162832330E-2    5.200465782232242E-1
 6.564778804600000E9    -2.814540123129440E-2    5.678584076631452E-1    3.414563656618190E-2   -3.498813433246929E-3    3.346927821861558E-2   -4.016229791253446E-3    7.684762307929606E-2    5.199813218456828E-1
 6.564793381675000E9    -2.699367946108428E-2    5.678561575811553E-1    3.420154889865049E-2   -3.546400072856456E-3    3.371321198892275E-2   -4.028451829324735E-3    7.820288624590503E-2    5.196236256539566E-1
 6.564807958750000E9    -2.570997793907006E-2    5.679995656369331E-1    3.451493382146821E-2   -3.715741187080322E-3    3.384835760560560E-2   -4.238514212501021E-3    7.974472994610070E-2    5.193878722831730E-1
 6.564822535825000E9    -2.469049611301845E-2    5.679787282700178E-1    3.472284223866807E-2   -3.894530250145441E-3    3.408517004077674E-2   -4.382377774292182E-3    8.112347212738737E-2    5.192720017418420E-1
 6.564837112900000E9    -2.335763095700008E-2    5.680236269657810E-1    3.480590624497746E-2   -3.852367418862433E-3    3.433016486613753E-2   -4.498954701431241E-3    8.222102630068805E-2    5.189372775636620E-1
 6.564851689975000E9    -2.217336977114411E-2    5.679497268698990E-1    3.505485632575760E-2   -4.066954163153578E-3    3.450902080005773E-2   -4.701723936293252E-3    8.390247007336227E-2    5.187746442316074E-1
 6.564866267050000E9    -2.101098928404733E-2    5.679510459172636E-1    3.546036787289152E-2   -4.157711564338114E-3    3.483133461822657E-2   -4.769747666773756E-3    8.527459365637571E-2    5.184123676417771E-1
 6.564880844125000E9    -1.970365240990469E-2    5.681208683999269E-1    3.558281312005822E-2   -4.411898753016517E-3    3.495792252667893E-2   -4.824787752158739E-3    8.652988137152445E-2    5.181645618830970E-1
 6.564895421200000E9    -1.853130133175888E-2    5.680692675543747E-1    3.594531926014378E-2   -4.459802082570941E-3    3.519385956698057E-2   -5.034499122312236E-3    8.811570066165073E-2    5.179379055143317E-1
 6.564909998275000E9    -1.741498482829353E-2    5.681702419832376E-1    3.614388207657363E-2   -4.682201923833061E-3    3.538580075790668E-2   -5.107774822742864E-3    8.947229548123184E-2    5.177164321892118E-1
 6.564924575350000E9    -1.605809229002206E-2    5.681549990165157E-1    3.629824244529428E-2   -4.851922406910196E-3    3.566157825405128E-2   -5.382336574283210E-3    9.092591703805500E-2    5.173213841201557E-1
 6.564939152425000E9    -1.490546459165151E-2    5.680968021188350E-1    3.660721092178188E-2   -4.781560509432982E-3    3.581719053573430E-2   -5.495421484390921E-3    9.231772976402298E-2    5.171247545270632E-1
 6.564953729500000E9    -1.372297502846741E-2    5.680964415437999E-1    3.662659546136354E-2   -5.009469550619096E-3    3.619529801545999E-2   -5.546903354182659E-3    9.375816956435483E-2    5.169424182154457E-1
 6.564968306575000E9    -1.249126066481471E-2    5.680952173961117E-1    3.695604231174382E-2   -5.136053527824881E-3    3.635926217934083E-2   -5.692205249205543E-3    9.524658296558834E-2    5.166176426610736E-1
 6.564982883650000E9    -1.127684095212899E-2    5.680631994991430E-1    3.724549960271897E-2   -5.215699245807754E-3    3.658174635280251E-2   -5.922621047951141E-3    9.676637872772001E-2    5.163255306289315E-1
 6.564997460725000E9    -1.002050744578364E-2    5.681091026285607E-1    3.748712915263832E-2   -5.513522549027591E-3    3.678187379493857E-2   -6.063098305507932E-3    9.814696465050136E-2    5.160343699820559E-1
 6.565012037800000E9    -8.849844454581696E-3    5.681584219551181E-1    3.773114080403774E-2   -5.651183711268153E-3    3.722528704573067E-2   -6.184621365765458E-3    9.966477298245029E-2    5.156861674243842E-1
 6.565026614875000E9    -7.617657215479032E-3    5.681315493596862E-1    3.811002998253215E-2   -5.742247591190190E-3    3.729479858408122E-2   -6.318684484328465E-3    1.011499570354037E-1    5.154885236979576E-1
 6.565041191950000E9    -6.331992405547523E-3    5.679802499735623E-1    3.826034405905607E-2   -5.958193352159809E-3    3.756172810713448E-2   -6.507223997735495E-3    1.025410085759883E-1    5.151301862062795E-1
 6.565055769025000E9    -5.138710337798858E-3    5.680393591293723E-1    3.856729269753701E-2   -5.955224497139465E-3    3.794960942396435E-2   -6.592814329469831E-3    1.039216142037252E-1    5.147545340282111E-1
 6.565070346100000E9    -3.945189957857987E-3    5.678884854097918E-1    3.865730927005604E-2   -6.278667742666463E-3    3.806423458306030E-2   -6.807545743523208E-3    1.054689202173216E-1    5.144509047177616E-1
 6.565084923175000E9    -2.687688905329801E-3    5.680124730421942E-1    3.900074089302990E-2   -6.594997468291532E-3    3.845135517281505E-2   -7.024776454095332E-3    1.070770657530788E-1    5.140655073867874E-1
 6.565099500250000E9    -1.518011897438717E-3    5.679619301308597E-1    3.933516055328885E-2   -6.639128016622651E-3    3.872941108573910E-2   -7.154069249201163E-3    1.084221104177312E-1    5.135758669782604E-1
 6.565114077325000E9    -1.928199562440436E-4    5.678970056692157E-1    3.964042407252531E-2   -6.839546027372665E-3    3.894299453517826E-2   -7.390880334147659E-3    1.098269967813277E-1    5.134200379885364E-1
 6.565128654400000E9     1.001935831328386E-3    5.678262187065105E-1    3.991149021509566E-2   -6.905365183750800E-3    3.921725756432935E-2   -7.521494136378499E-3    1.114501949268851E-1    5.129441535483330E-1
 6.565143231475000E9     2.149524163788770E-3    5.676924073884335E-1    4.020311533155599E-2   -7.030728506347995E-3    3.951116004023209E-2   -7.687702217040378E-3    1.128921127647730E-1    5.125862329464900E-1
 6.565157808550000E9     3.542216167848822E-3    5.677551357224863E-1    4.053457050050761E-2   -7.225996867641052E-3    3.979397372289385E-2   -7.873066141649156E-3    1.145258622846494E-1    5.122942024602388E-1
 6.565172385625000E9     4.789979130571438E-3    5.677173380508116E-1    4.081872978791211E-2   -7.459226645515524E-3    4.004063506319314E-2   -8.010093189876230E-3    1.158869217908167E-1    5.117634990511444E-1
 6.565186962700000E9     5.909561684182245E-3    5.676938125709141E-1    4.103260003784773E-2   -7.698463203523674E-3    4.038046638394981E-2   -8.316740250220960E-3    1.176671184627213E-1    5.114309382387829E-1
 6.565201539775000E9     7.290662773598456E-3    5.676329208679665E-1    4.134226391004104E-2   -7.797463430371384E-3    4.064628769098728E-2   -8.455717076242595E-3    1.191234292976599E-1    5.111190483446495E-1
 6.565216116850000E9     8.441479097007841E-3    5.674172283838845E-1    4.152449099278002E-2   -8.140160179283554E-3    4.092845701090798E-2   -8.741459404852903E-3    1.207466103031277E-1    5.106684972262193E-1
 6.565230693925000E9     9.843403096016326E-3    5.673735061176991E-1    4.197735858856475E-2   -8.323305141433429E-3    4.128280381551928E-2   -8.849784514966274E-3    1.221677665165866E-1    5.102512372941672E-1
 6.565245271000000E9     1.106292485530132E-2    5.674277080570402E-1    4.231513962490881E-2   -8.556271550109176E-3    4.160135541741610E-2   -9.042379601773546E-3    1.238446789585014E-1    5.097371966584181E-1
 6.565259848075000E9     1.221452323718612E-2    5.674183909664609E-1    4.260899934881646E-2   -8.804647474277838E-3    4.186798069532751E-2   -9.272216664759100E-3    1.253707569164971E-1    5.094597198433433E-1
 6.565274425150000E9     1.353461891785301E-2    5.672851518630108E-1    4.301389333317630E-2   -8.996963671831460E-3    4.222801879590367E-2   -9.426891796560293E-3    1.269496164538395E-1    5.090281795981531E-1
 6.565289002225000E9     1.483455874188501E-2    5.671042410749544E-1    4.324996694051837E-2   -9.207359729779763E-3    4.247457866158959E-2   -9.726711607021599E-3    1.285232174471825E-1    5.083943844542336E-1
 6.565303579300000E9     1.604953663274141E-2    5.670570576771575E-1    4.366406305706264E-2   -9.421138415287546E-3    4.285241808593848E-2   -9.945975368590675E-3    1.300357941348034E-1    5.079487404481863E-1
 6.565318156375000E9     1.727174915889397E-2    5.669343223934555E-1    4.383634972837024E-2   -9.594276883050208E-3    4.307270924367380E-2   -1.022823501551092E-2    1.317108151630620E-1    5.075197344982592E-1
 6.565332733450000E9     1.871375297358475E-2    5.668563719623444E-1    4.429945978142441E-2   -9.769422862272635E-3    4.345552425577352E-2   -1.033743844549741E-2    1.333767247288388E-1    5.069716099792402E-1
 6.565347310525000E9     1.993442102234130E-2    5.668132966571456E-1    4.450567186164727E-2   -1.000407181331410E-2    4.381405246658666E-2   -1.074397425979927E-2    1.350066207938744E-1    5.064106239773754E-1
 6.565361887600000E9     2.116421275303311E-2    5.667327021302128E-1    4.499998450210984E-2   -1.026490274318681E-2    4.410543197533249E-2   -1.100682248426742E-2    1.366488408420385E-1    5.060517333135426E-1
 6.565376464675000E9     2.239454775755632E-2    5.664814951788318E-1    4.527815430193772E-2   -1.053957179366041E-2    4.449157281970986E-2   -1.112977854086789E-2    1.382176980891709E-1    5.054156713554662E-1
 6.565391041750000E9     2.369356298777153E-2    5.664530241521781E-1    4.572565577490838E-2   -1.074067245275957E-2    4.487313310877832E-2   -1.137150899514606E-2    1.398877405446317E-1    5.049184949036402E-1
