#  HZ   S   RI   R     50.00 
! Rohde & Schwarz Vector Network Analyzer 
! Rohde-Schwarz,ZNB20-2Port,1311601062101988,3.16
! Created: UTC 3/20/2024, 5:15:00 PM
! freq[Hz]                re:S11                  im:S11                  re:S21                  im:S21                  re:S12                  im:S12                  re:S22                  im:S22
 6.564965489000000E9    -1.524974295480655E-2    5.688538717513684E-1    3.309145392108103E-2   -3.228333135894893E-3    3.264806130537096E-2   -3.651776730056752E-3    8.865643350052302E-2    5.199225152974359E-1
 6.564976908525000E9    -1.430045214292709E-2    5.688604613534225E-1    3.332376873563949E-2   -3.270866573994478E-3    3.264868546178070E-2   -3.729316227959888E-3    8.964544822734215E-2    5.198363752483481E-1
 6.564988328050000E9    -1.341054804890068E-2    5.688036442475021E-1    3.351469014345525E-2   -3.357507099914403E-3    3.302094001261328E-2   -3.839947034448898E-3    9.077064107862150E-2    5.195695511552055E-1
 6.564999747575000E9    -1.247362163360443E-2    5.688879267397804E-1    3.370818023158188E-2   -3.361817162309497E-3    3.307290631086968E-2   -3.928936062851481E-3    9.186840401845832E-2    5.193698886782858E-1
 6.565011167100000E9    -1.147283434547166E-2    5.689547905514072E-1    3.381936368318931E-2   -3.512689978343037E-3    3.321353365956616E-2   -3.991980993861446E-3    9.287559167160406E-2    5.192512346286898E-1
 6.565022586625000E9    -1.052161526434008E-2    5.689652866739201E-1    3.389501331178631E-2   -3.612552379149130E-3    3.336726922371536E-2   -4.061539195334242E-3    9.392980560534568E-2    5.190509378701768E-1
 6.565034006150000E9    -9.595848902612858E-3    5.689129600687932E-1    3.415612988081095E-2   -3.725073338398791E-3    3.354718742530325E-2   -4.108672590343033E-3    9.508241127202952E-2    5.188548030139345E-1
 6.565045425675000E9    -8.620020887993482E-3    5.689207483732402E-1    3.433454792378909E-2   -3.602763021706998E-3    3.375196940602609E-2   -4.235223958722356E-3    9.623008597340245E-2    5.186514334062501E-1
 6.565056845200000E9    -7.828896139648236E-3    5.689027783574585E-1    3.449427151786035E-2   -3.715567535051198E-3    3.399734163769570E-2   -4.358433795355273E-3    9.704143698302989E-2    5.184885884083976E-1
 6.565068264725000E9    -6.795907562261693E-3    5.690044296873276E-1    3.471826875637512E-2   -3.965439122248199E-3    3.406089911664942E-2   -4.514171775573966E-3    9.835014656490322E-2    5.182940644075532E-1
 6.565079684250000E9    -5.835473368591332E-3    5.687778825456226E-1    3.469760103586887E-2   -3.946856530048629E-3    3.429931181908907E-2   -4.497949666265750E-3    9.946694706446198E-2    5.178456320644250E-1
 6.565091103775000E9    -4.909979259766302E-3    5.688442125716847E-1    3.498206454786598E-2   -4.148171774698005E-3    3.444434297052692E-2   -4.669327557947764E-3    1.005079102579381E-1    5.179283053960554E-1
 6.565102523300000E9    -3.996468937687200E-3    5.689385311137766E-1    3.512656244976799E-2   -4.093060910359474E-3    3.466003231769890E-2   -4.784394559002643E-3    1.015984205611347E-1    5.177529249224311E-1
 6.565113942825000E9    -2.985011604438097E-3    5.689162481472774E-1    3.548887148001209E-2   -4.248577744136430E-3    3.473484770437010E-2   -4.963129487444150E-3    1.027893979882383E-1    5.173987229209578E-1
 6.565125362350000E9    -1.972790769915413E-3    5.689259061924314E-1    3.554489821836682E-2   -4.317819106398938E-3    3.489790552758724E-2   -4.926978171159085E-3    1.038415964199410E-1    5.172330448204449E-1
 6.565136781875000E9    -1.254216629938518E-3    5.687871653103832E-1    3.567662199264711E-2   -4.586319197818627E-3    3.507887260058089E-2   -5.026943061706006E-3    1.049214294807854E-1    5.171016097252953E-1
 6.565148201400000E9    -2.114870153751794E-4    5.688142546247095E-1    3.575500956862138E-2   -4.688597883468600E-3    3.524524044731822E-2   -5.206856054190008E-3    1.061101933808350E-1    5.168958651571914E-1
 6.565159620925000E9     6.811824951843061E-4    5.689159651168589E-1    3.605343189805284E-2   -4.838006864325175E-3    3.553091108938392E-2   -5.175796864995064E-3    1.071668655818234E-1    5.165842837263683E-1
 6.565171040450000E9     1.834694920445037E-3    5.687617693104470E-1    3.642123795836929E-2   -4.808608675745668E-3    3.574281164750963E-2   -5.440764358485563E-3    1.084034271345741E-1    5.164962212324506E-1
 6.565182459975000E9     2.700294884395891E-3    5.687203950414730E-1    3.653222506847405E-2   -4.855689518387708E-3    3.589142632780769E-2   -5.493878170170329E-3    1.095070957022011E-1    5.163203272353568E-1
 6.565193879500000E9     3.648453948183018E-3    5.687016151091934E-1    3.670825226841757E-2   -5.061180448085885E-3    3.591387275638246E-2   -5.555470379832276E-3    1.105186019688542E-1    5.159985377821550E-1
 6.565205299025000E9     4.592194670533282E-3    5.687144255792399E-1    3.686003367292657E-2   -5.234923067821023E-3    3.620631117741456E-2   -5.750741457303414E-3    1.117387110052186E-1    5.157410748164828E-1
 6.565216718550000E9     5.533949615506022E-3    5.687055659953919E-1    3.707304294928223E-2   -5.093637105387302E-3    3.649459116158670E-2   -5.733615036302423E-3    1.127850246905715E-1    5.155194311155582E-1
 6.565228138075000E9     6.441125563390868E-3    5.687077045709982E-1    3.734142530184144E-2   -5.405638735349804E-3    3.662594973149475E-2   -5.956312978216521E-3    1.140273727362433E-1    5.152683846067265E-1
 6.565239557600000E9     7.398767214914600E-3    5.686456250470465E-1    3.735817250166158E-2   -5.481121230452586E-3    3.683963016644461E-2   -6.098997665230694E-3    1.149843250862804E-1    5.149306295461836E-1
 6.565250977125000E9     8.342676250562269E-3    5.686204901103743E-1    3.771342478719686E-2   -5.573773761714721E-3    3.707653378902927E-2   -6.078574860821144E-3    1.161919329806141E-1    5.147709901982264E-1
 6.565262396650000E9     9.360704301290209E-3    5.686560043593830E-1    3.784582621103840E-2   -5.682581924860003E-3    3.720006163217340E-2   -6.206614007700103E-3    1.173320308840127E-1    5.143943307275786E-1
 6.565273816175000E9     1.039756518840919E-2    5.686232578226952E-1    3.805415071078746E-2   -5.740856060793021E-3    3.742647199771071E-2   -6.353466436633902E-3    1.184423551031356E-1    5.142170555988164E-1
 6.565285235700000E9     1.125947597057919E-2    5.684868094999744E-1    3.816149416025374E-2   -5.967196177712349E-3    3.756486470457736E-2   -6.486298299248420E-3    1.197025328710096E-1    5.138277437622853E-1
 6.565296655225000E9     1.227886650178928E-2    5.685553764438481E-1    3.831771642936822E-2   -6.154863485933751E-3    3.793696346328028E-2   -6.579859071392066E-3    1.207386218581453E-1    5.136808583974370E-1
 6.565308074750000E9     1.318431226095745E-2    5.684977549731681E-1    3.855175973688110E-2   -6.234571643524334E-3    3.807167921982176E-2   -6.650150592634190E-3    1.220593712894486E-1    5.134631686148666E-1
 6.565319494275000E9     1.423883197925342E-2    5.683715680606353E-1    3.883096199374594E-2   -6.315551361623401E-3    3.824247561011129E-2   -6.856851631664706E-3    1.232704363586828E-1    5.130437978952503E-1
 6.565330913800000E9     1.523839105228910E-2    5.683483622390763E-1    3.892400134365068E-2   -6.438164124859974E-3    3.842259416791184E-2   -6.900434062593597E-3    1.242100721544633E-1    5.128906027843093E-1
 6.565342333325000E9     1.608037549893562E-2    5.683756377069261E-1    3.929155411933474E-2   -6.483876116821457E-3    3.861006134334354E-2   -7.216538172217856E-3    1.254381751667490E-1    5.124113739858739E-1
 6.565353752850000E9     1.701623065229763E-2    5.683344830172314E-1    3.942170418903067E-2   -6.560358828580248E-3    3.884836469284339E-2   -7.238402345682736E-3    1.267764667174677E-1    5.122960665150084E-1
 6.565365172375000E9     1.808211394178508E-2    5.683021358316872E-1    3.982741864851282E-2   -6.782162028639139E-3    3.907195032123413E-2   -7.360861685839714E-3    1.278166734699234E-1    5.120238507190656E-1
 6.565376591900000E9     1.903444282463272E-2    5.681817945831515E-1    3.990717027426137E-2   -6.905671409005081E-3    3.924905380109583E-2   -7.412719865851678E-3    1.290611395314833E-1    5.115708385083951E-1
 6.565388011425000E9     2.005052464257269E-2    5.680902330718900E-1    4.021777869130803E-2   -7.011515132305653E-3    3.948557369593315E-2   -7.609925556864458E-3    1.302642642594858E-1    5.114582411599583E-1
 6.565399430950000E9     2.092782091032554E-2    5.680491843191475E-1    4.045473165161187E-2   -7.181431792343386E-3    3.972962489605089E-2   -7.752911362444544E-3    1.314416996997439E-1    5.111795372859161E-1
 6.565410850475000E9     2.201620448262538E-2    5.680447572200805E-1    4.062216228550667E-2   -7.332103304416670E-3    4.002903062396714E-2   -7.900118350014324E-3    1.327761353060002E-1    5.107283267120358E-1
 6.565422270000000E9     2.294871713510541E-2    5.678661916724842E-1    4.086761521369218E-2   -7.297017859467659E-3    4.015857796986629E-2   -7.968390781075885E-3    1.338368655665268E-1    5.104896234882721E-1
 6.565433689525000E9     2.386703734766469E-2    5.678333927456296E-1    4.108386080821965E-2   -7.703526826868783E-3    4.048641674436716E-2   -8.167347210137734E-3    1.350842565582281E-1    5.100120187811656E-1
 6.565445109050000E9     2.487005380937735E-2    5.678142913981142E-1    4.132140086229096E-2   -7.838570512173772E-3    4.063430331262805E-2   -8.377756704675865E-3    1.362902826367116E-1    5.098099312607792E-1
 6.565456528575000E9     2.578256432303318E-2    5.676517783858643E-1    4.154613635533472E-2   -7.863058862858726E-3    4.081446650126602E-2   -8.577052251238322E-3    1.374344010399374E-1    5.095849740304677E-1
 6.565467948100000E9     2.698307523317057E-2    5.676630708362997E-1    4.171921846432502E-2   -8.078473962375113E-3    4.105757624120360E-2   -8.591905953733985E-3    1.388150840398074E-1    5.092819254810681E-1
 6.565479367625000E9     2.776744041447687E-2    5.676420022802503E-1    4.194725989629997E-2   -8.131567046232460E-3    4.140895285879024E-2   -8.771453016249865E-3    1.399083526265748E-1    5.087007696027124E-1
 6.565490787150000E9     2.882797166407442E-2    5.675549025355298E-1    4.220364038849988E-2   -8.272266642074210E-3    4.162849744844752E-2   -8.919495825135926E-3    1.411131740934933E-1    5.084629518405656E-1
 6.565502206675000E9     2.987294689196852E-2    5.674215403648302E-1    4.256243144300347E-2   -8.615166543756053E-3    4.184691140042466E-2   -8.998301678330727E-3    1.425349568864253E-1    5.079794218350103E-1
 6.565513626200000E9     3.071864519613670E-2    5.674612780412914E-1    4.275850728698061E-2   -8.631700265443729E-3    4.211917236942035E-2   -9.185729782981067E-3    1.436009657540619E-1    5.076770553212130E-1
 6.565525045725000E9     3.180143675310754E-2    5.673218035532787E-1    4.305954164916713E-2   -8.894923577323103E-3    4.237434651605367E-2   -9.399457528402419E-3    1.450000986453054E-1    5.074498246241682E-1
 6.565536465250000E9     3.277248582141966E-2    5.671680758219206E-1    4.327423819842958E-2   -9.017342349048709E-3    4.266095621239856E-2   -9.522905213185304E-3    1.461230547169079E-1    5.070188510278473E-1
 6.565547884775000E9     3.375619849325338E-2    5.670986592061527E-1    4.363464710379108E-2   -9.080483970066472E-3    4.291875430750266E-2   -9.696794589822619E-3    1.474743542188005E-1    5.067087581194967E-1
 6.565559304300000E9     3.479592908317418E-2    5.670402732986730E-1    4.389520921214822E-2   -9.424490660333929E-3    4.314156583199207E-2   -9.919802531637274E-3    1.488024643969897E-1    5.061826214334558E-1
 6.565570723825000E9     3.565989574081244E-2    5.669514386544827E-1    4.403799834757137E-2   -9.559397883145299E-3    4.345251232226569E-2   -1.006995985826664E-2    1.500638807624860E-1    5.057089599752418E-1
 6.565582143350000E9     3.680208771710149E-2    5.668552871428902E-1    4.441169446641269E-2   -9.661005040789228E-3    4.372746916433879E-2   -1.029440213243082E-2    1.510941941756388E-1    5.054180129593767E-1
 6.565593562875000E9     3.779062805886219E-2    5.666821008361422E-1    4.476152737389117E-2   -9.837766847921160E-3    4.399880436540143E-2   -1.037059968908179E-2    1.524873707625967E-1    5.050848696266949E-1
 6.565604982400000E9     3.887591605255830E-2    5.667025350576302E-1    4.511536131015899E-2   -1.013896102815558E-2    4.423705525375028E-2   -1.055431333625817E-2    1.538930770913873E-1    5.046028656846132E-1
 6.565616401925000E9     3.987645242004764E-2    5.664703341826717E-1    4.528548033228372E-2   -1.007200939846347E-2    4.454026854697819E-2   -1.075505876519161E-2    1.552650893901921E-1    5.041279530684822E-1
 6.565627821450000E9     4.090077255491287E-2    5.664312037291855E-1    4.547351050847716E-2   -1.044836356391790E-2    4.471439108239948E-2   -1.094265149270542E-2    1.563444388340919E-1    5.038752276902358E-1
 6.565639240975000E9     4.173582614502155E-2    5.663012419637335E-1    4.575702112766142E-2   -1.058708820271119E-2    4.513819829850681E-2   -1.122095082498466E-2    1.577515638028923E-1    5.033802832191921E-1
 6.565650660500000E9     4.283659118501977E-2    5.662314238145445E-1    4.609934466331967E-2   -1.072622494088186E-2    4.545063471070664E-2   -1.115847061249866E-2    1.591997981171693E-1    5.029832719232435E-1
 6.565662080025000E9     4.382817797242294E-2    5.660031125412803E-1    4.643409740739064E-2   -1.092126952010027E-2    4.558885272864088E-2   -1.158138543230943E-2    1.604432347078079E-1    5.024707304455928E-1
 6.565673499550000E9     4.480463629376837E-2    5.659532819847618E-1    4.665693916451262E-2   -1.123378011798449E-2    4.595205888149947E-2   -1.170295527101118E-2    1.616571689108562E-1    5.019859484966106E-1
 6.565684919075000E9     4.585522561922145E-2    5.657733370334388E-1    4.703569372486992E-2   -1.142958921774304E-2    4.616100137767107E-2   -1.184141534117751E-2    1.630983306479520E-1    5.015778524205686E-1
 6.565696338600000E9     4.693289570202724E-2    5.657192909949059E-1    4.733430189192488E-2   -1.143978043997362E-2    4.658149233049621E-2   -1.219570532581054E-2    1.642999377452871E-1    5.011334296416943E-1
 6.565707758125000E9     4.781523664883760E-2    5.655341479334114E-1    4.745030229529200E-2   -1.171430286948374E-2    4.690867357472108E-2   -1.231979079649705E-2    1.656950846476098E-1    5.007354759686800E-1
 6.565719177650000E9     4.875543421414850E-2    5.653673789792437E-1    4.776745995444018E-2   -1.182846152038534E-2    4.719125264104617E-2   -1.254040203443908E-2    1.672106934963684E-1    5.000534191357077E-1
 6.565730597175000E9     4.995019765666282E-2    5.653151167373422E-1    4.834870871641651E-2   -1.225106518454908E-2    4.743805762048941E-2   -1.282317103925448E-2    1.685494117005458E-1    4.997166763398481E-1
 6.565742016700000E9     5.090213236935250E-2    5.651850338995394E-1    4.864320331002267E-2   -1.237249226356432E-2    4.788898044161797E-2   -1.291272485136815E-2    1.698936248182724E-1    4.991112734399700E-1
 6.565753436225000E9     5.193792620116203E-2    5.650607554887940E-1    4.879702520483018E-2   -1.251284259785889E-2    4.809492281194841E-2   -1.335170328676615E-2    1.712594834465401E-1    4.986530909956404E-1
 6.565764855750000E9     5.300523593711925E-2    5.648066562861876E-1    4.912276118109174E-2   -1.284632753803881E-2    4.845225259802730E-2   -1.347711256111057E-2    1.726347470635495E-1    4.982763337179636E-1
 6.565776275275000E9     5.410191929964820E-2    5.647261397136026E-1    4.973059897634705E-2   -1.314624724967971E-2    4.876853061708954E-2   -1.371372012537026E-2    1.740446055032259E-1    4.978199335959447E-1
 6.565787694800000E9     5.512213425289143E-2    5.645503267670424E-1    4.996812983372605E-2   -1.335552733652677E-2    4.910845007162535E-2   -1.388975716524110E-2    1.754209379821423E-1    4.971126929478040E-1
 6.565799114325000E9     5.616863699051679E-2    5.644156137190121E-1    5.039207888962983E-2   -1.350152106390997E-2    4.954016015170640E-2   -1.414195374560038E-2    1.768777056533603E-1    4.965049287215448E-1
 6.565810533850000E9     5.718327159152024E-2    5.642861715372919E-1    5.060654732153445E-2   -1.374760915299955E-2    4.986750653755721E-2   -1.439071600898346E-2    1.782964107882817E-1    4.959952958134062E-1
 6.565821953375000E9     5.825109129706914E-2    5.641275095872432E-1    5.104566100350186E-2   -1.404531987213075E-2    5.020443462038394E-2   -1.468948266745547E-2    1.797427604101596E-1    4.953841394079080E-1
 6.565833372900000E9     5.934057627825440E-2    5.639357532592937E-1    5.137729245833675E-2   -1.430610735884694E-2    5.056165884308131E-2   -1.503133043600630E-2    1.810164048611022E-1    4.950626129056984E-1
 6.565844792425000E9     6.035654346915605E-2    5.637600694338000E-1    5.166641886946562E-2   -1.468070768974469E-2    5.086656877014189E-2   -1.521326445700713E-2    1.825620024958457E-1    4.942609815544559E-1
 6.565856211950000E9     6.144114794238421E-2    5.636109084800842E-1    5.215185760653470E-2   -1.477269140032228E-2    5.129120055181363E-2   -1.538886304074379E-2    1.841873568592831E-1    4.937432627322679E-1
 6.565867631475000E9     6.245258070309931E-2    5.634697107544144E-1    5.234325961503726E-2   -1.512031317638659E-2    5.162197696200048E-2   -1.566520859827982E-2    1.853921951160040E-1    4.930598189392194E-1
 6.565879051000000E9     6.350327251210550E-2    5.632878110330726E-1    5.290090040753691E-2   -1.543090616912705E-2    5.194656024735148E-2   -1.601687991882879E-2    1.869461884397550E-1    4.924332231741975E-1
 6.565890470525000E9     6.470575626130130E-2    5.630845165234871E-1    5.328905360390379E-2   -1.557964998688357E-2    5.248179826054210E-2   -1.624721772875998E-2    1.884480874822564E-1    4.916900924224352E-1
 6.565901890050000E9     6.563002412767038E-2    5.628232242437572E-1    5.357463703722407E-2   -1.601246833489484E-2    5.284720621983198E-2   -1.655932149393851E-2    1.901178008566013E-1    4.912378032259066E-1
 6.565913309575000E9     6.671750051007323E-2    5.626342826667969E-1    5.406858104384035E-2   -1.623530360356363E-2    5.317172787241654E-2   -1.686763884197879E-2    1.914211993370031E-1    4.905259014359234E-1
 6.565924729100000E9     6.780894981933952E-2    5.624064807066336E-1    5.443884919340767E-2   -1.641670001891493E-2    5.360505454634217E-2   -1.716666191452707E-2    1.930213091916209E-1    4.899082051637572E-1
 6.565936148625000E9     6.883680506533869E-2    5.622294987274818E-1    5.482172441876607E-2   -1.687468903848299E-2    5.396125642445151E-2   -1.748881980502297E-2    1.945066490150174E-1    4.892085505037140E-1
 6.565947568150000E9     7.008018479937955E-2    5.620259275333274E-1    5.520107869210104E-2   -1.717914148411950E-2    5.444095755838760E-2   -1.780289516791221E-2    1.960792224164112E-1    4.885625091991710E-1
 6.565958987675000E9     7.106605848841908E-2    5.618461570074811E-1    5.557276788579759E-2   -1.754139597259426E-2    5.483868312105268E-2   -1.803652620991222E-2    1.976213147890072E-1    4.878940533110480E-1
 6.565970407200000E9     7.211617851260456E-2    5.614923153707957E-1    5.631827217377679E-2   -1.769838067463175E-2    5.523749034746013E-2   -1.843740397946892E-2    1.991759433844877E-1    4.871198723959781E-1
 6.565981826725000E9     7.317968546697876E-2    5.614228379634494E-1    5.662224819034316E-2   -1.805909044821253E-2    5.565953215988566E-2   -1.878212750703878E-2    2.007371393283382E-1    4.864228423116784E-1
 6.565993246250000E9     7.434856866767060E-2    5.612125602406413E-1    5.696287477081976E-2   -1.839675409611151E-2    5.613913516563637E-2   -1.911385383988662E-2    2.023347298101402E-1    4.856797403559431E-1
