#  HZ   S   RI   R     50.00 
! Rohde & Schwarz Vector Network Analyzer 
! Rohde-Schwarz,ZNB20-2Port,1311601062101988,3.16
! Created: UTC 3/20/2024, 4:49:41 PM
! freq[Hz]                re:S11                  im:S11                  re:S21                  im:S21                  re:S12                  im:S12                  re:S22                  im:S22
 6.564813767000000E9    -2.593227985406269E-2    5.688392087757487E-1    3.286291231857198E-2   -2.486287091664436E-3    3.223678348937149E-2   -3.102146749431630E-3    7.911502504450083E-2    5.240199795725484E-1
 6.564825371600000E9    -2.499576353198112E-2    5.688176483445256E-1    3.302078331442582E-2   -2.784100734790837E-3    3.243749576379218E-2   -3.231998335465901E-3    8.030546237647605E-2    5.237655458631564E-1
 6.564836976200000E9    -2.402952886769839E-2    5.689979664031192E-1    3.327445046468881E-2   -2.688547661927063E-3    3.252521087298851E-2   -3.254213868073224E-3    8.137559414316263E-2    5.236706075735619E-1
 6.564848580800000E9    -2.310600591865659E-2    5.689313636899382E-1    3.328936744215709E-2   -2.848996213687735E-3    3.264763522937179E-2   -3.406136208349827E-3    8.239523810122795E-2    5.235264729089659E-1
 6.564860185400000E9    -2.220299830560344E-2    5.690402491920532E-1    3.341104892159389E-2   -2.990021048653640E-3    3.289576234689703E-2   -3.438041042548847E-3    8.353150136477520E-2    5.234229937755310E-1
 6.564871790000000E9    -2.118169914904832E-2    5.689937196643086E-1    3.360275064404458E-2   -3.009725143230114E-3    3.316276034989244E-2   -3.494463268685921E-3    8.465212752190698E-2    5.232602782248913E-1
 6.564883394600000E9    -2.031028678519459E-2    5.691496899076988E-1    3.373560604078944E-2   -3.038757909353703E-3    3.319260174993267E-2   -3.661390932037603E-3    8.581716788193414E-2    5.231533823381805E-1
 6.564894999200000E9    -1.932651614846065E-2    5.690030477591100E-1    3.394800557507194E-2   -3.222451422281329E-3    3.333955930972805E-2   -3.648174455125633E-3    8.682755538376410E-2    5.228800414957073E-1
 6.564906603800000E9    -1.835072328629964E-2    5.691596949334311E-1    3.411239763596354E-2   -3.147319115080845E-3    3.358523434544040E-2   -3.795509031382561E-3    8.807661651721407E-2    5.227149652322148E-1
 6.564918208400000E9    -1.730998199216563E-2    5.691597655780807E-1    3.427963004796869E-2   -3.405246022623654E-3    3.371195333874711E-2   -3.846664088537982E-3    8.914514872209545E-2    5.224980559013567E-1
 6.564929813000000E9    -1.638612541521801E-2    5.691325709363217E-1    3.445679397957280E-2   -3.489788815624069E-3    3.389331518184762E-2   -4.016857918319072E-3    9.020394200266955E-2    5.222699988536829E-1
 6.564941417600000E9    -1.557291530206436E-2    5.690990826522837E-1    3.460560135092413E-2   -3.600284032294647E-3    3.405854239276929E-2   -3.987540603980011E-3    9.129404270722895E-2    5.221751994485895E-1
 6.564953022200000E9    -1.454110786667675E-2    5.691366335035135E-1    3.486912205260439E-2   -3.544562306574537E-3    3.418547536964058E-2   -4.117600527998790E-3    9.234788136357291E-2    5.221075127997874E-1
 6.564964626800000E9    -1.352826362517337E-2    5.691771912273829E-1    3.498914471788762E-2   -3.663285314754538E-3    3.436239681430280E-2   -4.259527433804239E-3    9.350950840394608E-2    5.217583475293486E-1
 6.564976231400000E9    -1.265576284963854E-2    5.690922257214213E-1    3.520517992309709E-2   -3.881513333316471E-3    3.461445560234513E-2   -4.317039162446847E-3    9.450921772508715E-2    5.216170883598397E-1
 6.564987836000000E9    -1.164921422679402E-2    5.692035581641999E-1    3.533515081551158E-2   -3.738240512679621E-3    3.471632235152276E-2   -4.463220231549586E-3    9.580879822828378E-2    5.212415177422404E-1
 6.564999440600000E9    -1.065367968130528E-2    5.691991727306068E-1    3.537771344077043E-2   -3.912266841303884E-3    3.491076558461639E-2   -4.567593391430082E-3    9.682982085217086E-2    5.211981784450453E-1
 6.565011045200000E9    -9.769361530251207E-3    5.691168343775321E-1    3.576344872398643E-2   -4.202944979514245E-3    3.506002749401970E-2   -4.542629420038173E-3    9.808959542262080E-2    5.210001642671227E-1
 6.565022649800000E9    -8.885535867588171E-3    5.692196375829660E-1    3.594801695200351E-2   -4.138829616769587E-3    3.530440145232575E-2   -4.735677258264218E-3    9.919031979483522E-2    5.207456316890622E-1
 6.565034254400000E9    -7.857837154316925E-3    5.691375388149991E-1    3.604123360180923E-2   -4.197827521522595E-3    3.547966893309835E-2   -4.853930007161963E-3    1.002546193372416E-1    5.206451347362109E-1
 6.565045859000000E9    -6.896847329230056E-3    5.691226806365144E-1    3.635914769263224E-2   -4.565746083537793E-3    3.559867218301970E-2   -4.975166748156123E-3    1.014697673133869E-1    5.202702372205865E-1
 6.565057463600000E9    -5.968146297495428E-3    5.692162956814767E-1    3.639718315333421E-2   -4.476494902027443E-3    3.580766476028235E-2   -4.999085951824831E-3    1.026321209476235E-1    5.201486443057145E-1
 6.565069068200000E9    -4.859728449282822E-3    5.691920221836867E-1    3.656143735823632E-2   -4.556355977638796E-3    3.606320897440615E-2   -5.107186302418653E-3    1.037968942440148E-1    5.198657733079939E-1
 6.565080672800000E9    -3.981745851767862E-3    5.690816027128759E-1    3.690382219006860E-2   -4.778151492380003E-3    3.619164462090498E-2   -5.239419939440802E-3    1.049467499797089E-1    5.196214074827080E-1
 6.565092277400000E9    -2.964254094804484E-3    5.692998073178309E-1    3.705345335088209E-2   -4.831283540335316E-3    3.650105482038098E-2   -5.309872616659867E-3    1.060301576295109E-1    5.193459121065990E-1
 6.565103882000000E9    -2.040070973908775E-3    5.691696699144565E-1    3.719204266961101E-2   -4.978019262114677E-3    3.653968111656847E-2   -5.514255643758355E-3    1.072092984843068E-1    5.191823717503152E-1
 6.565115486600000E9    -1.126363802216595E-3    5.690856464722912E-1    3.738218653245309E-2   -5.188308917561763E-3    3.681224843232592E-2   -5.620641143629729E-3    1.083864923776196E-1    5.189658647150029E-1
 6.565127091200000E9    -9.729341428474176E-5    5.691536708584609E-1    3.776626463488032E-2   -5.213880466137670E-3    3.696025456823684E-2   -5.750104671172559E-3    1.094006138795350E-1    5.187721964087697E-1
 6.565138695800000E9     8.719433725131401E-4    5.691717911949093E-1    3.785365702872068E-2   -5.291319947631576E-3    3.722499461004097E-2   -5.768230653906284E-3    1.108283436592542E-1    5.183909589748942E-1
 6.565150300400000E9     1.879373176882125E-3    5.690949799113892E-1    3.813872911603913E-2   -5.256630233571149E-3    3.743014513159828E-2   -5.862190016930505E-3    1.119280357744622E-1    5.181993129412757E-1
 6.565161905000000E9     2.932404515686749E-3    5.690642619988924E-1    3.823909267767048E-2   -5.507813237825287E-3    3.765484990605014E-2   -6.165592320532005E-3    1.131564556807336E-1    5.178810273526776E-1
 6.565173509600000E9     3.919346981992957E-3    5.689529577803586E-1    3.854286261578265E-2   -5.650716450904094E-3    3.776765471638889E-2   -6.121666915218510E-3    1.142268327180807E-1    5.177052220017891E-1
 6.565185114200000E9     4.831790398105245E-3    5.689771088056881E-1    3.874606254537220E-2   -5.824983411580765E-3    3.799718311068008E-2   -6.332734161203741E-3    1.154061128743060E-1    5.172919965291415E-1
 6.565196718800000E9     5.817308297188545E-3    5.689814275413879E-1    3.883994874355753E-2   -5.856114500591328E-3    3.824682870095607E-2   -6.329867058435748E-3    1.165920208512542E-1    5.172476569156328E-1
 6.565208323400000E9     6.783914987758074E-3    5.689969462572697E-1    3.909419883388722E-2   -5.986281425503481E-3    3.848058551016079E-2   -6.588613299409329E-3    1.180738410418390E-1    5.168750177275266E-1
 6.565219928000000E9     7.797651692239348E-3    5.689354479112333E-1    3.925348915372567E-2   -6.085404056669769E-3    3.860632945806819E-2   -6.631373315428684E-3    1.189919191953234E-1    5.167108800075005E-1
 6.565231532600000E9     8.712330793114976E-3    5.689103050792560E-1    3.945139829969374E-2   -6.259133475014394E-3    3.890640543693787E-2   -6.820185329838326E-3    1.203068594632638E-1    5.162900154779047E-1
 6.565243137200000E9     9.941157528418985E-3    5.687472462276491E-1    3.966240757188956E-2   -6.391855908215764E-3    3.914693956303523E-2   -6.889558099522638E-3    1.214287607293686E-1    5.161295942000266E-1
 6.565254741800000E9     1.083910170493867E-2    5.687493249678434E-1    3.994743966656842E-2   -6.593918497249478E-3    3.927160448256048E-2   -6.958810839088017E-3    1.225869269301328E-1    5.157070275035182E-1
 6.565266346400000E9     1.174440867466772E-2    5.687372000640949E-1    4.032236335280206E-2   -6.601649710279627E-3    3.960720473229061E-2   -7.203610421814183E-3    1.238502383899680E-1    5.154569335509227E-1
 6.565277951000000E9     1.272543477003807E-2    5.687480467702131E-1    4.053698923092958E-2   -6.797817646787900E-3    3.975205965589845E-2   -7.426400487101564E-3    1.249898648674318E-1    5.149608971129898E-1
 6.565289555600000E9     1.380252523288850E-2    5.686474716512228E-1    4.070628400829712E-2   -6.935183778820489E-3    4.003674683764857E-2   -7.461836624607990E-3    1.262663026167443E-1    5.150184456296465E-1
 6.565301160200000E9     1.467102112328868E-2    5.685824120782280E-1    4.102359881960420E-2   -7.027050423664066E-3    4.027726865107671E-2   -7.677380283537294E-3    1.275007382860635E-1    5.146096431927856E-1
 6.565312764800000E9     1.578123637537578E-2    5.685729705210666E-1    4.116176578164376E-2   -7.178962260611192E-3    4.054611393879669E-2   -7.693897790842463E-3    1.289377006950829E-1    5.142347458027851E-1
 6.565324369400000E9     1.661544006383212E-2    5.684692292661164E-1    4.138198400276735E-2   -7.250916591053933E-3    4.069327975712325E-2   -7.963573912454475E-3    1.300030392990231E-1    5.138864501548928E-1
 6.565335974000000E9     1.760579365777310E-2    5.684632506781184E-1    4.165802288615636E-2   -7.523124214265765E-3    4.100369982580025E-2   -8.039529498165223E-3    1.312757160021816E-1    5.135006315606572E-1
 6.565347578600000E9     1.869124278682797E-2    5.683296502532669E-1    4.183477365733801E-2   -7.629831839480342E-3    4.117621317222760E-2   -8.134823608627374E-3    1.324738176645895E-1    5.132083288918268E-1
 6.565359183200000E9     1.972568782036130E-2    5.683186764435065E-1    4.216018649265443E-2   -7.922625613603268E-3    4.143202127178804E-2   -8.339492624138519E-3    1.338372546339663E-1    5.127976305749250E-1
 6.565370787800000E9     2.072036893293292E-2    5.683454635205978E-1    4.242067372996580E-2   -7.847489361078095E-3    4.180240312729335E-2   -8.490899005256479E-3    1.349718558371451E-1    5.126077479538560E-1
 6.565382392400000E9     2.168903673295793E-2    5.682395324424669E-1    4.272956459733005E-2   -8.074843385978771E-3    4.200165192070109E-2   -8.626672412482671E-3    1.363566620477316E-1    5.122522220949420E-1
 6.565393997000000E9     2.271174814917688E-2    5.681322813956639E-1    4.284925691252358E-2   -8.159387436547981E-3    4.215942848648906E-2   -8.849324025397785E-3    1.375832638116718E-1    5.118610748669737E-1
 6.565405601600000E9     2.369149381318826E-2    5.680321839687531E-1    4.315461490278813E-2   -8.308336300485527E-3    4.260792749862258E-2   -8.924052455985394E-3    1.389024396754584E-1    5.115381180527374E-1
 6.565417206200000E9     2.463627988807455E-2    5.679143400194688E-1    4.333326047779573E-2   -8.461955290991131E-3    4.275737090769576E-2   -9.125964159787258E-3    1.401570117187903E-1    5.111965804971744E-1
 6.565428810800000E9     2.582341945502871E-2    5.679389653354655E-1    4.375577892883907E-2   -8.623620354186429E-3    4.300355816610645E-2   -9.324784089324568E-3    1.414614840410208E-1    5.107067385213012E-1
 6.565440415400000E9     2.669137962889267E-2    5.679505156375825E-1    4.401378942059129E-2   -8.949722745197725E-3    4.326252602924912E-2   -9.455565240956594E-3    1.427355429702843E-1    5.104645284394698E-1
 6.565452020000000E9     2.777495832928352E-2    5.677357869402659E-1    4.419007928299330E-2   -9.049627020377322E-3    4.357888980231544E-2   -9.684367024167265E-3    1.440572715907785E-1    5.100360405857847E-1
 6.565463624600000E9     2.884088039380734E-2    5.676966217656677E-1    4.466069472193536E-2   -9.240364322327920E-3    4.377293755047447E-2   -9.788414748817391E-3    1.452454987160959E-1    5.096171690198287E-1
 6.565475229200000E9     2.981290074992422E-2    5.676878270887656E-1    4.490790462429321E-2   -9.445300321606658E-3    4.402872939853437E-2   -1.003833964195479E-2    1.467451377797390E-1    5.090801987210698E-1
 6.565486833800000E9     3.085737166596605E-2    5.675492097511009E-1    4.498405198248550E-2   -9.546030538379466E-3    4.436625950602949E-2   -1.023712621637894E-2    1.480634464997582E-1    5.088853589000378E-1
 6.565498438400000E9     3.189032199587490E-2    5.674469525123265E-1    4.538276896174831E-2   -9.779954595023109E-3    4.466674830918387E-2   -1.036278475985414E-2    1.491523695588378E-1    5.084438631386301E-1
 6.565510043000000E9     3.278495508872268E-2    5.673782462317051E-1    4.561475707621353E-2   -1.015303559765024E-2    4.487286845460524E-2   -1.044287973837760E-2    1.505582598349852E-1    5.080507124265320E-1
 6.565521647600000E9     3.391361831734297E-2    5.672040202762800E-1    4.594267842791122E-2   -1.016371786187635E-2    4.509446704947927E-2   -1.076534280403751E-2    1.520533701629300E-1    5.074403619458361E-1
 6.565533252200000E9     3.505190507325227E-2    5.671099964799722E-1    4.621187697451411E-2   -1.041271862367908E-2    4.558407379792056E-2   -1.093792685258648E-2    1.533139414788142E-1    5.071439138918609E-1
 6.565544856800000E9     3.600102738514380E-2    5.670208128265070E-1    4.669349225006526E-2   -1.053062370773869E-2    4.587359679382550E-2   -1.114277566255071E-2    1.546659219869941E-1    5.067227744149477E-1
 6.565556461400000E9     3.700838062394907E-2    5.669502682075792E-1    4.690587278926481E-2   -1.064177671065544E-2    4.608293135268822E-2   -1.140303397256764E-2    1.561125027700875E-1    5.062662272560198E-1
 6.565568066000000E9     3.809300817137145E-2    5.667988868593153E-1    4.724787129992347E-2   -1.096642417032703E-2    4.644704284971315E-2   -1.162805725424979E-2    1.574889439339557E-1    5.057478002176886E-1
 6.565579670600000E9     3.905743821164372E-2    5.666607970319494E-1    4.749544844038189E-2   -1.122523504183794E-2    4.675581937494436E-2   -1.186851503955605E-2    1.587319711354269E-1    5.052973871551546E-1
 6.565591275200000E9     4.004217164273077E-2    5.665086209499436E-1    4.775915162707475E-2   -1.135412467357398E-2    4.712733031904205E-2   -1.199874021386632E-2    1.601071566610156E-1    5.048412404495805E-1
 6.565602879800000E9     4.109941130353333E-2    5.664262495765643E-1    4.813349692506467E-2   -1.160269315785559E-2    4.746889978370479E-2   -1.224326913380932E-2    1.615220490386818E-1    5.044503255002710E-1
 6.565614484400000E9     4.220191706901896E-2    5.662870487799050E-1    4.847965020052450E-2   -1.173057911703117E-2    4.776335551597950E-2   -1.231490700060908E-2    1.628570559690757E-1    5.038264860599052E-1
 6.565626089000000E9     4.327074470126619E-2    5.661651152944169E-1    4.885394848524808E-2   -1.191526144364384E-2    4.800686684183701E-2   -1.257799471743927E-2    1.643701449297029E-1    5.033252113881024E-1
 6.565637693600000E9     4.438616969926754E-2    5.660283882408923E-1    4.912718499522115E-2   -1.220024149261472E-2    4.836960934072098E-2   -1.281709496189319E-2    1.658204467587266E-1    5.028384842634647E-1
 6.565649298200000E9     4.538884558507456E-2    5.659619535307256E-1    4.943482152346656E-2   -1.233327303357385E-2    4.872361252055216E-2   -1.297355853661532E-2    1.672446618040218E-1    5.024470099489532E-1
 6.565660902800000E9     4.636469293636834E-2    5.656824783893368E-1    4.995392998284971E-2   -1.269694274686201E-2    4.907476255269225E-2   -1.329728936132056E-2    1.685322254568416E-1    5.017024504065393E-1
 6.565672507400000E9     4.746439299675267E-2    5.657158262941228E-1    5.023082180189386E-2   -1.290994315751341E-2    4.940419052088787E-2   -1.358625736523816E-2    1.701618508954085E-1    5.012571957287706E-1
 6.565684112000000E9     4.852216758064499E-2    5.655376387952764E-1    5.056062879530296E-2   -1.307705110944654E-2    4.971449948682242E-2   -1.372210375561870E-2    1.715135156002912E-1    5.006616180342063E-1
 6.565695716600000E9     4.962982403399559E-2    5.653497192622824E-1    5.095358096084205E-2   -1.333316612601818E-2    5.002822242856873E-2   -1.404756603539700E-2    1.728970472097754E-1    5.002192070668092E-1
 6.565707321200000E9     5.072580032786984E-2    5.651899823523820E-1    5.123107414954266E-2   -1.368018764868665E-2    5.038848524618430E-2   -1.424733044354265E-2    1.743186405220304E-1    4.996624359740826E-1
 6.565718925800000E9     5.165051058966144E-2    5.650849357391797E-1    5.157857497463156E-2   -1.395262910732993E-2    5.080686327939418E-2   -1.457869810300673E-2    1.758902745282535E-1    4.990350694064133E-1
 6.565730530400000E9     5.288689247901814E-2    5.647704186491270E-1    5.200051014409991E-2   -1.415835376410619E-2    5.119760169784673E-2   -1.482307299807400E-2    1.774045482919613E-1    4.985123273428058E-1
 6.565742135000000E9     5.384819515139004E-2    5.646652332477499E-1    5.232448894328348E-2   -1.461111257714871E-2    5.154006828893960E-2   -1.512365911894076E-2    1.788617608190853E-1    4.978181555091331E-1
 6.565753739600000E9     5.492476110400263E-2    5.645601165709807E-1    5.265845210463856E-2   -1.468094801710245E-2    5.188418723509716E-2   -1.537648034481620E-2    1.802602524541425E-1    4.973337372662741E-1
 6.565765344200000E9     5.600034642614456E-2    5.643748555799178E-1    5.304578947682682E-2   -1.496402446480080E-2    5.233536438626766E-2   -1.569653799274477E-2    1.818334170597539E-1    4.966345365369507E-1
 6.565776948800000E9     5.711003286174723E-2    5.642150954174020E-1    5.352477590393067E-2   -1.527812547152298E-2    5.273758474430350E-2   -1.587211477579685E-2    1.833703007596547E-1    4.960775477762295E-1
 6.565788553400000E9     5.817842900518314E-2    5.639865270662567E-1    5.404087006205878E-2   -1.551159513853051E-2    5.308403844135924E-2   -1.625057638953385E-2    1.849093654112291E-1    4.954175745404981E-1
 6.565800158000000E9     5.924367042028528E-2    5.639325996166354E-1    5.444094243536342E-2   -1.586145919260378E-2    5.349292302179805E-2   -1.644641596773974E-2    1.865562598783607E-1    4.946923005672968E-1
 6.565811762600000E9     6.041134358559574E-2    5.635361589164429E-1    5.470317126829368E-2   -1.613275135017942E-2    5.399153403846541E-2   -1.683124250631991E-2    1.879924909325820E-1    4.941128216348266E-1
 6.565823367200000E9     6.153291128362244E-2    5.633838188482276E-1    5.534188922013734E-2   -1.643133087765427E-2    5.434872996064015E-2   -1.706918987490297E-2    1.895456091204812E-1    4.934232981532340E-1
 6.565834971800000E9     6.253495094655069E-2    5.631615898292122E-1    5.562265424009481E-2   -1.673509163518782E-2    5.475226998618617E-2   -1.757781857801700E-2    1.911577646600494E-1    4.928186074293957E-1
 6.565846576400000E9     6.363643361161155E-2    5.630122452414881E-1    5.598240292918328E-2   -1.709168591358128E-2    5.525905849195437E-2   -1.784950978092716E-2    1.926775966009919E-1    4.920905590287671E-1
 6.565858181000000E9     6.478933359800267E-2    5.628617395418677E-1    5.661249376687907E-2   -1.749488481891164E-2    5.564438320807093E-2   -1.817474805229643E-2    1.943560808748273E-1    4.913587905934025E-1
