#  HZ   S   RI   R     50.00 
! Rohde & Schwarz Vector Network Analyzer 
! Rohde-Schwarz,ZNB20-2Port,1311601062101988,3.16
! Created: UTC 3/20/2024, 5:00:15 PM
! freq[Hz]                re:S11                  im:S11                  re:S21                  im:S21                  re:S12                  im:S12                  re:S22                  im:S22
 6.564044103000000E9    -8.668719605350705E-2    5.623695386556269E-1    2.576518276100830E-2    8.393228778637551E-4    2.541488675688029E-2    2.597993079370252E-4    1.181628389430808E-2    5.244933965400186E-1
 6.564058825900000E9    -8.550653515489325E-2    5.624837083079469E-1    2.598316620922049E-2    7.853284259856198E-4    2.557645938291365E-2    1.986283276307250E-4    1.289010213495249E-2    5.247069329464329E-1
 6.564073548800000E9    -8.440109641733216E-2    5.627279852764376E-1    2.614666578166851E-2    6.976819684488324E-4    2.563009705236600E-2    1.230795298728297E-4    1.420884094194316E-2    5.246114443557922E-1
 6.564088271700000E9    -8.332732754644590E-2    5.628973828597499E-1    2.634833061342862E-2    6.906246927250551E-4    2.587249915389349E-2    5.275626530550563E-5    1.549902642895409E-2    5.247102810194609E-1
 6.564102994600000E9    -8.207086971012702E-2    5.629871188803003E-1    2.629082625231221E-2    5.180196482898874E-4    2.591993443637455E-2   -3.426867569039771E-5    1.651894759487273E-2    5.246460469091653E-1
 6.564117717500000E9    -8.095150194058152E-2    5.633277343071020E-1    2.646172571171953E-2    3.485878562856066E-4    2.598144300944729E-2   -1.162038704346265E-4    1.798572760104232E-2    5.246366268520405E-1
 6.564132440400000E9    -7.979116139344170E-2    5.633339654236050E-1    2.662538877619698E-2    3.123344989360532E-4    2.618058454075588E-2   -1.324668301228560E-4    1.912540340400354E-2    5.245519928493549E-1
 6.564147163300000E9    -7.867683095651788E-2    5.635158888834155E-1    2.674744988405998E-2    3.779650321404798E-4    2.631057495326840E-2   -9.444261224110843E-5    2.034143102092201E-2    5.244268627858252E-1
 6.564161886200000E9    -7.750107730547649E-2    5.636419802493117E-1    2.686613187578402E-2    2.777024866501459E-4    2.654106587114717E-2   -2.404127868871044E-4    2.160950741017733E-2    5.245375136008770E-1
 6.564176609100000E9    -7.634955678792561E-2    5.638799598229106E-1    2.712252321767513E-2    3.039149193728583E-4    2.660043125286900E-2   -3.172529181515642E-4    2.284294971812268E-2    5.244761708302635E-1
 6.564191332000000E9    -7.511023047815858E-2    5.640687050972774E-1    2.712253266287560E-2    6.837107594897901E-5    2.675406855370348E-2   -3.630909226942720E-4    2.421619384838536E-2    5.243643139020588E-1
 6.564206054900000E9    -7.403756597561374E-2    5.641153594666143E-1    2.725910730535740E-2    2.607417613692603E-4    2.689263095391816E-2   -4.575592687747395E-4    2.563233700836329E-2    5.244434986414543E-1
 6.564220777800000E9    -7.290983651034588E-2    5.642832686071449E-1    2.752135266667848E-2    2.741378871597896E-5    2.704081784585021E-2   -6.212494443971719E-4    2.670644444517667E-2    5.243460124079573E-1
 6.564235500700000E9    -7.176309889178388E-2    5.644818239567472E-1    2.768031252360971E-2   -8.471337066285210E-5    2.716065029192224E-2   -5.367047904284138E-4    2.807791637786039E-2    5.242385477778172E-1
 6.564250223600000E9    -7.059922638537487E-2    5.645617182854957E-1    2.767977907988820E-2   -2.543001580246610E-4    2.740295991156834E-2   -6.925730244863250E-4    2.924678469896978E-2    5.241992720439630E-1
 6.564264946500000E9    -6.939211339918343E-2    5.646644410370194E-1    2.804144666987025E-2   -2.423734027999979E-4    2.748234453330601E-2   -6.574142005372189E-4    3.045926956526406E-2    5.240604343537897E-1
 6.564279669400000E9    -6.815491421196755E-2    5.647556703937515E-1    2.817814038020394E-2   -2.657009172644535E-4    2.761482778288386E-2   -8.025312021469081E-4    3.162763410059671E-2    5.240392190896083E-1
 6.564294392300000E9    -6.704779893834202E-2    5.649835880361130E-1    2.809600341858251E-2   -3.154056709999258E-4    2.785180736576065E-2   -9.094876811685492E-4    3.306437040364318E-2    5.241584821877299E-1
 6.564309115200000E9    -6.593825476482008E-2    5.650513416414796E-1    2.839888036237908E-2   -5.014887290565432E-4    2.790186092471006E-2   -9.734017912740058E-4    3.433504936464916E-2    5.240497060293003E-1
 6.564323838100000E9    -6.478377737796849E-2    5.652215639434259E-1    2.843852420838882E-2   -4.305860005030776E-4    2.811922695707710E-2   -1.012148912846804E-3    3.570699348371746E-2    5.238739789257389E-1
 6.564338561000000E9    -6.354665536738839E-2    5.652782229030320E-1    2.863966530930329E-2   -6.409076713337038E-4    2.818481595821204E-2   -1.162717669544499E-3    3.682714996603176E-2    5.237923044683286E-1
 6.564353283900000E9    -6.251390312155908E-2    5.655122205420654E-1    2.875339515219289E-2   -7.647280009809828E-4    2.837445596326687E-2   -1.275980467704598E-3    3.828393974927719E-2    5.237641510374503E-1
 6.564368006800000E9    -6.123803651627655E-2    5.655861561037505E-1    2.902271647191967E-2   -6.393869102874659E-4    2.844224701503372E-2   -1.326917254950142E-3    3.946895230104928E-2    5.236935166334318E-1
 6.564382729700000E9    -6.000819777693312E-2    5.657819218571302E-1    2.923285824867634E-2   -8.609996027908466E-4    2.866841379419113E-2   -1.349145399964221E-3    4.083755476551088E-2    5.235912956408002E-1
 6.564397452600000E9    -5.888945029751235E-2    5.656877887703543E-1    2.925589351225273E-2   -9.728896776138703E-4    2.883931890925752E-2   -1.377242213708266E-3    4.201481294160842E-2    5.232908464671899E-1
 6.564412175500000E9    -5.774203443394660E-2    5.659210066349862E-1    2.948208587367892E-2   -1.063661816382281E-3    2.898978820950178E-2   -1.575978033058939E-3    4.331010901567416E-2    5.233841363003876E-1
 6.564426898400000E9    -5.649929451587345E-2    5.661058472206422E-1    2.968983009478152E-2   -1.138089320431966E-3    2.912177940939922E-2   -1.543258601377014E-3    4.464381565241220E-2    5.232325485538019E-1
 6.564441621300000E9    -5.527069196484288E-2    5.661543130027592E-1    2.981182854757946E-2   -1.271877340469613E-3    2.931802260126590E-2   -1.734096854185482E-3    4.598727704306310E-2    5.230759796542043E-1
 6.564456344200000E9    -5.419132602411672E-2    5.662522121432507E-1    2.990315875191403E-2   -1.291211618268277E-3    2.945066873987310E-2   -1.790978611448454E-3    4.724417858630699E-2    5.229728435412615E-1
 6.564471067100000E9    -5.303509828377878E-2    5.663521199865391E-1    3.022590187584510E-2   -1.342713595546530E-3    2.963252786137826E-2   -1.817564565711327E-3    4.852499562618828E-2    5.229908311758442E-1
 6.564485790000000E9    -5.168508110574511E-2    5.664507156161360E-1    3.039993536476034E-2   -1.301499254954477E-3    2.977060553049079E-2   -1.942371305231484E-3    4.987340235315702E-2    5.228003032607552E-1
 6.564500512900000E9    -5.069080883268610E-2    5.665824437771736E-1    3.042839273501623E-2   -1.662949645799991E-3    3.000342882034353E-2   -2.089685156069653E-3    5.116042361325735E-2    5.226325756024881E-1
 6.564515235800000E9    -4.939434017020177E-2    5.667163077333547E-1    3.067712390628856E-2   -1.561535606516050E-3    3.019292550878941E-2   -2.122557534524689E-3    5.254788317696452E-2    5.226759815578425E-1
 6.564529958700000E9    -4.820685612404509E-2    5.667114546249682E-1    3.085553559055477E-2   -1.816430739653685E-3    3.034849136406336E-2   -2.278005001849761E-3    5.388706875473216E-2    5.224581119047096E-1
 6.564544681600000E9    -4.715513335720854E-2    5.668019466844474E-1    3.101314742954186E-2   -1.848335790461299E-3    3.047725377055805E-2   -2.420898292887575E-3    5.514198401128450E-2    5.222805881562140E-1
 6.564559404500000E9    -4.584244388770046E-2    5.669031572338861E-1    3.127357559193143E-2   -1.942907576735724E-3    3.072175252160162E-2   -2.358369591058803E-3    5.664798682114581E-2    5.220091992472899E-1
 6.564574127400000E9    -4.474653690580507E-2    5.669874910568152E-1    3.128489271694883E-2   -2.019292314678494E-3    3.092374052235627E-2   -2.479891653038743E-3    5.782834368496272E-2    5.220284820921486E-1
 6.564588850300000E9    -4.358396820034791E-2    5.669528606029428E-1    3.164912609033707E-2   -1.981196984048167E-3    3.101937317032461E-2   -2.749916015886115E-3    5.928530438137740E-2    5.218529748953472E-1
 6.564603573200000E9    -4.243465546292401E-2    5.671209946740599E-1    3.177941773765524E-2   -2.356677434655185E-3    3.125582446708938E-2   -2.756059648938633E-3    6.055744541706822E-2    5.215798877250112E-1
 6.564618296100000E9    -4.114102520916009E-2    5.671976287720086E-1    3.194682500813473E-2   -2.302349561771830E-3    3.140333212446256E-2   -2.783208305227665E-3    6.185197471950532E-2    5.215432441556029E-1
 6.564633019000000E9    -3.992392754409350E-2    5.674600910296546E-1    3.219819114050464E-2   -2.338056308024925E-3    3.159233954085391E-2   -2.974892085893725E-3    6.317457152405570E-2    5.214071534355273E-1
 6.564647741900000E9    -3.881818093439678E-2    5.673519786877491E-1    3.231282606575906E-2   -2.408241649651426E-3    3.178285069095740E-2   -3.053338707204171E-3    6.458372482622821E-2    5.212719020791720E-1
 6.564662464800000E9    -3.760999279792046E-2    5.673438157446673E-1    3.258536882758621E-2   -2.706739259402057E-3    3.194083582833963E-2   -3.132316015971433E-3    6.584841114498745E-2    5.209877832477244E-1
 6.564677187700000E9    -3.639759657035872E-2    5.673541081208041E-1    3.279968775069545E-2   -2.712683566328531E-3    3.210953711441009E-2   -3.228121700319762E-3    6.730648552609496E-2    5.208023798560257E-1
 6.564691910600000E9    -3.519052724733186E-2    5.675934813680956E-1    3.296161912491966E-2   -2.926998895249619E-3    3.228060004108764E-2   -3.380597558057349E-3    6.863022696116015E-2    5.206744138549022E-1
 6.564706633500000E9    -3.399512966474884E-2    5.676297518212359E-1    3.316305478459194E-2   -2.963340806718319E-3    3.255379515950606E-2   -3.368533897924306E-3    7.002876302626973E-2    5.204603298489493E-1
 6.564721356400000E9    -3.287568147532934E-2    5.676129674147843E-1    3.334967826430108E-2   -2.996247094343895E-3    3.282992596046535E-2   -3.517543820238809E-3    7.144052210730038E-2    5.203353290420528E-1
 6.564736079300000E9    -3.159343996325842E-2    5.676484007165111E-1    3.361344514281158E-2   -3.217499572948616E-3    3.288251392179396E-2   -3.715269000421151E-3    7.285503710136386E-2    5.201891183620144E-1
 6.564750802200000E9    -3.030489382571138E-2    5.677406620803361E-1    3.368211881101323E-2   -3.338038285838716E-3    3.321054260616528E-2   -3.794909506378669E-3    7.433360046054670E-2    5.198499497322138E-1
 6.564765525100000E9    -2.919068370270997E-2    5.677645281710881E-1    3.388359312850005E-2   -3.530643966104295E-3    3.335387896414631E-2   -3.872231560609569E-3    7.570365429257030E-2    5.196363741724307E-1
 6.564780248000000E9    -2.809275474770595E-2    5.678425159466214E-1    3.404677680952861E-2   -3.417075674858198E-3    3.362144264940194E-2   -4.049939434959928E-3    7.704649461994711E-2    5.194667309636967E-1
 6.564794970900000E9    -2.672891143596852E-2    5.678667879069056E-1    3.439398562732580E-2   -3.585221843488738E-3    3.376353228591415E-2   -4.122416978117807E-3    7.843307398058026E-2    5.192195160060973E-1
 6.564809693800000E9    -2.563615395153547E-2    5.679210482918595E-1    3.452875845517774E-2   -3.802843685347528E-3    3.400326027799994E-2   -4.222191709332020E-3    7.979647475603033E-2    5.190462154404054E-1
 6.564824416700000E9    -2.433651174476656E-2    5.678393144476989E-1    3.483614947107316E-2   -3.887063732439241E-3    3.421174138504898E-2   -4.350138716405685E-3    8.123088292355132E-2    5.189143214921409E-1
 6.564839139600000E9    -2.316197499753865E-2    5.679650622862357E-1    3.511073515998867E-2   -4.024341229719774E-3    3.435925174327612E-2   -4.495413576076196E-3    8.251252457102688E-2    5.186337765161906E-1
 6.564853862500000E9    -2.206192700814619E-2    5.680774739847876E-1    3.526417427552750E-2   -4.207571305690893E-3    3.470472978137261E-2   -4.667036422493454E-3    8.397172273491615E-2    5.183626843351907E-1
 6.564868585400000E9    -2.069125581959981E-2    5.679571718176176E-1    3.543459915938407E-2   -4.295933653254047E-3    3.482873400570014E-2   -4.811272894706905E-3    8.540813691640661E-2    5.180218163502053E-1
 6.564883308300000E9    -1.948271884051379E-2    5.680303031106377E-1    3.562017816272315E-2   -4.370133887582284E-3    3.509153891849617E-2   -4.957791731189518E-3    8.697956698235644E-2    5.178497758915628E-1
 6.564898031200000E9    -1.824603758404540E-2    5.680408599427326E-1    3.592461643846934E-2   -4.494709482030557E-3    3.537270211149615E-2   -4.996180181674075E-3    8.828576542591859E-2    5.176552874616362E-1
 6.564912754100000E9    -1.701733861540175E-2    5.679607195405245E-1    3.609660266300170E-2   -4.699061861353609E-3    3.546414562992230E-2   -5.273979879736442E-3    8.977036748251548E-2    5.173428989940905E-1
 6.564927477000000E9    -1.591103350767517E-2    5.679543032108423E-1    3.646884402091446E-2   -4.774470558074000E-3    3.583715660387680E-2   -5.444355573079252E-3    9.124679050984849E-2    5.171326529474383E-1
 6.564942199900000E9    -1.459911271916499E-2    5.680948148952417E-1    3.671405934258585E-2   -4.907860075636179E-3    3.607625916923469E-2   -5.491156644690820E-3    9.257570807038301E-2    5.168530733206226E-1
 6.564956922800000E9    -1.341201563974891E-2    5.680534701700177E-1    3.692723274225332E-2   -5.022913700658002E-3    3.622477161433007E-2   -5.678370087493501E-3    9.397774419072957E-2    5.165863568892141E-1
 6.564971645700000E9    -1.202924774711593E-2    5.680602817501473E-1    3.714293096747661E-2   -5.212909358818726E-3    3.646975063315656E-2   -5.849953816519165E-3    9.568430200416569E-2    5.161772561491732E-1
 6.564986368600000E9    -1.092177510334561E-2    5.680431730953056E-1    3.742059662282512E-2   -5.489310117698750E-3    3.672778353698797E-2   -5.914962303638261E-3    9.703444679397977E-2    5.159523261153360E-1
 6.565001091500000E9    -9.751795682628982E-3    5.680211710551432E-1    3.765378364851203E-2   -5.519327718321043E-3    3.695260399398661E-2   -6.130298508982749E-3    9.855194456238472E-2    5.155906956462378E-1
 6.565015814400000E9    -8.475294150486956E-3    5.680604427378046E-1    3.788898260926396E-2   -5.756086723725630E-3    3.719403125903148E-2   -6.348408728194188E-3    9.987963975391627E-2    5.153281424661279E-1
 6.565030537300000E9    -7.201632005894611E-3    5.681223488255552E-1    3.828829867051844E-2   -5.964779059831213E-3    3.747710095902509E-2   -6.502015605641648E-3    1.014339039994793E-1    5.151140685978066E-1
 6.565045260200000E9    -6.009359430477625E-3    5.678898562454389E-1    3.833797214730999E-2   -6.038816565252997E-3    3.779682621410130E-2   -6.662049926583318E-3    1.028274014325263E-1    5.145601401133245E-1
 6.565059983100000E9    -4.654699412083663E-3    5.678583094662462E-1    3.879387602898936E-2   -6.257200772467981E-3    3.804296924014176E-2   -6.813205956880885E-3    1.044176143007337E-1    5.143808310255353E-1
 6.565074706000000E9    -3.507974279996657E-3    5.679216307587162E-1    3.894833272018875E-2   -6.297872461500291E-3    3.829943959417559E-2   -6.935459961001153E-3    1.059613052183982E-1    5.139296483735746E-1
 6.565089428900000E9    -2.285284732800948E-3    5.679218937311292E-1    3.926527397027672E-2   -6.571052137527031E-3    3.860887416919521E-2   -7.043783674095865E-3    1.073484142396821E-1    5.135030662326280E-1
 6.565104151800000E9    -1.031392432063428E-3    5.679223035767555E-1    3.961222800690426E-2   -6.803803917403739E-3    3.883985049816716E-2   -7.299484415692584E-3    1.090305067237779E-1    5.133608463070972E-1
 6.565118874700000E9     3.085751001219351E-4    5.678409280993755E-1    3.989304798377978E-2   -6.922936459377060E-3    3.910666826397476E-2   -7.350281430714600E-3    1.105714112998828E-1    5.130294626460077E-1
 6.565133597600000E9     1.502214077335367E-3    5.678606701783673E-1    4.018674501890287E-2   -7.010383517854497E-3    3.944684821200815E-2   -7.663785082866715E-3    1.120856418419501E-1    5.124576969311695E-1
 6.565148320500000E9     2.716735045469400E-3    5.677050757286448E-1    4.044736796695574E-2   -7.443250620154899E-3    3.972388544901510E-2   -7.840523695714637E-3    1.134539319862811E-1    5.121708593140624E-1
 6.565163043400000E9     4.000214039324891E-3    5.677000879500972E-1    4.065443905722013E-2   -7.452848542195682E-3    3.984835364716106E-2   -8.038851561836308E-3    1.150730832402063E-1    5.117040996379704E-1
 6.565177766300000E9     5.338956426084746E-3    5.676923514911583E-1    4.086366580457843E-2   -7.609590017619303E-3    4.024951989605612E-2   -8.217022688883349E-3    1.164758738740886E-1    5.114450458477260E-1
 6.565192489200000E9     6.637999417730136E-3    5.674561878106775E-1    4.120827891084922E-2   -7.886477314393611E-3    4.061582663167267E-2   -8.423308395574897E-3    1.180868007298380E-1    5.108879103544572E-1
 6.565207212100000E9     7.837606954887508E-3    5.675030605411456E-1    4.146298352357323E-2   -8.032726092929781E-3    4.092967852658317E-2   -8.680598560785277E-3    1.197422400104041E-1    5.106885589271036E-1
 6.565221935000000E9     9.083827994881650E-3    5.675245432708613E-1    4.196435941065660E-2   -8.220664572425429E-3    4.111006352801839E-2   -8.810937392214150E-3    1.213118675196902E-1    5.101825068904847E-1
 6.565236657900000E9     1.037486734781112E-2    5.673363404255809E-1    4.215531288472277E-2   -8.508084646859367E-3    4.141869988025484E-2   -9.030379086628423E-3    1.228732607553705E-1    5.097686247955597E-1
 6.565251380800000E9     1.148600447686940E-2    5.672156059446417E-1    4.246204712725395E-2   -8.733317828139422E-3    4.182578659589699E-2   -9.187208082070136E-3    1.244880426256964E-1    5.091887216324387E-1
 6.565266103700000E9     1.285900689915704E-2    5.671584489654864E-1    4.293126512615628E-2   -8.826383594386060E-3    4.210472347748980E-2   -9.430460580477659E-3    1.260468895307233E-1    5.088282285550433E-1
 6.565280826600000E9     1.409992268100218E-2    5.671205579983083E-1    4.318443196278651E-2   -9.026051683275875E-3    4.228765470395202E-2   -9.634923437196878E-3    1.276031483185320E-1    5.083583868329793E-1
 6.565295549500000E9     1.542559195670951E-2    5.670878035030487E-1    4.353627554960630E-2   -9.375857707052775E-3    4.277942691132018E-2   -9.936674291850420E-3    1.292001437893440E-1    5.080701756497238E-1
 6.565310272400000E9     1.673697887065670E-2    5.669373180422373E-1    4.388857256088019E-2   -9.630397777398060E-3    4.312499319969023E-2   -1.021728230192317E-2    1.308910897627263E-1    5.073730934058018E-1
 6.565324995300000E9     1.805507037935559E-2    5.668310163805501E-1    4.407874784456465E-2   -9.858566132174940E-3    4.338520401618402E-2   -1.041250347564753E-2    1.324580105382630E-1    5.069028181230539E-1
 6.565339718200000E9     1.929531629052789E-2    5.667149337785250E-1    4.455531851944247E-2   -1.010470474405040E-2    4.369879172012015E-2   -1.066237779328969E-2    1.342393002529812E-1    5.063723673422187E-1
 6.565354441100000E9     2.056957095258501E-2    5.665646765543508E-1    4.479500217928683E-2   -1.021414762693274E-2    4.411683649036415E-2   -1.093657599259489E-2    1.358807941262948E-1    5.058320419165142E-1
 6.565369164000000E9     2.190431102509162E-2    5.666179610334229E-1    4.518502429800943E-2   -1.058319481167102E-2    4.442400743028731E-2   -1.118613919278917E-2    1.373425475936439E-1    5.053381340605407E-1
