#  HZ   S   RI   R     50.00 
! Rohde & Schwarz Vector Network Analyzer 
! Rohde-Schwarz,ZNB20-2Port,1311601062101988,3.16
! Created: UTC 3/20/2024, 5:04:52 PM
! freq[Hz]                re:S11                  im:S11                  re:S21                  im:S21                  re:S12                  im:S12                  re:S22                  im:S22
 6.564127349000000E9    -8.043339439551526E-2    5.633605665135105E-1    2.622010268419025E-2    3.725823168655256E-4    2.589122433351055E-2   -3.706654993145967E-5    1.833647005911198E-2    5.247460721118287E-1
 6.564141776025000E9    -7.928635199837941E-2    5.634516279974000E-1    2.658308016480320E-2    3.797006352648657E-4    2.615492753021311E-2   -6.370814432044520E-5    1.966625641716391E-2    5.248180815572153E-1
 6.564156203050000E9    -7.811654554145928E-2    5.635764944197376E-1    2.662111054613437E-2    3.268827988156725E-4    2.623582362935555E-2   -2.506872228846273E-5    2.090575516966457E-2    5.246847330339369E-1
 6.564170630075000E9    -7.714532561111340E-2    5.637039450679134E-1    2.683396310296901E-2    3.584314094010951E-4    2.629749630112584E-2   -2.480844184790223E-4    2.206845509129950E-2    5.246524699770188E-1
 6.564185057100000E9    -7.589297345405238E-2    5.639000600890240E-1    2.685702245533512E-2    3.147164471655057E-4    2.642891156305732E-2   -2.228269555093322E-4    2.333605038711184E-2    5.246485154125069E-1
 6.564199484125000E9    -7.475830278209464E-2    5.639289469632009E-1    2.708755298167157E-2    2.063916471659169E-4    2.659706972899551E-2   -3.089567068941563E-4    2.453164472825277E-2    5.246120698250469E-1
 6.564213911150000E9    -7.366619925221123E-2    5.642089516712914E-1    2.697386462519051E-2    4.908892238429439E-5    2.680301257329729E-2   -5.229896933016594E-4    2.579430213220752E-2    5.244935849186801E-1
 6.564228338175000E9    -7.254327535678154E-2    5.643621187811562E-1    2.727537400739389E-2    3.609137996081429E-5    2.685528076171001E-2   -4.478970444057225E-4    2.692940203078949E-2    5.243307898936941E-1
 6.564242765200000E9    -7.144143744341543E-2    5.644904993423405E-1    2.734824021698508E-2   -3.619359688865391E-5    2.704786124029189E-2   -5.422416604856417E-4    2.830120725500446E-2    5.245311175564515E-1
 6.564257192225000E9    -7.031819387965861E-2    5.645249960211084E-1    2.758156320465766E-2   -2.116569641542984E-4    2.703656053075336E-2   -5.913163958386693E-4    2.952270284931516E-2    5.242993468493127E-1
 6.564271619250000E9    -6.918673798074433E-2    5.647285528177304E-1    2.766148163110085E-2   -2.396424627784728E-4    2.726872055181069E-2   -5.984180028388392E-4    3.084216043123780E-2    5.244188041015734E-1
 6.564286046275000E9    -6.797221127534783E-2    5.648325051725650E-1    2.791504077393442E-2   -2.000082167123241E-4    2.741301999882824E-2   -7.935415379033303E-4    3.196362126369899E-2    5.242325988178270E-1
 6.564300473300000E9    -6.689382598739485E-2    5.649368688217344E-1    2.794265947611757E-2   -2.457672925094190E-4    2.756653560638453E-2   -7.555551461461283E-4    3.332156466494397E-2    5.243048420601604E-1
 6.564314900325000E9    -6.571853095857914E-2    5.650844967092690E-1    2.819490795180469E-2   -4.031019819147169E-4    2.761378759115923E-2   -8.857002944576677E-4    3.449811994708434E-2    5.240492119000159E-1
 6.564329327350000E9    -6.467945662017452E-2    5.652888102137491E-1    2.836005245726568E-2   -3.056783775953562E-4    2.782059967075296E-2   -9.731568167351618E-4    3.585059322108437E-2    5.240156020516856E-1
 6.564343754375000E9    -6.335991911895350E-2    5.654121950839215E-1    2.860921693486877E-2   -6.207817796623703E-4    2.802819877244007E-2   -9.880849986351476E-4    3.690376685743980E-2    5.240720160321378E-1
 6.564358181400000E9    -6.222244458890599E-2    5.656065614869652E-1    2.858921651414383E-2   -5.925266130333208E-4    2.819053708958631E-2   -1.090121343530029E-3    3.827783411103428E-2    5.237694141542293E-1
 6.564372608425000E9    -6.120989594223762E-2    5.655398772589799E-1    2.882373945416191E-2   -6.821166659750996E-4    2.822550312188062E-2   -1.207434924749826E-3    3.966696484995500E-2    5.238317670260051E-1
 6.564387035450000E9    -6.003299882655532E-2    5.657260010000256E-1    2.894058563395756E-2   -7.436081898589698E-4    2.834531222178929E-2   -1.250867922810663E-3    4.080090522125555E-2    5.237839182724618E-1
 6.564401462475000E9    -5.894813153182459E-2    5.658599156671942E-1    2.910356226095955E-2   -9.756339339226510E-4    2.858118610232541E-2   -1.368799730769239E-3    4.212615568542986E-2    5.236336662443267E-1
 6.564415889500000E9    -5.765259041102169E-2    5.658557764463972E-1    2.924615034334772E-2   -8.000364934857097E-4    2.876496075212590E-2   -1.411250704540672E-3    4.320228370823177E-2    5.236497230595984E-1
 6.564430316525000E9    -5.650102626364529E-2    5.659798702210423E-1    2.933528690215666E-2   -9.876618140929839E-4    2.887770413604332E-2   -1.499730605971477E-3    4.458681832504625E-2    5.236094907108748E-1
 6.564444743550000E9    -5.543155393279491E-2    5.660723613693465E-1    2.970910802699762E-2   -1.072363060904577E-3    2.905199070150187E-2   -1.662274300693047E-3    4.579956631540139E-2    5.232971755209056E-1
 6.564459170575000E9    -5.438638332812668E-2    5.661913597101640E-1    2.975768862316870E-2   -1.242668809662110E-3    2.923755509441990E-2   -1.629401683572685E-3    4.712936930196338E-2    5.232187508265749E-1
 6.564473597600000E9    -5.312501093024234E-2    5.663492565680189E-1    2.995943579353192E-2   -1.209193888472092E-3    2.932517441288453E-2   -1.745938412663503E-3    4.828850189104904E-2    5.230115163542060E-1
 6.564488024625000E9    -5.191391039684278E-2    5.664881158663019E-1    3.004292781172729E-2   -1.356862255298844E-3    2.945505740037492E-2   -1.882632786400839E-3    4.966265969316260E-2    5.230796996216173E-1
 6.564502451650000E9    -5.076773490098595E-2    5.664815400761203E-1    3.017317390089919E-2   -1.412632129166123E-3    2.968464879028559E-2   -1.867463600346652E-3    5.106953569861551E-2    5.229327115159768E-1
 6.564516878675000E9    -4.965748866312588E-2    5.666792591459463E-1    3.032355060971571E-2   -1.527072950005933E-3    2.980877088526123E-2   -2.002997828160593E-3    5.215815621543690E-2    5.227879931762716E-1
 6.564531305700000E9    -4.851159972950424E-2    5.667014148739840E-1    3.056336756420584E-2   -1.616109391909108E-3    2.999444575094512E-2   -2.136738265708951E-3    5.359862676426577E-2    5.226565461814893E-1
 6.564545732725000E9    -4.737859313487398E-2    5.667594419190332E-1    3.070676572865437E-2   -1.685059575642641E-3    3.022738783708253E-2   -2.140305380500280E-3    5.496707513153166E-2    5.224883578637689E-1
 6.564560159750000E9    -4.615535390903271E-2    5.669256437748581E-1    3.102754677105553E-2   -1.683786438437206E-3    3.029608847859161E-2   -2.251830924712974E-3    5.612854886580484E-2    5.224529782946263E-1
 6.564574586775000E9    -4.504461972339116E-2    5.668646936939684E-1    3.103784084590689E-2   -1.935286942020049E-3    3.058958148725766E-2   -2.312645288462430E-3    5.735060334563362E-2    5.223552560004612E-1
 6.564589013800000E9    -4.392204447873278E-2    5.670627328828077E-1    3.118286033339679E-2   -1.851566009775656E-3    3.073806398384604E-2   -2.422382898209415E-3    5.868653713471399E-2    5.222092958077051E-1
 6.564603440825000E9    -4.264228138184607E-2    5.672403138648699E-1    3.146739050622747E-2   -2.074910319088960E-3    3.083809299691720E-2   -2.544142090544629E-3    6.028350521445995E-2    5.221091024080369E-1
 6.564617867850000E9    -4.148387932678942E-2    5.672429531486013E-1    3.159625961754462E-2   -2.098825795457910E-3    3.105125172407715E-2   -2.584735944947407E-3    6.152181714956882E-2    5.218818265173720E-1
 6.564632294875000E9    -4.034849709966436E-2    5.672712732075418E-1    3.184185778924883E-2   -2.172077750180182E-3    3.125550057894580E-2   -2.745223239100635E-3    6.281211109895703E-2    5.217368783296794E-1
 6.564646721900000E9    -3.923631205929408E-2    5.673618781954326E-1    3.194572291752162E-2   -2.313253837798129E-3    3.146863721204179E-2   -2.887316381596866E-3    6.404457503329401E-2    5.216231193273727E-1
 6.564661148925000E9    -3.805128805075713E-2    5.673479607725083E-1    3.221931952921053E-2   -2.404803078670101E-3    3.164174078185283E-2   -2.948157569587368E-3    6.527360290502568E-2    5.215519274435767E-1
 6.564675575950000E9    -3.685006527511942E-2    5.675228428509214E-1    3.233942536230672E-2   -2.509488476270801E-3    3.179786065374671E-2   -2.980126798648174E-3    6.664569940153510E-2    5.211492838632436E-1
 6.564690002975000E9    -3.574439590272004E-2    5.674565641991905E-1    3.256665846936339E-2   -2.638304256985273E-3    3.195532975745226E-2   -3.111104748115000E-3    6.808578775871811E-2    5.211616828880935E-1
 6.564704430000000E9    -3.458754753942576E-2    5.676861184885416E-1    3.266957400632184E-2   -2.765662654811434E-3    3.220335660775236E-2   -3.300854186683064E-3    6.935941946937922E-2    5.207598223193433E-1
 6.564718857025000E9    -3.327917651536444E-2    5.675691087963629E-1    3.279586850061186E-2   -2.800148752575887E-3    3.237576027429456E-2   -3.357099354340197E-3    7.077968221912168E-2    5.206585409887464E-1
 6.564733284050000E9    -3.208343224127321E-2    5.676600071944014E-1    3.313191196164311E-2   -2.887066437056381E-3    3.245672906551662E-2   -3.458684767221801E-3    7.209537877865131E-2    5.204049126545225E-1
 6.564747711075000E9    -3.096249816009672E-2    5.677828708912078E-1    3.336387306818288E-2   -3.028848062016273E-3    3.277116950794392E-2   -3.567037324848552E-3    7.344144784980260E-2    5.202521844105749E-1
 6.564762138100000E9    -2.974688437513019E-2    5.677158353335898E-1    3.346051896326621E-2   -3.109398540424042E-3    3.296812352455823E-2   -3.741330120211067E-3    7.468320356592689E-2    5.200526353565679E-1
 6.564776565125000E9    -2.856903105775377E-2    5.678372803243915E-1    3.370946258068624E-2   -3.378122086837448E-3    3.315230030560328E-2   -3.828048193703144E-3    7.609419390463737E-2    5.197830666955878E-1
 6.564790992150000E9    -2.744581333220414E-2    5.678323008833542E-1    3.378861585311809E-2   -3.470920328996543E-3    3.341591021683767E-2   -3.947661725912982E-3    7.740974750021892E-2    5.197726454675430E-1
 6.564805419175000E9    -2.620613621776084E-2    5.678950036912516E-1    3.415426766793660E-2   -3.485131147262583E-3    3.366277179184723E-2   -3.995230842523102E-3    7.894675583635112E-2    5.194901226133538E-1
 6.564819846200000E9    -2.516113199634801E-2    5.678972775105393E-1    3.428479288804494E-2   -3.550508782428044E-3    3.368630381861110E-2   -4.216196708798288E-3    8.016239029440429E-2    5.193809732838289E-1
 6.564834273225000E9    -2.392372650852641E-2    5.679211806745404E-1    3.445066192418021E-2   -3.803355479330207E-3    3.396987775488725E-2   -4.310149609852924E-3    8.152417979561324E-2    5.191002625252850E-1
 6.564848700250000E9    -2.274001694078457E-2    5.679267170892660E-1    3.470315773363387E-2   -3.801096927636995E-3    3.415972712473882E-2   -4.440054296661410E-3    8.296319510646186E-2    5.188201657179558E-1
 6.564863127275000E9    -2.158199768823112E-2    5.679911988396509E-1    3.496683761422324E-2   -3.975470724764375E-3    3.448070471267098E-2   -4.412725795619483E-3    8.428115222122166E-2    5.187410671945347E-1
 6.564877554300000E9    -2.027721335044705E-2    5.679595720317522E-1    3.531053940848109E-2   -4.163857541540921E-3    3.464690258881821E-2   -4.665599991524155E-3    8.575825751426998E-2    5.184965541111644E-1
 6.564891981325000E9    -1.912924868729471E-2    5.681084639315687E-1    3.539154880153666E-2   -4.148486013405539E-3    3.488746687266847E-2   -4.841998180656532E-3    8.718500764282842E-2    5.182126991416436E-1
 6.564906408350000E9    -1.790507112429373E-2    5.679796517896910E-1    3.566854644705064E-2   -4.472640622981514E-3    3.506993040867915E-2   -4.957771383949607E-3    8.851971333212540E-2    5.177392401717316E-1
 6.564920835375000E9    -1.671497864828049E-2    5.680511256957186E-1    3.590942747480443E-2   -4.575285983201386E-3    3.530366706778865E-2   -5.051272204133132E-3    9.012296603278286E-2    5.176621336414895E-1
 6.564935262400000E9    -1.542939902894204E-2    5.680615702036553E-1    3.620833117347774E-2   -4.749097621032468E-3    3.559225791541794E-2   -5.203896249650410E-3    9.135356081753053E-2    5.171894160698608E-1
 6.564949689425000E9    -1.434774270763719E-2    5.680893999283244E-1    3.635525788190810E-2   -4.838215860092194E-3    3.584236832111617E-2   -5.291020849853385E-3    9.270777339679856E-2    5.171314264149354E-1
 6.564964116450000E9    -1.312136112930022E-2    5.679803653944687E-1    3.647312108695523E-2   -4.863185320386370E-3    3.604514112029331E-2   -5.513055901180712E-3    9.421435695275111E-2    5.168753177896824E-1
 6.564978543475000E9    -1.199006381683978E-2    5.680376309139654E-1    3.690101934355712E-2   -5.091777282949062E-3    3.623168630136387E-2   -5.535324649094636E-3    9.568259360301502E-2    5.166193462697902E-1
 6.564992970500000E9    -1.078554174403683E-2    5.680180768018452E-1    3.711697602353211E-2   -5.304055452393101E-3    3.647741326178654E-2   -5.787414098857094E-3    9.700510554485151E-2    5.163286296502159E-1
 6.565007397525000E9    -9.491556667440015E-3    5.680018258972919E-1    3.716749869513649E-2   -5.409986777411795E-3    3.679270539667692E-2   -5.885541612847967E-3    9.843490439643042E-2    5.159504205692318E-1
 6.565021824550000E9    -8.386988825172987E-3    5.680477812180816E-1    3.763687276627480E-2   -5.525072729429020E-3    3.707683562985020E-2   -6.084840411478925E-3    1.000112389981575E-1    5.156416318069919E-1
 6.565036251575000E9    -7.115649383688855E-3    5.680817003712649E-1    3.784703965881019E-2   -5.677187013744286E-3    3.713172313317405E-2   -6.249787984942887E-3    1.013292464231527E-1    5.153221904664887E-1
 6.565050678600000E9    -5.829840888397079E-3    5.679604376595193E-1    3.805682580308391E-2   -5.793176127516067E-3    3.746401230413868E-2   -6.451490486104335E-3    1.027524274115758E-1    5.149694634944751E-1
 6.565065105625000E9    -4.634303864075818E-3    5.680228234111075E-1    3.839628985653065E-2   -5.858624853627191E-3    3.769140909629225E-2   -6.548689827171540E-3    1.042952148473045E-1    5.146854474191623E-1
 6.565079532650000E9    -3.509515875792069E-3    5.679831360239066E-1    3.862493828528554E-2   -6.062933999666320E-3    3.790759389726043E-2   -6.762783779432216E-3    1.057712686365824E-1    5.142281616866554E-1
 6.565093959675000E9    -2.223736641455114E-3    5.679332206924438E-1    3.887745539531351E-2   -6.325840615163010E-3    3.820507952493457E-2   -6.806946262479608E-3    1.072198477648250E-1    5.141961763332019E-1
 6.565108386700000E9    -9.837533036887343E-4    5.679132945423297E-1    3.918832035712694E-2   -6.480612989145919E-3    3.844287633657828E-2   -7.065334081394356E-3    1.086704359714381E-1    5.138937052944536E-1
 6.565122813725000E9     1.927237891501903E-4    5.678535737780183E-1    3.942610863067635E-2   -6.824280650231969E-3    3.877270059384856E-2   -7.194200981373494E-3    1.100874015406464E-1    5.133359459627693E-1
 6.565137240750000E9     1.434739826938748E-3    5.678251885022731E-1    3.963704829439935E-2   -6.902890324829879E-3    3.902446964707598E-2   -7.275807745742976E-3    1.118323878198595E-1    5.130455721842063E-1
 6.565151667775000E9     2.604180939172941E-3    5.677423288000684E-1    4.008643756309065E-2   -7.104226302733648E-3    3.925806361763647E-2   -7.560721488194676E-3    1.129980341234454E-1    5.126317677782635E-1
 6.565166094800000E9     3.941733869563676E-3    5.677396151811969E-1    4.017305034051042E-2   -7.224518788349464E-3    3.956266323800561E-2   -7.799441579420606E-3    1.145154641935023E-1    5.123090918839095E-1
 6.565180521825000E9     5.215957275116781E-3    5.676312256949524E-1    4.048011930751252E-2   -7.433715391467702E-3    3.971236298710147E-2   -7.898598256782012E-3    1.160942502785901E-1    5.118882465416636E-1
 6.565194948850000E9     6.206266731974078E-3    5.676406969353071E-1    4.083249000495047E-2   -7.463594710827312E-3    4.010776028172816E-2   -8.146565791432902E-3    1.175219893028395E-1    5.115829067617814E-1
 6.565209375875000E9     7.554822477118128E-3    5.675827843927481E-1    4.113490995873903E-2   -7.729592158543392E-3    4.044287271995377E-2   -8.303542787700170E-3    1.191643687986469E-1    5.110243176351849E-1
 6.565223802900000E9     8.835957284092784E-3    5.675742718557300E-1    4.121974504689977E-2   -7.839521452183255E-3    4.076675751347165E-2   -8.463201234758534E-3    1.206274620688603E-1    5.106972105728641E-1
 6.565238229925000E9     1.007379014361041E-2    5.674255646690507E-1    4.166052825316744E-2   -8.221105295516222E-3    4.092077069169715E-2   -8.632250665475062E-3    1.222866560545099E-1    5.101884916135367E-1
 6.565252656950000E9     1.125928020917690E-2    5.674696416315446E-1    4.201344801964466E-2   -8.353355399670200E-3    4.135818322580700E-2   -8.901180511246158E-3    1.237637061287119E-1    5.097913397031226E-1
 6.565267083975000E9     1.239634743793442E-2    5.673414410065790E-1    4.234663652902635E-2   -8.458261681766307E-3    4.165125713100281E-2   -9.087242729910924E-3    1.252993683437326E-1    5.094099380191994E-1
 6.565281511000000E9     1.383590527131929E-2    5.671665864591733E-1    4.267220848087786E-2   -8.689557581895768E-3    4.199561108072670E-2   -9.320429385148682E-3    1.268994038373306E-1    5.090423242757385E-1
 6.565295938025000E9     1.502722648388766E-2    5.672309593903919E-1    4.298034704555385E-2   -8.924244443099930E-3    4.228570198272046E-2   -9.449013016637442E-3    1.283759857815679E-1    5.086123931523910E-1
 6.565310365050000E9     1.624110769485155E-2    5.670324181819847E-1    4.335027101752453E-2   -9.254491451296594E-3    4.250745808647742E-2   -9.711228960682810E-3    1.298334272436458E-1    5.079888682312895E-1
 6.565324792075000E9     1.755080639278587E-2    5.669904540730472E-1    4.345748833141658E-2   -9.382578077755667E-3    4.285522703231780E-2   -9.997278922124594E-3    1.315981158128669E-1    5.077005118495617E-1
 6.565339219100000E9     1.889428238184781E-2    5.668289838949198E-1    4.387995400094210E-2   -9.626546693803405E-3    4.316698257544418E-2   -1.020498349359794E-2    1.332178555112334E-1    5.071537626930711E-1
 6.565353646125000E9     2.008189053348188E-2    5.667995197506183E-1    4.420866862111968E-2   -9.834715896713241E-3    4.349425668404012E-2   -1.043040683101672E-2    1.347178317824984E-1    5.066258098588559E-1
 6.565368073150000E9     2.124850565550064E-2    5.666778463269035E-1    4.458128980067855E-2   -1.012663828491070E-2    4.379309342038057E-2   -1.066159555431860E-2    1.363651430407050E-1    5.062225273985596E-1
 6.565382500175000E9     2.257745802211804E-2    5.665988727577974E-1    4.495849001745534E-2   -1.045724775139282E-2    4.423818809594764E-2   -1.086160655779691E-2    1.379842161747560E-1    5.055562645840436E-1
 6.565396927200000E9     2.386497093655337E-2    5.664578818900668E-1    4.528562721352535E-2   -1.047922128230910E-2    4.450758118956007E-2   -1.113080811320159E-2    1.396365291572158E-1    5.052419999420555E-1
 6.565411354225000E9     2.520602445949559E-2    5.662921378172187E-1    4.580629474173509E-2   -1.104230997247384E-2    4.492663148597049E-2   -1.137313671263625E-2    1.412470133778898E-1    5.045822883076850E-1
 6.565425781250000E9     2.640872745212114E-2    5.662041313449639E-1    4.603573379243953E-2   -1.108316268089152E-2    4.527103027404167E-2   -1.166938442188050E-2    1.429642405904858E-1    5.040292317111129E-1
