#  HZ   S   RI   R     50.00 
! Rohde & Schwarz Vector Network Analyzer 
! Rohde-Schwarz,ZNB20-2Port,1311601062101988,3.16
! Created: UTC 3/20/2024, 4:49:43 PM
! freq[Hz]                re:S11                  im:S11                  re:S21                  im:S21                  re:S12                  im:S12                  re:S22                  im:S22
 6.564811173000000E9    -2.602844748834710E-2    5.688364576507737E-1    3.287784784225901E-2   -2.554082027517650E-3    3.225956617009902E-2   -3.029638680085873E-3    7.883373564333769E-2    5.240219342896533E-1
 6.564822783875000E9    -2.521257240720347E-2    5.689814969012988E-1    3.282877351633028E-2   -2.552160069414941E-3    3.237941601549947E-2   -3.216681364789932E-3    8.017894322203564E-2    5.238685812690594E-1
 6.564834394750000E9    -2.421484634122616E-2    5.689247099303995E-1    3.302570834588166E-2   -2.711306027678555E-3    3.262735593473683E-2   -3.319866262220942E-3    8.099882174842778E-2    5.238161546381014E-1
 6.564846005625000E9    -2.335832315821644E-2    5.689191870961612E-1    3.322652797939744E-2   -2.802461716171526E-3    3.272513540185817E-2   -3.292594572119166E-3    8.238039656422991E-2    5.236384941228905E-1
 6.564857616500000E9    -2.233938406919323E-2    5.689794760352040E-1    3.348948343268604E-2   -2.816346522743043E-3    3.290624949331024E-2   -3.420391938950358E-3    8.317245090564652E-2    5.233875494459578E-1
 6.564869227375000E9    -2.133202898336332E-2    5.690449006749175E-1    3.364689855959185E-2   -2.931552221315011E-3    3.304480509307160E-2   -3.493848674896606E-3    8.448344288978576E-2    5.232804725607880E-1
 6.564880838250000E9    -2.046501709231517E-2    5.690738928488021E-1    3.380988692201371E-2   -3.098051610540010E-3    3.322649196769692E-2   -3.522079273931284E-3    8.554513295517066E-2    5.229876712417164E-1
 6.564892449125000E9    -1.947738882550712E-2    5.690541214708312E-1    3.388152270463717E-2   -3.235373164534215E-3    3.323761657665686E-2   -3.676662624765945E-3    8.656535576638529E-2    5.229366319851362E-1
 6.564904060000000E9    -1.851493845226155E-2    5.691157373232787E-1    3.395442727363188E-2   -3.204777320367420E-3    3.353427488856348E-2   -3.739805359193410E-3    8.773468622727132E-2    5.227416510334426E-1
 6.564915670875000E9    -1.754310079596148E-2    5.690626621302984E-1    3.419840607690954E-2   -3.360707260526483E-3    3.373450530355143E-2   -3.917716032040485E-3    8.866313205576838E-2    5.225615997839643E-1
 6.564927281750000E9    -1.658891402724514E-2    5.690752951026694E-1    3.433016856769881E-2   -3.311366992168136E-3    3.371733734572756E-2   -3.807066242435245E-3    8.994253998701333E-2    5.223728340111772E-1
 6.564938892625000E9    -1.575183901484980E-2    5.691398754795542E-1    3.457653685295201E-2   -3.441444524253741E-3    3.401623370705300E-2   -4.010080409153186E-3    9.110356789735052E-2    5.222588126813398E-1
 6.564950503500000E9    -1.468652779560275E-2    5.691069301961755E-1    3.476376729495838E-2   -3.623975728204607E-3    3.418673854546184E-2   -4.229108817209124E-3    9.221151681282172E-2    5.220175806015271E-1
 6.564962114375000E9    -1.372467455383117E-2    5.691324087715927E-1    3.492551778019645E-2   -3.709960446985811E-3    3.429724834769077E-2   -4.159665004672841E-3    9.334420847244695E-2    5.217349135252615E-1
 6.564973725250000E9    -1.285882516449632E-2    5.692014926950922E-1    3.512467953137281E-2   -3.820084684793276E-3    3.459776471187789E-2   -4.378926608415963E-3    9.453928458445593E-2    5.216041346029833E-1
 6.564985336125000E9    -1.183733396198017E-2    5.691998311010709E-1    3.533819449280723E-2   -3.731953505630088E-3    3.460098657390529E-2   -4.394102797176120E-3    9.553188843144392E-2    5.213030135663870E-1
 6.564996947000000E9    -1.090294498696974E-2    5.691818857011295E-1    3.543650477881906E-2   -4.136434725774239E-3    3.480570359532212E-2   -4.517184179630967E-3    9.670354622182678E-2    5.212546140807545E-1
 6.565008557875000E9    -9.942431430395438E-3    5.691647647144465E-1    3.560916578185205E-2   -4.083155826543979E-3    3.511228303012612E-2   -4.634474973483058E-3    9.773762978735484E-2    5.209125327026450E-1
 6.565020168750000E9    -9.022257274104037E-3    5.692550620341086E-1    3.590104229672153E-2   -4.209377528160008E-3    3.516326844892742E-2   -4.781819613503013E-3    9.893690404812791E-2    5.207616978375502E-1
 6.565031779625000E9    -8.033398727205548E-3    5.692530151719780E-1    3.601987499891162E-2   -4.333121657324426E-3    3.538981613621978E-2   -4.790893491615647E-3    1.001547143411489E-1    5.206830757475343E-1
 6.565043390500000E9    -7.012334342466660E-3    5.692046141768035E-1    3.626866747638071E-2   -4.432481011666613E-3    3.560875568064744E-2   -4.870721978325618E-3    1.011548773280301E-1    5.202880599087888E-1
 6.565055001375000E9    -6.047553146249847E-3    5.691712619430151E-1    3.629125895572837E-2   -4.530273045549880E-3    3.577802515021239E-2   -5.125866051869916E-3    1.023961256505784E-1    5.201744598039321E-1
 6.565066612250000E9    -5.050489300136281E-3    5.692131604246022E-1    3.661666341349119E-2   -4.629740048904134E-3    3.609795710826896E-2   -5.061244183775387E-3    1.035665053878466E-1    5.200231419397020E-1
 6.565078223125000E9    -4.195032646297649E-3    5.691810189505092E-1    3.682645050019282E-2   -4.721537182517807E-3    3.616393433124570E-2   -5.238788339597020E-3    1.047946829249569E-1    5.198507286199416E-1
 6.565089834000000E9    -3.208146598609957E-3    5.690904900890544E-1    3.710525742432541E-2   -4.789621790595185E-3    3.633942606844005E-2   -5.221196484016885E-3    1.058156131108855E-1    5.195070213394768E-1
 6.565101444875000E9    -2.243589596307249E-3    5.691066080528180E-1    3.716370656153332E-2   -4.962330485459300E-3    3.650412720024840E-2   -5.431128617990470E-3    1.069757959999678E-1    5.192272299068980E-1
 6.565113055750000E9    -1.196663734049825E-3    5.691029647312530E-1    3.740061934271809E-2   -5.062116087026015E-3    3.683238893117478E-2   -5.593122589843028E-3    1.082159820819843E-1    5.189340140241047E-1
 6.565124666625000E9    -2.186512791918616E-4    5.691011866527796E-1    3.758315970408698E-2   -5.154113835991476E-3    3.697479011857931E-2   -5.661401650335793E-3    1.092244600112911E-1    5.188106746786199E-1
 6.565136277500000E9     6.982696368571137E-4    5.691452308000589E-1    3.773098976277094E-2   -5.276279880629105E-3    3.714010865942852E-2   -5.869918976772156E-3    1.104992173848511E-1    5.184907335976495E-1
 6.565147888375000E9     1.784433369028585E-3    5.691296642083848E-1    3.805040360343391E-2   -5.215024173006864E-3    3.741651901969404E-2   -5.919432592419429E-3    1.117000772369798E-1    5.183384276241145E-1
 6.565159499250000E9     2.681622452959281E-3    5.690092071219311E-1    3.823277238292838E-2   -5.362245690225449E-3    3.764619907911985E-2   -6.069402553468170E-3    1.126818299245028E-1    5.180037620031963E-1
 6.565171110125000E9     3.690137798221812E-3    5.690889520516299E-1    3.849311975590330E-2   -5.612366307072592E-3    3.774765256396916E-2   -6.128679534267138E-3    1.139669403618389E-1    5.175916015383999E-1
 6.565182721000000E9     4.621525994464810E-3    5.690084861090248E-1    3.878290007173222E-2   -5.778446769729865E-3    3.804299903368347E-2   -6.237148061529864E-3    1.152257536831699E-1    5.174757780717677E-1
 6.565194331875000E9     5.677076695387871E-3    5.689893117975985E-1    3.879087304350427E-2   -5.906412284882474E-3    3.821649243402259E-2   -6.365024169733380E-3    1.165178859821964E-1    5.171886994333590E-1
 6.565205942750000E9     6.667860230796463E-3    5.688846872313565E-1    3.915316367378870E-2   -6.057706490912432E-3    3.841763058192994E-2   -6.476950033268028E-3    1.175131390945485E-1    5.168331358187288E-1
 6.565217553625000E9     7.636155803635982E-3    5.688837788508488E-1    3.939222187060875E-2   -6.143585767653323E-3    3.862910822917748E-2   -6.622449997615350E-3    1.188263516454034E-1    5.165919913666981E-1
 6.565229164500000E9     8.600713262288926E-3    5.688737031957023E-1    3.951820095485067E-2   -6.186970050867731E-3    3.890844249988576E-2   -6.758503895546249E-3    1.199990348371529E-1    5.163355037158983E-1
 6.565240775375000E9     9.507552477912927E-3    5.688705050556472E-1    3.972077516952383E-2   -6.419948037191184E-3    3.903255778484400E-2   -6.946531654023526E-3    1.211950033557775E-1    5.159605995659171E-1
 6.565252386250000E9     1.054851978005564E-2    5.688286150031313E-1    3.987034400572179E-2   -6.503778140860807E-3    3.931971133772572E-2   -7.012510813394925E-3    1.223768031382457E-1    5.158307137200511E-1
 6.565263997125000E9     1.159417191127694E-2    5.689341050128335E-1    4.026137243016760E-2   -6.635913275994826E-3    3.956577827210542E-2   -7.269360851328254E-3    1.235469133142769E-1    5.153902119939587E-1
 6.565275608000000E9     1.252083895069003E-2    5.686113762327576E-1    4.052958907261282E-2   -6.728328739322885E-3    3.976396601984501E-2   -7.309385107121105E-3    1.248999533966390E-1    5.153344624590886E-1
 6.565287218875000E9     1.355561591566361E-2    5.687412098708693E-1    4.067850427268706E-2   -6.805290255778530E-3    3.992222364784911E-2   -7.422075235215786E-3    1.260975934075307E-1    5.149978553607599E-1
 6.565298829750000E9     1.450391848015807E-2    5.686781499754358E-1    4.091196706161657E-2   -7.175554323769132E-3    4.026620468101540E-2   -7.556680853167475E-3    1.272734154144873E-1    5.146687955070363E-1
 6.565310440625000E9     1.556309751918050E-2    5.686236653524236E-1    4.106356869384087E-2   -7.178758838811532E-3    4.051528800180454E-2   -7.775604598214420E-3    1.286145911449414E-1    5.142453292073118E-1
 6.565322051500000E9     1.663040531250295E-2    5.684766200365321E-1    4.133058825356309E-2   -7.363464830952196E-3    4.070438327291724E-2   -7.801065788300972E-3    1.298395367125399E-1    5.139486393579717E-1
 6.565333662375000E9     1.752373915905094E-2    5.685262406359127E-1    4.167926319628092E-2   -7.454280649042057E-3    4.084590731658997E-2   -8.032740600538518E-3    1.312272184328582E-1    5.136609335451392E-1
 6.565345273250000E9     1.852292471966049E-2    5.684762040652308E-1    4.189067373018255E-2   -7.548456421162313E-3    4.119327765121526E-2   -8.227473446845445E-3    1.322961572743535E-1    5.133826533637096E-1
 6.565356884125000E9     1.947773567555267E-2    5.683891249174419E-1    4.213340876952953E-2   -7.807929284609991E-3    4.138483004820573E-2   -8.387591319273715E-3    1.336687300732357E-1    5.130505783123562E-1
 6.565368495000000E9     2.049328742608586E-2    5.682701548602803E-1    4.230911081137419E-2   -8.033857303523878E-3    4.169263891752551E-2   -8.586382351431063E-3    1.347868906024668E-1    5.126058407819335E-1
 6.565380105875000E9     2.146611655895270E-2    5.682668354089208E-1    4.250338437264372E-2   -7.982788555669930E-3    4.196010083110794E-2   -8.610506853202044E-3    1.360803306125612E-1    5.121790712085561E-1
 6.565391716750000E9     2.265338959562586E-2    5.681870947266698E-1    4.278623265634676E-2   -8.248524072744732E-3    4.223055609891368E-2   -8.729436267797789E-3    1.375287478581597E-1    5.119417845733062E-1
 6.565403327625000E9     2.352353693636519E-2    5.680346824239124E-1    4.325914502454153E-2   -8.279713177258627E-3    4.251257296254411E-2   -8.993083419517241E-3    1.386970629415782E-1    5.115958923633475E-1
 6.565414938500000E9     2.448363716347682E-2    5.679995510585594E-1    4.348810060230111E-2   -8.546357921173579E-3    4.264920981061077E-2   -9.138424541884765E-3    1.399119969081809E-1    5.112245110837940E-1
 6.565426549375000E9     2.556973750732006E-2    5.678768538802671E-1    4.372766363263409E-2   -8.734823665674716E-3    4.292617577601984E-2   -9.310309784863611E-3    1.411879566632606E-1    5.107500059162542E-1
 6.565438160250000E9     2.665958075750903E-2    5.678467075784273E-1    4.397260227244274E-2   -8.862187268648750E-3    4.332017247685728E-2   -9.464928566857574E-3    1.427151436070492E-1    5.104200957504305E-1
 6.565449771125000E9     2.751550267385957E-2    5.678877360242568E-1    4.423431338678298E-2   -9.043891187586689E-3    4.345920987503419E-2   -9.647748753027851E-3    1.437863400028556E-1    5.100305653356114E-1
 6.565461382000000E9     2.857661844179694E-2    5.677131509950315E-1    4.459445188842377E-2   -9.217033255099672E-3    4.377103415161318E-2   -9.817235331805365E-3    1.452334696184813E-1    5.096945621647876E-1
 6.565472992875000E9     2.962980509616650E-2    5.675191598424938E-1    4.477223934405821E-2   -9.416538243582621E-3    4.404560209106505E-2   -9.945317155171288E-3    1.464591292843518E-1    5.092758144696533E-1
 6.565484603750000E9     3.061488804232822E-2    5.674431988654047E-1    4.505028117466621E-2   -9.644307510853326E-3    4.434987623005988E-2   -1.011429947472794E-2    1.477032475198375E-1    5.089824345981745E-1
 6.565496214625000E9     3.164796797036413E-2    5.675047970051711E-1    4.538752683783934E-2   -9.843886665138642E-3    4.457906776828909E-2   -1.034970708230822E-2    1.491160689440510E-1    5.084447440495176E-1
 6.565507825500000E9     3.267270766814498E-2    5.673344526150282E-1    4.563253455870133E-2   -9.975729774432006E-3    4.498199121163081E-2   -1.050102870027796E-2    1.503018038559477E-1    5.080312431164022E-1
 6.565519436375000E9     3.385376607728536E-2    5.671435240593186E-1    4.597909645479452E-2   -1.015408604627356E-2    4.516549926083926E-2   -1.079351570312083E-2    1.518370781170335E-1    5.076096889746848E-1
 6.565531047250000E9     3.486438369356620E-2    5.671518794126278E-1    4.639423232819029E-2   -1.033181421258240E-2    4.564235319436737E-2   -1.087717483102870E-2    1.531403125366463E-1    5.072815499909537E-1
 6.565542658125000E9     3.574597992080756E-2    5.669867899837087E-1    4.665009706136929E-2   -1.041694307727312E-2    4.582938387690941E-2   -1.108347491095759E-2    1.545139307396613E-1    5.067901253654132E-1
 6.565554269000000E9     3.680176001747484E-2    5.668584411188965E-1    4.690198373733636E-2   -1.076830045541850E-2    4.609880712135311E-2   -1.128033721980756E-2    1.558455276899841E-1    5.064352575195680E-1
 6.565565879875000E9     3.791005965863220E-2    5.667034509093291E-1    4.702492637053316E-2   -1.081619910066310E-2    4.640699663646036E-2   -1.158700037673895E-2    1.572199978168404E-1    5.058415270321033E-1
 6.565577490750000E9     3.894805474456672E-2    5.667350171056750E-1    4.756271341588188E-2   -1.106660877211173E-2    4.676883601035708E-2   -1.160985853849029E-2    1.584598902362271E-1    5.053892092588350E-1
 6.565589101625000E9     4.003368408801800E-2    5.666112678341286E-1    4.778292671305628E-2   -1.114539304648203E-2    4.704027917067366E-2   -1.196839917027756E-2    1.600332195136492E-1    5.048748364735829E-1
 6.565600712500000E9     4.092037174422217E-2    5.664646588846992E-1    4.814804402855605E-2   -1.163414603915898E-2    4.731295485022462E-2   -1.216418454187041E-2    1.612417865337309E-1    5.043525254429154E-1
 6.565612323375000E9     4.208590371709126E-2    5.662362234910350E-1    4.837844176257266E-2   -1.178534069865347E-2    4.768473658178119E-2   -1.236231828116434E-2    1.627283009721585E-1    5.040848616135918E-1
 6.565623934250000E9     4.305596180001306E-2    5.661551817758814E-1    4.885315055632001E-2   -1.193439598940835E-2    4.792184543159854E-2   -1.257964789280980E-2    1.642874672927612E-1    5.035338463539278E-1
 6.565635545125000E9     4.404828764611809E-2    5.660393055570773E-1    4.913863022226907E-2   -1.211553313098883E-2    4.836498281569438E-2   -1.272655085420458E-2    1.655900612662410E-1    5.028593805469510E-1
 6.565647156000000E9     4.514912126947633E-2    5.658512380962260E-1    4.954472777360803E-2   -1.249494677743753E-2    4.864880895643143E-2   -1.311173252851077E-2    1.669788690425455E-1    5.025168900518788E-1
 6.565658766875000E9     4.623918591088883E-2    5.658683111037243E-1    4.982729312824558E-2   -1.270385125880702E-2    4.906265025475765E-2   -1.327795934320427E-2    1.683972963036651E-1    5.019778939322247E-1
 6.565670377750000E9     4.723685715758302E-2    5.656777341509305E-1    5.014369651106795E-2   -1.293436844491561E-2    4.927917481684717E-2   -1.359673731910864E-2    1.697465682701295E-1    5.014171611242384E-1
 6.565681988625000E9     4.828972729592345E-2    5.654875529483713E-1    5.054587985038406E-2   -1.318185380151789E-2    4.966079369353144E-2   -1.373699534630519E-2    1.712691622025900E-1    5.008106204917043E-1
 6.565693599500000E9     4.943396039126589E-2    5.653208652612416E-1    5.083980058735330E-2   -1.333010768432035E-2    5.005079448358456E-2   -1.386193486297200E-2    1.728155245293654E-1    5.003260525015225E-1
 6.565705210375000E9     5.046490420275335E-2    5.652191637894298E-1    5.127414669906322E-2   -1.361259926936586E-2    5.042552497820482E-2   -1.424366115054966E-2    1.741327799337543E-1    4.997108463596507E-1
 6.565716821250000E9     5.155897669514301E-2    5.650936627114901E-1    5.156518867470748E-2   -1.400352074082073E-2    5.079295345728934E-2   -1.452043436609374E-2    1.757261981989066E-1    4.991600826935151E-1
 6.565728432125000E9     5.264832546850235E-2    5.649807470747473E-1    5.205297111840537E-2   -1.418299222458977E-2    5.114912001772484E-2   -1.476206829705388E-2    1.771250071610835E-1    4.986211441238825E-1
 6.565740043000000E9     5.374788056493209E-2    5.647825155667540E-1    5.238715244716372E-2   -1.436352433578377E-2    5.155422896283456E-2   -1.510088092748990E-2    1.786618512702650E-1    4.980794852477480E-1
 6.565751653875000E9     5.483592547457333E-2    5.645612979784083E-1    5.274842836501184E-2   -1.459970312163267E-2    5.186888451178968E-2   -1.536612987949511E-2    1.800893489138196E-1    4.973843786924568E-1
 6.565763264750000E9     5.576522654696254E-2    5.643675855660277E-1    5.323448393398814E-2   -1.505896765632023E-2    5.228033991892967E-2   -1.568754403044107E-2    1.817002903501644E-1    4.967932714371031E-1
 6.565774875625000E9     5.682925526752635E-2    5.642207817120761E-1    5.347444659586437E-2   -1.535265819358137E-2    5.270928815890923E-2   -1.595195264262243E-2    1.831915169789123E-1    4.961284780728196E-1
 6.565786486500000E9     5.793988981286098E-2    5.640341085894228E-1    5.389181577006878E-2   -1.555701894630608E-2    5.307991250862137E-2   -1.627077499959833E-2    1.847450488400730E-1    4.955506287003950E-1
 6.565798097375000E9     5.899761661826605E-2    5.639182001905191E-1    5.445245056226196E-2   -1.577907515346108E-2    5.342142655671516E-2   -1.650863108694242E-2    1.862520368159091E-1    4.948620258799403E-1
 6.565809708250000E9     6.024148089282979E-2    5.635646246643401E-1    5.476390044364522E-2   -1.622196486276994E-2    5.382618710938367E-2   -1.686905516793109E-2    1.877926644935447E-1    4.943853008612034E-1
 6.565821319125000E9     6.125996798999125E-2    5.634240529111568E-1    5.517260801837669E-2   -1.639080358646907E-2    5.426783331749843E-2   -1.717893445787437E-2    1.894142929743480E-1    4.935230395014734E-1
 6.565832930000000E9     6.250972642221773E-2    5.632825501936863E-1    5.581000817973169E-2   -1.691313836848687E-2    5.472056056590939E-2   -1.750761766269676E-2    1.909346883286736E-1    4.928398229355682E-1
 6.565844540875000E9     6.354806516594587E-2    5.630900427080568E-1    5.608225180221646E-2   -1.696738472507557E-2    5.518856988494831E-2   -1.789012698414559E-2    1.925660636150345E-1    4.922187534731597E-1
 6.565856151750000E9     6.463617869116492E-2    5.628403934501419E-1    5.654462271014477E-2   -1.733316164900982E-2    5.559517578610262E-2   -1.819819906746507E-2    1.942122929774724E-1    4.913841686027784E-1
