#  HZ   S   RI   R     50.00 
! Rohde & Schwarz Vector Network Analyzer 
! Rohde-Schwarz,ZNB20-2Port,1311601062101988,3.16
! Created: UTC 3/20/2024, 5:01:09 PM
! freq[Hz]                re:S11                  im:S11                  re:S21                  im:S21                  re:S12                  im:S12                  re:S22                  im:S22
 6.563981294000000E9    -9.144427924038889E-2    5.616624089579650E-1    2.534422288657693E-2    9.495284995020655E-4    2.494977877242248E-2    4.287519993718250E-4    6.652849762886095E-3    5.243382538905480E-1
 6.563996280300000E9    -9.028555606820922E-2    5.617866038368210E-1    2.558618830677711E-2    9.373472172517204E-4    2.510469002413607E-2    4.406260806665516E-4    7.892787410272776E-3    5.245701133194678E-1
 6.564011266600000E9    -8.916732543885682E-2    5.619128491593394E-1    2.554138940720984E-2    9.196972311044988E-4    2.517958563582020E-2    3.368891919486545E-4    9.177309487723662E-3    5.247141573859666E-1
 6.564026252900000E9    -8.801574290322731E-2    5.621493040470598E-1    2.570586934897549E-2    8.134584317059013E-4    2.545841367058610E-2    3.099839592321408E-4    1.057981922945913E-2    5.245476056545574E-1
 6.564041239200000E9    -8.679647750593852E-2    5.623181525725923E-1    2.596096116530760E-2    6.918393248747427E-4    2.552335484697962E-2    2.310131150701008E-4    1.164058377662245E-2    5.244330905588228E-1
 6.564056225500000E9    -8.567321466674960E-2    5.625377656854601E-1    2.604518987315092E-2    5.774932782182889E-4    2.559575642380339E-2    1.978483376494960E-4    1.291494759924342E-2    5.244852426972768E-1
 6.564071211800000E9    -8.450355931972403E-2    5.626872030103406E-1    2.616905166130903E-2    5.236607628813870E-4    2.571779158707129E-2    1.588879722624353E-4    1.415082346426744E-2    5.244107388495939E-1
 6.564086198100000E9    -8.330335041185725E-2    5.627865839683495E-1    2.628211184284980E-2    5.280218361997669E-4    2.584598635686905E-2    6.712142387278310E-5    1.550857576303042E-2    5.243377108736048E-1
 6.564101184400000E9    -8.217250556903481E-2    5.630655058691763E-1    2.661515902810967E-2    5.144335821821142E-4    2.598063583743405E-2   -2.445438156825736E-5    1.657949804604383E-2    5.244482207694047E-1
 6.564116170700000E9    -8.102871132734056E-2    5.630391547357048E-1    2.645632963451471E-2    4.167027936653323E-4    2.605533736492741E-2   -9.381953451756781E-5    1.789920808325279E-2    5.244065067315636E-1
 6.564131157000000E9    -7.975202624455623E-2    5.633433078200737E-1    2.663506060074538E-2    3.426652236911490E-4    2.637197655052625E-2   -1.895626524190856E-4    1.915534349276653E-2    5.243122853259792E-1
 6.564146143300000E9    -7.860197087143235E-2    5.635308116673867E-1    2.685620956672257E-2    2.925531622301064E-4    2.635564107881518E-2   -2.521101230438104E-4    2.050343571164272E-2    5.243267879780770E-1
 6.564161129600000E9    -7.739518614156929E-2    5.636135673042556E-1    2.693432759058997E-2    2.373259821875467E-4    2.650269549034922E-2   -2.129296748040615E-4    2.181198177205323E-2    5.243327295569690E-1
 6.564176115900000E9    -7.619119822617168E-2    5.638054068353087E-1    2.711936812093121E-2    1.127814267430000E-4    2.663912224625084E-2   -3.269834723640596E-4    2.324582123583496E-2    5.243375788769483E-1
 6.564191102200000E9    -7.509176927186470E-2    5.639552299384687E-1    2.742116066072721E-2    1.614465903648914E-4    2.678885432886955E-2   -3.640117291724924E-4    2.430074889722498E-2    5.243161306724006E-1
 6.564206088500000E9    -7.392225872726124E-2    5.640844444102111E-1    2.749682232323589E-2   -3.555972810774919E-5    2.701657822968461E-2   -6.151883779073641E-4    2.550354831054182E-2    5.241463088948767E-1
 6.564221074800000E9    -7.266453479826813E-2    5.641702907274743E-1    2.756245124577260E-2   -1.026147392607482E-4    2.709671730723654E-2   -5.914962181557192E-4    2.691277120089895E-2    5.240143329733554E-1
 6.564236061100000E9    -7.158164011330437E-2    5.643825630894777E-1    2.770348990034346E-2   -1.766616049982246E-4    2.732682249536894E-2   -6.593116526205306E-4    2.825059569911382E-2    5.240510120410546E-1
 6.564251047400000E9    -7.038334128879591E-2    5.645060883320978E-1    2.782456835214433E-2   -2.486196184350129E-4    2.735990394299253E-2   -6.537660083581400E-4    2.944002996060207E-2    5.240730153778634E-1
 6.564266033700000E9    -6.915300947257576E-2    5.645208934755991E-1    2.814310741043500E-2   -2.977250734823257E-4    2.760309023136010E-2   -7.765681655377156E-4    3.079544738923168E-2    5.239398099649665E-1
 6.564281020000000E9    -6.803655343499362E-2    5.647480787374425E-1    2.810672194772578E-2   -2.843568595543956E-4    2.772021420426001E-2   -8.612736333629713E-4    3.211103740068756E-2    5.238443266808758E-1
 6.564296006300000E9    -6.673001349158476E-2    5.649445880179668E-1    2.834166426778963E-2   -5.065474769445114E-4    2.796995722677707E-2   -8.999517086071206E-4    3.335768257775569E-2    5.237952238011047E-1
 6.564310992600000E9    -6.563889358656066E-2    5.649965574442518E-1    2.845685319395190E-2   -3.316860382386713E-4    2.804406970728570E-2   -9.883852487648595E-4    3.469611925809458E-2    5.236876736852639E-1
 6.564325978900000E9    -6.450232459840329E-2    5.651702145283285E-1    2.859499184266158E-2   -6.711040674977323E-4    2.813598129894903E-2   -1.091305213742954E-3    3.606166096209935E-2    5.237180550135025E-1
 6.564340965200000E9    -6.316672181796699E-2    5.652941688823829E-1    2.882134070705506E-2   -6.867341211289821E-4    2.837119395276817E-2   -1.232693304777869E-3    3.738228348662443E-2    5.235659192080251E-1
 6.564355951500000E9    -6.203089819260489E-2    5.654865403735569E-1    2.887792429626932E-2   -7.053948719881677E-4    2.837959109938315E-2   -1.331978976940675E-3    3.867139800893006E-2    5.236069755322433E-1
 6.564370937800000E9    -6.094042666781960E-2    5.654961429712179E-1    2.917472256681219E-2   -8.676466651260884E-4    2.863085168092809E-2   -1.349314139953501E-3    4.002445639479479E-2    5.234437889269458E-1
 6.564385924100000E9    -5.960728998261902E-2    5.657918566032677E-1    2.930077957046026E-2   -9.563013303695465E-4    2.877037450613712E-2   -1.522829275100716E-3    4.119837123295528E-2    5.233369594017755E-1
 6.564400910400000E9    -5.843607795353864E-2    5.657282365883829E-1    2.953847244043700E-2   -1.026658829281468E-3    2.892954747531728E-2   -1.603641458569325E-3    4.250351222858374E-2    5.231690438742463E-1
 6.564415896700000E9    -5.724063134514226E-2    5.658967703164396E-1    2.978441189347444E-2   -1.001082665519440E-3    2.902581968827704E-2   -1.581476892949721E-3    4.377912897973462E-2    5.229090003998323E-1
 6.564430883000000E9    -5.601914856102075E-2    5.659651837180371E-1    2.986513557608241E-2   -1.196117535214244E-3    2.923324795776778E-2   -1.703145347591098E-3    4.520506803476982E-2    5.229623785432599E-1
 6.564445869300000E9    -5.496329457071735E-2    5.660741335400657E-1    2.999758897687742E-2   -1.293400506140129E-3    2.951487745968591E-2   -1.830226571769215E-3    4.656397860620726E-2    5.227272892085066E-1
 6.564460855600000E9    -5.366430889878547E-2    5.661938394941973E-1    3.023855059572858E-2   -1.465213977140594E-3    2.965075115033474E-2   -1.882299824423243E-3    4.793413968049854E-2    5.227859953882726E-1
 6.564475841900000E9    -5.244580525829327E-2    5.663330327000938E-1    3.032534010728465E-2   -1.514149147864448E-3    2.985274902396695E-2   -1.954729866003710E-3    4.937671674477322E-2    5.227616340305857E-1
 6.564490828200000E9    -5.130296017358497E-2    5.663729740648512E-1    3.054834107871335E-2   -1.584965467541041E-3    3.000325032045963E-2   -2.092217423105951E-3    5.036938682028231E-2    5.225030093518033E-1
 6.564505814500000E9    -5.003977656555827E-2    5.666383745878588E-1    3.066770301610385E-2   -1.554227777317201E-3    3.025773070012620E-2   -2.163500967138779E-3    5.200599552691536E-2    5.223951545810014E-1
 6.564520800800000E9    -4.890750582309086E-2    5.666598926461897E-1    3.098264755368998E-2   -1.789249097030238E-3    3.028873570884277E-2   -2.242973713661578E-3    5.328158482588276E-2    5.222773477840063E-1
 6.564535787100000E9    -4.775069283221337E-2    5.666792482691527E-1    3.094413476677269E-2   -1.846149468521181E-3    3.051811378030283E-2   -2.313949086019364E-3    5.458332763480084E-2    5.221283520307038E-1
 6.564550773400000E9    -4.648257216459488E-2    5.667904059910425E-1    3.115682514134331E-2   -1.789819268242402E-3    3.065855177622776E-2   -2.414100297613627E-3    5.598447912451306E-2    5.219191790207484E-1
 6.564565759700000E9    -4.516269057260092E-2    5.668710812518570E-1    3.132725541136889E-2   -2.126689425274040E-3    3.083307507855580E-2   -2.569380107065533E-3    5.719171121795927E-2    5.219384809551550E-1
 6.564580746000000E9    -4.407645641137765E-2    5.669680047779690E-1    3.167587411173368E-2   -2.094224951247000E-3    3.100129758663225E-2   -2.670836219017611E-3    5.879263981861026E-2    5.215840577881451E-1
 6.564595732300000E9    -4.283662446618056E-2    5.668852660952242E-1    3.171715725039471E-2   -2.322852748243006E-3    3.124756323829479E-2   -2.816917657588508E-3    6.008801011676759E-2    5.215095579422117E-1
 6.564610718600000E9    -4.151567480880821E-2    5.670247242486938E-1    3.205223192806014E-2   -2.401928387256530E-3    3.139886325361784E-2   -3.029151289688988E-3    6.152970310378854E-2    5.214907350938491E-1
 6.564625704900000E9    -4.042602878214065E-2    5.671849291712818E-1    3.216940287876199E-2   -2.515259418377691E-3    3.155562002845839E-2   -3.058123834997484E-3    6.280127701746317E-2    5.211092300635622E-1
 6.564640691200000E9    -3.918035593897938E-2    5.671846699842082E-1    3.240557351505036E-2   -2.651764490141084E-3    3.172586761875677E-2   -3.088114815621254E-3    6.427294766068799E-2    5.210156026668373E-1
 6.564655677500000E9    -3.798872249963336E-2    5.671600477620469E-1    3.244113329069001E-2   -2.720707253593759E-3    3.196795161020168E-2   -3.236200833502620E-3    6.552040454249999E-2    5.209111726848646E-1
 6.564670663800000E9    -3.673935878810790E-2    5.672832255292458E-1    3.258242023323370E-2   -2.707343358614570E-3    3.220138097703520E-2   -3.303670855982521E-3    6.700665302747004E-2    5.207635062008685E-1
 6.564685650100000E9    -3.558470384621686E-2    5.674759763309609E-1    3.294081174922907E-2   -2.957582595722924E-3    3.234773639379336E-2   -3.421573657536584E-3    6.840520854235975E-2    5.204945598167796E-1
 6.564700636400000E9    -3.430935823416027E-2    5.675006877573999E-1    3.306715722344371E-2   -2.902695501207552E-3    3.250708425791455E-2   -3.496229700990341E-3    6.983022834225577E-2    5.202901248427559E-1
 6.564715622700000E9    -3.320733269139448E-2    5.675608552336106E-1    3.332613621637277E-2   -3.106330867594377E-3    3.268788807100625E-2   -3.693775738862062E-3    7.111877302201758E-2    5.201042023629414E-1
 6.564730609000000E9    -3.195544827157386E-2    5.675738218668830E-1    3.356320259077435E-2   -3.162600250563871E-3    3.310940067478393E-2   -3.641919318299428E-3    7.256561552617302E-2    5.199004270954424E-1
 6.564745595300000E9    -3.058024031950048E-2    5.675621968701087E-1    3.371128732877261E-2   -3.355008797530127E-3    3.319449458859708E-2   -3.824546960550828E-3    7.392600379399691E-2    5.196730416975726E-1
 6.564760581600000E9    -2.955071492121741E-2    5.676286428258255E-1    3.415041822736004E-2   -3.401809599489891E-3    3.344120264777711E-2   -4.083025311543693E-3    7.537076996830291E-2    5.193982682151904E-1
 6.564775567900000E9    -2.833647796314195E-2    5.676844788252227E-1    3.413674342787724E-2   -3.685193104185018E-3    3.358623994650387E-2   -4.152283888575007E-3    7.686024332114000E-2    5.194484078131535E-1
 6.564790554200000E9    -2.688354144045614E-2    5.677433741173639E-1    3.445710885293413E-2   -3.725424352530834E-3    3.385235785474691E-2   -4.236708402576748E-3    7.823260227119828E-2    5.189998425772564E-1
 6.564805540500000E9    -2.579948902090752E-2    5.678232768111672E-1    3.457561477125586E-2   -3.870727035211485E-3    3.420268445739897E-2   -4.434803039111689E-3    7.967083879546127E-2    5.189373408760363E-1
 6.564820526800000E9    -2.455136847259900E-2    5.677414494780416E-1    3.490968345885424E-2   -3.794089092463112E-3    3.422501460116093E-2   -4.519021079496366E-3    8.111610541936976E-2    5.186072493824144E-1
 6.564835513100000E9    -2.341378125994006E-2    5.678359905185163E-1    3.508761560926071E-2   -4.118561744919270E-3    3.459224383759641E-2   -4.654757340249798E-3    8.254407354143836E-2    5.182559632860936E-1
 6.564850499400000E9    -2.206803279837954E-2    5.678094786502695E-1    3.525322973279645E-2   -4.252612232568930E-3    3.478608315243157E-2   -4.759681313640025E-3    8.401924045551502E-2    5.182145520666712E-1
 6.564865485700000E9    -2.084981971550205E-2    5.677874210198047E-1    3.550527876830907E-2   -4.370873301234738E-3    3.489827823689561E-2   -4.877624853944278E-3    8.536155291881660E-2    5.179142093894199E-1
 6.564880472000000E9    -1.950675694618129E-2    5.677601087234588E-1    3.575997864193496E-2   -4.662471506254456E-3    3.523673747128334E-2   -5.103559983893659E-3    8.697066265543857E-2    5.176978986978369E-1
 6.564895458300000E9    -1.830667819038316E-2    5.678937153292536E-1    3.607039576737559E-2   -4.672520586895963E-3    3.541676514009656E-2   -5.290139468780743E-3    8.834199252120289E-2    5.174134848991832E-1
 6.564910444600000E9    -1.705504652596193E-2    5.679915529839943E-1    3.628298815229793E-2   -4.886944766085118E-3    3.570837807700554E-2   -5.326226580887166E-3    8.965431650199898E-2    5.171009534471214E-1
 6.564925430900000E9    -1.594367274725871E-2    5.678701254756481E-1    3.644864500565751E-2   -4.948270249665623E-3    3.591646820000531E-2   -5.551169032092343E-3    9.133815109081959E-2    5.167652105842266E-1
 6.564940417200000E9    -1.465910976396930E-2    5.678133705660844E-1    3.680670048664728E-2   -5.099141131047800E-3    3.618707977931312E-2   -5.596030841036133E-3    9.268829156969006E-2    5.165089279443549E-1
 6.564955403500000E9    -1.341563824280141E-2    5.679135161789405E-1    3.702548224877290E-2   -5.182010331562674E-3    3.635895554561402E-2   -5.736227079064029E-3    9.436988786795650E-2    5.161842769117010E-1
 6.564970389800000E9    -1.207697076022767E-2    5.678538637039368E-1    3.737372964971195E-2   -5.439608075576161E-3    3.663534875989437E-2   -6.009356918600870E-3    9.565935161804746E-2    5.158651654317159E-1
 6.564985376100000E9    -1.087518527849942E-2    5.679336488569399E-1    3.755891287335641E-2   -5.553989641832382E-3    3.687992663306908E-2   -6.081347772824017E-3    9.718555759537954E-2    5.155801468317087E-1
 6.565000362400000E9    -9.647622220910847E-3    5.677735914965054E-1    3.778939562671250E-2   -5.720050536728056E-3    3.715295350045952E-2   -6.218526959141198E-3    9.867272697631282E-2    5.151961579135580E-1
 6.565015348700000E9    -8.445188102341850E-3    5.677767847269427E-1    3.791448309884822E-2   -5.860504137581393E-3    3.736654683867176E-2   -6.382762417497762E-3    1.002864665956460E-1    5.150903008116672E-1
 6.565030335000000E9    -7.070596148659159E-3    5.677774168803783E-1    3.832023324402198E-2   -6.015037581646868E-3    3.765539910231300E-2   -6.547154991396916E-3    1.017492368191295E-1    5.146490916699538E-1
 6.565045321300000E9    -5.802910651516240E-3    5.677774172935868E-1    3.864430105454978E-2   -6.090785784242506E-3    3.796459216472002E-2   -6.773335195435761E-3    1.032760028441561E-1    5.142331921559955E-1
 6.565060307600000E9    -4.434217189310857E-3    5.678875983581853E-1    3.887477164514828E-2   -6.370563253013425E-3    3.815065073698496E-2   -6.918540514499327E-3    1.048257202609235E-1    5.140040448965808E-1
 6.565075293900000E9    -3.294445604846297E-3    5.676968817133728E-1    3.914114515067873E-2   -6.457999012474612E-3    3.845666047836667E-2   -7.120607578073089E-3    1.063050445730050E-1    5.136038149874753E-1
 6.565090280200000E9    -1.990297582826323E-3    5.677196795145859E-1    3.932950896413741E-2   -6.712927877538022E-3    3.877878278969979E-2   -7.249897474773884E-3    1.078081580647049E-1    5.132580907360633E-1
 6.565105266500000E9    -7.918924885639240E-4    5.676743827002385E-1    3.961502265263341E-2   -6.951685565671625E-3    3.899376398799336E-2   -7.522560820838635E-3    1.094508040307847E-1    5.128899375202548E-1
 6.565120252800000E9     4.615996738262554E-4    5.677396108807172E-1    4.001414556915606E-2   -7.138218051365571E-3    3.939573474897318E-2   -7.576483308452240E-3    1.108693171763201E-1    5.123851087337258E-1
 6.565135239100000E9     1.804757724988420E-3    5.676096473608061E-1    4.037094805608538E-2   -7.325436271248003E-3    3.949803647790490E-2   -7.795413634999392E-3    1.124289727498956E-1    5.121441983166779E-1
 6.565150225400000E9     3.114156864371074E-3    5.676087978459371E-1    4.068295389478423E-2   -7.357376965833961E-3    3.981972909592969E-2   -7.962693096900755E-3    1.140141416001990E-1    5.117398851258360E-1
 6.565165211700000E9     4.363151832773257E-3    5.675903168234839E-1    4.074777285670701E-2   -7.721489331681591E-3    4.022144440321273E-2   -8.217545536409129E-3    1.158209581848230E-1    5.113809019661653E-1
 6.565180198000000E9     5.621108835998847E-3    5.674559973225359E-1    4.115028089533580E-2   -7.776347343115719E-3    4.039623311905265E-2   -8.395448052125389E-3    1.171222387331416E-1    5.108835155079707E-1
 6.565195184300000E9     6.870641223617857E-3    5.674575821657536E-1    4.147065545958000E-2   -8.139828816268367E-3    4.084364836501518E-2   -8.608310529576765E-3    1.187439050469602E-1    5.104043223885022E-1
 6.565210170600000E9     8.071151634607237E-3    5.673924064385802E-1    4.180881006824735E-2   -8.341608002023937E-3    4.109951708776259E-2   -8.890591474028773E-3    1.204344686256619E-1    5.100023117490333E-1
 6.565225156900000E9     9.452795424893089E-3    5.672569063135218E-1    4.229821534806471E-2   -8.648857175290734E-3    4.138857943883717E-2   -9.058250819715178E-3    1.221235769863964E-1    5.096513944574621E-1
 6.565240143200000E9     1.082147385727121E-2    5.671775627790275E-1    4.249393661821231E-2   -8.757449652363386E-3    4.174344687153577E-2   -9.310764174057410E-3    1.236677684497544E-1    5.091328376155059E-1
 6.565255129500000E9     1.216443880054575E-2    5.671708488973327E-1    4.276328018119682E-2   -9.018471187562358E-3    4.204562695594535E-2   -9.577680041800807E-3    1.253008221206611E-1    5.086496845197712E-1
 6.565270115800000E9     1.334491254849441E-2    5.668863494896684E-1    4.305930172455136E-2   -9.242612580778825E-3    4.232890082294575E-2   -9.781855859419935E-3    1.267984388249377E-1    5.080656408081129E-1
 6.565285102100000E9     1.468132304897333E-2    5.668972336994622E-1    4.334025952931126E-2   -9.451611722156458E-3    4.271434796408653E-2   -9.986225172791220E-3    1.284663294751297E-1    5.076587319856197E-1
 6.565300088400000E9     1.608869292107613E-2    5.668559677430124E-1    4.381964936562940E-2   -9.703345316076750E-3    4.311218537538903E-2   -1.030519502365357E-2    1.301714170480012E-1    5.070413423356710E-1
 6.565315074700000E9     1.729190416073204E-2    5.666337324569343E-1    4.406990301252166E-2   -9.889706566255575E-3    4.335874771409735E-2   -1.042692631860580E-2    1.317812439429242E-1    5.068109387669192E-1
 6.565330061000000E9     1.857075848371311E-2    5.667008304162140E-1    4.439932159046499E-2   -1.019670691634221E-2    4.371199024811204E-2   -1.078476924900714E-2    1.334278833462698E-1    5.062726475507321E-1
