#  HZ   S   RI   R     50.00 
! Rohde & Schwarz Vector Network Analyzer 
! Rohde-Schwarz,ZNB20-2Port,1311601062101988,3.16
! Created: UTC 3/20/2024, 5:04:57 PM
! freq[Hz]                re:S11                  im:S11                  re:S21                  im:S21                  re:S12                  im:S12                  re:S22                  im:S22
 6.564139358000000E9    -7.955415988671775E-2    5.634894484952150E-1    2.641149383177741E-2    4.518655287704351E-4    2.598695531697750E-2   -6.874001372719517E-5    1.939003810112312E-2    5.247573149731354E-1
 6.564153731500000E9    -7.837328261229574E-2    5.635755310735985E-1    2.648263150953161E-2    5.143946787045733E-4    2.609590779292338E-2   -9.809665339677578E-5    2.062246243142926E-2    5.246234840950141E-1
 6.564168105000000E9    -7.722536795574163E-2    5.637331163906663E-1    2.669012728871589E-2    2.676953706966938E-4    2.634465837960493E-2   -1.135994172560081E-4    2.177019616144740E-2    5.247336972230935E-1
 6.564182478500000E9    -7.619015336431041E-2    5.637754096633923E-1    2.693936755802785E-2    2.576374060673393E-4    2.634935148629260E-2   -3.405580148765256E-4    2.303547150744785E-2    5.246015650190361E-1
 6.564196852000000E9    -7.505482204500491E-2    5.640424119456255E-1    2.702220719804324E-2    2.763808446338267E-4    2.649201759872988E-2   -2.854255457402313E-4    2.430951223192038E-2    5.246519419588749E-1
 6.564211225500000E9    -7.388443500286274E-2    5.640268873666139E-1    2.723508449284406E-2    1.532270242155479E-4    2.669065648194301E-2   -3.151668630999510E-4    2.548892341570691E-2    5.244903661837348E-1
 6.564225599000000E9    -7.276695367620660E-2    5.643615572838818E-1    2.725221896657986E-2   -1.357707158739825E-6    2.673438324618082E-2   -4.213800630643178E-4    2.681902438042667E-2    5.245000425735092E-1
 6.564239972500000E9    -7.170792577608465E-2    5.645122431323445E-1    2.745618165351256E-2    2.476637861519125E-5    2.691364768746064E-2   -5.154316520828495E-4    2.805171658023462E-2    5.245608626278884E-1
 6.564254346000000E9    -7.044421705677671E-2    5.646562133595521E-1    2.753749126075459E-2   -1.601608636113243E-4    2.710045336247168E-2   -4.605578848301372E-4    2.912027657673202E-2    5.244016877214213E-1
 6.564268719500000E9    -6.936381065764788E-2    5.646956331471930E-1    2.775226004045002E-2   -6.546453173316211E-5    2.720111190030520E-2   -6.407378049978146E-4    3.053251540277476E-2    5.243546742302213E-1
 6.564283093000000E9    -6.820579125744838E-2    5.648570398809909E-1    2.780095018774442E-2   -7.365495823248918E-5    2.736029309331755E-2   -8.263745864753010E-4    3.180494182902197E-2    5.242264002911686E-1
 6.564297466500000E9    -6.710815356482897E-2    5.650071982685330E-1    2.793988968976015E-2   -3.949703466822253E-4    2.763116243417322E-2   -7.867832442782861E-4    3.299771502243275E-2    5.241730026420329E-1
 6.564311840000000E9    -6.591424812535018E-2    5.651180674014563E-1    2.803485196066791E-2   -3.890967328591814E-4    2.761097755874092E-2   -9.139578567658825E-4    3.419638977792087E-2    5.240014742536699E-1
 6.564326213500000E9    -6.488347253373473E-2    5.653143680097069E-1    2.837101312789222E-2   -3.050672857737312E-4    2.772486657413471E-2   -9.315496432020039E-4    3.545974203623634E-2    5.241946643958023E-1
 6.564340587000000E9    -6.366191313452431E-2    5.653648242074216E-1    2.834374888932568E-2   -5.236499312278246E-4    2.793715368541286E-2   -9.986007956226505E-4    3.678232944005858E-2    5.240302565486805E-1
 6.564354960500000E9    -6.267696934548846E-2    5.654945021377910E-1    2.865796367273685E-2   -5.378583017507827E-4    2.812601425530123E-2   -1.078692592465561E-3    3.782467008661091E-2    5.239438362443132E-1
 6.564369334000000E9    -6.145773405363479E-2    5.656618132801445E-1    2.876907749459002E-2   -6.054574055577145E-4    2.820989642348698E-2   -1.157202912751962E-3    3.917005653831673E-2    5.237959262327940E-1
 6.564383707500000E9    -6.032904377096382E-2    5.657572616085434E-1    2.891451050986337E-2   -6.520809923603206E-4    2.843618230094172E-2   -1.242223577710835E-3    4.046257645057280E-2    5.237719465572994E-1
 6.564398081000000E9    -5.910598384363484E-2    5.657677812655408E-1    2.894751219354934E-2   -7.851307722368130E-4    2.848773524579691E-2   -1.250509411118662E-3    4.166942756955354E-2    5.236694381399458E-1
 6.564412454500000E9    -5.796602309267951E-2    5.659157630663669E-1    2.920953730416816E-2   -7.613544550062628E-4    2.868012750978029E-2   -1.319787370656108E-3    4.296415887012488E-2    5.235668598449017E-1
 6.564426828000000E9    -5.689151129446330E-2    5.659797447638458E-1    2.944043310128973E-2   -1.046633836900341E-3    2.881314319853735E-2   -1.356522211907428E-3    4.428663705689213E-2    5.235562762108420E-1
 6.564441201500000E9    -5.563322996525879E-2    5.661718471309940E-1    2.962329146871234E-2   -1.062858491044157E-3    2.900186216512888E-2   -1.525271541790764E-3    4.547983437478545E-2    5.233898315797408E-1
 6.564455575000000E9    -5.459680221723612E-2    5.662573275389121E-1    2.964455941007841E-2   -1.177485517378445E-3    2.924705999950270E-2   -1.642863324209755E-3    4.663284814907756E-2    5.232617455311054E-1
 6.564469948500000E9    -5.350063122698271E-2    5.662852701600748E-1    2.971543574909325E-2   -1.188354703627594E-3    2.931129625720491E-2   -1.764922799334544E-3    4.799887402965675E-2    5.231900931192791E-1
 6.564484322000000E9    -5.231313977338556E-2    5.664639712875218E-1    2.993399789594264E-2   -1.263258845813687E-3    2.948872595805175E-2   -1.813797718979205E-3    4.934858443614389E-2    5.230081038135451E-1
 6.564498695500000E9    -5.108080918335374E-2    5.665285377603592E-1    3.017288088747793E-2   -1.293829900157444E-3    2.963638027999234E-2   -1.894684245990378E-3    5.061685244442942E-2    5.230396383156618E-1
 6.564513069000000E9    -4.986485506438152E-2    5.666824000692818E-1    3.038211885816194E-2   -1.416299850204151E-3    2.975393920429285E-2   -2.066410015654916E-3    5.189559246255892E-2    5.228107829092753E-1
 6.564527442500000E9    -4.890069542420970E-2    5.667627815405528E-1    3.049902000792504E-2   -1.532786487689104E-3    3.002770399826398E-2   -2.080878888619804E-3    5.313903779603895E-2    5.226328278631045E-1
 6.564541816000000E9    -4.768844652579162E-2    5.667587030115711E-1    3.068601951891921E-2   -1.557153214077924E-3    3.009336885712462E-2   -2.060199527329274E-3    5.447315590428670E-2    5.227521550470716E-1
 6.564556189500000E9    -4.652974061038995E-2    5.669483607734493E-1    3.078194012416876E-2   -1.715980960165741E-3    3.040518672806015E-2   -2.272014123300401E-3    5.587340927134326E-2    5.224845952033342E-1
 6.564570563000000E9    -4.547088267994986E-2    5.669883682400145E-1    3.109457481925677E-2   -1.846709518654618E-3    3.040834231688079E-2   -2.315915544512561E-3    5.715845557182182E-2    5.222450131623647E-1
 6.564584936500000E9    -4.422941519522020E-2    5.670363156355601E-1    3.109947166837619E-2   -1.892883530888473E-3    3.065894487542277E-2   -2.497568673678546E-3    5.843458150524522E-2    5.221276432272011E-1
 6.564599310000000E9    -4.299053960867220E-2    5.671024071180785E-1    3.134502409315001E-2   -1.857054009438973E-3    3.081535153082157E-2   -2.492828645928515E-3    5.969261704630299E-2    5.219821169548130E-1
 6.564613683500000E9    -4.182780719566321E-2    5.672615943260071E-1    3.159506225970902E-2   -2.208563720509996E-3    3.103471616225074E-2   -2.595784559858387E-3    6.107089072958025E-2    5.219778639745906E-1
 6.564628057000000E9    -4.065439304246938E-2    5.672014031645047E-1    3.170010683429282E-2   -2.253402283989579E-3    3.125496557361419E-2   -2.769740149649431E-3    6.239177245231801E-2    5.216183441777188E-1
 6.564642430500000E9    -3.951620403004884E-2    5.673312645445564E-1    3.189836424070670E-2   -2.411484033194399E-3    3.132436025326512E-2   -2.854121887627776E-3    6.355960604599124E-2    5.216424327195192E-1
 6.564656804000000E9    -3.831276346337570E-2    5.674551221349433E-1    3.209694174764640E-2   -2.421804667797652E-3    3.153244567088004E-2   -2.865768171558406E-3    6.496558720898844E-2    5.213062613639902E-1
 6.564671177500000E9    -3.719872007385338E-2    5.674882186201529E-1    3.231445021385174E-2   -2.438829184339990E-3    3.166446455898747E-2   -3.011811076655023E-3    6.628035718264558E-2    5.213367892145205E-1
 6.564685551000000E9    -3.598932162837823E-2    5.674797352485983E-1    3.259638524180949E-2   -2.547586362722084E-3    3.188618384351828E-2   -3.039039189849445E-3    6.752305896751855E-2    5.211734822949919E-1
 6.564699924500000E9    -3.484667226019404E-2    5.676392259326568E-1    3.275923858807739E-2   -2.707149207676545E-3    3.209989414881208E-2   -3.310207918912845E-3    6.897293620989831E-2    5.209163501896297E-1
 6.564714298000000E9    -3.377647611403035E-2    5.675308143272144E-1    3.284576114731109E-2   -2.775602013366366E-3    3.230466797235170E-2   -3.415386394475740E-3    7.036513044769417E-2    5.206932219314334E-1
 6.564728671500000E9    -3.259301057153935E-2    5.676910036725770E-1    3.311262237107485E-2   -2.911343521233370E-3    3.242898179260417E-2   -3.377237603129656E-3    7.162449201675543E-2    5.206082007388584E-1
 6.564743045000000E9    -3.142218840119287E-2    5.678298851024851E-1    3.342907418614978E-2   -2.934809141630048E-3    3.264903766097167E-2   -3.571607832002457E-3    7.286047888528446E-2    5.203914650078859E-1
 6.564757418500000E9    -3.023212102463893E-2    5.677550804859844E-1    3.350686042269250E-2   -3.163548543945906E-3    3.295316927759943E-2   -3.591067567854174E-3    7.419876226394199E-2    5.201789619270738E-1
 6.564771792000000E9    -2.907180414700995E-2    5.678242555323545E-1    3.372988323282437E-2   -3.332172674999258E-3    3.304940219254013E-2   -3.750816729683107E-3    7.567492894005227E-2    5.200776670009694E-1
 6.564786165500000E9    -2.793246533020751E-2    5.678337646169356E-1    3.384967695730984E-2   -3.426344096622468E-3    3.325219985441985E-2   -3.957323184643808E-3    7.703543600459541E-2    5.199037069608583E-1
 6.564800539000000E9    -2.666102131499737E-2    5.678208323615012E-1    3.404450584143848E-2   -3.430273257321496E-3    3.350876357192657E-2   -4.053173928904356E-3    7.831569696960729E-2    5.196356269337714E-1
 6.564814912500000E9    -2.550855603439106E-2    5.680423023369054E-1    3.421085617807629E-2   -3.481586713603925E-3    3.373955632396267E-2   -4.070237801295048E-3    7.979887473198892E-2    5.192806270352249E-1
 6.564829286000000E9    -2.431197271075181E-2    5.679231141821141E-1    3.445086032602575E-2   -3.668169401180519E-3    3.382527786191216E-2   -4.187899563586092E-3    8.106200844565067E-2    5.191913338681614E-1
 6.564843659500000E9    -2.307324282836013E-2    5.679936941366063E-1    3.471750270379742E-2   -3.733386049744417E-3    3.413800044810542E-2   -4.418271562552972E-3    8.247959985776109E-2    5.190009329622698E-1
 6.564858033000000E9    -2.182431435277567E-2    5.680953498653395E-1    3.495122747845302E-2   -3.887186985018081E-3    3.436187705494646E-2   -4.481820239764958E-3    8.383205022684649E-2    5.186949637355214E-1
 6.564872406500000E9    -2.085614994457209E-2    5.681119119017526E-1    3.507726174850074E-2   -4.144731084111908E-3    3.453151220496106E-2   -4.586464148196689E-3    8.515123387733189E-2    5.185116305897508E-1
 6.564886780000000E9    -1.956806216350765E-2    5.681030136288254E-1    3.541842414543933E-2   -4.296414071431750E-3    3.462741974444795E-2   -4.735801597810489E-3    8.658291445224571E-2    5.183179037837476E-1
 6.564901153500000E9    -1.846076403497325E-2    5.681716377343377E-1    3.539215052514684E-2   -4.330973789232523E-3    3.490440917388070E-2   -5.026158481522028E-3    8.795481750237627E-2    5.178565761822607E-1
 6.564915527000000E9    -1.730095445754895E-2    5.680691236627998E-1    3.576560045554243E-2   -4.451289353144605E-3    3.511163286169999E-2   -4.990031018966460E-3    8.942797096783507E-2    5.177530960904468E-1
 6.564929900500000E9    -1.596323200763270E-2    5.679805572679058E-1    3.605721158968599E-2   -4.657889160763392E-3    3.532305105885074E-2   -5.145899929784002E-3    9.070777713801782E-2    5.174692480085921E-1
 6.564944274000000E9    -1.482738776628307E-2    5.680325066004428E-1    3.632371561712402E-2   -4.627185697363080E-3    3.560960425106995E-2   -5.252565833019934E-3    9.226046962833237E-2    5.172131521913058E-1
 6.564958647500000E9    -1.360305807855353E-2    5.681488159446546E-1    3.646453685174163E-2   -4.881225033169194E-3    3.583333218802189E-2   -5.390966112446397E-3    9.348550351701085E-2    5.169008039240168E-1
 6.564973021000000E9    -1.246502872625072E-2    5.681632474198770E-1    3.686081746200299E-2   -5.043989542695451E-3    3.605363141260397E-2   -5.535510604487787E-3    9.498194870172719E-2    5.168022634520368E-1
 6.564987394500000E9    -1.120299687315758E-2    5.680208394185248E-1    3.696398945563861E-2   -5.029556621206420E-3    3.627328279340942E-2   -5.711605585306012E-3    9.633038936645538E-2    5.164241637253383E-1
 6.565001768000000E9    -1.006364008434940E-2    5.680873469071838E-1    3.730135465967869E-2   -5.333394139475360E-3    3.654851179893105E-2   -5.799361157905710E-3    9.781383213056796E-2    5.160744120973821E-1
 6.565016141500000E9    -8.781519156355494E-3    5.679697924137838E-1    3.756485036534356E-2   -5.442383597458160E-3    3.682827982099083E-2   -5.932033474923167E-3    9.937274542814942E-2    5.158729220412377E-1
 6.565030515000000E9    -7.629567155636582E-3    5.680948472397255E-1    3.780278492845381E-2   -5.598403597377352E-3    3.701942212728564E-2   -6.146994955325132E-3    1.006930063479306E-1    5.154157782114083E-1
 6.565044888500000E9    -6.348641222450046E-3    5.679833864100422E-1    3.793389419078888E-2   -5.812723203478031E-3    3.733311868309375E-2   -6.275794729095133E-3    1.021023046166617E-1    5.150965387280431E-1
 6.565059262000000E9    -5.192575242374794E-3    5.681002159357483E-1    3.828342108099371E-2   -5.989160148127271E-3    3.752229732953760E-2   -6.447790135642029E-3    1.036056469202757E-1    5.149557307783004E-1
 6.565073635500000E9    -4.023503961379483E-3    5.680465700888051E-1    3.853250761186307E-2   -6.066410141692046E-3    3.785993915454081E-2   -6.670095884002740E-3    1.051066552140208E-1    5.147405281351631E-1
 6.565088009000000E9    -2.764777886895185E-3    5.680548249595425E-1    3.873297352886621E-2   -6.283165767496336E-3    3.814941649433738E-2   -6.799806621893258E-3    1.065262531688946E-1    5.141620532905977E-1
 6.565102382500000E9    -1.604906407435355E-3    5.679174132361184E-1    3.894213836294908E-2   -6.472466618675309E-3    3.834765464331692E-2   -6.970645318505405E-3    1.078948234976277E-1    5.139022365561353E-1
 6.565116756000000E9    -3.603197630731419E-4    5.679664140089743E-1    3.924646679734334E-2   -6.566253181957083E-3    3.856185810908633E-2   -7.170014143000017E-3    1.095992634993895E-1    5.135583335178164E-1
 6.565131129500000E9     9.611397407988570E-4    5.678284593433947E-1    3.952144010982202E-2   -6.670350650498265E-3    3.888308924511206E-2   -7.317102583629385E-3    1.110561110148083E-1    5.132206101386146E-1
 6.565145503000000E9     2.029908668438807E-3    5.678507676634545E-1    3.972915606893668E-2   -6.952681233542417E-3    3.907311612912832E-2   -7.561477384020092E-3    1.125299722040558E-1    5.127886112143635E-1
 6.565159876500000E9     3.352382981963936E-3    5.677345327080482E-1    4.013397491892329E-2   -7.042711084687087E-3    3.940528329789801E-2   -7.546637256103913E-3    1.139323735456317E-1    5.123232197127162E-1
 6.565174250000000E9     4.437984814656656E-3    5.677440078352660E-1    4.029757003204062E-2   -7.201253477850556E-3    3.974917122486465E-2   -7.801686781994392E-3    1.154548546863775E-1    5.121153776067882E-1
 6.565188623500000E9     5.802187746984515E-3    5.676473337084849E-1    4.067384256797899E-2   -7.357057794315934E-3    3.996822761119899E-2   -7.991241860011995E-3    1.169166607811574E-1    5.116522550646784E-1
 6.565202997000000E9     7.040897708898797E-3    5.676095269062238E-1    4.093077174239290E-2   -7.625882209733420E-3    4.029681359619573E-2   -8.195884915224312E-3    1.183607389553025E-1    5.114701895963094E-1
 6.565217370500000E9     8.151486890198760E-3    5.675595892509973E-1    4.125159592900154E-2   -7.593797438315000E-3    4.060878076078231E-2   -8.333744958711942E-3    1.197713746571993E-1    5.108430784786803E-1
 6.565231744000000E9     9.413276198350256E-3    5.675470938244450E-1    4.152766967213520E-2   -7.995807838125731E-3    4.077160243924728E-2   -8.544067273925282E-3    1.214971822393254E-1    5.104587131249279E-1
 6.565246117500000E9     1.066152759207406E-2    5.674307667784365E-1    4.183923881784447E-2   -8.380590522711237E-3    4.113110984086778E-2   -8.716365183755247E-3    1.229669731702088E-1    5.101323576913566E-1
 6.565260491000000E9     1.194186521471630E-2    5.673959095038925E-1    4.214630722696566E-2   -8.365151390933440E-3    4.150651268547981E-2   -8.903259087096330E-3    1.246253806577508E-1    5.096817378535144E-1
 6.565274864500000E9     1.325135872945985E-2    5.671914667175324E-1    4.230238244072691E-2   -8.724643758228449E-3    4.170288296596762E-2   -9.155178495495030E-3    1.262060998465038E-1    5.093748543573262E-1
 6.565289238000000E9     1.437202237087629E-2    5.671694902348294E-1    4.264848196247455E-2   -8.811808903471115E-3    4.203132394260505E-2   -9.441006163930949E-3    1.277315749228433E-1    5.088336924821907E-1
 6.565303611500000E9     1.560631639082990E-2    5.670879429686029E-1    4.317101984575310E-2   -8.932566357608708E-3    4.226485157727866E-2   -9.553373727044189E-3    1.290112002035629E-1    5.083532941658941E-1
 6.565317985000000E9     1.683558835990697E-2    5.670389502677635E-1    4.337176697167228E-2   -9.404377653675628E-3    4.267303724362472E-2   -9.907635909672105E-3    1.307679920190478E-1    5.080380306588745E-1
 6.565332358500000E9     1.819848208568009E-2    5.668946247321094E-1    4.377476360087962E-2   -9.402713879409859E-3    4.296080330312854E-2   -1.002701926154648E-2    1.323733322788117E-1    5.074059372677536E-1
 6.565346732000000E9     1.942659633312947E-2    5.667801631972849E-1    4.389704470418646E-2   -9.599951666401764E-3    4.337884229842417E-2   -1.025107778995669E-2    1.339868203569887E-1    5.070706179379867E-1
 6.565361105500000E9     2.064913232348846E-2    5.667617878643937E-1    4.436831262782142E-2   -9.855269688688028E-3    4.374546028362464E-2   -1.047972945953818E-2    1.356194224205610E-1    5.065128618054161E-1
 6.565375479000000E9     2.195883606263078E-2    5.666135892655745E-1    4.481935325788054E-2   -1.014593857438034E-2    4.399566962060657E-2   -1.081610185466032E-2    1.370745623289138E-1    5.059442740929365E-1
 6.565389852500000E9     2.323216961378519E-2    5.664778860003247E-1    4.509615480216710E-2   -1.047584036478132E-2    4.423064629555433E-2   -1.115886444940235E-2    1.388372504325239E-1    5.054381814969433E-1
 6.565404226000000E9     2.442841467900941E-2    5.663713408069063E-1    4.550177276140557E-2   -1.062120669186547E-2    4.477465306316905E-2   -1.131276170286579E-2    1.404188496983316E-1    5.047988014926648E-1
 6.565418599500000E9     2.564391624809683E-2    5.662672190430708E-1    4.582550498905105E-2   -1.083673691806683E-2    4.496882365477836E-2   -1.155813188327654E-2    1.420498966368667E-1    5.042715373087162E-1
 6.565432973000000E9     2.702388306009545E-2    5.661757819668699E-1    4.614179779056146E-2   -1.119881625463592E-2    4.539059705077971E-2   -1.173355697040005E-2    1.436528020087050E-1    5.037971234038922E-1
