#  HZ   S   RI   R     50.00 
! Rohde & Schwarz Vector Network Analyzer 
! Rohde-Schwarz,ZNB20-2Port,1311601062101988,3.16
! Created: UTC 3/20/2024, 4:49:55 PM
! freq[Hz]                re:S11                  im:S11                  re:S21                  im:S21                  re:S12                  im:S12                  re:S22                  im:S22
 6.564802572000000E9    -2.675355439600618E-2    5.688738327393238E-1    3.275923778606523E-2   -2.434052460770895E-3    3.228518542166696E-2   -3.057279436970651E-3    7.812788642656544E-2    5.240701666295858E-1
 6.564814204275000E9    -2.571004541337462E-2    5.689686650826230E-1    3.291626110310543E-2   -2.546012581750036E-3    3.226409373465147E-2   -3.096648291800725E-3    7.919731128447532E-2    5.239162340045168E-1
 6.564825836550000E9    -2.482364568307580E-2    5.689412590636388E-1    3.306025360501452E-2   -2.665586553742275E-3    3.242555639925049E-2   -3.191610577207592E-3    8.031557781739407E-2    5.237510384388366E-1
 6.564837468825000E9    -2.391326360406506E-2    5.689856469104775E-1    3.317106669552699E-2   -2.855015730780453E-3    3.268381534205886E-2   -3.287683849529327E-3    8.155308118894529E-2    5.236299443543971E-1
 6.564849101100000E9    -2.293965051830061E-2    5.689730981419648E-1    3.350371796345954E-2   -2.833583631085991E-3    3.274576107402554E-2   -3.337631852085084E-3    8.237179840153257E-2    5.234501649221894E-1
 6.564860733375000E9    -2.211030317272332E-2    5.690315644599890E-1    3.347269583610682E-2   -2.926642625088032E-3    3.292994545447598E-2   -3.436685492175530E-3    8.366584801513628E-2    5.233968668338631E-1
 6.564872365650000E9    -2.107055356855439E-2    5.689722986997234E-1    3.370399420983154E-2   -3.031795427611924E-3    3.312562627719046E-2   -3.485128092615449E-3    8.476770963169962E-2    5.233502222187223E-1
 6.564883997925000E9    -2.017316235083464E-2    5.691599938870358E-1    3.385802855921831E-2   -3.076092591643371E-3    3.318816437506323E-2   -3.597932053339670E-3    8.587508293456968E-2    5.228781188774088E-1
 6.564895630200000E9    -1.917592358025470E-2    5.690314176753144E-1    3.409772210930618E-2   -3.231629438688915E-3    3.347652961352868E-2   -3.760133135778645E-3    8.693112831940672E-2    5.228524842853332E-1
 6.564907262475000E9    -1.821000132526672E-2    5.691583603390493E-1    3.423176779376499E-2   -3.213391231425848E-3    3.362648323633964E-2   -3.763597684837303E-3    8.807950370496918E-2    5.225735430640577E-1
 6.564918894750000E9    -1.722594312353339E-2    5.691391182069305E-1    3.419380053964952E-2   -3.370851655254737E-3    3.374820877084820E-2   -3.921595702164703E-3    8.922115018299394E-2    5.223877290755056E-1
 6.564930527025000E9    -1.635693638746038E-2    5.691210681230682E-1    3.464006237221996E-2   -3.406988843770725E-3    3.394110250874680E-2   -4.003676453897442E-3    9.035228806757194E-2    5.222957678458585E-1
 6.564942159300000E9    -1.546111439916826E-2    5.691680563391457E-1    3.473455809827224E-2   -3.510854792473596E-3    3.407458004720345E-2   -4.077739371473067E-3    9.136244198118867E-2    5.220640514530818E-1
 6.564953791575000E9    -1.430184397876858E-2    5.692237661624712E-1    3.486316024427650E-2   -3.780194523404693E-3    3.432138068825326E-2   -4.205349836536212E-3    9.248882484930453E-2    5.217704114291647E-1
 6.564965423850000E9    -1.337119714637157E-2    5.691714494672429E-1    3.503787557843654E-2   -3.796474453944225E-3    3.442310980905414E-2   -4.231325953570320E-3    9.373693439606443E-2    5.216776198380623E-1
 6.564977056125000E9    -1.248041144206667E-2    5.691895767035207E-1    3.518805831220946E-2   -3.628208280343687E-3    3.467897235238294E-2   -4.376569907189502E-3    9.470528399206329E-2    5.213831254189302E-1
 6.564988688400000E9    -1.143771533137427E-2    5.691811795670865E-1    3.552554497516546E-2   -3.883754086379391E-3    3.476629642367871E-2   -4.424962240832796E-3    9.588711163838221E-2    5.213525333452451E-1
 6.565000320675000E9    -1.056807065296774E-2    5.692464577848934E-1    3.564289380142588E-2   -3.961261387621945E-3    3.500453068312657E-2   -4.527378961623901E-3    9.709076413071141E-2    5.211929109539465E-1
 6.565011952950000E9    -9.685871463959342E-3    5.692431916746349E-1    3.565451719438403E-2   -4.067311415356675E-3    3.516575085766389E-2   -4.636416694782309E-3    9.821503657143936E-2    5.208724560947503E-1
 6.565023585225000E9    -8.711309227183443E-3    5.692132903519389E-1    3.602373633981221E-2   -4.290335661078192E-3    3.532571990894721E-2   -4.793127373130228E-3    9.934238964092401E-2    5.206365992094585E-1
 6.565035217500000E9    -7.660750479520707E-3    5.692670619529434E-1    3.622223610279222E-2   -4.270620035516272E-3    3.552127414178473E-2   -4.837128904289035E-3    1.004097616512691E-1    5.204197453209348E-1
 6.565046849775000E9    -6.774493132674565E-3    5.692336369628612E-1    3.642179709570444E-2   -4.278402903938525E-3    3.566805327004167E-2   -5.012277657372210E-3    1.016722336747043E-1    5.200934838683828E-1
 6.565058482050000E9    -5.729844687294148E-3    5.691970305848433E-1    3.646515933539171E-2   -4.508713076667699E-3    3.590844575544375E-2   -5.090531846139985E-3    1.027791018376420E-1    5.199668471785910E-1
 6.565070114325000E9    -4.743614464975570E-3    5.691932425608980E-1    3.652453106107693E-2   -4.677855045637907E-3    3.616694776209356E-2   -5.214187553496103E-3    1.040146593075919E-1    5.197431368446355E-1
 6.565081746600000E9    -3.801903916527214E-3    5.691266924819059E-1    3.704357013099362E-2   -4.708224966358640E-3    3.629242865065491E-2   -5.306662513856981E-3    1.050994637148656E-1    5.194463660483529E-1
 6.565093378875000E9    -2.710926102992149E-3    5.691136915729919E-1    3.719204108487243E-2   -4.761156296568867E-3    3.651977121107383E-2   -5.365011251980957E-3    1.062177245144410E-1    5.192221700989870E-1
 6.565105011150000E9    -1.819577813435201E-3    5.690757330587665E-1    3.733506749842941E-2   -4.982994229634889E-3    3.671270186905784E-2   -5.536860704672409E-3    1.074913366095381E-1    5.190912346274198E-1
 6.565116643425000E9    -8.354287339565412E-4    5.691363039130799E-1    3.749300015070731E-2   -5.029752314386160E-3    3.692832242414124E-2   -5.605499726349765E-3    1.085146450779578E-1    5.188681046570253E-1
 6.565128275700000E9     5.868179125119474E-5    5.691053635883669E-1    3.768937029365436E-2   -5.102273665892020E-3    3.704858978594094E-2   -5.741460983042917E-3    1.097997486269532E-1    5.187201235289564E-1
 6.565139907975000E9     1.072676023212748E-3    5.690780708467720E-1    3.799740655826994E-2   -5.353885461551142E-3    3.731615660880062E-2   -5.914233553503844E-3    1.109432363599889E-1    5.183194357317901E-1
 6.565151540250000E9     2.006409522527302E-3    5.689969354929083E-1    3.820122720946065E-2   -5.449450727481020E-3    3.753650038894026E-2   -5.930747291048086E-3    1.121538299461607E-1    5.180802110345548E-1
 6.565163172525000E9     3.155739875099713E-3    5.690963730727958E-1    3.831345209527264E-2   -5.698223565387292E-3    3.773731844921787E-2   -6.042548180859108E-3    1.134991477345514E-1    5.179707908833908E-1
 6.565174804800000E9     4.046182136590789E-3    5.689837343123033E-1    3.842940461303194E-2   -5.548288848787174E-3    3.790042350500752E-2   -6.163081536302240E-3    1.144881654295140E-1    5.174228091585954E-1
 6.565186437075000E9     5.027094971666631E-3    5.691550950052757E-1    3.880580636987103E-2   -5.780791502472597E-3    3.804679679490326E-2   -6.382018041887901E-3    1.157457372403504E-1    5.172008295545508E-1
 6.565198069350000E9     5.981754227183562E-3    5.689230098440738E-1    3.899960069383815E-2   -5.983858504388274E-3    3.839207478501743E-2   -6.459079255609135E-3    1.168559453182991E-1    5.170439127635598E-1
 6.565209701625000E9     7.039857890817441E-3    5.690026968166940E-1    3.921240457831644E-2   -6.157618708771857E-3    3.857147005200875E-2   -6.579633760491763E-3    1.181390656793396E-1    5.167079499127616E-1
 6.565221333900000E9     8.054578480427671E-3    5.689648919575223E-1    3.946718823600882E-2   -6.260216667383270E-3    3.869391837256109E-2   -6.817571128842971E-3    1.192592018678133E-1    5.162758114391300E-1
 6.565232966175000E9     9.009651032522039E-3    5.689269441823422E-1    3.962203618739656E-2   -6.222762434399401E-3    3.899000374883385E-2   -6.852066949284688E-3    1.204871669591659E-1    5.162337563440776E-1
 6.565244598450000E9     9.886224158686943E-3    5.689374421874451E-1    3.984559886217583E-2   -6.465917272595348E-3    3.925828100801163E-2   -7.030903328035529E-3    1.216264954235363E-1    5.158728099246180E-1
 6.565256230725000E9     1.084037197544765E-2    5.688178272745303E-1    4.014586692815226E-2   -6.481633619514024E-3    3.945812278391389E-2   -7.118584806132151E-3    1.228155662308091E-1    5.157189763622158E-1
 6.565267863000000E9     1.193885749897208E-2    5.687650835567748E-1    4.033302325575545E-2   -6.875680636628498E-3    3.965806669284749E-2   -7.228986836098703E-3    1.240601003152728E-1    5.154439863977935E-1
 6.565279495275000E9     1.293125374227641E-2    5.687435744391770E-1    4.066276156914109E-2   -6.846099513283181E-3    3.989625266161467E-2   -7.415934756505561E-3    1.254321212128760E-1    5.149500836884640E-1
 6.565291127550000E9     1.400316918103157E-2    5.687116012011597E-1    4.083835932993835E-2   -6.931380272054685E-3    4.013439013593542E-2   -7.501088592530501E-3    1.265878909393732E-1    5.145955010499771E-1
 6.565302759825000E9     1.489025338431833E-2    5.685935510731820E-1    4.103187879080114E-2   -7.071854204511639E-3    4.035792399514645E-2   -7.728927887489769E-3    1.277140265815736E-1    5.144220276306005E-1
 6.565314392100000E9     1.592711987205501E-2    5.684876099734485E-1    4.124920515699274E-2   -7.180064196207926E-3    4.068650628491945E-2   -7.788942334906903E-3    1.290492546825597E-1    5.140548455157979E-1
 6.565326024375000E9     1.688009954774279E-2    5.684865430945937E-1    4.154473563476180E-2   -7.389436215113006E-3    4.084887702246173E-2   -7.986897354697460E-3    1.302846090816636E-1    5.137010263190050E-1
 6.565337656650000E9     1.793034860677172E-2    5.684183030082272E-1    4.184419008904504E-2   -7.479605130201501E-3    4.106001329272051E-2   -8.052407309657179E-3    1.315198348467514E-1    5.133502243604602E-1
 6.565349288925000E9     1.896395115158499E-2    5.682528670389393E-1    4.199787856646665E-2   -7.700220331464331E-3    4.134205086170561E-2   -8.277678856329278E-3    1.328132132688181E-1    5.130948657778093E-1
 6.565360921200000E9     1.995278734039866E-2    5.683852000739377E-1    4.227712501563414E-2   -7.812005848503172E-3    4.157096294334645E-2   -8.420859075929942E-3    1.341464995052649E-1    5.129081789607933E-1
 6.565372553475000E9     2.092680269317380E-2    5.682024458190472E-1    4.252931145236574E-2   -8.086619162772368E-3    4.174857822348613E-2   -8.629358193344421E-3    1.353324457563832E-1    5.124886914113991E-1
 6.565384185750000E9     2.193206496875739E-2    5.681291399275810E-1    4.290817024439113E-2   -8.114509782838288E-3    4.210690547930555E-2   -8.681992858121003E-3    1.367729694073554E-1    5.120556329069379E-1
 6.565395818025000E9     2.297406863799734E-2    5.681228751183344E-1    4.308861762867848E-2   -8.223141620643727E-3    4.242921802470705E-2   -8.880504810147925E-3    1.379072859827654E-1    5.116243714137781E-1
 6.565407450300000E9     2.390001965062689E-2    5.680627726177392E-1    4.328036458168401E-2   -8.400619825235406E-3    4.264841351931194E-2   -8.959263359401235E-3    1.392531972500234E-1    5.113365521630594E-1
 6.565419082575000E9     2.504368577017589E-2    5.679022120904701E-1    4.363087618016013E-2   -8.678619002168592E-3    4.279569433336609E-2   -9.164389978241948E-3    1.405205068591306E-1    5.109979540822572E-1
 6.565430714850000E9     2.597654570554382E-2    5.678778760800711E-1    4.374165812930939E-2   -8.725994531001681E-3    4.311513409056772E-2   -9.336157687624700E-3    1.417711126523939E-1    5.105524880281275E-1
 6.565442347125000E9     2.704524792031267E-2    5.677796275593953E-1    4.414133568856182E-2   -8.869934717828961E-3    4.344224382566859E-2   -9.587420471552661E-3    1.431136644995605E-1    5.102145131714366E-1
 6.565453979400000E9     2.807193234418095E-2    5.676961599560497E-1    4.443932919655201E-2   -8.996663450511509E-3    4.375071173549770E-2   -9.694361895136840E-3    1.443950898890255E-1    5.097840416840966E-1
 6.565465611675000E9     2.903479673874469E-2    5.676681315480541E-1    4.461335618205879E-2   -9.342068066592048E-3    4.396659695203499E-2   -9.893867761335318E-3    1.457380768421306E-1    5.094569898527305E-1
 6.565477243950000E9     3.006470571666402E-2    5.674919402225101E-1    4.505556364486334E-2   -9.456357068715487E-3    4.422657375951698E-2   -1.008721657064268E-2    1.470408040803231E-1    5.089094400222067E-1
 6.565488876225000E9     3.111821525938596E-2    5.675125316961671E-1    4.530079419880463E-2   -9.712438570813312E-3    4.455228163881562E-2   -1.038172775813049E-2    1.482426777186021E-1    5.087029497973405E-1
 6.565500508500000E9     3.215992741284240E-2    5.674031585724968E-1    4.554488663700025E-2   -9.837232729977224E-3    4.479327697366828E-2   -1.046145736717629E-2    1.497457732705400E-1    5.080016839746423E-1
 6.565512140775000E9     3.318940666331188E-2    5.672522227869322E-1    4.588129141345822E-2   -1.009437665725384E-2    4.506243033414581E-2   -1.064429414705650E-2    1.510628973412261E-1    5.079424433436783E-1
 6.565523773050000E9     3.413180379434681E-2    5.672503234968860E-1    4.614448210048694E-2   -1.018358397500363E-2    4.536240973944872E-2   -1.085342810361451E-2    1.525314856693248E-1    5.072510127903063E-1
 6.565535405325000E9     3.522325710462477E-2    5.670540346671423E-1    4.641231343229039E-2   -1.037226599851347E-2    4.577983484175606E-2   -1.107613473233499E-2    1.537250434416526E-1    5.069472193575855E-1
 6.565547037600000E9     3.623416370478614E-2    5.670122024899316E-1    4.687262134716667E-2   -1.063345339491062E-2    4.596736097300139E-2   -1.128770478431531E-2    1.550788957048253E-1    5.064351679942072E-1
 6.565558669875000E9     3.724327577392152E-2    5.667823186715144E-1    4.709491020165828E-2   -1.092662999528029E-2    4.641299913230524E-2   -1.141810713583088E-2    1.564427726616381E-1    5.058529755650070E-1
 6.565570302150000E9     3.828392138718291E-2    5.666890447303403E-1    4.719353342132693E-2   -1.107568946091535E-2    4.652280606294253E-2   -1.164396609468595E-2    1.578536414686650E-1    5.055417341038185E-1
 6.565581934425000E9     3.936304994807442E-2    5.666487431403626E-1    4.767483991732152E-2   -1.127887361924016E-2    4.707449044978355E-2   -1.186653347519139E-2    1.591685284225930E-1    5.052768546167505E-1
 6.565593566700000E9     4.042782244613467E-2    5.664556451556716E-1    4.810802591660029E-2   -1.151435942425170E-2    4.727349729829609E-2   -1.199121033047205E-2    1.605997980220153E-1    5.046688976421081E-1
 6.565605198975000E9     4.155198829408929E-2    5.663015021394551E-1    4.836478582369915E-2   -1.163715079467043E-2    4.753455307710146E-2   -1.235002878351379E-2    1.620624722260513E-1    5.040322104618910E-1
 6.565616831250000E9     4.241113205297165E-2    5.662240684283223E-1    4.859554984085096E-2   -1.185143329277719E-2    4.787743581035207E-2   -1.249226024421048E-2    1.635704436940315E-1    5.035054723792146E-1
 6.565628463525000E9     4.359357129034414E-2    5.661609890670460E-1    4.902407560653530E-2   -1.215853323467092E-2    4.827003369134866E-2   -1.279883650912212E-2    1.647674214861925E-1    5.031077586840443E-1
 6.565640095800000E9     4.473830184383251E-2    5.660431057901265E-1    4.930864675644575E-2   -1.233321819802937E-2    4.861808364767989E-2   -1.304556191565242E-2    1.662424664435622E-1    5.025648075391869E-1
 6.565651728075000E9     4.563117722086537E-2    5.658454488162897E-1    4.977077436608275E-2   -1.269624137755355E-2    4.890873144371552E-2   -1.322857486005215E-2    1.677179769371012E-1    5.020517082670172E-1
 6.565663360350000E9     4.677637482179355E-2    5.657458790454226E-1    4.995274280695795E-2   -1.288926719313137E-2    4.922323058931762E-2   -1.342569677310306E-2    1.690857914277758E-1    5.015756699268096E-1
 6.565674992625000E9     4.779484173605259E-2    5.655927661986936E-1    5.040346804898076E-2   -1.303307407390137E-2    4.960901701097869E-2   -1.365205235222435E-2    1.705109722814624E-1    5.011213270653683E-1
 6.565686624900000E9     4.884965598150618E-2    5.653531861346449E-1    5.066789524969352E-2   -1.336977061111988E-2    4.998525099454647E-2   -1.393426586547734E-2    1.719793692551153E-1    5.005583127543779E-1
 6.565698257175000E9     4.991151422566727E-2    5.652864674869841E-1    5.118624293208110E-2   -1.352220265692973E-2    5.032517648661979E-2   -1.422104524126392E-2    1.733644087402299E-1    4.998489241040871E-1
 6.565709889450000E9     5.089377105019312E-2    5.650703832665289E-1    5.154208785658891E-2   -1.384270303615001E-2    5.069909080257838E-2   -1.444022652775461E-2    1.749264921364553E-1    4.994557584820547E-1
 6.565721521725000E9     5.217659152033888E-2    5.649653475043090E-1    5.188371262374414E-2   -1.412573836661302E-2    5.097115628728596E-2   -1.468541088267999E-2    1.763381236490910E-1    4.987823300039100E-1
 6.565733154000000E9     5.311778254971251E-2    5.647164992822580E-1    5.222130390090850E-2   -1.424053002190159E-2    5.137578135195012E-2   -1.500690414953444E-2    1.778853710301241E-1    4.981965475790048E-1
 6.565744786275000E9     5.425927016869960E-2    5.646177366147117E-1    5.281783817855995E-2   -1.454349442911073E-2    5.173561240368152E-2   -1.527921298569241E-2    1.793160040383600E-1    4.976590141703727E-1
 6.565756418550000E9     5.519831688581026E-2    5.643820222223107E-1    5.307259589433265E-2   -1.479066866126678E-2    5.213398779699636E-2   -1.546215155487887E-2    1.810149185426002E-1    4.969733063030509E-1
 6.565768050825000E9     5.641268594431605E-2    5.643095716045015E-1    5.347126289009661E-2   -1.511900739758175E-2    5.256786489742436E-2   -1.576957279492892E-2    1.823844463850741E-1    4.963417545163872E-1
 6.565779683100000E9     5.742920451584610E-2    5.641376911238530E-1    5.388607085249710E-2   -1.554628253292580E-2    5.296135730274699E-2   -1.603818067188857E-2    1.840091899751517E-1    4.957210246887973E-1
 6.565791315375000E9     5.868370826543921E-2    5.639753416669507E-1    5.425306821180442E-2   -1.584961831055979E-2    5.329566745011445E-2   -1.650325864947954E-2    1.855120732742082E-1    4.951814942544525E-1
 6.565802947650000E9     5.963426706448239E-2    5.637376418587948E-1    5.459926651352466E-2   -1.600557490445998E-2    5.373619015337026E-2   -1.678341401249630E-2    1.870481705525496E-1    4.943201393419763E-1
 6.565814579925000E9     6.076447015476191E-2    5.635179172036395E-1    5.506376708859671E-2   -1.636854099787665E-2    5.423979121882291E-2   -1.701864219548789E-2    1.885691798108284E-1    4.937489534418167E-1
 6.565826212200000E9     6.178965341895010E-2    5.634339729843457E-1    5.541066169133541E-2   -1.676931095342015E-2    5.464722377345164E-2   -1.740425553496713E-2    1.902338322953738E-1    4.930708231815126E-1
 6.565837844475000E9     6.280852254285009E-2    5.632558518340365E-1    5.596188722938840E-2   -1.694093771649383E-2    5.495572695229130E-2   -1.765304688859382E-2    1.917611716990792E-1    4.923828262762195E-1
 6.565849476750000E9     6.411434008226960E-2    5.630404040439826E-1    5.635316345047427E-2   -1.727315417370351E-2    5.547366140415212E-2   -1.804560201107862E-2    1.933948403354812E-1    4.915754487564871E-1
