#  HZ   S   RI   R     50.00 
! Rohde & Schwarz Vector Network Analyzer 
! Rohde-Schwarz,ZNB20-2Port,1311601062101988,3.16
! Created: UTC 3/20/2024, 5:05:07 PM
! freq[Hz]                re:S11                  im:S11                  re:S21                  im:S21                  re:S12                  im:S12                  re:S22                  im:S22
 6.564148809000000E9    -7.871407534127303E-2    5.635385854233749E-1    2.649635366423294E-2    4.005117793277981E-4    2.616647356569969E-2   -9.562643759539713E-5    2.016922443067435E-2    5.247199953778533E-1
 6.564163150350000E9    -7.783652509870008E-2    5.637058423495452E-1    2.660585173094208E-2    3.145677860946439E-4    2.616425512790289E-2   -9.491982161808747E-5    2.139534660212457E-2    5.244328368096931E-1
 6.564177491700000E9    -7.649274941212832E-2    5.637507572255633E-1    2.693239186451851E-2    1.766420179791582E-4    2.627745573203311E-2   -1.317704062483452E-4    2.246652172429094E-2    5.246817052249920E-1
 6.564191833050000E9    -7.534858475478047E-2    5.640224197423838E-1    2.689077404662778E-2    1.612630089237904E-4    2.648039386424013E-2   -2.464933103073536E-4    2.381797264576319E-2    5.245237441720433E-1
 6.564206174400000E9    -7.434352524861021E-2    5.640465998563438E-1    2.702454145644260E-2    1.943521127297585E-4    2.662850540343117E-2   -2.970474189774368E-4    2.498838870073849E-2    5.246064979040341E-1
 6.564220515750000E9    -7.314190133347363E-2    5.643050684942281E-1    2.720024680227206E-2    6.363268367432665E-5    2.672597646099788E-2   -3.853521445002067E-4    2.623383595106118E-2    5.244802353772695E-1
 6.564234857100000E9    -7.203133932701578E-2    5.643918060119554E-1    2.741033645273004E-2    1.774343105932605E-4    2.686596095632025E-2   -5.147651234774645E-4    2.737824177543660E-2    5.243804207287340E-1
 6.564249198450000E9    -7.099913083619470E-2    5.645947686581996E-1    2.742489027882898E-2   -1.171841255208237E-4    2.699493765030310E-2   -6.071516705888962E-4    2.872814059231314E-2    5.244287991051040E-1
 6.564263539800000E9    -6.979898987137166E-2    5.646545869161107E-1    2.761290625947758E-2   -6.320057745455040E-5    2.715057101522692E-2   -5.558232901096826E-4    2.976966778794016E-2    5.244522394810845E-1
 6.564277881150000E9    -6.865281794815535E-2    5.647955190844981E-1    2.792037668977642E-2   -3.053264368898790E-4    2.727367064658762E-2   -7.247479881081706E-4    3.113842770282709E-2    5.243361779573684E-1
 6.564292222500000E9    -6.753176688971721E-2    5.649735930421457E-1    2.788413791809133E-2   -3.396491721751877E-4    2.747206849037473E-2   -7.273806712596165E-4    3.239111894316523E-2    5.241159407377834E-1
 6.564306563850000E9    -6.635209713711937E-2    5.650475191931859E-1    2.803669235946671E-2   -2.324280436785727E-4    2.760509532961535E-2   -8.924582596119522E-4    3.370401814211614E-2    5.242180597360200E-1
 6.564320905200000E9    -6.531144924020081E-2    5.651674971996677E-1    2.826987166648029E-2   -3.890781698925329E-4    2.768376263442643E-2   -9.094975582983308E-4    3.500411933610668E-2    5.240476480383206E-1
 6.564335246550000E9    -6.406533958840459E-2    5.653850340889260E-1    2.839424449325134E-2   -5.549934640394987E-4    2.783838125765835E-2   -1.011478322410203E-3    3.609966478339426E-2    5.239664229788364E-1
 6.564349587900000E9    -6.310059063444994E-2    5.654841795977248E-1    2.847822453591210E-2   -5.399456664868806E-4    2.801343807793122E-2   -1.060051837082800E-3    3.741824023788349E-2    5.238971265327409E-1
 6.564363929250000E9    -6.186223322903603E-2    5.655681224748399E-1    2.862606867200264E-2   -6.039285526352425E-4    2.817722517707506E-2   -1.086269023345850E-3    3.869776517265522E-2    5.239413593148051E-1
 6.564378270600000E9    -6.080717961574015E-2    5.657028204088753E-1    2.869345881492767E-2   -7.083826356579256E-4    2.824575624561227E-2   -1.153072531910842E-3    3.985743476616804E-2    5.237708022784793E-1
 6.564392611950000E9    -5.955019217893960E-2    5.657256203346359E-1    2.897592551782321E-2   -7.510044697846242E-4    2.845227939607396E-2   -1.249363499999624E-3    4.114469525921644E-2    5.236845759130945E-1
 6.564406953300000E9    -5.847314621578749E-2    5.657878152893885E-1    2.919131203692439E-2   -9.047780347317227E-4    2.861874307329382E-2   -1.370052984986568E-3    4.236820848068114E-2    5.235680268824503E-1
 6.564421294650000E9    -5.734220449502221E-2    5.659885676743015E-1    2.927687122215943E-2   -9.019550014352196E-4    2.875205874030926E-2   -1.438040426449073E-3    4.377621080093672E-2    5.235410810210835E-1
 6.564435636000000E9    -5.620247604470934E-2    5.660205063376010E-1    2.942423510079780E-2   -9.649253683203248E-4    2.894849053948721E-2   -1.652237761823245E-3    4.505958493110380E-2    5.234122838763786E-1
 6.564449977350000E9    -5.514044199744638E-2    5.662054108816138E-1    2.961515452127904E-2   -1.075589394858091E-3    2.910390377920328E-2   -1.579086837670077E-3    4.624318950980451E-2    5.234766943600510E-1
 6.564464318700000E9    -5.379041885914482E-2    5.663106828811699E-1    2.968363047818665E-2   -1.257785087364103E-3    2.924571510799864E-2   -1.655494197669840E-3    4.740056766136706E-2    5.232668627272984E-1
 6.564478660050000E9    -5.273376948306670E-2    5.663396183488096E-1    2.995473175521589E-2   -1.275563668618574E-3    2.933435571109522E-2   -1.758688642214597E-3    4.878156863731133E-2    5.232127073658150E-1
 6.564493001400000E9    -5.158432913186694E-2    5.664794077796050E-1    3.002176391894694E-2   -1.332223984688293E-3    2.944674152739013E-2   -1.936654678367124E-3    5.001396024261733E-2    5.231246686929899E-1
 6.564507342750000E9    -5.039155567757037E-2    5.666387165112039E-1    3.029106835456988E-2   -1.451695229548311E-3    2.964731738247790E-2   -1.858100208183740E-3    5.135304034066337E-2    5.229732333893879E-1
 6.564521684100000E9    -4.936340550854805E-2    5.666384648208262E-1    3.045607973437795E-2   -1.529864048208540E-3    2.983518792832133E-2   -2.063430485831923E-3    5.251978461521746E-2    5.226048327627848E-1
 6.564536025450000E9    -4.824126224076632E-2    5.667277690139875E-1    3.049625566315736E-2   -1.589403945612176E-3    3.003572892934170E-2   -2.120908523784978E-3    5.377288060399171E-2    5.227614949024855E-1
 6.564550366800000E9    -4.696446050295953E-2    5.668055951148138E-1    3.073903022028783E-2   -1.581727414444472E-3    3.022362748240487E-2   -2.091516305150497E-3    5.497966738308011E-2    5.225820812920089E-1
 6.564564708150000E9    -4.583464901293343E-2    5.669195534604020E-1    3.096568071871410E-2   -1.662957719386309E-3    3.037966294815030E-2   -2.256551166996772E-3    5.638744126967130E-2    5.224660645646140E-1
 6.564579049500000E9    -4.480923508459225E-2    5.669926553445144E-1    3.106113059713407E-2   -1.895614717306496E-3    3.051934973886597E-2   -2.396084981139845E-3    5.769279026864192E-2    5.223481692864282E-1
 6.564593390850000E9    -4.352007443863665E-2    5.670749471215468E-1    3.129837361517230E-2   -2.006204024476044E-3    3.067856462698214E-2   -2.468743409036891E-3    5.900076631213649E-2    5.220807334917665E-1
 6.564607732200000E9    -4.232087802129540E-2    5.671084469028073E-1    3.137821932851580E-2   -2.017187935103314E-3    3.082820645823148E-2   -2.558181827344462E-3    6.036122232616599E-2    5.219022943334096E-1
 6.564622073550000E9    -4.132749785638339E-2    5.671984608360306E-1    3.154676994962240E-2   -2.104518697282158E-3    3.109398182775277E-2   -2.689497506205487E-3    6.162558178075982E-2    5.219075574500504E-1
 6.564636414900000E9    -4.003087930883753E-2    5.672470623046616E-1    3.163501227000651E-2   -2.099214415719312E-3    3.124093068563483E-2   -2.814940091184735E-3    6.288210057051218E-2    5.216806758103502E-1
 6.564650756250000E9    -3.895875484366634E-2    5.673187729803967E-1    3.193815175169509E-2   -2.378628847372469E-3    3.139509740579014E-2   -2.833134704000824E-3    6.429372473843112E-2    5.214801584483719E-1
 6.564665097600000E9    -3.771710972251629E-2    5.674161346941903E-1    3.227211861122560E-2   -2.472127800725974E-3    3.173949714949688E-2   -2.945755100488562E-3    6.555828180940670E-2    5.213942938960281E-1
 6.564679438950000E9    -3.666231166226350E-2    5.674823306037788E-1    3.246865726308242E-2   -2.633173046751299E-3    3.180298978930483E-2   -3.012549365530958E-3    6.695302095401480E-2    5.212437075615832E-1
 6.564693780300000E9    -3.538713084843135E-2    5.674349622268883E-1    3.263768796054124E-2   -2.637480724592179E-3    3.194852108574025E-2   -3.176735224760113E-3    6.821728335774957E-2    5.209749214638243E-1
 6.564708121650000E9    -3.425266781687360E-2    5.676040047555753E-1    3.275018635677049E-2   -2.697932716605840E-3    3.221982515107919E-2   -3.269736498935862E-3    6.960091971216240E-2    5.208880532018437E-1
 6.564722463000000E9    -3.310970473332717E-2    5.676277472907532E-1    3.302407951049219E-2   -2.922988295916968E-3    3.242244000770095E-2   -3.323763996457953E-3    7.090459618687502E-2    5.205612530108344E-1
 6.564736804350000E9    -3.186367473926379E-2    5.677412444165869E-1    3.300464088898220E-2   -2.957758109451752E-3    3.254109589621435E-2   -3.533294668578566E-3    7.230740560578239E-2    5.205599435645951E-1
 6.564751145700000E9    -3.070914612341744E-2    5.677251825214755E-1    3.343834040752622E-2   -3.028879754633618E-3    3.271205039100706E-2   -3.528666140366123E-3    7.357805672234362E-2    5.203125475057981E-1
 6.564765487050000E9    -2.953006986355847E-2    5.677839421412864E-1    3.353028481341094E-2   -3.276777488499097E-3    3.295695449258625E-2   -3.678171681607957E-3    7.481458935015985E-2    5.201122502592098E-1
 6.564779828400000E9    -2.848711340832979E-2    5.678138762979693E-1    3.369299653132277E-2   -3.296104023970458E-3    3.318526727079613E-2   -3.766508457867342E-3    7.630733620730898E-2    5.199755973164553E-1
 6.564794169750000E9    -2.730654730610542E-2    5.678553851312754E-1    3.393809982615094E-2   -3.400809000440032E-3    3.330987439998558E-2   -3.960926701567712E-3    7.765163515242213E-2    5.197032713640254E-1
 6.564808511100000E9    -2.605326245472490E-2    5.678946424321496E-1    3.417386595008808E-2   -3.614837166289543E-3    3.352098685371460E-2   -4.037759986225312E-3    7.894271446047416E-2    5.195905932107610E-1
 6.564822852450000E9    -2.486551803859171E-2    5.679360173358510E-1    3.427784791639926E-2   -3.629033514014344E-3    3.373592915132015E-2   -4.311094936721650E-3    8.032219031401616E-2    5.192522974436191E-1
 6.564837193800000E9    -2.376620181532678E-2    5.679086991871485E-1    3.436880921348121E-2   -3.727711509804588E-3    3.395780018201886E-2   -4.326186025201751E-3    8.169660104844538E-2    5.190663565401058E-1
 6.564851535150000E9    -2.238594255128863E-2    5.679933170082648E-1    3.476945495866565E-2   -3.975990164971827E-3    3.411959045287925E-2   -4.416537453245521E-3    8.305906008462324E-2    5.189208556456874E-1
 6.564865876500000E9    -2.140257133801623E-2    5.679756218530215E-1    3.503342420518056E-2   -3.806582858730010E-3    3.442703638031745E-2   -4.510457982078935E-3    8.451437691808078E-2    5.185460619191933E-1
 6.564880217850000E9    -2.012623301926964E-2    5.679288813632580E-1    3.518429023459735E-2   -4.061070312470451E-3    3.462457028435195E-2   -4.667512706885648E-3    8.589204105661816E-2    5.185125654491657E-1
 6.564894559200000E9    -1.889525643826411E-2    5.680813508859135E-1    3.535402680521155E-2   -4.154770716078808E-3    3.483187941231414E-2   -4.753890824411236E-3    8.720188083850750E-2    5.182199701746595E-1
 6.564908900550000E9    -1.779176638286550E-2    5.681066857912449E-1    3.563173175192623E-2   -4.419737304094419E-3    3.505674259016302E-2   -4.903623720280132E-3    8.861177521696775E-2    5.178512041116734E-1
 6.564923241900000E9    -1.654714488484153E-2    5.679770133159409E-1    3.587390554847646E-2   -4.653339546365666E-3    3.529080479267205E-2   -5.070261923514056E-3    9.009288928431441E-2    5.175463010923046E-1
 6.564937583250000E9    -1.549300192891890E-2    5.680674631509591E-1    3.605101454593573E-2   -4.657797094674848E-3    3.544976926584530E-2   -5.126884806659963E-3    9.145261436657637E-2    5.174574915599240E-1
 6.564951924600000E9    -1.427068463291612E-2    5.681132011653903E-1    3.645941626542479E-2   -4.868247860081475E-3    3.564755793134710E-2   -5.323164142193559E-3    9.286593420472503E-2    5.170713272609292E-1
 6.564966265950000E9    -1.302426416115461E-2    5.681234441918505E-1    3.654752318501118E-2   -4.981512168089548E-3    3.591665333986996E-2   -5.551095128680963E-3    9.424503951528596E-2    5.168156097088331E-1
 6.564980607300000E9    -1.181208838027543E-2    5.680980490453122E-1    3.674443574559897E-2   -5.103830726627934E-3    3.615213715948302E-2   -5.624170998855329E-3    9.561691144626069E-2    5.166245882132470E-1
 6.564994948650000E9    -1.066502828515558E-2    5.680947797564928E-1    3.690766396526085E-2   -5.227502526714561E-3    3.634555651339214E-2   -5.680927419209044E-3    9.712145210709322E-2    5.162208552713234E-1
 6.565009290000000E9    -9.394040374137954E-3    5.681283791348848E-1    3.731510886563567E-2   -5.264572311570710E-3    3.671334503046158E-2   -5.890179492234613E-3    9.852828023800822E-2    5.159605485924553E-1
 6.565023631350000E9    -8.216282400588392E-3    5.680593836791685E-1    3.755905678421866E-2   -5.387620967195732E-3    3.680773905544520E-2   -6.042626333966153E-3    9.995161853784731E-2    5.155882311861082E-1
 6.565037972700000E9    -7.052969184201648E-3    5.680649614160397E-1    3.785868108439331E-2   -5.674993145939350E-3    3.716440607898117E-2   -6.216559263383431E-3    1.013864807235598E-1    5.153818192487961E-1
 6.565052314050000E9    -5.885494190127074E-3    5.680677395146529E-1    3.801313106264020E-2   -5.875224595818533E-3    3.738482640876101E-2   -6.275598206904166E-3    1.027272332815265E-1    5.150625879960066E-1
 6.565066655400000E9    -4.669915676726867E-3    5.679469449666593E-1    3.830777708786088E-2   -5.968292677270060E-3    3.758668819335419E-2   -6.496485341971382E-3    1.042638973799957E-1    5.147562867290663E-1
 6.565080996750000E9    -3.508394520997389E-3    5.679278266919746E-1    3.843242071945931E-2   -6.107714345466055E-3    3.796907225969992E-2   -6.694890478814428E-3    1.056129830456203E-1    5.143739358971351E-1
 6.565095338100000E9    -2.215187352304763E-3    5.680209035512473E-1    3.873812491756661E-2   -6.455374634202472E-3    3.814993600089046E-2   -6.804209055851039E-3    1.071358476072706E-1    5.140161174574904E-1
 6.565109679450000E9    -9.931326360949999E-4    5.678988407135405E-1    3.906554074926861E-2   -6.498719866107531E-3    3.853290002034702E-2   -7.034977713898056E-3    1.085869018742958E-1    5.136011604808145E-1
 6.565124020800000E9     2.533724993527172E-4    5.679362914598699E-1    3.932903329643860E-2   -6.599666092118751E-3    3.868896973810874E-2   -7.154589342683670E-3    1.101500248771885E-1    5.134021954356640E-1
 6.565138362150000E9     1.417880204863563E-3    5.678533959158455E-1    3.967002085710610E-2   -6.869900985703488E-3    3.905025193683682E-2   -7.363088522654257E-3    1.116594196719453E-1    5.130259079438155E-1
 6.565152703500000E9     2.669785285048366E-3    5.678088815282670E-1    3.986635998348328E-2   -6.846622266679605E-3    3.918866691558261E-2   -7.436608846134688E-3    1.130104818089515E-1    5.129194943784916E-1
 6.565167044850000E9     3.942647111575961E-3    5.679117892369261E-1    4.012895390993254E-2   -7.208943296565483E-3    3.950244136590816E-2   -7.629852606246611E-3    1.145889468006548E-1    5.124570660898685E-1
 6.565181386200000E9     5.042504909766681E-3    5.677061083976049E-1    4.055916898067490E-2   -7.319644454318370E-3    3.974035937698628E-2   -7.883550413230635E-3    1.161330026505010E-1    5.119584667418368E-1
 6.565195727550000E9     6.294257816029721E-3    5.677857102663006E-1    4.084254364737346E-2   -7.363374724456875E-3    4.011599457243079E-2   -8.025811841202506E-3    1.175371512224921E-1    5.117012565215852E-1
 6.565210068900000E9     7.482530258461279E-3    5.675681884188253E-1    4.108156737956051E-2   -7.583672337715361E-3    4.031680984527828E-2   -8.254495776968549E-3    1.190706999002029E-1    5.111582121770778E-1
 6.565224410250000E9     8.797855883736086E-3    5.675484676127850E-1    4.131454027559225E-2   -7.859693766533818E-3    4.062215701120248E-2   -8.476339128564969E-3    1.204952289315323E-1    5.108550891067686E-1
 6.565238751600000E9     9.988084979413482E-3    5.674615351617363E-1    4.166574962233063E-2   -8.006195004313623E-3    4.084987045738969E-2   -8.722376786738872E-3    1.221734755675620E-1    5.103490626150886E-1
 6.565253092950000E9     1.126985489476724E-2    5.673596498285720E-1    4.194368962385146E-2   -8.208474723332835E-3    4.118695065255770E-2   -8.854763020914256E-3    1.235901907483165E-1    5.099423345495121E-1
 6.565267434300000E9     1.248631435692316E-2    5.673220894961933E-1    4.230962314423423E-2   -8.370524325492852E-3    4.155861874592865E-2   -8.994328402156143E-3    1.251470490887787E-1    5.096056671219947E-1
 6.565281775650000E9     1.376307548700169E-2    5.672614261360059E-1    4.244239483021931E-2   -8.590416940076170E-3    4.181218442390881E-2   -9.241511367945415E-3    1.266816625488291E-1    5.091432219174117E-1
 6.565296117000000E9     1.490052012140405E-2    5.671713108105194E-1    4.289724508800597E-2   -8.918671701231279E-3    4.219760706231952E-2   -9.426491972754953E-3    1.283229901683173E-1    5.086957558318417E-1
 6.565310458350000E9     1.618198763343994E-2    5.671239806924399E-1    4.320276246995707E-2   -9.158620897805083E-3    4.246700856192516E-2   -9.691313771129298E-3    1.299438136855554E-1    5.082774732747517E-1
 6.565324799700000E9     1.737020280983763E-2    5.670739572135085E-1    4.361775057405946E-2   -9.374212043010104E-3    4.280041278264750E-2   -9.849805758531100E-3    1.313625204580371E-1    5.076734345153420E-1
 6.565339141050000E9     1.872557162984443E-2    5.669101569409024E-1    4.376290722147176E-2   -9.468002765841319E-3    4.313407563668727E-2   -1.020689425278859E-2    1.329695660004385E-1    5.072810505479217E-1
 6.565353482400000E9     1.994456950148386E-2    5.667760376007805E-1    4.414188043110508E-2   -9.841209261142918E-3    4.346903933886351E-2   -1.027809072745697E-2    1.345908567994018E-1    5.068404260813510E-1
 6.565367823750000E9     2.115120540620512E-2    5.667110923410021E-1    4.429396836259245E-2   -9.953778135666171E-3    4.381014934523824E-2   -1.060169767461721E-2    1.362058375218141E-1    5.063590327846301E-1
 6.565382165100000E9     2.245724765742118E-2    5.666587116595886E-1    4.494517894616544E-2   -1.022289172512272E-2    4.408139108895454E-2   -1.082046985136432E-2    1.378067648725132E-1    5.059044271870752E-1
 6.565396506450000E9     2.375589727315717E-2    5.665115851636012E-1    4.522964263725839E-2   -1.046916039941602E-2    4.448117918399978E-2   -1.105109689629001E-2    1.393022925401919E-1    5.051771512809554E-1
 6.565410847800000E9     2.504884956578360E-2    5.664120611849319E-1    4.555277899432351E-2   -1.076288454848759E-2    4.480510435587189E-2   -1.132565364362519E-2    1.409879096699342E-1    5.046881227468970E-1
 6.565425189150000E9     2.628355056755508E-2    5.662938553864100E-1    4.586624772839634E-2   -1.097837611256013E-2    4.509164999026991E-2   -1.154442110025555E-2    1.426691449361545E-1    5.042576897727670E-1
 6.565439530500000E9     2.745926668072610E-2    5.661916661275975E-1    4.625112888469063E-2   -1.124367658429712E-2    4.544776273303582E-2   -1.188621688815003E-2    1.443653774111043E-1    5.037597733483672E-1
