#  HZ   S   RI   R     50.00 
! Rohde & Schwarz Vector Network Analyzer 
! Rohde-Schwarz,ZNB20-2Port,1311601062101988,3.16
! Created: UTC 3/20/2024, 4:50:03 PM
! freq[Hz]                re:S11                  im:S11                  re:S21                  im:S21                  re:S12                  im:S12                  re:S22                  im:S22
 6.564792889000000E9    -2.755450845613027E-2    5.688436545466281E-1    3.252176852140011E-2   -2.397877607074284E-3    3.209042527893606E-2   -3.035681766220669E-3    7.725921861290228E-2    5.242355296726320E-1
 6.564804559275000E9    -2.664806954809469E-2    5.689393060410821E-1    3.285575524135115E-2   -2.393580427255497E-3    3.220795274438677E-2   -3.065908969094792E-3    7.831538038545229E-2    5.240563692384789E-1
 6.564816229550000E9    -2.567790329168499E-2    5.689076869939967E-1    3.305538518998737E-2   -2.654716949373464E-3    3.235963148959833E-2   -3.077509035549333E-3    7.946925460450292E-2    5.239566859548926E-1
 6.564827899825000E9    -2.475730189072344E-2    5.689111744346890E-1    3.311905216188635E-2   -2.749932988363113E-3    3.259181147387449E-2   -3.196679847098519E-3    8.061658955554381E-2    5.237894308578737E-1
 6.564839570100000E9    -2.381012532617018E-2    5.690084189348437E-1    3.327248981201700E-2   -2.877224255695182E-3    3.266464379695818E-2   -3.312740127139238E-3    8.166184127619071E-2    5.236310917625223E-1
 6.564851240375000E9    -2.282243988354245E-2    5.690208388037610E-1    3.347438724975928E-2   -2.959559366396759E-3    3.294719349317152E-2   -3.443274531775437E-3    8.275519405231604E-2    5.234005193496671E-1
 6.564862910650000E9    -2.183771736766342E-2    5.690111813739505E-1    3.364121046304298E-2   -2.890690978032714E-3    3.302160053988148E-2   -3.587947413214033E-3    8.384324173480370E-2    5.232643700043345E-1
 6.564874580925000E9    -2.088088534227984E-2    5.690127328337298E-1    3.381611843169833E-2   -3.160321235043908E-3    3.317833375002636E-2   -3.581018490509048E-3    8.488103092086295E-2    5.229643776112932E-1
 6.564886251200000E9    -2.008696169003963E-2    5.690408965671570E-1    3.382634483174918E-2   -3.258003497952690E-3    3.323501340398440E-2   -3.736713698813272E-3    8.606452923188355E-2    5.229183923631145E-1
 6.564897921475000E9    -1.897313866853211E-2    5.691438554572882E-1    3.399933015725214E-2   -3.313370212582513E-3    3.351889694693003E-2   -3.643359749216032E-3    8.719622764523914E-2    5.227600900154921E-1
 6.564909591750000E9    -1.807707840470315E-2    5.691330191952190E-1    3.423156383309089E-2   -3.420257287092877E-3    3.370202403351538E-2   -3.878586055556913E-3    8.823938302106951E-2    5.224938007767684E-1
 6.564921262025000E9    -1.706009106612043E-2    5.691176904158282E-1    3.429038218715007E-2   -3.442841843312027E-3    3.379273359679143E-2   -3.886996399370587E-3    8.940205389231985E-2    5.221903967332633E-1
 6.564932932300000E9    -1.611772942797139E-2    5.690485172960104E-1    3.449078896482356E-2   -3.402394633044569E-3    3.403051640913266E-2   -4.040705803879019E-3    9.041546080334435E-2    5.221647907122406E-1
 6.564944602575000E9    -1.524574060817927E-2    5.691800857621723E-1    3.479393167264370E-2   -3.548327852274333E-3    3.418309978589871E-2   -4.155286761160549E-3    9.166898399017345E-2    5.221602812932004E-1
 6.564956272850000E9    -1.419163744965980E-2    5.691877058704732E-1    3.495777222368637E-2   -3.648237046297531E-3    3.429514523607803E-2   -4.162314961764232E-3    9.259466881924346E-2    5.217777916953201E-1
 6.564967943125000E9    -1.327787706020932E-2    5.691767236183033E-1    3.505380381335115E-2   -3.821621725823570E-3    3.449094965011584E-2   -4.316289498155858E-3    9.386748991891451E-2    5.215911196231175E-1
 6.564979613400000E9    -1.222024003942554E-2    5.690826660937414E-1    3.523719865798221E-2   -3.805229281770741E-3    3.470929429020810E-2   -4.417552641386693E-3    9.500207403426078E-2    5.214880584893999E-1
 6.564991283675000E9    -1.128810133522396E-2    5.692828888517251E-1    3.541993820496708E-2   -4.135744627495766E-3    3.491773760979042E-2   -4.587515054471633E-3    9.611260209317450E-2    5.212381787632776E-1
 6.565002953950000E9    -1.048339867668031E-2    5.692462087241219E-1    3.562801889143823E-2   -4.034031337603557E-3    3.513709024511521E-2   -4.579964872598262E-3    9.740810016304702E-2    5.210033267063150E-1
 6.565014624225000E9    -9.315891825367944E-3    5.692029737376975E-1    3.594220756351314E-2   -4.223861447469306E-3    3.530248522698953E-2   -4.730190251773000E-3    9.846443141730635E-2    5.207755105370478E-1
 6.565026294500000E9    -8.303445020787743E-3    5.692507534178349E-1    3.611077744122045E-2   -4.276652254969473E-3    3.541085873535883E-2   -4.893064050090112E-3    9.969976883549977E-2    5.206644754341921E-1
 6.565037964775000E9    -7.389425890391303E-3    5.691111904457361E-1    3.619673580531848E-2   -4.525247567580978E-3    3.561456689693194E-2   -4.889475959399953E-3    1.006285567550036E-1    5.204068172750956E-1
 6.565049635050000E9    -6.531158837604419E-3    5.692590320202161E-1    3.636803602729233E-2   -4.537676687580973E-3    3.588607303023315E-2   -5.002934610450008E-3    1.018566597469949E-1    5.201045869217510E-1
 6.565061305325000E9    -5.448540358375984E-3    5.691843771600477E-1    3.652213504773897E-2   -4.543940235268134E-3    3.606836961829286E-2   -5.115872126803311E-3    1.031436156909641E-1    5.198613075976414E-1
 6.565072975600000E9    -4.479035408918179E-3    5.691069926822634E-1    3.690983239909856E-2   -4.588042101015491E-3    3.607295050131545E-2   -5.197445401712901E-3    1.041343008369399E-1    5.195951953587806E-1
 6.565084645875000E9    -3.546427275561440E-3    5.691914174089028E-1    3.699056709208869E-2   -4.818747342154466E-3    3.624869314646997E-2   -5.381871481949539E-3    1.052154973450176E-1    5.193255173744770E-1
 6.565096316150000E9    -2.575317093073346E-3    5.691563490865991E-1    3.724782149044392E-2   -4.954510896923733E-3    3.658890810284239E-2   -5.462743130129714E-3    1.065242574215352E-1    5.192210930318920E-1
 6.565107986425000E9    -1.601234434579526E-3    5.690799234306724E-1    3.740484465325610E-2   -4.965788502316074E-3    3.679292225115961E-2   -5.633399107428055E-3    1.076918484421758E-1    5.190028368568957E-1
 6.565119656700000E9    -5.945659665315635E-4    5.692164747461795E-1    3.777332831812911E-2   -5.131735879208696E-3    3.699504985894834E-2   -5.629811902395959E-3    1.088493379901652E-1    5.187006469771264E-1
 6.565131326975000E9     4.091135677333957E-4    5.690373261258378E-1    3.785711624827420E-2   -5.278293857634560E-3    3.724090204231006E-2   -5.814930131335126E-3    1.100219367993270E-1    5.184358038336243E-1
 6.565142997250000E9     1.415828016034872E-3    5.689500604063762E-1    3.807461471463273E-2   -5.551270812813966E-3    3.726522456204964E-2   -5.877481079766202E-3    1.111611864025141E-1    5.183378563209958E-1
 6.565154667525000E9     2.393828622393364E-3    5.690837445537326E-1    3.828261956130106E-2   -5.419552025324496E-3    3.763079529658807E-2   -5.981975738036003E-3    1.124446091847731E-1    5.179826659191172E-1
 6.565166337800000E9     3.348956851065999E-3    5.691066597607692E-1    3.838577544814231E-2   -5.635547458322558E-3    3.782104175788716E-2   -6.109777225465880E-3    1.136312948042646E-1    5.177604447376648E-1
 6.565178008075000E9     4.353694461027586E-3    5.690716959455367E-1    3.853883159516186E-2   -5.631096823013254E-3    3.799068237994013E-2   -6.275663749929084E-3    1.148411094453132E-1    5.174617249423799E-1
 6.565189678350000E9     5.340554143172315E-3    5.690018815624766E-1    3.894281383333690E-2   -5.861480801707132E-3    3.823157971504103E-2   -6.465905176043012E-3    1.160008179359649E-1    5.172115828225676E-1
 6.565201348625000E9     6.299081277075561E-3    5.689021169350144E-1    3.902040292249855E-2   -5.977174882157653E-3    3.841733748060940E-2   -6.427274331793588E-3    1.171862389215794E-1    5.169316071661382E-1
 6.565213018900000E9     7.374847068879895E-3    5.689656445591464E-1    3.935301363848850E-2   -6.134510187017307E-3    3.861344674989206E-2   -6.688264820341750E-3    1.183683161800799E-1    5.165423382111448E-1
 6.565224689175000E9     8.235777180706470E-3    5.689229118025574E-1    3.959401937851642E-2   -6.299024338966294E-3    3.887091319899807E-2   -6.677488526305421E-3    1.196372409792900E-1    5.162456778569934E-1
 6.565236359450000E9     9.324955971418223E-3    5.689158038826247E-1    3.978998197401597E-2   -6.432146649898823E-3    3.907987656852714E-2   -6.958341787557584E-3    1.209877637178114E-1    5.160178089042288E-1
 6.565248029725000E9     1.029108760656934E-2    5.687743916670919E-1    4.008431729762451E-2   -6.459157721002527E-3    3.936253351197817E-2   -7.084373579640897E-3    1.221759093022365E-1    5.156428806886598E-1
 6.565259700000000E9     1.122533005048392E-2    5.687251124795367E-1    4.033409981145492E-2   -6.664609133080359E-3    3.957658810631647E-2   -7.149945623071893E-3    1.232066576822979E-1    5.154122915793417E-1
 6.565271370275000E9     1.221178418190109E-2    5.686660853198200E-1    4.044481757862260E-2   -6.748359719984484E-3    3.981624421150231E-2   -7.329704217530753E-3    1.244789502420323E-1    5.151395047471319E-1
 6.565283040550000E9     1.323914930269893E-2    5.686187597514929E-1    4.060371612409473E-2   -6.911778295893720E-3    4.002120096082524E-2   -7.512252569835314E-3    1.257505563362475E-1    5.148867517365716E-1
 6.565294710825000E9     1.429730742502602E-2    5.685664817617535E-1    4.089508387106851E-2   -7.047739023967451E-3    4.023119294370837E-2   -7.728142915486846E-3    1.269964487265134E-1    5.146431743589803E-1
 6.565306381100000E9     1.523981638285018E-2    5.685981254155706E-1    4.113864363094660E-2   -7.054216408325133E-3    4.056018019259008E-2   -7.735760944906501E-3    1.283125559462013E-1    5.143095431640313E-1
 6.565318051375000E9     1.625950396376661E-2    5.683249603987389E-1    4.148718629463008E-2   -7.366889567722718E-3    4.072876340141420E-2   -7.907264664222176E-3    1.292862129887549E-1    5.138640577238156E-1
 6.565329721650000E9     1.731163528709312E-2    5.684053975204828E-1    4.173675728414560E-2   -7.469581709326864E-3    4.093384772508398E-2   -8.034552223111722E-3    1.307044240817202E-1    5.137181824169023E-1
 6.565341391925000E9     1.829414019241324E-2    5.684106418630455E-1    4.197472902901119E-2   -7.630942093669374E-3    4.108493858945979E-2   -8.211247205200814E-3    1.320489299519333E-1    5.133116247555255E-1
 6.565353062200000E9     1.926691243360265E-2    5.683287137445867E-1    4.218087184035259E-2   -7.633834543376221E-3    4.154006073491147E-2   -8.308223168671811E-3    1.332744249661171E-1    5.129084512752792E-1
 6.565364732475000E9     2.017879584811784E-2    5.683347935243774E-1    4.238169131504704E-2   -7.966403385842381E-3    4.161801478335565E-2   -8.582054524523560E-3    1.346192598816270E-1    5.126647857933496E-1
 6.565376402750000E9     2.140676807821766E-2    5.682465099037386E-1    4.269964819084374E-2   -7.992831434356897E-3    4.198929990890294E-2   -8.595129490722190E-3    1.357937973271374E-1    5.121895113422985E-1
 6.565388073025000E9     2.219034318980037E-2    5.681495931691132E-1    4.299254394958056E-2   -8.202332034784657E-3    4.218661624978019E-2   -8.808566471348402E-3    1.371208314209620E-1    5.118184358587128E-1
 6.565399743300000E9     2.326874231041406E-2    5.681120261640812E-1    4.318273044973356E-2   -8.368668855684786E-3    4.245034348830638E-2   -8.948208497672250E-3    1.384491621472436E-1    5.115212522119248E-1
 6.565411413575000E9     2.424878772422575E-2    5.681090803645744E-1    4.350274242616885E-2   -8.530550564832165E-3    4.270881961596202E-2   -9.151408810136305E-3    1.395050658125854E-1    5.110747590626510E-1
 6.565423083850000E9     2.543110516341517E-2    5.679613037929497E-1    4.369295125829896E-2   -8.744789749006993E-3    4.290192402665548E-2   -9.320851835623031E-3    1.409225579959381E-1    5.106956745377865E-1
 6.565434754125000E9     2.640398857045284E-2    5.678351430177082E-1    4.388349216909901E-2   -9.016413535822837E-3    4.326391208727659E-2   -9.520642538385356E-3    1.422073564820616E-1    5.104367867939268E-1
 6.565446424400000E9     2.740655147300984E-2    5.677734816740032E-1    4.422557325429551E-2   -9.015849838406328E-3    4.350615903913499E-2   -9.678418822400444E-3    1.433941704483316E-1    5.100604599823216E-1
 6.565458094675000E9     2.842027010187878E-2    5.676965405432322E-1    4.456985611226157E-2   -9.360528355327103E-3    4.381175267881628E-2   -9.817500279509556E-3    1.448975024468866E-1    5.095873639349409E-1
 6.565469764950000E9     2.943703855002678E-2    5.674589107090395E-1    4.473249835615528E-2   -9.506419876898483E-3    4.412083561279494E-2   -1.000114276023171E-2    1.461650758703003E-1    5.091005065650526E-1
 6.565481435225000E9     3.045404259509083E-2    5.674506467068795E-1    4.516971811225860E-2   -9.716300774806485E-3    4.445017897838553E-2   -1.015405342968919E-2    1.475552636648154E-1    5.087913144932803E-1
 6.565493105500000E9     3.149944077959527E-2    5.673491771839840E-1    4.537941019963348E-2   -9.898399755905616E-3    4.474922318084287E-2   -1.039587846452713E-2    1.488189826554808E-1    5.082946939462679E-1
 6.565504775775000E9     3.257978135112392E-2    5.672994249703232E-1    4.576859041716214E-2   -1.007864417162115E-2    4.490812889872489E-2   -1.053590029418864E-2    1.502663730690766E-1    5.080341849263859E-1
 6.565516446050000E9     3.351485971251088E-2    5.671257022569515E-1    4.611158873267815E-2   -1.023075867901094E-2    4.533324882542477E-2   -1.067884258344897E-2    1.516123176579696E-1    5.075724878750260E-1
 6.565528116325000E9     3.453883164708060E-2    5.670825347289347E-1    4.632058046576239E-2   -1.042886687833316E-2    4.548562377056933E-2   -1.101963832849114E-2    1.528507834457721E-1    5.069997688890446E-1
 6.565539786600000E9     3.569160215145870E-2    5.670902721357182E-1    4.656570231159853E-2   -1.060113596379992E-2    4.578087467177729E-2   -1.114297260595247E-2    1.543357161185998E-1    5.065674554892277E-1
 6.565551456875000E9     3.663750730929993E-2    5.668118494349985E-1    4.701573903796670E-2   -1.076696489223043E-2    4.616217900350558E-2   -1.138087308295421E-2    1.557772190643608E-1    5.061168755703409E-1
 6.565563127150000E9     3.768976977168713E-2    5.667348903947589E-1    4.722575788602421E-2   -1.095870501304880E-2    4.654678413942862E-2   -1.158584663957162E-2    1.570761577161624E-1    5.056218842166416E-1
 6.565574797425000E9     3.879785306896585E-2    5.666851493574048E-1    4.748786720852208E-2   -1.117503290386943E-2    4.681645332823715E-2   -1.174715181960860E-2    1.584439280588248E-1    5.053753998315778E-1
 6.565586467700000E9     3.972238282314833E-2    5.665123025143023E-1    4.774903828095610E-2   -1.133498620686578E-2    4.710088434872331E-2   -1.195696114653110E-2    1.598211048568451E-1    5.047396436367847E-1
 6.565598137975000E9     4.086804550958095E-2    5.664453445602952E-1    4.804227554985320E-2   -1.167411021879472E-2    4.743109160281486E-2   -1.218215722834887E-2    1.611909698151660E-1    5.041964246195185E-1
 6.565609808250000E9     4.191810621643317E-2    5.662837039680952E-1    4.867885590925818E-2   -1.187621392900580E-2    4.779396892836933E-2   -1.253683654457082E-2    1.626282658953530E-1    5.037624673029524E-1
 6.565621478525000E9     4.295743672660824E-2    5.661983101706611E-1    4.882930376761718E-2   -1.193144629933467E-2    4.807811056558064E-2   -1.260909887924804E-2    1.640433749595436E-1    5.032012667747711E-1
 6.565633148800000E9     4.392039758743105E-2    5.661002270720629E-1    4.922297800628709E-2   -1.219969809253662E-2    4.841799870663085E-2   -1.281405139338772E-2    1.654369874523264E-1    5.027678245686297E-1
 6.565644819075000E9     4.516654335741733E-2    5.658982432488536E-1    4.964038676616357E-2   -1.251653922233108E-2    4.874239928219970E-2   -1.306626165429392E-2    1.668604849411205E-1    5.023368128161833E-1
 6.565656489350000E9     4.621362144585337E-2    5.658587744899356E-1    4.981745654392713E-2   -1.268690828420703E-2    4.915408201635108E-2   -1.329430991221440E-2    1.683351326414353E-1    5.017698508491606E-1
 6.565668159625000E9     4.722563297227773E-2    5.656392444956413E-1    5.022974319730655E-2   -1.303267432659682E-2    4.937866712260840E-2   -1.362359667170932E-2    1.696933678266210E-1    5.009845548981688E-1
 6.565679829900000E9     4.819932965734276E-2    5.654048493374464E-1    5.071989583568595E-2   -1.322971115770668E-2    4.972206251280641E-2   -1.374413726105872E-2    1.712133865402225E-1    5.007486736629456E-1
 6.565691500175000E9     4.928498293779256E-2    5.653514522018814E-1    5.098170121790462E-2   -1.348488891590197E-2    5.009832411461513E-2   -1.412433604444612E-2    1.726313404024319E-1    5.001763466062705E-1
 6.565703170450000E9     5.049677886954081E-2    5.650765577407677E-1    5.132651167186470E-2   -1.371821634234505E-2    5.039243917152596E-2   -1.435686848021857E-2    1.742232534141258E-1    4.994693733248624E-1
 6.565714840725000E9     5.150532224454271E-2    5.649859204644648E-1    5.165469333300088E-2   -1.398003643815762E-2    5.083770521742970E-2   -1.467288260928973E-2    1.756050597422029E-1    4.990896877810830E-1
 6.565726511000000E9     5.261963583674676E-2    5.648846472062696E-1    5.203169630246215E-2   -1.444958441741663E-2    5.124060499519990E-2   -1.492918824073544E-2    1.771484882621854E-1    4.983144737567933E-1
 6.565738181275000E9     5.351555999622935E-2    5.647266120565181E-1    5.250107696537985E-2   -1.455172465881845E-2    5.157799833268019E-2   -1.512323606632886E-2    1.787193932772559E-1    4.976973513752137E-1
 6.565749851550000E9     5.472302982940701E-2    5.645317090695443E-1    5.279988890382276E-2   -1.472326551094951E-2    5.201841749256534E-2   -1.543300347032405E-2    1.801312514423154E-1    4.972627267935791E-1
 6.565761521825000E9     5.580264749455181E-2    5.643247684097498E-1    5.332357090490475E-2   -1.517374826454899E-2    5.240852277567554E-2   -1.561051771638215E-2    1.816600545588846E-1    4.965433898936528E-1
 6.565773192100000E9     5.692125439197342E-2    5.641267208370617E-1    5.381023640321857E-2   -1.536933894289070E-2    5.275645991815529E-2   -1.596935813401583E-2    1.831533067067184E-1    4.959680128648813E-1
 6.565784862375000E9     5.805678973570259E-2    5.640872617257939E-1    5.402730999211899E-2   -1.564774043075281E-2    5.314821414465414E-2   -1.618561572680821E-2    1.847486490967690E-1    4.951268835450047E-1
 6.565796532650000E9     5.910428207220125E-2    5.638676475222002E-1    5.452187175574597E-2   -1.576977911427776E-2    5.365086949323551E-2   -1.670409883182754E-2    1.863499336176070E-1    4.947209665631306E-1
 6.565808202925000E9     6.020591884798297E-2    5.635683876453800E-1    5.489428898205805E-2   -1.619344772713607E-2    5.401452182396085E-2   -1.699787358583761E-2    1.879834894687667E-1    4.938192624722170E-1
 6.565819873200000E9     6.132502455380552E-2    5.633598485682408E-1    5.519763588036521E-2   -1.655651461300550E-2    5.444137003597990E-2   -1.733345583873679E-2    1.895229174681932E-1    4.933229862999272E-1
 6.565831543475000E9     6.240783972479333E-2    5.632288622630790E-1    5.576281638332810E-2   -1.685628749626683E-2    5.492474283247539E-2   -1.758559265933221E-2    1.910330901424444E-1    4.925615609930412E-1
 6.565843213750000E9     6.353317274992613E-2    5.630739073022006E-1    5.609131617995829E-2   -1.735670720000293E-2    5.525796186597019E-2   -1.786108680499977E-2    1.926005026666912E-1    4.917664532199760E-1
