#  HZ   S   RI   R     50.00 
! Rohde & Schwarz Vector Network Analyzer 
! Rohde-Schwarz,ZNB20-2Port,1311601062101988,3.16
! Created: UTC 3/20/2024, 5:05:12 PM
! freq[Hz]                re:S11                  im:S11                  re:S21                  im:S21                  re:S12                  im:S12                  re:S22                  im:S22
 6.564156514000000E9    -7.814135414493426E-2    5.635902796543815E-1    2.654931477293963E-2    4.520453612526287E-4    2.609236823859705E-2   -3.472154207210264E-5    2.071579489635763E-2    5.246546953646881E-1
 6.564170823850000E9    -7.718026876046015E-2    5.637702108621242E-1    2.665275710840826E-2    3.077897102837521E-4    2.621712815660579E-2   -2.034140224298370E-4    2.182475050063745E-2    5.246234306998299E-1
 6.564185133700000E9    -7.611775830958935E-2    5.637992370155739E-1    2.689994875127222E-2    2.723167235904631E-4    2.645179707685592E-2   -2.409608578598657E-4    2.313703012669592E-2    5.246548766208027E-1
 6.564199443550000E9    -7.487414714948426E-2    5.641035955708067E-1    2.698960758841296E-2    3.492793103497284E-4    2.654463686306718E-2   -2.387608637934025E-4    2.434804394088026E-2    5.246154011009498E-1
 6.564213753400000E9    -7.380662007225487E-2    5.642545885365432E-1    2.715306222510148E-2    2.706274879444653E-4    2.665570847696752E-2   -3.687709095073571E-4    2.559877028147893E-2    5.245645021486046E-1
 6.564228063250000E9    -7.253671902531982E-2    5.642700523522517E-1    2.729045204211490E-2    5.484766633292909E-5    2.673583050483605E-2   -4.185460767415703E-4    2.669359711932773E-2    5.245950580847247E-1
 6.564242373100000E9    -7.156501895618007E-2    5.644803445224278E-1    2.739865439418825E-2   -4.643772915885468E-5    2.692007045839430E-2   -5.401091659079294E-4    2.801676912205178E-2    5.244528553208243E-1
 6.564256682950000E9    -7.044780617325397E-2    5.645950154716005E-1    2.738008604054180E-2   -2.063351725001257E-4    2.693300664948493E-2   -5.653970630257317E-4    2.922835053251619E-2    5.244305231637977E-1
 6.564270992800000E9    -6.928749836195618E-2    5.646283398485507E-1    2.767729110294952E-2   -1.406020430036782E-4    2.717876621817562E-2   -5.957845178558500E-4    3.044742723878466E-2    5.243922701038860E-1
 6.564285302650000E9    -6.801379839284012E-2    5.648675213782175E-1    2.776613121216480E-2   -1.483926915950040E-4    2.728075656145608E-2   -6.758038911218861E-4    3.179988813154288E-2    5.241506341442592E-1
 6.564299612500000E9    -6.699253395511341E-2    5.649625418290970E-1    2.793787218002365E-2   -2.440428553247680E-4    2.751203420794143E-2   -6.895289216662915E-4    3.296525270278591E-2    5.241912316433601E-1
 6.564313922350000E9    -6.592641446571970E-2    5.651495424849190E-1    2.804545301841196E-2   -4.643720193429534E-4    2.759869364034096E-2   -8.737422424222483E-4    3.419023501591878E-2    5.242910620364867E-1
 6.564328232200000E9    -6.482674457201304E-2    5.652474040254213E-1    2.831334209135173E-2   -4.642137359367145E-4    2.775727316554265E-2   -9.473190161036582E-4    3.547204913092264E-2    5.239659629320202E-1
 6.564342542050000E9    -6.363932048498432E-2    5.653722899201006E-1    2.836288460339884E-2   -5.490999649668159E-4    2.796427287854913E-2   -1.033733106088410E-3    3.671809831695651E-2    5.240086906565169E-1
 6.564356851900000E9    -6.250818946262703E-2    5.654571012649378E-1    2.856937206098193E-2   -6.813902073292206E-4    2.802904727239237E-2   -1.117413924493691E-3    3.789699257523949E-2    5.239713305826658E-1
 6.564371161750000E9    -6.133598083620428E-2    5.655814699979987E-1    2.874515428292231E-2   -5.557966614481623E-4    2.818694379656292E-2   -1.129609245046161E-3    3.923813122818586E-2    5.238936986943700E-1
 6.564385471600000E9    -6.018769140806803E-2    5.656593294406390E-1    2.892025227418959E-2   -7.054161641076274E-4    2.829889416029507E-2   -1.216516837220920E-3    4.049227415156736E-2    5.238326809090050E-1
 6.564399781450000E9    -5.906303900403950E-2    5.658311005845084E-1    2.908121605556462E-2   -7.460864692493405E-4    2.850443097993806E-2   -1.373261591675146E-3    4.168722286778369E-2    5.236631714628397E-1
 6.564414091300000E9    -5.793659479102580E-2    5.658959641418942E-1    2.920889637527594E-2   -9.200958743116888E-4    2.865694939012499E-2   -1.411002837927952E-3    4.295293039475958E-2    5.235970219771573E-1
 6.564428401150000E9    -5.684747188614572E-2    5.660057491318449E-1    2.932686536533348E-2   -8.785328937138772E-4    2.887429773657694E-2   -1.339821120656393E-3    4.430554361981497E-2    5.234881226432248E-1
 6.564442711000000E9    -5.567123353913150E-2    5.661479564821267E-1    2.946001192088519E-2   -1.012938302470786E-3    2.896396478850101E-2   -1.533714167192937E-3    4.547747125050327E-2    5.233197071723297E-1
 6.564457020850000E9    -5.451993584896805E-2    5.662349774363410E-1    2.951266234218465E-2   -1.021297354544787E-3    2.917318272274343E-2   -1.707227773938600E-3    4.695002188704360E-2    5.231258306747727E-1
 6.564471330700000E9    -5.336045035190849E-2    5.663231896336290E-1    2.982270742344942E-2   -1.072292944966291E-3    2.930891280439012E-2   -1.662607100227140E-3    4.814787135571959E-2    5.231299726261253E-1
 6.564485640550000E9    -5.226186823005127E-2    5.663953504062812E-1    3.003616910524698E-2   -1.147315436609009E-3    2.949514607048175E-2   -1.819410285106230E-3    4.939702802249300E-2    5.230393470723915E-1
 6.564499950400000E9    -5.110763545187379E-2    5.665601007423340E-1    3.013618063882628E-2   -1.351249888052026E-3    2.955393134154641E-2   -1.803004714841783E-3    5.045002701546784E-2    5.231229562500519E-1
 6.564514260250000E9    -4.997323360258275E-2    5.666582888073015E-1    3.030609706648349E-2   -1.399220595418245E-3    3.001155968070041E-2   -1.956857033502671E-3    5.197734548846664E-2    5.229304729010075E-1
 6.564528570100000E9    -4.880248179371468E-2    5.667620829671368E-1    3.045273553490490E-2   -1.540579620936808E-3    2.995051711896524E-2   -2.018677828037954E-3    5.327895662853065E-2    5.226819816469784E-1
 6.564542879950000E9    -4.765491854827136E-2    5.667837877887791E-1    3.069298162090686E-2   -1.702230202187903E-3    3.005937074277628E-2   -2.105800161721106E-3    5.444635417103554E-2    5.226960821246978E-1
 6.564557189800000E9    -4.660073301389789E-2    5.668654501579301E-1    3.076065469802957E-2   -1.729670470816612E-3    3.028437488951513E-2   -2.255141946960329E-3    5.574547289499545E-2    5.224518622021184E-1
 6.564571499650000E9    -4.535671081568363E-2    5.669528684248268E-1    3.094789985074592E-2   -1.899818157235932E-3    3.042454980650581E-2   -2.302329896656742E-3    5.700079134898554E-2    5.224482288487887E-1
 6.564585809500000E9    -4.414252212283609E-2    5.670651255811426E-1    3.119384129477209E-2   -1.891735350365680E-3    3.069942719831131E-2   -2.407388282954522E-3    5.818263689289559E-2    5.221625383650802E-1
 6.564600119350000E9    -4.304933685552765E-2    5.670094484782481E-1    3.129943823093775E-2   -1.994197638345041E-3    3.076650088341203E-2   -2.514702300195012E-3    5.957331524553124E-2    5.220103941974703E-1
 6.564614429200000E9    -4.187563202544050E-2    5.672274248926896E-1    3.152012088886638E-2   -2.114425026135215E-3    3.101977510037339E-2   -2.539650939748804E-3    6.097999417135350E-2    5.219838518002539E-1
 6.564628739050000E9    -4.075042974245162E-2    5.673237346701681E-1    3.159387172374754E-2   -2.282170803310024E-3    3.115932470465433E-2   -2.608461526784537E-3    6.221915997443239E-2    5.218037197899326E-1
 6.564643048900000E9    -3.952216922749584E-2    5.674351894787498E-1    3.192885961542325E-2   -2.267050420439955E-3    3.134555213149237E-2   -2.894012623413141E-3    6.345439207321396E-2    5.215704739476168E-1
 6.564657358750000E9    -3.844902311629358E-2    5.673657763211908E-1    3.218255869793024E-2   -2.404875197303004E-3    3.151250657835931E-2   -2.806904220181813E-3    6.487125378857503E-2    5.214984691632948E-1
 6.564671668600000E9    -3.719230063586757E-2    5.674189446253046E-1    3.218510830863523E-2   -2.581268966018094E-3    3.168787659005984E-2   -3.035294011721337E-3    6.601151726733999E-2    5.211558337073880E-1
 6.564685978450000E9    -3.614245494016739E-2    5.674240045198915E-1    3.248775322868841E-2   -2.687589699600772E-3    3.185727467899476E-2   -3.058967234879403E-3    6.739321358987131E-2    5.210734937798930E-1
 6.564700288300000E9    -3.495373149884728E-2    5.674678936054135E-1    3.257937170257582E-2   -2.687958630142796E-3    3.204331937076185E-2   -3.164613750388207E-3    6.893398499657104E-2    5.209908333513943E-1
 6.564714598150000E9    -3.376618211817503E-2    5.675779467777425E-1    3.275381047935443E-2   -2.855152159884957E-3    3.221817931108426E-2   -3.245165116981277E-3    7.009005511633160E-2    5.208384456311527E-1
 6.564728908000000E9    -3.258430902179450E-2    5.675802542915774E-1    3.286833859241004E-2   -2.808984796180920E-3    3.249355785313253E-2   -3.417256030987717E-3    7.140844043495934E-2    5.204412919642505E-1
 6.564743217850000E9    -3.133321741159235E-2    5.676506870935398E-1    3.316521328689122E-2   -3.051760632442506E-3    3.255473798021039E-2   -3.489466956253868E-3    7.285105528154720E-2    5.204964175816306E-1
 6.564757527700000E9    -3.031582650818844E-2    5.677959637192356E-1    3.340823222593247E-2   -3.103764976657213E-3    3.286754328867492E-2   -3.658194251480423E-3    7.411709274805572E-2    5.202827068987750E-1
 6.564771837550000E9    -2.908883292831490E-2    5.679107325319513E-1    3.353113994701806E-2   -3.233792868060825E-3    3.312468775925947E-2   -3.784512112373046E-3    7.547655609951939E-2    5.201180989548991E-1
 6.564786147400000E9    -2.793280641328867E-2    5.678102612249456E-1    3.380464547274341E-2   -3.417406984664542E-3    3.320929577611773E-2   -3.823398243478424E-3    7.678125338272487E-2    5.198453836789383E-1
 6.564800457250000E9    -2.668006203440439E-2    5.678045864751285E-1    3.402189770564721E-2   -3.442122756859244E-3    3.343882996913405E-2   -3.938785641366520E-3    7.821792602713314E-2    5.196283828421435E-1
 6.564814767100000E9    -2.563549873670799E-2    5.678669790084647E-1    3.411014087519391E-2   -3.553567928754161E-3    3.367436240906971E-2   -4.006392446391453E-3    7.946905981300760E-2    5.195073402273122E-1
 6.564829076950000E9    -2.440347150756663E-2    5.679371448714097E-1    3.445648660504718E-2   -3.699987456820735E-3    3.378869963914808E-2   -4.056274009147294E-3    8.086754570993081E-2    5.191358719113116E-1
 6.564843386800000E9    -2.331389477910627E-2    5.679846620791916E-1    3.457926137259860E-2   -3.807769036411409E-3    3.398747610441857E-2   -4.365347736422407E-3    8.222972416399936E-2    5.191142329848699E-1
 6.564857696650000E9    -2.208558450167081E-2    5.679549099365958E-1    3.486342595521905E-2   -3.853348774878796E-3    3.424413625198815E-2   -4.352954236865437E-3    8.359117140283431E-2    5.187286125444283E-1
 6.564872006500000E9    -2.087231103008932E-2    5.680482740694811E-1    3.489974309252707E-2   -4.047529998678181E-3    3.447310519169572E-2   -4.495413792632871E-3    8.499632673388927E-2    5.186037468971285E-1
 6.564886316350000E9    -1.970419410289803E-2    5.679828676424096E-1    3.526434512068100E-2   -3.947252299201980E-3    3.471084297358789E-2   -4.626793139072940E-3    8.636322216401200E-2    5.183018047521988E-1
 6.564900626200000E9    -1.853984004093752E-2    5.680506542914829E-1    3.542298800220470E-2   -4.398961462009641E-3    3.489321264136624E-2   -4.802300464238513E-3    8.772984176864895E-2    5.179347275684791E-1
 6.564914936050000E9    -1.733072699534447E-2    5.681949608835946E-1    3.559717053893687E-2   -4.479864890059905E-3    3.513031257725296E-2   -5.082315990244518E-3    8.909283209858733E-2    5.176787695020013E-1
 6.564929245900000E9    -1.609756652225501E-2    5.680415210737773E-1    3.601179900829347E-2   -4.535765153850049E-3    3.538635927403391E-2   -5.096713368994144E-3    9.057655833314464E-2    5.175306337851711E-1
 6.564943555750000E9    -1.495999287345091E-2    5.680461640746569E-1    3.619393610360608E-2   -4.659507431620304E-3    3.553944268345031E-2   -5.206283810825077E-3    9.192130197379121E-2    5.173371551845932E-1
 6.564957865600000E9    -1.380746660114577E-2    5.681074628923435E-1    3.639573170471165E-2   -4.948009213108676E-3    3.578000265955214E-2   -5.371103264372992E-3    9.339093111141762E-2    5.169341681694357E-1
 6.564972175450000E9    -1.252116329732742E-2    5.680892567641505E-1    3.666700750914698E-2   -4.872753259595039E-3    3.600225200837138E-2   -5.470107448864708E-3    9.478760582791881E-2    5.167442443619730E-1
 6.564986485300000E9    -1.138296126542119E-2    5.681384834626124E-1    3.683948982551541E-2   -4.974912343257871E-3    3.621522395284073E-2   -5.670156796835278E-3    9.610999598461313E-2    5.165241754268293E-1
 6.565000795150000E9    -1.017010206179472E-2    5.680337349663072E-1    3.707989658603126E-2   -5.244982658466323E-3    3.655795323258204E-2   -5.755050055008279E-3    9.747133292098371E-2    5.161731372117648E-1
 6.565015105000000E9    -8.903194833747522E-3    5.680172371652912E-1    3.737294484361205E-2   -5.433054733416138E-3    3.667887124834814E-2   -5.953281159299801E-3    9.907556386871835E-2    5.159220237849055E-1
 6.565029414850000E9    -7.832802785402663E-3    5.680336671027595E-1    3.766981779415206E-2   -5.629768639961695E-3    3.697802088829255E-2   -6.069392538437283E-3    1.004011126291776E-1    5.155311880389655E-1
 6.565043724700000E9    -6.679353073392650E-3    5.681055728072132E-1    3.781449558946665E-2   -5.606920334365580E-3    3.717022972676349E-2   -6.200624087161105E-3    1.018443542187019E-1    5.153382725231379E-1
 6.565058034550000E9    -5.342078464360471E-3    5.679661214882014E-1    3.814030773399152E-2   -5.822097384006056E-3    3.751270973274116E-2   -6.342862481819238E-3    1.032841449035256E-1    5.150551906608869E-1
 6.565072344400000E9    -4.286194660936290E-3    5.680060044323259E-1    3.828125611211216E-2   -6.021868370533191E-3    3.772438282313684E-2   -6.508449328742735E-3    1.046377204255720E-1    5.146083440507980E-1
 6.565086654250000E9    -2.991305970805773E-3    5.679325323074498E-1    3.867858598698402E-2   -6.268733018701320E-3    3.802484859328932E-2   -6.807628882054976E-3    1.063370836790681E-1    5.142544666234681E-1
 6.565100964100000E9    -1.729727755367202E-3    5.679708374607429E-1    3.880893930160181E-2   -6.247489188151420E-3    3.831222172713995E-2   -6.718586530977515E-3    1.074928347588398E-1    5.141063694644713E-1
 6.565115273950000E9    -5.799266237092018E-4    5.679093824120455E-1    3.916333436660695E-2   -6.558962049496662E-3    3.850048925623945E-2   -7.013435128462690E-3    1.092365487148208E-1    5.136230918589272E-1
 6.565129583800000E9     5.837882830641466E-4    5.679039845924727E-1    3.940755734548391E-2   -6.579007279439281E-3    3.875693886851502E-2   -7.203506880811584E-3    1.106061819117393E-1    5.133693048541628E-1
 6.565143893650000E9     1.932625962538616E-3    5.678536733032018E-1    3.969267479664608E-2   -6.704753552120439E-3    3.900746323833408E-2   -7.319764244330103E-3    1.120486649296139E-1    5.128421332286338E-1
 6.565158203500000E9     3.101268316819156E-3    5.678723715467722E-1    3.992098865166405E-2   -7.137496614126508E-3    3.936398248531059E-2   -7.512625621833718E-3    1.137470787159621E-1    5.126043647705099E-1
 6.565172513350000E9     4.267819477829437E-3    5.677527550170666E-1    4.040379087026644E-2   -7.130301320405527E-3    3.953259054996051E-2   -7.650407106050812E-3    1.150520632334044E-1    5.121743658711074E-1
 6.565186823200000E9     5.514524129409513E-3    5.676795305605831E-1    4.054812661669555E-2   -7.368187978378953E-3    3.986376237083169E-2   -7.987979867477067E-3    1.164504752483674E-1    5.117675019532009E-1
 6.565201133050000E9     6.766848901108408E-3    5.676843379796022E-1    4.080928851236241E-2   -7.451422211331551E-3    4.007100250933544E-2   -8.087581565373012E-3    1.180282295131904E-1    5.115320965810287E-1
 6.565215442900000E9     8.061464468796522E-3    5.675830062227107E-1    4.108493311005405E-2   -7.805756200481329E-3    4.042483996709708E-2   -8.228238425456382E-3    1.193654770732888E-1    5.111457196795731E-1
 6.565229752750000E9     9.169916675160717E-3    5.675508008602722E-1    4.136461220306119E-2   -7.915191271028183E-3    4.060752827285763E-2   -8.484002158731107E-3    1.209900665795127E-1    5.105840479817597E-1
 6.565244062600000E9     1.037668470415154E-2    5.674426949846155E-1    4.169696945421850E-2   -8.210866587677369E-3    4.098737315510217E-2   -8.662364418303344E-3    1.224312406175578E-1    5.102913907748754E-1
 6.565258372450000E9     1.166272027698833E-2    5.673202276980638E-1    4.195140687500694E-2   -8.337840339887621E-3    4.126845871061637E-2   -8.842771095430179E-3    1.240671942502447E-1    5.098663104532433E-1
 6.565272682300000E9     1.293044603086865E-2    5.673734865676295E-1    4.240170969662597E-2   -8.455950630776511E-3    4.163412730827402E-2   -9.089667780663906E-3    1.257439974821397E-1    5.094642746959616E-1
 6.565286992150000E9     1.419821449375375E-2    5.672202939505662E-1    4.258203939423563E-2   -8.774627650732067E-3    4.195640016590208E-2   -9.358272768183903E-3    1.272471930914860E-1    5.090430407774930E-1
 6.565301302000000E9     1.539613113048166E-2    5.672357053709900E-1    4.292066431207468E-2   -8.966777874094512E-3    4.230919492819819E-2   -9.499155457260811E-3    1.287158264111356E-1    5.086466837606634E-1
 6.565315611850000E9     1.667735927988948E-2    5.670513498115719E-1    4.327941328938579E-2   -9.166042738449060E-3    4.252008109963654E-2   -9.695713840117873E-3    1.303985050334687E-1    5.081308193584728E-1
 6.565329921700000E9     1.784658340770118E-2    5.669164280018378E-1    4.373577443811688E-2   -9.281600088884161E-3    4.285722220445589E-2   -9.952308570302142E-3    1.320080022235240E-1    5.075536849627270E-1
 6.565344231550000E9     1.906871342103780E-2    5.669556924997385E-1    4.386406631996832E-2   -9.553305836793187E-3    4.315412329489738E-2   -1.018534133276953E-2    1.334210731847844E-1    5.071233857966527E-1
 6.565358541400000E9     2.043531335687034E-2    5.669311207623762E-1    4.434051843358157E-2   -9.901541095050644E-3    4.349047001062939E-2   -1.039263504359416E-2    1.351227542688249E-1    5.066536952910065E-1
 6.565372851250000E9     2.163465678756985E-2    5.667576386006388E-1    4.460032803589720E-2   -9.938885126792965E-3    4.391078562606204E-2   -1.058336430311112E-2    1.367376193176648E-1    5.061256866084242E-1
 6.565387161100000E9     2.282895358065896E-2    5.665879759935567E-1    4.495898322219462E-2   -1.032805047354853E-2    4.423652519877259E-2   -1.089903457379079E-2    1.382731504057610E-1    5.055625509668342E-1
 6.565401470950000E9     2.410773492495960E-2    5.664556061868650E-1    4.517588947183989E-2   -1.058913662427795E-2    4.455182327853274E-2   -1.118183684737268E-2    1.399236711172600E-1    5.051471807105072E-1
 6.565415780800000E9     2.538470675761003E-2    5.663788214451861E-1    4.558867716871423E-2   -1.077402877952224E-2    4.492445521464165E-2   -1.126525644399901E-2    1.414676121770241E-1    5.046460308015330E-1
 6.565430090650000E9     2.654865105763562E-2    5.662797320909140E-1    4.599196033823056E-2   -1.112786070686618E-2    4.527735080969911E-2   -1.159089908542764E-2    1.430829458099401E-1    5.040562149240863E-1
 6.565444400500000E9     2.798173830333939E-2    5.661604546111800E-1    4.630581033179335E-2   -1.128012652861419E-2    4.560110992839452E-2   -1.182137651743832E-2    1.447299695164148E-1    5.035375792585060E-1
