#  HZ   S   RI   R     50.00 
! Rohde & Schwarz Vector Network Analyzer 
! Rohde-Schwarz,ZNB20-2Port,1311601062101988,3.16
! Created: UTC 3/20/2024, 4:50:10 PM
! freq[Hz]                re:S11                  im:S11                  re:S21                  im:S21                  re:S12                  im:S12                  re:S22                  im:S22
 6.564781841000000E9    -2.856565043225227E-2    5.686971890922486E-1    3.245694075156760E-2   -2.447830559530015E-3    3.200622842826719E-2   -2.896883970442795E-3    7.623651156477314E-2    5.241117511133999E-1
 6.564793556900000E9    -2.766083836175917E-2    5.687308878747477E-1    3.277859765917924E-2   -2.389027554172620E-3    3.209820353567382E-2   -3.042516319267838E-3    7.741022044965717E-2    5.240576453427034E-1
 6.564805272800000E9    -2.656309364831614E-2    5.688253219752063E-1    3.281671431823931E-2   -2.581400693031197E-3    3.228259756898148E-2   -3.137996336055171E-3    7.849765886302724E-2    5.239541836283811E-1
 6.564816988700000E9    -2.563190104423111E-2    5.689360557393089E-1    3.309666164367953E-2   -2.718230189562349E-3    3.241222945943607E-2   -3.187087090569576E-3    7.949262379197362E-2    5.238121337986232E-1
 6.564828704600000E9    -2.456127012603163E-2    5.689083695826381E-1    3.304199162876629E-2   -2.738265751884921E-3    3.257794079560027E-2   -3.203766580571176E-3    8.054548778215931E-2    5.236308599408830E-1
 6.564840420500000E9    -2.376938601565657E-2    5.690750268191223E-1    3.336928090286770E-2   -2.811567577241414E-3    3.274291874191151E-2   -3.357277246959926E-3    8.171022027115289E-2    5.235204984954224E-1
 6.564852136400000E9    -2.271843462592998E-2    5.688448795421687E-1    3.353251690565228E-2   -2.992348064013428E-3    3.292900223412910E-2   -3.414566892949522E-3    8.274356842033499E-2    5.233216942280648E-1
 6.564863852300000E9    -2.184830221925847E-2    5.690126675592946E-1    3.365153590517700E-2   -3.028766743652694E-3    3.315484697860009E-2   -3.428115074120495E-3    8.390431436813084E-2    5.231177806139343E-1
 6.564875568200000E9    -2.086813309802062E-2    5.690042751347334E-1    3.366724095463768E-2   -3.095618781431800E-3    3.319008178518235E-2   -3.592600070156050E-3    8.505369611909766E-2    5.229713249355823E-1
 6.564887284100000E9    -1.986010135822221E-2    5.690508894288551E-1    3.401630612917694E-2   -3.134328681608056E-3    3.337499444394237E-2   -3.623286111436494E-3    8.629556692911459E-2    5.227736339747759E-1
 6.564899000000000E9    -1.895521889812810E-2    5.691200080526152E-1    3.392138293164614E-2   -3.286434677645968E-3    3.355951665035013E-2   -3.753124134759294E-3    8.738084485911550E-2    5.226740105908864E-1
 6.564910715900000E9    -1.794937979809251E-2    5.691047374133773E-1    3.450725205570704E-2   -3.396424342300166E-3    3.370874061857648E-2   -3.925908917053305E-3    8.840159875532125E-2    5.225485081485105E-1
 6.564922431800000E9    -1.699992324304477E-2    5.691204474990190E-1    3.440789383363337E-2   -3.409493148671763E-3    3.389177076622645E-2   -3.920923469216267E-3    8.950752757677496E-2    5.223733034482776E-1
 6.564934147700000E9    -1.597390546726210E-2    5.691197756786459E-1    3.477259387382550E-2   -3.551242243944789E-3    3.407957929372891E-2   -4.178084224535875E-3    9.061044106177721E-2    5.220781013561830E-1
 6.564945863600000E9    -1.511092959510540E-2    5.690839527400053E-1    3.474496193390039E-2   -3.531119313427274E-3    3.419143580627534E-2   -4.175710164159328E-3    9.181582012054462E-2    5.218515580326509E-1
 6.564957579500000E9    -1.405790884368134E-2    5.691392613946840E-1    3.498545852988549E-2   -3.762182756932264E-3    3.458253149934229E-2   -4.316921736775638E-3    9.298587499273436E-2    5.217063726504393E-1
 6.564969295400000E9    -1.306497807463866E-2    5.692192492508551E-1    3.523262990746917E-2   -3.829513501929090E-3    3.451266764709717E-2   -4.243728005029686E-3    9.400900909144100E-2    5.212971103552669E-1
 6.564981011300000E9    -1.208300424814674E-2    5.691937706145572E-1    3.541828249721656E-2   -3.850513765500210E-3    3.470821766571248E-2   -4.437613872455014E-3    9.506123065615756E-2    5.214144197243884E-1
 6.564992727200000E9    -1.118194706592660E-2    5.692000033142081E-1    3.550997856956983E-2   -4.039069795232077E-3    3.493338391839798E-2   -4.609872282783783E-3    9.624446069358118E-2    5.209053827503183E-1
 6.565004443100000E9    -1.019652325539341E-2    5.691680990438006E-1    3.592636669528351E-2   -4.003396448516497E-3    3.511559996667864E-2   -4.587607148426660E-3    9.754841716138048E-2    5.208345893779041E-1
 6.565016159000000E9    -9.222444173469277E-3    5.691448542690829E-1    3.585639236478656E-2   -4.183069050704130E-3    3.522551856205235E-2   -4.731097463231117E-3    9.854656031740194E-2    5.207385286625074E-1
 6.565027874900000E9    -8.168499408561935E-3    5.691749634626682E-1    3.614559934923500E-2   -4.287287376826411E-3    3.545264879748556E-2   -4.802527043237430E-3    9.984902368337216E-2    5.204764658974534E-1
 6.565039590800000E9    -7.276055023474133E-3    5.692002228822304E-1    3.639344372967809E-2   -4.349200698183162E-3    3.568569560160982E-2   -4.955515414922796E-3    1.010577602981048E-1    5.202775069349971E-1
 6.565051306700000E9    -6.281026511255776E-3    5.691647267213591E-1    3.647935575954013E-2   -4.535972688953030E-3    3.586754181417844E-2   -5.016544444718138E-3    1.020680710331175E-1    5.200300287341143E-1
 6.565063022600000E9    -5.255829186766917E-3    5.691256109559802E-1    3.655071039463974E-2   -4.656588187103447E-3    3.605080510367680E-2   -5.085976748473003E-3    1.032507018161392E-1    5.199006060883347E-1
 6.565074738500000E9    -4.442056619624023E-3    5.691626314574815E-1    3.689106187417534E-2   -4.780648762443264E-3    3.620821288670908E-2   -5.207784218755802E-3    1.043581663921667E-1    5.194280108666905E-1
 6.565086454400000E9    -3.416598606391106E-3    5.690862348764785E-1    3.703698846085565E-2   -4.890114305926897E-3    3.645202418069098E-2   -5.337505635806102E-3    1.055623965487829E-1    5.192975155956752E-1
 6.565098170300000E9    -2.386206212858776E-3    5.691428933478501E-1    3.724266040400695E-2   -5.047852804427599E-3    3.663613227781246E-2   -5.529239689206617E-3    1.067565952678841E-1    5.191744250581342E-1
 6.565109886200000E9    -1.414198667212525E-3    5.691469006700939E-1    3.738594852724827E-2   -5.086623328782231E-3    3.681870475562925E-2   -5.554395260066652E-3    1.079654978380684E-1    5.189601475450003E-1
 6.565121602100000E9    -3.589713421754103E-4    5.690552797458486E-1    3.770569588644063E-2   -5.156802977567475E-3    3.710999594898087E-2   -5.644860213355414E-3    1.091490261635106E-1    5.187225070871987E-1
 6.565133318000000E9     5.441156642185969E-4    5.690632553087519E-1    3.783827601493987E-2   -5.239185227320855E-3    3.727477696414114E-2   -5.867183588146650E-3    1.103826299444566E-1    5.183982129844912E-1
 6.565145033900000E9     1.653618367539306E-3    5.691051788888078E-1    3.795958974727407E-2   -5.340508169934613E-3    3.751678028161524E-2   -5.911979609205208E-3    1.114352938512239E-1    5.181027411762638E-1
 6.565156749800000E9     2.544150724472226E-3    5.690456734496633E-1    3.835021291225211E-2   -5.476388208488266E-3    3.765072647457869E-2   -5.955779620654848E-3    1.126255432702369E-1    5.178765680462480E-1
 6.565168465700000E9     3.588199522890486E-3    5.689978553257445E-1    3.858993894015215E-2   -5.730418315292093E-3    3.796611968453159E-2   -6.220790375148479E-3    1.138072113956292E-1    5.176137249790659E-1
 6.565180181600000E9     4.534455424090530E-3    5.690086403567356E-1    3.872285516290809E-2   -5.816086264916817E-3    3.802822082343006E-2   -6.302956447428515E-3    1.151360193275652E-1    5.173711381974944E-1
 6.565191897500000E9     5.538292334501149E-3    5.689713595177982E-1    3.897430554760770E-2   -5.814090496962869E-3    3.835683374723705E-2   -6.470846065795516E-3    1.162740805675344E-1    5.169145596800722E-1
 6.565203613400000E9     6.479075922975895E-3    5.687973009786611E-1    3.902918501660529E-2   -5.977717731028423E-3    3.857392451908417E-2   -6.578496592495453E-3    1.173725009378187E-1    5.168199114068009E-1
 6.565215329300000E9     7.581334891989452E-3    5.689370114970898E-1    3.928487715353021E-2   -6.158449607358964E-3    3.866227935218139E-2   -6.780187848805073E-3    1.188013435787151E-1    5.164309938830524E-1
 6.565227045200000E9     8.585711573966075E-3    5.688172122111965E-1    3.956978680742955E-2   -6.336436157466491E-3    3.894900510628161E-2   -6.777692580584363E-3    1.199304703755922E-1    5.161626635296994E-1
 6.565238761100000E9     9.497884250797246E-3    5.688677595548377E-1    3.982676618241458E-2   -6.359064917790590E-3    3.914467064263298E-2   -7.088433206571780E-3    1.211063337141586E-1    5.160193099601780E-1
 6.565250477000000E9     1.049234268510904E-2    5.687351888400136E-1    4.005657463723703E-2   -6.540886706928175E-3    3.943669881375996E-2   -7.112881156776231E-3    1.223763668323137E-1    5.157062769568117E-1
 6.565262192900000E9     1.149632789893152E-2    5.687806145835701E-1    4.044677084531324E-2   -6.670625910319235E-3    3.974155913167994E-2   -7.203688171739137E-3    1.236570278256818E-1    5.154428524898633E-1
 6.565273908800000E9     1.262124589988606E-2    5.686546787139947E-1    4.065808976101452E-2   -6.804931547937149E-3    3.993527780023221E-2   -7.390563857634370E-3    1.247801217474731E-1    5.150291835762442E-1
 6.565285624700000E9     1.353369318035381E-2    5.686465666706711E-1    4.073773548410031E-2   -6.942061186269730E-3    4.005893903807636E-2   -7.437135124524258E-3    1.260037447039116E-1    5.146792261959471E-1
 6.565297340600000E9     1.456240288540491E-2    5.685726724940761E-1    4.085117761274897E-2   -7.102602299318745E-3    4.040039073946577E-2   -7.733599254497621E-3    1.274410474148056E-1    5.144727158687029E-1
 6.565309056500000E9     1.552243122067557E-2    5.685560322761873E-1    4.111831576930343E-2   -7.211904483416961E-3    4.053534724505104E-2   -7.789240166046652E-3    1.284344020065033E-1    5.140969201242194E-1
 6.565320772400000E9     1.647964947087559E-2    5.684022378836625E-1    4.147586969074549E-2   -7.247497998996134E-3    4.095584993238040E-2   -7.924200050150472E-3    1.299008559891082E-1    5.136359779167667E-1
 6.565332488300000E9     1.759858517183805E-2    5.684318910727314E-1    4.168851460632000E-2   -7.406420076193281E-3    4.104781578805685E-2   -8.109842399006141E-3    1.310225250154874E-1    5.134880261990394E-1
 6.565344204200000E9     1.851368340230127E-2    5.681939201364957E-1    4.206436874778280E-2   -7.641197198682947E-3    4.131848294872530E-2   -8.172412019496839E-3    1.324027650792276E-1    5.130082995346175E-1
 6.565355920100000E9     1.956395849127657E-2    5.682589456540457E-1    4.228655694840858E-2   -7.911350808614593E-3    4.160381394083242E-2   -8.381545030646307E-3    1.336641723706754E-1    5.128309958128362E-1
 6.565367636000000E9     2.056028288314777E-2    5.682748587564620E-1    4.253553922572199E-2   -7.993989681753145E-3    4.179478331128047E-2   -8.578297774591825E-3    1.348046805220324E-1    5.123318822881692E-1
 6.565379351900000E9     2.161681639412569E-2    5.681456719942669E-1    4.282540386686476E-2   -8.186595764966586E-3    4.207804021276373E-2   -8.748433630213772E-3    1.363337696833622E-1    5.121011835251735E-1
 6.565391067800000E9     2.255988199886197E-2    5.681345711145569E-1    4.305481367472480E-2   -8.322904396971420E-3    4.240141962307675E-2   -8.835156925256582E-3    1.374190809371841E-1    5.117127086479070E-1
 6.565402783700000E9     2.366781995718677E-2    5.679615636509067E-1    4.319765570337184E-2   -8.478489204534104E-3    4.261901950410654E-2   -9.029953399121183E-3    1.386541572609815E-1    5.113709525640516E-1
 6.565414499600000E9     2.454241853082610E-2    5.679913788348410E-1    4.364684820822223E-2   -8.710779354567440E-3    4.291294889088285E-2   -9.314890771031533E-3    1.400494881828416E-1    5.110905038963677E-1
 6.565426215500000E9     2.563821522600384E-2    5.678782966825296E-1    4.384847792502260E-2   -8.803519792741389E-3    4.323639463476429E-2   -9.369443068602839E-3    1.415327678138961E-1    5.106262422008558E-1
 6.565437931400000E9     2.666295583840347E-2    5.677917186062226E-1    4.407809577879861E-2   -8.939103702283447E-3    4.348210714929365E-2   -9.451301732634018E-3    1.426133726165733E-1    5.101287804119951E-1
 6.565449647300000E9     2.771790929571456E-2    5.676361415785601E-1    4.437258369409103E-2   -9.228914683769431E-3    4.367885321451222E-2   -9.792238475729799E-3    1.439838851184518E-1    5.098860571159389E-1
 6.565461363200000E9     2.876696019442605E-2    5.675555377159578E-1    4.464689292476855E-2   -9.182005882825457E-3    4.397035724933061E-2   -9.991139150701787E-3    1.453148755398869E-1    5.094243136133741E-1
 6.565473079100000E9     2.971314190516382E-2    5.675309430532256E-1    4.488093067567111E-2   -9.516297100042325E-3    4.426327452458586E-2   -1.007728839872242E-2    1.464652068247119E-1    5.091547525041114E-1
 6.565484795000000E9     3.085305313904349E-2    5.673821830033133E-1    4.524050140330834E-2   -9.699469979120487E-3    4.446686992113937E-2   -1.032297814669219E-2    1.479750795015034E-1    5.085619333375402E-1
 6.565496510900000E9     3.172306102823214E-2    5.672830759529490E-1    4.555511676968679E-2   -9.915098969888163E-3    4.479570104206505E-2   -1.044844273303400E-2    1.492348272548062E-1    5.082564906288464E-1
 6.565508226800000E9     3.286980291660166E-2    5.672307186953817E-1    4.594243507113189E-2   -1.014439216410256E-2    4.515271825561363E-2   -1.067835714406599E-2    1.506739585021218E-1    5.077903667241858E-1
 6.565519942700000E9     3.389140158246005E-2    5.670903666627578E-1    4.615785152107364E-2   -1.021883274706994E-2    4.534836211920759E-2   -1.077673455138980E-2    1.520090159649927E-1    5.073679208020982E-1
 6.565531658600000E9     3.480815577370956E-2    5.670668320802411E-1    4.639594694889362E-2   -1.033768082131142E-2    4.570118614331830E-2   -1.104786680113874E-2    1.533368894320641E-1    5.068979915654946E-1
 6.565543374500000E9     3.599112710859343E-2    5.668247751560754E-1    4.670334503759788E-2   -1.069946260103486E-2    4.593813656413637E-2   -1.128400784179462E-2    1.548339032927720E-1    5.063329426353901E-1
 6.565555090400000E9     3.701070796062050E-2    5.668735268295204E-1    4.700278818924913E-2   -1.091304694173842E-2    4.631103812646611E-2   -1.146316191702854E-2    1.562686546449623E-1    5.060178132093927E-1
 6.565566806300000E9     3.818773488167731E-2    5.667845388187092E-1    4.732269512084245E-2   -1.098564832005840E-2    4.667345227605960E-2   -1.166589699934287E-2    1.574011417663244E-1    5.055524467839957E-1
 6.565578522200000E9     3.912497463909200E-2    5.666074863014058E-1    4.764323050633523E-2   -1.141264931347984E-2    4.687656075936329E-2   -1.197406696874693E-2    1.589311027087254E-1    5.049549774491667E-1
 6.565590238100000E9     4.024108235809248E-2    5.664379476342822E-1    4.806045418579674E-2   -1.151939932136337E-2    4.723920281683403E-2   -1.214981014867803E-2    1.603629398365935E-1    5.045613496977993E-1
 6.565601954000000E9     4.115703643742905E-2    5.663114959561006E-1    4.837238274481954E-2   -1.166024888030785E-2    4.758043414779269E-2   -1.227899356594683E-2    1.614791627560909E-1    5.041154689926873E-1
 6.565613669900000E9     4.229878698993032E-2    5.661721141562215E-1    4.875550583403327E-2   -1.199622258416566E-2    4.787697604146184E-2   -1.256343837792534E-2    1.630833830072876E-1    5.035492323423565E-1
 6.565625385800000E9     4.345163171432638E-2    5.661614616266790E-1    4.901163363165750E-2   -1.209801383354547E-2    4.835433481312152E-2   -1.274292655321361E-2    1.645562919316209E-1    5.031917744347271E-1
 6.565637101700000E9     4.439543761862094E-2    5.659382337872739E-1    4.934038601938909E-2   -1.232209186372366E-2    4.857756351057527E-2   -1.301735451421980E-2    1.660608941862919E-1    5.025710678186414E-1
 6.565648817600000E9     4.543791322865028E-2    5.657138001232136E-1    4.973429784043011E-2   -1.272615740583011E-2    4.888392610588978E-2   -1.327510170774360E-2    1.674033637242528E-1    5.021315920675608E-1
 6.565660533500000E9     4.653333907653927E-2    5.655802964551391E-1    5.017510489633067E-2   -1.280702920979889E-2    4.929549752044452E-2   -1.352127934489264E-2    1.687744426627590E-1    5.015203734809343E-1
 6.565672249400000E9     4.755722807965757E-2    5.656992256329562E-1    5.042198399043222E-2   -1.309116802367788E-2    4.960945454163318E-2   -1.373278002283328E-2    1.703812768330094E-1    5.010332004057335E-1
 6.565683965300000E9     4.865823013225459E-2    5.653975284835689E-1    5.072022131465959E-2   -1.338652942805014E-2    4.997040502395501E-2   -1.401516238991382E-2    1.716832840773017E-1    5.003518037977638E-1
 6.565695681200000E9     4.975228941499423E-2    5.653052409097871E-1    5.121978267150455E-2   -1.351881267295239E-2    5.037146869930380E-2   -1.425630736010985E-2    1.732620905459961E-1    4.999425175421027E-1
 6.565707397100000E9     5.066160215971158E-2    5.650664581438903E-1    5.150923735082800E-2   -1.375379000011678E-2    5.065069338000843E-2   -1.451111582973807E-2    1.749037141661827E-1    4.991916555726617E-1
 6.565719113000000E9     5.188591398663724E-2    5.648957467789584E-1    5.192011471156795E-2   -1.414321802572419E-2    5.101446303929151E-2   -1.464192010826120E-2    1.762333193329986E-1    4.987194839192780E-1
 6.565730828900000E9     5.299958590961328E-2    5.647058581548546E-1    5.228061078940354E-2   -1.441188019813460E-2    5.146714730090477E-2   -1.506757425339315E-2    1.776720149182117E-1    4.981166283244156E-1
 6.565742544800000E9     5.402847438759699E-2    5.645618060844831E-1    5.269649189253613E-2   -1.469556420829218E-2    5.175132031719779E-2   -1.531223111194322E-2    1.792255164735062E-1    4.974621813768005E-1
 6.565754260700000E9     5.517383182514791E-2    5.643491304189038E-1    5.310227015217804E-2   -1.502650670358640E-2    5.221936898514254E-2   -1.559027458973837E-2    1.807182104642995E-1    4.967660625867445E-1
 6.565765976600000E9     5.629290493392542E-2    5.641844069331090E-1    5.356499649603308E-2   -1.523970535358288E-2    5.254007558680287E-2   -1.590452560404537E-2    1.823420939915076E-1    4.961479567472081E-1
 6.565777692500000E9     5.739441351106476E-2    5.640090301262006E-1    5.384463908515019E-2   -1.562133799064201E-2    5.302621743227973E-2   -1.615247422355673E-2    1.838755018609051E-1    4.954935750662361E-1
 6.565789408400000E9     5.846918183013925E-2    5.639306240488384E-1    5.433661052052416E-2   -1.582124589246028E-2    5.343937768604153E-2   -1.645292399847580E-2    1.853429556583037E-1    4.949180427601867E-1
 6.565801124300000E9     5.964360113313721E-2    5.636449756367743E-1    5.469358512320933E-2   -1.609909653121911E-2    5.380658387724627E-2   -1.684386479450454E-2    1.869510300197604E-1    4.940464202145977E-1
 6.565812840200000E9     6.062294359539705E-2    5.634531088691738E-1    5.519712395800875E-2   -1.651181913762914E-2    5.433038776738971E-2   -1.709955579627772E-2    1.886120684862315E-1    4.936940939980878E-1
 6.565824556100000E9     6.175098040773589E-2    5.632817286783455E-1    5.554992522760863E-2   -1.678915094276568E-2    5.468290804258591E-2   -1.751079014874381E-2    1.901162032562015E-1    4.929048400622809E-1
 6.565836272000000E9     6.291656036721881E-2    5.631537766476179E-1    5.601119306125143E-2   -1.704919212250115E-2    5.500348920752566E-2   -1.782170321692984E-2    1.917598398873578E-1    4.921266495099603E-1
