#  HZ   S   RI   R     50.00 
! Rohde & Schwarz Vector Network Analyzer 
! Rohde-Schwarz,ZNB20-2Port,1311601062101988,3.16
! Created: UTC 3/20/2024, 4:50:12 PM
! freq[Hz]                re:S11                  im:S11                  re:S21                  im:S21                  re:S12                  im:S12                  re:S22                  im:S22
 6.564779633000000E9    -2.871922822413769E-2    5.687640033946177E-1    3.246450489812847E-2   -2.478280508723583E-3    3.199876368738002E-2   -2.958571207864350E-3    7.605940818883594E-2    5.242166200373457E-1
 6.564791356300000E9    -2.761749254944500E-2    5.688607192151977E-1    3.257907392191363E-2   -2.508003378315770E-3    3.214038451204533E-2   -3.040933093836260E-3    7.702321311142407E-2    5.240457382487949E-1
 6.564803079600000E9    -2.675708561905880E-2    5.688116088165314E-1    3.284678786570534E-2   -2.707291971944852E-3    3.217989877395225E-2   -3.096004315361134E-3    7.826531153914605E-2    5.239479220452552E-1
 6.564814802900000E9    -2.581391966312360E-2    5.689520624518173E-1    3.291094096023773E-2   -2.644786155569295E-3    3.234141748582028E-2   -3.132964322629356E-3    7.935172940509745E-2    5.237928511805435E-1
 6.564826526200000E9    -2.476512449304737E-2    5.688908827230271E-1    3.309728667764435E-2   -2.726656613685666E-3    3.251816536702630E-2   -3.189143892309369E-3    8.047056892029313E-2    5.235426966375237E-1
 6.564838249500000E9    -2.383978253161789E-2    5.689340936243025E-1    3.314004343983533E-2   -2.789727219674862E-3    3.268208481106986E-2   -3.321722265519090E-3    8.144288699070913E-2    5.234502395347822E-1
 6.564849972800000E9    -2.294309564757748E-2    5.690695979153325E-1    3.327949256087669E-2   -2.906027672104171E-3    3.286601893802261E-2   -3.394159717412116E-3    8.264568286268506E-2    5.233072041652714E-1
 6.564861696100000E9    -2.194056506130894E-2    5.689611738894789E-1    3.362399798365562E-2   -2.851899292539086E-3    3.301864307355785E-2   -3.520680259109129E-3    8.384619187491553E-2    5.232469885270828E-1
 6.564873419400000E9    -2.099469480497848E-2    5.690743201199460E-1    3.386387352079716E-2   -3.126905192569828E-3    3.314699292615995E-2   -3.654523959832913E-3    8.469751862710731E-2    5.229420456750263E-1
 6.564885142700000E9    -2.000182285716524E-2    5.690024241620634E-1    3.402390474652420E-2   -3.157211987545263E-3    3.343252033426597E-2   -3.733735484556383E-3    8.600854819764502E-2    5.228082838377871E-1
 6.564896866000000E9    -1.910766587219474E-2    5.690612101124699E-1    3.405256941482087E-2   -3.201683978365272E-3    3.349816202856898E-2   -3.739236501104736E-3    8.701167400123432E-2    5.225965505840467E-1
 6.564908589300000E9    -1.809652973916647E-2    5.691069724420088E-1    3.414253729769390E-2   -3.283657468201631E-3    3.364636985425950E-2   -3.852988590499082E-3    8.829299248801917E-2    5.224937866103928E-1
 6.564920312600000E9    -1.713038475139807E-2    5.690612330642264E-1    3.445984498895498E-2   -3.434123484046343E-3    3.388558974002819E-2   -3.874649084167455E-3    8.933533303697577E-2    5.223617924853383E-1
 6.564932035900000E9    -1.620588163329281E-2    5.691110284570655E-1    3.467666980481787E-2   -3.535141876258625E-3    3.400513734184440E-2   -4.112192596372787E-3    9.049385105567131E-2    5.220749471017163E-1
 6.564943759200000E9    -1.521676527931268E-2    5.691820677608178E-1    3.480087797237767E-2   -3.565309747987479E-3    3.421755715355630E-2   -4.072521100129349E-3    9.162387077613787E-2    5.218620227018778E-1
 6.564955482500000E9    -1.427480873455109E-2    5.691062792856857E-1    3.500741952981757E-2   -3.651316152611382E-3    3.444367023811128E-2   -4.285977486974043E-3    9.267842160531442E-2    5.216904905061708E-1
 6.564967205800000E9    -1.328203340866977E-2    5.691169076970811E-1    3.515952515634946E-2   -3.780517311598539E-3    3.454888804979599E-2   -4.303166887991663E-3    9.379195899740621E-2    5.214890304934479E-1
 6.564978929100000E9    -1.228968368426695E-2    5.691789923137204E-1    3.547433832025475E-2   -3.969067597443843E-3    3.475909420937026E-2   -4.371888923952517E-3    9.498531642606715E-2    5.212980538581562E-1
 6.564990652400000E9    -1.129957672633187E-2    5.692333272061731E-1    3.552798741663613E-2   -4.149541448631528E-3    3.495146580102076E-2   -4.550758276619576E-3    9.599078474175120E-2    5.210571627616079E-1
 6.565002375700000E9    -1.033854438222942E-2    5.692078827916065E-1    3.584794222154639E-2   -3.991038802005431E-3    3.497526121379012E-2   -4.537610265320331E-3    9.728754108125338E-2    5.210038673607762E-1
 6.565014099000000E9    -9.428586355332867E-3    5.692138827031857E-1    3.593063451422024E-2   -4.285499373471629E-3    3.532576041139356E-2   -4.627736531303142E-3    9.843918600317647E-2    5.206945538248501E-1
 6.565025822300000E9    -8.439243920390090E-3    5.691639784642699E-1    3.610357095157240E-2   -4.237452187286124E-3    3.537244955473340E-2   -4.826305383369872E-3    9.963422080385502E-2    5.205433759371825E-1
 6.565037545600000E9    -7.485625901341861E-3    5.690833866606350E-1    3.620028659058982E-2   -4.512106994614862E-3    3.566874086732102E-2   -4.973290139257963E-3    1.007575779238159E-1    5.202872036619181E-1
 6.565049268900000E9    -6.380097622630305E-3    5.691269957233804E-1    3.646611449297174E-2   -4.481700023979965E-3    3.589957915323349E-2   -5.131784633223006E-3    1.019091321339753E-1    5.200239681001123E-1
 6.565060992200000E9    -5.526331346736831E-3    5.692161308936758E-1    3.661003890118641E-2   -4.558154458951654E-3    3.612433989625240E-2   -5.170359681875616E-3    1.030861398540136E-1    5.198768816212516E-1
 6.565072715500000E9    -4.528892647999898E-3    5.691558045117875E-1    3.681753201926768E-2   -4.696802805810872E-3    3.622177710082728E-2   -5.247638426239734E-3    1.041347709084667E-1    5.195033246218081E-1
 6.565084438800000E9    -3.595631044415834E-3    5.692067906412297E-1    3.704281949670987E-2   -4.782389342770753E-3    3.640201994677923E-2   -5.470725074690797E-3    1.053605187230221E-1    5.194082593746608E-1
 6.565096162100000E9    -2.531841456356947E-3    5.691207254159955E-1    3.715113902728848E-2   -4.934070166670010E-3    3.663600190132747E-2   -5.445595957768214E-3    1.064784966184423E-1    5.191790221507311E-1
 6.565107885400000E9    -1.604375849884821E-3    5.692235083053729E-1    3.743164354546522E-2   -4.970255552713858E-3    3.683975515901030E-2   -5.603449640837131E-3    1.078002108537252E-1    5.188430937870203E-1
 6.565119608700000E9    -5.137273944573041E-4    5.690191645732789E-1    3.775822768793709E-2   -5.214680169087411E-3    3.699457430336189E-2   -5.601029390437832E-3    1.088325057394526E-1    5.185675432853061E-1
 6.565131332000000E9     4.120180985409100E-4    5.690530292824681E-1    3.789514186067118E-2   -5.320407288823205E-3    3.720712555085620E-2   -5.899259101859150E-3    1.100221837092867E-1    5.184796037091706E-1
 6.565143055300000E9     1.349502636012053E-3    5.690788244325979E-1    3.808446564330811E-2   -5.490312414671800E-3    3.748451899413027E-2   -5.918010251395206E-3    1.112455206243820E-1    5.180696991989365E-1
 6.565154778600000E9     2.426092143926031E-3    5.691027750978689E-1    3.829356991331322E-2   -5.530531638049905E-3    3.758796384536988E-2   -6.148110865726885E-3    1.124507191520433E-1    5.177868302820043E-1
 6.565166501900000E9     3.402791094918244E-3    5.690230919625495E-1    3.850402612530043E-2   -5.734848438417145E-3    3.779417886546104E-2   -6.154084790703397E-3    1.136595174525773E-1    5.175617311522882E-1
 6.565178225200000E9     4.408520312081305E-3    5.690033361061461E-1    3.866690071806123E-2   -5.768687209765173E-3    3.805031041687430E-2   -6.276579925947981E-3    1.148610862851200E-1    5.173136690772532E-1
 6.565189948500000E9     5.340255761277070E-3    5.689610991904641E-1    3.889700313947468E-2   -5.897028306002598E-3    3.830498899053712E-2   -6.463733359502368E-3    1.160068015892549E-1    5.170681881894824E-1
 6.565201671800000E9     6.296690900200570E-3    5.688426855671871E-1    3.912290250388083E-2   -6.161829503659362E-3    3.848124839597986E-2   -6.565567432445012E-3    1.172724267004545E-1    5.168064246175944E-1
 6.565213395100000E9     7.324600740699135E-3    5.689594292584816E-1    3.936740774354262E-2   -6.116015900912797E-3    3.868313494397300E-2   -6.624704746439677E-3    1.186583241636169E-1    5.166288926044390E-1
 6.565225118400000E9     8.324159114576164E-3    5.689052508144898E-1    3.961684544780086E-2   -6.171087191804744E-3    3.901469031835891E-2   -6.777206877853584E-3    1.196643427660311E-1    5.162858391338316E-1
 6.565236841700000E9     9.259400058146336E-3    5.688114212544384E-1    3.973094456580677E-2   -6.349181802079889E-3    3.918324398585196E-2   -6.950062684148216E-3    1.209964188810746E-1    5.159486582656782E-1
 6.565248565000000E9     1.032085658166753E-2    5.688259737050745E-1    4.013034130859699E-2   -6.493840043036818E-3    3.944393700895113E-2   -7.112331122659166E-3    1.220697817205842E-1    5.155087886589330E-1
 6.565260288300000E9     1.131466483164651E-2    5.687075777082943E-1    4.028512680620431E-2   -6.702640466433786E-3    3.961477433007267E-2   -7.243698906046100E-3    1.233384991267524E-1    5.152883492002558E-1
 6.565272011600000E9     1.227395327277936E-2    5.686380137024044E-1    4.066928499040259E-2   -6.734789445199989E-3    3.987056688098006E-2   -7.312347572947526E-3    1.247912906628425E-1    5.151003066491283E-1
 6.565283734900000E9     1.333131489048171E-2    5.685963566541113E-1    4.068617336152946E-2   -7.009844665268657E-3    4.012833316560344E-2   -7.568091987951168E-3    1.257873604979833E-1    5.145996569228024E-1
 6.565295458200000E9     1.445412961289186E-2    5.685635970807082E-1    4.104226619441853E-2   -7.169498257390227E-3    4.027874881323234E-2   -7.607631046543635E-3    1.270072681035464E-1    5.144316644109468E-1
 6.565307181500000E9     1.532185637234442E-2    5.684647937798520E-1    4.118595739183888E-2   -7.140095129234673E-3    4.060134589083084E-2   -7.703893190798720E-3    1.283621097132711E-1    5.140851818010262E-1
 6.565318904800000E9     1.639889843549978E-2    5.683240330240791E-1    4.141269736198959E-2   -7.295045859061749E-3    4.081732679086939E-2   -7.944607652857151E-3    1.295796211247437E-1    5.138163085567382E-1
 6.565330628100000E9     1.729566022418265E-2    5.683634576437230E-1    4.165990078414352E-2   -7.647853371975231E-3    4.107642375910871E-2   -8.005761196239769E-3    1.309152300508749E-1    5.134612242045227E-1
 6.565342351400000E9     1.837434738133361E-2    5.683670896318548E-1    4.198091580977360E-2   -7.644449237685071E-3    4.128748281946609E-2   -8.200117768204051E-3    1.321559004811720E-1    5.131761949480536E-1
 6.565354074700000E9     1.930090755259617E-2    5.682114774412649E-1    4.221711900840806E-2   -7.760639578081366E-3    4.145044574334624E-2   -8.411432075683541E-3    1.333414976411112E-1    5.126451023625397E-1
 6.565365798000000E9     2.040003710348653E-2    5.683109853955230E-1    4.249649661977022E-2   -8.029265190847885E-3    4.171504003029842E-2   -8.599330110432256E-3    1.346476724478113E-1    5.123770738040077E-1
 6.565377521300000E9     2.138908104396689E-2    5.681379138685556E-1    4.274373954984359E-2   -8.217301139640098E-3    4.204734707556142E-2   -8.695694818078303E-3    1.359970978784698E-1    5.120476941722525E-1
 6.565389244600000E9     2.233621265027283E-2    5.681586773402610E-1    4.292128770741169E-2   -8.387004683027405E-3    4.224428675040553E-2   -8.893402591454840E-3    1.372598968291621E-1    5.117326690382443E-1
 6.565400967900000E9     2.346480062651235E-2    5.680961762127276E-1    4.321473457125602E-2   -8.510776642379921E-3    4.260142467414773E-2   -9.062971509816036E-3    1.384266019416001E-1    5.114505288136419E-1
 6.565412691200000E9     2.449372027185224E-2    5.679764327687176E-1    4.355597075796661E-2   -8.681987958070488E-3    4.278704257354916E-2   -9.204376998083526E-3    1.398644759655723E-1    5.110183031062836E-1
 6.565424414500000E9     2.547554210307492E-2    5.678587244878237E-1    4.381352806356528E-2   -8.800801164508543E-3    4.303446908353020E-2   -9.334992001565887E-3    1.410638308039884E-1    5.104925792697981E-1
 6.565436137800000E9     2.660096202424930E-2    5.676918017759564E-1    4.416640452586281E-2   -8.920281363126318E-3    4.330767990403815E-2   -9.574342002194567E-3    1.425848968047660E-1    5.102998750539727E-1
 6.565447861100000E9     2.756199199542250E-2    5.678065674363901E-1    4.440412566991009E-2   -9.136693270783673E-3    4.361917348323190E-2   -9.760879582448721E-3    1.437899286972017E-1    5.097907249816527E-1
 6.565459584400000E9     2.857203222581798E-2    5.675552066750175E-1    4.467637414586991E-2   -9.371693046507156E-3    4.393681282034976E-2   -9.896424780809501E-3    1.450800758145740E-1    5.094009302283041E-1
 6.565471307700000E9     2.958841786701562E-2    5.675245079936158E-1    4.493148969788329E-2   -9.553225630276337E-3    4.417340038117743E-2   -1.012374019458935E-2    1.463720754344398E-1    5.091571736567740E-1
 6.565483031000000E9     3.068702211057904E-2    5.674815070254031E-1    4.524104935562663E-2   -9.795443112744493E-3    4.439925302940195E-2   -1.030899869476453E-2    1.476952003234905E-1    5.086740896585733E-1
 6.565494754300000E9     3.169464501801557E-2    5.672797534817036E-1    4.556766914191249E-2   -9.958219872152837E-3    4.482419211897311E-2   -1.041472527360831E-2    1.491995619854057E-1    5.081819829815775E-1
 6.565506477600000E9     3.267711187719859E-2    5.672815674688815E-1    4.585255091332443E-2   -9.970977948745421E-3    4.511185135443198E-2   -1.064770305195713E-2    1.503627456108097E-1    5.077082745732246E-1
 6.565518200900000E9     3.372753216421485E-2    5.672129656461282E-1    4.596014637166698E-2   -1.018589654292826E-2    4.526733935263093E-2   -1.073162366133172E-2    1.517373680442489E-1    5.072667054552509E-1
 6.565529924200000E9     3.473046137512229E-2    5.671364355225045E-1    4.643187996049493E-2   -1.033139504394354E-2    4.564425715127864E-2   -1.093894623973413E-2    1.530638260749773E-1    5.066580726882831E-1
 6.565541647500000E9     3.583695758776839E-2    5.669814323941867E-1    4.667167023296665E-2   -1.065597775793053E-2    4.594420504031983E-2   -1.119818166564381E-2    1.545987190926265E-1    5.064939622109035E-1
 6.565553370800000E9     3.689248406866542E-2    5.668567339188062E-1    4.700611114837625E-2   -1.081726481553537E-2    4.626394042767062E-2   -1.146929396851866E-2    1.558434427608520E-1    5.060392891015961E-1
 6.565565094100000E9     3.792551299449726E-2    5.666649291696249E-1    4.726590227735850E-2   -1.101080355218369E-2    4.663121669447387E-2   -1.160059098841292E-2    1.572911319855188E-1    5.055803756526570E-1
 6.565576817400000E9     3.898178113397254E-2    5.665726386085845E-1    4.764316754137256E-2   -1.133159213355770E-2    4.686121157801799E-2   -1.186759972201670E-2    1.586554737081078E-1    5.050995871583877E-1
 6.565588540700000E9     4.001322340947519E-2    5.664381877943784E-1    4.807868933252830E-2   -1.159028033327063E-2    4.724059271444577E-2   -1.212581855234804E-2    1.601625185701878E-1    5.045318028067405E-1
 6.565600264000000E9     4.103951045120851E-2    5.663316896293635E-1    4.836344720470564E-2   -1.164885001684145E-2    4.749289112905977E-2   -1.235832102163226E-2    1.614821155277362E-1    5.040350472717032E-1
 6.565611987300000E9     4.226286320154842E-2    5.661973985320028E-1    4.854395373601854E-2   -1.191676477533333E-2    4.786951248242768E-2   -1.251206241993484E-2    1.628394084454355E-1    5.035557899634979E-1
 6.565623710600000E9     4.320799604246371E-2    5.661265330953058E-1    4.899020457690168E-2   -1.215755228514623E-2    4.822973551354281E-2   -1.271597277688759E-2    1.643512955229096E-1    5.030180274883299E-1
 6.565635433900000E9     4.427349336975984E-2    5.660101613208157E-1    4.932131754231957E-2   -1.237413793999854E-2    4.858039345710105E-2   -1.292472045811296E-2    1.659121677188120E-1    5.027044513728680E-1
 6.565647157200000E9     4.534548163374163E-2    5.657700497674396E-1    4.974265640077821E-2   -1.261732664926847E-2    4.887418230386396E-2   -1.325731743481018E-2    1.673512108295429E-1    5.019605841441281E-1
 6.565658880500000E9     4.639903518608608E-2    5.657019821955092E-1    5.005808644593728E-2   -1.287896246606947E-2    4.929014677954330E-2   -1.347372390152237E-2    1.686329717933911E-1    5.016460449970341E-1
 6.565670603800000E9     4.736788322471234E-2    5.655481624633402E-1    5.054213646913241E-2   -1.310027379583306E-2    4.949851377383194E-2   -1.381032662721907E-2    1.702803615090401E-1    5.009795207205548E-1
 6.565682327100000E9     4.847931824601661E-2    5.653197030561508E-1    5.070446169252789E-2   -1.336344897071369E-2    5.000345420883812E-2   -1.401646900429175E-2    1.716231175986827E-1    5.004236613975643E-1
 6.565694050400000E9     4.957966357993022E-2    5.652370509550878E-1    5.121207056868608E-2   -1.353015104993848E-2    5.031848761669731E-2   -1.423044104928252E-2    1.731610443748685E-1    4.999599445076561E-1
 6.565705773700000E9     5.064464539551616E-2    5.651625972955541E-1    5.142969238158344E-2   -1.391470660457485E-2    5.061662992163116E-2   -1.456206488178654E-2    1.744875184955605E-1    4.991743453008133E-1
 6.565717497000000E9     5.175549035662718E-2    5.648458840503936E-1    5.178527724365061E-2   -1.416123642801307E-2    5.116713806463526E-2   -1.474220202214063E-2    1.761011786434846E-1    4.987026911185749E-1
 6.565729220300000E9     5.279323230461540E-2    5.648299553584150E-1    5.226944114459478E-2   -1.442900025614191E-2    5.142055238248618E-2   -1.503932039420114E-2    1.776031246300557E-1    4.980681047273757E-1
 6.565740943600000E9     5.394224138459959E-2    5.646593386337168E-1    5.267283831065321E-2   -1.459480964092299E-2    5.178812443013397E-2   -1.532092625752348E-2    1.790198254550173E-1    4.976093558780241E-1
 6.565752666900000E9     5.514581462282739E-2    5.643986342011231E-1    5.309571991475690E-2   -1.501990475030556E-2    5.220901104849760E-2   -1.551274342948180E-2    1.806104822603856E-1    4.969008997568793E-1
 6.565764390200000E9     5.610227225631736E-2    5.642889053123525E-1    5.344353510577161E-2   -1.527734509045337E-2    5.259285626376559E-2   -1.578419281913960E-2    1.820329254795532E-1    4.963072750164640E-1
 6.565776113500000E9     5.726216416714528E-2    5.639925573211674E-1    5.396415041405372E-2   -1.554183740147365E-2    5.302910953305835E-2   -1.618793007944792E-2    1.836981233065146E-1    4.955429339670019E-1
 6.565787836800000E9     5.836093472313244E-2    5.638744270366939E-1    5.437344482739948E-2   -1.582349887852967E-2    5.344625429501956E-2   -1.648700568154868E-2    1.851220622459893E-1    4.949742793655013E-1
 6.565799560100000E9     5.954309724871457E-2    5.637419491340735E-1    5.470229816265750E-2   -1.613262840224534E-2    5.379708014748230E-2   -1.674623343228452E-2    1.868023725856985E-1    4.942557688663261E-1
 6.565811283400000E9     6.051559511330659E-2    5.635698173270878E-1    5.505931341258363E-2   -1.639244149917947E-2    5.420228726320288E-2   -1.705124318695258E-2    1.882839078265712E-1    4.935715107425303E-1
 6.565823006700000E9     6.162422171226357E-2    5.633957019636182E-1    5.562870519680403E-2   -1.676931972516440E-2    5.467020463120700E-2   -1.739408614000305E-2    1.900179649225285E-1    4.927585936014792E-1
 6.565834730000000E9     6.274667361362989E-2    5.630494008162232E-1    5.588277406702456E-2   -1.704559065591772E-2    5.494744381650202E-2   -1.765393741231866E-2    1.915151367474709E-1    4.921423857958097E-1
