#  HZ   S   RI   R     50.00 
! Rohde & Schwarz Vector Network Analyzer 
! Rohde-Schwarz,ZNB20-2Port,1311601062101988,3.16
! Created: UTC 3/20/2024, 5:05:32 PM
! freq[Hz]                re:S11                  im:S11                  re:S21                  im:S21                  re:S12                  im:S12                  re:S22                  im:S22
 6.564167289000000E9    -7.729002316490211E-2    5.636919140496548E-1    2.658094856527191E-2    3.254711734508583E-4    2.616673175259798E-2   -9.934409324362066E-5    2.154190119140772E-2    5.245673990221492E-1
 6.564181564575000E9    -7.619295905645955E-2    5.638222563387739E-1    2.684469896146838E-2    1.920218411329376E-4    2.631315544748662E-2   -3.489292898760388E-4    2.286976425879032E-2    5.246467473968356E-1
 6.564195840150000E9    -7.496888020814077E-2    5.638837090419988E-1    2.693214747973525E-2    1.289879307836797E-4    2.638983588344620E-2   -2.785449221791846E-4    2.400986326718541E-2    5.246238605279723E-1
 6.564210115725000E9    -7.392707598215513E-2    5.641644146231729E-1    2.691968581392981E-2    8.098519325426292E-5    2.648424922571643E-2   -3.997862563562107E-4    2.524492684716981E-2    5.244460822054193E-1
 6.564224391300000E9    -7.279701420041987E-2    5.643056826589037E-1    2.704041183827991E-2    3.891212048768996E-5    2.670505560530406E-2   -4.104013452178786E-4    2.649225344636677E-2    5.245119149245329E-1
 6.564238666875000E9    -7.157884846450163E-2    5.643687258019339E-1    2.731832245369091E-2   -1.338213022899535E-4    2.673359746908563E-2   -4.474059970371521E-4    2.759137337923354E-2    5.244611973190992E-1
 6.564252942450000E9    -7.057284733130290E-2    5.645635700185596E-1    2.744750957542151E-2    7.421857630482659E-7    2.698911628983813E-2   -4.688561057215083E-4    2.901208125130448E-2    5.243948473389914E-1
 6.564267218025000E9    -6.942378937004379E-2    5.646491290679728E-1    2.749949888092584E-2   -4.560153377404638E-5    2.710696036096355E-2   -6.020771197185307E-4    3.008045614705669E-2    5.244683277394682E-1
 6.564281493600000E9    -6.829043686671621E-2    5.647927137115800E-1    2.776812722043732E-2   -1.128631924848915E-4    2.718408780502564E-2   -6.132168108761243E-4    3.122615343963536E-2    5.244125961275302E-1
 6.564295769175000E9    -6.716425153564512E-2    5.650083134622114E-1    2.790146044335741E-2   -2.692251829609988E-4    2.733384957937440E-2   -7.266513102000546E-4    3.274987613281866E-2    5.242694331840635E-1
 6.564310044750000E9    -6.593963706999102E-2    5.650956952015067E-1    2.799970294220189E-2   -3.878127986543695E-4    2.758073011571446E-2   -7.616700217615825E-4    3.376519754554178E-2    5.241675539843473E-1
 6.564324320325000E9    -6.489398591085049E-2    5.652467463039934E-1    2.812368769594440E-2   -3.992450513169105E-4    2.766379246969022E-2   -9.832701492146273E-4    3.513753403677508E-2    5.241351761940259E-1
 6.564338595900000E9    -6.370952283994072E-2    5.652502869530738E-1    2.823741780756720E-2   -3.698646074839214E-4    2.782623517399351E-2   -8.367805195782822E-4    3.613686537637739E-2    5.240585593357124E-1
 6.564352871475000E9    -6.258774484564997E-2    5.654134740671666E-1    2.839495957302237E-2   -4.722638005643954E-4    2.792617359788275E-2   -1.074111320444636E-3    3.748123565361194E-2    5.238685481609087E-1
 6.564367147050000E9    -6.149026779164171E-2    5.655071037388960E-1    2.852043052944025E-2   -6.132778915004855E-4    2.806820851267201E-2   -9.749679297222335E-4    3.876940328821944E-2    5.238801115138156E-1
 6.564381422625000E9    -6.039544926387742E-2    5.656541366537051E-1    2.877434610641276E-2   -7.719961284377563E-4    2.830650384208068E-2   -1.204525429029726E-3    3.998670955867069E-2    5.238309764885160E-1
 6.564395698200000E9    -5.931676145991584E-2    5.657693024608778E-1    2.901314195626883E-2   -8.264238581962339E-4    2.831290962406618E-2   -1.366586429475313E-3    4.131964102327312E-2    5.237246282867700E-1
 6.564409973775000E9    -5.810966095204390E-2    5.659608602724725E-1    2.896765840284470E-2   -7.359558349398315E-4    2.862972243455982E-2   -1.284282137424365E-3    4.258557617819471E-2    5.234978157687985E-1
 6.564424249350000E9    -5.708055823221719E-2    5.660306328228728E-1    2.911664456003507E-2   -8.431400127594681E-4    2.871721619088571E-2   -1.490931315152775E-3    4.378361414466263E-2    5.234860399969606E-1
 6.564438524925000E9    -5.583803438618827E-2    5.661056046180409E-1    2.926793606836147E-2   -9.901027943096114E-4    2.878475180279350E-2   -1.487593670363700E-3    4.508633567716318E-2    5.235383147636028E-1
 6.564452800500000E9    -5.470945007801900E-2    5.661415282395538E-1    2.958683030284376E-2   -8.510049060736433E-4    2.903950073176416E-2   -1.589830958194885E-3    4.618336128371520E-2    5.233112281748611E-1
 6.564467076075000E9    -5.360885908782665E-2    5.662893866240473E-1    2.966393972295106E-2   -1.185985102586878E-3    2.925376327761871E-2   -1.632004811407848E-3    4.763723919937125E-2    5.231539650483414E-1
 6.564481351650000E9    -5.235371622334992E-2    5.663372192460360E-1    2.984978811281189E-2   -1.186973087219703E-3    2.939098255391780E-2   -1.676179196193924E-3    4.893624478429473E-2    5.231281631093726E-1
 6.564495627225000E9    -5.139293806413790E-2    5.663924718864108E-1    2.993021036911127E-2   -1.370298593647012E-3    2.962023981466603E-2   -1.801563618532312E-3    5.017807804555565E-2    5.231130714862745E-1
 6.564509902800000E9    -5.013492850390659E-2    5.666302524752945E-1    3.011153513121636E-2   -1.437311476209715E-3    2.975063805536919E-2   -1.920579219035323E-3    5.146824626635471E-2    5.228332247991605E-1
 6.564524178375000E9    -4.901564322469511E-2    5.666608021639501E-1    3.039004600999603E-2   -1.435594817436022E-3    2.988793083749439E-2   -1.992944799568613E-3    5.265385415660459E-2    5.226619163570737E-1
 6.564538453950000E9    -4.788856078491396E-2    5.667073797409753E-1    3.055891391317853E-2   -1.616119759751679E-3    3.005608451988253E-2   -1.946173175479347E-3    5.391479305292654E-2    5.227058722910499E-1
 6.564552729525000E9    -4.672621480630080E-2    5.667796642458495E-1    3.061210062504659E-2   -1.756253276915583E-3    3.010671922444888E-2   -2.095992666238044E-3    5.507177849993668E-2    5.226149105173917E-1
 6.564567005100000E9    -4.558544212718831E-2    5.669257099633473E-1    3.082348609408543E-2   -1.765437712568864E-3    3.027488150766120E-2   -2.248873464289731E-3    5.662070998440374E-2    5.224152996237085E-1
 6.564581280675000E9    -4.439452262131734E-2    5.670619424275509E-1    3.102485710933394E-2   -1.781205201541277E-3    3.042754105260622E-2   -2.354477258491762E-3    5.776069056075932E-2    5.221523264511705E-1
 6.564595556250000E9    -4.323569679270430E-2    5.670466454644734E-1    3.117160325410103E-2   -1.887842123342282E-3    3.064547387566906E-2   -2.421569922239969E-3    5.910301782192372E-2    5.221010860550979E-1
 6.564609831825000E9    -4.216498887983718E-2    5.672104220048758E-1    3.135267241283126E-2   -1.961053054784813E-3    3.081458897478242E-2   -2.463957354305062E-3    6.038833809978843E-2    5.220069800863587E-1
 6.564624107400000E9    -4.092475655323730E-2    5.673089728046692E-1    3.155869168797043E-2   -2.086827116135279E-3    3.099529904976206E-2   -2.571897731190433E-3    6.167463160535171E-2    5.217991344978510E-1
 6.564638382975000E9    -3.985055665311649E-2    5.671675698828098E-1    3.155711984825602E-2   -2.128454563504251E-3    3.118800334465315E-2   -2.774426334501661E-3    6.297677299647483E-2    5.216215428526372E-1
 6.564652658550000E9    -3.861661386019357E-2    5.672933538676638E-1    3.180293615003248E-2   -2.277177862552855E-3    3.133620882890332E-2   -2.750863133527219E-3    6.438586646108398E-2    5.214209918014049E-1
 6.564666934125000E9    -3.747814242885453E-2    5.674351410459038E-1    3.217191440538587E-2   -2.554714390333084E-3    3.150381480421306E-2   -2.914435272977685E-3    6.564642206395743E-2    5.213618397606611E-1
 6.564681209700000E9    -3.641970118234187E-2    5.675075675224490E-1    3.230229306622855E-2   -2.454889633123522E-3    3.176088775225780E-2   -3.116244780007161E-3    6.692806202923152E-2    5.212562878525444E-1
 6.564695485275000E9    -3.513104679838687E-2    5.675537144668772E-1    3.246677517988478E-2   -2.484715769700328E-3    3.197386185312052E-2   -3.149254942626566E-3    6.804622101128024E-2    5.210681940217116E-1
 6.564709760850000E9    -3.398822994904303E-2    5.675284548581040E-1    3.269481597795192E-2   -2.694828452760359E-3    3.208642663716036E-2   -3.311305311186439E-3    6.958325302725894E-2    5.208193813559380E-1
 6.564724036425000E9    -3.296109591869674E-2    5.675723333127803E-1    3.272949272860641E-2   -2.804745896929384E-3    3.223809351238256E-2   -3.248395195999592E-3    7.088695690164225E-2    5.207694614853626E-1
 6.564738312000000E9    -3.167766447010453E-2    5.676641652113581E-1    3.313811698437701E-2   -2.856566561233579E-3    3.246307326990483E-2   -3.420238879988058E-3    7.222866354869945E-2    5.206193309148186E-1
 6.564752587575000E9    -3.054542734964292E-2    5.678192344299822E-1    3.329010860337086E-2   -3.094703426212863E-3    3.268322618675129E-2   -3.584487403397350E-3    7.341823633651139E-2    5.203781525439926E-1
 6.564766863150000E9    -2.936996505876006E-2    5.678543590559968E-1    3.337098267845044E-2   -3.068903130732749E-3    3.280764216036906E-2   -3.583748842786729E-3    7.503847455426856E-2    5.202523106410586E-1
 6.564781138725000E9    -2.818751853529597E-2    5.678085083292481E-1    3.374213805453353E-2   -3.259579503549802E-3    3.299057831477706E-2   -3.812705547848793E-3    7.620046601345912E-2    5.199056645810991E-1
 6.564795414300000E9    -2.718894969871834E-2    5.678432512199343E-1    3.383823716880616E-2   -3.324853258324639E-3    3.323720224529658E-2   -3.899492543695879E-3    7.755991220191572E-2    5.196966698745202E-1
 6.564809689875000E9    -2.598314600560741E-2    5.678654920620969E-1    3.398604865089102E-2   -3.450082872376523E-3    3.354772569944099E-2   -4.020576050436457E-3    7.894360288334792E-2    5.195620418678969E-1
 6.564823965450000E9    -2.475996384613113E-2    5.679234608161450E-1    3.422863936305568E-2   -3.587905872508265E-3    3.367412426936508E-2   -4.103134536860524E-3    8.029265061050198E-2    5.192500150082867E-1
 6.564838241025000E9    -2.366063073463640E-2    5.678863685831270E-1    3.435879468939469E-2   -3.777659843977818E-3    3.390251854929033E-2   -4.273186572326132E-3    8.158313197932984E-2    5.190888198238134E-1
 6.564852516600000E9    -2.228784218128179E-2    5.679853308583032E-1    3.471089905233071E-2   -3.778281453258136E-3    3.406155415992754E-2   -4.184645603534932E-3    8.288513510612483E-2    5.188693951204461E-1
 6.564866792175000E9    -2.120031752691547E-2    5.679696126268706E-1    3.487827420178987E-2   -3.912428629488375E-3    3.428386046539002E-2   -4.378439642632914E-3    8.435288986665380E-2    5.186554561727277E-1
 6.564881067750000E9    -2.005549375003829E-2    5.680097479042762E-1    3.511034888267027E-2   -3.998433461401246E-3    3.451984474987906E-2   -4.604589915232311E-3    8.578925400282095E-2    5.183893499919594E-1
 6.564895343325000E9    -1.883542642401847E-2    5.680670084011241E-1    3.532858129607325E-2   -4.298841049332224E-3    3.475641544450677E-2   -4.795405431231282E-3    8.709725910689722E-2    5.180998867297789E-1
 6.564909618900000E9    -1.770504591252490E-2    5.680386574017851E-1    3.561713058957457E-2   -4.480411964626388E-3    3.496823209541378E-2   -4.950133564478770E-3    8.866149482417458E-2    5.178215204383407E-1
 6.564923894475000E9    -1.659606464006676E-2    5.680698113401929E-1    3.574679123437993E-2   -4.476944870980582E-3    3.513594972296614E-2   -4.962329868246278E-3    8.989633303452356E-2    5.176123109184062E-1
 6.564938170050000E9    -1.530909658636648E-2    5.680900440066801E-1    3.604375993706425E-2   -4.647997922572189E-3    3.539703606662141E-2   -5.117707324680572E-3    9.131937954824028E-2    5.175640487301821E-1
 6.564952445625000E9    -1.413227508069645E-2    5.679821071287475E-1    3.617728536562702E-2   -4.771770562703909E-3    3.557053648715107E-2   -5.256005974859818E-3    9.250115109780155E-2    5.172564506799706E-1
 6.564966721200000E9    -1.298496986105830E-2    5.680663092256628E-1    3.637568273563174E-2   -4.723813235247665E-3    3.582713656452303E-2   -5.446322117285655E-3    9.400100097607787E-2    5.169290338129201E-1
 6.564980996775000E9    -1.177877203632607E-2    5.680420100090744E-1    3.667643847807694E-2   -4.980945222096609E-3    3.612808662001053E-2   -5.480299628075757E-3    9.530484389904761E-2    5.166233809954699E-1
 6.564995272350000E9    -1.065880077992980E-2    5.681309699076579E-1    3.679050742976996E-2   -5.166622967069112E-3    3.629383364820531E-2   -5.583102456037427E-3    9.684679808246643E-2    5.164436857813922E-1
 6.565009547925000E9    -9.435054613030354E-3    5.680355731435470E-1    3.713169593786492E-2   -5.247368264615283E-3    3.648680194885318E-2   -5.919232485351456E-3    9.820974006134447E-2    5.160520594465224E-1
 6.565023823500000E9    -8.131923877540690E-3    5.681392528621632E-1    3.745039409044099E-2   -5.393849044133343E-3    3.673214075516371E-2   -5.968703007133763E-3    9.962939710779514E-2    5.158763943785691E-1
 6.565038099075000E9    -7.074625082799148E-3    5.679686445890663E-1    3.760899390184935E-2   -5.608878446669881E-3    3.701141402897599E-2   -6.085132991018442E-3    1.011295740851452E-1    5.154264150525815E-1
 6.565052374650000E9    -5.811597725262439E-3    5.680209195609104E-1    3.793499259656549E-2   -5.625295491215885E-3    3.722039662767267E-2   -6.243287307550241E-3    1.024199010504762E-1    5.151806148466084E-1
 6.565066650225000E9    -4.550972051013736E-3    5.680027660934885E-1    3.818835411855714E-2   -5.863965468544912E-3    3.752123705658228E-2   -6.353225993309748E-3    1.040030065942876E-1    5.149929349076581E-1
 6.565080925800000E9    -3.446050779100701E-3    5.679919960320123E-1    3.837320469939161E-2   -6.115546021817723E-3    3.773843961283072E-2   -6.567795185435973E-3    1.054313524309501E-1    5.143979107279875E-1
 6.565095201375000E9    -2.207216305065057E-3    5.679297941239503E-1    3.877768145096148E-2   -6.214875951318495E-3    3.797373041984727E-2   -6.749055706418968E-3    1.068774833057806E-1    5.141104458182852E-1
 6.565109476950000E9    -9.591688192178150E-4    5.679798659372507E-1    3.895832518860141E-2   -6.359026581376694E-3    3.838567134612310E-2   -6.804445950348791E-3    1.085068745947838E-1    5.139454060365889E-1
 6.565123752525000E9     3.781040695556469E-4    5.679751831773513E-1    3.911369477882858E-2   -6.464904533048746E-3    3.856281451690517E-2   -7.046846534297443E-3    1.097502651990774E-1    5.136590862810435E-1
 6.565138028100000E9     1.504914150006151E-3    5.680095307584992E-1    3.960776447861824E-2   -6.781927175329254E-3    3.877688074254804E-2   -7.260082669319533E-3    1.112998308876071E-1    5.131262393733304E-1
 6.565152303675000E9     2.637308109345003E-3    5.678675589865390E-1    3.976618050382304E-2   -6.754802048872126E-3    3.903172276767492E-2   -7.342609414054978E-3    1.127886031949392E-1    5.128933740540924E-1
 6.565166579250000E9     3.864762515567902E-3    5.677759373631845E-1    4.006906022902305E-2   -7.138686346110462E-3    3.932743674237493E-2   -7.679327758075944E-3    1.141437531691925E-1    5.124155351262535E-1
 6.565180854825000E9     5.057462571039679E-3    5.677442995553854E-1    4.026334966364291E-2   -7.202420646532972E-3    3.953683277398098E-2   -7.857019600326193E-3    1.156989917175277E-1    5.122309661497496E-1
 6.565195130400000E9     6.384964370658346E-3    5.676591314815244E-1    4.056688393799383E-2   -7.465911379742187E-3    3.979543270817163E-2   -7.895212931879617E-3    1.171900812726756E-1    5.117849439025742E-1
 6.565209405975000E9     7.542553600190393E-3    5.676078781620388E-1    4.089274791777526E-2   -7.491429478634671E-3    4.021737134126473E-2   -8.078145373322068E-3    1.187703389431971E-1    5.113411840283481E-1
 6.565223681550000E9     8.784792876307863E-3    5.676468713771128E-1    4.111655005944248E-2   -7.700344204654370E-3    4.046543976106998E-2   -8.223427370182442E-3    1.200778148945260E-1    5.110111586764751E-1
 6.565237957125000E9     9.894948526044597E-3    5.675084242242177E-1    4.140910148633641E-2   -7.934604045427887E-3    4.071396029064370E-2   -8.548596446072877E-3    1.217689276132891E-1    5.106284387758339E-1
 6.565252232700000E9     1.117365335461169E-2    5.674467344568832E-1    4.187587241709529E-2   -8.084325501877499E-3    4.115579127716965E-2   -8.756464003728771E-3    1.233883186210415E-1    5.101364803878885E-1
 6.565266508275000E9     1.243534030551392E-2    5.674834791934994E-1    4.207676825974400E-2   -8.135002575504518E-3    4.137875848658884E-2   -8.890504423228114E-3    1.247940401337396E-1    5.097136377335926E-1
 6.565280783850000E9     1.369055176383844E-2    5.673358981337745E-1    4.234732605831956E-2   -8.641519104146934E-3    4.164404170697317E-2   -9.086949963142694E-3    1.263228659918190E-1    5.093822372473509E-1
 6.565295059425000E9     1.489017699561430E-2    5.671643957047422E-1    4.261300403125171E-2   -8.771163252588665E-3    4.191341384409604E-2   -9.340460407661883E-3    1.279425737166071E-1    5.088434300277086E-1
 6.565309335000000E9     1.604720407520654E-2    5.670535707422849E-1    4.298433231568492E-2   -9.084250421848749E-3    4.227787319858279E-2   -9.591084707596825E-3    1.294405506322376E-1    5.084236592934512E-1
 6.565323610575000E9     1.732529838836855E-2    5.670427048197471E-1    4.324191419172350E-2   -9.266162412819729E-3    4.251591945345853E-2   -9.777898683129924E-3    1.309887955897249E-1    5.079294898567933E-1
 6.565337886150000E9     1.857311568930700E-2    5.669590978189019E-1    4.361682022439982E-2   -9.434292307388020E-3    4.288855582051461E-2   -9.948485458311958E-3    1.324855621503336E-1    5.074721092438842E-1
 6.565352161725000E9     1.979865074819856E-2    5.669071962082882E-1    4.394188713232162E-2   -9.680976026503372E-3    4.321910374909083E-2   -1.025350715883986E-2    1.340344503063578E-1    5.070453080540762E-1
 6.565366437300000E9     2.112515066608670E-2    5.666904047428599E-1    4.436535568751852E-2   -9.875787467898613E-3    4.362939503088019E-2   -1.036584562868875E-2    1.356311886557049E-1    5.067814976494457E-1
 6.565380712875000E9     2.240680814444975E-2    5.667126826181677E-1    4.465560545022853E-2   -1.007819737527356E-2    4.383841783493245E-2   -1.057546671499055E-2    1.372301324748707E-1    5.061555880337378E-1
 6.565394988450000E9     2.353745192665769E-2    5.666111143746594E-1    4.503387061866492E-2   -1.033651519228083E-2    4.429862808837117E-2   -1.088018296739449E-2    1.389840314324008E-1    5.055945764547064E-1
 6.565409264025000E9     2.485107014353947E-2    5.663722582206309E-1    4.530741588420877E-2   -1.053935948379268E-2    4.463607600487588E-2   -1.117963872373928E-2    1.405689821975482E-1    5.050103925248953E-1
 6.565423539600000E9     2.608934634810678E-2    5.662688072702420E-1    4.576624105127088E-2   -1.079700891051581E-2    4.492925032526904E-2   -1.148738112653613E-2    1.421387390860565E-1    5.044731564791853E-1
 6.565437815175000E9     2.737546630855810E-2    5.662149214097982E-1    4.618138141824874E-2   -1.101796298476046E-2    4.533810099416978E-2   -1.169627640138448E-2    1.438370193529812E-1    5.040967473108319E-1
 6.565452090750000E9     2.862467179435224E-2    5.660717099185399E-1    4.651881764631227E-2   -1.135963037818375E-2    4.573203141517857E-2   -1.192575487834823E-2    1.454365355483616E-1    5.035308159761970E-1
