#  HZ   S   RI   R     50.00 
! Rohde & Schwarz Vector Network Analyzer 
! Rohde-Schwarz,ZNB20-2Port,1311601062101988,3.16
! Created: UTC 3/20/2024, 4:50:17 PM
! freq[Hz]                re:S11                  im:S11                  re:S21                  im:S21                  re:S12                  im:S12                  re:S22                  im:S22
 6.564773045000000E9    -2.914544104523566E-2    5.687183966511583E-1    3.234117763280833E-2   -2.438403748760086E-3    3.184770943318089E-2   -2.943627753186034E-3    7.540176713187098E-2    5.244328961760810E-1
 6.564784794350000E9    -2.818843655486708E-2    5.687433138204073E-1    3.257492650675715E-2   -2.430226097314660E-3    3.196168166171805E-2   -3.050906964877015E-3    7.652750738538575E-2    5.241861059533263E-1
 6.564796543700000E9    -2.732055253543731E-2    5.688242753487633E-1    3.264982742521782E-2   -2.491784680313420E-3    3.215649504786799E-2   -3.025037771986666E-3    7.760247930160095E-2    5.239833553162017E-1
 6.564808293050000E9    -2.637561952336467E-2    5.689028179885768E-1    3.284576793615013E-2   -2.769579080590639E-3    3.231017281199850E-2   -3.080968885506314E-3    7.857725961063003E-2    5.238798719740131E-1
 6.564820042400000E9    -2.533990604170513E-2    5.688296232873202E-1    3.306269166607834E-2   -2.631381250869644E-3    3.256173471466795E-2   -3.069763445367963E-3    7.969694631815648E-2    5.237687303805177E-1
 6.564831791750000E9    -2.434651909803571E-2    5.688751323100382E-1    3.325242767479665E-2   -2.734930659971989E-3    3.257944999445362E-2   -3.334760441127522E-3    8.085698455197775E-2    5.236121936880166E-1
 6.564843541100000E9    -2.341790750481375E-2    5.689191947216644E-1    3.323305217270518E-2   -2.831901641167393E-3    3.277312415309744E-2   -3.383587487845462E-3    8.209069919708674E-2    5.234640164883456E-1
 6.564855290450000E9    -2.243156811042044E-2    5.690451786753578E-1    3.360292312736175E-2   -2.950792864238834E-3    3.292966960872555E-2   -3.383140607355940E-3    8.306901068658212E-2    5.231737416388973E-1
 6.564867039800000E9    -2.149422825131173E-2    5.689740361944121E-1    3.377648890214877E-2   -2.987846930706058E-3    3.315491239616625E-2   -3.551459155593103E-3    8.403733164532901E-2    5.230739322126139E-1
 6.564878789150000E9    -2.050356346152403E-2    5.689167735174701E-1    3.381438880655988E-2   -3.087873520855036E-3    3.322327393412452E-2   -3.609088005423943E-3    8.538997216271747E-2    5.227840117627601E-1
 6.564890538500000E9    -1.952733093034855E-2    5.690594638648201E-1    3.401727440980086E-2   -3.298951156303229E-3    3.340481686348629E-2   -3.798518495275815E-3    8.649367246560054E-2    5.228132759099868E-1
 6.564902287850000E9    -1.859233477719524E-2    5.691777595288326E-1    3.425843650419465E-2   -3.311594261655334E-3    3.358771192730416E-2   -3.862998766879226E-3    8.755439464598685E-2    5.227092602401661E-1
 6.564914037200000E9    -1.767353131861933E-2    5.690434166449265E-1    3.436511471295225E-2   -3.396462662095727E-3    3.369751311243636E-2   -3.941830401653649E-3    8.882561559064078E-2    5.223265876449946E-1
 6.564925786550000E9    -1.674453415838764E-2    5.691739324178071E-1    3.460932491945000E-2   -3.410648054930877E-3    3.397285807097986E-2   -4.049743074250164E-3    8.980597775336818E-2    5.221129885176340E-1
 6.564937535900000E9    -1.558424143368353E-2    5.690717842391760E-1    3.476642639367836E-2   -3.507775689562595E-3    3.414448660850177E-2   -4.162882957579912E-3    9.087263718369290E-2    5.219011270877295E-1
 6.564949285250000E9    -1.467580003834041E-2    5.691506776589504E-1    3.492023537606233E-2   -3.578543630390733E-3    3.435172149025897E-2   -4.229407914298390E-3    9.210505404474303E-2    5.217176899646688E-1
 6.564961034600000E9    -1.364396724529977E-2    5.691246979361954E-1    3.518129243856077E-2   -3.634712673238838E-3    3.451496080698959E-2   -4.217992267508218E-3    9.319680145865623E-2    5.216050032432273E-1
 6.564972783950000E9    -1.277677610484594E-2    5.690389373013351E-1    3.526978281893765E-2   -3.782959611725932E-3    3.464100657112881E-2   -4.386548214019625E-3    9.427754873359132E-2    5.214116940228983E-1
 6.564984533300000E9    -1.188798876461034E-2    5.691182849315111E-1    3.549612215243567E-2   -4.038208722821604E-3    3.481908413878771E-2   -4.446277671877438E-3    9.546788411368802E-2    5.210986789555906E-1
 6.564996282650000E9    -1.082991887200108E-2    5.691583429991145E-1    3.552967324478008E-2   -4.104925539720242E-3    3.501980047298830E-2   -4.547034812514729E-3    9.668513025498304E-2    5.209406120443298E-1
 6.565008032000000E9    -9.818808662429842E-3    5.690386062627480E-1    3.565381098693556E-2   -4.129891235282250E-3    3.513414734424458E-2   -4.682474256783118E-3    9.772000375810071E-2    5.208103814456114E-1
 6.565019781350000E9    -8.933446836301422E-3    5.692093917280228E-1    3.586682990087561E-2   -4.303038522154704E-3    3.539026504792288E-2   -4.878523088680775E-3    9.898925610428300E-2    5.204997282410442E-1
 6.565031530700000E9    -7.904671248813278E-3    5.691551267975183E-1    3.619797994417434E-2   -4.215223795510694E-3    3.554150806945754E-2   -4.802570148255351E-3    1.001037775253986E-1    5.203322344377059E-1
 6.565043280050000E9    -6.893798787966647E-3    5.691789984393014E-1    3.646469553859984E-2   -4.368967600940953E-3    3.579648396400243E-2   -5.048402704101880E-3    1.011879053071101E-1    5.200422973980787E-1
 6.565055029400000E9    -5.885218873289785E-3    5.690914805959779E-1    3.664171310087962E-2   -4.801241787756784E-3    3.588300835855960E-2   -5.116394537964889E-3    1.024363005719015E-1    5.199985816109659E-1
 6.565066778750000E9    -4.863222600618767E-3    5.692029992025592E-1    3.685149889896712E-2   -4.546239065774301E-3    3.609743711106941E-2   -5.202074326140281E-3    1.035888409462872E-1    5.196913045054753E-1
 6.565078528100000E9    -3.961628274836211E-3    5.692049744945299E-1    3.686943340289889E-2   -4.763349493643767E-3    3.640903520913239E-2   -5.358402573519504E-3    1.048399967669147E-1    5.195659972030499E-1
 6.565090277450000E9    -2.945962163285646E-3    5.691829063255553E-1    3.714973119552333E-2   -4.703129084044503E-3    3.649908588935392E-2   -5.426826634601811E-3    1.059398792664400E-1    5.193483198278221E-1
 6.565102026800000E9    -2.065736006832953E-3    5.691848705553414E-1    3.725226841020711E-2   -5.003716638518434E-3    3.668291365573050E-2   -5.577739790346332E-3    1.071800060529503E-1    5.189739067728543E-1
 6.565113776150000E9    -9.936230937377917E-4    5.690848570484243E-1    3.762616249278822E-2   -5.080950506227402E-3    3.692757415948623E-2   -5.743204862265212E-3    1.082053331029096E-1    5.186864674859692E-1
 6.565125525500000E9    -5.385629397447007E-5    5.689972169947266E-1    3.779023171653838E-2   -5.250206404410624E-3    3.719453137966050E-2   -5.785017948186384E-3    1.095598504305211E-1    5.185852789117174E-1
 6.565137274850000E9     8.460904726450923E-4    5.690939115047631E-1    3.807315764267746E-2   -5.347771502772156E-3    3.737691384901588E-2   -5.855688352118753E-3    1.107928414505610E-1    5.182380465583980E-1
 6.565149024200000E9     1.915392813202018E-3    5.690020073789873E-1    3.824842394564693E-2   -5.379222298314827E-3    3.750660272097207E-2   -6.025458760336450E-3    1.119243232500212E-1    5.179846752335049E-1
 6.565160773550000E9     3.021278561484074E-3    5.690265864482813E-1    3.836759730704740E-2   -5.669037173608191E-3    3.780660781578039E-2   -6.190788639963488E-3    1.130916600818109E-1    5.177010927669846E-1
 6.565172522900000E9     3.860973029552574E-3    5.688885481947837E-1    3.863772429045937E-2   -5.665654542705713E-3    3.792146455480700E-2   -6.356330668953695E-3    1.142313878418478E-1    5.173912061714172E-1
 6.565184272250000E9     4.878306493037778E-3    5.688658060510828E-1    3.880910389591495E-2   -5.857654065613442E-3    3.820391247187047E-2   -6.378601410043725E-3    1.156334916191481E-1    5.171847360023661E-1
 6.565196021600000E9     5.932816718358145E-3    5.689733861491532E-1    3.891884033931773E-2   -5.837800820703487E-3    3.843283177165884E-2   -6.557752484922115E-3    1.166618486973958E-1    5.168521948870676E-1
 6.565207770950000E9     6.886687236472225E-3    5.687447418598407E-1    3.922660130842300E-2   -6.042314140390637E-3    3.868506320501200E-2   -6.611404336968371E-3    1.179506935464041E-1    5.166064785048565E-1
 6.565219520300000E9     7.813389918125123E-3    5.688609391928819E-1    3.945234761231003E-2   -6.176302113891541E-3    3.889303084578299E-2   -6.802569724044373E-3    1.191802303695504E-1    5.161217343354980E-1
 6.565231269650000E9     8.829372026012493E-3    5.688897854654482E-1    3.976516691259126E-2   -6.256478333630453E-3    3.904089607884854E-2   -6.930585051987171E-3    1.203066480414154E-1    5.159344126038563E-1
 6.565243019000000E9     9.826798894588585E-3    5.688271367541062E-1    3.997270459636080E-2   -6.411345379341307E-3    3.936368746662537E-2   -7.152252888603714E-3    1.213825888366556E-1    5.158183836756539E-1
 6.565254768350000E9     1.073543933311838E-2    5.686894428645979E-1    4.022570500361713E-2   -6.588179537949191E-3    3.944451365979287E-2   -7.211678767555184E-3    1.226830463088296E-1    5.156080302148692E-1
 6.565266517700000E9     1.186695559035880E-2    5.686766895365215E-1    4.047568038941992E-2   -6.788628102896829E-3    3.978032664192004E-2   -7.313594731085629E-3    1.240450503145434E-1    5.151309717366069E-1
 6.565278267050000E9     1.288008856930921E-2    5.685857770204585E-1    4.075344192210403E-2   -6.975678365553729E-3    4.001202994884586E-2   -7.440861318188179E-3    1.253057843233042E-1    5.147874997312571E-1
 6.565290016400000E9     1.388662280319127E-2    5.686645442907772E-1    4.092405981306443E-2   -6.935325475980871E-3    4.024715967156828E-2   -7.661496794219884E-3    1.266104292321963E-1    5.146726796989090E-1
 6.565301765750000E9     1.490605067563428E-2    5.684730803512080E-1    4.111550660368030E-2   -7.177280503168132E-3    4.044857877581456E-2   -7.756876240570603E-3    1.277324833660082E-1    5.142416259145928E-1
 6.565313515100000E9     1.580246578319560E-2    5.684523259847045E-1    4.135203691909407E-2   -7.374466786382738E-3    4.074271017326541E-2   -7.893914989844960E-3    1.291298118509505E-1    5.138804915314849E-1
 6.565325264450000E9     1.694726051193987E-2    5.683802260908550E-1    4.167600611727900E-2   -7.352261776796623E-3    4.084253881447056E-2   -8.026580279157388E-3    1.303671933892418E-1    5.135402069795951E-1
 6.565337013800000E9     1.786583695766127E-2    5.683323359320991E-1    4.180108546304669E-2   -7.636535365768435E-3    4.122669187935513E-2   -8.156431758057308E-3    1.315277338432761E-1    5.132445849348281E-1
 6.565348763150000E9     1.903270760412565E-2    5.683002583363664E-1    4.213313084543123E-2   -7.698803850911212E-3    4.144098571262762E-2   -8.420494613823729E-3    1.327976914804463E-1    5.129423168511428E-1
 6.565360512500000E9     1.993098173118805E-2    5.682977756321660E-1    4.241746266253467E-2   -7.898899176028972E-3    4.170770353463409E-2   -8.512452458675220E-3    1.339971136306288E-1    5.124030121812074E-1
 6.565372261850000E9     2.089639259499825E-2    5.681546615245439E-1    4.265847205188404E-2   -8.035580557709946E-3    4.192148206065185E-2   -8.705306501224344E-3    1.353463977431328E-1    5.121109495248686E-1
 6.565384011200000E9     2.210242085221449E-2    5.681627074201460E-1    4.295697120645509E-2   -8.259848369099921E-3    4.216518854069397E-2   -8.785079000563644E-3    1.367691538483546E-1    5.119330893736390E-1
 6.565395760550000E9     2.310578237013093E-2    5.681146449197654E-1    4.330478391670686E-2   -8.449497606607832E-3    4.251203340045932E-2   -9.014386977447369E-3    1.379419602656521E-1    5.114378517150763E-1
 6.565407509900000E9     2.410169568897049E-2    5.679260406832436E-1    4.344709384826469E-2   -8.611292985799294E-3    4.267007987396854E-2   -9.078220429200895E-3    1.393898331324389E-1    5.110569522431797E-1
 6.565419259250000E9     2.513226807996833E-2    5.679387146912270E-1    4.378639186744925E-2   -8.755074220305463E-3    4.306866679497451E-2   -9.281615312679788E-3    1.404357500301909E-1    5.107455839289748E-1
 6.565431008600000E9     2.606056681319114E-2    5.678644592280898E-1    4.400049977596863E-2   -8.988310283224514E-3    4.327332773514267E-2   -9.518764759011374E-3    1.418206191377511E-1    5.103557679713133E-1
 6.565442757950000E9     2.710499524282040E-2    5.676889042842370E-1    4.435369347252201E-2   -9.173547207036179E-3    4.357952606310096E-2   -9.726378923751786E-3    1.433364868909783E-1    5.099768094077737E-1
 6.565454507300000E9     2.821877958727300E-2    5.675811031390184E-1    4.452620760653464E-2   -9.300994223175790E-3    4.384674809914087E-2   -9.848965820151189E-3    1.445776656448446E-1    5.095913574832247E-1
 6.565466256650000E9     2.917010283619824E-2    5.675831608863899E-1    4.483633082548779E-2   -9.360237628282553E-3    4.413359195406637E-2   -1.001178035297886E-2    1.458654046771322E-1    5.093090261359143E-1
 6.565478006000000E9     3.019807781469743E-2    5.674951306262460E-1    4.508003474522815E-2   -9.701333873755019E-3    4.435745196917299E-2   -1.018688788470501E-2    1.472449944587112E-1    5.086916255010419E-1
 6.565489755350000E9     3.132057958981213E-2    5.674523358516647E-1    4.546418727045825E-2   -9.771656021226040E-3    4.456979254093778E-2   -1.042745561440112E-2    1.485000652379437E-1    5.081931053370319E-1
 6.565501504700000E9     3.223111298746992E-2    5.672257644986518E-1    4.567871715502213E-2   -1.003718866353073E-2    4.491860728130176E-2   -1.062407839543332E-2    1.499128757162200E-1    5.077800217145492E-1
 6.565513254050000E9     3.329182979943883E-2    5.672097223300259E-1    4.597140135698653E-2   -1.012179187751202E-2    4.528044934071128E-2   -1.082300555376657E-2    1.511917463636720E-1    5.075518812799420E-1
 6.565525003400000E9     3.437325867723330E-2    5.670993472730121E-1    4.632446492439218E-2   -1.029108169974197E-2    4.558438821346966E-2   -1.093821053880743E-2    1.525463487895700E-1    5.070031626960508E-1
 6.565536752750000E9     3.540769069767233E-2    5.669615529434361E-1    4.650987729732123E-2   -1.052460615540925E-2    4.584587375775304E-2   -1.115891864628795E-2    1.538739883489841E-1    5.067096354881483E-1
 6.565548502100000E9     3.652938911575297E-2    5.668965004449422E-1    4.693754545151503E-2   -1.089150506570882E-2    4.620896435528304E-2   -1.146180055007748E-2    1.553669209212072E-1    5.061874803793232E-1
 6.565560251450000E9     3.749506277060536E-2    5.666658656414079E-1    4.730417745403460E-2   -1.103054974313175E-2    4.655568135889242E-2   -1.150072621788268E-2    1.567853275357705E-1    5.056481810720229E-1
 6.565572000800000E9     3.851550014023778E-2    5.666311020707336E-1    4.763775804787897E-2   -1.114669561613974E-2    4.682768468995067E-2   -1.183752746796616E-2    1.581076981795453E-1    5.051836550257318E-1
 6.565583750150000E9     3.957787626237839E-2    5.665368438638073E-1    4.788857602691945E-2   -1.145388163155940E-2    4.710316754551375E-2   -1.199318610460771E-2    1.594576511603476E-1    5.048183188902834E-1
 6.565595499500000E9     4.066658504255317E-2    5.663964797761067E-1    4.821530825770687E-2   -1.161106456088689E-2    4.742554119379840E-2   -1.225989769795886E-2    1.608855242856779E-1    5.042233267822001E-1
 6.565607248850000E9     4.171383803812475E-2    5.662293808947703E-1    4.853536289195093E-2   -1.182455135792535E-2    4.773744788679135E-2   -1.239524269870351E-2    1.623529218813457E-1    5.036667456620196E-1
 6.565618998200000E9     4.278306344559149E-2    5.662340839500656E-1    4.890522077441503E-2   -1.206479519778223E-2    4.814022907918850E-2   -1.270307642103158E-2    1.638614178097030E-1    5.033201375969256E-1
 6.565630747550000E9     4.385660413221665E-2    5.659627624072003E-1    4.917121585153512E-2   -1.242400389419526E-2    4.844144436947656E-2   -1.298420880026479E-2    1.651512866213657E-1    5.027211745595962E-1
 6.565642496900000E9     4.495406332684470E-2    5.658021351944257E-1    4.959991153816276E-2   -1.261007473413957E-2    4.870850272891834E-2   -1.313882327338249E-2    1.666721668747987E-1    5.021855296791863E-1
 6.565654246250000E9     4.596557425480920E-2    5.658084850933155E-1    4.999634509125204E-2   -1.276360229778145E-2    4.910309171930607E-2   -1.343381241772813E-2    1.681886803107196E-1    5.017999592063284E-1
 6.565665995600000E9     4.710358983045849E-2    5.655256403224423E-1    5.034970049286066E-2   -1.310132295970039E-2    4.938484164026216E-2   -1.368524737881262E-2    1.695883496435815E-1    5.011483673327743E-1
 6.565677744950000E9     4.804166834462001E-2    5.654641242819176E-1    5.061521790901025E-2   -1.327675514834750E-2    4.986462524379949E-2   -1.386808220901178E-2    1.710805824291307E-1    5.005307908897629E-1
 6.565689494300000E9     4.915034253884460E-2    5.652301439385452E-1    5.117049146389612E-2   -1.355366020146824E-2    5.019978862386143E-2   -1.411547100671557E-2    1.725927965704429E-1    5.000108113343804E-1
 6.565701243650000E9     5.026457325587834E-2    5.651168928971332E-1    5.138322853136337E-2   -1.374926213284994E-2    5.060919900182628E-2   -1.434988693809662E-2    1.739869162456603E-1    4.995336836346839E-1
 6.565712993000000E9     5.139970797113121E-2    5.649697297847082E-1    5.174529050654510E-2   -1.408113920962903E-2    5.105725878997566E-2   -1.481946623752106E-2    1.755673327225007E-1    4.987829069830301E-1
 6.565724742350000E9     5.255519062681188E-2    5.648222253282023E-1    5.223138678580764E-2   -1.440131857013877E-2    5.138066083523798E-2   -1.490062520246126E-2    1.770383172362402E-1    4.982788104051545E-1
 6.565736491700000E9     5.349925771462914E-2    5.646386088893004E-1    5.254456856304284E-2   -1.464059196927164E-2    5.169389037144029E-2   -1.519169865954952E-2    1.785207575894838E-1    4.976874528549201E-1
 6.565748241050000E9     5.466865378693071E-2    5.644308298821196E-1    5.295791063075839E-2   -1.495630923269902E-2    5.217925448228333E-2   -1.554732740799571E-2    1.799962207102253E-1    4.970896186714937E-1
 6.565759990400000E9     5.578687469204172E-2    5.643571904577401E-1    5.339316093845314E-2   -1.513888479653782E-2    5.237293697293439E-2   -1.581092476012613E-2    1.815346730125888E-1    4.964322350482601E-1
 6.565771739750000E9     5.689162328316709E-2    5.640090043438288E-1    5.370947607462072E-2   -1.551938793244804E-2    5.285944850907622E-2   -1.619922993799312E-2    1.830975303619714E-1    4.957416108984428E-1
 6.565783489100000E9     5.786179413671393E-2    5.639107584896235E-1    5.411921699778313E-2   -1.573064227042903E-2    5.328067480309722E-2   -1.640136260179134E-2    1.845928093404864E-1    4.951518255406985E-1
 6.565795238450000E9     5.911488058775143E-2    5.637375626445020E-1    5.454008980440214E-2   -1.592667105716581E-2    5.366263469453046E-2   -1.675158651056471E-2    1.862049609376171E-1    4.944842429360121E-1
 6.565806987800000E9     6.016675488711189E-2    5.636001328544651E-1    5.491454045430573E-2   -1.633560950051169E-2    5.418907190872917E-2   -1.700307937365317E-2    1.877770868514000E-1    4.937653533513664E-1
 6.565818737150000E9     6.115780623405936E-2    5.633817084429660E-1    5.525794983586189E-2   -1.662130940865213E-2    5.454098203543223E-2   -1.740572607532229E-2    1.893949688163111E-1    4.930730565548676E-1
 6.565830486500000E9     6.234119639458750E-2    5.630682773621229E-1    5.573833030033757E-2   -1.693339992590278E-2    5.490953796940851E-2   -1.768099618339873E-2    1.910064638415493E-1    4.924092973113213E-1
