#  HZ   S   RI   R     50.00 
! Rohde & Schwarz Vector Network Analyzer 
! Rohde-Schwarz,ZNB20-2Port,1311601062101988,3.16
! Created: UTC 3/20/2024, 4:50:20 PM
! freq[Hz]                re:S11                  im:S11                  re:S21                  im:S21                  re:S12                  im:S12                  re:S22                  im:S22
 6.564770508000000E9    -2.936429056456277E-2    5.687982905548163E-1    3.229774305191770E-2   -2.445021931907677E-3    3.184009372757184E-2   -2.816126674537614E-3    7.516693176139556E-2    5.242401072065646E-1
 6.564782266075000E9    -2.841256317963196E-2    5.687513507102701E-1    3.250454348389308E-2   -2.392091195846687E-3    3.209138240007821E-2   -2.916755338523678E-3    7.613028389769937E-2    5.242879484571664E-1
 6.564794024150000E9    -2.741325132590236E-2    5.686571783167226E-1    3.270614066711100E-2   -2.417207024080453E-3    3.210977055316022E-2   -3.101709519705050E-3    7.740589858459757E-2    5.240471848517485E-1
 6.564805782225000E9    -2.655391641745863E-2    5.688044948532003E-1    3.290575214712952E-2   -2.644257001250090E-3    3.234042590491280E-2   -3.102726798228530E-3    7.838080082381738E-2    5.238199910310524E-1
 6.564817540300000E9    -2.555514101575145E-2    5.688432486617340E-1    3.306537382255171E-2   -2.662032087878977E-3    3.246303805776631E-2   -3.149448267878216E-3    7.955569993723174E-2    5.238411092300106E-1
 6.564829298375000E9    -2.464554992881495E-2    5.688668476877702E-1    3.317032158769170E-2   -2.636104727943747E-3    3.255403258424440E-2   -3.300434962317985E-3    8.070370203344183E-2    5.235089924909753E-1
 6.564841056450000E9    -2.360343033927295E-2    5.688838043172383E-1    3.338345773675110E-2   -2.778593373955018E-3    3.292659125523748E-2   -3.315504270150533E-3    8.176958681089307E-2    5.234841239232207E-1
 6.564852814525000E9    -2.266964790717571E-2    5.688989696842988E-1    3.347984072938839E-2   -2.865088753193203E-3    3.287296789396366E-2   -3.417000222634697E-3    8.305285488094694E-2    5.232456377896086E-1
 6.564864572600000E9    -2.182689729364781E-2    5.689669606741202E-1    3.369362056358044E-2   -2.980393332770998E-3    3.311542825315278E-2   -3.605857996150311E-3    8.401389028274285E-2    5.230729056876336E-1
 6.564876330675000E9    -2.073109385047858E-2    5.690373378981451E-1    3.376687302611255E-2   -3.120435086291361E-3    3.322001641645395E-2   -3.620324400548590E-3    8.510522666607165E-2    5.228853334164774E-1
 6.564888088750000E9    -1.970738977948726E-2    5.690412604205226E-1    3.400303431991257E-2   -3.131587074016954E-3    3.349473272593467E-2   -3.649824284013745E-3    8.629204626156511E-2    5.226519950943888E-1
 6.564899846825000E9    -1.879235514220957E-2    5.690421663585331E-1    3.422665896370840E-2   -3.286484471444751E-3    3.351047368141327E-2   -3.794046884479710E-3    8.735157802428904E-2    5.225322857025529E-1
 6.564911604900000E9    -1.774498894237501E-2    5.691710274462550E-1    3.432592598905010E-2   -3.399495244340010E-3    3.376637907189037E-2   -3.884931453373153E-3    8.847760667324105E-2    5.223582314473817E-1
 6.564923362975000E9    -1.687719110360613E-2    5.691265740937519E-1    3.455687333966141E-2   -3.598980007831868E-3    3.391114103452499E-2   -3.918222161257231E-3    8.970749136881805E-2    5.221740490143032E-1
 6.564935121050000E9    -1.600515596526344E-2    5.690800905590456E-1    3.469751851063319E-2   -3.593090674899515E-3    3.414074841321399E-2   -4.047303187104672E-3    9.069653908676685E-2    5.219636627361309E-1
 6.564946879125000E9    -1.492655104114299E-2    5.691580208018832E-1    3.495947881608658E-2   -3.715504782596714E-3    3.421139995123346E-2   -4.223146370832587E-3    9.176532655389444E-2    5.218987195183546E-1
 6.564958637200000E9    -1.402452697751798E-2    5.691272851248653E-1    3.488755714538551E-2   -3.782152900089698E-3    3.443629064080080E-2   -4.264387037103306E-3    9.295637257086725E-2    5.215160501270852E-1
 6.564970395275000E9    -1.306602533921019E-2    5.691399392520315E-1    3.516556456266239E-2   -3.714124346402606E-3    3.450330772960163E-2   -4.366114357801329E-3    9.416741583163997E-2    5.214100179527443E-1
 6.564982153350000E9    -1.211743814732666E-2    5.691697506192392E-1    3.540694493564297E-2   -4.038209636759803E-3    3.482630513357767E-2   -4.449807286384598E-3    9.535587739984393E-2    5.212719691613446E-1
 6.564993911425000E9    -1.103452782552094E-2    5.690719060678591E-1    3.566855632534333E-2   -3.906399710809205E-3    3.492287084365089E-2   -4.591232703125692E-3    9.641650068830918E-2    5.209702126194738E-1
 6.565005669500000E9    -1.013352772433169E-2    5.691481580861456E-1    3.581519663533302E-2   -4.195766805950445E-3    3.513910532127198E-2   -4.755999516059601E-3    9.746693696546384E-2    5.207816674280806E-1
 6.565017427575000E9    -9.101303680326626E-3    5.691928856613556E-1    3.585953428105069E-2   -4.184989789483371E-3    3.531342126055907E-2   -4.819010369684148E-3    9.881199316020686E-2    5.205430006019678E-1
 6.565029185650000E9    -8.144782340567267E-3    5.691839539241583E-1    3.622663522053910E-2   -4.444978705169461E-3    3.554906825880604E-2   -4.868516531510539E-3    9.988682727375001E-2    5.205191148588967E-1
 6.565040943725000E9    -7.168664172455597E-3    5.691742266689049E-1    3.639500688639418E-2   -4.443493911193066E-3    3.577978718193035E-2   -5.037808948398546E-3    1.011047473209590E-1    5.202274320965706E-1
 6.565052701800000E9    -6.156819376240165E-3    5.691185889157264E-1    3.657034177866719E-2   -4.494562548679803E-3    3.590965413551419E-2   -5.124197620297003E-3    1.022861421521867E-1    5.199322235409917E-1
 6.565064459875000E9    -5.109082579020466E-3    5.691299078756004E-1    3.671667539895169E-2   -4.745323955729538E-3    3.605963714906171E-2   -5.210243800101069E-3    1.032571987448840E-1    5.196522242379985E-1
 6.565076217950000E9    -4.152295611824357E-3    5.690581494997687E-1    3.682769253079531E-2   -4.908956956705384E-3    3.626610638079991E-2   -5.332741850288409E-3    1.045189322202916E-1    5.195001079672751E-1
 6.565087976025000E9    -3.216212752370949E-3    5.691588430622159E-1    3.701733205050750E-2   -4.958978980171432E-3    3.655466892134930E-2   -5.449277049090210E-3    1.057770748449383E-1    5.193585607893689E-1
 6.565099734100000E9    -2.243547373424972E-3    5.691280610237071E-1    3.738988619145722E-2   -5.073586776799792E-3    3.676008991897548E-2   -5.593204580243307E-3    1.069845823272421E-1    5.189468997047229E-1
 6.565111492175000E9    -1.215003851382608E-3    5.690354905955405E-1    3.748067011644569E-2   -5.094114901472713E-3    3.690730504892739E-2   -5.668476374320490E-3    1.081577388922112E-1    5.187794857333402E-1
 6.565123250250000E9    -2.259615049905071E-4    5.689145635210477E-1    3.771174475390806E-2   -5.285810547727900E-3    3.705931365286284E-2   -5.703873589024238E-3    1.093478985852232E-1    5.185216423084968E-1
 6.565135008325000E9     6.973109476192443E-4    5.690874453354463E-1    3.797033527169368E-2   -5.343269797334153E-3    3.728021578423537E-2   -5.849660480660223E-3    1.105103244070084E-1    5.183553315985541E-1
 6.565146766400000E9     1.766472999577524E-3    5.690191009370630E-1    3.807207784956024E-2   -5.525118812769938E-3    3.753947559862895E-2   -6.002268395499663E-3    1.116296223843631E-1    5.180573446950494E-1
 6.565158524475000E9     2.800229239611246E-3    5.689644068360543E-1    3.834541614943050E-2   -5.514177944067652E-3    3.785497391162284E-2   -6.012269174507015E-3    1.128128860996660E-1    5.177998557571627E-1
 6.565170282550000E9     3.693056574292444E-3    5.689340045570355E-1    3.850576396450123E-2   -5.620918385156536E-3    3.805371877617716E-2   -6.219832193170901E-3    1.139483155495098E-1    5.175699332668717E-1
 6.565182040625000E9     4.714432749709674E-3    5.690184437060695E-1    3.878540037030743E-2   -5.879509196025053E-3    3.813533258676285E-2   -6.387729468634749E-3    1.151942130739297E-1    5.171255000229096E-1
 6.565193798700000E9     5.625014010810514E-3    5.689098509571142E-1    3.897004258226661E-2   -6.021695979252716E-3    3.832005086755085E-2   -6.449525485555457E-3    1.164694250397343E-1    5.169653159491481E-1
 6.565205556775000E9     6.786859004959752E-3    5.689797040471192E-1    3.922614175510937E-2   -6.026299716843572E-3    3.859257279523913E-2   -6.662118558458986E-3    1.177051427561260E-1    5.166946712957612E-1
 6.565217314850000E9     7.648721418790911E-3    5.688454369172835E-1    3.942281849850997E-2   -6.200374003107792E-3    3.887426779304732E-2   -6.782871769609106E-3    1.189268167957037E-1    5.164436459325601E-1
 6.565229072925000E9     8.613943813544045E-3    5.687719941353330E-1    3.963491281623690E-2   -6.287490316892657E-3    3.914803965307352E-2   -6.862576370152255E-3    1.202049583889911E-1    5.160860132741237E-1
 6.565240831000000E9     9.659342545088653E-3    5.688525428927061E-1    3.986970853032216E-2   -6.488298152334011E-3    3.923110020957808E-2   -7.008746873951389E-3    1.213658407748995E-1    5.158188760564512E-1
 6.565252589075000E9     1.072999360246995E-2    5.687086064765858E-1    4.016711154851044E-2   -6.728178789595839E-3    3.947339668267912E-2   -7.187778464858050E-3    1.226141087168737E-1    5.153257413011382E-1
 6.565264347150000E9     1.168099373611001E-2    5.687024498265989E-1    4.050416117575367E-2   -6.754906426160096E-3    3.966123493422972E-2   -7.248281045755122E-3    1.237544701267571E-1    5.152881717457005E-1
 6.565276105225000E9     1.262729328601127E-2    5.686279621223599E-1    4.065699120968624E-2   -6.887309844772438E-3    3.988033920451781E-2   -7.431880015650229E-3    1.248971097714979E-1    5.148442062289325E-1
 6.565287863300000E9     1.371452076692706E-2    5.685351393979692E-1    4.102015493111708E-2   -7.064181018175498E-3    4.015880172222232E-2   -7.561155045847148E-3    1.263190509019151E-1    5.145429624192831E-1
 6.565299621375000E9     1.466205422472442E-2    5.685943175298668E-1    4.110139598996465E-2   -7.139512519737198E-3    4.040306659505333E-2   -7.688680909259924E-3    1.275244739931911E-1    5.143505690445750E-1
 6.565311379450000E9     1.566688336051339E-2    5.684954061738473E-1    4.133678405785433E-2   -7.410706886109683E-3    4.061147129929484E-2   -7.878917623279649E-3    1.288548759573905E-1    5.139246131013580E-1
 6.565323137525000E9     1.676828191508304E-2    5.684509180115479E-1    4.171057181797132E-2   -7.429796747587070E-3    4.093673650103015E-2   -8.083189477186180E-3    1.301481797184150E-1    5.135589278151941E-1
 6.565334895600000E9     1.778411301860789E-2    5.683965751938076E-1    4.181639433183760E-2   -7.600902589862639E-3    4.113029042928072E-2   -8.123865863681719E-3    1.314674349923401E-1    5.133300868412105E-1
 6.565346653675000E9     1.871610800521305E-2    5.683374276204169E-1    4.217143228971280E-2   -7.692853007362710E-3    4.138865836065664E-2   -8.441052347912016E-3    1.327508370609076E-1    5.128624915155544E-1
 6.565358411750000E9     1.973624679502749E-2    5.682793229097102E-1    4.241902085818540E-2   -7.981110264989131E-3    4.164633842239875E-2   -8.516357798046870E-3    1.339161485123515E-1    5.126073038475455E-1
 6.565370169825000E9     2.076493089194256E-2    5.681841708350283E-1    4.265916335688924E-2   -8.025542611207302E-3    4.188464431705066E-2   -8.735009178639933E-3    1.352087766488585E-1    5.123608836063940E-1
 6.565381927900000E9     2.175679322540479E-2    5.681041763059336E-1    4.301495391468946E-2   -8.279902085736470E-3    4.221968996920895E-2   -8.863022217894707E-3    1.363956437900412E-1    5.119107592475283E-1
 6.565393685975000E9     2.290846586355518E-2    5.680815958724976E-1    4.310720551581690E-2   -8.618125916172132E-3    4.240341097737306E-2   -8.900116904211565E-3    1.378668597682887E-1    5.115719604793055E-1
 6.565405444050000E9     2.392537594665433E-2    5.679901981312578E-1    4.346194735194547E-2   -8.550926444427072E-3    4.272518751095850E-2   -9.188785854614053E-3    1.390906330431159E-1    5.111675528630502E-1
 6.565417202125000E9     2.489353415567932E-2    5.680029588436275E-1    4.379367800281909E-2   -8.775417469645507E-3    4.291368457970353E-2   -9.289917664978522E-3    1.403709142756725E-1    5.107130844392552E-1
 6.565428960200000E9     2.592037074917913E-2    5.677652720703904E-1    4.395320070679977E-2   -8.928122785463705E-3    4.319430706418377E-2   -9.458695259214653E-3    1.417155958513882E-1    5.102841527380325E-1
 6.565440718275000E9     2.693502348853499E-2    5.677039728708595E-1    4.434237881690609E-2   -9.055304613476966E-3    4.354330468230119E-2   -9.670971979976760E-3    1.431162187583855E-1    5.100694594435037E-1
 6.565452476350000E9     2.791034657674943E-2    5.676660208887757E-1    4.452061873349945E-2   -9.444798568331046E-3    4.371431859023232E-2   -9.829748665195304E-3    1.441374217138523E-1    5.096053561439995E-1
 6.565464234425000E9     2.905345890170171E-2    5.675808630796065E-1    4.484212450303451E-2   -9.328573654405509E-3    4.412002673333359E-2   -9.929717426174418E-3    1.456119535157188E-1    5.091132149234956E-1
 6.565475992500000E9     2.998980715297937E-2    5.673856201958729E-1    4.502584999323212E-2   -9.675548395238565E-3    4.430321240183981E-2   -1.015198892641471E-2    1.469153167901539E-1    5.087233954448872E-1
 6.565487750575000E9     3.106129749639237E-2    5.674055552215630E-1    4.538291122139029E-2   -9.688955880652340E-3    4.460005253548678E-2   -1.042979602412801E-2    1.484265611372139E-1    5.084367648382740E-1
 6.565499508650000E9     3.209452105569058E-2    5.673334420405842E-1    4.567999845181375E-2   -9.883631238782522E-3    4.488258052096882E-2   -1.053118285183854E-2    1.496355931637000E-1    5.079760255113207E-1
 6.565511266725000E9     3.318283507443836E-2    5.671520092018213E-1    4.598209484726208E-2   -1.013545521333056E-2    4.518696623949974E-2   -1.079098377768705E-2    1.510755042459632E-1    5.074811361786794E-1
 6.565523024800000E9     3.402879964279332E-2    5.671460293497704E-1    4.638631964305176E-2   -1.036208567030387E-2    4.555227486297984E-2   -1.104813709253106E-2    1.523829729983101E-1    5.070229448499901E-1
 6.565534782875000E9     3.531792523640608E-2    5.669081855744744E-1    4.654555877235182E-2   -1.063232415504572E-2    4.580943924870567E-2   -1.114932699379415E-2    1.538182576967471E-1    5.066783779248383E-1
 6.565546540950000E9     3.623810157372222E-2    5.667973833137543E-1    4.682561878093369E-2   -1.082116471236567E-2    4.607337567401257E-2   -1.131416563419394E-2    1.551916584804057E-1    5.061872558871695E-1
 6.565558299025000E9     3.728837639619674E-2    5.667685352511782E-1    4.706263507508129E-2   -1.094957563627470E-2    4.648652158543111E-2   -1.155813421965396E-2    1.565298468677374E-1    5.057773684591395E-1
 6.565570057100000E9     3.836964515888696E-2    5.666911425804841E-1    4.759619783263233E-2   -1.119581848428156E-2    4.673522447040993E-2   -1.174496245284463E-2    1.579896226454748E-1    5.052200127202885E-1
 6.565581815175000E9     3.943028780122493E-2    5.665896598462385E-1    4.794067191536604E-2   -1.130289905532909E-2    4.699710977524115E-2   -1.204095665169667E-2    1.593983817767287E-1    5.047440837878017E-1
 6.565593573250000E9     4.045303685772477E-2    5.664615665520437E-1    4.834389266750166E-2   -1.156239468979793E-2    4.736772165699615E-2   -1.226138820664987E-2    1.607643094258151E-1    5.041639743319764E-1
 6.565605331325000E9     4.155884017268627E-2    5.663054616752502E-1    4.836064520440544E-2   -1.174116341006475E-2    4.786899435291356E-2   -1.245360924448919E-2    1.620672963868375E-1    5.037050856975602E-1
 6.565617089400000E9     4.263741180533098E-2    5.661412842981969E-1    4.884145359412517E-2   -1.214114661259487E-2    4.814522208151180E-2   -1.274568942863132E-2    1.637103089288888E-1    5.031894063984750E-1
 6.565628847475000E9     4.383762390180016E-2    5.659872216993904E-1    4.918617108712223E-2   -1.228117502919710E-2    4.834646066460222E-2   -1.277187050435964E-2    1.649899931307144E-1    5.027760725868428E-1
 6.565640605550000E9     4.472492822126230E-2    5.658695968830929E-1    4.971124877212414E-2   -1.257727622618734E-2    4.874803695148612E-2   -1.317269634974508E-2    1.664295539302781E-1    5.023788154058890E-1
 6.565652363625000E9     4.582376798973735E-2    5.657460367250123E-1    4.991015251421310E-2   -1.284318154164777E-2    4.904231772522889E-2   -1.338124712961587E-2    1.677982985425248E-1    5.016606944386118E-1
 6.565664121700000E9     4.682462993951100E-2    5.656340294633428E-1    5.029411787553448E-2   -1.299734699454527E-2    4.950125308127093E-2   -1.354806955962524E-2    1.694216076984434E-1    5.011870580389796E-1
 6.565675879775000E9     4.802481288815564E-2    5.654723570835696E-1    5.076329294506349E-2   -1.325350391313219E-2    4.976517097467620E-2   -1.394228958253469E-2    1.707591015376235E-1    5.006349074997511E-1
 6.565687637850000E9     4.905575647210732E-2    5.653110853243211E-1    5.091576514640307E-2   -1.353399078489846E-2    5.007642984608816E-2   -1.406433689677104E-2    1.722992530297640E-1    5.000316328467596E-1
 6.565699395925000E9     5.013741841846329E-2    5.651166784970949E-1    5.137537859096131E-2   -1.369825370674702E-2    5.047642757675085E-2   -1.436159396596079E-2    1.737436582059080E-1    4.994714752650558E-1
 6.565711154000000E9     5.122565640780532E-2    5.650485263611298E-1    5.173962190946753E-2   -1.402727136573202E-2    5.096056887991369E-2   -1.463168922132105E-2    1.754072421683638E-1    4.988847102952081E-1
 6.565722912075000E9     5.231206586515762E-2    5.647432215401876E-1    5.218969002717449E-2   -1.419148802539318E-2    5.125986955162120E-2   -1.487180300002507E-2    1.766898413386198E-1    4.984300342567599E-1
 6.565734670150000E9     5.345552770402870E-2    5.646674037842646E-1    5.252904400420008E-2   -1.452134264649727E-2    5.166635675017374E-2   -1.527265039560253E-2    1.782026944231233E-1    4.977135178904651E-1
 6.565746428225000E9     5.448487865787047E-2    5.643619410003157E-1    5.282701281591051E-2   -1.489143770017727E-2    5.206269463493212E-2   -1.543698793554199E-2    1.798746433709818E-1    4.971749364453588E-1
 6.565758186300000E9     5.566864537207764E-2    5.643710485367290E-1    5.327483391183813E-2   -1.503034325667389E-2    5.248617436159164E-2   -1.574110778505733E-2    1.814948849509602E-1    4.964076168212712E-1
 6.565769944375000E9     5.673046496606378E-2    5.641473641848617E-1    5.364104455090467E-2   -1.551284090842106E-2    5.280063653289174E-2   -1.604643759831769E-2    1.828457693583890E-1    4.957848135985031E-1
 6.565781702450000E9     5.776575236620390E-2    5.638714214213455E-1    5.401462740675968E-2   -1.589980755721871E-2    5.326071283246004E-2   -1.632916420768962E-2    1.844200823598343E-1    4.952834826371073E-1
 6.565793460525000E9     5.890218162348942E-2    5.637824715176085E-1    5.444006009284193E-2   -1.601310614102890E-2    5.364051727690795E-2   -1.667745484431893E-2    1.860908404611553E-1    4.945084474737186E-1
 6.565805218600000E9     5.992134711807205E-2    5.635903585678008E-1    5.487467194469666E-2   -1.631219850206666E-2    5.409011190276437E-2   -1.700193775302367E-2    1.875894214836446E-1    4.937159919229571E-1
 6.565816976675000E9     6.107190546431279E-2    5.632740988487243E-1    5.534130218041583E-2   -1.655098231120195E-2    5.449627196287459E-2   -1.735424477658915E-2    1.892479347631583E-1    4.931686741343632E-1
 6.565828734750000E9     6.215829114396894E-2    5.630861202118618E-1    5.586917205004126E-2   -1.713808124818476E-2    5.493433206756509E-2   -1.760176435052322E-2    1.906499064334634E-1    4.924859836782865E-1
