#  HZ   S   RI   R     50.00 
! Rohde & Schwarz Vector Network Analyzer 
! Rohde-Schwarz,ZNB20-2Port,1311601062101988,3.16
! Created: UTC 3/20/2024, 5:06:04 PM
! freq[Hz]                re:S11                  im:S11                  re:S21                  im:S21                  re:S12                  im:S12                  re:S22                  im:S22
 6.564215097000000E9    -7.372258238326103E-2    5.642666376191133E-1    2.696351190644741E-2    1.616615121821299E-4    2.655675654799491E-2   -3.164363845334192E-4    2.540847267272216E-2    5.246270695676114E-1
 6.564229192425000E9    -7.268873036858235E-2    5.643903245130851E-1    2.713139411305365E-2    1.813908005905471E-4    2.666597461264772E-2   -2.798902725383648E-4    2.666443512097860E-2    5.244548254399070E-1
 6.564243287850000E9    -7.145281371491469E-2    5.645258038522627E-1    2.742688828187343E-2    6.704499238490842E-5    2.680964224298339E-2   -4.663228658692149E-4    2.787189996685897E-2    5.245817660057992E-1
 6.564257383275000E9    -7.037252122723983E-2    5.645952786211903E-1    2.733812997507373E-2    1.253966626891414E-4    2.690941404426864E-2   -5.178587780523471E-4    2.904843823328362E-2    5.244759146548962E-1
 6.564271478700000E9    -6.940348932433758E-2    5.647151578020331E-1    2.753208795797934E-2   -4.349848207762558E-5    2.712067608201809E-2   -5.603300242725511E-4    3.016956797446168E-2    5.243544361998538E-1
 6.564285574125000E9    -6.827566684547567E-2    5.648447591961511E-1    2.768618543073519E-2   -2.470513464342378E-4    2.709380911605721E-2   -6.420237289834680E-4    3.154624758976814E-2    5.242088069285009E-1
 6.564299669550000E9    -6.698117962820337E-2    5.650588769430324E-1    2.774860988048549E-2   -1.854463229393899E-4    2.737373585761110E-2   -7.589544086433753E-4    3.275844343918857E-2    5.243377291029939E-1
 6.564313764975000E9    -6.598476470102020E-2    5.651240880891099E-1    2.795959163825951E-2   -1.650936895476187E-4    2.736934766904887E-2   -8.655307789425697E-4    3.390689006059523E-2    5.241981040257322E-1
 6.564327860400000E9    -6.491655990484042E-2    5.653305104917524E-1    2.798575069185310E-2   -4.330302671807970E-4    2.776567940953672E-2   -8.500788641950519E-4    3.512174861968217E-2    5.241515428635209E-1
 6.564341955825000E9    -6.377801770990378E-2    5.654066670918712E-1    2.836795118682009E-2   -4.082564505877949E-4    2.770898792198687E-2   -9.550643736460656E-4    3.630151889168620E-2    5.240332189083099E-1
 6.564356051250000E9    -6.260807167406404E-2    5.654033121868448E-1    2.838474945892991E-2   -4.595000161029124E-4    2.793537014598926E-2   -1.116196711859857E-3    3.766068561111501E-2    5.239090682630612E-1
 6.564370146675000E9    -6.154056233476447E-2    5.654834732356083E-1    2.849695226518454E-2   -6.029423739554599E-4    2.811562829224368E-2   -1.071861307005919E-3    3.894262655448594E-2    5.239316451434251E-1
 6.564384242100000E9    -6.042479481926288E-2    5.658810243549474E-1    2.863748159656313E-2   -6.129066531312578E-4    2.822762040386775E-2   -1.120665050388081E-3    3.999288199857779E-2    5.240286019878631E-1
 6.564398337525000E9    -5.924414346064470E-2    5.658793011087893E-1    2.889205194525190E-2   -6.485782564039865E-4    2.834964469986434E-2   -1.178584232623022E-3    4.129808794868658E-2    5.238383761887921E-1
 6.564412432950000E9    -5.822874943561349E-2    5.660472924770771E-1    2.897405005986660E-2   -7.749064546413960E-4    2.844535010705340E-2   -1.300943542805208E-3    4.243139762738781E-2    5.236619584301067E-1
 6.564426528375000E9    -5.702311206222172E-2    5.659459941910737E-1    2.911146728113240E-2   -9.058313654677188E-4    2.863553948985517E-2   -1.427793586223402E-3    4.374486635347025E-2    5.235623421502306E-1
 6.564440623800000E9    -5.596156468545210E-2    5.661662114928145E-1    2.923333514722431E-2   -8.893500952035036E-4    2.877859317133818E-2   -1.334846854610257E-3    4.496866747920238E-2    5.234644318844081E-1
 6.564454719225000E9    -5.477485991121316E-2    5.662779266106738E-1    2.940322884928216E-2   -1.048100723207324E-3    2.889520760064861E-2   -1.501409995189205E-3    4.613738827817872E-2    5.234687217327344E-1
 6.564468814650000E9    -5.348946117975262E-2    5.663401259958194E-1    2.948649175327557E-2   -1.056383822678240E-3    2.907352617966841E-2   -1.673034327488766E-3    4.744265409688567E-2    5.233486540422725E-1
 6.564482910075000E9    -5.255006518730462E-2    5.664709055672451E-1    2.981952038963924E-2   -1.088748717519637E-3    2.932923888462450E-2   -1.621427072196102E-3    4.868882244219348E-2    5.230938857004840E-1
 6.564497005500000E9    -5.141583371664302E-2    5.665158690249626E-1    2.984044301312258E-2   -1.210582030322597E-3    2.938717695143375E-2   -1.764553849215707E-3    4.996514345639647E-2    5.231079524509502E-1
 6.564511100925000E9    -5.030556699367577E-2    5.666358881126961E-1    3.001582071642368E-2   -1.432325466568563E-3    2.957196192727727E-2   -1.854591104656138E-3    5.127356841294393E-2    5.229579648264217E-1
 6.564525196350000E9    -4.916641923737314E-2    5.667883978728441E-1    3.023649951379987E-2   -1.317901639316615E-3    2.967344564115145E-2   -1.901612665263314E-3    5.243297096294696E-2    5.229687550348860E-1
 6.564539291775000E9    -4.800151320844590E-2    5.667853453279167E-1    3.049714800264279E-2   -1.626541289968027E-3    2.994445576451606E-2   -2.008762530213464E-3    5.376630555910270E-2    5.227942435162173E-1
 6.564553387200000E9    -4.688423357892555E-2    5.668777052729624E-1    3.042726821250248E-2   -1.455506026924007E-3    3.007920592951915E-2   -2.119103118082458E-3    5.501203527916134E-2    5.226317384129285E-1
 6.564567482625000E9    -4.577602816746970E-2    5.670407766982712E-1    3.079691558627107E-2   -1.712769701791197E-3    3.020172997557976E-2   -2.109321157200299E-3    5.621872111576243E-2    5.226356818473572E-1
 6.564581578050000E9    -4.470735771475945E-2    5.670144764435258E-1    3.083961933452302E-2   -1.731194507786539E-3    3.049909248928939E-2   -2.271712388735480E-3    5.757191427558964E-2    5.222668675994211E-1
 6.564595673475000E9    -4.354933536324069E-2    5.671853142330009E-1    3.098782287667873E-2   -1.893024682565408E-3    3.059028898567105E-2   -2.350668098616037E-3    5.891038505269816E-2    5.222663415378114E-1
 6.564609768900000E9    -4.234068605003410E-2    5.671398114052330E-1    3.129255344061548E-2   -1.964926470262029E-3    3.074026964849857E-2   -2.404571870532836E-3    6.021398421246922E-2    5.220258172142211E-1
 6.564623864325000E9    -4.123987971055353E-2    5.671255603646405E-1    3.137286149294310E-2   -2.005799213350750E-3    3.092261035771541E-2   -2.453742820701393E-3    6.137739636601856E-2    5.219286102534568E-1
 6.564637959750000E9    -4.009337304863009E-2    5.672488727572956E-1    3.171053598320243E-2   -2.012562898208249E-3    3.097288842226814E-2   -2.641072855762047E-3    6.274517183723581E-2    5.219210929132089E-1
 6.564652055175000E9    -3.894228911595329E-2    5.674231597006422E-1    3.178434819125393E-2   -2.318432143147895E-3    3.127868448567760E-2   -2.722898858988212E-3    6.384353069004385E-2    5.216180535144976E-1
 6.564666150600000E9    -3.772592833620160E-2    5.673963651590429E-1    3.189845212157775E-2   -2.371688345801892E-3    3.139638068347918E-2   -2.851293699527116E-3    6.513135416670522E-2    5.216357341414404E-1
 6.564680246025000E9    -3.669175551057930E-2    5.675467649071690E-1    3.216418129458948E-2   -2.311681348456972E-3    3.165482908100936E-2   -2.840414469094063E-3    6.659416123864594E-2    5.213696685972663E-1
 6.564694341450000E9    -3.555817543197994E-2    5.673884033256842E-1    3.234649944217404E-2   -2.554306982560069E-3    3.171848043386858E-2   -3.093805349452800E-3    6.779329460356494E-2    5.212908428737054E-1
 6.564708436875000E9    -3.444676700084419E-2    5.676367244739673E-1    3.246103229860313E-2   -2.642029360757109E-3    3.183413298177028E-2   -3.089690552821846E-3    6.920090474036926E-2    5.209521417516907E-1
 6.564722532300000E9    -3.323896181089259E-2    5.676767151274752E-1    3.273417479104090E-2   -2.830683428325397E-3    3.211338596655026E-2   -3.233712116508938E-3    7.042433755759551E-2    5.208337859962122E-1
 6.564736627725000E9    -3.205293984185973E-2    5.677805433134260E-1    3.289109363746030E-2   -2.793383411519346E-3    3.229914584463683E-2   -3.339445475001188E-3    7.165198177109253E-2    5.205566964571072E-1
 6.564750723150000E9    -3.090917525563907E-2    5.677916011766618E-1    3.315258197590506E-2   -2.988434921996390E-3    3.250210745684903E-2   -3.393427194270183E-3    7.301321347447540E-2    5.204568606039690E-1
 6.564764818575000E9    -2.973302635281890E-2    5.677769840394263E-1    3.328219678591047E-2   -2.998841812427439E-3    3.282324202306388E-2   -3.609469241944249E-3    7.438926409995703E-2    5.203128758769432E-1
 6.564778914000000E9    -2.866141116312239E-2    5.677790318633394E-1    3.355958670791274E-2   -3.142585488862901E-3    3.282580640796957E-2   -3.606576301293794E-3    7.561884641309866E-2    5.199416150789128E-1
 6.564793009425000E9    -2.752587169741414E-2    5.678874701034492E-1    3.358746787170259E-2   -3.280905960693036E-3    3.297955473104167E-2   -3.795117106375224E-3    7.714787938846482E-2    5.197962057866249E-1
 6.564807104850000E9    -2.635387536265407E-2    5.679447670445952E-1    3.389808336331181E-2   -3.222339767419859E-3    3.329581806454111E-2   -3.930800993606388E-3    7.848329336243276E-2    5.198015773776238E-1
 6.564821200275000E9    -2.523497867820583E-2    5.679365490950120E-1    3.394787277496211E-2   -3.472248687158005E-3    3.352962639342841E-2   -3.872094576606022E-3    7.977695031889388E-2    5.194496033619868E-1
 6.564835295700000E9    -2.399701335264824E-2    5.679549711213591E-1    3.419736788673701E-2   -3.561101803895237E-3    3.368674435835828E-2   -4.136476571224185E-3    8.103704023013476E-2    5.192584203791095E-1
 6.564849391125000E9    -2.291893832352884E-2    5.680294845160255E-1    3.447840749561824E-2   -3.786398024510686E-3    3.385776562143094E-2   -4.299976919856321E-3    8.235447031667921E-2    5.191396268241397E-1
 6.564863486550000E9    -2.181070986700265E-2    5.680651186012770E-1    3.465845309080187E-2   -3.883754763449777E-3    3.408064589411242E-2   -4.308417682755862E-3    8.371067492054080E-2    5.189831275268142E-1
 6.564877581975000E9    -2.058909399403438E-2    5.680392740166664E-1    3.479291133797256E-2   -4.029074864844554E-3    3.429227391005751E-2   -4.510152931434795E-3    8.505279023459869E-2    5.185490703823031E-1
 6.564891677400000E9    -1.934171882895725E-2    5.682015595904056E-1    3.521232929003221E-2   -4.149386262994477E-3    3.450161274676642E-2   -4.573287746068530E-3    8.640800355012634E-2    5.183649372979605E-1
 6.564905772825000E9    -1.830795216291841E-2    5.681987257855887E-1    3.544946219755260E-2   -4.257586964567561E-3    3.469733558423290E-2   -4.610696016793959E-3    8.777851207207525E-2    5.182427285421898E-1
 6.564919868250000E9    -1.702152138388721E-2    5.680968146951668E-1    3.553474067947621E-2   -4.308358401707370E-3    3.496760587801419E-2   -4.855093113175194E-3    8.925669583000174E-2    5.179600040050374E-1
 6.564933963675000E9    -1.591356312488406E-2    5.681274908546083E-1    3.577353129016830E-2   -4.479673993846353E-3    3.524448383350352E-2   -4.978752451328549E-3    9.051656081186248E-2    5.176697625542003E-1
 6.564948059100000E9    -1.472227921519100E-2    5.681059793849542E-1    3.599720475336806E-2   -4.624650879809525E-3    3.536968295535117E-2   -5.174607424201858E-3    9.191928998639985E-2    5.173591313433723E-1
 6.564962154525000E9    -1.348197314218807E-2    5.682017673615556E-1    3.628424531510742E-2   -4.715895527041289E-3    3.564866220231235E-2   -5.238802165817768E-3    9.325081341899229E-2    5.171829044907682E-1
 6.564976249950000E9    -1.239685944694444E-2    5.682793457675498E-1    3.639046060161431E-2   -4.879671389336959E-3    3.576479208031101E-2   -5.453585960639553E-3    9.463519407028428E-2    5.167877911773462E-1
 6.564990345375000E9    -1.126595977220668E-2    5.681999846016740E-1    3.664266174875834E-2   -5.103578436119595E-3    3.602100071663035E-2   -5.445168633092740E-3    9.588217047049506E-2    5.165973307316334E-1
 6.565004440800000E9    -9.926124197062085E-3    5.681984174348150E-1    3.706858430759475E-2   -5.199804379163836E-3    3.626707400269807E-2   -5.663612336363829E-3    9.739766253458611E-2    5.162962384428238E-1
 6.565018536225000E9    -8.813651269581970E-3    5.681273300636084E-1    3.722373543522172E-2   -5.247910875381909E-3    3.657866118851538E-2   -5.882713092016743E-3    9.878137811206203E-2    5.161616149467502E-1
 6.565032631650000E9    -7.671775363083501E-3    5.681893230206333E-1    3.755056666225579E-2   -5.440709086651953E-3    3.675065270188144E-2   -5.976059769073494E-3    1.003636925306851E-1    5.159388023346748E-1
 6.565046727075000E9    -6.531144424469251E-3    5.681484012421929E-1    3.778394276227382E-2   -5.498102982987731E-3    3.702761461045228E-2   -6.101029279175243E-3    1.016458553937463E-1    5.154765959579680E-1
 6.565060822500000E9    -5.218690038977153E-3    5.681524936959661E-1    3.782405284493986E-2   -5.682909795027987E-3    3.725483920868991E-2   -6.347451166398337E-3    1.031177124920474E-1    5.151700278047957E-1
 6.565074917925000E9    -4.054059459887691E-3    5.680080629436638E-1    3.810137435798125E-2   -5.900000963915291E-3    3.742880794408359E-2   -6.367321408942922E-3    1.043920844432543E-1    5.148935804511323E-1
 6.565089013350000E9    -3.036337479519887E-3    5.680793188700841E-1    3.841377870633565E-2   -6.059562104536930E-3    3.778724639442889E-2   -6.451224378675285E-3    1.059378621966995E-1    5.148001424048773E-1
 6.565103108775000E9    -1.760419992594488E-3    5.680253342024761E-1    3.869773276806080E-2   -6.201007749981727E-3    3.804100640560912E-2   -6.751115122847547E-3    1.073435566498952E-1    5.144049846028991E-1
 6.565117204200000E9    -5.495316083916986E-4    5.679689757871907E-1    3.879200795650826E-2   -6.293163049157116E-3    3.831912749776618E-2   -6.891957254747069E-3    1.086624308180776E-1    5.139487584029703E-1
 6.565131299625000E9     6.614615621912865E-4    5.679854500488133E-1    3.924194648621747E-2   -6.450916844439427E-3    3.859072820820880E-2   -7.074294883111071E-3    1.101611998020302E-1    5.135890902202652E-1
 6.565145395050000E9     1.841338995353306E-3    5.679338900491009E-1    3.944670671744076E-2   -6.688463761108648E-3    3.865599025501150E-2   -7.148420535735901E-3    1.116280854257341E-1    5.133271936399393E-1
 6.565159490475000E9     3.070551011279532E-3    5.678557432239311E-1    3.964110684034416E-2   -6.843876744191612E-3    3.907679111538402E-2   -7.272656282368379E-3    1.131360947551903E-1    5.128765579831902E-1
 6.565173585900000E9     4.202853229598841E-3    5.677298820259007E-1    3.995882668169028E-2   -6.954827615111027E-3    3.928301277720850E-2   -7.502044290267231E-3    1.144694165309902E-1    5.125094118320890E-1
 6.565187681325000E9     5.363808913218619E-3    5.677233547855807E-1    4.029635162603717E-2   -7.177511848529403E-3    3.948865972217180E-2   -7.744590350092651E-3    1.159914620782987E-1    5.122746665654122E-1
 6.565201776750000E9     6.589058569245083E-3    5.677574141135374E-1    4.054297366379898E-2   -7.367982571842418E-3    3.999856621113636E-2   -7.972407791730401E-3    1.175066422040889E-1    5.118978814523125E-1
 6.565215872175000E9     7.852884741785606E-3    5.677277747588968E-1    4.077026675051230E-2   -7.442045677006765E-3    4.003122113386849E-2   -8.127591642802343E-3    1.188841251576960E-1    5.115031912770283E-1
 6.565229967600000E9     9.038130131336027E-3    5.675899501123921E-1    4.105556554831043E-2   -7.931291334120408E-3    4.036054921888380E-2   -8.230211120948338E-3    1.204247449151981E-1    5.109789685620615E-1
 6.565244063025000E9     1.025952177646389E-2    5.675477375080219E-1    4.131263162708551E-2   -7.910648703944029E-3    4.071376875108497E-2   -8.522094031654026E-3    1.219119225038924E-1    5.106726142868414E-1
 6.565258158450000E9     1.147415823340988E-2    5.675818142453816E-1    4.169257690353004E-2   -7.955148183219858E-3    4.098896481746404E-2   -8.579781392125931E-3    1.235177621937053E-1    5.102691814718591E-1
 6.565272253875000E9     1.271034262532668E-2    5.673797850357103E-1    4.207960715045225E-2   -8.200987978431462E-3    4.120785786458801E-2   -8.895412951504957E-3    1.250589519536330E-1    5.098767465971986E-1
 6.565286349300000E9     1.398381084584007E-2    5.672802440998004E-1    4.225041670504088E-2   -8.486090599653580E-3    4.162163910544720E-2   -9.010049811513472E-3    1.264311181685802E-1    5.094379826590012E-1
 6.565300444725000E9     1.497405568659408E-2    5.672257102297272E-1    4.266416121187853E-2   -8.625691461255946E-3    4.187201018451173E-2   -9.220787902340261E-3    1.281819859353187E-1    5.089439487306627E-1
 6.565314540150000E9     1.632270296582221E-2    5.671860642789870E-1    4.290192697585283E-2   -8.842943280011265E-3    4.215304341653362E-2   -9.446597490032625E-3    1.295503481040133E-1    5.086060447038865E-1
 6.565328635575000E9     1.749236979622927E-2    5.671132585053299E-1    4.315718037782955E-2   -9.092647772438409E-3    4.254776194048579E-2   -9.663088565428690E-3    1.311071094595694E-1    5.083494694565834E-1
 6.565342731000000E9     1.867445901361341E-2    5.668755766544371E-1    4.361830476308062E-2   -9.376481501390468E-3    4.286295380696006E-2   -9.798358227287376E-3    1.326203357023915E-1    5.076060178524632E-1
 6.565356826425000E9     1.998770239804848E-2    5.669749600927394E-1    4.401294198415132E-2   -9.526539742537430E-3    4.312364331929122E-2   -9.946101926475295E-3    1.342706512148582E-1    5.071970384300319E-1
 6.565370921850000E9     2.122144433435489E-2    5.668001221295919E-1    4.431154187201337E-2   -9.674950712918084E-3    4.353737647677663E-2   -1.031503022400319E-2    1.358264782592574E-1    5.067745366257540E-1
 6.565385017275000E9     2.241462613877449E-2    5.668953257915064E-1    4.462111128770854E-2   -9.992127027357522E-3    4.385224577310277E-2   -1.053491356252039E-2    1.372943655261344E-1    5.062809557735847E-1
 6.565399112700000E9     2.363733922963497E-2    5.667319256449843E-1    4.497656155333342E-2   -1.009686788611179E-2    4.421914507099189E-2   -1.074957287251480E-2    1.388775920954235E-1    5.056395876366202E-1
 6.565413208125000E9     2.492273245348455E-2    5.664590938563460E-1    4.512828596738551E-2   -1.036326293905332E-2    4.448967800670187E-2   -1.104916649489540E-2    1.405281618354010E-1    5.052675132219718E-1
 6.565427303550000E9     2.615440239883051E-2    5.663639801687408E-1    4.559915850326975E-2   -1.066716452929547E-2    4.487032475668123E-2   -1.125530269171172E-2    1.422252498641693E-1    5.046697317919723E-1
 6.565441398975000E9     2.743567686135456E-2    5.664122414242073E-1    4.595132288536703E-2   -1.091998696064645E-2    4.519642795452689E-2   -1.154635143803579E-2    1.437857141737937E-1    5.041354061974678E-1
 6.565455494400000E9     2.866266168302152E-2    5.661303022507284E-1    4.626542237271709E-2   -1.122476771379320E-2    4.554385836909550E-2   -1.175421814401482E-2    1.453237668545559E-1    5.035092317766705E-1
 6.565469589825000E9     2.983127330683035E-2    5.660360762223283E-1    4.668002922332170E-2   -1.143602796422130E-2    4.585882252811743E-2   -1.200055951899564E-2    1.469646403206439E-1    5.029690584992819E-1
 6.565483685250000E9     3.118106797701869E-2    5.658578821605430E-1    4.699185569720329E-2   -1.166345248707448E-2    4.620222703631975E-2   -1.233153360579394E-2    1.486632707488476E-1    5.025235389415331E-1
