#  HZ   S   RI   R     50.00 
! Rohde & Schwarz Vector Network Analyzer 
! Rohde-Schwarz,ZNB20-2Port,1311601062101988,3.16
! Created: UTC 3/20/2024, 4:50:57 PM
! freq[Hz]                re:S11                  im:S11                  re:S21                  im:S21                  re:S12                  im:S12                  re:S22                  im:S22
 6.564711844000000E9    -3.421587349567792E-2    5.683539959915799E-1    3.171310607798508E-2   -2.046555489945817E-3    3.124157770347969E-2   -2.621156574070717E-3    6.965738322417697E-2    5.249425678609059E-1
 6.564723841775000E9    -3.318595494669715E-2    5.684559715852359E-1    3.188229730003843E-2   -2.204809664282820E-3    3.142904789063399E-2   -2.688352659259415E-3    7.085978200734840E-2    5.246956050530884E-1
 6.564735839550000E9    -3.219780133386703E-2    5.686239958046901E-1    3.210274008127918E-2   -2.178944541767049E-3    3.151158547711881E-2   -2.734899270784961E-3    7.196980388406087E-2    5.246111458662067E-1
 6.564747837325000E9    -3.120837549849066E-2    5.685545419602414E-1    3.217412793741400E-2   -2.254850249930535E-3    3.167256167474575E-2   -2.817615484323059E-3    7.312872194862466E-2    5.243841788645143E-1
 6.564759835100000E9    -3.031303652084262E-2    5.686584622674654E-1    3.237362625197619E-2   -2.357707240419570E-3    3.188094620348315E-2   -2.829333186767513E-3    7.409095781976241E-2    5.242458639307365E-1
 6.564771832875000E9    -2.929567050822487E-2    5.686929811397219E-1    3.255673162105651E-2   -2.269628623219052E-3    3.192775746582474E-2   -2.927181789385105E-3    7.518498122179536E-2    5.240978781723203E-1
 6.564783830650000E9    -2.820160435986742E-2    5.687241366474278E-1    3.265826406093768E-2   -2.717712370864042E-3    3.220728817106470E-2   -3.050302898920135E-3    7.634122514392823E-2    5.238793180488622E-1
 6.564795828425000E9    -2.735564413129997E-2    5.687259768521968E-1    3.273374010469068E-2   -2.643163291353992E-3    3.229354915920533E-2   -3.230238908612870E-3    7.746271534555739E-2    5.236800596436247E-1
 6.564807826200000E9    -2.629162860955358E-2    5.688027304411905E-1    3.291214923185350E-2   -2.657094806880707E-3    3.251315910297692E-2   -3.281844750876427E-3    7.867079993344017E-2    5.236603442069135E-1
 6.564819823975000E9    -2.533692208000166E-2    5.687506974082098E-1    3.329734301813942E-2   -2.781161759359974E-3    3.265444078083216E-2   -3.270656327801055E-3    7.977062609242207E-2    5.235845212918547E-1
 6.564831821750000E9    -2.446995397739025E-2    5.688710008361124E-1    3.331299481627888E-2   -2.805530505991733E-3    3.279915553878674E-2   -3.330731316587818E-3    8.088601766211259E-2    5.232901387173152E-1
 6.564843819525000E9    -2.334925550291742E-2    5.688094848645087E-1    3.360543060997073E-2   -2.932672631397446E-3    3.286187788276267E-2   -3.512426499551061E-3    8.198991936572567E-2    5.232116878723527E-1
 6.564855817300000E9    -2.237359694422462E-2    5.688390386959937E-1    3.359763511008716E-2   -3.009612441684030E-3    3.305917979393144E-2   -3.558334584820596E-3    8.311060505043756E-2    5.228268033467839E-1
 6.564867815075000E9    -2.137049145094081E-2    5.688742383314890E-1    3.386532676612069E-2   -3.195579495145325E-3    3.328597807163357E-2   -3.576885056747365E-3    8.428354656999706E-2    5.227516427230008E-1
 6.564879812850000E9    -2.040138657240888E-2    5.689796388047946E-1    3.399806322154246E-2   -3.129758110504137E-3    3.340802398404203E-2   -3.810604384947753E-3    8.543610505527646E-2    5.225455442308110E-1
 6.564891810625000E9    -1.946568967583752E-2    5.689351328412824E-1    3.412435320372237E-2   -3.328096816826862E-3    3.358108704398000E-2   -3.850858105549946E-3    8.658762723688809E-2    5.224067984392454E-1
 6.564903808400000E9    -1.851485907171052E-2    5.690314344484771E-1    3.429240873157350E-2   -3.391418490584786E-3    3.379315805982205E-2   -3.934127949330438E-3    8.765520031325998E-2    5.223429813439956E-1
 6.564915806175000E9    -1.743927516508944E-2    5.689150255850445E-1    3.458960537487071E-2   -3.540006158491834E-3    3.406352130015947E-2   -4.072666978447584E-3    8.892896238814789E-2    5.220567343186563E-1
 6.564927803950000E9    -1.658507106321767E-2    5.689754407678059E-1    3.486959483130305E-2   -3.700466639337503E-3    3.416464616067953E-2   -4.143516750277833E-3    9.005014508260693E-2    5.218219416081904E-1
 6.564939801725000E9    -1.557407692242597E-2    5.690773418398402E-1    3.479977223850845E-2   -3.646644036603532E-3    3.436124160508328E-2   -4.156204253940250E-3    9.121226662109051E-2    5.217060555942578E-1
 6.564951799500000E9    -1.444583228645199E-2    5.690272975063867E-1    3.512123405095484E-2   -3.747283593732607E-3    3.452210253413731E-2   -4.310436553211455E-3    9.229296645452484E-2    5.214581481868249E-1
 6.564963797275000E9    -1.350728915278334E-2    5.690560535217006E-1    3.535883440000105E-2   -3.863077017788070E-3    3.472074091885137E-2   -4.487002360633413E-3    9.361893211250426E-2    5.213162518886967E-1
 6.564975795050000E9    -1.253454137128523E-2    5.690768640032260E-1    3.543312040910401E-2   -4.007701548398196E-3    3.492960538731377E-2   -4.551378974140686E-3    9.471378825105910E-2    5.209957168618192E-1
 6.564987792825000E9    -1.155022019636821E-2    5.689494028295500E-1    3.569709767633290E-2   -4.092222581085993E-3    3.504929788264362E-2   -4.668334915096881E-3    9.584155382914716E-2    5.208157680373389E-1
 6.564999790600000E9    -1.052503269560382E-2    5.690917176731450E-1    3.589489863790896E-2   -4.064311003091475E-3    3.529091079469846E-2   -4.696382364211406E-3    9.691170800305048E-2    5.207027080061306E-1
 6.565011788375000E9    -9.590653943392868E-3    5.690286239458389E-1    3.614799132268419E-2   -4.367523503494911E-3    3.542216690644855E-2   -4.822714309599804E-3    9.812234159887925E-2    5.205166239812412E-1
 6.565023786150000E9    -8.522850149977760E-3    5.690572138397426E-1    3.620169790454551E-2   -4.503469422522970E-3    3.563998591068617E-2   -4.885419941086265E-3    9.935933972103915E-2    5.202759871520083E-1
 6.565035783925000E9    -7.639890817881976E-3    5.691489545840086E-1    3.640576060526935E-2   -4.493779500240395E-3    3.581457546768951E-2   -5.094441699591292E-3    1.005091220714840E-1    5.200900985584214E-1
 6.565047781700000E9    -6.492968914634203E-3    5.690556689586644E-1    3.669589570542670E-2   -4.780133335192232E-3    3.607753459691242E-2   -5.188471973045517E-3    1.017060238393478E-1    5.197234709865074E-1
 6.565059779475000E9    -5.565814135961592E-3    5.690842613202053E-1    3.682714134327791E-2   -4.634377342774638E-3    3.618099717167053E-2   -5.274910813669383E-3    1.028436342855573E-1    5.195099254008543E-1
 6.565071777250000E9    -4.599213916769050E-3    5.690542225641171E-1    3.705427007713352E-2   -4.752759433058912E-3    3.633738052419237E-2   -5.437383548957351E-3    1.041144951750112E-1    5.193612459193266E-1
 6.565083775025000E9    -3.423042077683626E-3    5.691196318818865E-1    3.720190287661029E-2   -4.879388439298487E-3    3.665667139119072E-2   -5.573450687905578E-3    1.053261547157135E-1    5.190824136507346E-1
 6.565095772800000E9    -2.508472517020131E-3    5.689700874658730E-1    3.735547413690819E-2   -4.917137782036693E-3    3.689188453107700E-2   -5.714299087549559E-3    1.066652255694648E-1    5.188975361716198E-1
 6.565107770575000E9    -1.577283938181773E-3    5.691223682221155E-1    3.775123249274599E-2   -5.345815815282862E-3    3.698036179867226E-2   -5.745883773038841E-3    1.077316341398185E-1    5.185519002378940E-1
 6.565119768350000E9    -5.470633370731009E-4    5.690316196248983E-1    3.789652914113235E-2   -5.357683154433503E-3    3.724677556680880E-2   -5.897649132781750E-3    1.089406003232374E-1    5.183897647051111E-1
 6.565131766125000E9     4.624775409169141E-4    5.690313565955540E-1    3.803951768313593E-2   -5.406598487150615E-3    3.743237932427469E-2   -5.923919059019391E-3    1.101132048304234E-1    5.181091886009990E-1
 6.565143763900000E9     1.615784429645372E-3    5.689529993384460E-1    3.825583319519906E-2   -5.598874329684031E-3    3.767402100628339E-2   -6.090880507788375E-3    1.113296171502453E-1    5.177288480512180E-1
 6.565155761675000E9     2.473656768106150E-3    5.689539714579034E-1    3.847467097150090E-2   -5.623132617737565E-3    3.783931989784291E-2   -6.180468300107819E-3    1.126636032589886E-1    5.174849109473348E-1
 6.565167759450000E9     3.522684290045301E-3    5.689563907190702E-1    3.875224595016292E-2   -5.747509513365110E-3    3.809094292336129E-2   -6.427208281773705E-3    1.138564282037638E-1    5.171895627108063E-1
 6.565179757225000E9     4.518050289046561E-3    5.688637824197390E-1    3.909894097651488E-2   -6.036042832811760E-3    3.822899603631745E-2   -6.458998762612141E-3    1.150914710092091E-1    5.169634553781794E-1
 6.565191755000000E9     5.569945850782486E-3    5.687891303983178E-1    3.920307786539175E-2   -6.118408386425325E-3    3.851897518213259E-2   -6.673001298687213E-3    1.163422405615076E-1    5.168058200224964E-1
 6.565203752775000E9     6.538183512254906E-3    5.687515784852273E-1    3.938006902052989E-2   -6.232510646612005E-3    3.871594782867636E-2   -6.773544116607910E-3    1.175722351029663E-1    5.163270466617937E-1
 6.565215750550000E9     7.495612330989522E-3    5.687777967355609E-1    3.952897374902017E-2   -6.346105436330700E-3    3.902865541709583E-2   -6.867921877750413E-3    1.188334155165669E-1    5.161876845379170E-1
 6.565227748325000E9     8.628144582667023E-3    5.687686724371444E-1    3.982885085573590E-2   -6.483296785822000E-3    3.919310888905991E-2   -6.957722826934018E-3    1.199963326436128E-1    5.159332016526519E-1
 6.565239746100000E9     9.646209797407535E-3    5.687011032049536E-1    4.008779419006887E-2   -6.744779737987747E-3    3.939089060729631E-2   -7.170451192732074E-3    1.211828964617569E-1    5.155339444879046E-1
 6.565251743875000E9     1.086695056082162E-2    5.686464409682764E-1    4.036077764210051E-2   -6.736279288433354E-3    3.973931462278616E-2   -7.279904404297887E-3    1.224899186476465E-1    5.151038857530774E-1
 6.565263741650000E9     1.175826198994491E-2    5.685824152426995E-1    4.044039105774570E-2   -6.894856248289274E-3    3.989533542537645E-2   -7.486918272727633E-3    1.237630693988509E-1    5.148006636019491E-1
 6.565275739425000E9     1.258640991408467E-2    5.685285353006930E-1    4.078159759680725E-2   -6.998914613307933E-3    4.022661565616304E-2   -7.584616021347123E-3    1.250222091451556E-1    5.146155842174969E-1
 6.565287737200000E9     1.382381225782636E-2    5.684522005385201E-1    4.117970173144026E-2   -7.154760832907814E-3    4.040763916692969E-2   -7.711366893522868E-3    1.263473133210127E-1    5.142243194970482E-1
 6.565299734975000E9     1.481163950175092E-2    5.683779280720328E-1    4.123527905139174E-2   -7.346464166960049E-3    4.055704920229087E-2   -7.886915695027235E-3    1.275929821847469E-1    5.139003577087321E-1
 6.565311732750000E9     1.583213965160454E-2    5.683158880759197E-1    4.149458867171380E-2   -7.410449927220418E-3    4.094752622039487E-2   -7.983169932090573E-3    1.289266192144939E-1    5.135242103755091E-1
 6.565323730525000E9     1.688390317772614E-2    5.683886144338567E-1    4.171714892236719E-2   -7.840679101344819E-3    4.115780171055743E-2   -8.094721027245722E-3    1.302621169281331E-1    5.133308787908393E-1
 6.565335728300000E9     1.791281905761909E-2    5.682297200696403E-1    4.211430308931721E-2   -7.665702140967953E-3    4.138760945791872E-2   -8.408221274462084E-3    1.314736834445167E-1    5.128573071669426E-1
 6.565347726075000E9     1.895463108842431E-2    5.682005925394557E-1    4.244499967905090E-2   -8.034922099048252E-3    4.167192464102538E-2   -8.524018519310408E-3    1.328392552288005E-1    5.126263034249545E-1
 6.565359723850000E9     1.992275541694633E-2    5.681964621464560E-1    4.269808525637245E-2   -8.197182193061195E-3    4.193026224664931E-2   -8.773032862078414E-3    1.340493228746105E-1    5.121943159452504E-1
 6.565371721625000E9     2.086449050566718E-2    5.680687721918403E-1    4.291912250243073E-2   -8.294375768384847E-3    4.220377938637208E-2   -8.772173672482246E-3    1.354256943948680E-1    5.118540793260536E-1
 6.565383719400000E9     2.201239813436833E-2    5.680380133995682E-1    4.311038103168255E-2   -8.437401326797645E-3    4.244767996906514E-2   -8.893664600750069E-3    1.366130850929593E-1    5.115635774221489E-1
 6.565395717175000E9     2.301800774442968E-2    5.679339282462229E-1    4.329879246465884E-2   -8.731491478097505E-3    4.263462354756609E-2   -9.242032034996663E-3    1.382633560528920E-1    5.109998438233634E-1
 6.565407714950000E9     2.416013981328110E-2    5.678299819284289E-1    4.352890783340767E-2   -8.780612709534560E-3    4.291207338132333E-2   -9.429094927162790E-3    1.393964150599059E-1    5.106649745721581E-1
 6.565419712725000E9     2.531345097002272E-2    5.676989556417530E-1    4.411642715977594E-2   -8.883846085410634E-3    4.326038064073081E-2   -9.556996686332182E-3    1.407805153607679E-1    5.102849731516823E-1
 6.565431710500000E9     2.626591734634083E-2    5.676890013965065E-1    4.423504528592366E-2   -9.164073139376817E-3    4.351355508803390E-2   -9.781190671475138E-3    1.420161788914939E-1    5.098304930310456E-1
 6.565443708275000E9     2.723762598190944E-2    5.674974656267792E-1    4.454359181814578E-2   -9.359874047232613E-3    4.380385259878392E-2   -9.918285157696083E-3    1.434697030695078E-1    5.095818674954395E-1
 6.565455706050000E9     2.828580288838303E-2    5.675336972720700E-1    4.485826267012891E-2   -9.569689652317677E-3    4.418125791463118E-2   -1.008717807639171E-2    1.448443097157083E-1    5.090508033468293E-1
 6.565467703825000E9     2.935679091417331E-2    5.672990363236962E-1    4.505467419368005E-2   -9.722980241725082E-3    4.438343581018956E-2   -1.025801687382709E-2    1.460563601849821E-1    5.086218626840714E-1
 6.565479701600000E9     3.047597867240578E-2    5.672877606447797E-1    4.537468509011038E-2   -9.877557414194304E-3    4.466372016666118E-2   -1.060695175311765E-2    1.475880483321905E-1    5.081936993232857E-1
 6.565491699375000E9     3.158064267304385E-2    5.671943155501734E-1    4.582797556814330E-2   -1.010234726209907E-2    4.489145282106105E-2   -1.072908244554011E-2    1.488628068229851E-1    5.078489540921938E-1
 6.565503697150000E9     3.260325289010316E-2    5.671807381438608E-1    4.605845981217399E-2   -1.021566438927163E-2    4.527289675377491E-2   -1.084997563286840E-2    1.504253615215274E-1    5.074062877559095E-1
 6.565515694925000E9     3.367390452644970E-2    5.670600401536191E-1    4.627920650582519E-2   -1.052150877597076E-2    4.554925790402705E-2   -1.110416344996093E-2    1.517913545595603E-1    5.069443886006355E-1
 6.565527692700000E9     3.467121011285267E-2    5.669301504214479E-1    4.661208305139453E-2   -1.065165224351368E-2    4.586355448378669E-2   -1.131337374964188E-2    1.531097760729846E-1    5.065634403136008E-1
 6.565539690475000E9     3.578185571776685E-2    5.668592816313447E-1    4.687897209288638E-2   -1.093094430220819E-2    4.618702029884064E-2   -1.147682733203749E-2    1.545192891685060E-1    5.060347944824295E-1
 6.565551688250000E9     3.673854472523686E-2    5.665962636019152E-1    4.732610687232438E-2   -1.109182576410794E-2    4.653342649447682E-2   -1.169929712023845E-2    1.559032967866546E-1    5.054861565411463E-1
 6.565563686025000E9     3.793399652806782E-2    5.665863322286995E-1    4.752245603609186E-2   -1.153166730536937E-2    4.687091594126368E-2   -1.191172743066248E-2    1.573542413649681E-1    5.050264679774111E-1
 6.565575683800000E9     3.895165852165240E-2    5.665138538175432E-1    4.798029114694846E-2   -1.159619103071840E-2    4.708208223472999E-2   -1.216307452919809E-2    1.588700859550657E-1    5.046362723619187E-1
 6.565587681575000E9     4.008554529084554E-2    5.663576068124605E-1    4.832900657868895E-2   -1.182961572200412E-2    4.756911148330892E-2   -1.234212348594344E-2    1.604189833819819E-1    5.041690437037035E-1
 6.565599679350000E9     4.103376319807161E-2    5.661022037520456E-1    4.866997043781988E-2   -1.180975644768048E-2    4.785489756316297E-2   -1.261646472365406E-2    1.615707137231948E-1    5.034339978235750E-1
 6.565611677125000E9     4.220135172251797E-2    5.660734297370028E-1    4.898756226413951E-2   -1.228393333174992E-2    4.815513110631930E-2   -1.293524211301352E-2    1.630452174414007E-1    5.029174100545890E-1
 6.565623674900000E9     4.331167249257280E-2    5.659321993215299E-1    4.942305456108385E-2   -1.248761001257151E-2    4.857228437994494E-2   -1.316315835669252E-2    1.645369515706828E-1    5.024246858855816E-1
 6.565635672675000E9     4.430708645295974E-2    5.658320207333154E-1    4.969206873643368E-2   -1.264594142654365E-2    4.888541726761446E-2   -1.327032855684366E-2    1.660099163825774E-1    5.019110173504766E-1
 6.565647670450000E9     4.550919687054729E-2    5.656439609949931E-1    5.002247655642445E-2   -1.293103228757678E-2    4.923378050013293E-2   -1.358479919837566E-2    1.674806986273539E-1    5.014274498211423E-1
 6.565659668225000E9     4.651925124333375E-2    5.654897087812247E-1    5.029530633744574E-2   -1.324746364567992E-2    4.961059510767808E-2   -1.374592930116038E-2    1.689845478715074E-1    5.007347726786173E-1
 6.565671666000000E9     4.765969940812835E-2    5.652861096017162E-1    5.098793720657488E-2   -1.351923014142739E-2    4.991827616635745E-2   -1.415055703271200E-2    1.705122992009372E-1    5.002347563028197E-1
 6.565683663775000E9     4.879548308801737E-2    5.651518876940774E-1    5.119115854174187E-2   -1.375113290908575E-2    5.033361631977673E-2   -1.436883428838074E-2    1.719724006064991E-1    4.998573407297286E-1
 6.565695661550000E9     4.997135867861569E-2    5.649367622045390E-1    5.150316772079193E-2   -1.399969604893195E-2    5.067146849586066E-2   -1.462174504123907E-2    1.734907345000685E-1    4.991660541099034E-1
 6.565707659325000E9     5.099149582484198E-2    5.647763011055646E-1    5.191805786959335E-2   -1.427463497581835E-2    5.109437383156750E-2   -1.489293485144405E-2    1.749742096430954E-1    4.984111353836830E-1
 6.565719657100000E9     5.213688082036531E-2    5.646380807954134E-1    5.232249339897151E-2   -1.443705900591629E-2    5.134128287023963E-2   -1.520989915477371E-2    1.764936632691786E-1    4.980432649518602E-1
 6.565731654875000E9     5.321084812497739E-2    5.645930298469506E-1    5.282450303612376E-2   -1.490236605947696E-2    5.190104257493536E-2   -1.549190518166549E-2    1.781603730041507E-1    4.972501164725835E-1
 6.565743652650000E9     5.432934089084774E-2    5.643289533605822E-1    5.303399961908126E-2   -1.506395440294792E-2    5.225708500389528E-2   -1.577533637814782E-2    1.795982219219524E-1    4.966840807485025E-1
 6.565755650425000E9     5.543977374896545E-2    5.641739597918446E-1    5.360172370729180E-2   -1.544287123166839E-2    5.260419574534407E-2   -1.609085016562687E-2    1.812518656742697E-1    4.959854412799309E-1
 6.565767648200000E9     5.649722137114116E-2    5.640038180106783E-1    5.400889344067271E-2   -1.577280590038801E-2    5.309494042952959E-2   -1.646733436112860E-2    1.828454327346098E-1    4.951984294008837E-1
 6.565779645975000E9     5.767293341813554E-2    5.637161650675372E-1    5.427896823756048E-2   -1.603078465299543E-2    5.347200073927377E-2   -1.665386215093980E-2    1.843581693598218E-1    4.946709952028606E-1
 6.565791643750000E9     5.879034766901215E-2    5.635570793797716E-1    5.466528235850290E-2   -1.647613819088932E-2    5.379685069458894E-2   -1.698964126661820E-2    1.859521566489164E-1    4.940157296579173E-1
