#  HZ   S   RI   R     50.00 
! Rohde & Schwarz Vector Network Analyzer 
! Rohde-Schwarz,ZNB20-2Port,1311601062101988,3.16
! Created: UTC 3/20/2024, 5:06:11 PM
! freq[Hz]                re:S11                  im:S11                  re:S21                  im:S21                  re:S12                  im:S12                  re:S22                  im:S22
 6.564224522000000E9    -7.296594633751964E-2    5.642362059370051E-1    2.706290939359989E-2    2.711320509846585E-4    2.660313057558511E-2   -3.605148998632019E-4    2.609056238700045E-2    5.246980219148230E-1
 6.564238582175000E9    -7.188839642013505E-2    5.644501313897585E-1    2.716825795219845E-2    7.933230165373210E-5    2.668155448499932E-2   -4.558069274130134E-4    2.738250489828883E-2    5.244942984610588E-1
 6.564252642350000E9    -7.082237808332083E-2    5.645800236418906E-1    2.729617065459183E-2    3.172121195940693E-5    2.689696024741389E-2   -3.782141190910933E-4    2.850296069687063E-2    5.245086904348404E-1
 6.564266702525000E9    -6.978027995672176E-2    5.647104607486265E-1    2.744015191719505E-2   -1.675560992594307E-4    2.699788481785780E-2   -5.063554182237292E-4    2.980405560728935E-2    5.243798993383854E-1
 6.564280762700000E9    -6.862822577150746E-2    5.648142751013336E-1    2.759702885623752E-2   -9.807513804652488E-5    2.715178570811566E-2   -6.158728043709127E-4    3.109658991245418E-2    5.243271943636491E-1
 6.564294822875000E9    -6.743301772014744E-2    5.649866908931326E-1    2.773319164662597E-2   -9.281133231149015E-5    2.721580209935325E-2   -7.348061014553049E-4    3.226874799238050E-2    5.241758393592142E-1
 6.564308883050000E9    -6.649881811793330E-2    5.651172486729888E-1    2.794736729532166E-2   -1.395702374791015E-4    2.742386627809644E-2   -7.373621099900778E-4    3.333805959515287E-2    5.241100178324242E-1
 6.564322943225000E9    -6.527378302476683E-2    5.651705141025519E-1    2.797532074703425E-2   -3.158947475879883E-4    2.744950310084647E-2   -8.574434814536628E-4    3.471742395531997E-2    5.240853509740223E-1
 6.564337003400000E9    -6.406393624379368E-2    5.653481720294165E-1    2.809852013481754E-2   -4.038042133022738E-4    2.766261129827674E-2   -9.001576097266633E-4    3.590963859660447E-2    5.240677741701056E-1
 6.564351063575000E9    -6.318015397972980E-2    5.655522556132062E-1    2.831975021402970E-2   -3.658840630193598E-4    2.784481364819505E-2   -9.874274118988390E-4    3.689711518697302E-2    5.240936452160896E-1
 6.564365123750000E9    -6.193844426080390E-2    5.656120519735396E-1    2.860755171049997E-2   -5.588476562855043E-4    2.789786072322216E-2   -1.013354577637750E-3    3.831214166105632E-2    5.240476733740741E-1
 6.564379183925000E9    -6.080485913404435E-2    5.657044570097393E-1    2.867019200248525E-2   -4.845486735204388E-4    2.804912691439083E-2   -1.095741025583890E-3    3.961224267727522E-2    5.238253268020407E-1
 6.564393244100000E9    -5.961277693430155E-2    5.657478296509162E-1    2.868049603526674E-2   -7.446068074740133E-4    2.833838135308408E-2   -1.234757607823727E-3    4.080809863731698E-2    5.238277489797430E-1
 6.564407304275000E9    -5.853286433905912E-2    5.658849878760941E-1    2.891464142021602E-2   -7.736980565987343E-4    2.833113882320479E-2   -1.248240137817120E-3    4.204475127731357E-2    5.237103876189405E-1
 6.564421364450000E9    -5.750519744700092E-2    5.660713908476801E-1    2.905774937096389E-2   -7.744785847459253E-4    2.863271997645650E-2   -1.331347581177656E-3    4.316618121827143E-2    5.235752769955760E-1
 6.564435424625000E9    -5.625628365850319E-2    5.660509321730069E-1    2.921271939879365E-2   -9.652742599031973E-4    2.860488735151946E-2   -1.439565628515581E-3    4.435261894361589E-2    5.234921167088684E-1
 6.564449484800000E9    -5.524278658039910E-2    5.662724971748183E-1    2.941520857967813E-2   -9.061491124572436E-4    2.883128317868996E-2   -1.517188565523382E-3    4.568531442438620E-2    5.234130839763544E-1
 6.564463544975000E9    -5.397501332422740E-2    5.663926727601468E-1    2.953147421871010E-2   -1.097500720356047E-3    2.904445639772320E-2   -1.552938009438790E-3    4.695223863672882E-2    5.233367374488943E-1
 6.564477605150000E9    -5.294345623395687E-2    5.664305537795625E-1    2.981082274298813E-2   -1.125349831663426E-3    2.921444909472795E-2   -1.579230604846581E-3    4.820028039022888E-2    5.232407803500870E-1
 6.564491665325000E9    -5.184971460203169E-2    5.665853087574034E-1    2.984549862165512E-2   -1.283994085223840E-3    2.936965823778646E-2   -1.706874284995121E-3    4.953610641535560E-2    5.230642965657878E-1
 6.564505725500000E9    -5.068567442304778E-2    5.666262012024719E-1    2.993582464502517E-2   -1.257119961800030E-3    2.958080028060666E-2   -1.882755186933754E-3    5.054652315125794E-2    5.230850258797307E-1
 6.564519785675000E9    -4.962831081321389E-2    5.666894927950153E-1    3.010865941186841E-2   -1.277915723644327E-3    2.956487832706975E-2   -1.826200658709553E-3    5.190694878566864E-2    5.229150345503197E-1
 6.564533845850000E9    -4.851544367823250E-2    5.668281618624822E-1    3.029126674964774E-2   -1.563685465198397E-3    2.978967130936933E-2   -1.955374165577900E-3    5.326334816374666E-2    5.226432007100785E-1
 6.564547906025000E9    -4.744150029961272E-2    5.667783247100372E-1    3.034430204777454E-2   -1.627873593893394E-3    2.991680968002345E-2   -2.061139151957594E-3    5.451218982050047E-2    5.228309621109402E-1
 6.564561966200000E9    -4.613201147383062E-2    5.669786628162005E-1    3.074837327275053E-2   -1.600630619707473E-3    3.012970403119933E-2   -2.213169682567147E-3    5.576547161463963E-2    5.225232676402616E-1
 6.564576026375000E9    -4.521092294676776E-2    5.670423158031577E-1    3.074537004045797E-2   -1.654826861087775E-3    3.022428690100012E-2   -2.217129398189556E-3    5.701334993455159E-2    5.223565043930558E-1
 6.564590086550000E9    -4.389668155175163E-2    5.671557066337882E-1    3.105361597685346E-2   -1.853914481202391E-3    3.047495449603636E-2   -2.257237119389515E-3    5.835393400778088E-2    5.223525517804358E-1
 6.564604146725000E9    -4.287964226728145E-2    5.671185103379103E-1    3.104471082231786E-2   -1.849794472537880E-3    3.065693322764555E-2   -2.384526966868285E-3    5.949998803202341E-2    5.222202276809422E-1
 6.564618206900000E9    -4.169495808509186E-2    5.672221872683698E-1    3.141212718818115E-2   -1.904419802537301E-3    3.077459426885145E-2   -2.511054444028357E-3    6.085995552281117E-2    5.221774797640649E-1
 6.564632267075000E9    -4.052622452872953E-2    5.673139629082118E-1    3.153042979115651E-2   -2.120208042553309E-3    3.098285839757282E-2   -2.688717036074695E-3    6.211397147446671E-2    5.219198980039900E-1
 6.564646327250000E9    -3.951115017269066E-2    5.672700035860750E-1    3.177347162607572E-2   -2.119697416932385E-3    3.110925471853634E-2   -2.621013709421062E-3    6.335404107977462E-2    5.217202952508736E-1
 6.564660387425000E9    -3.841805033656422E-2    5.674115142947644E-1    3.203602138889587E-2   -2.290341237726078E-3    3.131326467009564E-2   -2.758530861120074E-3    6.466301035858163E-2    5.216259873561916E-1
 6.564674447600000E9    -3.709287674012455E-2    5.674820805901883E-1    3.213784865343058E-2   -2.579847732568134E-3    3.150768794158688E-2   -2.898577817957102E-3    6.589253501233426E-2    5.213682505514299E-1
 6.564688507775000E9    -3.598470313529538E-2    5.675966350114695E-1    3.232443818843259E-2   -2.516827565128726E-3    3.172090033437255E-2   -2.866236777710345E-3    6.713848560208616E-2    5.211920702358905E-1
 6.564702567950000E9    -3.503705245565104E-2    5.676287498807122E-1    3.240206778196678E-2   -2.522566259828353E-3    3.177953421985654E-2   -3.135844376896994E-3    6.857787526133925E-2    5.209400480330179E-1
 6.564716628125000E9    -3.376468074392047E-2    5.676285979487495E-1    3.255680045267639E-2   -2.610482031816453E-3    3.207679636731692E-2   -3.284711681682327E-3    6.984593942279113E-2    5.206948687833862E-1
 6.564730688300000E9    -3.263132240515453E-2    5.677476960227301E-1    3.274692302079743E-2   -2.708750441289797E-3    3.221719092857900E-2   -3.253562606531135E-3    7.111409009155016E-2    5.208712858486658E-1
 6.564744748475000E9    -3.140722120114815E-2    5.678048539795250E-1    3.304444577968303E-2   -2.846778228022025E-3    3.236715814052640E-2   -3.433729737248214E-3    7.244674335982029E-2    5.205385475653511E-1
 6.564758808650000E9    -3.033779318325226E-2    5.677453265377140E-1    3.322809307855279E-2   -3.098518985008322E-3    3.260297207975923E-2   -3.412571672704206E-3    7.377756494864313E-2    5.204595168306967E-1
 6.564772868825000E9    -2.920509010479455E-2    5.677525919639499E-1    3.324033181566100E-2   -3.119849005309383E-3    3.287011361704186E-2   -3.548037470812180E-3    7.513251150572253E-2    5.201566534377019E-1
 6.564786929000000E9    -2.797901385062901E-2    5.678732102875748E-1    3.368768126806590E-2   -3.191032255167930E-3    3.299026321222279E-2   -3.679945502899979E-3    7.628572957078322E-2    5.201036950151405E-1
 6.564800989175000E9    -2.683173832586959E-2    5.679834048299074E-1    3.375745293264380E-2   -3.240827239819705E-3    3.310991545310379E-2   -3.912604597017317E-3    7.757522353928557E-2    5.198197106136079E-1
 6.564815049350000E9    -2.579311417022762E-2    5.679585433510737E-1    3.394691392072065E-2   -3.336137772105029E-3    3.336309005995929E-2   -3.934563555435779E-3    7.902515740804482E-2    5.197182421902484E-1
 6.564829109525000E9    -2.454725602274597E-2    5.680733323837537E-1    3.416119424102510E-2   -3.544944552428004E-3    3.361012282232256E-2   -4.084541274686892E-3    8.025267396553327E-2    5.194448372084748E-1
 6.564843169700000E9    -2.343309516415719E-2    5.679914134293564E-1    3.447042565456137E-2   -3.658175439484117E-3    3.377001309843877E-2   -4.184265116568316E-3    8.194570676464179E-2    5.191081783201866E-1
 6.564857229875000E9    -2.229233628239972E-2    5.680574080093846E-1    3.439833550653938E-2   -3.735460462055724E-3    3.399580881217844E-2   -4.154454679402926E-3    8.312231652335439E-2    5.188632091165211E-1
 6.564871290050000E9    -2.113966580701931E-2    5.680684415986597E-1    3.467527083030576E-2   -3.935249175974205E-3    3.421395560553742E-2   -4.333829098939057E-3    8.439964502706032E-2    5.187675551969823E-1
 6.564885350225000E9    -1.984189649273288E-2    5.680977085794829E-1    3.480537036810893E-2   -4.059177955238565E-3    3.438457873177492E-2   -4.495082644710394E-3    8.563684514689666E-2    5.184694347017448E-1
 6.564899410400000E9    -1.884119908537466E-2    5.680671368263925E-1    3.519967472828558E-2   -4.086980424472890E-3    3.461524802646639E-2   -4.649404234399940E-3    8.706860169839738E-2    5.182388203882292E-1
 6.564913470575000E9    -1.758346029950159E-2    5.681567871725334E-1    3.542966104838634E-2   -4.171468405257603E-3    3.475590909716374E-2   -4.792249741195416E-3    8.841219865368367E-2    5.181393783840820E-1
 6.564927530750000E9    -1.641984372229727E-2    5.680630380717848E-1    3.567797124333850E-2   -4.396681658197303E-3    3.509256427794556E-2   -4.825025170707454E-3    8.983075769999724E-2    5.177523033070129E-1
 6.564941590925000E9    -1.534952708334194E-2    5.681044379152078E-1    3.589235824159892E-2   -4.443714084926990E-3    3.513662746696723E-2   -4.989027627316873E-3    9.108996374769937E-2    5.176464226036253E-1
 6.564955651100000E9    -1.416246176398155E-2    5.681899547894440E-1    3.617642878720116E-2   -4.560172202465546E-3    3.537669278721751E-2   -5.151664674430069E-3    9.255212391528875E-2    5.173742346135601E-1
 6.564969711275000E9    -1.291723808504135E-2    5.681737856977137E-1    3.619553689897925E-2   -4.873762495630376E-3    3.568681816530629E-2   -5.323471146217193E-3    9.387004552204302E-2    5.170923815742949E-1
 6.564983771450000E9    -1.179848781931454E-2    5.681687148449450E-1    3.651339762273600E-2   -4.912539991496415E-3    3.589443054805144E-2   -5.387845867915144E-3    9.534139057361801E-2    5.168274875225576E-1
 6.564997831625000E9    -1.064809445739959E-2    5.682001167822350E-1    3.668150109114118E-2   -4.982048977657486E-3    3.617414950663392E-2   -5.560611198516288E-3    9.689820412436446E-2    5.165317477342911E-1
 6.565011891800000E9    -9.358610468218120E-3    5.682467672393173E-1    3.710742559828759E-2   -5.271296599319755E-3    3.634838886263759E-2   -5.632156507834713E-3    9.807822216713527E-2    5.162675566286501E-1
 6.565025951975000E9    -8.284705561272662E-3    5.682866277610799E-1    3.726435125109601E-2   -5.347475502526811E-3    3.661884948656368E-2   -5.845340782412372E-3    9.963547612297018E-2    5.158959491032499E-1
 6.565040012150000E9    -7.080020283074044E-3    5.682132863937096E-1    3.749269348816162E-2   -5.542432525603357E-3    3.687795381861903E-2   -5.987910574021711E-3    1.008812723528378E-1    5.157372473764469E-1
 6.565054072325000E9    -5.990415455183306E-3    5.681618141737392E-1    3.781156555337786E-2   -5.717507224980718E-3    3.710711285035413E-2   -6.041756422869925E-3    1.023310236062097E-1    5.154457752515683E-1
 6.565068132500000E9    -4.776597099274174E-3    5.681670229006378E-1    3.808574228115544E-2   -5.632573756394339E-3    3.738191839045939E-2   -6.291325452468874E-3    1.036248737902174E-1    5.150023587849779E-1
 6.565082192675000E9    -3.475152486309622E-3    5.680184482064632E-1    3.817287417322240E-2   -6.049357603977859E-3    3.759968161655611E-2   -6.503752586792953E-3    1.051041893456220E-1    5.149118664020862E-1
 6.565096252850000E9    -2.299648294443873E-3    5.681340476654897E-1    3.848149799016758E-2   -6.037596270316439E-3    3.781253180128843E-2   -6.676617320159893E-3    1.066133214212015E-1    5.145935160720464E-1
 6.565110313025000E9    -1.179340491303065E-3    5.679786503164620E-1    3.868357694931483E-2   -6.219619281342161E-3    3.811937878676090E-2   -6.718391453577542E-3    1.079561581179376E-1    5.141987686095737E-1
 6.565124373200000E9     2.249991549718144E-5    5.679931384316265E-1    3.912018482534410E-2   -6.303621508315435E-3    3.832498777579669E-2   -6.938887881425011E-3    1.095995706807340E-1    5.138263406471161E-1
 6.565138433375000E9     1.231313745346014E-3    5.680275878130950E-1    3.919681957961187E-2   -6.499515753793445E-3    3.868740232158550E-2   -7.074223616977633E-3    1.108007210065882E-1    5.134698632367981E-1
 6.565152493550000E9     2.294527010589385E-3    5.679604163626444E-1    3.946439949007333E-2   -6.739363425323470E-3    3.882303230786604E-2   -7.189201084252178E-3    1.124285563376997E-1    5.130720783474008E-1
 6.565166553725000E9     3.549304849036079E-3    5.678826314994107E-1    3.991306905366086E-2   -6.898095338010833E-3    3.918723181773190E-2   -7.413490768086022E-3    1.137395102928080E-1    5.126797102591503E-1
 6.565180613900000E9     4.820311493638128E-3    5.678161880057888E-1    4.005711571181369E-2   -7.027306376906110E-3    3.937636095395890E-2   -7.630664140141391E-3    1.152443884229205E-1    5.124935669972163E-1
 6.565194674075000E9     6.000355924251541E-3    5.676629444476886E-1    4.042400501240582E-2   -7.255459954865603E-3    3.967127846776468E-2   -7.788935423831010E-3    1.167372950893334E-1    5.120196210756185E-1
 6.565208734250000E9     7.194331512433146E-3    5.677188132004234E-1    4.065087082225480E-2   -7.433033947518242E-3    3.987898600611740E-2   -8.013461677550763E-3    1.181252018466407E-1    5.116338863777539E-1
 6.565222794425000E9     8.408418704329942E-3    5.676764535789929E-1    4.092217462908646E-2   -7.709188537901535E-3    4.016452270868862E-2   -8.053405511397549E-3    1.197010048713716E-1    5.112014318239119E-1
 6.565236854600000E9     9.596022315614443E-3    5.676313409922771E-1    4.128374065603473E-2   -7.656814039681906E-3    4.055437011335968E-2   -8.281934920832658E-3    1.210389918660942E-1    5.110216037783657E-1
 6.565250914775000E9     1.072613004202776E-2    5.675965486465270E-1    4.154194117807641E-2   -7.932707943068142E-3    4.084653677228563E-2   -8.518654958631961E-3    1.227149866761835E-1    5.104965369334824E-1
 6.565264974950000E9     1.193776508939381E-2    5.674441497023751E-1    4.174357409946126E-2   -8.174799962824091E-3    4.116696587819366E-2   -8.755825603096503E-3    1.239996984996967E-1    5.100609970367986E-1
 6.565279035125000E9     1.314339474864334E-2    5.674622479446246E-1    4.211199459558263E-2   -8.402226927396374E-3    4.143062208302819E-2   -8.902215768896299E-3    1.255809634863429E-1    5.096796964451649E-1
 6.565293095300000E9     1.437308645452187E-2    5.673650871506586E-1    4.249120105827706E-2   -8.544601567684532E-3    4.167773262690157E-2   -9.102422152166010E-3    1.272681909973700E-1    5.092655958012318E-1
 6.565307155475000E9     1.558716766645218E-2    5.673369015814315E-1    4.271679229557899E-2   -8.745325919833610E-3    4.205933506010298E-2   -9.182741437810896E-3    1.286137099912918E-1    5.088033955801029E-1
 6.565321215650000E9     1.690269169784978E-2    5.671285379637329E-1    4.303506380501272E-2   -9.022557592657915E-3    4.234315227807878E-2   -9.582617836905028E-3    1.301820511587484E-1    5.083536760054965E-1
 6.565335275825000E9     1.816907101823621E-2    5.671264273414246E-1    4.329602951583136E-2   -9.172561208693107E-3    4.258565580009416E-2   -9.736422517290623E-3    1.318766152914313E-1    5.078578642144387E-1
 6.565349336000000E9     1.927348894129272E-2    5.670093929269817E-1    4.364752046542071E-2   -9.384567334828647E-3    4.295111898927078E-2   -9.869153302877014E-3    1.332025317142018E-1    5.074922261090715E-1
 6.565363396175000E9     2.049000584906710E-2    5.669613304608844E-1    4.398770017831725E-2   -9.724971721250364E-3    4.329569519585057E-2   -1.017757668788714E-2    1.347806953799433E-1    5.070630788980776E-1
 6.565377456350000E9     2.183483380778333E-2    5.668615345496657E-1    4.440049820632901E-2   -9.829753304450748E-3    4.357921115322980E-2   -1.039741119229827E-2    1.364161954361749E-1    5.066209753399771E-1
 6.565391516525000E9     2.297561954302479E-2    5.666742455404321E-1    4.474667904573888E-2   -9.858050709484503E-3    4.398061366394643E-2   -1.061711280607000E-2    1.379599104881570E-1    5.060798858215596E-1
 6.565405576700000E9     2.426524253338907E-2    5.667038445771901E-1    4.504705810755341E-2   -1.036213372383983E-2    4.410775567443177E-2   -1.077233640003394E-2    1.395777826982760E-1    5.055692360106835E-1
 6.565419636875000E9     2.545751710257606E-2    5.665264943358993E-1    4.536069958745875E-2   -1.048752578133682E-2    4.463028985965706E-2   -1.114554624757689E-2    1.411043370134909E-1    5.050096081927871E-1
 6.565433697050000E9     2.666774391377950E-2    5.663770215842988E-1    4.571737882132135E-2   -1.066038770266525E-2    4.487353709218076E-2   -1.136785019322132E-2    1.427696347794044E-1    5.046599503087361E-1
 6.565447757225000E9     2.797511539544791E-2    5.662705932170734E-1    4.606718085673505E-2   -1.101694693688753E-2    4.528147429315904E-2   -1.155805857456321E-2    1.443328044042411E-1    5.039541377962735E-1
 6.565461817400000E9     2.926262008532728E-2    5.661573322259629E-1    4.639798041840349E-2   -1.117978393235541E-2    4.556716166217827E-2   -1.190788578885398E-2    1.459319050375399E-1    5.033526095646571E-1
 6.565475877575000E9     3.041457026913373E-2    5.659824174674407E-1    4.679958274486882E-2   -1.141843607842842E-2    4.595100119315122E-2   -1.213199303580249E-2    1.476178913037945E-1    5.029101069040591E-1
 6.565489937750000E9     3.166294474775605E-2    5.658543711305100E-1    4.714005002177143E-2   -1.176803354720642E-2    4.632193686380773E-2   -1.247767225341831E-2    1.491843390179931E-1    5.022631310879287E-1
