#  HZ   S   RI   R     50.00 
! Rohde & Schwarz Vector Network Analyzer 
! Rohde-Schwarz,ZNB20-2Port,1311601062101988,3.16
! Created: UTC 3/20/2024, 4:51:14 PM
! freq[Hz]                re:S11                  im:S11                  re:S21                  im:S21                  re:S12                  im:S12                  re:S22                  im:S22
 6.564682461000000E9    -3.643310033535321E-2    5.682656100094169E-1    3.146921391851720E-2   -1.929241824654114E-3    3.091109474544761E-2   -2.365837695114737E-3    6.700299728666782E-2    5.251030912710756E-1
 6.564694580100000E9    -3.542078947681165E-2    5.682976634662850E-1    3.160865374228289E-2   -1.967333157852889E-3    3.107391885913775E-2   -2.505142588734259E-3    6.814686931871354E-2    5.250109799532630E-1
 6.564706699200000E9    -3.452474588618133E-2    5.684178470389776E-1    3.176193365996085E-2   -1.950405971257834E-3    3.119184328893684E-2   -2.535488872915215E-3    6.940033297470398E-2    5.246568726468728E-1
 6.564718818300000E9    -3.360023801556306E-2    5.683854832103975E-1    3.187628438003817E-2   -2.082447496475430E-3    3.138846474367496E-2   -2.650171635874465E-3    7.032365400970428E-2    5.246326872854858E-1
 6.564730937400000E9    -3.270175609112223E-2    5.684149310575097E-1    3.208139269172547E-2   -2.193367629342825E-3    3.152258899226219E-2   -2.662423586497344E-3    7.146458763363156E-2    5.246340842820154E-1
 6.564743056500000E9    -3.159245736940585E-2    5.685315360026233E-1    3.225574265504103E-2   -2.223826710669386E-3    3.168912070981336E-2   -2.876293430287285E-3    7.280372158137728E-2    5.243992719404812E-1
 6.564755175600000E9    -3.053181296257771E-2    5.684991080172668E-1    3.248206029878233E-2   -2.473697719581675E-3    3.182903039648419E-2   -2.988672247824123E-3    7.379415668528122E-2    5.242212598204007E-1
 6.564767294700000E9    -2.970561549171465E-2    5.685446550032783E-1    3.259807844863119E-2   -2.282629874153976E-3    3.197728339652120E-2   -2.990459420124763E-3    7.488037047160989E-2    5.240667832263969E-1
 6.564779413800000E9    -2.860634609851648E-2    5.686461460931240E-1    3.255832485111364E-2   -2.450089379063876E-3    3.225546859351567E-2   -3.081206706470475E-3    7.605248807593237E-2    5.239879453570575E-1
 6.564791532900000E9    -2.763334009003951E-2    5.687406732119910E-1    3.286380802474766E-2   -2.694688377727888E-3    3.230868555364910E-2   -3.129488592516636E-3    7.718917920731791E-2    5.238233706206126E-1
 6.564803652000000E9    -2.657382457207698E-2    5.686848165226159E-1    3.296514118539817E-2   -2.658489046908697E-3    3.242541393517693E-2   -3.246310117592294E-3    7.827933626843181E-2    5.234634240896602E-1
 6.564815771100000E9    -2.555855550372809E-2    5.687098661017808E-1    3.316266270555097E-2   -2.808306947468233E-3    3.265706437163786E-2   -3.339503638181419E-3    7.948940784066204E-2    5.234259754611801E-1
 6.564827890200000E9    -2.468985743541055E-2    5.687148731526831E-1    3.327192681099440E-2   -2.786959174398283E-3    3.282262820963280E-2   -3.457423320467172E-3    8.058799215507252E-2    5.233257648763830E-1
 6.564840009300000E9    -2.365755441253511E-2    5.688133962489439E-1    3.356548167210920E-2   -2.974144710944004E-3    3.292541216061311E-2   -3.504716546606579E-3    8.168507714331734E-2    5.231410975663876E-1
 6.564852128400000E9    -2.265937321532464E-2    5.688214496115486E-1    3.367317392932984E-2   -2.950257055849769E-3    3.305115710648321E-2   -3.617215372270400E-3    8.282046967374110E-2    5.229752335591498E-1
 6.564864247500000E9    -2.171805129460451E-2    5.689215917066162E-1    3.371490309431307E-2   -3.160212610969596E-3    3.337494832813680E-2   -3.664047098879209E-3    8.408605941626404E-2    5.228061677622268E-1
 6.564876366600000E9    -2.067226820165454E-2    5.689962829302792E-1    3.399232686929083E-2   -3.273630783631500E-3    3.348940904027648E-2   -3.815212918606912E-3    8.503731698997841E-2    5.226206584914521E-1
 6.564888485700000E9    -1.969124357567740E-2    5.689486667191066E-1    3.415981182947402E-2   -3.434305601836122E-3    3.356234014414356E-2   -3.814265328264638E-3    8.631853696290169E-2    5.222488839713665E-1
 6.564900604800000E9    -1.869909090368955E-2    5.688445998218898E-1    3.435594270486636E-2   -3.324275931388104E-3    3.385630753651420E-2   -3.972350540400612E-3    8.751154818609665E-2    5.222386289843991E-1
 6.564912723900000E9    -1.774034685464440E-2    5.689104543280198E-1    3.446020533088331E-2   -3.440620015481671E-3    3.396838852850426E-2   -3.997628353157009E-3    8.874666817980689E-2    5.220652085167999E-1
 6.564924843000000E9    -1.664152527964338E-2    5.689904830220865E-1    3.478104543617696E-2   -3.544952723428114E-3    3.412268235586441E-2   -4.144228923370478E-3    8.976410810200162E-2    5.219472313527470E-1
 6.564936962100000E9    -1.564722143636197E-2    5.689548880014990E-1    3.489599541232690E-2   -3.679589566586053E-3    3.439526727427179E-2   -4.302464486474903E-3    9.101940991129656E-2    5.216493008494402E-1
 6.564949081200000E9    -1.470172303590454E-2    5.689994750596853E-1    3.498351489802498E-2   -3.717311654052553E-3    3.448016978601319E-2   -4.427879610049946E-3    9.208871554338369E-2    5.215053572910816E-1
 6.564961200300000E9    -1.375371467783277E-2    5.689958022561731E-1    3.520426564977021E-2   -3.917658657400791E-3    3.473657961877698E-2   -4.468657190700544E-3    9.326610924482867E-2    5.211934980946316E-1
 6.564973319400000E9    -1.255807597102675E-2    5.690861193105651E-1    3.554470446158334E-2   -4.058291822093842E-3    3.484253664522365E-2   -4.560150758911399E-3    9.456997369890249E-2    5.210347050124298E-1
 6.564985438500000E9    -1.162712275632305E-2    5.692287406058230E-1    3.567565075225627E-2   -4.085845054530867E-3    3.502785771527388E-2   -4.654150596341553E-3    9.568790293571718E-2    5.207830262900687E-1
 6.564997557600000E9    -1.070051349105335E-2    5.689752703551199E-1    3.581230231978315E-2   -4.253303633210200E-3    3.521427599573328E-2   -4.709318564284058E-3    9.693327135480577E-2    5.206665439344981E-1
 6.565009676700000E9    -9.680455157988713E-3    5.689890620059682E-1    3.598623663515219E-2   -4.213995460847589E-3    3.548555679597735E-2   -4.829507178912612E-3    9.795276563190879E-2    5.204418862518373E-1
 6.565021795800000E9    -8.710645311596484E-3    5.690174034635945E-1    3.623212249203914E-2   -4.350081130746468E-3    3.571225171498296E-2   -4.994911350600363E-3    9.915046529705010E-2    5.202478375506880E-1
 6.565033914900000E9    -7.603985961837103E-3    5.690896635114112E-1    3.652234643148366E-2   -4.437163872276761E-3    3.593135097068025E-2   -4.986062865879084E-3    1.004508214741695E-1    5.199937021977180E-1
 6.565046034000000E9    -6.578949948539940E-3    5.690982132150839E-1    3.654327478917303E-2   -4.593850142607023E-3    3.608592930302966E-2   -5.201995588877144E-3    1.017313700951166E-1    5.197119769735500E-1
 6.565058153100000E9    -5.707389161967101E-3    5.690483162319823E-1    3.676744401474127E-2   -4.740474259253096E-3    3.626689642619540E-2   -5.329904246483992E-3    1.028605229281047E-1    5.195972509783069E-1
 6.565070272200000E9    -4.615290680404811E-3    5.689751649369483E-1    3.698738392710579E-2   -4.874279638616594E-3    3.652004862281284E-2   -5.384638178705906E-3    1.039851701102713E-1    5.191773806550536E-1
 6.565082391300000E9    -3.752092883103098E-3    5.690130596978457E-1    3.725600451199081E-2   -5.015800770351613E-3    3.667074503084472E-2   -5.606298326720049E-3    1.052518595913575E-1    5.190462379793377E-1
 6.565094510400000E9    -2.537986147580840E-3    5.689875637337720E-1    3.748075920952747E-2   -5.154709624331865E-3    3.692660679866593E-2   -5.584953202084947E-3    1.065141632284730E-1    5.186333600322689E-1
 6.565106629500000E9    -1.571689945411709E-3    5.690770102313353E-1    3.765801300184871E-2   -5.207109448695704E-3    3.708109735435589E-2   -5.754877929235930E-3    1.075548621526192E-1    5.184137772570286E-1
 6.565118748600000E9    -5.394241401175632E-4    5.689167718572277E-1    3.786255224283203E-2   -5.338842338814053E-3    3.722782240625991E-2   -5.978638360807581E-3    1.088488179800706E-1    5.180979351509699E-1
 6.565130867700000E9     4.664070497312253E-4    5.689435379191858E-1    3.809372047017505E-2   -5.573569579329096E-3    3.749190244448946E-2   -6.096357489579741E-3    1.100751056898259E-1    5.178936808195721E-1
 6.565142986800000E9     1.468648484508738E-3    5.689483366219882E-1    3.829253650527691E-2   -5.600646187574723E-3    3.779646917914726E-2   -6.200727522238709E-3    1.113030839681250E-1    5.177132152517284E-1
 6.565155105900000E9     2.509955826028917E-3    5.689684308423220E-1    3.859540086277331E-2   -5.679042033853923E-3    3.796418430068819E-2   -6.295990948838076E-3    1.126740900637390E-1    5.173685063321687E-1
 6.565167225000000E9     3.560714824029689E-3    5.688447212946395E-1    3.879586708505199E-2   -5.836779907325555E-3    3.820024330428760E-2   -6.413068746221548E-3    1.137883631288695E-1    5.170108802263103E-1
 6.565179344100000E9     4.649083871657471E-3    5.687602368521554E-1    3.912467949032487E-2   -6.010050425168695E-3    3.836649320258478E-2   -6.540999005599939E-3    1.152424352929555E-1    5.168243818277307E-1
 6.565191463200000E9     5.638313734119577E-3    5.687718452575559E-1    3.918009712816392E-2   -6.201585066460856E-3    3.858866036239109E-2   -6.729621721399979E-3    1.163616174489061E-1    5.165666000849198E-1
 6.565203582300000E9     6.603111263091401E-3    5.688083928319998E-1    3.948934269969122E-2   -6.263987436828921E-3    3.888362954320813E-2   -6.858374273693581E-3    1.177914794445085E-1    5.162866776747470E-1
 6.565215701400000E9     7.659721387362749E-3    5.687668798254174E-1    3.969292424005629E-2   -6.484781771299443E-3    3.913315612890909E-2   -6.982792912018219E-3    1.189926969855845E-1    5.160081075055741E-1
 6.565227820500000E9     8.768616901012771E-3    5.686598076246964E-1    3.990897510301203E-2   -6.583854615618756E-3    3.928861910395376E-2   -7.125408503553935E-3    1.203141494273421E-1    5.156762792063184E-1
 6.565239939600000E9     9.708718896383632E-3    5.686751649463907E-1    4.020192053444737E-2   -6.655139221998428E-3    3.953080755127462E-2   -7.204727329662291E-3    1.212308007059374E-1    5.152262911596397E-1
 6.565252058700000E9     1.067642736569916E-2    5.685359889107369E-1    4.049098402461648E-2   -6.851638345077168E-3    3.970733403749049E-2   -7.403480789936672E-3    1.226976810530005E-1    5.150932511257750E-1
 6.565264177800000E9     1.178976915730571E-2    5.684533292969046E-1    4.059872377891183E-2   -7.100119764811470E-3    4.000665777204589E-2   -7.463930433552888E-3    1.239040805359462E-1    5.147975509240315E-1
 6.565276296900000E9     1.281962156931906E-2    5.685416435757433E-1    4.087378644399768E-2   -7.212442402741702E-3    4.017268822343163E-2   -7.692166196410105E-3    1.254081058235118E-1    5.144393173926769E-1
 6.565288416000000E9     1.385825519807285E-2    5.683751951135498E-1    4.120574936722141E-2   -7.254450926057736E-3    4.049507022845199E-2   -7.748251584498036E-3    1.266256041566607E-1    5.139707569551671E-1
 6.565300535100000E9     1.483764459889943E-2    5.684858914821865E-1    4.139603916384311E-2   -7.424878830682592E-3    4.082403975321384E-2   -8.046477758582332E-3    1.278003168473006E-1    5.138356901334922E-1
 6.565312654200000E9     1.587966911410408E-2    5.684239332174137E-1    4.171631495257034E-2   -7.621135788442034E-3    4.099859462179631E-2   -8.183872050307775E-3    1.290160237796614E-1    5.133593991945030E-1
 6.565324773300000E9     1.690697293587268E-2    5.681584746942259E-1    4.194645769559962E-2   -7.637155172267208E-3    4.113400473109305E-2   -8.305708799515792E-3    1.304743818639797E-1    5.129805864880933E-1
 6.565336892400000E9     1.799268893666080E-2    5.681997884793394E-1    4.222466723497290E-2   -7.899816294867294E-3    4.141064860225416E-2   -8.384268796544666E-3    1.317023971251520E-1    5.126738840732318E-1
 6.565349011500000E9     1.902941072944469E-2    5.681504344567282E-1    4.251441420997173E-2   -8.079328162717846E-3    4.176050056026104E-2   -8.626299967475918E-3    1.332363770743166E-1    5.123124121875804E-1
 6.565361130600000E9     2.015420614283623E-2    5.680600546531074E-1    4.277446681560396E-2   -8.225075337762759E-3    4.203788705195692E-2   -8.799928027516940E-3    1.344101545652038E-1    5.119920746250561E-1
 6.565373249700000E9     2.129470179194711E-2    5.679560898129573E-1    4.311961243787536E-2   -8.570897383168193E-3    4.221743360105575E-2   -8.883161230429362E-3    1.356596213795994E-1    5.115577990255222E-1
 6.565385368800000E9     2.230372480495353E-2    5.679315334142079E-1    4.331106576929008E-2   -8.577427974273463E-3    4.265545240506267E-2   -9.125452440633510E-3    1.370680704665043E-1    5.111922534114027E-1
 6.565397487900000E9     2.325164137644819E-2    5.677956383695523E-1    4.362116050838896E-2   -8.714945841340447E-3    4.279893425542003E-2   -9.296559769987847E-3    1.382965928634043E-1    5.108248102294910E-1
 6.565409607000000E9     2.434720066618791E-2    5.677448351105375E-1    4.379902644759349E-2   -9.025510834140242E-3    4.309950402831000E-2   -9.427517172355562E-3    1.398064324842912E-1    5.104170985780796E-1
 6.565421726100000E9     2.532495793730293E-2    5.677038331664681E-1    4.415247768745671E-2   -9.122702300140459E-3    4.346762541907983E-2   -9.703238443188196E-3    1.411526966610986E-1    5.099833263345497E-1
 6.565433845200000E9     2.650237118606891E-2    5.676445114091369E-1    4.452577567423601E-2   -9.217672434242862E-3    4.365786224669383E-2   -9.845776933313771E-3    1.425145944724518E-1    5.095615337170607E-1
 6.565445964300000E9     2.749552065986261E-2    5.675386305117839E-1    4.452106273842039E-2   -9.506236396111808E-3    4.398456242459568E-2   -1.008632434201370E-2    1.438921014029271E-1    5.093124607279264E-1
 6.565458083400000E9     2.856463036067476E-2    5.673670452212909E-1    4.502200809656442E-2   -9.636802236776926E-3    4.431515220422168E-2   -1.016196417090046E-2    1.452600609212905E-1    5.089181327760280E-1
 6.565470202500000E9     2.969342024974398E-2    5.673406267388517E-1    4.521105333268326E-2   -9.853628550892031E-3    4.452280897199006E-2   -1.046278563501109E-2    1.466246178112953E-1    5.085520020378315E-1
 6.565482321600000E9     3.066998147906808E-2    5.671725003660708E-1    4.566005289888495E-2   -9.997251139716612E-3    4.488590264824669E-2   -1.057779067424500E-2    1.479240691531872E-1    5.078753750190685E-1
 6.565494440700000E9     3.173548089715538E-2    5.671124245948859E-1    4.592033102234380E-2   -1.012603450876017E-2    4.512428523302481E-2   -1.080774882483052E-2    1.494954302425053E-1    5.075489109385055E-1
 6.565506559800000E9     3.279648346996935E-2    5.670516643453466E-1    4.619744152410901E-2   -1.040672297927190E-2    4.548318543240607E-2   -1.095739725383027E-2    1.508652388606803E-1    5.070079290972759E-1
 6.565518678900000E9     3.390579198258256E-2    5.668715608185977E-1    4.652868142329866E-2   -1.061315198423119E-2    4.576776999085715E-2   -1.124584169480842E-2    1.521500678029052E-1    5.066406348986510E-1
 6.565530798000000E9     3.500330940521491E-2    5.668380360427572E-1    4.686961118904699E-2   -1.083472242448471E-2    4.610561455074369E-2   -1.151447840472507E-2    1.536499277536449E-1    5.061095850434962E-1
 6.565542917100000E9     3.608736411081342E-2    5.667363767230882E-1    4.721789865874734E-2   -1.097857737349850E-2    4.646332187058723E-2   -1.169019542257971E-2    1.549294756003131E-1    5.057249435859441E-1
 6.565555036200000E9     3.711706383249087E-2    5.665116047316657E-1    4.731474792726491E-2   -1.127247306489485E-2    4.667666682444389E-2   -1.195290867984009E-2    1.564649727342388E-1    5.051240451952509E-1
 6.565567155300000E9     3.821532564362230E-2    5.665779029898400E-1    4.789936146649419E-2   -1.148385424233029E-2    4.706537855303395E-2   -1.207436751427084E-2    1.579213634794578E-1    5.046728191000177E-1
 6.565579274400000E9     3.928207457089552E-2    5.663688193189024E-1    4.814379808478703E-2   -1.171830309313063E-2    4.745135463636509E-2   -1.234938161546366E-2    1.593786094997399E-1    5.041446801368337E-1
 6.565591393500000E9     4.043111598720630E-2    5.662271717718983E-1    4.849046370150571E-2   -1.192865649674190E-2    4.766492786298331E-2   -1.267101677828104E-2    1.608899205632235E-1    5.036176922702511E-1
 6.565603512600000E9     4.152765803073448E-2    5.661388737582688E-1    4.886538685445109E-2   -1.220970133483251E-2    4.808874831260170E-2   -1.278450605355729E-2    1.622502044138814E-1    5.031666017065876E-1
 6.565615631700000E9     4.253511903099849E-2    5.657991356564488E-1    4.925880338093289E-2   -1.241525302422690E-2    4.853476320104187E-2   -1.302182628363325E-2    1.638009426436040E-1    5.027450278904411E-1
 6.565627750800000E9     4.377268026567999E-2    5.657539581786206E-1    4.950797262623694E-2   -1.275413517369104E-2    4.867601053548967E-2   -1.333751974436380E-2    1.652567908721552E-1    5.019925403225554E-1
 6.565639869900000E9     4.481396681378051E-2    5.655366087955056E-1    4.999709511861609E-2   -1.283780796435508E-2    4.919675238532706E-2   -1.357839424350730E-2    1.666245274947312E-1    5.015907411060304E-1
 6.565651989000000E9     4.596890153779416E-2    5.654905593659345E-1    5.036617119234012E-2   -1.309077360549105E-2    4.945348158144783E-2   -1.380899603224545E-2    1.682583855034719E-1    5.010492824698737E-1
 6.565664108100000E9     4.704298201991534E-2    5.654613761110786E-1    5.068216238997716E-2   -1.335975735518305E-2    4.985092446162393E-2   -1.402008364148026E-2    1.698158366644988E-1    5.004115700773509E-1
 6.565676227200000E9     4.804003918380619E-2    5.651967632128925E-1    5.110053761835807E-2   -1.384502598175015E-2    5.025005619421686E-2   -1.432621749813760E-2    1.712679914642689E-1    4.998108970378586E-1
 6.565688346300000E9     4.928732347885547E-2    5.651305753222607E-1    5.141851671249534E-2   -1.386208703676613E-2    5.066033630950131E-2   -1.463458074782011E-2    1.727671695859020E-1    4.991464425373329E-1
 6.565700465400000E9     5.043667312732308E-2    5.648340797420023E-1    5.181433732553245E-2   -1.423634050656747E-2    5.102266296708564E-2   -1.488086285702128E-2    1.743268562269291E-1    4.984820312119770E-1
 6.565712584500000E9     5.163094745466943E-2    5.646903692357919E-1    5.236694573165757E-2   -1.458238749250686E-2    5.137353734389544E-2   -1.522915578030497E-2    1.759293944660255E-1    4.979309613392810E-1
 6.565724703600000E9     5.271336569242437E-2    5.645495625920591E-1    5.250073008227035E-2   -1.476492149527015E-2    5.178350514965862E-2   -1.545254549540806E-2    1.774174267294639E-1    4.971968540883431E-1
 6.565736822700000E9     5.372160568975855E-2    5.643468132613330E-1    5.271590988353114E-2   -1.512360379524380E-2    5.217056318623498E-2   -1.576688481125529E-2    1.789393236453761E-1    4.967471233779276E-1
 6.565748941800000E9     5.487467217670147E-2    5.640942481155468E-1    5.345317343364626E-2   -1.536956038267948E-2    5.259425484354580E-2   -1.613945322531731E-2    1.804757925767471E-1    4.959935114341339E-1
 6.565761060900000E9     5.603962601269349E-2    5.640397076263529E-1    5.374697365820890E-2   -1.568085664390088E-2    5.298366205644264E-2   -1.649537035302506E-2    1.821097013699307E-1    4.953476959623705E-1
 6.565773180000000E9     5.714865533345349E-2    5.638708640979840E-1    5.417109768093005E-2   -1.617759318174490E-2    5.339010901632746E-2   -1.668924966534543E-2    1.837357436883806E-1    4.945849777302081E-1
