#  HZ   S   RI   R     50.00 
! Rohde & Schwarz Vector Network Analyzer 
! Rohde-Schwarz,ZNB20-2Port,1311601062101988,3.16
! Created: UTC 3/20/2024, 5:06:23 PM
! freq[Hz]                re:S11                  im:S11                  re:S21                  im:S21                  re:S12                  im:S12                  re:S22                  im:S22
 6.564242440000000E9    -7.164067477226005E-2    5.643882611494027E-1    2.714963939807323E-2    1.280807890511654E-4    2.674433830509152E-2   -3.797634280196486E-4    2.766330307568666E-2    5.245039127913259E-1
 6.564256430050000E9    -7.053346028282026E-2    5.646502985772461E-1    2.728818901788754E-2    1.044749843500936E-4    2.693068054609207E-2   -4.296474040685468E-4    2.875470691000202E-2    5.244144780226742E-1
 6.564270420100000E9    -6.950899962507752E-2    5.647373505745373E-1    2.750964574272370E-2   -3.735724601156045E-6    2.704549811129321E-2   -4.969389134688460E-4    2.995420949431458E-2    5.243263703099268E-1
 6.564284410150000E9    -6.837680195937418E-2    5.648743555584220E-1    2.750261710403130E-2   -1.581670749444448E-4    2.706371034471488E-2   -6.708841273146101E-4    3.112911499477653E-2    5.244111781034619E-1
 6.564298400200000E9    -6.719079688111380E-2    5.650552557185651E-1    2.768487449123016E-2   -1.886984890487342E-4    2.733001281668017E-2   -7.791698157377923E-4    3.237094163905410E-2    5.244072861543054E-1
 6.564312390250000E9    -6.609149375797690E-2    5.651743331919359E-1    2.782764980670212E-2   -1.375992364094901E-4    2.734038046734815E-2   -7.513097276697160E-4    3.356761708723419E-2    5.242761747623160E-1
 6.564326380300000E9    -6.499601930894543E-2    5.652996108262985E-1    2.806857261221268E-2   -3.090814145178948E-4    2.742648118095955E-2   -8.277972005756742E-4    3.465519310255455E-2    5.241831304246670E-1
 6.564340370350000E9    -6.396133599079738E-2    5.653899749050595E-1    2.819469480934929E-2   -3.473641655831413E-4    2.769579373762626E-2   -8.425994351100898E-4    3.602172781897543E-2    5.240172486590348E-1
 6.564354360400000E9    -6.281531347713933E-2    5.655274064877464E-1    2.838891572234645E-2   -3.766618458838892E-4    2.788548696491609E-2   -9.770077866539302E-4    3.724145552433875E-2    5.240686786692904E-1
 6.564368350450000E9    -6.170158275756127E-2    5.655884710386261E-1    2.839894924201891E-2   -4.604922290269061E-4    2.808224110716991E-2   -9.363237786835575E-4    3.852404149915330E-2    5.239421531423079E-1
 6.564382340500000E9    -6.061018195859078E-2    5.656716612650863E-1    2.859055449758468E-2   -4.831662622131417E-4    2.816489608123330E-2   -1.044194773504490E-3    3.971732051676186E-2    5.237476581382656E-1
 6.564396330550000E9    -5.949129247216034E-2    5.657266081866615E-1    2.872136000519859E-2   -6.753274818488696E-4    2.837575679261275E-2   -1.097095872529425E-3    4.090964334019899E-2    5.238339963191373E-1
 6.564410320600000E9    -5.846788480744129E-2    5.659782580321351E-1    2.892072257219889E-2   -7.103554145385200E-4    2.837456919125911E-2   -1.203085857515251E-3    4.199816844695397E-2    5.237712435440375E-1
 6.564424310650000E9    -5.732748219858610E-2    5.660476103793795E-1    2.914104743983561E-2   -7.448364747872587E-4    2.850888656751490E-2   -1.342733182235196E-3    4.334402676942547E-2    5.235893336656151E-1
 6.564438300700000E9    -5.614189405596351E-2    5.661825688392285E-1    2.907324709363889E-2   -8.074542922981014E-4    2.868978705105867E-2   -1.485026748696867E-3    4.460029709316003E-2    5.235209921005782E-1
 6.564452290750000E9    -5.510628430851142E-2    5.662733181790051E-1    2.921080607745511E-2   -1.027286984848173E-3    2.880726091646372E-2   -1.339762852073839E-3    4.581463991763585E-2    5.234274653860973E-1
 6.564466280800000E9    -5.389057688704275E-2    5.664304062115372E-1    2.964481885524584E-2   -1.064266867789453E-3    2.897224403017401E-2   -1.552785098697583E-3    4.706558546350811E-2    5.234190285117667E-1
 6.564480270850000E9    -5.280060953598419E-2    5.664272287802680E-1    2.958741473738881E-2   -1.141369639658589E-3    2.914763340587634E-2   -1.648993860122824E-3    4.832808259503570E-2    5.233152900286787E-1
 6.564494260900000E9    -5.158068477283134E-2    5.665880410719576E-1    2.985661872729808E-2   -1.250401061358408E-3    2.931918216180289E-2   -1.796520253805856E-3    4.952380244912838E-2    5.231938357915412E-1
 6.564508250950000E9    -5.052684715925604E-2    5.666071328417894E-1    3.007441133856551E-2   -1.381721744280941E-3    2.947301817401937E-2   -1.798370717624092E-3    5.071034541791648E-2    5.229105430735731E-1
 6.564522241000000E9    -4.950281910469673E-2    5.666629797996952E-1    2.997706695593970E-2   -1.428484980884722E-3    2.964308200233007E-2   -1.830918748516842E-3    5.203298829006726E-2    5.228946912008794E-1
 6.564536231050000E9    -4.835643302651440E-2    5.668406179557356E-1    3.032451069518177E-2   -1.446037371275546E-3    2.973739314331503E-2   -1.911841326678460E-3    5.322268435942969E-2    5.228582587343876E-1
 6.564550221100000E9    -4.712109708869990E-2    5.669061510032430E-1    3.052220595310274E-2   -1.570914107915827E-3    2.990950471031488E-2   -2.036757460353568E-3    5.453941980608547E-2    5.226407577275606E-1
 6.564564211150000E9    -4.606397314020603E-2    5.669262158406430E-1    3.070254886786261E-2   -1.568931457918103E-3    3.006672276857079E-2   -2.182720537322273E-3    5.577840813327346E-2    5.225869807526413E-1
 6.564578201200000E9    -4.500756247227896E-2    5.671418352595820E-1    3.067889007715540E-2   -1.692373589040430E-3    3.020524995818357E-2   -2.159955789227785E-3    5.703427182951194E-2    5.224518071275723E-1
 6.564592191250000E9    -4.388863749748078E-2    5.672357830973221E-1    3.089435716247987E-2   -1.592133291562817E-3    3.054298992030350E-2   -2.369812012363271E-3    5.825774687209861E-2    5.223188392123596E-1
 6.564606181300000E9    -4.275966506483191E-2    5.671797958716722E-1    3.107828337581418E-2   -1.847310997380380E-3    3.060626460263443E-2   -2.452066348222567E-3    5.969552667805414E-2    5.222107055164296E-1
 6.564620171350000E9    -4.153626657738576E-2    5.672245967126096E-1    3.140973524894147E-2   -1.972680034040631E-3    3.078120213513296E-2   -2.577817450889469E-3    6.077023289490510E-2    5.220652418552991E-1
 6.564634161400000E9    -4.049711747340132E-2    5.674111972249218E-1    3.141392865585044E-2   -2.023204985927000E-3    3.093796158306194E-2   -2.560943398935144E-3    6.205200297532976E-2    5.218560375993754E-1
 6.564648151450000E9    -3.930506825213465E-2    5.675257870317865E-1    3.170781830362646E-2   -2.220863067587619E-3    3.112037963225683E-2   -2.633210959963626E-3    6.344098580213717E-2    5.217086284037296E-1
 6.564662141500000E9    -3.834506724771522E-2    5.674411456778763E-1    3.172938073041565E-2   -2.264982636438660E-3    3.129913911623027E-2   -2.793504143791016E-3    6.471621799870095E-2    5.215765375936673E-1
 6.564676131550000E9    -3.711314777740732E-2    5.676254696713100E-1    3.184858947462763E-2   -2.326198830903169E-3    3.147307161412793E-2   -2.894503043823021E-3    6.595161523406319E-2    5.213493152135640E-1
 6.564690121600000E9    -3.596408025752417E-2    5.676079180322556E-1    3.232273026655008E-2   -2.450717005365342E-3    3.166309005074639E-2   -2.969809694411938E-3    6.736698615879211E-2    5.213276319764378E-1
 6.564704111650000E9    -3.481812730080405E-2    5.677280797376122E-1    3.242997591831356E-2   -2.520184067351341E-3    3.191375828982259E-2   -3.082222660492045E-3    6.856960327677822E-2    5.209564427830702E-1
 6.564718101700000E9    -3.363355529368658E-2    5.676626936789295E-1    3.257009255633452E-2   -2.748335767963153E-3    3.200627642867846E-2   -3.085692536053718E-3    6.975973046867125E-2    5.209097624444993E-1
 6.564732091750000E9    -3.255340061079345E-2    5.677158578229838E-1    3.269566504915676E-2   -2.711057175600402E-3    3.225172450742089E-2   -3.271699817373702E-3    7.108781805964748E-2    5.207143751482732E-1
 6.564746081800000E9    -3.135701262360504E-2    5.678271497772539E-1    3.298578160708392E-2   -2.876298374731596E-3    3.249471971097405E-2   -3.391729374115509E-3    7.238903706414711E-2    5.206056606557139E-1
 6.564760071850000E9    -3.027592068461300E-2    5.678414528477826E-1    3.306051134231953E-2   -2.977436169879617E-3    3.261542194595687E-2   -3.463740356187503E-3    7.363198793814375E-2    5.204190032063362E-1
 6.564774061900000E9    -2.912789617255395E-2    5.678087914289253E-1    3.335214157731713E-2   -3.086725015420840E-3    3.278604622845609E-2   -3.640056257026464E-3    7.497466795294033E-2    5.201600775948990E-1
 6.564788051950000E9    -2.803595150430400E-2    5.679222607913006E-1    3.353274077651924E-2   -3.080544427800354E-3    3.303523142733283E-2   -3.727803668351419E-3    7.627505631774928E-2    5.200565961314759E-1
 6.564802042000000E9    -2.685873285498035E-2    5.679306086859670E-1    3.372632080845745E-2   -3.209678252460647E-3    3.315288565697104E-2   -3.730575940089886E-3    7.763932422621844E-2    5.198452078136205E-1
 6.564816032050000E9    -2.565889264213624E-2    5.680834366354260E-1    3.382473253383663E-2   -3.289892400199670E-3    3.337070019234694E-2   -3.934032330943359E-3    7.901818560315188E-2    5.195879896959192E-1
 6.564830022100000E9    -2.457316509399990E-2    5.681272421046570E-1    3.408234843162390E-2   -3.635455118951069E-3    3.354294314648212E-2   -3.971691945155919E-3    8.030744592541630E-2    5.194602025212692E-1
 6.564844012150000E9    -2.341473569565796E-2    5.679678276969683E-1    3.441490291987680E-2   -3.588526922808780E-3    3.380175953725026E-2   -4.135657459361506E-3    8.161195099004386E-2    5.193214335712709E-1
 6.564858002200000E9    -2.227880303466481E-2    5.680810755378383E-1    3.448145173075705E-2   -3.628855919376870E-3    3.392468311643971E-2   -4.201054343920753E-3    8.292438646273523E-2    5.190462123870438E-1
 6.564871992250000E9    -2.109695085761459E-2    5.680951501949215E-1    3.462727995339370E-2   -3.798415250148219E-3    3.412044725334554E-2   -4.395530612106399E-3    8.429311522632287E-2    5.187099356371028E-1
 6.564885982300000E9    -1.992575760873432E-2    5.681552333276533E-1    3.493451002012732E-2   -3.980685804073838E-3    3.437794854121023E-2   -4.472691383925944E-3    8.564153332756981E-2    5.185856978081097E-1
 6.564899972350000E9    -1.883460493363349E-2    5.681118771799013E-1    3.517264029654150E-2   -4.088128421394427E-3    3.458748886965429E-2   -4.580951042097053E-3    8.701543608164317E-2    5.182573971273985E-1
 6.564913962400000E9    -1.767958887652213E-2    5.681955508141825E-1    3.536223069432304E-2   -4.175820144868703E-3    3.469977750281103E-2   -4.799478737525750E-3    8.835920942515185E-2    5.180133737753428E-1
 6.564927952450000E9    -1.642191631025584E-2    5.680791083394667E-1    3.557251774160100E-2   -4.248536491429861E-3    3.486018395108936E-2   -4.920947954717875E-3    8.966863782557762E-2    5.179070260125740E-1
 6.564941942500000E9    -1.525233543899444E-2    5.681553954090148E-1    3.594534688716655E-2   -4.297124802359321E-3    3.525695298190922E-2   -4.929941877554080E-3    9.105649129643645E-2    5.175375109676615E-1
 6.564955932550000E9    -1.413943493394703E-2    5.681577569362164E-1    3.606786537703185E-2   -4.588358204890466E-3    3.555029838393974E-2   -5.099598880672680E-3    9.232430396961573E-2    5.172331960226108E-1
 6.564969922600000E9    -1.300584788116336E-2    5.682771231753641E-1    3.631589009475033E-2   -4.707275075245342E-3    3.565538366123836E-2   -5.248855809509660E-3    9.385783757124497E-2    5.171335368582828E-1
 6.564983912650000E9    -1.181923098308943E-2    5.683244306938149E-1    3.639306739786800E-2   -4.880064764329669E-3    3.589012583639826E-2   -5.380690683258315E-3    9.509412820768723E-2    5.169172759243912E-1
 6.564997902700000E9    -1.066821663809268E-2    5.681846040363565E-1    3.664983347863087E-2   -5.084901173510905E-3    3.604917233979196E-2   -5.567902506657513E-3    9.655176545950392E-2    5.166502110795076E-1
 6.565011892750000E9    -9.485896427552699E-3    5.682102225963631E-1    3.701738519750821E-2   -5.177316559709553E-3    3.635126081242179E-2   -5.667311153797174E-3    9.797550146910496E-2    5.163332989511916E-1
 6.565025882800000E9    -8.384674415089308E-3    5.682945931773214E-1    3.728451076419544E-2   -5.289037271508484E-3    3.650185992087426E-2   -5.790196019046458E-3    9.926307044018343E-2    5.160690287933166E-1
 6.565039872850000E9    -7.194521523573955E-3    5.681216013072109E-1    3.754510576111954E-2   -5.344907379648885E-3    3.682212978659785E-2   -5.980273871709584E-3    1.008289845568049E-1    5.156115960393837E-1
 6.565053862900000E9    -6.052622891788164E-3    5.681666878571224E-1    3.780998860949551E-2   -5.573785288248850E-3    3.711866497405479E-2   -6.065539354664380E-3    1.021301939019093E-1    5.153421514192346E-1
 6.565067852950000E9    -4.807995176080818E-3    5.681320294904417E-1    3.810125006025417E-2   -5.559617234579903E-3    3.728645985925665E-2   -6.242730023980772E-3    1.036198109427758E-1    5.150535615460311E-1
 6.565081843000000E9    -3.737771515570220E-3    5.681134652227936E-1    3.815798752742460E-2   -5.966473757064020E-3    3.743863159787073E-2   -6.430326077373265E-3    1.048857570359518E-1    5.148281938781599E-1
 6.565095833050000E9    -2.497500373684810E-3    5.681691712006413E-1    3.835321176813927E-2   -6.010787607686452E-3    3.773346992269011E-2   -6.659715571689850E-3    1.063808215119868E-1    5.144755108777163E-1
 6.565109823100000E9    -1.280690756631734E-3    5.680675920705712E-1    3.871536282262208E-2   -6.133068771212142E-3    3.800219889335698E-2   -6.668556730938146E-3    1.076584073472148E-1    5.142475135760345E-1
 6.565123813150000E9    -1.157574982415451E-4    5.680129932157750E-1    3.895383526396809E-2   -6.208085025126632E-3    3.828073531743945E-2   -6.828269046424010E-3    1.092391933198718E-1    5.137510536340870E-1
 6.565137803200000E9     1.123443931473806E-3    5.679395210738460E-1    3.933578281901666E-2   -6.425633188900153E-3    3.854200711266697E-2   -6.959565175049022E-3    1.105369649634806E-1    5.135246153723434E-1
 6.565151793250000E9     2.217160855440059E-3    5.679585872669650E-1    3.942476852953218E-2   -6.650708411649432E-3    3.874071243898632E-2   -7.138161442047505E-3    1.120785864727205E-1    5.131665983471909E-1
 6.565165783300000E9     3.408660242573553E-3    5.679667405503120E-1    3.957099518897680E-2   -6.777220628896253E-3    3.902556177028257E-2   -7.364215867902793E-3    1.136157508527339E-1    5.128492622512072E-1
 6.565179773350000E9     4.627283124884452E-3    5.678988072059292E-1    3.987897760025633E-2   -6.900202638348924E-3    3.937613932776151E-2   -7.569096966801359E-3    1.149704505693408E-1    5.124875911134148E-1
 6.565193763400000E9     5.801321282908421E-3    5.678718826792453E-1    4.017278949757928E-2   -7.090107601677959E-3    3.956307349280640E-2   -7.712176065839157E-3    1.163396037540488E-1    5.120612020110552E-1
 6.565207753450000E9     6.921493819448725E-3    5.677606783619025E-1    4.046873434395832E-2   -7.490451735788778E-3    3.983316202946104E-2   -7.838262313196457E-3    1.178230423079009E-1    5.118041407842467E-1
 6.565221743500000E9     8.255581020296714E-3    5.677912103814311E-1    4.077261821235497E-2   -7.513165605885693E-3    4.017737121436749E-2   -8.088840003978902E-3    1.193232707992714E-1    5.113667341090551E-1
 6.565235733550000E9     9.325930225081798E-3    5.676630598255071E-1    4.120130198007509E-2   -7.643284292069980E-3    4.042379010313695E-2   -8.178551251829792E-3    1.208348792476619E-1    5.108944292095881E-1
 6.565249723600000E9     1.051544869711956E-2    5.675441501503090E-1    4.144055561339575E-2   -7.854017802448182E-3    4.069610216366758E-2   -8.467448433894940E-3    1.223169663512755E-1    5.107543505594633E-1
 6.565263713650000E9     1.186936636145270E-2    5.675083231084089E-1    4.175948493371697E-2   -7.947675303929912E-3    4.096031001778031E-2   -8.660085520242888E-3    1.238284970274491E-1    5.102563569795031E-1
 6.565277703700000E9     1.312600351547696E-2    5.674671738010026E-1    4.190461773429839E-2   -8.178940596451674E-3    4.139056082811069E-2   -8.740636275877879E-3    1.252507852139562E-1    5.097966239208874E-1
 6.565291693750000E9     1.414678436897428E-2    5.674493956277802E-1    4.225953851069743E-2   -8.496723898643742E-3    4.155820215603558E-2   -9.103426570894302E-3    1.269536383814968E-1    5.094425363176821E-1
 6.565305683800000E9     1.541366721607610E-2    5.672424341803646E-1    4.254060321000758E-2   -8.662865094412582E-3    4.187587571826169E-2   -9.133118635568427E-3    1.283222753301926E-1    5.089176229426713E-1
 6.565319673850000E9     1.659607055751695E-2    5.672318133924562E-1    4.313778665400640E-2   -8.907906374386130E-3    4.222683258044440E-2   -9.470486919634657E-3    1.299981639994481E-1    5.085289082337516E-1
 6.565333663900000E9     1.777631349208927E-2    5.671999624201390E-1    4.318637349050003E-2   -9.041235924429566E-3    4.251773758051985E-2   -9.606101822873959E-3    1.312755257416325E-1    5.082661459090022E-1
 6.565347653950000E9     1.899338892039186E-2    5.670419018034789E-1    4.344030870257419E-2   -9.267125337308779E-3    4.273180223142505E-2   -9.820671092702037E-3    1.330740433244201E-1    5.075959002752830E-1
 6.565361644000000E9     2.037573745453307E-2    5.670552751168000E-1    4.377760208835227E-2   -9.534937377164982E-3    4.317549400141906E-2   -1.012197515781329E-2    1.344225544091443E-1    5.071554963353161E-1
 6.565375634050000E9     2.150993412300487E-2    5.667866346116527E-1    4.420605388986761E-2   -9.587155440409285E-3    4.340055501407469E-2   -1.031760433610821E-2    1.360232830071002E-1    5.067592601439177E-1
 6.565389624100000E9     2.270795006780760E-2    5.668834479890732E-1    4.440520836838254E-2   -9.966734363378242E-3    4.385987832920649E-2   -1.055350969189415E-2    1.374742583890698E-1    5.064324074487504E-1
 6.565403614150000E9     2.398134325876328E-2    5.665876100992371E-1    4.496229597107686E-2   -1.014779906513413E-2    4.410372819202654E-2   -1.069295886332893E-2    1.391797803532244E-1    5.057180067634378E-1
 6.565417604200000E9     2.519951645630232E-2    5.665324457014497E-1    4.523578593783496E-2   -1.063981590421069E-2    4.433377811161933E-2   -1.100114929260829E-2    1.407489738669843E-1    5.052263519952056E-1
 6.565431594250000E9     2.641997705872284E-2    5.663711022905432E-1    4.545192082596568E-2   -1.063424076585128E-2    4.472939410384902E-2   -1.119646729439440E-2    1.422486293173748E-1    5.046865769452080E-1
 6.565445584300000E9     2.760935969134144E-2    5.663938622230565E-1    4.587856514272379E-2   -1.078592668723800E-2    4.514607293296293E-2   -1.147392581581201E-2    1.440170204200227E-1    5.042240248553023E-1
 6.565459574350000E9     2.895971670777427E-2    5.662290121931838E-1    4.616097191608443E-2   -1.108976194175875E-2    4.548379651779794E-2   -1.165336517094879E-2    1.455442369441913E-1    5.036978407467415E-1
 6.565473564400000E9     3.020472562416609E-2    5.660924715236835E-1    4.668482469966231E-2   -1.145113656764940E-2    4.588705916369210E-2   -1.199772105134241E-2    1.471380616501851E-1    5.030718993978243E-1
 6.565487554450000E9     3.140644670206540E-2    5.659547053819440E-1    4.705202412898908E-2   -1.171428431389724E-2    4.626090275699416E-2   -1.224049898553755E-2    1.486865816032468E-1    5.024240283161087E-1
 6.565501544500000E9     3.259406308759286E-2    5.657920156647011E-1    4.736427307949823E-2   -1.190711360353358E-2    4.663155281270769E-2   -1.255768981749858E-2    1.504639083433175E-1    5.019323745377060E-1
