#  HZ   S   RI   R     50.00 
! Rohde & Schwarz Vector Network Analyzer 
! Rohde-Schwarz,ZNB20-2Port,1311601062101988,3.16
! Created: UTC 3/20/2024, 4:51:16 PM
! freq[Hz]                re:S11                  im:S11                  re:S21                  im:S21                  re:S12                  im:S12                  re:S22                  im:S22
 6.564682811000000E9    -3.650616691285285E-2    5.681844176604774E-1    3.143831601049352E-2   -1.905851477752939E-3    3.097873434036321E-2   -2.292329982583908E-3    6.715153247140322E-2    5.249627483195594E-1
 6.564694925475000E9    -3.552878544432033E-2    5.682808833809236E-1    3.164623275196753E-2   -1.947439563835824E-3    3.105417162900433E-2   -2.480443626817426E-3    6.817461206638831E-2    5.248199208039275E-1
 6.564707039950000E9    -3.449330082179859E-2    5.683831672409525E-1    3.174585893892373E-2   -1.936453544821294E-3    3.122493395026608E-2   -2.654904507271863E-3    6.917159220868577E-2    5.247969492542209E-1
 6.564719154425000E9    -3.352459024782521E-2    5.684747066399689E-1    3.205317431729378E-2   -2.153612552029176E-3    3.132535862053408E-2   -2.548434328015799E-3    7.050648160945129E-2    5.247113826527938E-1
 6.564731268900000E9    -3.250529538899399E-2    5.683792967749798E-1    3.201725392961731E-2   -2.266488852952631E-3    3.165195154204217E-2   -2.674655273197706E-3    7.164076541774675E-2    5.245337235488599E-1
 6.564743383375000E9    -3.163075771473408E-2    5.685013757215135E-1    3.223312076080364E-2   -2.387711506039525E-3    3.171382082993627E-2   -2.923642872812967E-3    7.275883616277685E-2    5.242598566342535E-1
 6.564755497850000E9    -3.057539697777554E-2    5.685819180756514E-1    3.237142117929807E-2   -2.364953860270409E-3    3.183800282097224E-2   -2.841553878953330E-3    7.379996801871054E-2    5.242138715989665E-1
 6.564767612325000E9    -2.971472950640315E-2    5.685771173787437E-1    3.249241229711127E-2   -2.540505479265211E-3    3.201266780804801E-2   -2.979271390064251E-3    7.493020277643646E-2    5.239982944037835E-1
 6.564779726800000E9    -2.858492352052239E-2    5.686278160833360E-1    3.269254617147349E-2   -2.604848798314375E-3    3.221617097636310E-2   -3.068489894453533E-3    7.603448123625589E-2    5.237310526127139E-1
 6.564791841275000E9    -2.756031302339350E-2    5.686604820844182E-1    3.292923495215629E-2   -2.637577962999906E-3    3.236197901546476E-2   -3.169877840211770E-3    7.719280602077126E-2    5.236344945788911E-1
 6.564803955750000E9    -2.669039649115463E-2    5.687195922113523E-1    3.298067958061895E-2   -2.779319371834655E-3    3.245492414397771E-2   -3.243670686369734E-3    7.832954567310393E-2    5.236099758878995E-1
 6.564816070225000E9    -2.552423234668921E-2    5.688307401604424E-1    3.316087263207131E-2   -2.762486872247372E-3    3.263361431317729E-2   -3.322840856535794E-3    7.953140262764564E-2    5.234891170431281E-1
 6.564828184700000E9    -2.460257010177543E-2    5.686570807564677E-1    3.345429668094708E-2   -2.792379313635623E-3    3.288167867227780E-2   -3.365110026303244E-3    8.063040127373924E-2    5.232003120851295E-1
 6.564840299175000E9    -2.361509226755338E-2    5.686961616051412E-1    3.363176978186475E-2   -2.992747275802849E-3    3.303549634449865E-2   -3.544122083510553E-3    8.180774466627080E-2    5.231255076587540E-1
 6.564852413650000E9    -2.256664646080677E-2    5.687820639753974E-1    3.365340857373998E-2   -3.151422337570511E-3    3.309183702745437E-2   -3.621768190407617E-3    8.273093502231307E-2    5.229261078915518E-1
 6.564864528125000E9    -2.160560444467355E-2    5.688828293577043E-1    3.384799306589212E-2   -3.215619647673922E-3    3.324846889371830E-2   -3.638088763258900E-3    8.402684340787601E-2    5.228107756365021E-1
 6.564876642600000E9    -2.077940032958867E-2    5.688739332871785E-1    3.409886890486589E-2   -3.272550649251293E-3    3.351119014153180E-2   -3.750191345748236E-3    8.517358301270314E-2    5.224644314597939E-1
 6.564888757075000E9    -1.960389489559751E-2    5.689477971317849E-1    3.417080794184282E-2   -3.332321476208230E-3    3.363587398185348E-2   -3.917416466577076E-3    8.633648422290965E-2    5.224094167072592E-1
 6.564900871550000E9    -1.871000233118530E-2    5.688949167130239E-1    3.443672835956490E-2   -3.482550274665713E-3    3.381473360677548E-2   -3.921074446917723E-3    8.752108526846621E-2    5.222277322306603E-1
 6.564912986025000E9    -1.767813489834243E-2    5.688782320143528E-1    3.456465782748865E-2   -3.601383276561561E-3    3.398200868073875E-2   -4.063309571758881E-3    8.869296048490469E-2    5.219082007644407E-1
 6.564925100500000E9    -1.656605355792700E-2    5.689564575133899E-1    3.474640984675081E-2   -3.766143793090719E-3    3.406706087295770E-2   -4.124087201921769E-3    8.975458266711334E-2    5.217654850505541E-1
 6.564937214975000E9    -1.564519441619387E-2    5.689082253393233E-1    3.498258398018197E-2   -3.721745681911230E-3    3.433509914126516E-2   -4.287470865681793E-3    9.114521605605459E-2    5.216281606402550E-1
 6.564949329450000E9    -1.463810846397060E-2    5.688682848329695E-1    3.511718301326160E-2   -3.702620944889397E-3    3.461607387498473E-2   -4.433878087958334E-3    9.222095447416330E-2    5.214921946318474E-1
 6.564961443925000E9    -1.381056012566323E-2    5.689639833001647E-1    3.547222311984254E-2   -3.819145109793164E-3    3.475582026763702E-2   -4.485966597856184E-3    9.333475484990655E-2    5.212701070423527E-1
 6.564973558400000E9    -1.261990136496222E-2    5.689716559961686E-1    3.552842794578490E-2   -4.052145643651171E-3    3.493747197671626E-2   -4.558193357054615E-3    9.439357229533457E-2    5.209575362280294E-1
 6.564985672875000E9    -1.157453065722939E-2    5.691182627328387E-1    3.562829167627169E-2   -4.101332894653247E-3    3.510884799340630E-2   -4.711255960865426E-3    9.578593325299581E-2    5.208224896211233E-1
 6.564997787350000E9    -1.070025915158206E-2    5.690063737003672E-1    3.600599084414203E-2   -4.135301241470361E-3    3.528542691220793E-2   -4.876873927487683E-3    9.691177749125672E-2    5.206014677351408E-1
 6.565009901825000E9    -9.601569337312163E-3    5.690359872821540E-1    3.624345981741585E-2   -4.395164777618861E-3    3.550913214646268E-2   -4.869193012932932E-3    9.806583989285747E-2    5.204291292641611E-1
 6.565022016300000E9    -8.696898396697622E-3    5.689500250798000E-1    3.631712121649873E-2   -4.391258487057035E-3    3.562096984409698E-2   -5.012368804517236E-3    9.941023445272934E-2    5.200701763423201E-1
 6.565034130775000E9    -7.610354608615809E-3    5.689878409260686E-1    3.657938684911823E-2   -4.462987353118353E-3    3.590286783757976E-2   -5.090236948624486E-3    1.003314345208891E-1    5.198748674798097E-1
 6.565046245250000E9    -6.653008784974324E-3    5.690102653227455E-1    3.668632411585378E-2   -4.722782537608433E-3    3.609202118062931E-2   -5.274349999606227E-3    1.016404372115812E-1    5.194900185597883E-1
 6.565058359725000E9    -5.625114631820193E-3    5.689879145323639E-1    3.691809694760682E-2   -4.804776191696396E-3    3.636038598919692E-2   -5.380418693703985E-3    1.027606118179673E-1    5.193808693853330E-1
 6.565070474200000E9    -4.674019231063492E-3    5.689008260695422E-1    3.711371094015410E-2   -4.983210084107648E-3    3.651171619746732E-2   -5.427387458404587E-3    1.040591907184832E-1    5.192189659658435E-1
 6.565082588675000E9    -3.613919559312126E-3    5.689459449753813E-1    3.731586620201064E-2   -5.019033596369712E-3    3.667266441397755E-2   -5.587717018831401E-3    1.053158234807547E-1    5.188200353444197E-1
 6.565094703150000E9    -2.580380392271448E-3    5.689316436186883E-1    3.746361505339908E-2   -5.080919721915749E-3    3.686126790956218E-2   -5.642316298493374E-3    1.065958070063170E-1    5.187269377120575E-1
 6.565106817625000E9    -1.573669136380512E-3    5.688803701524101E-1    3.775874471944047E-2   -5.287750124600149E-3    3.705161220312982E-2   -5.731305480548819E-3    1.077358458945415E-1    5.183842866742485E-1
 6.565118932100000E9    -5.482340529244347E-4    5.689182363011462E-1    3.785160279327150E-2   -5.320715509475496E-3    3.725879898678477E-2   -5.932353267274476E-3    1.089718198811447E-1    5.181342641881684E-1
 6.565131046575000E9     4.816361174472791E-4    5.688467105277798E-1    3.812255370567228E-2   -5.486127069404714E-3    3.749482341989117E-2   -6.135349347292331E-3    1.101987920339704E-1    5.179705881535260E-1
 6.565143161050000E9     1.600901962769472E-3    5.689195687471778E-1    3.835834465574483E-2   -5.587519520811247E-3    3.771877605187063E-2   -6.214874978906166E-3    1.113309154352689E-1    5.175149278991819E-1
 6.565155275525000E9     2.470956536760364E-3    5.687187080883336E-1    3.858775491940534E-2   -5.927191353551407E-3    3.790792254045874E-2   -6.298273277442331E-3    1.126842615840951E-1    5.174187942736533E-1
 6.565167390000000E9     3.514455486484031E-3    5.689267291033665E-1    3.889435089116868E-2   -6.012662159780289E-3    3.817366317266749E-2   -6.352821172740969E-3    1.138739506501559E-1    5.172715921249891E-1
 6.565179504475000E9     4.638710113660988E-3    5.687402732214484E-1    3.906995791457745E-2   -6.085246869582009E-3    3.844581135832823E-2   -6.640438444153538E-3    1.151617211605460E-1    5.168102448873267E-1
 6.565191618950000E9     5.685876367105058E-3    5.687553349636376E-1    3.923886057742725E-2   -6.111864943726251E-3    3.861104165278087E-2   -6.807188525099901E-3    1.165154260337268E-1    5.165263787469510E-1
 6.565203733425000E9     6.606471736488429E-3    5.687431976113820E-1    3.972852881512987E-2   -6.325335592288163E-3    3.892790448702926E-2   -6.888785021337626E-3    1.175437722494290E-1    5.163001902210084E-1
 6.565215847900000E9     7.603825941002121E-3    5.686976271874287E-1    3.987384744335936E-2   -6.335457082497256E-3    3.907812481557422E-2   -6.951710849818437E-3    1.188992253202199E-1    5.159234504534832E-1
 6.565227962375000E9     8.683291470957741E-3    5.686163826695261E-1    3.992933766163019E-2   -6.543737191442777E-3    3.934650205267571E-2   -7.172263018195795E-3    1.202295440261246E-1    5.156900765235484E-1
 6.565240076850000E9     9.617628614927452E-3    5.686125029841401E-1    4.031471889784197E-2   -6.694574737564460E-3    3.960616379860527E-2   -7.347749383022907E-3    1.214134515993693E-1    5.153157086311205E-1
 6.565252191325000E9     1.070525779322072E-2    5.686204508076976E-1    4.059419947478221E-2   -6.798405593557997E-3    3.981833195579315E-2   -7.434652993763735E-3    1.227586097309257E-1    5.149620947841806E-1
 6.565264305800000E9     1.181141959626305E-2    5.684018511718134E-1    4.068095665752015E-2   -6.941197145239190E-3    3.998533851209617E-2   -7.532679251908310E-3    1.239332629011629E-1    5.146621215310198E-1
 6.565276420275000E9     1.286202413436491E-2    5.684326156893571E-1    4.098204650137371E-2   -7.122280428918008E-3    4.033725418835754E-2   -7.698734735385416E-3    1.252710627934936E-1    5.142510464734706E-1
 6.565288534750000E9     1.392768938278336E-2    5.683966623561630E-1    4.108510131323619E-2   -7.156205369063817E-3    4.047461846245126E-2   -7.820983761323667E-3    1.265201478091725E-1    5.141649359470174E-1
 6.565300649225000E9     1.485373188998993E-2    5.683620877159835E-1    4.152885820199888E-2   -7.473662571298975E-3    4.075884945380472E-2   -7.981689072615848E-3    1.278334004282299E-1    5.136523123246588E-1
 6.565312763700000E9     1.586180744621287E-2    5.682770961401281E-1    4.169861586195308E-2   -7.469153268264355E-3    4.102645649153737E-2   -8.083300673843722E-3    1.291320193371336E-1    5.133912699197614E-1
 6.565324878175000E9     1.699804965160354E-2    5.682155607975384E-1    4.198495117886276E-2   -7.702187947870256E-3    4.119559227016995E-2   -8.392807114667885E-3    1.304753133238121E-1    5.131297068847931E-1
 6.565336992650000E9     1.806526077157274E-2    5.680879772563814E-1    4.219702331411981E-2   -7.937024677718460E-3    4.146557584020596E-2   -8.456559629046458E-3    1.318240851463038E-1    5.126657256629620E-1
 6.565349107125000E9     1.905787691302750E-2    5.680322830686710E-1    4.245693307282597E-2   -8.128605511610581E-3    4.173732065982915E-2   -8.700337403442907E-3    1.331331101373326E-1    5.123418366227932E-1
 6.565361221600000E9     2.010716449040644E-2    5.680095151322164E-1    4.271396459552355E-2   -8.301542678500324E-3    4.199684561014404E-2   -8.893888090725926E-3    1.343892857452099E-1    5.119419382198739E-1
 6.565373336075000E9     2.115274732767286E-2    5.680319035393377E-1    4.305014085722663E-2   -8.366728868265930E-3    4.235539902696932E-2   -8.900398042619356E-3    1.357922139515291E-1    5.115141774847437E-1
 6.565385450550000E9     2.214986943940073E-2    5.679113520577266E-1    4.330170918979813E-2   -8.466219692693729E-3    4.260202914183035E-2   -9.209709005321920E-3    1.370740619260441E-1    5.112934486293337E-1
 6.565397565025000E9     2.319326488219571E-2    5.678477372770097E-1    4.354444459735685E-2   -8.713720441282623E-3    4.281184726823725E-2   -9.417353897881058E-3    1.384679267425548E-1    5.107416600666875E-1
 6.565409679500000E9     2.434445820292873E-2    5.677357972291344E-1    4.391820120306771E-2   -8.950301293628437E-3    4.323968949045689E-2   -9.536763545844569E-3    1.397027444375362E-1    5.104577208449187E-1
 6.565421793975000E9     2.544713299607801E-2    5.676358450205399E-1    4.419652596012683E-2   -9.238749373722654E-3    4.340246076584223E-2   -9.705202947703549E-3    1.410835590971607E-1    5.101618722805249E-1
 6.565433908450000E9     2.646137489554777E-2    5.676227274744939E-1    4.437175924131151E-2   -9.281514581710865E-3    4.368522504809539E-2   -9.907996596666557E-3    1.425101715646080E-1    5.096189761570149E-1
 6.565446022925000E9     2.750892040069399E-2    5.675230209489606E-1    4.481369432123941E-2   -9.403794558962454E-3    4.405870724912529E-2   -1.012296471287797E-2    1.439177007151384E-1    5.091394907117445E-1
 6.565458137400000E9     2.854517544568910E-2    5.673241435420993E-1    4.499580089903038E-2   -9.572962660751666E-3    4.430746475107707E-2   -1.026434505203419E-2    1.452637132120556E-1    5.087592244673115E-1
 6.565470251875000E9     2.965925992651960E-2    5.673466268154512E-1    4.535403284320461E-2   -9.790941235900189E-3    4.455030851070959E-2   -1.040247670603920E-2    1.466033810393176E-1    5.083241111642314E-1
 6.565482366350000E9     3.065499869954563E-2    5.672636692286184E-1    4.551177473418798E-2   -1.001932975034741E-2    4.486939514958411E-2   -1.068971843356050E-2    1.479276942002250E-1    5.079713928508881E-1
 6.565494480825000E9     3.179499616076389E-2    5.670574294209190E-1    4.596529222201974E-2   -1.034053544353569E-2    4.518595784951946E-2   -1.072692265747362E-2    1.495153712443318E-1    5.075036417941123E-1
 6.565506595300000E9     3.291563856352128E-2    5.670438204843308E-1    4.635428608439980E-2   -1.049989645161449E-2    4.541964942586841E-2   -1.109684773971547E-2    1.509295050150548E-1    5.069600153528766E-1
 6.565518709775000E9     3.395184871322216E-2    5.668796059090861E-1    4.659242754342723E-2   -1.061907251720337E-2    4.572598101963880E-2   -1.122185928611855E-2    1.522151402124431E-1    5.065890853808181E-1
 6.565530824250000E9     3.490159490623899E-2    5.667682231252091E-1    4.692822597179164E-2   -1.083731220194554E-2    4.603933345812504E-2   -1.142042720061610E-2    1.535381646480323E-1    5.059542927207399E-1
 6.565542938725000E9     3.621401181638598E-2    5.665487352290242E-1    4.704274505326732E-2   -1.109932436681679E-2    4.640335723031825E-2   -1.160687876217805E-2    1.549249612743465E-1    5.055213788604781E-1
 6.565555053200000E9     3.716223509951632E-2    5.665392587827625E-1    4.751493526891556E-2   -1.121926336147349E-2    4.675346054624024E-2   -1.193020243990128E-2    1.564998926728002E-1    5.051118062098451E-1
 6.565567167675000E9     3.820510411477319E-2    5.663707624552234E-1    4.785979378804198E-2   -1.148588770938828E-2    4.709799026323795E-2   -1.210797373974222E-2    1.580105588578329E-1    5.047410542192178E-1
 6.565579282150000E9     3.926624324320057E-2    5.662649001945317E-1    4.805255046113108E-2   -1.183354453704291E-2    4.743075941226191E-2   -1.235984693070544E-2    1.593763053366357E-1    5.040782537293889E-1
 6.565591396625000E9     4.029209446285063E-2    5.661939887629673E-1    4.849595283583644E-2   -1.210380785892081E-2    4.776768066090431E-2   -1.253918278788446E-2    1.606883799568756E-1    5.035855962108474E-1
 6.565603511100000E9     4.163991615741274E-2    5.660162665695884E-1    4.893005382935420E-2   -1.224297537305235E-2    4.809487638289235E-2   -1.285490904361355E-2    1.622681681264582E-1    5.031524326833501E-1
 6.565615625575000E9     4.264624656852090E-2    5.659150208561058E-1    4.925992904894223E-2   -1.242691254786230E-2    4.839565036859592E-2   -1.311957214792157E-2    1.638305925387419E-1    5.025543563018735E-1
 6.565627740050000E9     4.368147064409437E-2    5.656971893800588E-1    4.960764771482062E-2   -1.277216743587512E-2    4.877927201336864E-2   -1.333451807594964E-2    1.653164812464474E-1    5.019884463027158E-1
 6.565639854525000E9     4.488133343671536E-2    5.655621043096902E-1    4.990672268443096E-2   -1.292352051557708E-2    4.910499074873606E-2   -1.354370330130483E-2    1.667650482087762E-1    5.013658123867846E-1
 6.565651969000000E9     4.598794265737137E-2    5.655495214107207E-1    5.030848412846311E-2   -1.317660896442864E-2    4.948462703772159E-2   -1.388766394837055E-2    1.681842454816970E-1    5.008596863941980E-1
 6.565664083475000E9     4.706842386106382E-2    5.652583028900223E-1    5.065775648749511E-2   -1.343865285096819E-2    4.997396736480034E-2   -1.400895206005485E-2    1.697066262906377E-1    5.003881231282676E-1
 6.565676197950000E9     4.812105581799092E-2    5.652252990744434E-1    5.108891488546824E-2   -1.370507156804534E-2    5.021295575480399E-2   -1.429787729492464E-2    1.714392749832531E-1    4.998167600997201E-1
 6.565688312425000E9     4.929018561480008E-2    5.649187181564573E-1    5.141350638804425E-2   -1.405865391900630E-2    5.066516066946657E-2   -1.457354137650200E-2    1.727705054378409E-1    4.992230665396085E-1
 6.565700426900000E9     5.036687059564832E-2    5.647894293213925E-1    5.189875614546188E-2   -1.443229146958528E-2    5.103888557477858E-2   -1.498284938019142E-2    1.743849365353409E-1    4.985675138866328E-1
 6.565712541375000E9     5.140595295164234E-2    5.645478220266883E-1    5.224465709024088E-2   -1.438753222350662E-2    5.146297102600244E-2   -1.522720550641640E-2    1.759059297893335E-1    4.978999212147929E-1
 6.565724655850000E9     5.263515493970843E-2    5.644957207814985E-1    5.264675954335588E-2   -1.490181435351244E-2    5.178798995689270E-2   -1.547154120706755E-2    1.775002259653708E-1    4.972682260043223E-1
 6.565736770325000E9     5.373972948504946E-2    5.643256092483684E-1    5.302011928632874E-2   -1.508146556121695E-2    5.207303957183299E-2   -1.574650295660150E-2    1.790891602511115E-1    4.966201470908516E-1
 6.565748884800000E9     5.483359262266023E-2    5.641038163527415E-1    5.352069364054274E-2   -1.543444929484655E-2    5.251375187567313E-2   -1.607372175359102E-2    1.806067772859245E-1    4.959050554863990E-1
 6.565760999275000E9     5.608993255293029E-2    5.639646686689169E-1    5.378588702025808E-2   -1.579674498795917E-2    5.291934929577086E-2   -1.645258314993862E-2    1.822276116767255E-1    4.953853824228815E-1
 6.565773113750000E9     5.727347722603526E-2    5.636705524166452E-1    5.428716920911524E-2   -1.605707180361231E-2    5.348080084357260E-2   -1.677779207979345E-2    1.839088714830178E-1    4.946859023750915E-1
