#  HZ   S   RI   R     50.00 
! Rohde & Schwarz Vector Network Analyzer 
! Rohde-Schwarz,ZNB20-2Port,1311601062101988,3.16
! Created: UTC 3/20/2024, 5:06:26 PM
! freq[Hz]                re:S11                  im:S11                  re:S21                  im:S21                  re:S12                  im:S12                  re:S22                  im:S22
 6.564246080000000E9    -7.137896154229378E-2    5.645318265590316E-1    2.721297571301839E-2    1.553810934079653E-4    2.667319590393309E-2   -4.462924216736196E-4    2.769813164701199E-2    5.244361784551086E-1
 6.564260055375000E9    -7.041885183897435E-2    5.646137183356208E-1    2.738926656639584E-2    2.371863540741656E-6    2.682537386065765E-2   -4.777488263374042E-4    2.906841637988608E-2    5.244501990616500E-1
 6.564274030750000E9    -6.921280614809394E-2    5.647662188804310E-1    2.755567171153564E-2   -4.849272913244617E-5    2.701967884824412E-2   -5.677576165077701E-4    3.030003904521172E-2    5.243654427469608E-1
 6.564288006125000E9    -6.805439573203044E-2    5.648976506746359E-1    2.760076064875774E-2   -1.048062940087390E-4    2.715350774722799E-2   -6.425964853780062E-4    3.165161269767060E-2    5.244666785085469E-1
 6.564301981500000E9    -6.692961334122439E-2    5.650500439909881E-1    2.766030799430556E-2   -1.700967938848524E-4    2.724137615886102E-2   -6.960842838539759E-4    3.276231476299345E-2    5.243504200038882E-1
 6.564315956875000E9    -6.593009302170746E-2    5.652039164717260E-1    2.778774999118835E-2   -3.170351609557335E-4    2.740275976297251E-2   -7.584212514990088E-4    3.392540039003383E-2    5.242814506517030E-1
 6.564329932250000E9    -6.461020199379824E-2    5.652829013841211E-1    2.793228160544498E-2   -2.975167914321731E-4    2.758882544013445E-2   -8.601165028365315E-4    3.509959859426501E-2    5.241351040671982E-1
 6.564343907625000E9    -6.361184224542159E-2    5.653214228667111E-1    2.814947775815655E-2   -5.700329945350900E-4    2.769979131586956E-2   -8.940167884182388E-4    3.645501295856693E-2    5.240513291317093E-1
 6.564357883000000E9    -6.251164173349540E-2    5.655485914199438E-1    2.823251744985306E-2   -5.444819922143015E-4    2.785111456468527E-2   -8.922912021393794E-4    3.749076956536165E-2    5.240952396756363E-1
 6.564371858375000E9    -6.147039722381305E-2    5.656541872428442E-1    2.840373264911859E-2   -5.040065681857462E-4    2.796703279583517E-2   -9.953206300041928E-4    3.868193114672866E-2    5.239824246185323E-1
 6.564385833750000E9    -6.037055544293302E-2    5.657814604125960E-1    2.854732986506411E-2   -6.730455554586613E-4    2.814922700880841E-2   -1.068112538492366E-3    4.010110052373758E-2    5.238767862935528E-1
 6.564399809125000E9    -5.920938874435856E-2    5.657724083707948E-1    2.881022399677703E-2   -6.804878895342582E-4    2.839827018793718E-2   -1.211331368303741E-3    4.114438120624375E-2    5.238465958594362E-1
 6.564413784500000E9    -5.826846555734386E-2    5.659844997417558E-1    2.887959464835492E-2   -8.486451593698684E-4    2.843122084056221E-2   -1.194728026765407E-3    4.252585009863964E-2    5.237514757685248E-1
 6.564427759875000E9    -5.705464680043584E-2    5.660335997536518E-1    2.907605869820753E-2   -8.160030045432029E-4    2.867920862703510E-2   -1.338745290172545E-3    4.357229098202203E-2    5.235755132434777E-1
 6.564441735250000E9    -5.594189271415337E-2    5.661325404192266E-1    2.919678984281255E-2   -1.028725638892204E-3    2.877222293956543E-2   -1.365116086923513E-3    4.488073048899476E-2    5.235015294942299E-1
 6.564455710625000E9    -5.482830770820274E-2    5.662036012403813E-1    2.940586806955712E-2   -1.003245555003892E-3    2.884667446033641E-2   -1.469822481401488E-3    4.636570252246566E-2    5.233097757884144E-1
 6.564469686000000E9    -5.366747712425597E-2    5.665012241501191E-1    2.947068154871950E-2   -9.643094345411368E-4    2.901266463044834E-2   -1.616094115835639E-3    4.757122750515180E-2    5.233809642225126E-1
 6.564483661375000E9    -5.262569723584919E-2    5.664067751690479E-1    2.974155669827774E-2   -1.176835732756417E-3    2.913066321831565E-2   -1.733018633103719E-3    4.862878730261774E-2    5.230899225595773E-1
 6.564497636750000E9    -5.146107128514563E-2    5.666260596711460E-1    2.976454500232582E-2   -1.195212433710185E-3    2.936522228416564E-2   -1.802862588914854E-3    4.976920179453283E-2    5.229829774615292E-1
 6.564511612125000E9    -5.039534517190918E-2    5.666811751520994E-1    2.998770271542245E-2   -1.226172049801885E-3    2.952935749619069E-2   -1.810755007676298E-3    5.100457877531291E-2    5.229759501302150E-1
 6.564525587500000E9    -4.923187948730524E-2    5.667026604057956E-1    3.016693573981150E-2   -1.464920661212385E-3    2.962516438112892E-2   -1.842173601748512E-3    5.218942777189743E-2    5.228822830367361E-1
 6.564539562875000E9    -4.805227779035451E-2    5.668358301629112E-1    3.045673367267074E-2   -1.540223883295944E-3    2.979529875486383E-2   -2.010595539361211E-3    5.359658528206655E-2    5.226292256092872E-1
 6.564553538250000E9    -4.695448584033875E-2    5.669269696575221E-1    3.037072348429052E-2   -1.494538903496143E-3    2.999231915247619E-2   -2.035395399058686E-3    5.473339199342420E-2    5.227383454573302E-1
 6.564567513625000E9    -4.586502519821636E-2    5.669430133774844E-1    3.066884826388648E-2   -1.701892720128537E-3    3.015446618817724E-2   -2.150564137331581E-3    5.610849767603857E-2    5.225355522589988E-1
 6.564581489000000E9    -4.469906377605857E-2    5.671165009461900E-1    3.080021941665270E-2   -1.805877345882130E-3    3.035495230804258E-2   -2.203045133302851E-3    5.721690853885952E-2    5.223897170497412E-1
 6.564595464375000E9    -4.362530185882323E-2    5.670801992453172E-1    3.113871928302412E-2   -1.835801735152059E-3    3.049454647910637E-2   -2.383246454981388E-3    5.854695044397139E-2    5.223832693288065E-1
 6.564609439750000E9    -4.250028028679605E-2    5.671804733845290E-1    3.121724207670445E-2   -1.841617884496782E-3    3.073100491426983E-2   -2.382208956021907E-3    5.991151072350246E-2    5.221266297964827E-1
 6.564623415125000E9    -4.144207536186720E-2    5.672558085236740E-1    3.129127549509371E-2   -2.031805273416230E-3    3.082198367763214E-2   -2.424822217700284E-3    6.109650770849880E-2    5.220575789123757E-1
 6.564637390500000E9    -4.030279405953142E-2    5.674915911355556E-1    3.147152470061564E-2   -2.016068381838008E-3    3.096252315106219E-2   -2.648633590543870E-3    6.241599100073185E-2    5.218031316545407E-1
 6.564651365875000E9    -3.915826092895289E-2    5.673373981402019E-1    3.157872017122260E-2   -2.259320388259455E-3    3.111804342309739E-2   -2.673185666870814E-3    6.367916180403657E-2    5.217746838080179E-1
 6.564665341250000E9    -3.787021934661172E-2    5.674119815046795E-1    3.181673998752474E-2   -2.363122821758094E-3    3.127930701725263E-2   -2.776266611180799E-3    6.498221027128184E-2    5.215963320636895E-1
 6.564679316625000E9    -3.686368332451734E-2    5.675638142123709E-1    3.190600361239580E-2   -2.423118879235245E-3    3.148774447430557E-2   -2.887824118460596E-3    6.617274488064212E-2    5.215561013436885E-1
 6.564693292000000E9    -3.573091497839356E-2    5.676810605468872E-1    3.227058811552060E-2   -2.555062154248538E-3    3.163993278698066E-2   -2.959181817746385E-3    6.740711047462770E-2    5.212711894445158E-1
 6.564707267375000E9    -3.468669156139693E-2    5.676362213025182E-1    3.237900354585677E-2   -2.551244042980050E-3    3.186653516032734E-2   -3.083838530247083E-3    6.874032362736458E-2    5.210184584550034E-1
 6.564721242750000E9    -3.341775615164285E-2    5.677437560815990E-1    3.258976079901495E-2   -2.831514222267179E-3    3.201202288514926E-2   -3.200953614210350E-3    7.006403002762766E-2    5.209597345880115E-1
 6.564735218125000E9    -3.231589321915246E-2    5.677475660896002E-1    3.291765289799049E-2   -2.868402091628064E-3    3.216095327237712E-2   -3.277890422597705E-3    7.135511679556608E-2    5.208498631512367E-1
 6.564749193500000E9    -3.117057526073383E-2    5.677253405138619E-1    3.308373543493665E-2   -2.753725617212912E-3    3.245656293063306E-2   -3.449644898060649E-3    7.272557364631098E-2    5.205119236556387E-1
 6.564763168875000E9    -3.014225196392729E-2    5.678163923596543E-1    3.318140794690228E-2   -2.945501420117794E-3    3.259827616788281E-2   -3.548451200000006E-3    7.384333324699348E-2    5.205252147937643E-1
 6.564777144250000E9    -2.897116072923152E-2    5.679175416596766E-1    3.327499249793969E-2   -2.973133682190687E-3    3.276164581863004E-2   -3.647092180982077E-3    7.552465806258614E-2    5.202031507733785E-1
 6.564791119625000E9    -2.776407143376524E-2    5.679121037326049E-1    3.359886716475536E-2   -3.239899347485726E-3    3.289866382723934E-2   -3.715971644355725E-3    7.656870294874579E-2    5.200094450787952E-1
 6.564805095000000E9    -2.667372944198596E-2    5.679634932687093E-1    3.368034676087326E-2   -3.251439602321785E-3    3.311104405088745E-2   -3.733766633542105E-3    7.790985085347395E-2    5.197229126994602E-1
 6.564819070375000E9    -2.554199205542947E-2    5.680706620401191E-1    3.406054336865406E-2   -3.528146183974839E-3    3.333056474697371E-2   -3.892612251064286E-3    7.921720705683015E-2    5.195192336425120E-1
 6.564833045750000E9    -2.440024498030362E-2    5.681063196902646E-1    3.410053536508284E-2   -3.567196016259830E-3    3.363026304950195E-2   -4.065487727591625E-3    8.051097326070256E-2    5.196471508065469E-1
 6.564847021125000E9    -2.319301403455291E-2    5.680645466379640E-1    3.447998124915309E-2   -3.611397760081487E-3    3.371009463028284E-2   -4.146741808717717E-3    8.196848454826798E-2    5.192625927256184E-1
 6.564860996500000E9    -2.198623282554760E-2    5.680572968057698E-1    3.460289240944709E-2   -3.809175832973517E-3    3.387169079153831E-2   -4.294927637429106E-3    8.307088015744978E-2    5.190318534820672E-1
 6.564874971875000E9    -2.080887127311440E-2    5.681498282356436E-1    3.479909983457856E-2   -3.906410993349255E-3    3.409491649461146E-2   -4.347435826254956E-3    8.457455070238110E-2    5.185715407690837E-1
 6.564888947250000E9    -1.974303488635909E-2    5.680796039691600E-1    3.502318996273216E-2   -3.965052660289430E-3    3.440570213435815E-2   -4.582089970247087E-3    8.594076253290191E-2    5.184475670351133E-1
 6.564902922625000E9    -1.853761478264379E-2    5.680571110637994E-1    3.515943165529377E-2   -4.107021968367809E-3    3.470973788363060E-2   -4.587841802750722E-3    8.726081114069807E-2    5.183954791254970E-1
 6.564916898000000E9    -1.733327850883482E-2    5.681936902970639E-1    3.540378734531580E-2   -4.258282317496833E-3    3.470411860715126E-2   -4.739041109795281E-3    8.860382260231389E-2    5.181641266085502E-1
 6.564930873375000E9    -1.635844359206375E-2    5.681053954125223E-1    3.553773668846590E-2   -4.427023570498924E-3    3.503224646228455E-2   -4.858323601264633E-3    8.993931006537398E-2    5.177344918962917E-1
 6.564944848750000E9    -1.520016888067195E-2    5.681374211523887E-1    3.590705082901794E-2   -4.423219072813495E-3    3.510952798778810E-2   -5.038872309780376E-3    9.138519026089748E-2    5.174013790506530E-1
 6.564958824125000E9    -1.389650560290715E-2    5.682351706407562E-1    3.614287911408700E-2   -4.628003418646995E-3    3.543444060776626E-2   -5.228744317313160E-3    9.271477573310445E-2    5.173088077413006E-1
 6.564972799500000E9    -1.278220470981993E-2    5.681490617572301E-1    3.625721510054069E-2   -4.627700242361603E-3    3.559431184735740E-2   -5.215937010803686E-3    9.396395376178562E-2    5.171538085022023E-1
 6.564986774875000E9    -1.162815369312664E-2    5.682069356866850E-1    3.641034624267649E-2   -4.827804758458397E-3    3.593572762241974E-2   -5.475000991274463E-3    9.534095646464540E-2    5.167272338132552E-1
 6.565000750250000E9    -1.051414575166127E-2    5.681344814856302E-1    3.672820727812529E-2   -5.080551518773051E-3    3.614299269502227E-2   -5.553935102629423E-3    9.676272250856231E-2    5.165500206493659E-1
 6.565014725625000E9    -9.265584886355304E-3    5.681904259041878E-1    3.698539818241756E-2   -5.106054453505037E-3    3.632360779672645E-2   -5.665698149687317E-3    9.814778380783534E-2    5.162535675225087E-1
 6.565028701000000E9    -8.063918466649854E-3    5.682090028647171E-1    3.727362214992753E-2   -5.134308898323921E-3    3.659475466663568E-2   -5.906026438572806E-3    9.952698704688809E-2    5.159759654952548E-1
 6.565042676375000E9    -6.930724934580413E-3    5.682546522766219E-1    3.747076029821718E-2   -5.441722097338583E-3    3.684025675625226E-2   -5.965551720609493E-3    1.010314923529966E-1    5.157723078103256E-1
 6.565056651750000E9    -5.838880019112592E-3    5.681160780032026E-1    3.786342361783915E-2   -5.651663063003257E-3    3.710629597652827E-2   -6.122119607433774E-3    1.023269835640353E-1    5.154926488040991E-1
 6.565070627125000E9    -4.693462085274766E-3    5.682086952463813E-1    3.795822241638478E-2   -5.760619410425748E-3    3.731278141872463E-2   -6.287430432371881E-3    1.036457665160649E-1    5.151444426004297E-1
 6.565084602500000E9    -3.440797361598629E-3    5.681047926322526E-1    3.823635359906352E-2   -5.870134433070389E-3    3.751625796655879E-2   -6.389498763172996E-3    1.052676540201185E-1    5.148413222907150E-1
 6.565098577875000E9    -2.213673913721909E-3    5.681004169642436E-1    3.848738657103850E-2   -6.039183400728283E-3    3.782488552310852E-2   -6.494885550631654E-3    1.067114473851597E-1    5.144324672567826E-1
 6.565112553250000E9    -1.055909633868633E-3    5.680502296921454E-1    3.868441539357224E-2   -6.221044986135746E-3    3.810660784354532E-2   -6.703041001040024E-3    1.079411229908070E-1    5.142854636813715E-1
 6.565126528625000E9     8.574469472525238E-5    5.680602299331423E-1    3.905432540089009E-2   -6.277790345761461E-3    3.832094070093874E-2   -6.881181824544598E-3    1.094436173577573E-1    5.138344395702028E-1
 6.565140504000000E9     1.342634876138354E-3    5.680652604262219E-1    3.918459253280417E-2   -6.630205057980982E-3    3.851405968383629E-2   -7.040499959797169E-3    1.107893011686749E-1    5.135551871842462E-1
 6.565154479375000E9     2.484166570963141E-3    5.679080595754935E-1    3.955088023621647E-2   -6.542038091036305E-3    3.888168515872387E-2   -7.136631992304620E-3    1.123360528173360E-1    5.131322109539528E-1
 6.565168454750000E9     3.668403311388960E-3    5.678784294905406E-1    3.970308497029659E-2   -6.856925784450591E-3    3.908169211621575E-2   -7.409773858254905E-3    1.136043632583447E-1    5.127979427017449E-1
 6.565182430125000E9     4.853693964820505E-3    5.678053784524060E-1    4.008911869666718E-2   -6.981482847632644E-3    3.943854749728008E-2   -7.576563387973842E-3    1.151614825995377E-1    5.124471588302537E-1
 6.565196405500000E9     6.066587421584390E-3    5.677975846125299E-1    4.028160113438124E-2   -7.172052952322559E-3    3.967109248401623E-2   -7.745633568909638E-3    1.166421468195135E-1    5.120260839281381E-1
 6.565210380875000E9     7.131360868206881E-3    5.678143881743669E-1    4.064674355541054E-2   -7.411752468135599E-3    3.991800145690479E-2   -7.955577377606373E-3    1.180924246724976E-1    5.118111414632872E-1
 6.565224356250000E9     8.306658521303230E-3    5.677313184749891E-1    4.079352200954737E-2   -7.559438759799878E-3    4.005168568029725E-2   -8.096947402707303E-3    1.196280156721825E-1    5.113576884399386E-1
 6.565238331625000E9     9.631209724981009E-3    5.676387446068961E-1    4.106411222450546E-2   -7.726610177941907E-3    4.044290400246639E-2   -8.234862930771223E-3    1.210478569905042E-1    5.110119612314863E-1
 6.565252307000000E9     1.079745051968963E-2    5.675441699060985E-1    4.147051604630368E-2   -7.907586768032257E-3    4.074012987055811E-2   -8.358813513377047E-3    1.224912947848856E-1    5.105151129383008E-1
 6.565266282375000E9     1.194997933005436E-2    5.676455872187115E-1    4.182047645009332E-2   -8.248236869000744E-3    4.111117087797012E-2   -8.656408857808886E-3    1.240119278431991E-1    5.101882884440493E-1
 6.565280257750000E9     1.322850540691376E-2    5.674712208194673E-1    4.188317116817056E-2   -8.390649023395060E-3    4.136328916637169E-2   -8.929018380680409E-3    1.255277853091505E-1    5.097353741706913E-1
 6.565294233125000E9     1.443507384525372E-2    5.674344242388705E-1    4.229791447393829E-2   -8.507922767508481E-3    4.166375880361687E-2   -9.017831124718777E-3    1.270533262663077E-1    5.094760414040044E-1
 6.565308208500000E9     1.562138749704539E-2    5.673134147436172E-1    4.266070865137698E-2   -8.636617487654354E-3    4.195398167319805E-2   -9.292103478109420E-3    1.284556727490000E-1    5.089726567336639E-1
 6.565322183875000E9     1.682365045839127E-2    5.671662660177313E-1    4.297882519560298E-2   -8.947271749036813E-3    4.221007730039242E-2   -9.391045657193387E-3    1.302135594795929E-1    5.084765213043612E-1
 6.565336159250000E9     1.802933616485616E-2    5.671891547332135E-1    4.336835682042390E-2   -9.169716449799343E-3    4.248397543375833E-2   -9.563847832490107E-3    1.316309107242056E-1    5.079857273831374E-1
 6.565350134625000E9     1.925159929045123E-2    5.669875837389440E-1    4.350871093736937E-2   -9.347054999323364E-3    4.281079413544801E-2   -9.825452676051245E-3    1.330743588762683E-1    5.076377448123763E-1
 6.565364110000000E9     2.051085369262802E-2    5.670002004742312E-1    4.403387242457865E-2   -9.470413298971730E-3    4.320891415733412E-2   -1.011251405013189E-2    1.345642389893220E-1    5.072662786021819E-1
 6.565378085375000E9     2.166964868461095E-2    5.668985616131826E-1    4.425189297232291E-2   -9.757554698026572E-3    4.345647656081650E-2   -1.028573346676551E-2    1.360493711399157E-1    5.066674538034919E-1
 6.565392060750000E9     2.289091223188998E-2    5.667829119710530E-1    4.455521141746029E-2   -9.988487611147534E-3    4.380619190745798E-2   -1.050476023265071E-2    1.379376556007786E-1    5.061047668909704E-1
 6.565406036125000E9     2.413965274007740E-2    5.666812097881221E-1    4.491412619181162E-2   -1.015111954763027E-2    4.407075557704593E-2   -1.064788488105787E-2    1.392398217908073E-1    5.055806315256033E-1
 6.565420011500000E9     2.539785368628822E-2    5.666324799022562E-1    4.531306004449777E-2   -1.047488432784098E-2    4.446584125471239E-2   -1.104083081889266E-2    1.409085808545856E-1    5.051103882219006E-1
 6.565433986875000E9     2.657880278933051E-2    5.664551745160539E-1    4.557902807053988E-2   -1.074595125230081E-2    4.484057094415186E-2   -1.124820409372126E-2    1.425671641099217E-1    5.047167340728967E-1
 6.565447962250000E9     2.777122251651029E-2    5.663059635447332E-1    4.605744426087480E-2   -1.094162425315030E-2    4.508985355716749E-2   -1.146345298847133E-2    1.440887748569092E-1    5.042815672811847E-1
 6.565461937625000E9     2.906214955476462E-2    5.660980233110490E-1    4.626818406522454E-2   -1.116393863346213E-2    4.558401055409003E-2   -1.173005109973565E-2    1.457691846991756E-1    5.035104931367518E-1
 6.565475913000000E9     3.030323107371989E-2    5.660956065396371E-1    4.652197757973695E-2   -1.151667890015632E-2    4.595094256300263E-2   -1.198324308822563E-2    1.473262526186084E-1    5.031113540423736E-1
 6.565489888375000E9     3.158957029228350E-2    5.660033901895828E-1    4.710252408906335E-2   -1.171290813489941E-2    4.629633747847963E-2   -1.234243054093398E-2    1.489222611030408E-1    5.025377489137741E-1
 6.565503863750000E9     3.286011092393969E-2    5.658326428367636E-1    4.743085016693806E-2   -1.186579774994610E-2    4.658138452450820E-2   -1.254040422957818E-2    1.506190085194964E-1    5.019138020544257E-1
