#  HZ   S   RI   R     50.00 
! Rohde & Schwarz Vector Network Analyzer 
! Rohde-Schwarz,ZNB20-2Port,1311601062101988,3.16
! Created: UTC 3/20/2024, 5:06:34 PM
! freq[Hz]                re:S11                  im:S11                  re:S21                  im:S21                  re:S12                  im:S12                  re:S22                  im:S22
 6.564253592000000E9    -7.065730316005854E-2    5.645247026154390E-1    2.722472366789164E-2    4.143569871774943E-5    2.682056211796155E-2   -4.162432404205543E-4    2.847640602958977E-2    5.243352139000543E-1
 6.564267544900000E9    -6.957693733212732E-2    5.648023789883966E-1    2.730720781215645E-2   -5.427797625463733E-5    2.690512109310336E-2   -4.933436437341047E-4    2.973192200251447E-2    5.244351940980909E-1
 6.564281497800000E9    -6.847177131696876E-2    5.648833619435999E-1    2.748244144464545E-2    2.718826619527649E-5    2.699369908551453E-2   -5.543873504446211E-4    3.098614995303825E-2    5.244830101810308E-1
 6.564295450700000E9    -6.728623045581530E-2    5.650683318382250E-1    2.777708589413257E-2   -1.018036303184978E-4    2.722153258141290E-2   -6.872143129761555E-4    3.227301361923505E-2    5.242535124337939E-1
 6.564309403600000E9    -6.622397738252345E-2    5.651644593942862E-1    2.787375858157196E-2   -2.301956426525074E-4    2.735022920697626E-2   -7.639210191633884E-4    3.337389652805517E-2    5.243402868535959E-1
 6.564323356500000E9    -6.509306338205206E-2    5.651545816754111E-1    2.792092910719596E-2   -3.742178918727752E-4    2.749190100052512E-2   -7.759459098194405E-4    3.458745366109231E-2    5.241116257523829E-1
 6.564337309400000E9    -6.404873047843118E-2    5.653453475804582E-1    2.811993005431375E-2   -3.239991990951081E-4    2.768453943596232E-2   -7.832247007309931E-4    3.561540190194638E-2    5.240386941319035E-1
 6.564351262300000E9    -6.293781515290385E-2    5.654457703684987E-1    2.831725171475913E-2   -3.944857473494186E-4    2.770877955737283E-2   -9.211966964329944E-4    3.692867442525517E-2    5.240462563152085E-1
 6.564365215200000E9    -6.177043305725800E-2    5.655985224481876E-1    2.841752737700994E-2   -4.068734025193474E-4    2.791773572961557E-2   -8.966924845347891E-4    3.817471208011346E-2    5.239174341798530E-1
 6.564379168100000E9    -6.074538277801526E-2    5.657051579301421E-1    2.861536560648659E-2   -5.243634900778882E-4    2.803985793139913E-2   -1.134065090022496E-3    3.944446026951016E-2    5.238431199390778E-1
 6.564393121000000E9    -5.965808635120039E-2    5.658389433881102E-1    2.872094332672378E-2   -5.457814753911066E-4    2.813252126274019E-2   -1.080509119947863E-3    4.063730095804517E-2    5.238353172632675E-1
 6.564407073900000E9    -5.855155801638647E-2    5.659142512630457E-1    2.883052287998006E-2   -7.006371032567463E-4    2.833377068474563E-2   -1.218116917804172E-3    4.179554447008277E-2    5.235991827402668E-1
 6.564421026800000E9    -5.742799804735828E-2    5.659584297754383E-1    2.902259695216568E-2   -7.896218741023593E-4    2.842914365223936E-2   -1.282573798177378E-3    4.287016889864066E-2    5.237492337758753E-1
 6.564434979700000E9    -5.629669094074631E-2    5.660531680066927E-1    2.923891316188461E-2   -9.420336467667378E-4    2.860718365138498E-2   -1.330775026693060E-3    4.429268094135133E-2    5.235974981327106E-1
 6.564448932600000E9    -5.525488723856876E-2    5.661488938951496E-1    2.917853601522185E-2   -9.706049728309829E-4    2.881181001214457E-2   -1.393033179878125E-3    4.548103006887440E-2    5.236539047089028E-1
 6.564462885500000E9    -5.412256454246310E-2    5.661925781595806E-1    2.938806210556146E-2   -1.035969408015163E-3    2.890132536004605E-2   -1.573480391353552E-3    4.680609275402695E-2    5.233433157910063E-1
 6.564476838400000E9    -5.294537733486581E-2    5.664234843397519E-1    2.950340594597670E-2   -1.058577304204359E-3    2.906896706332466E-2   -1.559253180114864E-3    4.799195395129175E-2    5.232483879371462E-1
 6.564490791300000E9    -5.182047514360660E-2    5.665216234938775E-1    2.980620559904262E-2   -1.199935725194439E-3    2.923560212598271E-2   -1.672389575116358E-3    4.915484958892932E-2    5.232718333608930E-1
 6.564504744200000E9    -5.075699059284844E-2    5.666655558343177E-1    2.987581290658217E-2   -1.325811246059605E-3    2.942391973934145E-2   -1.795494498446861E-3    5.046951111124798E-2    5.230930359543516E-1
 6.564518697100000E9    -4.968875770455038E-2    5.665835280036975E-1    2.999914113412038E-2   -1.452734911808795E-3    2.953545885181620E-2   -1.801430331617492E-3    5.174269129470806E-2    5.229796870604304E-1
 6.564532650000000E9    -4.848053802831732E-2    5.666812897393376E-1    3.016969102386918E-2   -1.425908539740118E-3    2.968668936435707E-2   -1.888015849381578E-3    5.294697862705975E-2    5.228238125021799E-1
 6.564546602900000E9    -4.725848590081024E-2    5.668885587475664E-1    3.044385333672033E-2   -1.521659840316781E-3    2.990882241420992E-2   -1.966890663705999E-3    5.423780643364647E-2    5.226162580237987E-1
 6.564560555800000E9    -4.633988156827420E-2    5.669482989439343E-1    3.055027442437192E-2   -1.518193351730382E-3    3.004676225863257E-2   -2.030459475584232E-3    5.538685142604001E-2    5.226535797893624E-1
 6.564574508700000E9    -4.511572422838716E-2    5.669173179417991E-1    3.072358439770963E-2   -1.729695382489855E-3    3.012263036597219E-2   -2.189665053042978E-3    5.674575097105482E-2    5.223980713885915E-1
 6.564588461600000E9    -4.402926074805597E-2    5.671310381484022E-1    3.088320721559989E-2   -1.828713870237158E-3    3.039965846068271E-2   -2.277168362850574E-3    5.795716860781521E-2    5.223955405081776E-1
 6.564602414500000E9    -4.292244561009248E-2    5.670559873402397E-1    3.113698251981480E-2   -1.996695161841229E-3    3.058083931540678E-2   -2.338375508598215E-3    5.916238301975289E-2    5.222844925770277E-1
 6.564616367400000E9    -4.181568097343004E-2    5.671888286110472E-1    3.119639515013255E-2   -1.943865697667906E-3    3.070019399308323E-2   -2.586189476646590E-3    6.046443470448509E-2    5.221074269175806E-1
 6.564630320300000E9    -4.072065017473991E-2    5.673262414705998E-1    3.142396655990505E-2   -1.997969001277671E-3    3.087143721347068E-2   -2.552440989350497E-3    6.166807982733925E-2    5.218148477561320E-1
 6.564644273200000E9    -3.955231656080657E-2    5.672948508260182E-1    3.157345604212224E-2   -2.174774880074894E-3    3.116243995950446E-2   -2.702233082755562E-3    6.312321141874062E-2    5.217433601779674E-1
 6.564658226100000E9    -3.846217897653294E-2    5.674310211075371E-1    3.168836729868815E-2   -2.194068360255442E-3    3.114375434481947E-2   -2.740176182465309E-3    6.421929106550125E-2    5.215208716490043E-1
 6.564672179000000E9    -3.741820059806121E-2    5.675196229624818E-1    3.196930060088293E-2   -2.429032345043730E-3    3.143636143934301E-2   -2.828413887062563E-3    6.569657574414747E-2    5.213125314058125E-1
 6.564686131900000E9    -3.614809294300696E-2    5.675349230117167E-1    3.200981441470799E-2   -2.487932964315329E-3    3.151546733793005E-2   -2.910761556949102E-3    6.698781949859427E-2    5.214321933276775E-1
 6.564700084800000E9    -3.501974013023736E-2    5.676497258632236E-1    3.224909227455942E-2   -2.493983697544300E-3    3.168293890267430E-2   -3.009389393477442E-3    6.823808405033470E-2    5.212020280687878E-1
 6.564714037700000E9    -3.390651402128528E-2    5.676753993944728E-1    3.249637143500291E-2   -2.536854650864640E-3    3.190111760892665E-2   -3.189822513676905E-3    6.944391699146346E-2    5.210379050144361E-1
 6.564727990600000E9    -3.269143379837065E-2    5.677874861081036E-1    3.263478014718302E-2   -2.623883737806617E-3    3.210785352459834E-2   -3.253978726166252E-3    7.076482597545142E-2    5.208526528573096E-1
 6.564741943500000E9    -3.155825015261245E-2    5.677257789961074E-1    3.263579488630908E-2   -2.821701102705699E-3    3.225715956922267E-2   -3.280185856300167E-3    7.194977930031010E-2    5.206533795224197E-1
 6.564755896400000E9    -3.041369045968785E-2    5.678399971724726E-1    3.303512820307422E-2   -2.932008832337718E-3    3.245569663628049E-2   -3.396646757795585E-3    7.336260363508067E-2    5.205333567284244E-1
 6.564769849300000E9    -2.932343988760376E-2    5.678675975879381E-1    3.316817753534297E-2   -3.211873625432451E-3    3.261337602904257E-2   -3.533390672719827E-3    7.451393418065835E-2    5.203287531516654E-1
 6.564783802200000E9    -2.824678053828390E-2    5.678850497480357E-1    3.339494990047554E-2   -3.026511399747140E-3    3.284420159558942E-2   -3.667248154419117E-3    7.591913424134765E-2    5.201172529956409E-1
 6.564797755100000E9    -2.712616241016698E-2    5.679874669513779E-1    3.347946943612803E-2   -3.294063334014444E-3    3.302761202159614E-2   -3.771604975498798E-3    7.729596570658316E-2    5.199634022037724E-1
 6.564811708000000E9    -2.601635519952038E-2    5.680035986589467E-1    3.384451000418909E-2   -3.272911923818335E-3    3.317683487780976E-2   -3.821558805393589E-3    7.862197532471443E-2    5.196850537330984E-1
 6.564825660900000E9    -2.483305938085297E-2    5.679731119561198E-1    3.399714852531484E-2   -3.437710523931881E-3    3.327816439889106E-2   -3.980468568409324E-3    7.981801010007893E-2    5.195102631738977E-1
 6.564839613800000E9    -2.375219794675047E-2    5.680069414379930E-1    3.416089904842892E-2   -3.347401808746251E-3    3.359603643130823E-2   -4.117047095126568E-3    8.142035564862145E-2    5.194343535787992E-1
 6.564853566700000E9    -2.245596687197550E-2    5.681433181344250E-1    3.445042153509151E-2   -3.519218332927191E-3    3.381431526288053E-2   -4.108084859835708E-3    8.251751252801999E-2    5.191098891213696E-1
 6.564867519600000E9    -2.127685194964496E-2    5.681759969759691E-1    3.455038073490067E-2   -3.766008835766996E-3    3.398289414413665E-2   -4.268220319859237E-3    8.390112330712132E-2    5.188469746844592E-1
 6.564881472500000E9    -2.022504563112228E-2    5.681602692831900E-1    3.493646657089280E-2   -3.925437928269629E-3    3.417734882435550E-2   -4.441451604115889E-3    8.514105708823945E-2    5.185854265071939E-1
 6.564895425400000E9    -1.912574166677114E-2    5.682332997334527E-1    3.508483253634505E-2   -3.973911588946774E-3    3.441730531125704E-2   -4.520200503257261E-3    8.645039785000917E-2    5.185090658369912E-1
 6.564909378300000E9    -1.796323523808656E-2    5.682208836413398E-1    3.528727962036285E-2   -4.184840706030938E-3    3.464571606495417E-2   -4.694262760282883E-3    8.783507987008571E-2    5.182368336011342E-1
 6.564923331200000E9    -1.675123145362592E-2    5.682227671739850E-1    3.548177902346838E-2   -4.269522955241044E-3    3.495045232137598E-2   -4.733683704860501E-3    8.922020264841826E-2    5.178723134427836E-1
 6.564937284100000E9    -1.566449779005096E-2    5.682171487147529E-1    3.573440512384091E-2   -4.337328669699421E-3    3.506098007476733E-2   -4.897810488239264E-3    9.060613879180852E-2    5.177008265309132E-1
 6.564951237000000E9    -1.443000166330777E-2    5.682717152671656E-1    3.582299128735773E-2   -4.474544844378838E-3    3.530584069065783E-2   -5.111064856097087E-3    9.181905978899650E-2    5.173583748539614E-1
 6.564965189900000E9    -1.336595112246386E-2    5.682068855565885E-1    3.608791885838925E-2   -4.783518997267837E-3    3.555988527518070E-2   -5.163546737783867E-3    9.333719031976494E-2    5.170921958669845E-1
 6.564979142800000E9    -1.206794086846611E-2    5.682272911923776E-1    3.625751199217275E-2   -4.913933775666190E-3    3.577913641090359E-2   -5.308148943867432E-3    9.459115951536443E-2    5.169347257256308E-1
 6.564993095700000E9    -1.105049568504194E-2    5.682239952369303E-1    3.655479942426491E-2   -4.784294395729315E-3    3.598637614927380E-2   -5.469114771190505E-3    9.597698921367900E-2    5.165971792806556E-1
 6.565007048600000E9    -9.850190680817297E-3    5.682154362412828E-1    3.691906843323256E-2   -4.989278291480642E-3    3.622226352995652E-2   -5.631648513936770E-3    9.746508627742496E-2    5.163731132133248E-1
 6.565021001500000E9    -8.634585974482162E-3    5.682095931147182E-1    3.709855918427511E-2   -5.161731660345148E-3    3.651550277719530E-2   -5.731319810977589E-3    9.864707772357099E-2    5.162453087670982E-1
 6.565034954400000E9    -7.475775183129386E-3    5.681166565749827E-1    3.736098571670345E-2   -5.311460294013660E-3    3.671770791709458E-2   -5.786339090454360E-3    1.001450733100324E-1    5.158337792770615E-1
 6.565048907300000E9    -6.248774615868490E-3    5.681535927895218E-1    3.761346010976315E-2   -5.583026167105101E-3    3.688964453659557E-2   -6.017776828474501E-3    1.015521071742105E-1    5.155188978666329E-1
 6.565062860200000E9    -5.080597290265098E-3    5.681204062675668E-1    3.782221321090299E-2   -5.617884135361720E-3    3.704470228300327E-2   -6.151793185559882E-3    1.030009378614797E-1    5.152738289560025E-1
 6.565076813100000E9    -3.958282897812427E-3    5.680854471597349E-1    3.788009294714239E-2   -5.839341823579097E-3    3.741730358135098E-2   -6.299959718920540E-3    1.042754881590817E-1    5.150413486684857E-1
 6.565090766000000E9    -2.808423002144048E-3    5.680073758749269E-1    3.830144966684254E-2   -5.848323791121947E-3    3.764234118007898E-2   -6.461496219975735E-3    1.058737087292350E-1    5.146805032422703E-1
 6.565104718900000E9    -1.612699261143844E-3    5.681027688761470E-1    3.854050132846877E-2   -6.061882282869023E-3    3.783713216002503E-2   -6.585717548685597E-3    1.070934236361340E-1    5.142364835471839E-1
 6.565118671800000E9    -4.508359067222892E-4    5.680766158465548E-1    3.871415234272719E-2   -6.223745670966131E-3    3.816593765371005E-2   -6.714631233541248E-3    1.085057629019179E-1    5.140886502469023E-1
 6.565132624700000E9     6.868461697638839E-4    5.680687061224033E-1    3.895555525675597E-2   -6.364408748681873E-3    3.829342365219846E-2   -6.930406652990210E-3    1.099570529247121E-1    5.137275416457830E-1
 6.565146577600000E9     1.870362965484189E-3    5.679879709845312E-1    3.930608011225895E-2   -6.684395210309685E-3    3.865542739085025E-2   -7.051795691915165E-3    1.113602559619977E-1    5.132669584967688E-1
 6.565160530500000E9     3.081099256391568E-3    5.679463350726669E-1    3.963673709597437E-2   -6.636872371084400E-3    3.891719102341256E-2   -7.200133123282589E-3    1.128404874421192E-1    5.128932675113778E-1
 6.565174483400000E9     4.398483970076947E-3    5.678519523969411E-1    3.979389138660423E-2   -6.859551508323404E-3    3.922119545162776E-2   -7.460565321798430E-3    1.142757983199195E-1    5.127279348127991E-1
 6.565188436300000E9     5.396352939438404E-3    5.678101448619959E-1    4.005770803366123E-2   -7.077628211997891E-3    3.931663533598077E-2   -7.621236487267574E-3    1.158430746881634E-1    5.123711851179401E-1
 6.565202389200000E9     6.731325985227003E-3    5.677631503612982E-1    4.033375925680915E-2   -7.130626121180142E-3    3.975519598615600E-2   -7.795674225177985E-3    1.172426805391802E-1    5.119966266601785E-1
 6.565216342100000E9     7.847071468912460E-3    5.677712005696636E-1    4.060367389414515E-2   -7.326832593910717E-3    3.996486759295817E-2   -7.964967004984677E-3    1.187108420778507E-1    5.116850556972161E-1
 6.565230295000000E9     9.003008482855649E-3    5.677017424511094E-1    4.088915556094042E-2   -7.582470433965299E-3    4.026614805384308E-2   -8.160667563274557E-3    1.201602985016782E-1    5.112423697450738E-1
 6.565244247900000E9     1.021461270698393E-2    5.676100434696136E-1    4.113769240327603E-2   -7.822347589531025E-3    4.044479656439395E-2   -8.299077262910175E-3    1.217280864911280E-1    5.109186592481476E-1
 6.565258200800000E9     1.136247383605504E-2    5.675385960541345E-1    4.151802754977355E-2   -7.987403386435136E-3    4.090459548135528E-2   -8.484974972077217E-3    1.232887891526139E-1    5.104541942093881E-1
 6.565272153700000E9     1.256171085580686E-2    5.674012154825018E-1    4.189925570389298E-2   -8.165781991628946E-3    4.111845197523306E-2   -8.611635018810132E-3    1.246102115620073E-1    5.100212990434886E-1
 6.565286106600000E9     1.380664819283088E-2    5.674358973986989E-1    4.218307880388530E-2   -8.357845165207416E-3    4.140407038016990E-2   -8.848673384738296E-3    1.261055669701719E-1    5.096278132527909E-1
 6.565300059500000E9     1.503834211261938E-2    5.673731779035350E-1    4.246015206536697E-2   -8.414347357202851E-3    4.172113419357265E-2   -9.115603357009217E-3    1.276099578610503E-1    5.092926654984878E-1
 6.565314012400000E9     1.615440807970154E-2    5.673341141307783E-1    4.281721507446988E-2   -8.820971731719999E-3    4.187127983346952E-2   -9.368446263545252E-3    1.291677203916382E-1    5.087385836221657E-1
 6.565327965300000E9     1.746721004665820E-2    5.671522199438869E-1    4.301830243491744E-2   -8.953847963046876E-3    4.232558393421641E-2   -9.432446521485480E-3    1.305927410012347E-1    5.083136501857890E-1
 6.565341918200000E9     1.865334941160603E-2    5.671895681385746E-1    4.332057957194228E-2   -9.259842194923028E-3    4.262591006638069E-2   -9.614243625122657E-3    1.321756215017951E-1    5.079374398461988E-1
 6.565355871100000E9     1.987800921189839E-2    5.669972746210145E-1    4.364438828631293E-2   -9.251851300389156E-3    4.293743584844590E-2   -9.936584334680395E-3    1.338426351894234E-1    5.074858370506959E-1
 6.565369824000000E9     2.115073176334478E-2    5.669716652585362E-1    4.390904685750098E-2   -9.535524091118967E-3    4.315202841858964E-2   -1.011922031925224E-2    1.352743008011959E-1    5.069397562338372E-1
 6.565383776900000E9     2.219912210142692E-2    5.668621452523761E-1    4.428782099439596E-2   -9.804300438172714E-3    4.353844190220206E-2   -1.030113773869263E-2    1.368479386775012E-1    5.066731979675106E-1
 6.565397729800000E9     2.349111338680934E-2    5.667715725775992E-1    4.457444560631905E-2   -1.004824210667575E-2    4.392834618032374E-2   -1.056146266602748E-2    1.383576990095703E-1    5.061333377739898E-1
 6.565411682700000E9     2.470077497463727E-2    5.664934563292214E-1    4.493939307909405E-2   -1.024897599323293E-2    4.421219236805938E-2   -1.075254233585020E-2    1.398575082158329E-1    5.054875021590819E-1
 6.565425635600000E9     2.578319431286769E-2    5.664881416391063E-1    4.525446889325555E-2   -1.050985792985209E-2    4.457619431751775E-2   -1.110304487917610E-2    1.416243610804968E-1    5.050742745992139E-1
 6.565439588500000E9     2.725798996938760E-2    5.664215494794631E-1    4.569853977452280E-2   -1.066531969226720E-2    4.495131388080357E-2   -1.124016566741002E-2    1.431021805822668E-1    5.045406487542717E-1
 6.565453541400000E9     2.835737564991636E-2    5.662131561443984E-1    4.602922970057539E-2   -1.090551187698095E-2    4.531253242300529E-2   -1.157308616476272E-2    1.446868974369679E-1    5.039084543069653E-1
 6.565467494300000E9     2.957549744981818E-2    5.661533874781797E-1    4.641882669568567E-2   -1.127947167133978E-2    4.553247058483841E-2   -1.187416032198859E-2    1.462989003802224E-1    5.034562750273012E-1
 6.565481447200000E9     3.097416659871520E-2    5.659701189540718E-1    4.668046590737641E-2   -1.148887956088626E-2    4.596945326054604E-2   -1.196541439310428E-2    1.479822504087426E-1    5.029422058396856E-1
 6.565495400100000E9     3.214204393972495E-2    5.659400997995050E-1    4.707255963239197E-2   -1.170634485626491E-2    4.625649326213673E-2   -1.238263872748302E-2    1.495173063053462E-1    5.023560237796976E-1
 6.565509353000000E9     3.333169378988965E-2    5.657626048218500E-1    4.747346677615600E-2   -1.199340567115183E-2    4.661625146718738E-2   -1.248578926102894E-2    1.511975804453066E-1    5.017590085161466E-1
