#  HZ   S   RI   R     50.00 
! Rohde & Schwarz Vector Network Analyzer 
! Rohde-Schwarz,ZNB20-2Port,1311601062101988,3.16
! Created: UTC 3/20/2024, 5:06:46 PM
! freq[Hz]                re:S11                  im:S11                  re:S21                  im:S21                  re:S12                  im:S12                  re:S22                  im:S22
 6.564267524000000E9    -6.974237698662390E-2    5.647569557261899E-1    2.735816616047453E-2   -1.270803352135101E-4    2.684714038381216E-2   -4.716978073487918E-4    2.968821731889948E-2    5.244375517161163E-1
 6.564281427000000E9    -6.854710456803616E-2    5.648077543285821E-1    2.746400698583294E-2   -1.303550397990982E-4    2.704276676990522E-2   -4.492809539768630E-4    3.093832012357332E-2    5.245005717286516E-1
 6.564295330000000E9    -6.756690860240112E-2    5.650572962263204E-1    2.759995804162666E-2   -1.911833581626379E-4    2.719930303190509E-2   -5.802213009423867E-4    3.208475899623801E-2    5.244612047898461E-1
 6.564309233000000E9    -6.632962035922560E-2    5.651289230721811E-1    2.781283412727007E-2   -2.575255711447814E-4    2.729115085739494E-2   -6.776901002842127E-4    3.332417892036109E-2    5.243101420139213E-1
 6.564323136000000E9    -6.537372660331239E-2    5.653274350326800E-1    2.791182842790859E-2   -2.644701944745863E-4    2.740193918121852E-2   -7.485315805556572E-4    3.437271114137521E-2    5.242168691844881E-1
 6.564337039000000E9    -6.425341517267055E-2    5.654482305415286E-1    2.807460214069888E-2   -4.461731013273257E-4    2.748064112317377E-2   -8.655391970791041E-4    3.559793406613476E-2    5.241693577047685E-1
 6.564350942000000E9    -6.303998811556148E-2    5.654103774692445E-1    2.817194687521610E-2   -3.935603303747049E-4    2.764800841034733E-2   -8.712068146154177E-4    3.695917919011594E-2    5.241609913709432E-1
 6.564364845000000E9    -6.211741058845017E-2    5.656705790729764E-1    2.830387538255544E-2   -5.210831468088698E-4    2.791933571708309E-2   -9.330560921233324E-4    3.810531689027260E-2    5.241365657572953E-1
 6.564378748000000E9    -6.091396716015739E-2    5.657560203184181E-1    2.853906841692384E-2   -5.071264104757652E-4    2.796773643830931E-2   -9.931249832406744E-4    3.916249777298247E-2    5.239909576570473E-1
 6.564392651000000E9    -5.979374400460034E-2    5.657378176907536E-1    2.854015804204882E-2   -6.392055925064233E-4    2.809901737555266E-2   -1.125001743434720E-3    4.059821737960256E-2    5.238421017946078E-1
 6.564406554000000E9    -5.878458443583036E-2    5.659749921325566E-1    2.874311652940030E-2   -6.755080132904786E-4    2.829670625404448E-2   -1.143542514558338E-3    4.172331650563590E-2    5.237888385636719E-1
 6.564420457000000E9    -5.762199937816393E-2    5.660050092542924E-1    2.883904760950806E-2   -7.564247104269646E-4    2.841164776946137E-2   -1.339577555099889E-3    4.278347189709619E-2    5.239213168444311E-1
 6.564434360000000E9    -5.663323703250111E-2    5.661819480368486E-1    2.900868579484526E-2   -8.187101873659580E-4    2.865751721424668E-2   -1.382811432618787E-3    4.409738436511980E-2    5.236280312913515E-1
 6.564448263000000E9    -5.537987770721012E-2    5.662894025047074E-1    2.927941945751560E-2   -9.238102308637998E-4    2.870722322793436E-2   -1.416447210778982E-3    4.538014285167775E-2    5.236927895955384E-1
 6.564462166000000E9    -5.428168669180710E-2    5.662600753060766E-1    2.935379316593843E-2   -8.993600632384021E-4    2.896479209609310E-2   -1.469037397983682E-3    4.652737489797817E-2    5.234367545047149E-1
 6.564476069000000E9    -5.314485059831663E-2    5.664828560116304E-1    2.936874650196774E-2   -1.118336209624718E-3    2.912335315739073E-2   -1.507126457542002E-3    4.789258517507407E-2    5.232753778576298E-1
 6.564489972000000E9    -5.208442820517416E-2    5.665318635498319E-1    2.955637271317812E-2   -1.238226790087675E-3    2.915756821716561E-2   -1.672547833053733E-3    4.901563213529794E-2    5.232483113188879E-1
 6.564503875000000E9    -5.098042978245219E-2    5.665798841132158E-1    2.991985843674508E-2   -1.238333006654623E-3    2.937720700604290E-2   -1.751165776374925E-3    5.031283906078161E-2    5.231809941526621E-1
 6.564517778000000E9    -4.988664856291210E-2    5.667342195262044E-1    2.989901353279354E-2   -1.374131119053973E-3    2.949953697065443E-2   -1.743845127400558E-3    5.158424529270168E-2    5.230484543628942E-1
 6.564531681000000E9    -4.868091621868458E-2    5.668235353866691E-1    3.026061398421895E-2   -1.314294258579288E-3    2.968211052965103E-2   -1.859864360281642E-3    5.280760023853710E-2    5.229974107030240E-1
 6.564545584000000E9    -4.776332943390946E-2    5.669947007325642E-1    3.040438199456691E-2   -1.550309887176584E-3    2.976676385356404E-2   -1.987598696920281E-3    5.404726118356629E-2    5.228493809231984E-1
 6.564559487000000E9    -4.648457218801069E-2    5.669047002344533E-1    3.051823399129208E-2   -1.594046754375517E-3    2.996192748731205E-2   -2.087642326116084E-3    5.528747200828256E-2    5.228350158868813E-1
 6.564573390000000E9    -4.530729857163900E-2    5.670375147984263E-1    3.069481977289348E-2   -1.588092926485863E-3    3.018519334209232E-2   -2.041615533869633E-3    5.656491341219232E-2    5.226552426085970E-1
 6.564587293000000E9    -4.432256676138727E-2    5.671000288541923E-1    3.083499043286474E-2   -1.824176028419970E-3    3.034990759946298E-2   -2.176220923725109E-3    5.763437742853338E-2    5.225539256412146E-1
 6.564601196000000E9    -4.318772130207176E-2    5.671371156219153E-1    3.097329397755149E-2   -1.936465136466028E-3    3.045927086995674E-2   -2.301847878528035E-3    5.898920471853185E-2    5.224085464061275E-1
 6.564615099000000E9    -4.196357125226435E-2    5.673046704336432E-1    3.109718577809288E-2   -1.875067996388674E-3    3.071632213976561E-2   -2.404820830101676E-3    6.017992950310556E-2    5.222297150286712E-1
 6.564629002000000E9    -4.097513829344409E-2    5.673808860866537E-1    3.128457353378868E-2   -2.106694085463713E-3    3.086215326039358E-2   -2.523289923981173E-3    6.155393698452826E-2    5.219471944186836E-1
 6.564642905000000E9    -3.979392155404377E-2    5.673168583079486E-1    3.152604106074189E-2   -2.003348379251571E-3    3.096422644991739E-2   -2.609351003732758E-3    6.277998101339850E-2    5.218849633329209E-1
 6.564656808000000E9    -3.882333376298605E-2    5.674300353593922E-1    3.175076213487903E-2   -2.174245593176152E-3    3.108791792233136E-2   -2.618224471989091E-3    6.405121702476789E-2    5.216909032752418E-1
 6.564670711000000E9    -3.763139158841421E-2    5.676309211872438E-1    3.180143580305738E-2   -2.261149257915471E-3    3.134326177546250E-2   -2.782869701338900E-3    6.526686835173438E-2    5.216609141791807E-1
 6.564684614000000E9    -3.640101249802764E-2    5.675731300353797E-1    3.198623245362441E-2   -2.432864637054011E-3    3.137794925344565E-2   -2.762653832042034E-3    6.661254052309393E-2    5.215520458348387E-1
 6.564698517000000E9    -3.529006673201372E-2    5.676120027126675E-1    3.225790143166202E-2   -2.578602357230384E-3    3.157664749260443E-2   -2.990541686343792E-3    6.798907535607208E-2    5.214093319225367E-1
 6.564712420000000E9    -3.405807131483045E-2    5.676703212793462E-1    3.235743611708109E-2   -2.536995460281552E-3    3.181669299316534E-2   -3.119119489211215E-3    6.925875249688339E-2    5.210583453233664E-1
 6.564726323000000E9    -3.302943474045014E-2    5.676925535319157E-1    3.253805834043521E-2   -2.674777298447868E-3    3.198239863367715E-2   -3.189926725882344E-3    7.043123389630208E-2    5.210007104686467E-1
 6.564740226000000E9    -3.195577288973824E-2    5.678297513686525E-1    3.288627906465943E-2   -2.715978779681696E-3    3.217262362123872E-2   -3.284009675837423E-3    7.171481073285597E-2    5.207906447270614E-1
 6.564754129000000E9    -3.078414711738732E-2    5.679315611104696E-1    3.302507647432158E-2   -2.832128977311014E-3    3.236353730306283E-2   -3.359176652798155E-3    7.312053758962053E-2    5.206420034892654E-1
 6.564768032000000E9    -2.960165838647625E-2    5.678585642092924E-1    3.323108154867666E-2   -2.980374263177328E-3    3.261336518502096E-2   -3.532018900359386E-3    7.435335802971335E-2    5.203671360061671E-1
 6.564781935000000E9    -2.857041665138340E-2    5.678487122213651E-1    3.340711685286196E-2   -2.986692780890114E-3    3.283816524670499E-2   -3.558281131658023E-3    7.573239389032857E-2    5.203433023860128E-1
 6.564795838000000E9    -2.733056408118434E-2    5.679430604187734E-1    3.358239050092299E-2   -3.216549513295646E-3    3.293161015776259E-2   -3.707218139316949E-3    7.691123769572131E-2    5.199983161172221E-1
 6.564809741000000E9    -2.621848384003749E-2    5.680548706417934E-1    3.379041812660068E-2   -3.308456219986267E-3    3.308656537601840E-2   -3.789224470785529E-3    7.823555588372395E-2    5.199650999252113E-1
 6.564823644000000E9    -2.507377306153653E-2    5.681665499972246E-1    3.394949671100789E-2   -3.377346324948907E-3    3.333964415550309E-2   -3.928858340293177E-3    7.943100194037252E-2    5.196431217860535E-1
 6.564837547000000E9    -2.394221946174042E-2    5.681457338017398E-1    3.398900602290581E-2   -3.631873268865024E-3    3.353790147372975E-2   -4.053597125963163E-3    8.081627052969405E-2    5.194116947505725E-1
 6.564851450000000E9    -2.290512560608577E-2    5.681235840594996E-1    3.430719472791267E-2   -3.538576516188007E-3    3.377510199568739E-2   -4.179215996985211E-3    8.215272557870515E-2    5.193115807985245E-1
 6.564865353000000E9    -2.167762745595455E-2    5.681550881490716E-1    3.455262351760968E-2   -3.758950433544500E-3    3.396668530283908E-2   -4.186983915058284E-3    8.347501450563895E-2    5.189523771103057E-1
 6.564879256000000E9    -2.056239379320616E-2    5.680790696402057E-1    3.480491336720525E-2   -3.752086657356561E-3    3.411841160025577E-2   -4.382117171077368E-3    8.480127168572919E-2    5.188453865181165E-1
 6.564893159000000E9    -1.941824316628226E-2    5.681829128059164E-1    3.492859300893186E-2   -4.008858539237343E-3    3.431303286617594E-2   -4.362799787479832E-3    8.612378547597645E-2    5.184889531643673E-1
 6.564907062000000E9    -1.823660052758643E-2    5.681911815593701E-1    3.528731251672922E-2   -4.203268222737356E-3    3.456673574233864E-2   -4.596399893926113E-3    8.758164097384992E-2    5.183233403895184E-1
 6.564920965000000E9    -1.709365459490225E-2    5.682058721061025E-1    3.536397403840197E-2   -4.256332354664309E-3    3.482322645204162E-2   -4.746113216209749E-3    8.884614343945563E-2    5.182285744891463E-1
 6.564934868000000E9    -1.597375548867378E-2    5.682308233652875E-1    3.554601634841802E-2   -4.354579938930001E-3    3.497987355282847E-2   -4.901949017221120E-3    9.013736778232972E-2    5.179364704531704E-1
 6.564948771000000E9    -1.467917612144070E-2    5.682298998693709E-1    3.580151865620717E-2   -4.492880651464543E-3    3.517651255119444E-2   -5.046128137550187E-3    9.149219965027117E-2    5.176502657540347E-1
 6.564962674000000E9    -1.366876143806943E-2    5.683063385717495E-1    3.608523789898336E-2   -4.566330733542081E-3    3.541343195602280E-2   -5.128363855736848E-3    9.302852300365806E-2    5.174792351834617E-1
 6.564976577000000E9    -1.246736831980495E-2    5.681729356500274E-1    3.630562881110391E-2   -4.713332563417750E-3    3.556589004311014E-2   -5.318368989490967E-3    9.418004551589915E-2    5.171928602989695E-1
 6.564990480000000E9    -1.129796249068302E-2    5.683188332094188E-1    3.641584807298693E-2   -4.904430699408085E-3    3.583987150286107E-2   -5.404046966235263E-3    9.572691271372231E-2    5.168646189635927E-1
 6.565004383000000E9    -1.021604518004786E-2    5.682370195816414E-1    3.680287239083058E-2   -4.935056534361885E-3    3.605704126805905E-2   -5.559430085408577E-3    9.712808923055191E-2    5.166075902970706E-1
 6.565018286000000E9    -9.073870960656960E-3    5.682223233974967E-1    3.680147045652337E-2   -5.104264166630056E-3    3.637157590916447E-2   -5.658166517386606E-3    9.850248815738220E-2    5.163574547019311E-1
 6.565032189000000E9    -7.793567058409293E-3    5.682565930074611E-1    3.703342298045079E-2   -5.315702829920203E-3    3.657937948255850E-2   -5.845816717225918E-3    9.971747477612802E-2    5.160376789359717E-1
 6.565046092000000E9    -6.683417394669440E-3    5.681519198862039E-1    3.744106411666084E-2   -5.349347135788368E-3    3.677545738151830E-2   -5.925033240100152E-3    1.012504683560069E-1    5.157567053847268E-1
 6.565059995000000E9    -5.510673301413370E-3    5.681429381212691E-1    3.756714973211718E-2   -5.590529092988726E-3    3.697882722342323E-2   -6.083689432719923E-3    1.025292480881597E-1    5.154291593874162E-1
 6.565073898000000E9    -4.449468060144926E-3    5.681538889403869E-1    3.797438863632383E-2   -5.702625372443914E-3    3.730387308204832E-2   -6.225179762386170E-3    1.039559738955168E-1    5.150966848603787E-1
 6.565087801000000E9    -3.148655816291424E-3    5.680832894113754E-1    3.820193341801790E-2   -5.832952020273914E-3    3.744192002400373E-2   -6.322211321866315E-3    1.053219723586245E-1    5.148223343607616E-1
 6.565101704000000E9    -1.979027576851370E-3    5.680353353200526E-1    3.848457359249999E-2   -5.980728516130326E-3    3.777288470580534E-2   -6.670877538550203E-3    1.066792942193020E-1    5.146010218655537E-1
 6.565115607000000E9    -8.577744951589969E-4    5.681060645894547E-1    3.870640188079107E-2   -6.155522908978340E-3    3.805922263163255E-2   -6.703138744312217E-3    1.080761957595823E-1    5.143207729682293E-1
 6.565129510000000E9     3.220485222185696E-4    5.680129691081702E-1    3.882571089312563E-2   -6.237254579502759E-3    3.832966523198952E-2   -6.955073538726592E-3    1.095653277838427E-1    5.139177896102333E-1
 6.565143413000000E9     1.446740710368072E-3    5.680124440140041E-1    3.933415800574788E-2   -6.422870122464924E-3    3.852231349150948E-2   -7.075192799965611E-3    1.110808052187181E-1    5.135734387613968E-1
 6.565157316000000E9     2.646074012823787E-3    5.680716867476543E-1    3.939459557291097E-2   -6.584652460729945E-3    3.878831384529542E-2   -7.144988547107762E-3    1.123914875734872E-1    5.133015494378773E-1
 6.565171219000000E9     3.896188484553712E-3    5.679661383871323E-1    3.958278314748807E-2   -6.805875146043750E-3    3.900501506593743E-2   -7.236826415625306E-3    1.138531233299776E-1    5.128402832611317E-1
 6.565185122000000E9     5.010236795219430E-3    5.679431328707428E-1    3.985070287307577E-2   -7.134230673947211E-3    3.928094597503372E-2   -7.536350194878679E-3    1.152343712675958E-1    5.126208411115056E-1
 6.565199025000000E9     6.149676304510441E-3    5.679155997415500E-1    4.022155514177553E-2   -7.026798644766997E-3    3.962979357806656E-2   -7.673241412292721E-3    1.167635725121853E-1    5.122571853549657E-1
 6.565212928000000E9     7.402400275691376E-3    5.677247622432789E-1    4.043589956973233E-2   -7.430080590387620E-3    3.987906614740553E-2   -7.837999274470285E-3    1.181424778954236E-1    5.119254530144435E-1
 6.565226831000000E9     8.566533992246496E-3    5.677911294199375E-1    4.090076863350404E-2   -7.515119030946948E-3    4.011792365964255E-2   -8.009037948725513E-3    1.197393570542231E-1    5.114750303706718E-1
 6.565240734000000E9     9.807584017744638E-3    5.677219934581264E-1    4.098591864588824E-2   -7.719188377751751E-3    4.049429871059605E-2   -8.252940868994309E-3    1.211390626052485E-1    5.111718211332683E-1
 6.565254637000000E9     1.096984027607376E-2    5.676884920932108E-1    4.130040476599102E-2   -7.910195074014645E-3    4.068444338979561E-2   -8.344077145921707E-3    1.224907645400130E-1    5.107324926096640E-1
 6.565268540000000E9     1.212615276963178E-2    5.675281985039335E-1    4.166921704833352E-2   -7.906855560132748E-3    4.091506247520647E-2   -8.544171302901192E-3    1.241170843572317E-1    5.103031896664990E-1
 6.565282443000000E9     1.331216354621088E-2    5.674587495956263E-1    4.193564267215224E-2   -8.234360709652439E-3    4.122854222062458E-2   -8.854458704765207E-3    1.257131041212583E-1    5.097855073171366E-1
 6.565296346000000E9     1.458960149160748E-2    5.674298112577164E-1    4.224981829343063E-2   -8.371640225163911E-3    4.150749839645454E-2   -9.040796517406531E-3    1.270030444150715E-1    5.095213213455051E-1
 6.565310249000000E9     1.576428921100139E-2    5.672909247212127E-1    4.262208671813132E-2   -8.500280910539367E-3    4.181722382773937E-2   -9.207299402786315E-3    1.285471065582382E-1    5.090399712669124E-1
 6.565324152000000E9     1.698799205635449E-2    5.672905014799563E-1    4.280699566845104E-2   -8.884418181651751E-3    4.215146018905749E-2   -9.400909312538598E-3    1.301672253756967E-1    5.086059088675210E-1
 6.565338055000000E9     1.816531068384770E-2    5.672160004775108E-1    4.321167813234390E-2   -9.072606270283872E-3    4.243079371149511E-2   -9.681957971921477E-3    1.315617516632787E-1    5.080915848035321E-1
 6.565351958000000E9     1.940234339101277E-2    5.671697942696747E-1    4.356555112475159E-2   -9.198138016295713E-3    4.275828331359577E-2   -9.733802592416805E-3    1.331848481594527E-1    5.077484287713363E-1
 6.565365861000000E9     2.053662946551476E-2    5.669283989700418E-1    4.380078461459336E-2   -9.447250025489823E-3    4.313324503366008E-2   -1.001440005116703E-2    1.346223884243516E-1    5.072870857530070E-1
 6.565379764000000E9     2.173268198951837E-2    5.669412100810387E-1    4.402040705724610E-2   -9.641229363385583E-3    4.330300620593257E-2   -1.022119688679856E-2    1.361482370499489E-1    5.068266135505758E-1
 6.565393667000000E9     2.306499007782026E-2    5.667429467027124E-1    4.430404001849596E-2   -9.856134720162325E-3    4.367794691199954E-2   -1.059198099999239E-2    1.377426340576977E-1    5.064580165013813E-1
 6.565407570000000E9     2.425890611154942E-2    5.667573809216220E-1    4.481211634307058E-2   -1.013981735073800E-2    4.402598339565463E-2   -1.068140041638102E-2    1.392176023003981E-1    5.057822876576832E-1
 6.565421473000000E9     2.550190201223712E-2    5.665549800522888E-1    4.503625708364564E-2   -1.037733098020679E-2    4.428376150589765E-2   -1.087287706131500E-2    1.408683151949560E-1    5.052763819974777E-1
 6.565435376000000E9     2.664920174603743E-2    5.665396448678438E-1    4.543446113039256E-2   -1.059594608445072E-2    4.468648835601810E-2   -1.108735979677380E-2    1.424346025333771E-1    5.048777493588816E-1
 6.565449279000000E9     2.786922839566332E-2    5.662716923975559E-1    4.565423340348801E-2   -1.083621992700640E-2    4.501905709583924E-2   -1.147987820103638E-2    1.439113300650389E-1    5.043971714157433E-1
 6.565463182000000E9     2.909110650920779E-2    5.662180368498898E-1    4.612546194005709E-2   -1.112661324611337E-2    4.540595475741830E-2   -1.167728553700753E-2    1.457800888416074E-1    5.038138952308338E-1
 6.565477085000000E9     3.036375947864011E-2    5.661377633218597E-1    4.650387511178274E-2   -1.127642650390420E-2    4.571695151639293E-2   -1.187281764220470E-2    1.472296379977647E-1    5.032833018260202E-1
 6.565490988000000E9     3.166359247614051E-2    5.659732980850960E-1    4.704000554333045E-2   -1.154495166031693E-2    4.611281004221959E-2   -1.211134861930614E-2    1.488399221583148E-1    5.027959233103354E-1
 6.565504891000000E9     3.284050794062483E-2    5.658912611212256E-1    4.728128301819527E-2   -1.185206625561482E-2    4.645856572768544E-2   -1.235552485014517E-2    1.504346977361412E-1    5.021910886566482E-1
 6.565518794000000E9     3.402248428013494E-2    5.656524521977406E-1    4.772628206440561E-2   -1.209331978913738E-2    4.677030177141004E-2   -1.270881655768558E-2    1.520556819151097E-1    5.016494444289755E-1
