#  HZ   S   RI   R     50.00 
! Rohde & Schwarz Vector Network Analyzer 
! Rohde-Schwarz,ZNB20-2Port,1311601062101988,3.16
! Created: UTC 3/20/2024, 5:06:58 PM
! freq[Hz]                re:S11                  im:S11                  re:S21                  im:S21                  re:S12                  im:S12                  re:S22                  im:S22
 6.564282440000000E9    -6.854105897579163E-2    5.650052124502906E-1    2.752470918300542E-2   -2.931377961396576E-5    2.699720713898647E-2   -6.126783304542759E-4    3.084082966376809E-2    5.244413789253199E-1
 6.564296286850000E9    -6.750049314478496E-2    5.650168926218510E-1    2.755480810852130E-2   -1.023479454919391E-4    2.716046984736431E-2   -6.252438876367514E-4    3.202634364496676E-2    5.243351306111073E-1
 6.564310133700000E9    -6.644132721499928E-2    5.652118282329822E-1    2.775557357320094E-2   -2.133265196800425E-4    2.723760807283777E-2   -6.837637601970826E-4    3.318025554754250E-2    5.243921790145499E-1
 6.564323980550000E9    -6.525408792763088E-2    5.652157637992847E-1    2.798845437118597E-2   -2.793554187897618E-4    2.743653286190662E-2   -7.152960826829349E-4    3.441275329593350E-2    5.241408313468141E-1
 6.564337827400000E9    -6.426454300779251E-2    5.653808252783562E-1    2.804989075801586E-2   -3.749074875918506E-4    2.744787829584146E-2   -7.907753713284895E-4    3.552341138757956E-2    5.241217769332875E-1
 6.564351674250000E9    -6.310938061439794E-2    5.655187779960332E-1    2.822309975579746E-2   -3.948080930230076E-4    2.777654021513589E-2   -7.646451293720196E-4    3.679012148411431E-2    5.242247709988667E-1
 6.564365521100000E9    -6.201215002290819E-2    5.655200237052858E-1    2.832752658395322E-2   -4.391357573432113E-4    2.783126497127296E-2   -9.672103957587403E-4    3.798631010006007E-2    5.240099373687113E-1
 6.564379367950000E9    -6.088603800865394E-2    5.657617622209190E-1    2.840104899363934E-2   -4.958835719547310E-4    2.797063147317320E-2   -1.035687018956111E-3    3.926974956555050E-2    5.241849113475660E-1
 6.564393214800000E9    -5.990088133046875E-2    5.658455917979229E-1    2.865373476719036E-2   -6.794694870160560E-4    2.818710545708840E-2   -1.074768581892102E-3    4.034835487051240E-2    5.237651930417159E-1
 6.564407061650000E9    -5.874568930788265E-2    5.659420023166370E-1    2.881509012453844E-2   -6.164917723868720E-4    2.825060551996757E-2   -1.186717510984897E-3    4.157774598335834E-2    5.239162356503262E-1
 6.564420908500000E9    -5.763676372288617E-2    5.660315004432253E-1    2.883920553537818E-2   -7.560508300941777E-4    2.843354611386479E-2   -1.288360934042390E-3    4.288071875817261E-2    5.237709611630327E-1
 6.564434755350000E9    -5.651548818140665E-2    5.661764964450506E-1    2.919270334285656E-2   -7.429579666529800E-4    2.852215553297231E-2   -1.389988032806580E-3    4.410652239798381E-2    5.235788514573223E-1
 6.564448602200000E9    -5.538584130681634E-2    5.663277243933718E-1    2.925277740386915E-2   -9.413809086995238E-4    2.868210862009353E-2   -1.358359307519662E-3    4.527574868351205E-2    5.235091998289996E-1
 6.564462449050000E9    -5.438835055825823E-2    5.663466934838056E-1    2.933958930421366E-2   -9.838355067266693E-4    2.877000724046123E-2   -1.485815382606721E-3    4.644045595646742E-2    5.234874053349724E-1
 6.564476295900000E9    -5.318169623729910E-2    5.664724448468232E-1    2.936182550672665E-2   -1.093415789642091E-3    2.897118873020942E-2   -1.558574490744553E-3    4.773406816287176E-2    5.234390613354730E-1
 6.564490142750000E9    -5.211122445596600E-2    5.665753843926138E-1    2.960592424716519E-2   -9.894364460596981E-4    2.913830636445039E-2   -1.630156942136810E-3    4.882512050803230E-2    5.233479146203839E-1
 6.564503989600000E9    -5.090206729661272E-2    5.666978877089724E-1    2.980290867064784E-2   -1.309551734128910E-3    2.920298838274489E-2   -1.796287828756582E-3    5.007223533185718E-2    5.232159554718179E-1
 6.564517836450000E9    -4.992944310810581E-2    5.666920989195494E-1    3.001017395883596E-2   -1.299321268263102E-3    2.940605011473962E-2   -1.775279475805831E-3    5.145841457795344E-2    5.231100255058599E-1
 6.564531683300000E9    -4.882571866588619E-2    5.667507507137634E-1    3.019561023552333E-2   -1.339035290882779E-3    2.962469178286694E-2   -1.848560416910319E-3    5.265272459388861E-2    5.230574377246447E-1
 6.564545530150000E9    -4.772215283900427E-2    5.669301840726275E-1    3.030574901813909E-2   -1.486608371696417E-3    2.974162307403672E-2   -1.935884870021774E-3    5.386847708032512E-2    5.229950822111924E-1
 6.564559377000000E9    -4.658218385619746E-2    5.669186993428950E-1    3.035158050596432E-2   -1.382748936905703E-3    2.995947793070466E-2   -2.080950637983421E-3    5.516615712281342E-2    5.225691421814090E-1
 6.564573223850000E9    -4.549750551478790E-2    5.670140938640806E-1    3.047654014956225E-2   -1.742536699269110E-3    3.004960466774624E-2   -2.190242782673053E-3    5.645507563526437E-2    5.225099132066402E-1
 6.564587070700000E9    -4.438506883653316E-2    5.671433256733928E-1    3.081393767565829E-2   -1.790653489543285E-3    3.026258524151118E-2   -2.245833241686856E-3    5.765757141995746E-2    5.224877015309963E-1
 6.564600917550000E9    -4.321750255394132E-2    5.672012858250013E-1    3.092251612739810E-2   -1.801833600110940E-3    3.052218585648517E-2   -2.276071765620154E-3    5.881110450311840E-2    5.222929956162259E-1
 6.564614764400000E9    -4.202852406936038E-2    5.672373790483428E-1    3.124718851643812E-2   -1.902655148901571E-3    3.059435607352978E-2   -2.317078881254784E-3    6.001856948651962E-2    5.223383165863527E-1
 6.564628611250000E9    -4.101501978359787E-2    5.673477625267959E-1    3.132486091685992E-2   -2.011921150153309E-3    3.078729445742971E-2   -2.495890290780751E-3    6.116527048376803E-2    5.220398212393003E-1
 6.564642458100000E9    -3.990666442115311E-2    5.674370028171787E-1    3.148761256843403E-2   -2.116157430535376E-3    3.091902407797044E-2   -2.584427812119842E-3    6.267902816729573E-2    5.219309632073863E-1
 6.564656304950000E9    -3.869268737762591E-2    5.674200865598878E-1    3.171060759345319E-2   -2.030223183634964E-3    3.110137563058211E-2   -2.618382772465524E-3    6.401455510325739E-2    5.218835329065846E-1
 6.564670151800000E9    -3.766811493973620E-2    5.675442829735511E-1    3.183507159809416E-2   -2.308529818355132E-3    3.121725445699106E-2   -2.822150320091604E-3    6.528347978656548E-2    5.215061868722101E-1
 6.564683998650000E9    -3.652889972271833E-2    5.675908338108167E-1    3.198036619943620E-2   -2.313034319049616E-3    3.147713010312481E-2   -2.951125651468524E-3    6.644217421670587E-2    5.215504446839905E-1
 6.564697845500000E9    -3.540260761455390E-2    5.677337486477620E-1    3.205234382114217E-2   -2.398636141444018E-3    3.158802513221193E-2   -2.990786567165578E-3    6.771448048488134E-2    5.213697803902144E-1
 6.564711692350000E9    -3.417338838953042E-2    5.677693868803305E-1    3.224217813441176E-2   -2.445702220910927E-3    3.172784420060348E-2   -3.125506456932181E-3    6.892777724132716E-2    5.211652005800788E-1
 6.564725539200000E9    -3.319473151234947E-2    5.678148734482823E-1    3.238684280770267E-2   -2.561504669508731E-3    3.195421493515654E-2   -3.115934837183575E-3    7.029378964306741E-2    5.210692691586190E-1
 6.564739386050000E9    -3.196106900601949E-2    5.677816221543215E-1    3.270777312917302E-2   -2.787449310975430E-3    3.213554097287389E-2   -3.184555132153480E-3    7.158747594385124E-2    5.207802311177154E-1
 6.564753232900000E9    -3.091297699307959E-2    5.677835307577295E-1    3.300992390989281E-2   -2.765757065419410E-3    3.220113071368803E-2   -3.387901034039152E-3    7.270210331467071E-2    5.207149190469296E-1
 6.564767079750000E9    -2.980960538952706E-2    5.678163302949215E-1    3.308819437145882E-2   -2.852268978456561E-3    3.257841807919474E-2   -3.457820104044349E-3    7.407734107075795E-2    5.204343302656723E-1
 6.564780926600000E9    -2.863554416279677E-2    5.678988814327151E-1    3.327003269564579E-2   -3.007030963792430E-3    3.269848795978068E-2   -3.663387433192491E-3    7.551371936104850E-2    5.203747453559604E-1
 6.564794773450000E9    -2.742983311283397E-2    5.680344923457097E-1    3.346509250957953E-2   -3.145481677751357E-3    3.276273330016052E-2   -3.768624269855860E-3    7.672375446626821E-2    5.200033953725889E-1
 6.564808620300000E9    -2.630030935013166E-2    5.679527129720572E-1    3.368749729693572E-2   -3.241629857927419E-3    3.313777298487114E-2   -3.748631092021375E-3    7.800559360443085E-2    5.199545056750255E-1
 6.564822467150000E9    -2.526399968396863E-2    5.681134640192028E-1    3.389662688991033E-2   -3.374580046292379E-3    3.324325522022648E-2   -3.831645404589835E-3    7.937168709544380E-2    5.197601630393667E-1
 6.564836314000000E9    -2.406093726821189E-2    5.681244717209208E-1    3.404360912122308E-2   -3.385117610972085E-3    3.349817248894151E-2   -3.951272369623300E-3    8.055423834071565E-2    5.194130624987335E-1
 6.564850160850000E9    -2.302587595430728E-2    5.681235879767855E-1    3.428392488089518E-2   -3.559203318918264E-3    3.361121081967457E-2   -3.980164374397484E-3    8.191125569453574E-2    5.193161949435964E-1
 6.564864007700000E9    -2.185656337507755E-2    5.681085651737731E-1    3.438359880461564E-2   -3.708882940077763E-3    3.383561739078654E-2   -4.163711939329444E-3    8.327256396879115E-2    5.190498297091959E-1
 6.564877854550000E9    -2.062473623786526E-2    5.681057442906463E-1    3.458710342579384E-2   -3.884006439232786E-3    3.403774887000525E-2   -4.460934796339376E-3    8.465330525903490E-2    5.189388838900350E-1
 6.564891701400000E9    -1.947483100517045E-2    5.681653691600135E-1    3.477977198144286E-2   -4.050343596692610E-3    3.422276151319700E-2   -4.487217504199914E-3    8.587569942381937E-2    5.185826304274868E-1
 6.564905548250000E9    -1.847713720823604E-2    5.682850602168799E-1    3.499893832743723E-2   -4.165430107322746E-3    3.444329938514983E-2   -4.568274254649067E-3    8.728515252781278E-2    5.183576393442120E-1
 6.564919395100000E9    -1.728240888002314E-2    5.682036021660440E-1    3.521673076519337E-2   -4.124962027821776E-3    3.461085266165171E-2   -4.723569238617849E-3    8.851525933896257E-2    5.182750234505975E-1
 6.564933241950000E9    -1.607737398231688E-2    5.680855227364258E-1    3.557739731772522E-2   -4.268791283384019E-3    3.485334541751938E-2   -4.776788445103776E-3    8.987659299005429E-2    5.179733640861938E-1
 6.564947088800000E9    -1.499259957229010E-2    5.682052971819147E-1    3.574524857853942E-2   -4.401748182365470E-3    3.506889184757058E-2   -4.934982509098649E-3    9.118780720085916E-2    5.175890075645860E-1
 6.564960935650000E9    -1.374206265166541E-2    5.682722556577043E-1    3.592814687005950E-2   -4.594951433803725E-3    3.528676116600139E-2   -5.070528225795086E-3    9.263802708832879E-2    5.174640760133054E-1
 6.564974782500000E9    -1.273489512310491E-2    5.681985763812135E-1    3.608981604536061E-2   -4.567867689678646E-3    3.559198398790205E-2   -5.224953048276365E-3    9.392814655153742E-2    5.173190731133422E-1
 6.564988629350000E9    -1.158434543428618E-2    5.682355221308227E-1    3.637147354636969E-2   -4.822029180768801E-3    3.580786024837869E-2   -5.366547730752787E-3    9.532930464857615E-2    5.169568789761637E-1
 6.565002476200000E9    -1.047710939096315E-2    5.682409886317433E-1    3.661922704997961E-2   -5.046773853777997E-3    3.594406993878066E-2   -5.424936302463022E-3    9.671100500021201E-2    5.166959621524130E-1
 6.565016323050000E9    -9.162580873242537E-3    5.682139479871546E-1    3.688502432185305E-2   -5.111823850650068E-3    3.624013602029658E-2   -5.612742356237850E-3    9.821914978807049E-2    5.165040531219953E-1
 6.565030169900000E9    -8.152686411349338E-3    5.682723299721086E-1    3.713353942417765E-2   -5.234080749983576E-3    3.656891332475018E-2   -5.759853546908906E-3    9.944634613721953E-2    5.160480637535726E-1
 6.565044016750000E9    -6.870400398096681E-3    5.681711903770060E-1    3.725861676528545E-2   -5.245706391007979E-3    3.659961414408745E-2   -5.806381275329845E-3    1.007963054006221E-1    5.158153674020239E-1
 6.565057863600000E9    -5.866836341901588E-3    5.680795351335106E-1    3.764220706259282E-2   -5.396871487828784E-3    3.690672134210291E-2   -6.029154768868026E-3    1.021931765595139E-1    5.156187232101358E-1
 6.565071710450000E9    -4.575486207776447E-3    5.681667475953907E-1    3.780623422263082E-2   -5.571825191851459E-3    3.712550802168185E-2   -6.216150018708004E-3    1.035599960090600E-1    5.152633850449727E-1
 6.565085557300000E9    -3.379704633323492E-3    5.681940444615139E-1    3.797936757500488E-2   -5.715225549379158E-3    3.733608304995665E-2   -6.293904941494671E-3    1.049647928128727E-1    5.148886404310484E-1
 6.565099404150000E9    -2.276784344648548E-3    5.680778834782297E-1    3.836498341763533E-2   -5.945465475316057E-3    3.761617947834892E-2   -6.411227045228924E-3    1.065148193143983E-1    5.147569855966734E-1
 6.565113251000000E9    -1.160081040622212E-3    5.681014654068656E-1    3.850985736799248E-2   -6.052113339474956E-3    3.790968543444747E-2   -6.610979999610985E-3    1.077266202414559E-1    5.143297866969525E-1
 6.565127097850000E9     9.827676538797840E-5    5.680981954541218E-1    3.879304635436382E-2   -6.253823575548881E-3    3.808005107828421E-2   -6.706776361236182E-3    1.091438141910403E-1    5.140058903456448E-1
 6.565140944700000E9     1.300099488389214E-3    5.680665643089995E-1    3.911084496270363E-2   -6.392692306108234E-3    3.841662814988039E-2   -6.938106472769395E-3    1.105603422726566E-1    5.137212908389678E-1
 6.565154791550000E9     2.557749925956955E-3    5.680697274485036E-1    3.936903699685658E-2   -6.474740502526211E-3    3.864662750329666E-2   -7.044528424386951E-3    1.120565741106456E-1    5.133112605767569E-1
 6.565168638400000E9     3.590489915171685E-3    5.679641688919745E-1    3.957976399566714E-2   -6.579657898098466E-3    3.890350722719624E-2   -7.297101821151906E-3    1.134513747993374E-1    5.130835613439947E-1
 6.565182485250000E9     4.725680339325175E-3    5.679370720564063E-1    3.983421927432441E-2   -6.891364310469904E-3    3.906492601848100E-2   -7.412084773297390E-3    1.148494251971571E-1    5.126378450118656E-1
 6.565196332100000E9     5.927269708706401E-3    5.680191352689492E-1    4.017748604321594E-2   -6.968960213394333E-3    3.945175880353014E-2   -7.613986718308342E-3    1.165069324662331E-1    5.122848323034274E-1
 6.565210178950000E9     7.139607918783437E-3    5.678473707004057E-1    4.041123427275947E-2   -7.109744299368062E-3    3.964544244725947E-2   -7.750798882182284E-3    1.177269333622762E-1    5.119144644714599E-1
 6.565224025800000E9     8.297079586566947E-3    5.677675677920916E-1    4.055256592498314E-2   -7.567376334996562E-3    3.990961583527428E-2   -8.041607547373880E-3    1.191552294407947E-1    5.115480403695450E-1
 6.565237872650000E9     9.554935371983975E-3    5.676236966994164E-1    4.104987578561304E-2   -7.582609041211007E-3    4.021542652779299E-2   -8.114982755819868E-3    1.206454023656949E-1    5.112291497500503E-1
 6.565251719500000E9     1.065151494471709E-2    5.676547965068376E-1    4.121266081058042E-2   -7.830964338959030E-3    4.051406894588445E-2   -8.268311161491144E-3    1.221512819472857E-1    5.109249334748850E-1
 6.565265566350000E9     1.183251569619877E-2    5.676020186215901E-1    4.151944401255869E-2   -7.940383610985263E-3    4.094844675060862E-2   -8.536232488939251E-3    1.234478012968508E-1    5.104676672125597E-1
 6.565279413200000E9     1.296910568373404E-2    5.675138582082309E-1    4.178376300212495E-2   -8.182885663112477E-3    4.109416671947987E-2   -8.744660313764150E-3    1.251001871169222E-1    5.101170080812195E-1
 6.565293260050000E9     1.424748553236427E-2    5.674125445194123E-1    4.214784086902209E-2   -8.300577265752727E-3    4.139193706469563E-2   -8.890893363880012E-3    1.267678245806672E-1    5.095282963915153E-1
 6.565307106900000E9     1.543071955044733E-2    5.673549860383674E-1    4.237038192105780E-2   -8.373763621920024E-3    4.170949427906283E-2   -9.028455590260545E-3    1.281112607901661E-1    5.093369394566135E-1
 6.565320953750000E9     1.662315859104123E-2    5.673990277072073E-1    4.268639320627506E-2   -8.601143073279407E-3    4.196688324642617E-2   -9.167469211434466E-3    1.294157106429780E-1    5.088754635735215E-1
 6.565334800600000E9     1.780166351321047E-2    5.672553870551343E-1    4.306831160785828E-2   -8.927516711311968E-3    4.232259855023713E-2   -9.485061379540784E-3    1.309797650631676E-1    5.084388966359966E-1
 6.565348647450000E9     1.908075896063024E-2    5.672003388504858E-1    4.333687348981941E-2   -9.091619579469568E-3    4.259502915875304E-2   -9.553025064535321E-3    1.325750720827530E-1    5.080560938375983E-1
 6.565362494300000E9     2.025411205832004E-2    5.670672377078908E-1    4.365534141790350E-2   -9.359319468371931E-3    4.293838913067264E-2   -9.826305251501025E-3    1.340652199519169E-1    5.074455219771563E-1
 6.565376341150000E9     2.150459129223645E-2    5.669462955587286E-1    4.391391686472616E-2   -9.522647781482775E-3    4.322469658692327E-2   -1.011157003742670E-2    1.356554894273701E-1    5.071154472152111E-1
 6.565390188000000E9     2.257982809521389E-2    5.668547322620594E-1    4.422982391732036E-2   -9.703900506942561E-3    4.354288891405275E-2   -1.029018542071248E-2    1.371605961326854E-1    5.064472713319936E-1
 6.565404034850000E9     2.388623441816605E-2    5.667026308030010E-1    4.470971856215798E-2   -9.950126474290276E-3    4.387385958926537E-2   -1.055023646260398E-2    1.386557821628435E-1    5.060989294552315E-1
 6.565417881700000E9     2.511247430319537E-2    5.666512730922215E-1    4.493342789442363E-2   -1.016485217945557E-2    4.418948640044305E-2   -1.062337384025332E-2    1.402661733960789E-1    5.056291097548993E-1
 6.565431728550000E9     2.632013373121605E-2    5.665554039485797E-1    4.531360389684663E-2   -1.049120883134205E-2    4.457061120815035E-2   -1.090624679413884E-2    1.416994064606735E-1    5.050006059973370E-1
 6.565445575400000E9     2.745204269912000E-2    5.664640303412587E-1    4.558369065373372E-2   -1.070300202918265E-2    4.482529882495286E-2   -1.125835819014008E-2    1.434524027155331E-1    5.047045970716656E-1
 6.565459422250000E9     2.879037628025980E-2    5.663403976811264E-1    4.601627584329382E-2   -1.080022925197326E-2    4.521362013313889E-2   -1.150928054256314E-2    1.448859014189109E-1    5.040962585420711E-1
 6.565473269100000E9     2.997782072103103E-2    5.662227612929193E-1    4.638420617535236E-2   -1.114013663674945E-2    4.548629511736978E-2   -1.174459191680561E-2    1.466339111051765E-1    5.035654724692729E-1
 6.565487115950000E9     3.122532718949186E-2    5.660642701056724E-1    4.659202684355929E-2   -1.151023344407424E-2    4.595845289434503E-2   -1.200483376376532E-2    1.481813645522913E-1    5.030745281578767E-1
 6.565500962800000E9     3.246150348737850E-2    5.659878138613034E-1    4.704816303693616E-2   -1.159104281851213E-2    4.625371804774329E-2   -1.225267403951482E-2    1.497947055693486E-1    5.024310794126904E-1
 6.565514809650000E9     3.369769814590443E-2    5.657240125600350E-1    4.730580419594452E-2   -1.189941460491973E-2    4.663716885077573E-2   -1.255115913175456E-2    1.513776635685250E-1    5.017102341696860E-1
 6.565528656500000E9     3.484581605380551E-2    5.656820755586536E-1    4.786403810933470E-2   -1.223520717824257E-2    4.704764750871450E-2   -1.281340424423531E-2    1.529166386395455E-1    5.011959542661434E-1
