#  HZ   S   RI   R     50.00 
! Rohde & Schwarz Vector Network Analyzer 
! Rohde-Schwarz,ZNB20-2Port,1311601062101988,3.16
! Created: UTC 3/20/2024, 4:51:56 PM
! freq[Hz]                re:S11                  im:S11                  re:S21                  im:S21                  re:S12                  im:S12                  re:S22                  im:S22
 6.564619205000000E9    -4.154512422743981E-2    5.679124487561679E-1    3.080215685701535E-2   -1.584885321650519E-3    3.030003047028607E-2   -2.096961771850406E-3    6.136714359483245E-2    5.255987266818725E-1
 6.564631580000000E9    -4.053633233664276E-2    5.678478259313544E-1    3.090537610253066E-2   -1.635611314059364E-3    3.037767445667710E-2   -2.146065862751027E-3    6.255748802992254E-2    5.255679907897075E-1
 6.564643955000000E9    -3.950093142616817E-2    5.679451787793250E-1    3.110012679594825E-2   -1.661689169245801E-3    3.053008983517278E-2   -2.298913100965255E-3    6.353238861534553E-2    5.253233152639915E-1
 6.564656330000000E9    -3.852269806010963E-2    5.680468048411347E-1    3.138827818273189E-2   -1.896178937261844E-3    3.068400082283782E-2   -2.254365002097163E-3    6.491929192507648E-2    5.251247435065004E-1
 6.564668705000000E9    -3.740512421649243E-2    5.681216755891386E-1    3.141908037705596E-2   -1.756914624982090E-3    3.088310722458542E-2   -2.470219874606203E-3    6.591512121746150E-2    5.250019460479414E-1
 6.564681080000000E9    -3.648378811295216E-2    5.681832720430593E-1    3.157159176894223E-2   -1.859553391940957E-3    3.107393468799117E-2   -2.494345647768516E-3    6.721047145041424E-2    5.249193364317217E-1
 6.564693455000000E9    -3.549700619973351E-2    5.682047371149022E-1    3.179813889776884E-2   -2.201493459661731E-3    3.123244860129393E-2   -2.551954287702417E-3    6.829300970418020E-2    5.246889800575874E-1
 6.564705830000000E9    -3.446833868308192E-2    5.683168314750072E-1    3.182924729835961E-2   -2.065205565076919E-3    3.130904154001557E-2   -2.648863196636900E-3    6.934196935855005E-2    5.245834515501209E-1
 6.564718205000000E9    -3.354599844235538E-2    5.683541855171926E-1    3.199907705801866E-2   -2.185962947463196E-3    3.139757092163749E-2   -2.749323459514291E-3    7.045164536041461E-2    5.243977400602349E-1
 6.564730580000000E9    -3.254153372665759E-2    5.683936826747396E-1    3.217698776964524E-2   -2.322158565823194E-3    3.158161864480419E-2   -2.849908192514459E-3    7.168841748255196E-2    5.243868027394737E-1
 6.564742955000000E9    -3.163253490897440E-2    5.684163102651988E-1    3.233768211919995E-2   -2.318807757748999E-3    3.179512816562940E-2   -2.828636586174301E-3    7.283405431995157E-2    5.241825243672532E-1
 6.564755330000000E9    -3.053039994007198E-2    5.685619057576157E-1    3.241703098987119E-2   -2.419809480905558E-3    3.189939789816183E-2   -3.057506838515976E-3    7.405115173610731E-2    5.241051189018329E-1
 6.564767705000000E9    -2.948833607894609E-2    5.684715246049000E-1    3.270497876429399E-2   -2.530749548570985E-3    3.221886647124716E-2   -3.128308603736340E-3    7.506383477522666E-2    5.238570509404522E-1
 6.564780080000000E9    -2.854361897271415E-2    5.686333463556432E-1    3.282260224383413E-2   -2.615144511790256E-3    3.238127565354888E-2   -3.176806617341661E-3    7.630410351539849E-2    5.236811850340127E-1
 6.564792455000000E9    -2.752477473110317E-2    5.686208484597025E-1    3.308450393121856E-2   -2.674345307662817E-3    3.244158791911956E-2   -3.285647027172825E-3    7.749072475736021E-2    5.235348257344722E-1
 6.564804830000000E9    -2.643402759142486E-2    5.685127058705927E-1    3.321031772334866E-2   -2.870571981759662E-3    3.263423339074682E-2   -3.369159394417019E-3    7.853780642678462E-2    5.234989807072472E-1
 6.564817205000000E9    -2.550054355664656E-2    5.686918006530780E-1    3.345263190502995E-2   -2.870978910045587E-3    3.280064466262773E-2   -3.417880335550533E-3    7.967943167396363E-2    5.232768232753751E-1
 6.564829580000000E9    -2.455240178897677E-2    5.687404628805725E-1    3.344665495970331E-2   -2.983880960152717E-3    3.292736735467426E-2   -3.543411245323771E-3    8.093594272391573E-2    5.231608487621481E-1
 6.564841955000000E9    -2.337301157771823E-2    5.687607272698071E-1    3.367588923317054E-2   -3.110139470784653E-3    3.316890857248873E-2   -3.634344538706767E-3    8.212025839764767E-2    5.228701265093294E-1
 6.564854330000000E9    -2.243135065457405E-2    5.688336077031371E-1    3.385489242804163E-2   -3.151174522183321E-3    3.334281565057605E-2   -3.707944578701593E-3    8.340258355095158E-2    5.227350424341229E-1
 6.564866705000000E9    -2.143111372604198E-2    5.687599849980175E-1    3.403888059192033E-2   -3.177596382720917E-3    3.355770710930714E-2   -3.836335874232350E-3    8.442319289839506E-2    5.224111008502609E-1
 6.564879080000000E9    -2.038934752695309E-2    5.687477879290740E-1    3.424454341740697E-2   -3.358984129250030E-3    3.367071123935268E-2   -3.873075488324315E-3    8.555546232893359E-2    5.224476318457842E-1
 6.564891455000000E9    -1.938583720486000E-2    5.688745589095200E-1    3.445272724530608E-2   -3.370073863922366E-3    3.380886420053485E-2   -3.898586297708687E-3    8.677554946335242E-2    5.221307721184003E-1
 6.564903830000000E9    -1.835801340974781E-2    5.688632470849857E-1    3.443503565251972E-2   -3.559815518298087E-3    3.400441831564418E-2   -4.107319994838210E-3    8.806947697816969E-2    5.218648116236857E-1
 6.564916205000000E9    -1.734788775235059E-2    5.688804274365894E-1    3.484099941337018E-2   -3.581269028985558E-3    3.423384466876395E-2   -4.202307583784661E-3    8.914117935255049E-2    5.217796095734945E-1
 6.564928580000000E9    -1.633599849871445E-2    5.688521170901563E-1    3.492922585173224E-2   -3.669187468915386E-3    3.441052715597541E-2   -4.298388512469832E-3    9.044053644050096E-2    5.215067053596212E-1
 6.564940955000000E9    -1.536835477176912E-2    5.689770682509251E-1    3.518067447100456E-2   -3.856755391771214E-3    3.460918844063138E-2   -4.415857574522318E-3    9.159834547334070E-2    5.213710841974728E-1
 6.564953330000000E9    -1.430880638465270E-2    5.690623427147545E-1    3.530151518230090E-2   -3.877896107782442E-3    3.466557374808006E-2   -4.510843600179861E-3    9.286705351457440E-2    5.211478471548807E-1
 6.564965705000000E9    -1.332655679866421E-2    5.688715054454279E-1    3.554814897012553E-2   -3.969029254776235E-3    3.493453304950167E-2   -4.628820110911001E-3    9.397775337465580E-2    5.208403746191447E-1
 6.564978080000000E9    -1.221147389994478E-2    5.688281291407525E-1    3.564020437823291E-2   -4.148692395868752E-3    3.512202406164441E-2   -4.648548154092004E-3    9.517186324150759E-2    5.207482952189451E-1
 6.564990455000000E9    -1.118835319686624E-2    5.689187407490263E-1    3.608752149201607E-2   -4.439392238505388E-3    3.534955023456483E-2   -4.838261236503869E-3    9.636560953932699E-2    5.203700018084626E-1
 6.565002830000000E9    -1.016921645683650E-2    5.688754558577350E-1    3.603867362896072E-2   -4.382841625455255E-3    3.555459746846050E-2   -4.835526021350732E-3    9.751838244149695E-2    5.202284355957345E-1
 6.565015205000000E9    -9.271731977096387E-3    5.689701451723599E-1    3.624064467866687E-2   -4.537941050495577E-3    3.571841830863539E-2   -5.033924983746268E-3    9.902025521803794E-2    5.199329707378640E-1
 6.565027580000000E9    -8.190383538558391E-3    5.688876521620233E-1    3.653473451241069E-2   -4.610728428970878E-3    3.595190932007117E-2   -5.176998154123504E-3    9.998574149948454E-2    5.198308533183783E-1
 6.565039955000000E9    -7.197971968124278E-3    5.688566611526175E-1    3.683167523683817E-2   -4.693930478998193E-3    3.611885472370982E-2   -5.317168541135276E-3    1.012446621860181E-1    5.195870846755383E-1
 6.565052330000000E9    -6.125471813957943E-3    5.688690450228600E-1    3.708010772757337E-2   -4.812621610511612E-3    3.632104104398837E-2   -5.447424382756980E-3    1.024925651045894E-1    5.192954137620521E-1
 6.565064705000000E9    -5.129097994686901E-3    5.688971832603736E-1    3.720873406012488E-2   -5.021525264855192E-3    3.653925576314809E-2   -5.522033953213263E-3    1.038161699555186E-1    5.191357118052909E-1
 6.565077080000000E9    -3.913376389399170E-3    5.689116075669400E-1    3.738816785229039E-2   -5.149178504366047E-3    3.675998479164269E-2   -5.724167239021805E-3    1.050518459001067E-1    5.188283696948930E-1
 6.565089455000000E9    -2.995132228110512E-3    5.689092566349588E-1    3.762209951317863E-2   -5.190005715935061E-3    3.695272140319562E-2   -5.747290177886688E-3    1.063468550839103E-1    5.183966861792599E-1
 6.565101830000000E9    -1.948276253448452E-3    5.689346961365482E-1    3.776515126312584E-2   -5.427382117651875E-3    3.717487825841095E-2   -5.870082916501711E-3    1.074273998464988E-1    5.183109396069536E-1
 6.565114205000000E9    -8.795776286148146E-4    5.688554282310150E-1    3.801536663961010E-2   -5.496955966483480E-3    3.731847777049541E-2   -6.013365731682436E-3    1.089472129866637E-1    5.179559123481116E-1
 6.565126580000000E9     1.698661969253658E-4    5.687780717908291E-1    3.820844342119976E-2   -5.547701923713397E-3    3.755886401180253E-2   -6.119543964487763E-3    1.099756389554057E-1    5.177266243836048E-1
 6.565138955000000E9     1.089677560056303E-3    5.687171721535899E-1    3.856087588018514E-2   -5.768223728720992E-3    3.783309409305527E-2   -6.334371738764959E-3    1.112716969321182E-1    5.174601773404705E-1
 6.565151330000000E9     2.229304984283434E-3    5.687566888132806E-1    3.872107136598515E-2   -5.820270977850694E-3    3.811529654895439E-2   -6.425750494574585E-3    1.126123644480391E-1    5.171753697666561E-1
 6.565163705000000E9     3.314572212279955E-3    5.688382410403464E-1    3.888499897789861E-2   -5.958615145715001E-3    3.827922247601258E-2   -6.457253769755368E-3    1.138411365528249E-1    5.168398258769321E-1
 6.565176080000000E9     4.290098955387924E-3    5.686204386582784E-1    3.926561371094829E-2   -6.131298124501253E-3    3.845086064721553E-2   -6.723087297797165E-3    1.150319428424345E-1    5.166074872445060E-1
 6.565188455000000E9     5.380965119488968E-3    5.686821476312296E-1    3.944353957787505E-2   -6.212319032862746E-3    3.875314777713881E-2   -6.803013277558374E-3    1.162534713450652E-1    5.162877147035922E-1
 6.565200830000000E9     6.503669309244246E-3    5.687190204895241E-1    3.963921791559172E-2   -6.329608325496570E-3    3.899574959466862E-2   -6.968890739103657E-3    1.176009490691985E-1    5.158980373193545E-1
 6.565213205000000E9     7.444126739629877E-3    5.685899269593642E-1    3.995243563596951E-2   -6.551244399807127E-3    3.925950357133578E-2   -7.120700328405286E-3    1.188736086791987E-1    5.157021234728956E-1
 6.565225580000000E9     8.547038675774592E-3    5.685501349924441E-1    3.999838789938808E-2   -6.704981166123186E-3    3.944430497714550E-2   -7.245525445909973E-3    1.202186197170917E-1    5.154665167760292E-1
 6.565237955000000E9     9.610348398963570E-3    5.686269680240473E-1    4.032583790576164E-2   -6.796996070250676E-3    3.974061418885786E-2   -7.414641197575140E-3    1.215367088455609E-1    5.150415422346680E-1
 6.565250330000000E9     1.066537640796923E-2    5.684987494687825E-1    4.057085298431134E-2   -6.948679275209565E-3    3.997017477089870E-2   -7.565112738607908E-3    1.228481175368355E-1    5.146215480737227E-1
 6.565262705000000E9     1.174479302960687E-2    5.684600580738129E-1    4.085463214752420E-2   -7.059548637914095E-3    4.023296305497689E-2   -7.804766750051556E-3    1.241462002738296E-1    5.144721767960930E-1
 6.565275080000000E9     1.277056506250765E-2    5.682691304807547E-1    4.113056197798424E-2   -7.310893511132577E-3    4.045993363353954E-2   -7.823477466048230E-3    1.254853662174798E-1    5.140218335781918E-1
 6.565287455000000E9     1.384978710694895E-2    5.682048699583585E-1    4.146490767843358E-2   -7.498755683494659E-3    4.070886731562200E-2   -7.967047668263406E-3    1.267947746009171E-1    5.138418027205640E-1
 6.565299830000000E9     1.491171531051621E-2    5.683375128819403E-1    4.159912843979252E-2   -7.638919475290041E-3    4.099039232540885E-2   -8.196777195486492E-3    1.279753175043150E-1    5.133806206417073E-1
 6.565312205000000E9     1.604291953455535E-2    5.681961692187639E-1    4.197218425805318E-2   -7.817185034153813E-3    4.120118659246938E-2   -8.361026262723250E-3    1.294082669138237E-1    5.130850078768245E-1
 6.565324580000000E9     1.699972113117510E-2    5.681185730072892E-1    4.217111240077425E-2   -7.873617760699603E-3    4.144979482595389E-2   -8.574026529421137E-3    1.307448605768968E-1    5.126761515753651E-1
 6.565336955000000E9     1.804828043695420E-2    5.680668576575764E-1    4.247785190314145E-2   -8.136063470431736E-3    4.165012789146955E-2   -8.671102608996759E-3    1.319854848361563E-1    5.123625860322016E-1
 6.565349330000000E9     1.919814320733394E-2    5.679711924119565E-1    4.274061764591639E-2   -8.189568382105831E-3    4.202196603351257E-2   -8.848162728590490E-3    1.333354406874558E-1    5.118981802144091E-1
 6.565361705000000E9     2.023218082350980E-2    5.678726928695484E-1    4.311437925915107E-2   -8.393976792263964E-3    4.226351604408818E-2   -8.965633356098717E-3    1.348113791883271E-1    5.114455349558708E-1
 6.565374080000000E9     2.143519139490702E-2    5.678720574082246E-1    4.327953990786693E-2   -8.483102664477857E-3    4.265193721104744E-2   -9.225260592800967E-3    1.363352067128035E-1    5.110077541343356E-1
 6.565386455000000E9     2.246041114383507E-2    5.677566807522338E-1    4.361260696682050E-2   -8.830287452841819E-3    4.283332995562830E-2   -9.350277893962342E-3    1.374125760994266E-1    5.106819464089439E-1
 6.565398830000000E9     2.336392759706570E-2    5.677234183193260E-1    4.383965476305735E-2   -8.866619884064316E-3    4.314710594946905E-2   -9.575809086588475E-3    1.389540973347493E-1    5.104151990650192E-1
 6.565411205000000E9     2.458695023890200E-2    5.675541175549330E-1    4.415934224670173E-2   -9.104960714034315E-3    4.344618272374165E-2   -9.748848600803337E-3    1.402874651249025E-1    5.100250803892460E-1
 6.565423580000000E9     2.559488797024274E-2    5.676483010104738E-1    4.439026487012915E-2   -9.354796678788729E-3    4.363200095161796E-2   -9.957168313534315E-3    1.416938128464261E-1    5.094151439610997E-1
 6.565435955000000E9     2.673878470606360E-2    5.674163622363236E-1    4.474766909248472E-2   -9.607211226695368E-3    4.399802428348818E-2   -1.013350309500158E-2    1.430833024867957E-1    5.090202745771663E-1
 6.565448330000000E9     2.778147247790096E-2    5.674857751722038E-1    4.506961226576781E-2   -9.739297935284363E-3    4.420240501368620E-2   -1.033409122378663E-2    1.444862587932635E-1    5.086958773418780E-1
 6.565460705000000E9     2.883478819907581E-2    5.673790059617322E-1    4.532943506234668E-2   -1.009142845438944E-2    4.450184373876172E-2   -1.059549434759946E-2    1.460300696422316E-1    5.082842299555815E-1
 6.565473080000000E9     2.996680960127468E-2    5.671083297181572E-1    4.575416860146054E-2   -1.008885626505503E-2    4.491578459040453E-2   -1.071297997346660E-2    1.473555519659611E-1    5.077590358205795E-1
 6.565485455000000E9     3.108862630239543E-2    5.670086705075130E-1    4.595323326508177E-2   -1.029531231921270E-2    4.527166757019477E-2   -1.088149709314359E-2    1.487454548963948E-1    5.073211083517880E-1
 6.565497830000000E9     3.221794782265988E-2    5.669315305333094E-1    4.631236994673872E-2   -1.057825494269383E-2    4.549366525482489E-2   -1.114215384734584E-2    1.501355038842336E-1    5.069282174732098E-1
 6.565510205000000E9     3.335208368957045E-2    5.667613527504152E-1    4.662422930499506E-2   -1.087115617094043E-2    4.588047724132287E-2   -1.131619976813387E-2    1.513917403804139E-1    5.063325056814657E-1
 6.565522580000000E9     3.431139016076718E-2    5.667115665380078E-1    4.701214907568167E-2   -1.092639690079720E-2    4.621663054208006E-2   -1.154038428602006E-2    1.531393182864870E-1    5.058883517558481E-1
 6.565534955000000E9     3.543584535360508E-2    5.665743038026403E-1    4.723117322690949E-2   -1.111835046203087E-2    4.652800451232562E-2   -1.176623522213843E-2    1.544779050104706E-1    5.055520067455491E-1
 6.565547330000000E9     3.664447744149611E-2    5.664748064467189E-1    4.764522753453197E-2   -1.137839631055533E-2    4.680559765385298E-2   -1.205533140558712E-2    1.559376336160473E-1    5.050481786213370E-1
 6.565559705000000E9     3.782104254778363E-2    5.663164672883965E-1    4.799581344423599E-2   -1.172983538181676E-2    4.715054432295537E-2   -1.232824841619546E-2    1.574050739457509E-1    5.043822186761232E-1
 6.565572080000000E9     3.882701864829489E-2    5.661994306194582E-1    4.822213738056414E-2   -1.180503622596550E-2    4.757421788100128E-2   -1.251703819325140E-2    1.589221155895801E-1    5.039348566188392E-1
 6.565584455000000E9     3.997390843679623E-2    5.661248223173502E-1    4.861947246984758E-2   -1.214557239008714E-2    4.785277224216698E-2   -1.273389236091220E-2    1.603415179091721E-1    5.035034113689995E-1
 6.565596830000000E9     4.108436295758296E-2    5.659690817719322E-1    4.897066396528560E-2   -1.238063799951043E-2    4.811396267816367E-2   -1.306686382593194E-2    1.619212741511412E-1    5.028760929771502E-1
 6.565609205000000E9     4.230600235440486E-2    5.657891620703300E-1    4.929110777554940E-2   -1.266055527391738E-2    4.850541490017062E-2   -1.321384161372021E-2    1.634984198181242E-1    5.023370693914013E-1
 6.565621580000000E9     4.332059426671057E-2    5.656960169471668E-1    4.977868958499370E-2   -1.285184963060554E-2    4.892421521491320E-2   -1.352325432035741E-2    1.649328915637011E-1    5.019059172024437E-1
 6.565633955000000E9     4.441810708696292E-2    5.655355703082757E-1    5.007838673603088E-2   -1.321701050818051E-2    4.919107569597173E-2   -1.371840091624550E-2    1.663929088741595E-1    5.011507405387653E-1
 6.565646330000000E9     4.556433747233971E-2    5.653131716310393E-1    5.048353188501110E-2   -1.338933353071015E-2    4.959420439028817E-2   -1.405568854390539E-2    1.679554856236022E-1    5.005919423632953E-1
 6.565658705000000E9     4.664929230718060E-2    5.652307982445258E-1    5.079287955292588E-2   -1.363069749562973E-2    5.001192814255099E-2   -1.440638373159142E-2    1.694703768394027E-1    4.998563990441100E-1
 6.565671080000000E9     4.782674513562484E-2    5.649599362086137E-1    5.127766857684556E-2   -1.401471581286181E-2    5.028038817805438E-2   -1.460173770355421E-2    1.709923121488159E-1    4.992840900324060E-1
 6.565683455000000E9     4.892094838393870E-2    5.649470258330513E-1    5.151066011487738E-2   -1.418834859465994E-2    5.086249355987026E-2   -1.476951705963893E-2    1.726441345635175E-1    4.987460730246124E-1
 6.565695830000000E9     5.005882045039230E-2    5.647060158184534E-1    5.193458472439100E-2   -1.450099242836124E-2    5.128852735550561E-2   -1.517486499681113E-2    1.742412260995047E-1    4.981790119413154E-1
 6.565708205000000E9     5.137294835184545E-2    5.644663449829254E-1    5.227835509941324E-2   -1.477536651482443E-2    5.153923842365787E-2   -1.539504936439853E-2    1.758186862825128E-1    4.975532380268569E-1
 6.565720580000000E9     5.231939300445280E-2    5.643262094667053E-1    5.280904824266085E-2   -1.501124127369948E-2    5.199503219415042E-2   -1.571580940336661E-2    1.772961778900155E-1    4.967834662429047E-1
 6.565732955000000E9     5.361943015779580E-2    5.641452748851706E-1    5.326709932369971E-2   -1.535712662832582E-2    5.231764828314409E-2   -1.609234031703805E-2    1.789794574062589E-1    4.963462421660169E-1
