#  HZ   S   RI   R     50.00 
! Rohde & Schwarz Vector Network Analyzer 
! Rohde-Schwarz,ZNB20-2Port,1311601062101988,3.16
! Created: UTC 3/20/2024, 4:51:59 PM
! freq[Hz]                re:S11                  im:S11                  re:S21                  im:S21                  re:S12                  im:S12                  re:S22                  im:S22
 6.564613573000000E9    -4.205289638790172E-2    5.678497320129694E-1    3.067363770175933E-2   -1.543151766582530E-3    3.022894372922930E-2   -2.020697073210054E-3    6.103883249825542E-2    5.255977542463316E-1
 6.564625973150000E9    -4.095927998455721E-2    5.680785382842013E-1    3.086709940607766E-2   -1.556815484851016E-3    3.043839795716499E-2   -2.175492956452991E-3    6.210262264033524E-2    5.254381467233018E-1
 6.564638373300000E9    -3.987240464969686E-2    5.679537438374248E-1    3.105726328231423E-2   -1.713174862175772E-3    3.046408246834913E-2   -2.273144081563918E-3    6.323055346261858E-2    5.252145703989417E-1
 6.564650773450000E9    -3.905346088235914E-2    5.680934448139651E-1    3.102252150249316E-2   -1.725623200300497E-3    3.055519596483424E-2   -2.369167020176305E-3    6.437550094128162E-2    5.251725346584761E-1
 6.564663173600000E9    -3.807133818314821E-2    5.681497053170882E-1    3.132536918398725E-2   -1.861438157942701E-3    3.079716792781627E-2   -2.443259182096586E-3    6.566187554516920E-2    5.251703410393558E-1
 6.564675573750000E9    -3.696881197862401E-2    5.681709215772192E-1    3.156223134866052E-2   -1.891279168852562E-3    3.097350563615158E-2   -2.352167920452348E-3    6.672203380617944E-2    5.250570523301065E-1
 6.564687973900000E9    -3.595210114786302E-2    5.682342645349931E-1    3.166174000067657E-2   -2.084472169239398E-3    3.114274501383115E-2   -2.613937751004638E-3    6.771995363945330E-2    5.249337690889783E-1
 6.564700374050000E9    -3.499120422625829E-2    5.682553009166404E-1    3.174914412995854E-2   -2.046972071145831E-3    3.134984767279736E-2   -2.663186782252355E-3    6.881830395820450E-2    5.247393871963979E-1
 6.564712774200000E9    -3.397193347129603E-2    5.682636249667983E-1    3.199547777470193E-2   -2.296162685817446E-3    3.142477652427397E-2   -2.661361405664083E-3    7.010983823782940E-2    5.244585981514368E-1
 6.564725174350000E9    -3.291868397365692E-2    5.683779640789659E-1    3.209242973228857E-2   -2.317433880934915E-3    3.152110721925486E-2   -2.719565366291783E-3    7.119642087619980E-2    5.243587041879231E-1
 6.564737574500000E9    -3.193567672705439E-2    5.685099183021759E-1    3.223455494915008E-2   -2.339827453990930E-3    3.171031915570999E-2   -2.933591667807062E-3    7.241769590786849E-2    5.243888338523268E-1
 6.564749974650000E9    -3.100660189118726E-2    5.684264328516103E-1    3.242909805704119E-2   -2.371994838056305E-3    3.189737742371832E-2   -2.986610932824692E-3    7.349621009282929E-2    5.241227065834969E-1
 6.564762374800000E9    -2.994694241205556E-2    5.685580510713389E-1    3.260817554110670E-2   -2.603564759975165E-3    3.210562735326324E-2   -3.141220362653372E-3    7.455501130273642E-2    5.239897084644746E-1
 6.564774774950000E9    -2.899585889641108E-2    5.685844598400697E-1    3.280913660082566E-2   -2.442700592739244E-3    3.233135879727488E-2   -3.101654558526918E-3    7.580165936878010E-2    5.238359495745898E-1
 6.564787175100000E9    -2.786840865823912E-2    5.685490683093998E-1    3.291599545450424E-2   -2.797392772887243E-3    3.245291207016415E-2   -3.172268874158739E-3    7.683413518142647E-2    5.235691751487707E-1
 6.564799575250000E9    -2.697974020359537E-2    5.687104040812642E-1    3.307081083995437E-2   -2.684939654207711E-3    3.261385615224940E-2   -3.365698951441124E-3    7.807358440198600E-2    5.235346130100779E-1
 6.564811975400000E9    -2.599996535447534E-2    5.686323463536510E-1    3.327656653087339E-2   -3.000535797876675E-3    3.276319130885885E-2   -3.345223276099948E-3    7.919184967790405E-2    5.232762563053458E-1
 6.564824375550000E9    -2.489090269984858E-2    5.686775388847768E-1    3.344223052779833E-2   -2.899728990136479E-3    3.290110512540527E-2   -3.518435735529125E-3    8.050581340160026E-2    5.231363833019039E-1
 6.564836775700000E9    -2.397991548952076E-2    5.687397902544651E-1    3.364826422978840E-2   -3.014095600291081E-3    3.309477473322073E-2   -3.575399754688250E-3    8.159995429743717E-2    5.230831969869152E-1
 6.564849175850000E9    -2.294635842139767E-2    5.687245902981609E-1    3.386606707165043E-2   -3.238077164372976E-3    3.322730512086141E-2   -3.618623133080297E-3    8.272651101847299E-2    5.228045428296939E-1
 6.564861576000000E9    -2.185456271782657E-2    5.687078930645197E-1    3.405576367559197E-2   -3.135018978728960E-3    3.337619640169995E-2   -3.733116683788576E-3    8.410555053116812E-2    5.225293450705476E-1
 6.564873976150000E9    -2.084679581080468E-2    5.688813742065882E-1    3.413154664716905E-2   -3.342932082777866E-3    3.361372296545903E-2   -3.872069351908838E-3    8.509779519753971E-2    5.223950504836579E-1
 6.564886376300000E9    -1.975564915095753E-2    5.688326494448945E-1    3.430826261778486E-2   -3.532663200793909E-3    3.382982414325908E-2   -3.932494816800229E-3    8.617255994150055E-2    5.222134913579407E-1
 6.564898776450000E9    -1.876939514428730E-2    5.688172223536150E-1    3.452930371931608E-2   -3.619874136558242E-3    3.404562103802299E-2   -4.086979450683335E-3    8.739396618172655E-2    5.219231501972053E-1
 6.564911176600000E9    -1.768011170647879E-2    5.688200083914319E-1    3.475649408067930E-2   -3.699330202095393E-3    3.409291903203660E-2   -4.140062870595614E-3    8.874102153521825E-2    5.218569052928066E-1
 6.564923576750000E9    -1.676234229106320E-2    5.688169076831612E-1    3.492897886279150E-2   -3.751821625143261E-3    3.436548220650248E-2   -4.175154377291965E-3    8.990570508285188E-2    5.215433604908498E-1
 6.564935976900000E9    -1.571721145904999E-2    5.689048745354774E-1    3.502573592457686E-2   -3.999250429190616E-3    3.459089430381303E-2   -4.302470017157859E-3    9.113152041159985E-2    5.215177706802000E-1
 6.564948377050000E9    -1.474799742128268E-2    5.689311215868628E-1    3.534519214195958E-2   -3.875610823599469E-3    3.464637465051661E-2   -4.417229956684953E-3    9.232363348898139E-2    5.211148636188969E-1
 6.564960777200000E9    -1.375404019519182E-2    5.688509806258553E-1    3.561999968899147E-2   -4.013670910361987E-3    3.489037786670719E-2   -4.547837622128592E-3    9.350176649639708E-2    5.208806231187217E-1
 6.564973177350000E9    -1.263909581062073E-2    5.689350855208927E-1    3.562386850821833E-2   -4.060744871342357E-3    3.504588498221002E-2   -4.621015798632520E-3    9.472459185607211E-2    5.208026075247041E-1
 6.564985577500000E9    -1.168465519054061E-2    5.688652694372047E-1    3.589466400093597E-2   -4.308036994993673E-3    3.527878626017150E-2   -4.834108862547112E-3    9.596436390991107E-2    5.205858881760640E-1
 6.564997977650000E9    -1.059542769437859E-2    5.689063787437897E-1    3.602342343662185E-2   -4.315326241505131E-3    3.551657772523394E-2   -4.936953393018772E-3    9.714280534426220E-2    5.203950971370077E-1
 6.565010377800000E9    -9.551144185907566E-3    5.689540081486796E-1    3.611768176450497E-2   -4.418066692758182E-3    3.563609665397482E-2   -5.075847135510624E-3    9.830275830319223E-2    5.201792982447482E-1
 6.565022777950000E9    -8.537818793785405E-3    5.689253640000165E-1    3.650797584742828E-2   -4.585893650541883E-3    3.587371987078106E-2   -5.166220272590340E-3    9.958847204668045E-2    5.199059131718036E-1
 6.565035178100000E9    -7.447373717377258E-3    5.688923454994183E-1    3.670764351868516E-2   -4.697483989670382E-3    3.607930240325211E-2   -5.200609198865362E-3    1.007945183343857E-1    5.196111804171422E-1
 6.565047578250000E9    -6.487130585637397E-3    5.688294247787139E-1    3.697788886487009E-2   -4.904224402628050E-3    3.625892578344876E-2   -5.378515321992969E-3    1.020790993330768E-1    5.195036061562373E-1
 6.565059978400000E9    -5.404619025560099E-3    5.688859345879286E-1    3.717360923768891E-2   -4.900482620929306E-3    3.642138651137412E-2   -5.490406337153554E-3    1.031342129669655E-1    5.192753797957765E-1
 6.565072378550000E9    -4.403773245701673E-3    5.688530729158469E-1    3.734884757305876E-2   -5.058948564598617E-3    3.666309007911443E-2   -5.488455428126724E-3    1.045460667615850E-1    5.189309079731760E-1
 6.565084778700000E9    -3.336653843734039E-3    5.689161168820612E-1    3.756984015027791E-2   -5.180734703697475E-3    3.691337673971082E-2   -5.719597961966374E-3    1.058223730243518E-1    5.185143346982597E-1
 6.565097178850000E9    -2.292208259853988E-3    5.688794043539122E-1    3.775744299648168E-2   -5.371675312059575E-3    3.711917973149698E-2   -5.877939059275899E-3    1.071066735624252E-1    5.184000751424939E-1
 6.565109579000000E9    -1.281596810488218E-3    5.688544962261570E-1    3.792720489470844E-2   -5.426662177895273E-3    3.725220707930160E-2   -5.957636061936363E-3    1.081838137817262E-1    5.181331910172841E-1
 6.565121979150000E9    -1.981051694581717E-4    5.688341312542187E-1    3.818004311241266E-2   -5.451147734342751E-3    3.754464132954283E-2   -6.067148904036393E-3    1.095197809916099E-1    5.177782483937149E-1
 6.565134379300000E9     7.694425856107652E-4    5.688485528203513E-1    3.840183575585401E-2   -5.732754009310724E-3    3.774567723317702E-2   -6.191709313074422E-3    1.107895314149125E-1    5.174461029063400E-1
 6.565146779450000E9     1.779276634159429E-3    5.686998725793944E-1    3.857198582494348E-2   -5.906693883238038E-3    3.798378500908660E-2   -6.443471696537333E-3    1.121380934915638E-1    5.173062202847835E-1
 6.565159179600000E9     2.943316606335014E-3    5.688316822887949E-1    3.876044857905424E-2   -6.011167362121450E-3    3.820438909253104E-2   -6.609458865682261E-3    1.133677035977217E-1    5.168462103633864E-1
 6.565171579750000E9     3.895555809479055E-3    5.686287171449800E-1    3.903266291182551E-2   -6.238017575086627E-3    3.844904163125336E-2   -6.606222627918679E-3    1.146510787525335E-1    5.167085177916582E-1
 6.565183979900000E9     5.017842480907169E-3    5.686922623723498E-1    3.948573891502359E-2   -6.072953500508477E-3    3.865162559506108E-2   -6.727444611024848E-3    1.158925607564372E-1    5.165103933658934E-1
 6.565196380050000E9     6.041205038277886E-3    5.687132527776756E-1    3.972910794513776E-2   -6.212795687185113E-3    3.888240175294267E-2   -6.934659681195550E-3    1.171786213334340E-1    5.161457860820644E-1
 6.565208780200000E9     7.133912408107716E-3    5.686791620461600E-1    3.982963895812596E-2   -6.616296963182062E-3    3.917010989295206E-2   -7.063523836822299E-3    1.184765207937123E-1    5.156251637162802E-1
 6.565221180350000E9     8.189666631001244E-3    5.685829083135702E-1    4.004344270557680E-2   -6.752470360966951E-3    3.938681937293871E-2   -7.235285518010772E-3    1.198648504366095E-1    5.154413485957661E-1
 6.565233580500000E9     9.306405904677984E-3    5.685849799097683E-1    4.031226758486170E-2   -6.806468422363092E-3    3.964158706021588E-2   -7.395480916013397E-3    1.211505103295194E-1    5.151560062891800E-1
 6.565245980650000E9     1.035454857319703E-2    5.684911833863315E-1    4.055923417934455E-2   -6.934923551722617E-3    3.994923160595303E-2   -7.586222695377908E-3    1.223414755782126E-1    5.148899540550338E-1
 6.565258380800000E9     1.133454317742458E-2    5.685198266568223E-1    4.071660491140745E-2   -7.071237734710726E-3    4.010356233096311E-2   -7.630529924558570E-3    1.237089878353879E-1    5.144117792405796E-1
 6.565270780950000E9     1.230488872780383E-2    5.683864670961664E-1    4.103019041271566E-2   -7.204484592063468E-3    4.039213893462141E-2   -7.791764427737466E-3    1.250268341573157E-1    5.140659938021763E-1
 6.565283181100000E9     1.352214208999277E-2    5.683205972170281E-1    4.127487079974698E-2   -7.341534651083920E-3    4.066015482611259E-2   -7.894631980191321E-3    1.263471522428161E-1    5.138706683596256E-1
 6.565295581250000E9     1.456410162549280E-2    5.683213506877852E-1    4.156896924969420E-2   -7.669259120295097E-3    4.076949044687950E-2   -8.123813719745694E-3    1.277006630240057E-1    5.135835082933287E-1
 6.565307981400000E9     1.568035493833927E-2    5.682340435360821E-1    4.173895445909332E-2   -7.670689642114326E-3    4.120284550113005E-2   -8.301148107029409E-3    1.290005517660081E-1    5.130050329332912E-1
 6.565320381550000E9     1.665871040800575E-2    5.682284826433059E-1    4.195468896260459E-2   -7.880593337331217E-3    4.137968071602407E-2   -8.414160992251445E-3    1.303293427708956E-1    5.126330527389442E-1
 6.565332781700000E9     1.772491227390932E-2    5.680382829206008E-1    4.239142055757492E-2   -7.932655426205323E-3    4.163808322427593E-2   -8.548048428247730E-3    1.316429016592546E-1    5.123449725538900E-1
 6.565345181850000E9     1.883229628799626E-2    5.679713760272410E-1    4.256945286955306E-2   -8.236623479636039E-3    4.196723196548614E-2   -8.758915603860771E-3    1.329804176334032E-1    5.120956786049468E-1
 6.565357582000000E9     1.987229898044109E-2    5.679280994213527E-1    4.300327863093177E-2   -8.296912513908353E-3    4.216115967837759E-2   -8.997317161949641E-3    1.344090733971232E-1    5.117708902643057E-1
 6.565369982150000E9     2.104964739292159E-2    5.679135407321992E-1    4.317961988785637E-2   -8.476393106044694E-3    4.250838153637778E-2   -9.193138056442613E-3    1.358669268562509E-1    5.113064970014882E-1
 6.565382382300000E9     2.203873149802332E-2    5.678231907892110E-1    4.341036001667467E-2   -8.797385580696600E-3    4.273120643525088E-2   -9.373487790972884E-3    1.368798541146888E-1    5.107301592908829E-1
 6.565394782450000E9     2.309656935447891E-2    5.677032281944087E-1    4.383130693658654E-2   -8.856211472185526E-3    4.312054292102450E-2   -9.486477839198751E-3    1.385056312227662E-1    5.104312968141169E-1
 6.565407182600000E9     2.424354429404071E-2    5.674417269368048E-1    4.413613271408189E-2   -9.030375919185219E-3    4.330679336572776E-2   -9.698721260833333E-3    1.398540021652467E-1    5.101379624543193E-1
 6.565419582750000E9     2.532025846551075E-2    5.675057266096191E-1    4.432139255870169E-2   -9.334556413341348E-3    4.365166248841575E-2   -9.907753143614200E-3    1.411782187005924E-1    5.096873066388352E-1
 6.565431982900000E9     2.641137593807908E-2    5.674795186295060E-1    4.454377141074454E-2   -9.443505834488960E-3    4.385907655209523E-2   -1.003340924851875E-2    1.427833215305024E-1    5.093047674326592E-1
 6.565444383050000E9     2.743915143202753E-2    5.674417953656375E-1    4.507228211822305E-2   -9.763598487726391E-3    4.421049222782592E-2   -1.023797713439358E-2    1.439335820844470E-1    5.087086746649522E-1
 6.565456783200000E9     2.859834055835089E-2    5.672852013682412E-1    4.533592924238154E-2   -9.844810672534994E-3    4.449245566151207E-2   -1.054227810263766E-2    1.454724508704227E-1    5.084176441106114E-1
 6.565469183350000E9     2.970296395261799E-2    5.672517746499003E-1    4.556733258833608E-2   -1.009598480206349E-2    4.486671064607962E-2   -1.066583580177111E-2    1.467996251043106E-1    5.079680508020271E-1
 6.565481583500000E9     3.068219326195886E-2    5.670666667165445E-1    4.585965447019499E-2   -1.033359038775785E-2    4.518501198296354E-2   -1.098423672456869E-2    1.482763366399933E-1    5.074989784989070E-1
 6.565493983650000E9     3.189014394297763E-2    5.669882592037109E-1    4.609401421862779E-2   -1.050054067667988E-2    4.539262046045243E-2   -1.114589278809389E-2    1.496922026615545E-1    5.069082086768829E-1
 6.565506383800000E9     3.291229699802403E-2    5.668564289065221E-1    4.650868322295679E-2   -1.075794611023117E-2    4.575908984764337E-2   -1.131865041075580E-2    1.512074072668584E-1    5.064198701977127E-1
 6.565518783950000E9     3.412795311748279E-2    5.666980218066324E-1    4.678434251221669E-2   -1.077070782442800E-2    4.605598909105603E-2   -1.156009050312795E-2    1.526875476856783E-1    5.060503064246163E-1
 6.565531184100000E9     3.519617231145339E-2    5.665637717620290E-1    4.724160259057822E-2   -1.112222332554648E-2    4.634846725092255E-2   -1.178729118389133E-2    1.541346998822004E-1    5.055779804990860E-1
 6.565543584250000E9     3.637866756191317E-2    5.665900015646278E-1    4.751607544786584E-2   -1.149958140452670E-2    4.673497904368485E-2   -1.188364904592699E-2    1.555171945437872E-1    5.051526791289027E-1
 6.565555984400000E9     3.744390203338998E-2    5.663920003530549E-1    4.778151932833670E-2   -1.158514501293606E-2    4.704296302564803E-2   -1.221971125529679E-2    1.570190313806552E-1    5.045806041482354E-1
 6.565568384550000E9     3.844279485265576E-2    5.662444331748375E-1    4.809395117346004E-2   -1.175259124163019E-2    4.742025544544654E-2   -1.240966452687222E-2    1.584495800732476E-1    5.041278823553994E-1
 6.565580784700000E9     3.959629642487281E-2    5.661563884554776E-1    4.861816177360751E-2   -1.198575303118454E-2    4.770617983045182E-2   -1.255173602110601E-2    1.600880152175018E-1    5.034494346769426E-1
 6.565593184850000E9     4.074642170226495E-2    5.659223122585871E-1    4.885599579035996E-2   -1.233166923630217E-2    4.812471963052736E-2   -1.295757657927306E-2    1.615343281426418E-1    5.029259955035067E-1
 6.565605585000000E9     4.175970137125128E-2    5.658230372326964E-1    4.918877117753469E-2   -1.242619635804838E-2    4.839394066563243E-2   -1.313094456374935E-2    1.629615886984053E-1    5.024784991961609E-1
 6.565617985150000E9     4.310364352167164E-2    5.658336113159204E-1    4.955286680020519E-2   -1.291231348458708E-2    4.880350305829507E-2   -1.346647763280868E-2    1.644255013548274E-1    5.018747127751697E-1
 6.565630385300000E9     4.414394425310336E-2    5.655477163870620E-1    5.004130470019045E-2   -1.317717056663240E-2    4.917196668632601E-2   -1.370252308315816E-2    1.659833697806486E-1    5.013208555232365E-1
 6.565642785450000E9     4.524206426021413E-2    5.654019512372788E-1    5.033190914205336E-2   -1.338299270941957E-2    4.959041167545894E-2   -1.402173621228206E-2    1.675485282264234E-1    5.006317294799302E-1
 6.565655185600000E9     4.644010407121896E-2    5.653150662475066E-1    5.058682953992517E-2   -1.369401289223641E-2    4.993736415908791E-2   -1.424570160572378E-2    1.692131112216249E-1    5.001844463849956E-1
 6.565667585750000E9     4.757919393029786E-2    5.651407083087278E-1    5.115679693612670E-2   -1.385087561606490E-2    5.032356639584857E-2   -1.449198966982996E-2    1.705983744879282E-1    4.995256974511563E-1
 6.565679985900000E9     4.871038128580646E-2    5.649300370234858E-1    5.152878591148378E-2   -1.415366746543885E-2    5.057629397638381E-2   -1.479965002065775E-2    1.720640794894624E-1    4.989276835362192E-1
 6.565692386050000E9     4.995224483654299E-2    5.647395673176415E-1    5.182405461288044E-2   -1.455195662784073E-2    5.108148727183792E-2   -1.509744043972095E-2    1.737371844651788E-1    4.982635149510610E-1
 6.565704786200000E9     5.096488425018462E-2    5.644216502460199E-1    5.227054634091426E-2   -1.466301972847675E-2    5.143705016398749E-2   -1.539384051412040E-2    1.754327490983700E-1    4.976217444333218E-1
 6.565717186350000E9     5.206155154666235E-2    5.643756402711475E-1    5.262768615722138E-2   -1.504010230402619E-2    5.192522352763110E-2   -1.567267661803849E-2    1.768971373815656E-1    4.971152721168026E-1
 6.565729586500000E9     5.333919480757734E-2    5.642083290016929E-1    5.302025429707961E-2   -1.534292682918878E-2    5.232508799450944E-2   -1.596075800288626E-2    1.785533461447036E-1    4.962990925629009E-1
