#  HZ   S   RI   R     50.00 
! Rohde & Schwarz Vector Network Analyzer 
! Rohde-Schwarz,ZNB20-2Port,1311601062101988,3.16
! Created: UTC 3/20/2024, 5:07:08 PM
! freq[Hz]                re:S11                  im:S11                  re:S21                  im:S21                  re:S12                  im:S12                  re:S22                  im:S22
 6.564296659000000E9    -6.747695328527580E-2    5.651008763933272E-1    2.760615042757100E-2   -1.470589314609435E-4    2.713175809872443E-2   -5.179404415322866E-4    3.190322179676664E-2    5.242573565856504E-1
 6.564310451375000E9    -6.640549069799319E-2    5.651217948832964E-1    2.770898613668909E-2   -2.331887390368992E-4    2.719456522286329E-2   -5.897047179078389E-4    3.321279478558737E-2    5.243946075404048E-1
 6.564324243750000E9    -6.545340957798597E-2    5.651620234513781E-1    2.791728186102509E-2   -9.073782330378803E-5    2.740573307551049E-2   -7.348513699291607E-4    3.444078223403534E-2    5.242759193137922E-1
 6.564338036125000E9    -6.428113578825310E-2    5.653191550518599E-1    2.802123858537076E-2   -2.612609836104344E-4    2.753774009941572E-2   -8.071395404177278E-4    3.560110087478183E-2    5.242729799352192E-1
 6.564351828500000E9    -6.308645611216186E-2    5.655298362725496E-1    2.810525955629959E-2   -3.751592350773024E-4    2.763634844355789E-2   -7.975436689474462E-4    3.664942145604013E-2    5.240685869766966E-1
 6.564365620875000E9    -6.208696479403868E-2    5.655676093809247E-1    2.820571675942120E-2   -3.765713037445684E-4    2.780496511257889E-2   -8.915846010285802E-4    3.800881966193863E-2    5.240751305698940E-1
 6.564379413250000E9    -6.091845989686129E-2    5.657303530129734E-1    2.849974019561086E-2   -4.719719507076143E-4    2.790017505999038E-2   -1.003909945718583E-3    3.914433142549425E-2    5.238354316128753E-1
 6.564393205625000E9    -5.985762417756494E-2    5.657779319349647E-1    2.847998259591688E-2   -6.844928004233919E-4    2.812080931963621E-2   -1.074681706055151E-3    4.031760674677344E-2    5.238233379703816E-1
 6.564406998000000E9    -5.874135349836049E-2    5.659072638604894E-1    2.878152822801908E-2   -6.224276482367888E-4    2.819513985982154E-2   -1.245011894329110E-3    4.153618358656806E-2    5.238289565569674E-1
 6.564420790375000E9    -5.765301237933501E-2    5.660850558429075E-1    2.903975344259049E-2   -7.238917246324108E-4    2.840161534010418E-2   -1.196880732217401E-3    4.279207904372596E-2    5.237183030248990E-1
 6.564434582750000E9    -5.654628391011631E-2    5.661939131248170E-1    2.898465795406563E-2   -6.972066782782903E-4    2.854848842087285E-2   -1.374450087312816E-3    4.403166169156190E-2    5.236032763582784E-1
 6.564448375125000E9    -5.541026854338644E-2    5.662173252418573E-1    2.920077876194540E-2   -8.200813967332791E-4    2.865131667716650E-2   -1.333023351916332E-3    4.522623123378030E-2    5.235393514900393E-1
 6.564462167500000E9    -5.438383078520621E-2    5.664622985357372E-1    2.938894725424731E-2   -8.642494058086746E-4    2.880665809838876E-2   -1.435578012013600E-3    4.634120775062873E-2    5.235156901881177E-1
 6.564475959875000E9    -5.317847698146149E-2    5.664521371749300E-1    2.942174060509088E-2   -9.847510325312124E-4    2.900855451872408E-2   -1.523503028746364E-3    4.756668899602392E-2    5.234239016422062E-1
 6.564489752250000E9    -5.227354153529162E-2    5.664994915263656E-1    2.959288712819613E-2   -1.067627825154846E-3    2.907424947102026E-2   -1.643820661280288E-3    4.885762133226221E-2    5.231849420683291E-1
 6.564503544625000E9    -5.105414975323624E-2    5.665892675433898E-1    2.969590406342278E-2   -1.242010738987126E-3    2.918344415139587E-2   -1.770579227077461E-3    5.021433295395243E-2    5.231854328108868E-1
 6.564517337000000E9    -4.996344695879718E-2    5.666771380114604E-1    2.980081267361970E-2   -1.320258640145895E-3    2.947535863636792E-2   -1.785306318008817E-3    5.124225124645840E-2    5.230933447250550E-1
 6.564531129375000E9    -4.887179718512348E-2    5.668846531675786E-1    3.006578510196013E-2   -1.455280984093016E-3    2.959611921723202E-2   -1.833752292863686E-3    5.247972175201646E-2    5.229854827652166E-1
 6.564544921750000E9    -4.773410113760426E-2    5.668889659262092E-1    3.020575421292566E-2   -1.281521297639451E-3    2.974454857195890E-2   -1.840481020352157E-3    5.367944464571176E-2    5.228667348127403E-1
 6.564558714125000E9    -4.674198455932074E-2    5.669523750261968E-1    3.038092227737816E-2   -1.540219580832182E-3    2.991185438284427E-2   -2.026036916498214E-3    5.486079147756638E-2    5.228030876652434E-1
 6.564572506500000E9    -4.550465258927336E-2    5.669380743347995E-1    3.050925483692862E-2   -1.536728807475784E-3    3.003428039982509E-2   -2.084844356979777E-3    5.615502387720221E-2    5.227417337308892E-1
 6.564586298875000E9    -4.437599642214542E-2    5.671643789952735E-1    3.071003503069539E-2   -1.689464291501471E-3    3.022319928303289E-2   -2.247609987203361E-3    5.733328129446270E-2    5.225229846053185E-1
 6.564600091250000E9    -4.337084360407160E-2    5.671001877457619E-1    3.097650473037908E-2   -1.735847363330840E-3    3.037371177993705E-2   -2.321420544328020E-3    5.874815535179340E-2    5.223605371136737E-1
 6.564613883625000E9    -4.216670292140018E-2    5.672986082543777E-1    3.086392474895323E-2   -1.881976202710128E-3    3.056031810751991E-2   -2.412547968818917E-3    5.988517615240024E-2    5.221576408442762E-1
 6.564627676000000E9    -4.115603944421769E-2    5.673516458878349E-1    3.121704608223367E-2   -1.906358816574844E-3    3.068254956316606E-2   -2.485439003606741E-3    6.115293622311025E-2    5.221454805430238E-1
 6.564641468375000E9    -3.996360650245277E-2    5.674229104556464E-1    3.131714744584984E-2   -1.907113430309633E-3    3.085169083005973E-2   -2.418015056362058E-3    6.250034570817081E-2    5.220159402156268E-1
 6.564655260750000E9    -3.897953227953506E-2    5.674823866292993E-1    3.152156580196985E-2   -2.226906370188275E-3    3.106612070511745E-2   -2.550415530495729E-3    6.371406748576097E-2    5.218444142363722E-1
 6.564669053125000E9    -3.779106966264351E-2    5.675471947426888E-1    3.170670056033691E-2   -2.264659661597267E-3    3.114791018201846E-2   -2.693513873827165E-3    6.501517533261159E-2    5.216404559886556E-1
 6.564682845500000E9    -3.672038743982099E-2    5.675041852828198E-1    3.184090808761724E-2   -2.327475048683318E-3    3.142610448320778E-2   -2.885099406163447E-3    6.625173837678267E-2    5.214345327426340E-1
 6.564696637875000E9    -3.551057837200019E-2    5.677839728501024E-1    3.202534927464588E-2   -2.296398570263036E-3    3.151751132255599E-2   -2.828705451174827E-3    6.746848132672441E-2    5.212121702686701E-1
 6.564710430250000E9    -3.447284293136590E-2    5.677636133813979E-1    3.241940264955751E-2   -2.462420357222253E-3    3.179061086603954E-2   -3.010886658251625E-3    6.884837116888634E-2    5.211815170202185E-1
 6.564724222625000E9    -3.331646704739753E-2    5.678191139906286E-1    3.255831687861681E-2   -2.616369719306899E-3    3.190748051826611E-2   -3.106323284744577E-3    6.996863584671623E-2    5.210361569672655E-1
 6.564738015000000E9    -3.222811785563441E-2    5.678673127320155E-1    3.269245008646280E-2   -2.816954685405197E-3    3.211271412739009E-2   -3.247944845968705E-3    7.143517440173838E-2    5.208773285330482E-1
 6.564751807375000E9    -3.109118668874646E-2    5.678462778016260E-1    3.287483809623794E-2   -2.742034654551689E-3    3.224055282458992E-2   -3.318244933114830E-3    7.262295087575606E-2    5.207714674270972E-1
 6.564765599750000E9    -2.993712574680066E-2    5.678226508887195E-1    3.298562929491163E-2   -2.879856070855689E-3    3.239542196717121E-2   -3.367030373177420E-3    7.384421171943584E-2    5.206140126562026E-1
 6.564779392125000E9    -2.868979446063089E-2    5.679038634340899E-1    3.318148337044521E-2   -2.962628100977333E-3    3.264634282844623E-2   -3.551800742514249E-3    7.512234709875358E-2    5.204260058882449E-1
 6.564793184500000E9    -2.770084280714164E-2    5.679891216890218E-1    3.336066500172256E-2   -2.923062253249562E-3    3.289895366048830E-2   -3.574347025500596E-3    7.641343411589692E-2    5.201536585501165E-1
 6.564806976875000E9    -2.654024064394125E-2    5.680630417366317E-1    3.353033829933744E-2   -3.195374571100909E-3    3.299544091876891E-2   -3.744112979569758E-3    7.759284268267461E-2    5.199011423448726E-1
 6.564820769250000E9    -2.543708868892067E-2    5.680173957924894E-1    3.379942754168665E-2   -3.286271798408449E-3    3.312973261267060E-2   -3.916655815223311E-3    7.897079369086830E-2    5.198375065461938E-1
 6.564834561625000E9    -2.420464617807849E-2    5.680683277357865E-1    3.393069565922888E-2   -3.430794524728476E-3    3.338063618416279E-2   -4.005485345495999E-3    8.028024247015703E-2    5.195369428985968E-1
 6.564848354000000E9    -2.320409849117763E-2    5.681243556734916E-1    3.430725077436015E-2   -3.559751651693218E-3    3.358576573135434E-2   -4.069404298208488E-3    8.172596565306832E-2    5.194526783189727E-1
 6.564862146375000E9    -2.201712593537095E-2    5.681299362356008E-1    3.436231019560826E-2   -3.737843887945552E-3    3.375087374400607E-2   -4.185804937827659E-3    8.294059637036327E-2    5.191442061377335E-1
 6.564875938750000E9    -2.093023334276412E-2    5.681469989031522E-1    3.450841150716488E-2   -3.759637043843815E-3    3.401883262709284E-2   -4.304340790095392E-3    8.426738288461154E-2    5.189290831846888E-1
 6.564889731125000E9    -1.982924067408252E-2    5.680553219688643E-1    3.473666941627652E-2   -3.882791449162193E-3    3.425342649250016E-2   -4.401330574339685E-3    8.560380765344612E-2    5.186025633958440E-1
 6.564903523500000E9    -1.870887689030441E-2    5.681236197769156E-1    3.508735636318230E-2   -3.965850033377403E-3    3.430362883687236E-2   -4.441591824528700E-3    8.688820533720719E-2    5.183496288871212E-1
 6.564917315875000E9    -1.753561129696550E-2    5.682471573856573E-1    3.507008748037137E-2   -4.168300310560136E-3    3.456642346461297E-2   -4.609885557907706E-3    8.818289096120141E-2    5.182590105466830E-1
 6.564931108250000E9    -1.638868311346936E-2    5.682557047613148E-1    3.536575097990126E-2   -4.225863351439357E-3    3.489348177972235E-2   -4.841740914295187E-3    8.953202799573483E-2    5.179715409719844E-1
 6.564944900625000E9    -1.515946807283890E-2    5.683003104686083E-1    3.568457481084733E-2   -4.379282917855079E-3    3.497413738747540E-2   -4.933199398371333E-3    9.098111804495418E-2    5.177388230133132E-1
 6.564958693000000E9    -1.407580820964342E-2    5.683147671017938E-1    3.593791851595097E-2   -4.565841210538102E-3    3.521441645137272E-2   -5.008962705416062E-3    9.232242667508932E-2    5.175790582290450E-1
 6.564972485375000E9    -1.290662414745194E-2    5.682368956947564E-1    3.613808206585799E-2   -4.555250849468802E-3    3.551423712446292E-2   -5.255416065930286E-3    9.365275976250911E-2    5.173410348761818E-1
 6.564986277750000E9    -1.180719961673004E-2    5.681961037857460E-1    3.634430956828351E-2   -4.731811615835859E-3    3.559361690812878E-2   -5.282423045771143E-3    9.483148167766285E-2    5.170956647819728E-1
 6.565000070125000E9    -1.070803368012315E-2    5.682264130925444E-1    3.658390067362401E-2   -4.930792032677576E-3    3.590663591748770E-2   -5.451443589798603E-3    9.618586078750446E-2    5.167639557803566E-1
 6.565013862500000E9    -9.629804297132739E-3    5.682824431390664E-1    3.685138075509464E-2   -5.109697756781951E-3    3.608214216620834E-2   -5.474098222843036E-3    9.768790361969040E-2    5.164747990196377E-1
 6.565027654875000E9    -8.396658368799131E-3    5.682106640844496E-1    3.689559041590393E-2   -5.080247050232592E-3    3.632532209327358E-2   -5.690940857244441E-3    9.905752900907711E-2    5.161943356727665E-1
 6.565041447250000E9    -7.219154545527223E-3    5.682175782492858E-1    3.709980260808805E-2   -5.434153473057417E-3    3.657357205836796E-2   -5.665451427044438E-3    1.004304916746943E-1    5.159352072792160E-1
 6.565055239625000E9    -6.040652079621298E-3    5.681833700742088E-1    3.739391349933101E-2   -5.287384246077557E-3    3.675666360692383E-2   -5.987278785990932E-3    1.018099012679462E-1    5.156166732297850E-1
 6.565069032000000E9    -4.980103831886802E-3    5.682144284162151E-1    3.772470205802988E-2   -5.616763556522041E-3    3.709644543768320E-2   -6.185903759064373E-3    1.031914903466894E-1    5.154240229664678E-1
 6.565082824375000E9    -3.706856363580490E-3    5.681691641346321E-1    3.788818081328294E-2   -5.800997761046766E-3    3.725590098824109E-2   -6.276183447613918E-3    1.045146925502203E-1    5.151805440268873E-1
 6.565096616750000E9    -2.496715474524725E-3    5.681875394174370E-1    3.815993422390104E-2   -5.811548011792907E-3    3.745810262190794E-2   -6.396381081312618E-3    1.059726468665626E-1    5.146910444475880E-1
 6.565110409125000E9    -1.454793014975381E-3    5.680920858229896E-1    3.840944192244510E-2   -5.963812698961104E-3    3.780160951929167E-2   -6.569952430577082E-3    1.073301387735371E-1    5.144200922840888E-1
 6.565124201500000E9    -2.722457722132075E-4    5.681327552643527E-1    3.881647932907353E-2   -6.082162314584711E-3    3.811366308548524E-2   -6.691729913655018E-3    1.087080804652256E-1    5.141531879769340E-1
 6.565137993875000E9     8.629255893980882E-4    5.680508784414520E-1    3.897043285101196E-2   -6.347752514230413E-3    3.825232617146472E-2   -6.870470798100557E-3    1.101808131564413E-1    5.138149611806361E-1
 6.565151786250000E9     2.076226732955404E-3    5.680199050718326E-1    3.916141592383298E-2   -6.248315480407518E-3    3.850224260690951E-2   -7.021499228302541E-3    1.115659614448662E-1    5.134626418415178E-1
 6.565165578625000E9     3.219538325618109E-3    5.680431650220796E-1    3.940731646233775E-2   -6.613109140705699E-3    3.890202786981745E-2   -7.176473339057181E-3    1.129346417568975E-1    5.131988316237331E-1
 6.565179371000000E9     4.503591502891660E-3    5.680101445928945E-1    3.986391699890028E-2   -6.713619051232487E-3    3.902479410538982E-2   -7.258110756821126E-3    1.144373360016215E-1    5.128335605728757E-1
 6.565193163375000E9     5.584709002506788E-3    5.679540958314769E-1    3.998469563256751E-2   -6.997653608081250E-3    3.930718579685234E-2   -7.538529751501822E-3    1.157559096226089E-1    5.125823065261504E-1
 6.565206955750000E9     6.741659549471009E-3    5.678102025594628E-1    4.030286735362058E-2   -7.094644429086844E-3    3.953774250626157E-2   -7.762221624572204E-3    1.171650390102374E-1    5.120796827796845E-1
 6.565220748125000E9     7.947211560916784E-3    5.679505134548012E-1    4.060117528028020E-2   -7.291858170779393E-3    3.979851344947306E-2   -7.962332531812149E-3    1.186000003178458E-1    5.117651551388513E-1
 6.565234540500000E9     9.166283706227329E-3    5.678369561153541E-1    4.070704536086226E-2   -7.492034242258580E-3    4.010318136524296E-2   -8.038537947404218E-3    1.202059266765448E-1    5.114159737834488E-1
 6.565248332875000E9     1.030033547990628E-2    5.677215454914396E-1    4.110861372878691E-2   -7.602700801617263E-3    4.044596607738913E-2   -8.261934528564684E-3    1.214750194127769E-1    5.110661200889578E-1
 6.565262125250000E9     1.141653015217410E-2    5.676624994398851E-1    4.132845258901179E-2   -7.792728746935890E-3    4.069472404445223E-2   -8.383864282989864E-3    1.230873508984699E-1    5.106136155894919E-1
 6.565275917625000E9     1.266405755746174E-2    5.676127524206922E-1    4.163650904379853E-2   -8.093199944336648E-3    4.100283918331800E-2   -8.468196103681463E-3    1.244504020665518E-1    5.103977072366408E-1
 6.565289710000000E9     1.377792079257076E-2    5.675092342974799E-1    4.204801116190157E-2   -8.191667653640442E-3    4.111240706355374E-2   -8.737627647351828E-3    1.258050401952119E-1    5.097384075610052E-1
 6.565303502375000E9     1.508219597240454E-2    5.673981421349339E-1    4.225550543747800E-2   -8.462421747208940E-3    4.150607722705254E-2   -8.920765712252816E-3    1.274977072925410E-1    5.095097849123792E-1
 6.565317294750000E9     1.620060923624916E-2    5.674140202376694E-1    4.252324759349350E-2   -8.530954555138807E-3    4.186991116233534E-2   -9.213742278853394E-3    1.289259498422822E-1    5.091442066803864E-1
 6.565331087125000E9     1.747702467680894E-2    5.672288369662696E-1    4.281129062906217E-2   -8.728546733613759E-3    4.209114603669417E-2   -9.388199206833739E-3    1.305567666720466E-1    5.085769544978719E-1
 6.565344879500000E9     1.859218608539971E-2    5.672338125002334E-1    4.301997090833332E-2   -9.018552220510397E-3    4.241249103611190E-2   -9.592673692097450E-3    1.319111821493530E-1    5.081686402458810E-1
 6.565358671875000E9     1.985277365720627E-2    5.670993766231636E-1    4.343042041711551E-2   -9.237270897261346E-3    4.265133061353263E-2   -9.816734005989463E-3    1.336065417701228E-1    5.077268768794816E-1
 6.565372464250000E9     2.102070862731150E-2    5.670182617513713E-1    4.376435229223465E-2   -9.450219228439340E-3    4.307901467059952E-2   -1.003036137451034E-2    1.349767571053090E-1    5.072768937161577E-1
 6.565386256625000E9     2.225356031463408E-2    5.668973674843556E-1    4.412379006407235E-2   -9.646624348196010E-3    4.342247369668763E-2   -1.012587187919327E-2    1.365315898317059E-1    5.067217077397549E-1
 6.565400049000000E9     2.331118876341259E-2    5.668611115809269E-1    4.456519788017107E-2   -9.857575013922924E-3    4.376226506755940E-2   -1.040648335015431E-2    1.381115757324387E-1    5.063798953848605E-1
 6.565413841375000E9     2.479107955530090E-2    5.667189717813451E-1    4.479638487177521E-2   -1.007940124084737E-2    4.392579990412121E-2   -1.066781656443163E-2    1.396732743652019E-1    5.058440752597799E-1
 6.565427633750000E9     2.577752924364159E-2    5.665865179666778E-1    4.519047334739217E-2   -1.027991713381176E-2    4.435115479312651E-2   -1.085288087507648E-2    1.411772312766532E-1    5.053716295968118E-1
 6.565441426125000E9     2.712074206493842E-2    5.665192143385663E-1    4.540932845342020E-2   -1.061737946193161E-2    4.467753218646627E-2   -1.113889861140543E-2    1.427839978721892E-1    5.047907018828641E-1
 6.565455218500000E9     2.829644504334439E-2    5.663888837023439E-1    4.569084476656773E-2   -1.073147511244796E-2    4.505498675799203E-2   -1.141517869225379E-2    1.442742611053543E-1    5.042859442962065E-1
 6.565469010875000E9     2.957672939219835E-2    5.662055479423935E-1    4.609754220851394E-2   -1.105318107413046E-2    4.533406074914368E-2   -1.154523277152788E-2    1.458624011324246E-1    5.037671022791156E-1
 6.565482803250000E9     3.075444347841381E-2    5.661366423697237E-1    4.642763423288358E-2   -1.117224128610386E-2    4.580726077055551E-2   -1.181525909862245E-2    1.476230728857003E-1    5.033065598917779E-1
 6.565496595625000E9     3.194614935165838E-2    5.659516714692165E-1    4.673504396081642E-2   -1.155891570895512E-2    4.607089171375238E-2   -1.208778080159648E-2    1.491356939833617E-1    5.026730391551518E-1
 6.565510388000000E9     3.314011154296256E-2    5.658777462959796E-1    4.716503919920471E-2   -1.179413152338622E-2    4.647957709004973E-2   -1.234594243015425E-2    1.506584542628516E-1    5.022777944851675E-1
 6.565524180375000E9     3.447633931002408E-2    5.656869342038723E-1    4.763260157327426E-2   -1.212229107195415E-2    4.678200318105831E-2   -1.256216180060909E-2    1.523120779561645E-1    5.015652859637867E-1
 6.565537972750000E9     3.559861316807925E-2    5.656730192136307E-1    4.799446340333703E-2   -1.237775473731097E-2    4.721315211279405E-2   -1.293371596704087E-2    1.540466244775786E-1    5.010924740110756E-1
