#  HZ   S   RI   R     50.00 
! Rohde & Schwarz Vector Network Analyzer 
! Rohde-Schwarz,ZNB20-2Port,1311601062101988,3.16
! Created: UTC 3/20/2024, 5:04:00 PM
! freq[Hz]                re:S11                  im:S11                  re:S21                  im:S21                  re:S12                  im:S12                  re:S22                  im:S22
 6.564069129000000E9    -8.491082205770267E-2    5.627097477700124E-1    2.592753592906500E-2    6.576351162457147E-4    2.557571588840441E-2    1.113788659503934E-4    1.391943163085519E-2    5.245912198170953E-1
 6.564083774525000E9    -8.380833775178438E-2    5.628980466541837E-1    2.609685356062771E-2    6.879671047903759E-4    2.564297142555389E-2    1.672934206951650E-4    1.504004604790357E-2    5.246760324271923E-1
 6.564098420050000E9    -8.261980892921095E-2    5.629163838712548E-1    2.627422374629205E-2    5.844602358427373E-4    2.580939421894184E-2   -3.805742768896827E-5    1.622338428437563E-2    5.245332803093236E-1
 6.564113065575000E9    -8.139450624347248E-2    5.631347169798382E-1    2.643794990079616E-2    4.772264430866279E-4    2.596183279009266E-2    6.407690638857281E-5    1.745288753678841E-2    5.245208715634614E-1
 6.564127711100000E9    -8.037717883563049E-2    5.632975315545171E-1    2.650844496570361E-2    4.328077990377444E-4    2.604688314337686E-2   -5.086947180602657E-5    1.873836855153999E-2    5.246107382660451E-1
 6.564142356625000E9    -7.913854153089439E-2    5.635345127711651E-1    2.660056265110173E-2    3.585514593766057E-4    2.611610684254656E-2   -1.653586064131357E-4    1.982183516637849E-2    5.245207561458104E-1
 6.564157002150000E9    -7.801570184752568E-2    5.635390707076179E-1    2.676168015236818E-2    1.746487670366209E-4    2.634637136588651E-2   -2.952520911814248E-4    2.121181412553543E-2    5.244551123327789E-1
 6.564171647675000E9    -7.686813876053965E-2    5.637834271256239E-1    2.688593182309302E-2    3.279146313928123E-4    2.640443754014450E-2   -2.757316610059390E-4    2.255956722471242E-2    5.244949156464100E-1
 6.564186293200000E9    -7.562559693454284E-2    5.638533432103281E-1    2.708153132291919E-2    1.288620169961132E-4    2.659043443736810E-2   -3.405864819583917E-4    2.380931980069115E-2    5.243502480395775E-1
 6.564200938725000E9    -7.456477345367525E-2    5.640267604031979E-1    2.717052553847909E-2    2.569493107760258E-4    2.661009988115765E-2   -4.072104080113048E-4    2.504803456520281E-2    5.242793031603242E-1
 6.564215584250000E9    -7.344351702680520E-2    5.640718986262723E-1    2.724565166821997E-2   -6.305154045728403E-5    2.701149267048633E-2   -4.786949408443979E-4    2.642055738053363E-2    5.243283790377776E-1
 6.564230229775000E9    -7.229444795095635E-2    5.642828998986851E-1    2.747487395275816E-2   -8.528210874136910E-5    2.700761414340439E-2   -4.160364980449853E-4    2.750676867448236E-2    5.242679544174352E-1
 6.564244875300000E9    -7.099487152125541E-2    5.644767195199608E-1    2.762539934712852E-2   -2.024461721586775E-4    2.712305883797681E-2   -5.967825382034213E-4    2.884122981406273E-2    5.243757884782282E-1
 6.564259520825000E9    -7.000044250741015E-2    5.644995292769988E-1    2.770900242337783E-2   -2.193841602252537E-4    2.737551132903575E-2   -7.251673366278206E-4    3.007375929993587E-2    5.241788300640318E-1
 6.564274166350000E9    -6.881681606800641E-2    5.647573550352784E-1    2.786754869089863E-2   -2.050518573673213E-4    2.740448412887269E-2   -6.967069860429893E-4    3.128432837112428E-2    5.239878016117873E-1
 6.564288811875000E9    -6.768275054005816E-2    5.649371588157618E-1    2.796699067845182E-2   -2.806841553065651E-4    2.752195919740072E-2   -7.374696501233403E-4    3.254025568344350E-2    5.240511023616865E-1
 6.564303457400000E9    -6.655054819343723E-2    5.651577613600535E-1    2.826078182672355E-2   -4.162975303937333E-4    2.777331217336361E-2   -8.023756736708300E-4    3.387339706444578E-2    5.238793663757341E-1
 6.564318102925000E9    -6.529825658345853E-2    5.651560870480569E-1    2.838360047773352E-2   -4.360753155032582E-4    2.784181655521359E-2   -9.376662572108659E-4    3.514658334917437E-2    5.238802020871259E-1
 6.564332748450000E9    -6.411508411263825E-2    5.652634903816176E-1    2.850223583185368E-2   -5.548179987133827E-4    2.792177069982218E-2   -1.077844324957685E-3    3.632510689144217E-2    5.237518686078966E-1
 6.564347393975000E9    -6.299293998542643E-2    5.654018700446244E-1    2.863109109039057E-2   -6.957925042066236E-4    2.827051211935976E-2   -1.044613395063292E-3    3.780681671854966E-2    5.238292462231268E-1
 6.564362039500000E9    -6.185254519809004E-2    5.654772935828084E-1    2.883902221333240E-2   -8.565259392470849E-4    2.821361124311566E-2   -1.238240891211082E-3    3.894420509573138E-2    5.235724143250288E-1
 6.564376685025000E9    -6.076841667628211E-2    5.656751896760698E-1    2.876356518770675E-2   -8.194655888629360E-4    2.844387296730187E-2   -1.198344213402328E-3    4.020788149022561E-2    5.235203133304410E-1
 6.564391330550000E9    -5.958439302119237E-2    5.657314643250728E-1    2.918766886530880E-2   -9.796656126686263E-4    2.869900172650594E-2   -1.272462922219469E-3    4.153803924655514E-2    5.235085705447811E-1
 6.564405976075000E9    -5.833013668371718E-2    5.658282255221700E-1    2.928133089809961E-2   -9.875450973100787E-4    2.880463523036714E-2   -1.416996358769319E-3    4.274350465919632E-2    5.235222062794850E-1
 6.564420621600000E9    -5.718191120211959E-2    5.659943443560459E-1    2.955902996334959E-2   -9.937641175990942E-4    2.894866882924031E-2   -1.524754979234872E-3    4.397941695021505E-2    5.234300860868760E-1
 6.564435267125000E9    -5.596437456655147E-2    5.660497009916217E-1    2.956707719793251E-2   -1.184737203353581E-3    2.918315807320758E-2   -1.543322394927762E-3    4.547009164369465E-2    5.230913774377967E-1
 6.564449912650000E9    -5.484367495841328E-2    5.661585792273982E-1    2.965272828565681E-2   -1.206948201324987E-3    2.924393109518687E-2   -1.719575414214328E-3    4.669966689464589E-2    5.230559560305008E-1
 6.564464558175000E9    -5.373818656569161E-2    5.662151114231589E-1    2.998553494864737E-2   -1.215277811696044E-3    2.949355921273343E-2   -1.705503319704870E-3    4.810279206072886E-2    5.229909265935931E-1
 6.564479203700000E9    -5.249893879220646E-2    5.663690131745980E-1    3.009786721593950E-2   -1.364145371445287E-3    2.954743318678178E-2   -1.837686066960488E-3    4.926015666475244E-2    5.228157987801133E-1
 6.564493849225000E9    -5.133500646722790E-2    5.664791473373161E-1    3.026539577091700E-2   -1.430107853448673E-3    2.967965620135561E-2   -1.990262033043520E-3    5.053606542295103E-2    5.227437322417635E-1
 6.564508494750000E9    -5.011930968814887E-2    5.664198262810918E-1    3.042309905663704E-2   -1.514666889140264E-3    2.988636634837888E-2   -1.972803967239630E-3    5.198685308739678E-2    5.225921064900360E-1
 6.564523140275000E9    -4.896310928883969E-2    5.667333743761211E-1    3.059166771088735E-2   -1.650897613027657E-3    3.008461527969714E-2   -2.080179810616692E-3    5.316386633905045E-2    5.224527644176770E-1
 6.564537785800000E9    -4.780634454491936E-2    5.667669256427162E-1    3.076606913403976E-2   -1.768531036118224E-3    3.028003715364435E-2   -2.239493113857295E-3    5.452265100936154E-2    5.223796796663253E-1
 6.564552431325000E9    -4.670351512946115E-2    5.667768272589758E-1    3.088485299492674E-2   -2.031042178346227E-3    3.053558865844824E-2   -2.340712252529446E-3    5.594988993544077E-2    5.221798067020055E-1
 6.564567076850000E9    -4.549216279011303E-2    5.668504148958027E-1    3.125737823562638E-2   -1.963130603169252E-3    3.055713647608332E-2   -2.446096827495794E-3    5.716374366949525E-2    5.220620593308072E-1
 6.564581722375000E9    -4.437314872312586E-2    5.669837126393575E-1    3.126689545255217E-2   -1.973449177604375E-3    3.080558359807695E-2   -2.523723643870696E-3    5.843555763134242E-2    5.220557783990980E-1
 6.564596367900000E9    -4.308505032986319E-2    5.669575471119089E-1    3.151906958942211E-2   -2.106605275441983E-3    3.107316632229950E-2   -2.631570114130466E-3    5.976996774793689E-2    5.218515741415187E-1
 6.564611013425000E9    -4.188498985761513E-2    5.671250352338176E-1    3.172609717439571E-2   -2.198266788232542E-3    3.112923856579901E-2   -2.752515189325475E-3    6.113582141591831E-2    5.216093792446425E-1
 6.564625658950000E9    -4.085798797266480E-2    5.670593796005848E-1    3.197360911430121E-2   -2.211320664662235E-3    3.134748702132103E-2   -2.741573223357313E-3    6.247657048646192E-2    5.214572125426368E-1
 6.564640304475000E9    -3.962093769984960E-2    5.672393088280138E-1    3.213098206519391E-2   -2.456492204564527E-3    3.155975938250917E-2   -2.871995422678004E-3    6.383280552525779E-2    5.214660469779531E-1
 6.564654950000000E9    -3.835108085750914E-2    5.673227364378793E-1    3.217831560069594E-2   -2.487342559367097E-3    3.171011406818911E-2   -3.017756066254667E-3    6.511963671473102E-2    5.211295023053831E-1
 6.564669595525000E9    -3.715249169263216E-2    5.674656547293723E-1    3.259775827720123E-2   -2.629799136968604E-3    3.197942890588285E-2   -3.158413624118683E-3    6.662194911391059E-2    5.208683425330276E-1
 6.564684241050000E9    -3.596262843218773E-2    5.674906729264348E-1    3.264974629846704E-2   -2.700411107796237E-3    3.214633696827380E-2   -3.204447277034031E-3    6.796452348901333E-2    5.208124566690920E-1
 6.564698886575000E9    -3.475091859620475E-2    5.674665757035177E-1    3.291148033340213E-2   -2.920066072322581E-3    3.227526441406105E-2   -3.355930920878332E-3    6.923301035406230E-2    5.205665041493994E-1
 6.564713532100000E9    -3.361077620150753E-2    5.675361579688079E-1    3.309742675723960E-2   -2.947621885656647E-3    3.246448040855273E-2   -3.356077648288866E-3    7.055943776053526E-2    5.204189445406586E-1
 6.564728177625000E9    -3.245211229181131E-2    5.675655706216514E-1    3.312251447957871E-2   -3.045082921622209E-3    3.279481207389599E-2   -3.553120336603107E-3    7.201187821843356E-2    5.202723072348674E-1
 6.564742823150000E9    -3.128709729556611E-2    5.676035175910865E-1    3.347182743254493E-2   -3.175572933207537E-3    3.294667343793527E-2   -3.714990732014446E-3    7.346151166668070E-2    5.200215950047472E-1
 6.564757468675000E9    -2.999862214102446E-2    5.676683627142366E-1    3.371759834227454E-2   -3.353436868714055E-3    3.308435844803714E-2   -3.872752468541309E-3    7.472004322928401E-2    5.198918737300247E-1
 6.564772114200000E9    -2.881609185702988E-2    5.677853870725789E-1    3.379122926557330E-2   -3.255095701848685E-3    3.326937175738292E-2   -3.905254848461444E-3    7.608656458336249E-2    5.195740418032317E-1
 6.564786759725000E9    -2.760380011738482E-2    5.678161509680210E-1    3.415185481813006E-2   -3.428890836534835E-3    3.352974501817124E-2   -4.010841600499806E-3    7.760378280918610E-2    5.193552415305753E-1
 6.564801405250000E9    -2.633609326753394E-2    5.678464417401824E-1    3.423152350298305E-2   -3.601070096838941E-3    3.362038270197708E-2   -4.257377028312737E-3    7.891491026011563E-2    5.192904039587711E-1
 6.564816050775000E9    -2.534323766664629E-2    5.678796616010561E-1    3.453335289427163E-2   -3.739391911362621E-3    3.385055191493703E-2   -4.215785466107096E-3    8.030459851435420E-2    5.189810958303956E-1
 6.564830696300000E9    -2.412080963781977E-2    5.679311487837206E-1    3.484424584906665E-2   -3.986111042380327E-3    3.412968824439470E-2   -4.341761437994368E-3    8.165183477870633E-2    5.186878965434684E-1
 6.564845341825000E9    -2.290801049941238E-2    5.678924964564502E-1    3.488281882638245E-2   -3.921881766390470E-3    3.434381082187091E-2   -4.573750626295746E-3    8.308524980343569E-2    5.185010917564294E-1
 6.564859987350000E9    -2.170231303468154E-2    5.678343292069036E-1    3.515349351906251E-2   -4.127848695644590E-3    3.454994729860721E-2   -4.629790111822834E-3    8.454486323708420E-2    5.183844766921093E-1
 6.564874632875000E9    -2.032222624601761E-2    5.679828947013564E-1    3.536460127247451E-2   -4.161569371496619E-3    3.482160032611106E-2   -4.786172431238548E-3    8.597504398665902E-2    5.180294954971134E-1
 6.564889278400000E9    -1.908531578896652E-2    5.679368244252757E-1    3.556986980655824E-2   -4.465208391465788E-3    3.500021862089314E-2   -4.867487872200040E-3    8.738834385038136E-2    5.177542272091684E-1
 6.564903923925000E9    -1.794403002075680E-2    5.679150571612060E-1    3.581522233882536E-2   -4.433727025304254E-3    3.511479430915554E-2   -4.935428877512694E-3    8.887699969826095E-2    5.177284890386149E-1
 6.564918569450000E9    -1.681639651747650E-2    5.679194535790160E-1    3.596430517915086E-2   -4.541035625950316E-3    3.542880017942725E-2   -5.161182987951778E-3    9.014935984186669E-2    5.172766918196902E-1
 6.564933214975000E9    -1.545670702291641E-2    5.681349379651127E-1    3.634492115691693E-2   -4.786274445723670E-3    3.572759744246802E-2   -5.406818192145089E-3    9.159396797340433E-2    5.168795503444081E-1
 6.564947860500000E9    -1.430573022567217E-2    5.680275931145357E-1    3.655037556189901E-2   -4.940032498131634E-3    3.596636285370674E-2   -5.527796534112186E-3    9.291983971879855E-2    5.167510209146121E-1
 6.564962506025000E9    -1.304170205209520E-2    5.680625998457808E-1    3.678943530514590E-2   -4.984737995296552E-3    3.623591090390928E-2   -5.561317740155555E-3    9.458915628947413E-2    5.164742498602619E-1
 6.564977151550000E9    -1.197000427679528E-2    5.680511376085093E-1    3.696764382060322E-2   -5.212755729510240E-3    3.640174633513445E-2   -5.850875747916391E-3    9.586597065204262E-2    5.161744932275442E-1
 6.564991797075000E9    -1.059246890455142E-2    5.680506510514975E-1    3.734282875809735E-2   -5.406915319223979E-3    3.669221594961669E-2   -5.952520652688724E-3    9.744973338514047E-2    5.159367338612135E-1
 6.565006442600000E9    -9.501562221121588E-3    5.679489941155665E-1    3.754960335967391E-2   -5.536199648682074E-3    3.690281931460344E-2   -6.115721348730014E-3    9.882396204570894E-2    5.154124801692541E-1
 6.565021088125000E9    -8.211071616836089E-3    5.679626760488795E-1    3.783788244607715E-2   -5.739971494158285E-3    3.711094020303703E-2   -6.279430473715431E-3    1.002325055464421E-1    5.151884389858444E-1
 6.565035733650000E9    -7.014693977153102E-3    5.679913613055827E-1    3.804586636792645E-2   -5.775955915670213E-3    3.732806642982397E-2   -6.319606762115491E-3    1.017662668963877E-1    5.148993381646351E-1
 6.565050379175000E9    -5.749820013858578E-3    5.679325870578665E-1    3.837506148909973E-2   -6.068283907812938E-3    3.769255501071206E-2   -6.554031026664898E-3    1.033426818455669E-1    5.145965611862725E-1
 6.565065024700000E9    -4.434923161684427E-3    5.678786839206323E-1    3.859035282297672E-2   -6.197976077882912E-3    3.787532319490208E-2   -6.715806899952165E-3    1.048769893176217E-1    5.143919603347438E-1
 6.565079670225000E9    -3.257218119352406E-3    5.678544280059562E-1    3.897112071199847E-2   -6.355938506370003E-3    3.820212131849827E-2   -6.796515970837072E-3    1.063145153567075E-1    5.139647049468520E-1
 6.565094315750000E9    -2.132049360875636E-3    5.677908643626985E-1    3.908946426942371E-2   -6.501069461918173E-3    3.843398500556270E-2   -7.102436644250076E-3    1.077808988262967E-1    5.136762439538589E-1
 6.565108961275000E9    -7.909729907867088E-4    5.678642912854780E-1    3.945245468094844E-2   -6.701053545642265E-3    3.873309044599294E-2   -7.166932752925059E-3    1.092928671699870E-1    5.133138770403947E-1
 6.565123606800000E9     4.369354995284178E-4    5.677155838584893E-1    3.966880474980796E-2   -6.934573296870056E-3    3.902341760460643E-2   -7.424931650506231E-3    1.107166283616298E-1    5.128539993146498E-1
 6.565138252325000E9     1.624567684447931E-3    5.676860097123223E-1    3.994578416375804E-2   -6.910118488015392E-3    3.931301381635259E-2   -7.644960094164661E-3    1.122749436538737E-1    5.125837629448938E-1
 6.565152897850000E9     2.907227304950480E-3    5.676947765310802E-1    4.024646476431593E-2   -7.067959132126426E-3    3.950671212196555E-2   -7.818682677466049E-3    1.138863557808253E-1    5.121949913043783E-1
 6.565167543375000E9     4.199524649035561E-3    5.676499006674742E-1    4.037639674753082E-2   -7.366288557120605E-3    3.979564022199341E-2   -8.009859181004159E-3    1.154657709480395E-1    5.118419926480441E-1
 6.565182188900000E9     5.479237082771832E-3    5.675515356592511E-1    4.090835800171914E-2   -7.748888876662923E-3    4.005979170829801E-2   -8.063963106784006E-3    1.168207448725969E-1    5.113309326710656E-1
 6.565196834425000E9     6.683250987103845E-3    5.676276309837441E-1    4.115111466075116E-2   -7.695358444696115E-3    4.040788017106817E-2   -8.363441267545740E-3    1.183794989101228E-1    5.110711237117879E-1
 6.565211479950000E9     7.943586330670452E-3    5.675286735308241E-1    4.152899086670732E-2   -7.980123981406219E-3    4.069241656040244E-2   -8.485240254194042E-3    1.199904969073108E-1    5.106199408692793E-1
 6.565226125475000E9     9.159371597771462E-3    5.674909494469517E-1    4.184593984577527E-2   -8.121032392251704E-3    4.098044669284540E-2   -8.651905661222911E-3    1.215599795175978E-1    5.101175066316560E-1
 6.565240771000000E9     1.045229628336936E-2    5.672568871731664E-1    4.205196374746228E-2   -8.342178661174652E-3    4.134902109246980E-2   -9.038232866192869E-3    1.231536601826701E-1    5.096038085489525E-1
 6.565255416525000E9     1.171739320651513E-2    5.672010952254588E-1    4.232369197900455E-2   -8.596745535478612E-3    4.168607498003064E-2   -9.177104372422111E-3    1.247216488967850E-1    5.092596694718949E-1
 6.565270062050000E9     1.306758657352701E-2    5.671992819502367E-1    4.265812051033080E-2   -8.795029624209898E-3    4.195803096940822E-2   -9.516898819364657E-3    1.262958453469520E-1    5.087782073402779E-1
 6.565284707575000E9     1.422531015008620E-2    5.671135645719914E-1    4.307243882145226E-2   -8.959398240130922E-3    4.233276263858721E-2   -9.549895517713614E-3    1.277688787196519E-1    5.082173257417609E-1
 6.565299353100000E9     1.560171282542738E-2    5.670085533072577E-1    4.322902751571917E-2   -9.191908600597458E-3    4.248460969258992E-2   -9.783678228133369E-3    1.293965638211440E-1    5.078828063920690E-1
 6.565313998625000E9     1.677570306048991E-2    5.669163211795661E-1    4.367075511437651E-2   -9.616303351044462E-3    4.292289753021164E-2   -1.013962512833095E-2    1.309200811365316E-1    5.074598134636225E-1
 6.565328644150000E9     1.810688174559559E-2    5.667125032238002E-1    4.415999330010648E-2   -9.720219970347419E-3    4.330657880414408E-2   -1.026829583950009E-2    1.327740040697390E-1    5.070441726646323E-1
 6.565343289675000E9     1.942783868952453E-2    5.667143232967103E-1    4.425983507209092E-2   -1.001465741988344E-2    4.360555275640156E-2   -1.056405429336820E-2    1.344059940202422E-1    5.064316130834178E-1
 6.565357935200000E9     2.064837807987025E-2    5.666161503338578E-1    4.475036831140888E-2   -9.982867491530456E-3    4.389933826271340E-2   -1.067982195999322E-2    1.359910101525709E-1    5.058762021040915E-1
 6.565372580725000E9     2.200115793144713E-2    5.665310066185245E-1    4.499387447604862E-2   -1.047820399210128E-2    4.424124110830733E-2   -1.111424764946434E-2    1.376376338362717E-1    5.052485461824406E-1
 6.565387226250000E9     2.311862723764057E-2    5.663636000688572E-1    4.539705758752571E-2   -1.069343752079297E-2    4.461868924536298E-2   -1.130237806156197E-2    1.392773772988694E-1    5.047242712363600E-1
