#  HZ   S   RI   R     50.00 
! Rohde & Schwarz Vector Network Analyzer 
! Rohde-Schwarz,ZNB20-2Port,1311601062101988,3.16
! Created: UTC 3/20/2024, 4:52:09 PM
! freq[Hz]                re:S11                  im:S11                  re:S21                  im:S21                  re:S12                  im:S12                  re:S22                  im:S22
 6.564603106000000E9    -4.288984833485546E-2    5.677440277120223E-1    3.073095665583946E-2   -1.437447337814136E-3    3.010207682669530E-2   -1.994806470814900E-3    6.024716569174837E-2    5.256155700353190E-1
 6.564615544750000E9    -4.187522820055724E-2    5.678336356887045E-1    3.062375679919864E-2   -1.665531807749881E-3    3.024385722850974E-2   -2.184899958360983E-3    6.118637096495422E-2    5.255217813360795E-1
 6.564627983500000E9    -4.078732613980206E-2    5.679346251745757E-1    3.084652576943417E-2   -1.718231789173664E-3    3.049791852287802E-2   -2.281496609553897E-3    6.238426406569763E-2    5.254040669608986E-1
 6.564640422250000E9    -3.985959113868637E-2    5.680290187151072E-1    3.110110496645659E-2   -1.757146500962867E-3    3.052183304962029E-2   -2.214055592482944E-3    6.353583435994506E-2    5.252537107009237E-1
 6.564652861000000E9    -3.892540899466459E-2    5.679932510887979E-1    3.127550917265554E-2   -1.988571820033228E-3    3.070586048139252E-2   -2.284435912693275E-3    6.462398607144874E-2    5.251064277029484E-1
 6.564665299750000E9    -3.789256275373272E-2    5.681576775956710E-1    3.131223543419801E-2   -1.843820068325507E-3    3.081001272330699E-2   -2.419905997868022E-3    6.568872315776655E-2    5.251606693861016E-1
 6.564677738500000E9    -3.684843527244271E-2    5.681175281148273E-1    3.166458142687555E-2   -1.892750912632043E-3    3.096167329553564E-2   -2.516528355480514E-3    6.687009583611563E-2    5.248391775346153E-1
 6.564690177250000E9    -3.587448745565555E-2    5.681342537319767E-1    3.163129063921344E-2   -2.077433786004132E-3    3.123602222502261E-2   -2.679440096490204E-3    6.787312525980949E-2    5.247427152010792E-1
 6.564702616000000E9    -3.485335033319904E-2    5.682150346371417E-1    3.189605816059618E-2   -2.081656324658903E-3    3.138047682887835E-2   -2.666494673705665E-3    6.925056809192345E-2    5.245807953012185E-1
 6.564715054750000E9    -3.372514529529809E-2    5.683186647735639E-1    3.212271326694040E-2   -2.172546523962465E-3    3.159665518571733E-2   -2.679655263267111E-3    7.017364201075972E-2    5.244283054783229E-1
 6.564727493500000E9    -3.280064515304482E-2    5.684334103162777E-1    3.222316764434691E-2   -2.228344450614621E-3    3.162613521278036E-2   -2.767047915409919E-3    7.141557623621374E-2    5.242663918510753E-1
 6.564739932250000E9    -3.180681178622230E-2    5.683892341369779E-1    3.240076703811529E-2   -2.433337142118218E-3    3.172181526810921E-2   -2.903064391749089E-3    7.265488784764135E-2    5.242268131425273E-1
 6.564752371000000E9    -3.072274579681626E-2    5.684083745941805E-1    3.251826460084511E-2   -2.454854407521325E-3    3.192210200268841E-2   -2.988282740685569E-3    7.375869254564286E-2    5.239641952021533E-1
 6.564764809750000E9    -2.979018419723301E-2    5.684405468187598E-1    3.267167124309196E-2   -2.493463858585853E-3    3.211235868805636E-2   -3.053979271011986E-3    7.464792024354860E-2    5.239106655544161E-1
 6.564777248500000E9    -2.873696135635313E-2    5.686450951464912E-1    3.285001981652574E-2   -2.683162698561726E-3    3.232161756658191E-2   -3.200937939731818E-3    7.614071168599296E-2    5.237329297718254E-1
 6.564789687250000E9    -2.773622864997158E-2    5.685788003896526E-1    3.300433667286155E-2   -2.784284331319732E-3    3.243325286759367E-2   -3.267178399240072E-3    7.725912063099975E-2    5.235134661893127E-1
 6.564802126000000E9    -2.669822544368536E-2    5.686547771214858E-1    3.322271629288859E-2   -2.837977964401424E-3    3.264347591327089E-2   -3.347119597970656E-3    7.839422175073003E-2    5.232963188437240E-1
 6.564814564750000E9    -2.573557645668353E-2    5.686393729399754E-1    3.329744057034933E-2   -2.879113706347569E-3    3.280299101031452E-2   -3.352597195550261E-3    7.956684057114756E-2    5.231567396799768E-1
 6.564827003500000E9    -2.473677061022990E-2    5.687483720740240E-1    3.357380078518117E-2   -2.884028996768423E-3    3.302786205619428E-2   -3.519730841462977E-3    8.067232891619613E-2    5.229813138660764E-1
 6.564839442250000E9    -2.369939284337077E-2    5.687687232270833E-1    3.361142960648983E-2   -3.085840439292586E-3    3.317659301762647E-2   -3.645421403456420E-3    8.190636308446271E-2    5.228253302506251E-1
 6.564851881000000E9    -2.258645026021530E-2    5.687321716897591E-1    3.402345879213309E-2   -3.276825828468377E-3    3.329998111383281E-2   -3.742644268742936E-3    8.305434184374957E-2    5.227107869806984E-1
 6.564864319750000E9    -2.165035588403706E-2    5.688010140442428E-1    3.415016922616248E-2   -3.252122474323132E-3    3.338895932887603E-2   -3.865621115052880E-3    8.431391213747531E-2    5.224903830553834E-1
 6.564876758500000E9    -2.066625781728257E-2    5.687567523671618E-1    3.422640253620080E-2   -3.411254036013435E-3    3.365724024807012E-2   -3.921409202621089E-3    8.545834949129884E-2    5.223859671547947E-1
 6.564889197250000E9    -1.962662719990041E-2    5.688204714032012E-1    3.442601669000794E-2   -3.551245211898753E-3    3.392561748546482E-2   -4.046580813330108E-3    8.667964794250042E-2    5.221585101440765E-1
 6.564901636000000E9    -1.865635053434973E-2    5.688244793304020E-1    3.458117788338486E-2   -3.492369026064888E-3    3.392407659411070E-2   -4.119276642491876E-3    8.788125289460935E-2    5.220084038822516E-1
 6.564914074750000E9    -1.757758905860360E-2    5.688370718107826E-1    3.473659612056762E-2   -3.586732832909298E-3    3.422111474622345E-2   -4.267984246742119E-3    8.909682434256157E-2    5.217865064793370E-1
 6.564926513500000E9    -1.657544313923116E-2    5.688831406070516E-1    3.497642080596069E-2   -3.774389745878002E-3    3.439893836668278E-2   -4.335073457162941E-3    9.026077556899699E-2    5.214996221707244E-1
 6.564938952250000E9    -1.559073630142726E-2    5.688788364174963E-1    3.524488011200046E-2   -3.801112879206679E-3    3.457082601255411E-2   -4.379786770638805E-3    9.143776793406019E-2    5.213107838599231E-1
 6.564951391000000E9    -1.447921213831271E-2    5.688708937907406E-1    3.535968621519583E-2   -3.825604222174299E-3    3.474225163787293E-2   -4.571980492108866E-3    9.265377371106796E-2    5.210289249676912E-1
 6.564963829750000E9    -1.339395299507551E-2    5.688888477989046E-1    3.561648606389751E-2   -4.199239542810157E-3    3.490847434711209E-2   -4.658355276811608E-3    9.384957588155687E-2    5.208624199666941E-1
 6.564976268500000E9    -1.244390908308235E-2    5.689096211424588E-1    3.583978675415746E-2   -4.169400977440908E-3    3.516922498074387E-2   -4.705281984758653E-3    9.498210030536325E-2    5.206271234945774E-1
 6.564988707250000E9    -1.128145714856423E-2    5.689307531363927E-1    3.601325567374850E-2   -4.298699903882580E-3    3.531556096746225E-2   -4.764698265957610E-3    9.614085057397408E-2    5.203670791576764E-1
 6.565001146000000E9    -1.038640402233066E-2    5.689363125167778E-1    3.627435736956900E-2   -4.373357925249092E-3    3.564781991522352E-2   -5.101524734884473E-3    9.748811847126219E-2    5.201250408935001E-1
 6.565013584750000E9    -9.306522073513502E-3    5.689162852201256E-1    3.621748166893867E-2   -4.540690425622581E-3    3.584121369234688E-2   -5.078288473745252E-3    9.880223098756578E-2    5.200724532254802E-1
 6.565026023500000E9    -8.277576448978802E-3    5.688561613886194E-1    3.647954970608155E-2   -4.674905809856810E-3    3.592501693906121E-2   -5.196351067171553E-3    9.999744702720245E-2    5.196456761688967E-1
 6.565038462250000E9    -7.257892936561214E-3    5.689166411217044E-1    3.678249150665675E-2   -4.804519035750136E-3    3.606739260109906E-2   -5.241676070941178E-3    1.012910828695034E-1    5.194256186977577E-1
 6.565050901000000E9    -6.156483094271983E-3    5.689177974201411E-1    3.694912715636674E-2   -4.907118097749293E-3    3.629736724725360E-2   -5.476052647447993E-3    1.023918576342299E-1    5.191812220540790E-1
 6.565063339750000E9    -5.127527713531245E-3    5.688821152614919E-1    3.719527426799132E-2   -4.904178083294513E-3    3.651112653840341E-2   -5.533267841635909E-3    1.036470738943765E-1    5.189761249620795E-1
 6.565075778500000E9    -4.205742736198558E-3    5.689068548342873E-1    3.753751976266921E-2   -5.163458419720177E-3    3.676106392804708E-2   -5.754806774566025E-3    1.049362579002383E-1    5.186172332767334E-1
 6.565088217250000E9    -3.125842593268871E-3    5.689483019974990E-1    3.762427143956221E-2   -5.174093565255287E-3    3.697793924736029E-2   -5.804937655080620E-3    1.061681405511560E-1    5.185088234290002E-1
 6.565100656000000E9    -1.983069757590794E-3    5.688257437080834E-1    3.783178016547935E-2   -5.342607877076391E-3    3.721909113462091E-2   -5.923774841579729E-3    1.073648308743995E-1    5.182862499242747E-1
 6.565113094750000E9    -1.091895199573746E-3    5.687388573863837E-1    3.811977643184175E-2   -5.494519714405454E-3    3.741632754596026E-2   -6.037460940548336E-3    1.087148439809134E-1    5.179994455206983E-1
 6.565125533500000E9     1.000776587754093E-4    5.687875151483188E-1    3.834929357345360E-2   -5.712691100839454E-3    3.754946271132555E-2   -6.076016794485287E-3    1.099039858669172E-1    5.177908916979002E-1
 6.565137972250000E9     1.202109769756744E-3    5.687669175290136E-1    3.850024112612684E-2   -5.853117392524143E-3    3.790977816691113E-2   -6.385467388482167E-3    1.111665627783465E-1    5.174856813944243E-1
 6.565150411000000E9     2.152160499264943E-3    5.686458737278232E-1    3.862335499494979E-2   -5.897837892619781E-3    3.810779736125264E-2   -6.417056321634554E-3    1.124962450903059E-1    5.171931242966346E-1
 6.565162849750000E9     3.184544862699982E-3    5.686538580876087E-1    3.880031010725661E-2   -6.170708881354473E-3    3.841407097803567E-2   -6.634818551933003E-3    1.138127511135612E-1    5.169857056312842E-1
 6.565175288500000E9     4.272734501385855E-3    5.686225358470269E-1    3.926051684803335E-2   -5.960155155231562E-3    3.855939004206146E-2   -6.718126478716577E-3    1.150759816165437E-1    5.165260107600420E-1
 6.565187727250000E9     5.417070288669306E-3    5.685533518318354E-1    3.942065533503265E-2   -6.347443866740877E-3    3.885946834919723E-2   -6.753627523164374E-3    1.162155360054997E-1    5.162272650751955E-1
 6.565200166000000E9     6.386822228120462E-3    5.686508208031422E-1    3.981655099485597E-2   -6.445053873961497E-3    3.895973739439784E-2   -7.018175889061149E-3    1.175569915092151E-1    5.159667451279111E-1
 6.565212604750000E9     7.320137399334303E-3    5.687373339893395E-1    3.996687473030858E-2   -6.530255050051372E-3    3.919946622641638E-2   -7.138482670670254E-3    1.189749532820067E-1    5.156837768307012E-1
 6.565225043500000E9     8.457739687981587E-3    5.684601061980012E-1    4.011747916964252E-2   -6.659256305599257E-3    3.961046335106955E-2   -7.343508115504218E-3    1.202328574740026E-1    5.152444751404910E-1
 6.565237482250000E9     9.589905050260538E-3    5.685706130324093E-1    4.040650472696583E-2   -6.869095163820395E-3    3.976106776014616E-2   -7.465337093808522E-3    1.214462254030888E-1    5.148745168254080E-1
 6.565249921000000E9     1.065094492521394E-2    5.683906763496144E-1    4.074997946944026E-2   -7.012290924976091E-3    3.991419595498298E-2   -7.555841672840994E-3    1.229628509288562E-1    5.146722998901127E-1
 6.565262359750000E9     1.161558794500354E-2    5.683950732505613E-1    4.100871466616714E-2   -7.133753269929390E-3    4.018866757866893E-2   -7.689112258917242E-3    1.242150000234657E-1    5.143750181124078E-1
 6.565274798500000E9     1.272135934364199E-2    5.683644082651215E-1    4.127077127479199E-2   -7.385532803933047E-3    4.047723264709250E-2   -7.904854856996725E-3    1.255265253879660E-1    5.140989681371326E-1
 6.565287237250000E9     1.378117592568052E-2    5.682294552113195E-1    4.149500161182044E-2   -7.440699420414978E-3    4.080000464253686E-2   -8.034975990209595E-3    1.268526976381032E-1    5.136714019555335E-1
 6.565299676000000E9     1.476777418451775E-2    5.681686616609596E-1    4.167785549820295E-2   -7.732152697378378E-3    4.090168387276705E-2   -8.175678466904070E-3    1.281518448794297E-1    5.133474714253266E-1
 6.565312114750000E9     1.598117869192410E-2    5.681665456165187E-1    4.201959003070654E-2   -7.900271292109179E-3    4.127632763453077E-2   -8.317528188187673E-3    1.295655529138857E-1    5.129379102275106E-1
 6.565324553500000E9     1.702556704518391E-2    5.680293892433381E-1    4.225999749715721E-2   -7.918587249682658E-3    4.144581607431484E-2   -8.576894389814871E-3    1.308003225185851E-1    5.125222473833565E-1
 6.565336992250000E9     1.815846887619591E-2    5.680645092888431E-1    4.267362501587020E-2   -8.251003451773384E-3    4.176574424422842E-2   -8.727507028498824E-3    1.322678713530117E-1    5.121473053305111E-1
 6.565349431000000E9     1.917743913837028E-2    5.679881152167813E-1    4.270987209836554E-2   -8.285825055104222E-3    4.213869975075679E-2   -8.894304419743116E-3    1.335659031304881E-1    5.118006502845588E-1
 6.565361869750000E9     2.025394596668779E-2    5.678517530502045E-1    4.306148824747996E-2   -8.536540826849124E-3    4.245470144039564E-2   -9.061798588085101E-3    1.348580879667369E-1    5.114524712139358E-1
 6.565374308500000E9     2.150030704520461E-2    5.677512293086869E-1    4.332282849511779E-2   -8.663849893982428E-3    4.250337236979834E-2   -9.250930278115226E-3    1.363676615913183E-1    5.110170310563972E-1
 6.565386747250000E9     2.234040516207163E-2    5.677854534169032E-1    4.373759632833799E-2   -8.929174079163039E-3    4.280796281021317E-2   -9.447619355209227E-3    1.376630025078478E-1    5.106863423631781E-1
 6.565399186000000E9     2.352884667772942E-2    5.677161985152913E-1    4.402265713579708E-2   -9.053287751301384E-3    4.317766666768926E-2   -9.550611537463073E-3    1.390619297667626E-1    5.102077781177643E-1
 6.565411624750000E9     2.468563022755718E-2    5.676041757855550E-1    4.420617486089975E-2   -9.169594777492705E-3    4.345634028686297E-2   -9.776505824552971E-3    1.405687307496492E-1    5.099010052600693E-1
 6.565424063500000E9     2.566844352133595E-2    5.674550388585446E-1    4.437102467442384E-2   -9.423164022926639E-3    4.381399789310744E-2   -1.009646933968752E-2    1.417928048140026E-1    5.095238321237028E-1
 6.565436502250000E9     2.679804598922170E-2    5.673395398059840E-1    4.470666603760233E-2   -9.581585658775012E-3    4.407699475980364E-2   -1.022249292584638E-2    1.431793933554210E-1    5.090469882739888E-1
 6.565448941000000E9     2.787922788846033E-2    5.672138733834611E-1    4.510011435078692E-2   -9.739708576774600E-3    4.433650371865160E-2   -1.046543863784830E-2    1.446326986043069E-1    5.085775873620670E-1
 6.565461379750000E9     2.897483926361406E-2    5.672713722177057E-1    4.540982488727704E-2   -9.828090754104742E-3    4.465664949446798E-2   -1.054430075133600E-2    1.460510755543689E-1    5.081721893258077E-1
 6.565473818500000E9     2.998804430283513E-2    5.671056368127056E-1    4.567429656156252E-2   -1.031273439910732E-2    4.500151603995799E-2   -1.080035868945531E-2    1.474695216403582E-1    5.075209142044513E-1
 6.565486257250000E9     3.115047357861943E-2    5.669003490701812E-1    4.612909393932685E-2   -1.038240225475266E-2    4.531821598288716E-2   -1.097429414713477E-2    1.487813439392683E-1    5.071606759641381E-1
 6.565498696000000E9     3.228353348074481E-2    5.668975086418051E-1    4.648531859122907E-2   -1.068669561990008E-2    4.568140830034417E-2   -1.126929706162416E-2    1.502869070658126E-1    5.065912593807739E-1
 6.565511134750000E9     3.334353470325854E-2    5.667664219667969E-1    4.674727158085704E-2   -1.084490878398512E-2    4.604746100225556E-2   -1.148712283928803E-2    1.518637345840969E-1    5.062623010192396E-1
 6.565523573500000E9     3.451510894538725E-2    5.668269051983922E-1    4.704326587726650E-2   -1.104656083596522E-2    4.626073591185977E-2   -1.169199167632761E-2    1.532935735859907E-1    5.057833259691732E-1
 6.565536012250000E9     3.557865330269006E-2    5.664847253013761E-1    4.738986937387910E-2   -1.134142575204420E-2    4.652497159924193E-2   -1.184989890224534E-2    1.546658143929391E-1    5.053522790106629E-1
 6.565548451000000E9     3.665707114362681E-2    5.663486312642773E-1    4.762424393168189E-2   -1.137236475734004E-2    4.700901433246964E-2   -1.202238664051106E-2    1.561241501165893E-1    5.048500276727323E-1
 6.565560889750000E9     3.782123290410649E-2    5.662809957678397E-1    4.798027113366745E-2   -1.180177097835921E-2    4.724421351593304E-2   -1.243787877263046E-2    1.576929647194769E-1    5.042511219584372E-1
 6.565573328500000E9     3.888946295778717E-2    5.661468779648443E-1    4.832773991327197E-2   -1.189706332500794E-2    4.757707586783235E-2   -1.252011516613982E-2    1.591143430912232E-1    5.037152330112477E-1
 6.565585767250000E9     4.005817252284800E-2    5.660379862056940E-1    4.858525653480954E-2   -1.221282118921289E-2    4.791316671749030E-2   -1.285610374400830E-2    1.606202352432697E-1    5.031058130560004E-1
 6.565598206000000E9     4.127084257023118E-2    5.659050327350872E-1    4.905441205562638E-2   -1.238622668719376E-2    4.828581654423825E-2   -1.311096623393988E-2    1.622090978975640E-1    5.028128823487685E-1
 6.565610644750000E9     4.225112496297574E-2    5.659146397621471E-1    4.945276608110251E-2   -1.278074092719689E-2    4.863174881761363E-2   -1.339162767262612E-2    1.636708272197411E-1    5.021010621749865E-1
 6.565623083500000E9     4.343632057339200E-2    5.656099921711517E-1    4.982708137126313E-2   -1.294038945103127E-2    4.908413202803035E-2   -1.350809527094497E-2    1.652159192152964E-1    5.015376632015318E-1
 6.565635522250000E9     4.455403925499592E-2    5.654995312488613E-1    5.030768601885542E-2   -1.332487638878191E-2    4.934411030338242E-2   -1.391260533187633E-2    1.667269839574192E-1    5.010726332692191E-1
 6.565647961000000E9     4.562864472573148E-2    5.652664778853925E-1    5.049263059273693E-2   -1.347016018810772E-2    4.976443001426555E-2   -1.409341588577893E-2    1.683921273924881E-1    5.002869965982034E-1
 6.565660399750000E9     4.679380273863537E-2    5.651210161096379E-1    5.102459543672614E-2   -1.386014610021164E-2    5.021428417458461E-2   -1.438614468436708E-2    1.698366437336261E-1    4.997873362640308E-1
 6.565672838500000E9     4.808727954976617E-2    5.649204140270238E-1    5.138843755337966E-2   -1.416214821441590E-2    5.052748296496145E-2   -1.466584538602205E-2    1.714109669003616E-1    4.991680690723900E-1
 6.565685277250000E9     4.902736018990052E-2    5.647612130009420E-1    5.169654006160634E-2   -1.429027665316304E-2    5.092948979113505E-2   -1.502361460286867E-2    1.730184055516044E-1    4.984898594884303E-1
 6.565697716000000E9     5.036590660287880E-2    5.646348257645265E-1    5.207554328244649E-2   -1.465397641689430E-2    5.130936544519749E-2   -1.521868458358330E-2    1.745344228191666E-1    4.978969033273828E-1
 6.565710154750000E9     5.147286400819034E-2    5.645211284228023E-1    5.246814718793959E-2   -1.499232660903671E-2    5.169570607602950E-2   -1.564769199399181E-2    1.761912506941830E-1    4.973043518396512E-1
 6.565722593500000E9     5.265407958593157E-2    5.641808464400822E-1    5.304493097609950E-2   -1.513348982492518E-2    5.219156063906010E-2   -1.588486704585674E-2    1.777360186814335E-1    4.965943699219880E-1
