#  HZ   S   RI   R     50.00 
! Rohde & Schwarz Vector Network Analyzer 
! Rohde-Schwarz,ZNB20-2Port,1311601062101988,3.16
! Created: UTC 3/20/2024, 4:52:14 PM
! freq[Hz]                re:S11                  im:S11                  re:S21                  im:S21                  re:S12                  im:S12                  re:S22                  im:S22
 6.564594124000000E9    -4.360071416173795E-2    5.678710542318006E-1    3.045998164330374E-2   -1.470582503752624E-3    3.009228315201225E-2   -1.921951899877707E-3    5.920832770184421E-2    5.257682073761607E-1
 6.564606601500000E9    -4.251984206920646E-2    5.678027404230644E-1    3.074112922151074E-2   -1.524015859236843E-3    3.011732906220823E-2   -2.040140525010195E-3    6.028320877298009E-2    5.255534630569079E-1
 6.564619079000000E9    -4.145945170368542E-2    5.678317910551420E-1    3.089755426511329E-2   -1.599640766631089E-3    3.038793059058096E-2   -2.129911347229032E-3    6.159214993205652E-2    5.255996727785363E-1
 6.564631556500000E9    -4.060831144453726E-2    5.678841680500294E-1    3.094232366686327E-2   -1.650454280968078E-3    3.053202579187478E-2   -2.263623252741606E-3    6.277576378271164E-2    5.253868190480804E-1
 6.564644034000000E9    -3.954130418756133E-2    5.679739376172924E-1    3.123003093017596E-2   -1.685632201012486E-3    3.064899827080027E-2   -2.213397974922516E-3    6.380907119536514E-2    5.253416201967573E-1
 6.564656511500000E9    -3.858503013213253E-2    5.680082028203289E-1    3.125060221725810E-2   -1.979079203428992E-3    3.076567124313665E-2   -2.409021418242902E-3    6.499078333657052E-2    5.251867730954972E-1
 6.564668989000000E9    -3.754806043447075E-2    5.679963901677012E-1    3.143751778180696E-2   -1.889471180705794E-3    3.091844961909855E-2   -2.381967516475853E-3    6.614687873149221E-2    5.249789632553992E-1
 6.564681466500000E9    -3.655358042030122E-2    5.680593993148650E-1    3.160340748266600E-2   -1.992226230745951E-3    3.112136481344506E-2   -2.563134472761530E-3    6.724306227440867E-2    5.249428709776439E-1
 6.564693944000000E9    -3.550450650775944E-2    5.681751062233789E-1    3.167825648384155E-2   -2.116509981706682E-3    3.126486907555841E-2   -2.554136907635408E-3    6.837541329280565E-2    5.247013725744972E-1
 6.564706421500000E9    -3.449216964725159E-2    5.683709299370262E-1    3.199660294873466E-2   -2.141264457860265E-3    3.130438931698354E-2   -2.681827391575189E-3    6.947004787962849E-2    5.246186048894391E-1
 6.564718899000000E9    -3.353022663198854E-2    5.684144017403364E-1    3.207722473735149E-2   -2.254159145169098E-3    3.157039960169909E-2   -2.750880699549204E-3    7.065548271425402E-2    5.244379758639300E-1
 6.564731376500000E9    -3.249347962802304E-2    5.683551989436472E-1    3.220829782945634E-2   -2.459098117652939E-3    3.168902747088211E-2   -2.671141265811006E-3    7.183633512318949E-2    5.242462054364255E-1
 6.564743854000000E9    -3.153353654590732E-2    5.683953754036964E-1    3.253890089089968E-2   -2.485001602731651E-3    3.184871515083195E-2   -2.919471992024571E-3    7.291600970797751E-2    5.241751479249692E-1
 6.564756331500000E9    -3.042531399325489E-2    5.683932910012975E-1    3.240578539915101E-2   -2.462610894701898E-3    3.204146798032324E-2   -3.094596985704741E-3    7.409963667281438E-2    5.239472059573299E-1
 6.564768809000000E9    -2.938525303345774E-2    5.684851607255867E-1    3.274836533803891E-2   -2.682627666202246E-3    3.227165302443197E-2   -3.181521006311348E-3    7.529179251810915E-2    5.238153076807859E-1
 6.564781286500000E9    -2.845040874994010E-2    5.685978837023706E-1    3.290714530367892E-2   -2.681844655710071E-3    3.233228949247921E-2   -3.207277317619747E-3    7.666766308628109E-2    5.237117188637342E-1
 6.564793764000000E9    -2.739588862789835E-2    5.685326885931110E-1    3.308263469566144E-2   -2.770077508402464E-3    3.255449169948355E-2   -3.310089635700336E-3    7.763337979088172E-2    5.233948009301977E-1
 6.564806241500000E9    -2.641892093836116E-2    5.685867808929154E-1    3.332335163315401E-2   -2.875957392131936E-3    3.275006617622966E-2   -3.341652237103451E-3    7.880652802420608E-2    5.233586332639554E-1
 6.564818719000000E9    -2.547062587877314E-2    5.685620529036626E-1    3.350101238645462E-2   -2.891648039267178E-3    3.285446915480644E-2   -3.486344601836885E-3    7.998909686146764E-2    5.231648369300973E-1
 6.564831196500000E9    -2.436164516583154E-2    5.686762198564163E-1    3.369215510691025E-2   -3.088224627093679E-3    3.304458142880525E-2   -3.539785724114193E-3    8.120395212152741E-2    5.229290983115301E-1
 6.564843674000000E9    -2.327824540885997E-2    5.688042882627282E-1    3.380293477622067E-2   -3.213716275692766E-3    3.327894457878423E-2   -3.697231138965934E-3    8.231228184368487E-2    5.228877927864181E-1
 6.564856151500000E9    -2.229199985332811E-2    5.687475457408294E-1    3.403633810325774E-2   -3.216225954954615E-3    3.333268166395924E-2   -3.746543677581585E-3    8.350916097620267E-2    5.226838486387219E-1
 6.564868629000000E9    -2.131477848368710E-2    5.687206588766358E-1    3.421926840222539E-2   -3.413101803151392E-3    3.358302967843674E-2   -3.791422072049007E-3    8.472624749892642E-2    5.224327997999259E-1
 6.564881106500000E9    -2.018530307395840E-2    5.688224175767368E-1    3.429986775218415E-2   -3.450882452772876E-3    3.377499560155046E-2   -3.886813699534418E-3    8.589423307534767E-2    5.222017195113290E-1
 6.564893584000000E9    -1.925853994203040E-2    5.688004567883044E-1    3.441704629255696E-2   -3.511940982529596E-3    3.397672849972593E-2   -4.046073793198910E-3    8.712397295616994E-2    5.221236180940603E-1
 6.564906061500000E9    -1.821673152365532E-2    5.688636043608157E-1    3.454971000602672E-2   -3.529827798421800E-3    3.419316750817318E-2   -4.150118357093739E-3    8.817020789716193E-2    5.217849029045217E-1
 6.564918539000000E9    -1.722075977719874E-2    5.688679607927262E-1    3.507382274449133E-2   -3.746024016265008E-3    3.428140759496287E-2   -4.178297940779941E-3    8.956970429296654E-2    5.215535616860861E-1
 6.564931016500000E9    -1.616437060607552E-2    5.688699080403627E-1    3.512270407787259E-2   -3.715473030347731E-3    3.445829645199993E-2   -4.265998693493671E-3    9.091811030313057E-2    5.215002655837184E-1
 6.564943494000000E9    -1.512043692222049E-2    5.689959652753784E-1    3.535148806764606E-2   -3.976729024017109E-3    3.462860322117497E-2   -4.457439876020477E-3    9.194134606782331E-2    5.212539380732236E-1
 6.564955971500000E9    -1.406250857018518E-2    5.688568424709608E-1    3.543400843696899E-2   -4.048831517815672E-3    3.493024536163494E-2   -4.597308854270519E-3    9.306397461182088E-2    5.210801517219058E-1
 6.564968449000000E9    -1.314833310689926E-2    5.688691908982253E-1    3.568144472977281E-2   -4.200278349875752E-3    3.499796433719427E-2   -4.690678570474070E-3    9.441530857897662E-2    5.208907347844604E-1
 6.564980926500000E9    -1.204290121872205E-2    5.689697373315294E-1    3.584630699723269E-2   -4.315212395817490E-3    3.526177054991373E-2   -4.802815799621377E-3    9.555334404400161E-2    5.206609567582705E-1
 6.564993404000000E9    -1.086078001716930E-2    5.689358720092577E-1    3.610904206549201E-2   -4.380306960373313E-3    3.550206600032711E-2   -4.990094817170968E-3    9.669643448641700E-2    5.203435587884326E-1
 6.565005881500000E9    -9.889835276398180E-3    5.689454815032507E-1    3.624848383569167E-2   -4.464488285806885E-3    3.558927542865968E-2   -5.092152020691867E-3    9.805749296543952E-2    5.200567448265634E-1
 6.565018359000000E9    -8.886805308013900E-3    5.688435240628489E-1    3.647676655331802E-2   -4.568133920170955E-3    3.588113409766711E-2   -5.130189174568082E-3    9.925930466247340E-2    5.198832082214911E-1
 6.565030836500000E9    -7.753171189790918E-3    5.688876360733782E-1    3.651126658912485E-2   -4.641088038156885E-3    3.602345030641780E-2   -5.239747751698826E-3    1.005275694865135E-1    5.196818777378595E-1
 6.565043314000000E9    -6.896202493149775E-3    5.689309051327872E-1    3.692572101466424E-2   -4.887133506415919E-3    3.624407215666976E-2   -5.375012021720359E-3    1.017595901927048E-1    5.194434041797888E-1
 6.565055791500000E9    -5.824336927941005E-3    5.688649073163849E-1    3.703538089747398E-2   -4.947085646519672E-3    3.641236123735719E-2   -5.560231948162961E-3    1.029192556187176E-1    5.192003263361877E-1
 6.565068269000000E9    -4.798082571899271E-3    5.688178811650113E-1    3.729590829569807E-2   -5.170336275275873E-3    3.669151645459923E-2   -5.606876608835312E-3    1.041991712971170E-1    5.187873975791596E-1
 6.565080746500000E9    -3.630254368408437E-3    5.688231112702178E-1    3.743254571303499E-2   -5.310807843155388E-3    3.692849570292500E-2   -5.668161931853570E-3    1.054781483176674E-1    5.186333219370685E-1
 6.565093224000000E9    -2.645126427232248E-3    5.688884007663351E-1    3.779157257301228E-2   -5.212853989074093E-3    3.709271249810351E-2   -5.806967524776985E-3    1.067214571357538E-1    5.183390654814315E-1
 6.565105701500000E9    -1.664977992523455E-3    5.687695258866206E-1    3.791110976520232E-2   -5.371263377107996E-3    3.735040647119682E-2   -5.924228329733653E-3    1.080899375055009E-1    5.181071538317318E-1
 6.565118179000000E9    -5.084250470785309E-4    5.687822418196435E-1    3.814811111625823E-2   -5.620806547579358E-3    3.757225075257582E-2   -6.146147350303170E-3    1.092211731233682E-1    5.178769797143088E-1
 6.565130656500000E9     5.277638064664773E-4    5.687590173070184E-1    3.830905821808609E-2   -5.721485331768005E-3    3.774054761609046E-2   -6.133817836374734E-3    1.104476442069741E-1    5.175994348810692E-1
 6.565143134000000E9     1.510788707468605E-3    5.687404018654155E-1    3.865054786455589E-2   -5.775544895465232E-3    3.806050537723240E-2   -6.438027750811298E-3    1.115793608896769E-1    5.172767231758700E-1
 6.565155611500000E9     2.540810332238620E-3    5.687514864219761E-1    3.886690158091687E-2   -5.954128812317535E-3    3.809924230316059E-2   -6.531444304161803E-3    1.130127060112396E-1    5.169906538111508E-1
 6.565168089000000E9     3.775117460192355E-3    5.687304418414997E-1    3.921682646879814E-2   -6.119584031049838E-3    3.836146363010555E-2   -6.662680984667880E-3    1.143518776476339E-1    5.167634467289317E-1
 6.565180566500000E9     4.731787495372801E-3    5.686518579970398E-1    3.927593780337867E-2   -6.139958980925732E-3    3.861330437813052E-2   -6.815422676079555E-3    1.157167973990980E-1    5.164435010557934E-1
 6.565193044000000E9     5.802217619753078E-3    5.685687726868308E-1    3.960161038896457E-2   -6.380280078959269E-3    3.894595160020991E-2   -7.006028546839969E-3    1.169200115058491E-1    5.160144795036242E-1
 6.565205521500000E9     6.786373783517563E-3    5.686371731514195E-1    3.974871083229122E-2   -6.455813391543496E-3    3.922339630855830E-2   -7.052747519607968E-3    1.182043984968609E-1    5.158898683178962E-1
 6.565217999000000E9     7.949211116204755E-3    5.685752169724106E-1    4.007317877116145E-2   -6.721271004412181E-3    3.934243428285556E-2   -7.130742379894590E-3    1.194511121531169E-1    5.155396961643319E-1
 6.565230476500000E9     8.966381097473376E-3    5.684491237283984E-1    4.025081343595017E-2   -6.817083715992377E-3    3.955184377611726E-2   -7.374087894658609E-3    1.208994191403018E-1    5.152147946097059E-1
 6.565242954000000E9     1.005735976004383E-2    5.684973648921513E-1    4.068702546965722E-2   -6.860919575236988E-3    3.990809807166509E-2   -7.553008531922194E-3    1.220673864996233E-1    5.149239575412097E-1
 6.565255431500000E9     1.113614076587362E-2    5.684883453024482E-1    4.087725325437199E-2   -7.109288530489972E-3    4.023613499011355E-2   -7.628087088082379E-3    1.234866743137404E-1    5.144804870414651E-1
 6.565267909000000E9     1.212926027783786E-2    5.683552961877426E-1    4.111913971030166E-2   -7.271289624388400E-3    4.035906337145356E-2   -7.907287246611354E-3    1.248190013965651E-1    5.142944806098847E-1
 6.565280386500000E9     1.318186503968654E-2    5.683319876610966E-1    4.126074611922203E-2   -7.323698292996591E-3    4.061078423710449E-2   -8.039340703962033E-3    1.261084558905204E-1    5.138515683722557E-1
 6.565292864000000E9     1.426395917499322E-2    5.682532807070427E-1    4.157273531314382E-2   -7.550128523687287E-3    4.090180144330463E-2   -8.142388775923489E-3    1.275117600406773E-1    5.133586624251067E-1
 6.565305341500000E9     1.533782272197631E-2    5.681869484979309E-1    4.182200842474454E-2   -7.714755340923638E-3    4.117308923245510E-2   -8.291956744505420E-3    1.288500447701396E-1    5.131474581860651E-1
 6.565317819000000E9     1.644687714346956E-2    5.679738328344071E-1    4.208152655802778E-2   -7.897592007586669E-3    4.138847258519641E-2   -8.480189005758705E-3    1.302175551177515E-1    5.128592011556394E-1
 6.565330296500000E9     1.758357097449995E-2    5.680937566768721E-1    4.243536823428067E-2   -8.111153590716503E-3    4.166544978750623E-2   -8.622703083849530E-3    1.315722455283849E-1    5.123052262159986E-1
 6.565342774000000E9     1.848712148479730E-2    5.679146326260095E-1    4.263534050674651E-2   -8.168083691657613E-3    4.195182961233608E-2   -8.817729081798965E-3    1.328989515206825E-1    5.120481316869134E-1
 6.565355251500000E9     1.963821389442761E-2    5.679340379357842E-1    4.291086580255481E-2   -8.412598881597899E-3    4.225420100081512E-2   -9.132082298892464E-3    1.342680730895480E-1    5.116861510991632E-1
 6.565367729000000E9     2.081580116379611E-2    5.678981440807801E-1    4.322770493529660E-2   -8.587185691970580E-3    4.248843168452410E-2   -9.254146672695031E-3    1.355092881443041E-1    5.112693660511710E-1
 6.565380206500000E9     2.185367246201568E-2    5.676205753440271E-1    4.354459832154219E-2   -8.806944344761361E-3    4.283194018268936E-2   -9.388199200237269E-3    1.370052838902097E-1    5.109159011748363E-1
 6.565392684000000E9     2.288600147986903E-2    5.677875400823180E-1    4.378278873316280E-2   -8.890494815739404E-3    4.309261802648943E-2   -9.532664336061675E-3    1.382588129456545E-1    5.105246508111577E-1
 6.565405161500000E9     2.394852767594492E-2    5.676563856660584E-1    4.418628557343640E-2   -9.004882429641713E-3    4.338186062283510E-2   -9.727018441761706E-3    1.397316436271095E-1    5.101200453626935E-1
 6.565417639000000E9     2.510902314900318E-2    5.675341378537774E-1    4.425029844751360E-2   -9.329687900066195E-3    4.368132737255219E-2   -9.964934147577077E-3    1.409484541400431E-1    5.096041048809762E-1
 6.565430116500000E9     2.615413021664629E-2    5.673997323836779E-1    4.462619164742149E-2   -9.510555801216033E-3    4.394573380726160E-2   -1.004684464728820E-2    1.425690790463930E-1    5.091999185239098E-1
 6.565442594000000E9     2.732593409511897E-2    5.673545486117751E-1    4.507517513285159E-2   -9.759576715929471E-3    4.425082129104466E-2   -1.025374743164382E-2    1.440232145616441E-1    5.087393029561273E-1
 6.565455071500000E9     2.830456419492210E-2    5.671978513404387E-1    4.532247382861240E-2   -9.875132731885429E-3    4.451692412871007E-2   -1.043176183869590E-2    1.454370497527410E-1    5.083467598517334E-1
 6.565467549000000E9     2.954264898963876E-2    5.671339716639023E-1    4.562262007434918E-2   -1.016144959724942E-2    4.489774161460180E-2   -1.080659042459987E-2    1.467615483608085E-1    5.078178243012457E-1
 6.565480026500000E9     3.070595912489015E-2    5.670935809850189E-1    4.594513120922065E-2   -1.036867008546569E-2    4.511275104019148E-2   -1.090464927357423E-2    1.481102803417286E-1    5.074875165008508E-1
 6.565492504000000E9     3.173759453687093E-2    5.669156005259465E-1    4.628784319798538E-2   -1.064216190922329E-2    4.554004878819112E-2   -1.116906340733609E-2    1.497247222448323E-1    5.069855849015618E-1
 6.565504981500000E9     3.292292368032684E-2    5.669018099953835E-1    4.653358792135612E-2   -1.081938730614418E-2    4.570745271120416E-2   -1.139991553662333E-2    1.510746889341892E-1    5.065339318732929E-1
 6.565517459000000E9     3.380497194202464E-2    5.666777123611259E-1    4.689491582278957E-2   -1.095803454673352E-2    4.606482831884407E-2   -1.159918106090251E-2    1.526144779550836E-1    5.058185599997280E-1
 6.565529936500000E9     3.512167423361130E-2    5.665908483557103E-1    4.710670153888003E-2   -1.126058303614131E-2    4.644373302576413E-2   -1.183008204037897E-2    1.540310323894263E-1    5.054401146614210E-1
 6.565542414000000E9     3.617758053606422E-2    5.663918915746655E-1    4.756435346919359E-2   -1.146997760101562E-2    4.680992748907417E-2   -1.191354710187922E-2    1.554781521551327E-1    5.049775123065734E-1
 6.565554891500000E9     3.731016486054640E-2    5.662859026900690E-1    4.798713055447165E-2   -1.168844709060857E-2    4.703016844262783E-2   -1.225851876019657E-2    1.569631818744738E-1    5.044803409157184E-1
 6.565567369000000E9     3.821931356366219E-2    5.662233147635708E-1    4.833577615546136E-2   -1.186243493427784E-2    4.747441087798161E-2   -1.253402880726462E-2    1.584774386755388E-1    5.039774273312984E-1
 6.565579846500000E9     3.950351366233601E-2    5.661233964382988E-1    4.871569910049273E-2   -1.209394812604155E-2    4.785280641078422E-2   -1.283096657606511E-2    1.600008132339066E-1    5.034528867015917E-1
 6.565592324000000E9     4.071581065616767E-2    5.659145072407240E-1    4.889541169583001E-2   -1.240030030546761E-2    4.817529074476323E-2   -1.293446318715982E-2    1.613573154781101E-1    5.029073404620688E-1
 6.565604801500000E9     4.175506388901831E-2    5.657509764771309E-1    4.942608714477389E-2   -1.255443443322545E-2    4.848856867189478E-2   -1.327292166846507E-2    1.630629383917795E-1    5.024388866317553E-1
 6.565617279000000E9     4.286395344359101E-2    5.656176029408259E-1    4.969690772707216E-2   -1.297986199236820E-2    4.883918219778361E-2   -1.356819351179995E-2    1.644968266745964E-1    5.015995569969208E-1
 6.565629756500000E9     4.408832111501688E-2    5.655888824325416E-1    5.011040562783991E-2   -1.320017049866934E-2    4.924364860569551E-2   -1.372696895244671E-2    1.661128533378129E-1    5.011340590114268E-1
 6.565642234000000E9     4.511268132445021E-2    5.654260714281811E-1    5.045693317399631E-2   -1.338570050787313E-2    4.962211549484408E-2   -1.404501846469027E-2    1.677295158477045E-1    5.006142699765499E-1
 6.565654711500000E9     4.639038194623352E-2    5.651834303214892E-1    5.082833743859119E-2   -1.361396983509697E-2    4.996706288434706E-2   -1.431556682048119E-2    1.692186879691626E-1    5.000211207226605E-1
 6.565667189000000E9     4.742697649209270E-2    5.649768401803923E-1    5.115153106758118E-2   -1.395787324403169E-2    5.041148956195152E-2   -1.463231435665754E-2    1.706865976006920E-1    4.993380819593624E-1
 6.565679666500000E9     4.864208206497780E-2    5.649013877439306E-1    5.161012030673791E-2   -1.410159271781437E-2    5.071747787866997E-2   -1.489978981134044E-2    1.724478660843561E-1    4.985730306273065E-1
 6.565692144000000E9     4.989728616401636E-2    5.647412345719891E-1    5.195042293454408E-2   -1.449639811896081E-2    5.119160334971640E-2   -1.518508992698376E-2    1.738772989520406E-1    4.981754606956556E-1
 6.565704621500000E9     5.097456769978386E-2    5.645405908472327E-1    5.239921788112074E-2   -1.487385646737906E-2    5.154621642503253E-2   -1.563370020096117E-2    1.755868564704063E-1    4.975594978838377E-1
 6.565717099000000E9     5.209632810674408E-2    5.643739504511408E-1    5.279281258680153E-2   -1.523532805938831E-2    5.194446715573341E-2   -1.577613831632338E-2    1.771406172145095E-1    4.967465489015663E-1
