#  HZ   S   RI   R     50.00 
! Rohde & Schwarz Vector Network Analyzer 
! Rohde-Schwarz,ZNB20-2Port,1311601062101988,3.16
! Created: UTC 3/20/2024, 5:07:43 PM
! freq[Hz]                re:S11                  im:S11                  re:S21                  im:S21                  re:S12                  im:S12                  re:S22                  im:S22
 6.564334217000000E9    -6.456263158220908E-2    5.653893172178870E-1    2.792262625476060E-2   -6.075533510511012E-5    2.738498130086576E-2   -7.563059487985937E-4    3.490914907747561E-2    5.241759671473403E-1
 6.564347880275000E9    -6.354628647939969E-2    5.654422761374610E-1    2.807908179141337E-2   -3.137821652501887E-4    2.752323395440028E-2   -8.276414233315034E-4    3.610929615070158E-2    5.241676273880121E-1
 6.564361543550000E9    -6.248650495217508E-2    5.655963655051924E-1    2.811437921459826E-2   -3.921157033873295E-4    2.763578653999644E-2   -8.225490036153288E-4    3.728385662725561E-2    5.241456948141476E-1
 6.564375206825000E9    -6.125702410242922E-2    5.657058982809227E-1    2.821301926120199E-2   -4.156295301278115E-4    2.783371187454560E-2   -9.638509686449280E-4    3.848815382941736E-2    5.240184090737693E-1
 6.564388870100000E9    -6.021559502250756E-2    5.657641933670136E-1    2.846625667268303E-2   -3.842991027933011E-4    2.786390050779450E-2   -9.548932937309168E-4    3.951881783082702E-2    5.239793504152389E-1
 6.564402533375000E9    -5.908109995145783E-2    5.658960969552920E-1    2.856766205380937E-2   -6.172635349927402E-4    2.799994803172024E-2   -1.167135279246826E-3    4.080690310640234E-2    5.239331239026430E-1
 6.564416196650000E9    -5.815442289751789E-2    5.660802663608790E-1    2.862835971622107E-2   -6.599948238732171E-4    2.807548219901650E-2   -1.169619134842407E-3    4.201939339503634E-2    5.238778853005864E-1
 6.564429859925000E9    -5.700095412313025E-2    5.661475635785027E-1    2.878333544158917E-2   -8.354654076335783E-4    2.834309267767585E-2   -1.175478153456765E-3    4.324251172622987E-2    5.236716885753118E-1
 6.564443523200000E9    -5.596961694060532E-2    5.662358062774127E-1    2.891217215889676E-2   -8.941849502742834E-4    2.845160423472237E-2   -1.408579099666709E-3    4.442286643331102E-2    5.235708005577164E-1
 6.564457186475000E9    -5.491586949824408E-2    5.663166222273276E-1    2.907138617387876E-2   -8.229610289082384E-4    2.860685226465186E-2   -1.387241031140315E-3    4.568005169398950E-2    5.235532815792525E-1
 6.564470849750000E9    -5.378615434536246E-2    5.664810464378697E-1    2.926366980834097E-2   -1.003174904311237E-3    2.873120123453176E-2   -1.400050657365070E-3    4.694413631338391E-2    5.234966081191168E-1
 6.564484513025000E9    -5.277968869784017E-2    5.664643531306174E-1    2.943649240611161E-2   -9.420383766129143E-4    2.900202450584410E-2   -1.582476657723727E-3    4.799463246313888E-2    5.233992430276495E-1
 6.564498176300000E9    -5.156732255948522E-2    5.666446959595661E-1    2.960546666057346E-2   -1.058380217422444E-3    2.905516607505670E-2   -1.546900886616555E-3    4.932254948150197E-2    5.233128805784705E-1
 6.564511839575000E9    -5.048652078293945E-2    5.667606664272824E-1    2.977087899087719E-2   -1.193461515600086E-3    2.928669466518804E-2   -1.694271600206497E-3    5.044796226459258E-2    5.231017570866313E-1
 6.564525502850000E9    -4.944679514279536E-2    5.667494623171019E-1    2.985209841206958E-2   -1.219162077535607E-3    2.942415136979600E-2   -1.727181198812628E-3    5.164823149815492E-2    5.231180644802312E-1
 6.564539166125000E9    -4.827229477183352E-2    5.668529805855724E-1    3.008982232323288E-2   -1.321614311114509E-3    2.951660044083189E-2   -1.782135339560243E-3    5.302226945806315E-2    5.230095114166523E-1
 6.564552829400000E9    -4.723797747381295E-2    5.669992161847480E-1    3.020366263783704E-2   -1.462892408293158E-3    2.968316429797895E-2   -1.929536550390949E-3    5.427424712335434E-2    5.227496892744873E-1
 6.564566492675000E9    -4.614545348263418E-2    5.669600298549372E-1    3.026500354102430E-2   -1.475073973643971E-3    2.985166888568552E-2   -2.048683719781800E-3    5.535566949544288E-2    5.226849192599358E-1
 6.564580155950000E9    -4.501596677161333E-2    5.670239564097909E-1    3.043535568120374E-2   -1.609804811108576E-3    3.007939643171280E-2   -2.128629046469063E-3    5.658585705489289E-2    5.224660224200499E-1
 6.564593819225000E9    -4.389570975530886E-2    5.672089470412971E-1    3.072117870949484E-2   -1.664938887898261E-3    3.022356594128031E-2   -2.041220115717534E-3    5.797220281863973E-2    5.224562042489750E-1
 6.564607482500000E9    -4.284952456354815E-2    5.672811383088747E-1    3.080119389855387E-2   -1.781439686363467E-3    3.027214616052688E-2   -2.351718758332321E-3    5.900567292717984E-2    5.223028901306073E-1
 6.564621145775000E9    -4.172908513117702E-2    5.672367653530895E-1    3.096921625163513E-2   -1.863710759780588E-3    3.043809246565351E-2   -2.345187313298926E-3    6.022622559134254E-2    5.221332364741486E-1
 6.564634809050000E9    -4.069525291102009E-2    5.673394848381133E-1    3.121483567191760E-2   -1.910836296083275E-3    3.069921893332735E-2   -2.487632369008358E-3    6.154080685846339E-2    5.220301870073139E-1
 6.564648472325000E9    -3.952698544247517E-2    5.674553288474132E-1    3.136048283389810E-2   -2.057270375687199E-3    3.083766645917763E-2   -2.469769616099548E-3    6.286563157724566E-2    5.219929268522935E-1
 6.564662135600000E9    -3.840809829241214E-2    5.676581254199395E-1    3.151716437314123E-2   -2.107723120215483E-3    3.102607475920985E-2   -2.657859640200792E-3    6.392044181624416E-2    5.219487753848664E-1
 6.564675798875000E9    -3.742067204203180E-2    5.675368506339032E-1    3.162313106478767E-2   -2.217760096045487E-3    3.114864604507590E-2   -2.687674806309913E-3    6.521394945736171E-2    5.216388736371106E-1
 6.564689462150000E9    -3.617752856760010E-2    5.676227461943775E-1    3.177901374324489E-2   -2.222187659849676E-3    3.127905014045979E-2   -2.801793466197818E-3    6.636136523626418E-2    5.213971716503467E-1
 6.564703125425000E9    -3.520979931416898E-2    5.677349895119251E-1    3.207734792255857E-2   -2.334005293644853E-3    3.148720639717607E-2   -2.865734518440823E-3    6.764652439709624E-2    5.213250870049437E-1
 6.564716788700000E9    -3.400979339572362E-2    5.678240626985601E-1    3.219043138208341E-2   -2.484748016369438E-3    3.167428993412637E-2   -2.950018110888191E-3    6.902449064118145E-2    5.211539427235053E-1
 6.564730451975000E9    -3.294353481680345E-2    5.677731822774071E-1    3.234016211909824E-2   -2.519785639971842E-3    3.189560210841014E-2   -3.106533663087198E-3    7.018920836190895E-2    5.209440012434711E-1
 6.564744115250000E9    -3.184196435739355E-2    5.679127394621103E-1    3.251645978820070E-2   -2.685000123681681E-3    3.210786018551957E-2   -3.174791426359088E-3    7.162587668408123E-2    5.207977568844714E-1
 6.564757778525000E9    -3.073565632124321E-2    5.679300028366282E-1    3.279350458725477E-2   -2.753503059076141E-3    3.219736147482052E-2   -3.316271570307026E-3    7.275702521906600E-2    5.206928358427843E-1
 6.564771441800000E9    -2.954496286337263E-2    5.679619994394279E-1    3.304556978964533E-2   -2.990759810163310E-3    3.242598038412790E-2   -3.314192555629794E-3    7.407536492774351E-2    5.205398653027645E-1
 6.564785105075000E9    -2.844057876046837E-2    5.678645564137776E-1    3.302151591445332E-2   -2.921149874434553E-3    3.250598191930849E-2   -3.493247292761667E-3    7.537375715628027E-2    5.203196586026660E-1
 6.564798768350000E9    -2.733251425830069E-2    5.679947504499311E-1    3.336490009264560E-2   -3.024050147486074E-3    3.274107167418372E-2   -3.480496900857822E-3    7.667330660713635E-2    5.200704022655016E-1
 6.564812431625000E9    -2.621559904002976E-2    5.681409055680340E-1    3.361204178328456E-2   -3.190934906298409E-3    3.290885612011585E-2   -3.747263951980548E-3    7.793725842719487E-2    5.200449710363150E-1
 6.564826094900000E9    -2.499355995951131E-2    5.680611623875522E-1    3.376841880833627E-2   -3.311521453948345E-3    3.320290979966763E-2   -3.881159050347211E-3    7.918722338001917E-2    5.198134700665800E-1
 6.564839758175000E9    -2.402842017599069E-2    5.682143077652573E-1    3.389409165904831E-2   -3.335936435346281E-3    3.321396191926632E-2   -3.873863629140879E-3    8.050783108446787E-2    5.196469399355303E-1
 6.564853421450000E9    -2.287342626291632E-2    5.681945227651239E-1    3.404283606147363E-2   -3.572880524613770E-3    3.352984691163857E-2   -4.026119359917861E-3    8.197465520760415E-2    5.194987138738210E-1
 6.564867084725000E9    -2.179446350989838E-2    5.683340177494602E-1    3.423666352688386E-2   -3.538770713840091E-3    3.374787364682982E-2   -4.095675481179274E-3    8.309651443496460E-2    5.190448859342079E-1
 6.564880748000000E9    -2.070629175729595E-2    5.682338179033948E-1    3.442756005055868E-2   -3.708027652096223E-3    3.388367846332383E-2   -4.329332227442575E-3    8.443198082801834E-2    5.188647628803047E-1
 6.564894411275000E9    -1.944095717354039E-2    5.682879718435782E-1    3.479519316835418E-2   -3.725527315257200E-3    3.402950370738173E-2   -4.297772471538548E-3    8.568964301082689E-2    5.187164108237944E-1
 6.564908074550000E9    -1.847858097886760E-2    5.682447471112029E-1    3.481870385918388E-2   -3.828904144669536E-3    3.426752664811337E-2   -4.473442758409698E-3    8.707280284149936E-2    5.187180603585152E-1
 6.564921737825000E9    -1.729697211043283E-2    5.681610382554444E-1    3.514931607407124E-2   -4.095864849177373E-3    3.444705395801304E-2   -4.546642948005593E-3    8.836890656024825E-2    5.182121350421923E-1
 6.564935401100000E9    -1.611417610620538E-2    5.684156855483080E-1    3.531029905305183E-2   -4.160389990188819E-3    3.464393154556437E-2   -4.697709332042790E-3    8.965902013632820E-2    5.179879718702483E-1
 6.564949064375000E9    -1.501670366615204E-2    5.680999011833638E-1    3.551209587408833E-2   -4.301751161474744E-3    3.492588904256282E-2   -4.680163218230890E-3    9.098719548601451E-2    5.177407654775993E-1
 6.564962727650000E9    -1.382850450163113E-2    5.682818964409387E-1    3.582381480529970E-2   -4.453216303808160E-3    3.507204493861286E-2   -4.894993708487708E-3    9.222777578102441E-2    5.176643335933077E-1
 6.564976390925000E9    -1.265777940820579E-2    5.683697831448974E-1    3.601451577971521E-2   -4.471804379167393E-3    3.541495856788757E-2   -5.174860354563637E-3    9.361456756248626E-2    5.174222703823029E-1
 6.564990054200000E9    -1.141425752318707E-2    5.683839505590321E-1    3.606962088162508E-2   -4.688670690297637E-3    3.559835092020117E-2   -5.149170598198299E-3    9.496691515872760E-2    5.171756620927461E-1
 6.565003717475000E9    -1.057023502900336E-2    5.682541980457905E-1    3.638723215602410E-2   -4.836743055897865E-3    3.565417840457534E-2   -5.327808551087532E-3    9.623926343519953E-2    5.167592579273472E-1
 6.565017380750000E9    -9.317534892017388E-3    5.684463302292427E-1    3.671910411138594E-2   -4.923900055994646E-3    3.588327004885617E-2   -5.486861326848272E-3    9.774993263072193E-2    5.165526793282191E-1
 6.565031044025000E9    -8.154726481720612E-3    5.682880045440627E-1    3.677254942002894E-2   -5.207236195745920E-3    3.630351993039202E-2   -5.506079902081940E-3    9.891155757061226E-2    5.162866193621057E-1
 6.565044707300000E9    -7.130889929267627E-3    5.683009399973353E-1    3.693400752806051E-2   -5.227451025092972E-3    3.644204020601701E-2   -5.761480890944570E-3    1.002988890611362E-1    5.160657687223732E-1
 6.565058370575000E9    -6.030972187536807E-3    5.683628593207829E-1    3.743686978306728E-2   -5.300053675140755E-3    3.665879539007939E-2   -5.869963153230338E-3    1.016201564069138E-1    5.156377623145925E-1
 6.565072033850000E9    -4.741819704561453E-3    5.682888469866558E-1    3.759208240652041E-2   -5.547123841115646E-3    3.688592983678738E-2   -6.003958134108701E-3    1.030374542929734E-1    5.155437164474557E-1
 6.565085697125000E9    -3.639997001066648E-3    5.682285627150712E-1    3.788082549264820E-2   -5.624190557648628E-3    3.704982864936895E-2   -6.070215996882096E-3    1.045649029829371E-1    5.151414598922535E-1
 6.565099360400000E9    -2.494492343036089E-3    5.681916405050758E-1    3.802060556604146E-2   -5.676321972518474E-3    3.746735967137145E-2   -6.321419690270059E-3    1.058430527861582E-1    5.147880532767245E-1
 6.565113023675000E9    -1.360687661314940E-3    5.681958144700183E-1    3.815951203378845E-2   -5.886219334287772E-3    3.769833885015304E-2   -6.402810563517431E-3    1.072066212140106E-1    5.145354613793656E-1
 6.565126686950000E9    -2.154682118238271E-4    5.681792779301011E-1    3.847993954746128E-2   -6.057391314258037E-3    3.794795063048435E-2   -6.597633082285931E-3    1.086197704107402E-1    5.143015749311101E-1
 6.565140350225000E9     9.198146644894198E-4    5.682243124772327E-1    3.879536546901765E-2   -6.093510631758762E-3    3.813966667389286E-2   -6.680352096536600E-3    1.099840599082953E-1    5.140436977227208E-1
 6.565154013500000E9     2.137780575190022E-3    5.680380408159451E-1    3.889338059646864E-2   -6.394590206651120E-3    3.838925592096519E-2   -6.910323445968980E-3    1.113537474416306E-1    5.136659380813585E-1
 6.565167676775000E9     3.274651878721402E-3    5.680805470719148E-1    3.924757741362125E-2   -6.453618567028452E-3    3.861611956959450E-2   -7.068760372112037E-3    1.127077905092180E-1    5.133280997491191E-1
 6.565181340050000E9     4.541960686966870E-3    5.681105184938651E-1    3.954231120848162E-2   -6.729379498290336E-3    3.893366615516433E-2   -7.150058647073519E-3    1.140887157313600E-1    5.130539350736125E-1
 6.565195003325000E9     5.652851938165356E-3    5.680260237159828E-1    3.976484776978862E-2   -6.787123539576688E-3    3.906636557750345E-2   -7.496813116363254E-3    1.155211612518462E-1    5.125563009546862E-1
 6.565208666600000E9     6.781118117420627E-3    5.678408555397879E-1    3.998207648320679E-2   -7.087883637582418E-3    3.931804178391766E-2   -7.553042691087405E-3    1.170099263597364E-1    5.122779576219983E-1
 6.565222329875000E9     7.966680879677340E-3    5.679847745467235E-1    4.034237172693637E-2   -7.023141532468625E-3    3.972365423362451E-2   -7.683428248189326E-3    1.184008883150222E-1    5.119074222229587E-1
 6.565235993150000E9     9.126571455228433E-3    5.678923378450075E-1    4.070798073193766E-2   -7.360857769415446E-3    3.991275488796472E-2   -8.030353528611684E-3    1.198475617718026E-1    5.116606304631873E-1
 6.565249656425000E9     1.027198469732850E-2    5.678359710758837E-1    4.101340661867982E-2   -7.395762372182701E-3    4.023115539831820E-2   -8.087779247341973E-3    1.213680405836559E-1    5.112184409835535E-1
 6.565263319700000E9     1.135236034560413E-2    5.677545874713228E-1    4.121803934553728E-2   -7.818532085045030E-3    4.041362718687852E-2   -8.271985081797564E-3    1.227964407359322E-1    5.108678304961486E-1
 6.565276982975000E9     1.255626261702486E-2    5.676445681405905E-1    4.144369879606039E-2   -7.865412619994286E-3    4.072877827920544E-2   -8.414704694036457E-3    1.242233191130072E-1    5.105040308003489E-1
 6.565290646250000E9     1.385011481576673E-2    5.675499191926210E-1    4.173428248275225E-2   -7.889368123386673E-3    4.098112325209380E-2   -8.637067937177641E-3    1.256595502705103E-1    5.100660488236413E-1
 6.565304309525000E9     1.498416939085542E-2    5.673702297659873E-1    4.202615906518443E-2   -8.176860274692209E-3    4.133133792679359E-2   -8.852196954410564E-3    1.270810675577229E-1    5.095761388472104E-1
 6.565317972800000E9     1.620553723679925E-2    5.673582977016450E-1    4.237822554678885E-2   -8.420848232719004E-3    4.164952353609829E-2   -8.978622984261456E-3    1.286529382144512E-1    5.092756210384871E-1
 6.565331636075000E9     1.733591652530578E-2    5.673455089373053E-1    4.267230878636242E-2   -8.556960490762823E-3    4.187231036606810E-2   -9.160496054931626E-3    1.300347632684758E-1    5.088706189289544E-1
 6.565345299350000E9     1.851780025749311E-2    5.672954362597469E-1    4.294215768487864E-2   -8.884076960167670E-3    4.220615058138193E-2   -9.466121852827008E-3    1.314700182200500E-1    5.083744644632577E-1
 6.565358962625000E9     1.969487799554024E-2    5.672639325649667E-1    4.317944662503743E-2   -9.021571221544442E-3    4.245742984500223E-2   -9.601146952495193E-3    1.330896910506270E-1    5.079937383190165E-1
 6.565372625900000E9     2.090262060302566E-2    5.671436629915545E-1    4.354213583534511E-2   -9.252107504025837E-3    4.283281619433244E-2   -9.838406302965818E-3    1.346475288309630E-1    5.074851397768045E-1
 6.565386289175000E9     2.216754933983758E-2    5.669496886460650E-1    4.384641515161807E-2   -9.377636084148450E-3    4.309820559896910E-2   -9.893194945818770E-3    1.360572152789920E-1    5.071719187195312E-1
 6.565399952450000E9     2.335018537619879E-2    5.669315828121022E-1    4.418427456419870E-2   -9.569433890627451E-3    4.344790720819822E-2   -1.031239486903062E-2    1.375813018986600E-1    5.065981917417827E-1
 6.565413615725000E9     2.451004212475665E-2    5.668159867635917E-1    4.446249629252009E-2   -9.930443139534898E-3    4.379048644796234E-2   -1.048257940412353E-2    1.392174029876690E-1    5.061756000104146E-1
 6.565427279000000E9     2.564822207969725E-2    5.667744084862290E-1    4.486453071240239E-2   -1.005510739793841E-2    4.408873853697107E-2   -1.072668891671066E-2    1.406172440653382E-1    5.056602936330324E-1
 6.565440942275000E9     2.690730851059697E-2    5.665798629580204E-1    4.517843630225615E-2   -1.031337423787559E-2    4.445661618550917E-2   -1.077919170035408E-2    1.421275901972213E-1    5.052798601133142E-1
 6.565454605550000E9     2.815740844567555E-2    5.665282525109309E-1    4.562585289869455E-2   -1.060422870230658E-2    4.474334151267591E-2   -1.115710268426473E-2    1.437150680195878E-1    5.047610527135609E-1
 6.565468268825000E9     2.930016224954284E-2    5.664301342464979E-1    4.585991169953123E-2   -1.077167922691054E-2    4.500285830710570E-2   -1.139432290741084E-2    1.452296327227836E-1    5.042154032103742E-1
 6.565481932100000E9     3.046238598523428E-2    5.662149697817226E-1    4.621492408535881E-2   -1.103638011400298E-2    4.541616298376763E-2   -1.155606345517534E-2    1.468350761412212E-1    5.036263908480939E-1
 6.565495595375000E9     3.164285502510564E-2    5.661847309353198E-1    4.656043787904465E-2   -1.118294805947860E-2    4.575484827077818E-2   -1.184311844470827E-2    1.484179085525767E-1    5.031135065987982E-1
 6.565509258650000E9     3.298347184310021E-2    5.659851823137266E-1    4.689963000985976E-2   -1.147689852092600E-2    4.613085915275321E-2   -1.207317498249316E-2    1.498800962731942E-1    5.026414441547032E-1
 6.565522921925000E9     3.420497364756864E-2    5.658924883774445E-1    4.728646301197697E-2   -1.183788077662834E-2    4.646112097718546E-2   -1.237645713313624E-2    1.516562101488083E-1    5.020211448033290E-1
 6.565536585200000E9     3.533195014383868E-2    5.657526286300002E-1    4.770867934143456E-2   -1.203612308151786E-2    4.681419510216160E-2   -1.266123512931203E-2    1.532867631110649E-1    5.015506059914507E-1
 6.565550248475000E9     3.665419569974611E-2    5.655017557051656E-1    4.807928724760020E-2   -1.220214301302953E-2    4.718438827945313E-2   -1.288386792584708E-2    1.547603685285104E-1    5.009134246239739E-1
 6.565563911750000E9     3.777076483905378E-2    5.653767278250692E-1    4.845390859124347E-2   -1.254448589550109E-2    4.750960621684135E-2   -1.319619922381833E-2    1.564130460879934E-1    5.003288556857938E-1
