#  HZ   S   RI   R     50.00 
! Rohde & Schwarz Vector Network Analyzer 
! Rohde-Schwarz,ZNB20-2Port,1311601062101988,3.16
! Created: UTC 3/20/2024, 4:48:53 PM
! freq[Hz]                re:S11                  im:S11                  re:S21                  im:S21                  re:S12                  im:S12                  re:S22                  im:S22
 6.564863743000000E9    -2.181875369225352E-2    5.690266470142866E-1    3.335632479972601E-2   -2.862579978603668E-3    3.284812005877939E-2   -3.342062450197291E-3    8.385488856597738E-2    5.235247405945525E-1
 6.564875126375000E9    -2.089448310067266E-2    5.690033498208633E-1    3.361374321426212E-2   -2.947854970262489E-3    3.308335627523954E-2   -3.542507350901071E-3    8.485542318627479E-2    5.233869267144982E-1
 6.564886509750000E9    -1.998108369976818E-2    5.692108229668006E-1    3.373674217580340E-2   -2.950922397025107E-3    3.319132471894982E-2   -3.479873750252220E-3    8.598445425471363E-2    5.232825814902156E-1
 6.564897893125000E9    -1.902249175231831E-2    5.691168465786807E-1    3.399027064736419E-2   -3.097113371355529E-3    3.331631531508922E-2   -3.679260447147166E-3    8.713082140320008E-2    5.230227393851781E-1
 6.564909276500000E9    -1.813657468882471E-2    5.691989996454125E-1    3.414211556089525E-2   -3.169910125787602E-3    3.350855320084374E-2   -3.736696563857161E-3    8.813903937876992E-2    5.228482359995252E-1
 6.564920659875000E9    -1.715455334149713E-2    5.691866680959784E-1    3.434017686908351E-2   -3.385040151791686E-3    3.357799166268033E-2   -3.808386259403991E-3    8.936681982223217E-2    5.226433704336619E-1
 6.564932043250000E9    -1.626668212299245E-2    5.692319320002854E-1    3.429886521106078E-2   -3.483107913225710E-3    3.390477073485162E-2   -3.880904257404461E-3    9.042934231933958E-2    5.225349521133634E-1
 6.564943426625000E9    -1.537031274400504E-2    5.691849042333049E-1    3.466674179670384E-2   -3.469898538919515E-3    3.405212900199008E-2   -3.977186035542459E-3    9.146473086503788E-2    5.221691369364792E-1
 6.564954810000000E9    -1.436244166319126E-2    5.692367360887778E-1    3.481168856180190E-2   -3.490854382272106E-3    3.421257778821054E-2   -4.067255747168979E-3    9.262985721465625E-2    5.220998662153545E-1
 6.564966193375000E9    -1.327575815663144E-2    5.692828385735189E-1    3.498465445453348E-2   -3.570860406274167E-3    3.429485265718926E-2   -4.221318002320357E-3    9.381488922170922E-2    5.218627023648279E-1
 6.564977576750000E9    -1.244959592745933E-2    5.693357249435472E-1    3.509804083449425E-2   -3.708563330682097E-3    3.454482407781596E-2   -4.158404138748694E-3    9.473957603511586E-2    5.217016032254380E-1
 6.564988960125000E9    -1.145511362148617E-2    5.691847614465908E-1    3.520914299007482E-2   -3.946098003505127E-3    3.472266448281308E-2   -4.320604752036757E-3    9.586023519431852E-2    5.215821222737798E-1
 6.565000343500000E9    -1.051814480426483E-2    5.693198272297973E-1    3.553679416910141E-2   -4.033051524620440E-3    3.487058160171969E-2   -4.484714422715039E-3    9.711876514999454E-2    5.213819023037074E-1
 6.565011726875000E9    -9.622928309893036E-3    5.691634398973016E-1    3.553252950968971E-2   -4.099608692461254E-3    3.512569753857658E-2   -4.522561010333895E-3    9.808374643637484E-2    5.211778437070450E-1
 6.565023110250000E9    -8.642375532060615E-3    5.691999113441877E-1    3.589883533942950E-2   -4.165472289130123E-3    3.525104407944601E-2   -4.699099744426358E-3    9.930477511608386E-2    5.209719529063823E-1
 6.565034493625000E9    -7.657586970029457E-3    5.692079932057079E-1    3.601951091794203E-2   -4.246961987971611E-3    3.538186000120969E-2   -4.718274735286506E-3    1.003134585915822E-1    5.207596560270992E-1
 6.565045877000000E9    -6.695383706516381E-3    5.693021728687515E-1    3.609482018698715E-2   -4.341955759404183E-3    3.569938652300265E-2   -4.904033938025947E-3    1.014004868842688E-1    5.206528915001812E-1
 6.565057260375000E9    -5.818988000590213E-3    5.692115696993839E-1    3.642502456616516E-2   -4.451101585179146E-3    3.575619688401590E-2   -4.962625498727708E-3    1.027503772925715E-1    5.202927328620307E-1
 6.565068643750000E9    -4.945576348073499E-3    5.692630592179769E-1    3.656258904029915E-2   -4.614555447335206E-3    3.588854752037357E-2   -5.068776315548275E-3    1.036752902626501E-1    5.200343378578859E-1
 6.565080027125000E9    -4.041949453542693E-3    5.692638128418441E-1    3.674617857186016E-2   -4.725646134126742E-3    3.611413159346186E-2   -5.203572810447819E-3    1.048475528176027E-1    5.199676893089933E-1
 6.565091410500000E9    -2.928318790393247E-3    5.692601950764987E-1    3.702479133379567E-2   -4.699237596800253E-3    3.627829581825492E-2   -5.275601954146090E-3    1.060123912972960E-1    5.195949600171232E-1
 6.565102793875000E9    -2.071832528577378E-3    5.692119776436672E-1    3.709351977694606E-2   -4.847937212339622E-3    3.653139065003626E-2   -5.300269868894252E-3    1.071028382700560E-1    5.194083175526482E-1
 6.565114177250000E9    -1.050468699027826E-3    5.693284375610581E-1    3.707352630083901E-2   -4.836866003161131E-3    3.681096076025779E-2   -5.476373755741793E-3    1.082064927620210E-1    5.191857953624718E-1
 6.565125560625000E9    -1.492819291453743E-4    5.691822673427169E-1    3.739396688278310E-2   -4.959035425944118E-3    3.683659482689305E-2   -5.602620516101990E-3    1.095323630541690E-1    5.189316336319139E-1
 6.565136944000000E9     8.400491787186017E-4    5.691860407045837E-1    3.773331182786866E-2   -5.091537596710370E-3    3.711348765288321E-2   -5.733029489597108E-3    1.105904817830375E-1    5.187154700581010E-1
 6.565148327375000E9     1.731170315310434E-3    5.691483645862070E-1    3.797780141721464E-2   -5.247490002964704E-3    3.735280516671072E-2   -5.759405933322304E-3    1.115725472644792E-1    5.184654113465148E-1
 6.565159710750000E9     2.676511054368653E-3    5.692226094162461E-1    3.818568944985554E-2   -5.290373202435037E-3    3.750022147314880E-2   -5.899346217120007E-3    1.128407479629494E-1    5.182109568901976E-1
 6.565171094125000E9     3.699319781853912E-3    5.691581095770168E-1    3.834401131295646E-2   -5.451489675403422E-3    3.770701996084918E-2   -6.016977505318806E-3    1.140151210584823E-1    5.179757536510414E-1
 6.565182477500000E9     4.659362127306757E-3    5.691617780019106E-1    3.854814865030448E-2   -5.557115154335711E-3    3.789157412796767E-2   -6.234422447181330E-3    1.152379757014506E-1    5.178394721324208E-1
 6.565193860875000E9     5.655358953035851E-3    5.689996933088939E-1    3.882125734917870E-2   -5.624602169665402E-3    3.808956871396895E-2   -6.244608491485261E-3    1.164489865364906E-1    5.173559769283315E-1
 6.565205244250000E9     6.644511573580115E-3    5.690571567910298E-1    3.883916666782422E-2   -5.801555519023702E-3    3.831073563284612E-2   -6.360767878148908E-3    1.174587617699481E-1    5.170894828657741E-1
 6.565216627625000E9     7.489324998237994E-3    5.689342087999602E-1    3.918240645636550E-2   -5.871231099997033E-3    3.855454742401067E-2   -6.535077043307188E-3    1.186609933573340E-1    5.169258296426660E-1
 6.565228011000000E9     8.505892578863895E-3    5.689255741619099E-1    3.947291405840406E-2   -6.173800237160670E-3    3.876916592194356E-2   -6.616064918885238E-3    1.197894450349212E-1    5.166718636697963E-1
 6.565239394375000E9     9.406464144337866E-3    5.689176917279063E-1    3.970291817993784E-2   -6.293029412528499E-3    3.885685755643635E-2   -6.778735945180478E-3    1.210934697819458E-1    5.164207428231872E-1
 6.565250777750000E9     1.040883420257375E-2    5.688815715865254E-1    3.985095819912202E-2   -6.427860087977725E-3    3.920073804460902E-2   -6.901320707444501E-3    1.222066592075286E-1    5.160560468605561E-1
 6.565262161125000E9     1.132081359651129E-2    5.687925342929888E-1    4.004794478235114E-2   -6.560144236921977E-3    3.935106790826381E-2   -6.999016124387116E-3    1.234200635651598E-1    5.157183596323746E-1
 6.565273544500000E9     1.234173533398531E-2    5.688245219776750E-1    4.028578262755931E-2   -6.682146363363613E-3    3.953744627194203E-2   -7.150838339732842E-3    1.245121743071329E-1    5.155455253786854E-1
 6.565284927875000E9     1.334164789641217E-2    5.687940262314684E-1    4.050040518107938E-2   -6.654452034033945E-3    3.979285921509584E-2   -7.367831987244653E-3    1.256697488591968E-1    5.152770882496220E-1
 6.565296311250000E9     1.429496998362687E-2    5.687688383575225E-1    4.071647158699021E-2   -7.024944677936061E-3    4.011081289503294E-2   -7.424918011088233E-3    1.270734378304683E-1    5.149548084601757E-1
 6.565307694625000E9     1.532842131380300E-2    5.687020772852418E-1    4.091781151420186E-2   -6.978204674731711E-3    4.023857970189978E-2   -7.525800202081242E-3    1.282461105302622E-1    5.147182680124580E-1
 6.565319078000000E9     1.627433666576287E-2    5.686444409266671E-1    4.132829295695091E-2   -7.224312535312652E-3    4.053734048208500E-2   -7.678118744026692E-3    1.295039457331156E-1    5.142625353482484E-1
 6.565330461375000E9     1.712495579576968E-2    5.686076227960217E-1    4.145537116437489E-2   -7.297362708615816E-3    4.067728416302490E-2   -7.844233568865409E-3    1.306916538827374E-1    5.139548975897470E-1
 6.565341844750000E9     1.819641510924445E-2    5.684141173148486E-1    4.161561692208782E-2   -7.364925315412207E-3    4.106187404453639E-2   -7.962152732245055E-3    1.318452502514320E-1    5.135919852034768E-1
 6.565353228125000E9     1.920383539931111E-2    5.684825953306438E-1    4.187090430945689E-2   -7.597582929942674E-3    4.124421628317514E-2   -8.225100912956121E-3    1.331955177538803E-1    5.133488614475871E-1
 6.565364611500000E9     2.019989446178042E-2    5.684328150635594E-1    4.224089111291922E-2   -7.791106871261398E-3    4.152654513677324E-2   -8.255836024241830E-3    1.344549734122447E-1    5.130638183152804E-1
 6.565375994875000E9     2.125933136158649E-2    5.682962904258861E-1    4.240077346499342E-2   -7.906744091026154E-3    4.168280453417332E-2   -8.443409221171498E-3    1.355843317385374E-1    5.126401753567592E-1
 6.565387378250000E9     2.207609450179491E-2    5.681993888532639E-1    4.286105918611588E-2   -7.937435489427292E-3    4.197448735997400E-2   -8.579731606390159E-3    1.369261605288115E-1    5.122454172183080E-1
 6.565398761625000E9     2.308709526748316E-2    5.681937401487933E-1    4.298256269514711E-2   -8.133006301492624E-3    4.226284834270941E-2   -8.678081787854000E-3    1.380217223457372E-1    5.121981786120129E-1
 6.565410145000000E9     2.413516390250917E-2    5.682105896232227E-1    4.327093191127337E-2   -8.273037499914272E-3    4.243701757449079E-2   -8.883664084786434E-3    1.393369379401872E-1    5.117253598638263E-1
 6.565421528375000E9     2.510621264866986E-2    5.680961064080277E-1    4.340255948227057E-2   -8.468828958806161E-3    4.275239523509967E-2   -9.022905030901024E-3    1.405815207552982E-1    5.114611806379178E-1
 6.565432911750000E9     2.609098654695091E-2    5.680562969065477E-1    4.376981486675092E-2   -8.507385454685375E-3    4.295117216264331E-2   -9.148596517121842E-3    1.418046943397291E-1    5.109797351155878E-1
 6.565444295125000E9     2.712659506549107E-2    5.678797271933190E-1    4.401312013499262E-2   -8.878869407975170E-3    4.313215194192856E-2   -9.401196935807600E-3    1.430623281990021E-1    5.106055339629657E-1
 6.565455678500000E9     2.813803943505198E-2    5.678256000755851E-1    4.422823033912070E-2   -8.985791133865060E-3    4.356652470678293E-2   -9.487191079823381E-3    1.445954207287297E-1    5.101793253791236E-1
 6.565467061875000E9     2.916571929268915E-2    5.677313105050625E-1    4.454920499758183E-2   -9.132820194309303E-3    4.369632030212233E-2   -9.773669295695510E-3    1.458611743604599E-1    5.099639818683757E-1
 6.565478445250000E9     3.002624104177592E-2    5.677070614659341E-1    4.480617708209107E-2   -9.219299193124529E-3    4.410545752050751E-2   -9.868615840365406E-3    1.469114680976043E-1    5.094848131461991E-1
 6.565489828625000E9     3.110572827813121E-2    5.676196238247899E-1    4.502332763253324E-2   -9.539354643052316E-3    4.438610105466533E-2   -1.011705498782961E-2    1.482789301988902E-1    5.090248478079643E-1
 6.565501212000000E9     3.220155991970290E-2    5.675192926837958E-1    4.531222535674866E-2   -9.728690429229761E-3    4.460068835591943E-2   -1.021782305265354E-2    1.497174031848420E-1    5.086614848380645E-1
 6.565512595375000E9     3.310587759369743E-2    5.673047614102673E-1    4.565157494024479E-2   -9.886522873577202E-3    4.490951246373699E-2   -1.036704361905692E-2    1.509971593674755E-1    5.080816821400324E-1
 6.565523978750000E9     3.424323349437197E-2    5.672734482707005E-1    4.591665937586693E-2   -9.982773042409391E-3    4.519134832079679E-2   -1.061831220708610E-2    1.522701173564135E-1    5.078645058098828E-1
 6.565535362125000E9     3.516082905782232E-2    5.671274033952702E-1    4.622676586710396E-2   -1.016098005690442E-2    4.549656294787503E-2   -1.075506790226337E-2    1.535767727533688E-1    5.073115987949987E-1
 6.565546745500000E9     3.613341698023150E-2    5.670354446483001E-1    4.657692830937424E-2   -1.050373407299385E-2    4.578552758222509E-2   -1.097871686908832E-2    1.548948250612960E-1    5.069982697215605E-1
 6.565558128875000E9     3.724587063306989E-2    5.668565380798536E-1    4.664842511656343E-2   -1.055828074924993E-2    4.606499468072072E-2   -1.120696452336014E-2    1.560832088132969E-1    5.065059754952070E-1
 6.565569512250000E9     3.823361181244259E-2    5.669306802936727E-1    4.717267798130257E-2   -1.074887924125099E-2    4.634474679757149E-2   -1.136355811046532E-2    1.575748375040770E-1    5.060182905781969E-1
 6.565580895625000E9     3.929019993058734E-2    5.667712771531175E-1    4.742296667043201E-2   -1.093714708922801E-2    4.666643840966724E-2   -1.151888488338678E-2    1.588042527258194E-1    5.057232298915036E-1
 6.565592279000000E9     4.023278332011699E-2    5.666029016731706E-1    4.771407232736822E-2   -1.114851378482393E-2    4.694354134732120E-2   -1.176799086753518E-2    1.601852393331842E-1    5.052789690097101E-1
 6.565603662375000E9     4.130647433138217E-2    5.665583680828470E-1    4.818021070564400E-2   -1.142066233050511E-2    4.742256170648880E-2   -1.198318045353113E-2    1.614079554268968E-1    5.047240658100989E-1
 6.565615045750000E9     4.233901952310689E-2    5.665247471759749E-1    4.846955672531114E-2   -1.160600118902558E-2    4.760763629605246E-2   -1.212875598063730E-2    1.630185863308454E-1    5.043147622994171E-1
 6.565626429125000E9     4.330143136478359E-2    5.663591566470109E-1    4.862409027699853E-2   -1.177980605913192E-2    4.787402786395209E-2   -1.243620537872466E-2    1.643260316689522E-1    5.038347201712905E-1
 6.565637812500000E9     4.431248425238959E-2    5.663388823898734E-1    4.908781569357958E-2   -1.199599302794564E-2    4.827513510760494E-2   -1.260563558477884E-2    1.657054005628839E-1    5.033086950922956E-1
 6.565649195875000E9     4.535707289569078E-2    5.660407152035174E-1    4.932926265558894E-2   -1.225631787727176E-2    4.866592810021921E-2   -1.289015031870919E-2    1.671034323839201E-1    5.027674746520028E-1
 6.565660579250000E9     4.638113458220026E-2    5.659071958286201E-1    4.969409940731966E-2   -1.238208774043917E-2    4.884103859572073E-2   -1.305871812766756E-2    1.685217931523870E-1    5.024010513681525E-1
 6.565671962625000E9     4.734440912438801E-2    5.658024285504941E-1    5.005228877234852E-2   -1.267230999847416E-2    4.911569156750933E-2   -1.331169448581268E-2    1.698446986051927E-1    5.018152112203255E-1
 6.565683346000000E9     4.840064587552486E-2    5.656695269218426E-1    5.035475496577102E-2   -1.286826375244128E-2    4.952978025710618E-2   -1.353568946476054E-2    1.713183090265804E-1    5.013110756682120E-1
 6.565694729375000E9     4.953306203694620E-2    5.654717181805257E-1    5.067526143830263E-2   -1.327330374146327E-2    4.994306634070981E-2   -1.370733772115405E-2    1.728950006929754E-1    5.008034086872600E-1
 6.565706112750000E9     5.057013215624211E-2    5.653200264500373E-1    5.105803517450632E-2   -1.338218092936630E-2    5.034152729380565E-2   -1.395262511349855E-2    1.742686176820327E-1    5.000533893932424E-1
 6.565717496125000E9     5.161550572867598E-2    5.651697263792151E-1    5.142766608724542E-2   -1.369297549971776E-2    5.063685754347266E-2   -1.433980768047351E-2    1.755901690955889E-1    4.995701309298380E-1
 6.565728879500000E9     5.264994463320810E-2    5.651101360026372E-1    5.183552687311052E-2   -1.393781682091742E-2    5.099632997766360E-2   -1.456884535682147E-2    1.770443848337894E-1    4.989776515728165E-1
 6.565740262875000E9     5.371622075023234E-2    5.648792976918824E-1    5.227285710453523E-2   -1.407167286249655E-2    5.130926051790301E-2   -1.477142029666791E-2    1.785287107847301E-1    4.983956002659762E-1
 6.565751646250000E9     5.481745265281675E-2    5.647286857776241E-1    5.258338491798481E-2   -1.442659439775116E-2    5.176594829868608E-2   -1.517712146197727E-2    1.800775662869383E-1    4.978385107339929E-1
 6.565763029625000E9     5.584595064243220E-2    5.645510473028447E-1    5.285224903374419E-2   -1.467664850330614E-2    5.200612039912287E-2   -1.533776534580735E-2    1.815064989660920E-1    4.974506240418930E-1
 6.565774413000000E9     5.689564649802002E-2    5.643330209549670E-1    5.330918938770791E-2   -1.488758966200261E-2    5.242870922842122E-2   -1.550621557304613E-2    1.829519289614441E-1    4.967994732781585E-1
 6.565785796375000E9     5.789631578426750E-2    5.641774708689360E-1    5.370155660685672E-2   -1.524686840728151E-2    5.285872881905185E-2   -1.584847253319139E-2    1.842786489181251E-1    4.960840650837110E-1
 6.565797179750000E9     5.900362823690473E-2    5.640956972703967E-1    5.414922643076005E-2   -1.549474084863124E-2    5.321726744403764E-2   -1.611426781867024E-2    1.859589022138053E-1    4.954724695417370E-1
 6.565808563125000E9     6.001056852155894E-2    5.639019273251265E-1    5.448182181350106E-2   -1.580312845597899E-2    5.365398518078868E-2   -1.646555621332219E-2    1.874281333657233E-1    4.948940251504181E-1
 6.565819946500000E9     6.117986236391101E-2    5.635618362577993E-1    5.499655077780218E-2   -1.613830774158506E-2    5.406215823067768E-2   -1.672436144312230E-2    1.890969422030784E-1    4.942286823687916E-1
 6.565831329875000E9     6.227555546922136E-2    5.635189222820471E-1    5.532780807626624E-2   -1.625705748845611E-2    5.446418538309845E-2   -1.703623289544404E-2    1.903798378651279E-1    4.935504143643318E-1
 6.565842713250000E9     6.328871363910112E-2    5.632742221576369E-1    5.574552576265546E-2   -1.665048242906217E-2    5.486658988306353E-2   -1.741840391939073E-2    1.919715236961855E-1    4.929016164252976E-1
 6.565854096625000E9     6.436489888200322E-2    5.630798427210740E-1    5.616842916541388E-2   -1.702670654835112E-2    5.530204458721181E-2   -1.767395737532977E-2    1.936696949643351E-1    4.921664194221249E-1
 6.565865480000000E9     6.548883635087649E-2    5.629959975539655E-1    5.666226214181100E-2   -1.747010595761872E-2    5.574022521112078E-2   -1.810664758450315E-2    1.951724026325209E-1    4.914642845917952E-1
 6.565876863375000E9     6.654526557812004E-2    5.626191281929322E-1    5.711356293504394E-2   -1.773282499622178E-2    5.611832765604319E-2   -1.832213040448626E-2    1.966823833418461E-1    4.908546769233507E-1
 6.565888246750000E9     6.759352727688639E-2    5.624583929141860E-1    5.743926575389471E-2   -1.788469634854330E-2    5.657892823104279E-2   -1.867038610650597E-2    1.984696987210496E-1    4.900881469994689E-1
