#  HZ   S   RI   R     50.00 
! Rohde & Schwarz Vector Network Analyzer 
! Rohde-Schwarz,ZNB20-2Port,1311601062101988,3.16
! Created: UTC 3/20/2024, 4:52:46 PM
! freq[Hz]                re:S11                  im:S11                  re:S21                  im:S21                  re:S12                  im:S12                  re:S22                  im:S22
 6.564553908000000E9    -4.677368548340625E-2    5.674391123015089E-1    2.996445998513467E-2   -1.293886324526235E-3    2.961285437893882E-2   -1.942685235646298E-3    5.586786161891182E-2    5.258686953758399E-1
 6.564566545425000E9    -4.575345525417755E-2    5.674526540688912E-1    3.025807232080118E-2   -1.227332710485882E-3    2.984366469183660E-2   -1.861531961405912E-3    5.711325379247742E-2    5.258840295123652E-1
 6.564579182850000E9    -4.466642847524096E-2    5.676299068971244E-1    3.039232862366021E-2   -1.590435374166843E-3    2.992368857793427E-2   -1.885991652244414E-3    5.816113235896773E-2    5.256551577090739E-1
 6.564591820275000E9    -4.375829887534361E-2    5.677488375122318E-1    3.054009706696633E-2   -1.512622192372906E-3    3.009891502585235E-2   -2.008578136062186E-3    5.922062115305674E-2    5.255659549651507E-1
 6.564604457700000E9    -4.270445016007893E-2    5.678004127840018E-1    3.063788567924380E-2   -1.663073254945884E-3    3.026162924096994E-2   -2.056450580584453E-3    6.041044364000995E-2    5.254307617871815E-1
 6.564617095125000E9    -4.166853864046094E-2    5.677343368983822E-1    3.093161627371944E-2   -1.702086245301601E-3    3.038122649977754E-2   -2.222787592069115E-3    6.164733977674496E-2    5.253814035503790E-1
 6.564629732550000E9    -4.069891795914164E-2    5.679338653523535E-1    3.106121555315550E-2   -1.753852143771023E-3    3.060825463659761E-2   -2.299791887440613E-3    6.270124274374793E-2    5.252199543898094E-1
 6.564642369975000E9    -3.971637777774131E-2    5.679333546268485E-1    3.125198477342680E-2   -1.864651039242716E-3    3.072167647190677E-2   -2.306412321825013E-3    6.390351670269967E-2    5.252237758675886E-1
 6.564655007400000E9    -3.864604842069259E-2    5.679690935978969E-1    3.133992429413123E-2   -1.977303151863909E-3    3.071874095481449E-2   -2.375555351665376E-3    6.510002457527800E-2    5.250190916754457E-1
 6.564667644825000E9    -3.767622699775901E-2    5.680789887343914E-1    3.140967874231515E-2   -1.976070152469320E-3    3.096222913365738E-2   -2.535457080605772E-3    6.623146649583181E-2    5.248138769989501E-1
 6.564680282250000E9    -3.668109643339822E-2    5.680717757974740E-1    3.160730002426961E-2   -2.132280235162193E-3    3.126223185167729E-2   -2.486576140927464E-3    6.744350186087163E-2    5.246739391451072E-1
 6.564692919675000E9    -3.558819645433441E-2    5.681552901014033E-1    3.192505146099047E-2   -2.102318959705225E-3    3.118765743541413E-2   -2.712094902248989E-3    6.861636008844980E-2    5.245659371686405E-1
 6.564705557100000E9    -3.457074805762331E-2    5.682604128394738E-1    3.204839952573840E-2   -2.136293311070093E-3    3.149714356909532E-2   -2.705262895015579E-3    6.975515423797299E-2    5.244864051583796E-1
 6.564718194525000E9    -3.359282272332074E-2    5.683014408774727E-1    3.221249601827116E-2   -2.253325260742053E-3    3.163366016710450E-2   -2.902430045315964E-3    7.084557704315309E-2    5.242456843951671E-1
 6.564730831950000E9    -3.245648319293610E-2    5.683246331173862E-1    3.229197207961351E-2   -2.398858612502337E-3    3.184787574221030E-2   -2.946848358614659E-3    7.197010976013801E-2    5.242400144786409E-1
 6.564743469375000E9    -3.150727061474197E-2    5.683146737242146E-1    3.233072052478479E-2   -2.426631694271215E-3    3.191754511421377E-2   -3.000257687890244E-3    7.320954662185158E-2    5.240310295250242E-1
 6.564756106800000E9    -3.049312696811952E-2    5.682933755211800E-1    3.268946839233622E-2   -2.510093624178131E-3    3.213486723983630E-2   -2.995558812561316E-3    7.441287064466538E-2    5.239029122437473E-1
 6.564768744225000E9    -2.947164731238923E-2    5.683844599064154E-1    3.288892195450926E-2   -2.668515573290978E-3    3.226135362376766E-2   -3.110667576244788E-3    7.551324514474771E-2    5.236211400913745E-1
 6.564781381650000E9    -2.844223890272611E-2    5.684929374635473E-1    3.307067924349975E-2   -2.667429344852998E-3    3.248223701216225E-2   -3.275135534525821E-3    7.676397819708924E-2    5.234064615196848E-1
 6.564794019075000E9    -2.738631490550728E-2    5.684930778220548E-1    3.324076811929102E-2   -2.851867597290510E-3    3.247677175864156E-2   -3.350896694106227E-3    7.798060945942738E-2    5.233150862299710E-1
 6.564806656500000E9    -2.637122032895129E-2    5.685709767811622E-1    3.344843199131498E-2   -3.010432631780774E-3    3.282824004951356E-2   -3.446668612872679E-3    7.904136900783863E-2    5.232566809170663E-1
 6.564819293925000E9    -2.522278060556472E-2    5.685167981201099E-1    3.348264735394368E-2   -2.985267940237793E-3    3.300077899370839E-2   -3.559715932969548E-3    8.019180250812417E-2    5.230185728879593E-1
 6.564831931350000E9    -2.426315743606959E-2    5.685857680338647E-1    3.375130905507786E-2   -3.392840106563668E-3    3.309342645841526E-2   -3.524671549660177E-3    8.140826648691779E-2    5.227876939711833E-1
 6.564844568775000E9    -2.322985411523524E-2    5.686666199093803E-1    3.393119111816081E-2   -3.151522133247001E-3    3.321043581330620E-2   -3.687904950630975E-3    8.267664073172534E-2    5.227610801524050E-1
 6.564857206200000E9    -2.223072267851983E-2    5.686580774028683E-1    3.423956859738057E-2   -3.257511425587676E-3    3.355792159418836E-2   -3.823280247258306E-3    8.398645336671243E-2    5.223304518296815E-1
 6.564869843625000E9    -2.108755484033650E-2    5.686901214616543E-1    3.438980335194305E-2   -3.362564896680931E-3    3.370050156427934E-2   -3.937680671345170E-3    8.512942604935418E-2    5.222045004134593E-1
 6.564882481050000E9    -2.010151740461932E-2    5.686674637902481E-1    3.436299752826003E-2   -3.462073456017213E-3    3.389114629377705E-2   -4.023047498573656E-3    8.621755706950174E-2    5.220291140489215E-1
 6.564895118475000E9    -1.899611604618702E-2    5.687553649291768E-1    3.462533060175721E-2   -3.533149179332562E-3    3.410526354909800E-2   -4.245112584436605E-3    8.737039390962116E-2    5.218561782618826E-1
 6.564907755900000E9    -1.803287626885321E-2    5.687858479361957E-1    3.488209486105886E-2   -3.699763152772590E-3    3.419270758155663E-2   -4.285751561898131E-3    8.864378135978992E-2    5.216102545989606E-1
 6.564920393325000E9    -1.697877332536849E-2    5.688112228859906E-1    3.509084698856676E-2   -3.862219865079212E-3    3.450792900995062E-2   -4.362322930631213E-3    8.994815486144862E-2    5.214565997119407E-1
 6.564933030750000E9    -1.602596157981792E-2    5.687610342388905E-1    3.521748913944866E-2   -3.913820424713971E-3    3.454630557758253E-2   -4.391538030536182E-3    9.126246183504302E-2    5.211942091262909E-1
 6.564945668175000E9    -1.486061448834171E-2    5.688075363885901E-1    3.536844956816238E-2   -4.090700226498506E-3    3.485073562192774E-2   -4.533156613132334E-3    9.250034587024633E-2    5.210721087498338E-1
 6.564958305600000E9    -1.381375460365229E-2    5.688057446168133E-1    3.552805736266152E-2   -4.219679192869425E-3    3.502273260306954E-2   -4.621148853240833E-3    9.364384150379626E-2    5.207936951996941E-1
 6.564970943025000E9    -1.279418005835551E-2    5.688097044728828E-1    3.572553056222292E-2   -4.351036838495372E-3    3.528132145371286E-2   -4.798475108971706E-3    9.484380559223698E-2    5.204929937296986E-1
 6.564983580450000E9    -1.176072981323404E-2    5.688524438990377E-1    3.597368521865699E-2   -4.304472783358238E-3    3.546106116097290E-2   -4.843910641145445E-3    9.610102762903346E-2    5.202887095780925E-1
 6.564996217875000E9    -1.071019405857160E-2    5.689385328582589E-1    3.620845081853954E-2   -4.388762614655600E-3    3.546980015538412E-2   -4.969110731183115E-3    9.734051350677503E-2    5.201049681069837E-1
 6.565008855300000E9    -9.730025582550407E-3    5.688257956105583E-1    3.646407476492178E-2   -4.476490854662209E-3    3.588764758797443E-2   -5.145343341089602E-3    9.856787717445553E-2    5.199426588235587E-1
 6.565021492725000E9    -8.600989627394577E-3    5.688466784844463E-1    3.657780007107816E-2   -4.824923765896475E-3    3.607960519983169E-2   -5.360063063127235E-3    9.977501486340801E-2    5.196067721211337E-1
 6.565034130150000E9    -7.547585018767576E-3    5.688592114525823E-1    3.675776170432700E-2   -4.808011848252629E-3    3.618091221455480E-2   -5.341382620662535E-3    1.010274770191060E-1    5.194392761206384E-1
 6.565046767575000E9    -6.486765788602761E-3    5.688103631403234E-1    3.703311524208327E-2   -4.976257318893589E-3    3.643160586160397E-2   -5.534489336823081E-3    1.023568359633767E-1    5.191501950015366E-1
 6.565059405000000E9    -5.436520483891884E-3    5.688889388077809E-1    3.720937825772404E-2   -5.062769696677630E-3    3.670670186192720E-2   -5.624615307004931E-3    1.035042972037813E-1    5.187114873030072E-1
 6.565072042425000E9    -4.373330522158160E-3    5.688248583173743E-1    3.746969682710455E-2   -5.327425620990888E-3    3.697074361866622E-2   -5.826266442548795E-3    1.047628468489892E-1    5.185820807200046E-1
 6.565084679850000E9    -3.246691284539967E-3    5.688012653758683E-1    3.774355961309089E-2   -5.425726610120857E-3    3.707261686065361E-2   -5.947553917159992E-3    1.060403300027592E-1    5.183313576906493E-1
 6.565097317275000E9    -2.295537998131962E-3    5.687846406520203E-1    3.794390596577754E-2   -5.476520383248650E-3    3.726202630380459E-2   -6.021094238678758E-3    1.074305460581981E-1    5.180483780413554E-1
 6.565109954700000E9    -1.187330033576199E-3    5.688134884003452E-1    3.810692236429725E-2   -5.587715991028244E-3    3.753785840396012E-2   -6.137297645621553E-3    1.087171865426183E-1    5.178835418592924E-1
 6.565122592125000E9    -1.134982912887773E-4    5.687736859750814E-1    3.845347625762031E-2   -5.672413362293492E-3    3.776446041768221E-2   -6.263493062308272E-3    1.098942871920365E-1    5.173912420562330E-1
 6.565135229550000E9     9.225265902961785E-4    5.687005368931708E-1    3.871710705476388E-2   -5.801358532416415E-3    3.803539013473813E-2   -6.478827444778771E-3    1.113839564743859E-1    5.172449597819502E-1
 6.565147866975000E9     2.005068648222403E-3    5.687294418709627E-1    3.888444212508262E-2   -5.938918453993210E-3    3.818702976141781E-2   -6.652425537360037E-3    1.125191203459506E-1    5.168195148491955E-1
 6.565160504400000E9     3.120678065349444E-3    5.686763365687435E-1    3.911337644400559E-2   -6.235593044227479E-3    3.840197295154922E-2   -6.673152792775380E-3    1.138684512736200E-1    5.166535121033953E-1
 6.565173141825000E9     4.153209942853764E-3    5.686307860581109E-1    3.938846392693475E-2   -6.333720772726982E-3    3.867063353460835E-2   -6.848258526578200E-3    1.151746611173725E-1    5.164394568802058E-1
 6.565185779250000E9     5.240399575860159E-3    5.685621415378733E-1    3.960599198690749E-2   -6.416140455818389E-3    3.891760564454159E-2   -6.914308682487937E-3    1.164460611035645E-1    5.161160714086922E-1
 6.565198416675000E9     6.235097797207431E-3    5.685580267836143E-1    3.978121733232166E-2   -6.618451820750990E-3    3.917900454604734E-2   -7.101415866371075E-3    1.178021767022398E-1    5.157712799918268E-1
 6.565211054100000E9     7.376229466498678E-3    5.684125583878269E-1    4.013762730629917E-2   -6.782924071481108E-3    3.938157889472903E-2   -7.244950423051194E-3    1.191110841381591E-1    5.154365280287614E-1
 6.565223691525000E9     8.427016420776217E-3    5.684097669799166E-1    4.038070766239759E-2   -6.855073332802207E-3    3.962306347465405E-2   -7.397233946886895E-3    1.203908849572844E-1    5.151199952617416E-1
 6.565236328950000E9     9.536848027794748E-3    5.684206536678419E-1    4.058952816847755E-2   -7.044759328619690E-3    3.981190726691030E-2   -7.630589385401696E-3    1.217482706070265E-1    5.147228642287078E-1
 6.565248966375000E9     1.062646515969151E-2    5.683447894892792E-1    4.080990755067725E-2   -7.211986203713539E-3    4.011313365769620E-2   -7.755639548299658E-3    1.230272428755610E-1    5.145022241510647E-1
 6.565261603800000E9     1.158462500605656E-2    5.683958943555862E-1    4.111417847035972E-2   -7.217499240802115E-3    4.037768427027311E-2   -7.830141395377313E-3    1.244825897061259E-1    5.139809120861291E-1
 6.565274241225000E9     1.278044926407618E-2    5.682347220891549E-1    4.139346383005180E-2   -7.533439732347716E-3    4.067585797873238E-2   -8.026237060013416E-3    1.257463563762370E-1    5.136552700685388E-1
 6.565286878650000E9     1.388613316544344E-2    5.682705602642482E-1    4.166623984022547E-2   -7.685220611721162E-3    4.089503368043321E-2   -8.140880046154229E-3    1.270173377496402E-1    5.132484086942680E-1
 6.565299516075000E9     1.486895426115055E-2    5.680994700896570E-1    4.173778653018105E-2   -7.731344221066768E-3    4.115411671958578E-2   -8.389979888908067E-3    1.284282064208438E-1    5.130205006434038E-1
 6.565312153500000E9     1.604285201214070E-2    5.679941785522229E-1    4.207073441410419E-2   -8.034104476611893E-3    4.140650549979759E-2   -8.546542148976202E-3    1.298138168050344E-1    5.126845655622971E-1
 6.565324790925000E9     1.716250542484408E-2    5.679950238633836E-1    4.238770406655729E-2   -8.044088340414221E-3    4.175197059827569E-2   -8.677032225352557E-3    1.312320393349224E-1    5.123041305809846E-1
 6.565337428350000E9     1.813535676480840E-2    5.678608326621118E-1    4.269282447234361E-2   -8.379611669121448E-3    4.200809525624671E-2   -8.922381227766323E-3    1.325593594044649E-1    5.118486026496708E-1
 6.565350065775000E9     1.926652237195364E-2    5.677916246298942E-1    4.306732527407604E-2   -8.477146739708683E-3    4.227187237641715E-2   -9.105703306724980E-3    1.339371931278817E-1    5.115011500330392E-1
 6.565362703200000E9     2.036778137779065E-2    5.677057867715537E-1    4.323713642188037E-2   -8.733348823608491E-3    4.254780659731118E-2   -9.225894391671612E-3    1.354753463588756E-1    5.111385414664644E-1
 6.565375340625000E9     2.148620002026381E-2    5.676944296324699E-1    4.364143048250700E-2   -8.766478264161623E-3    4.277697129737089E-2   -9.530894508084605E-3    1.367795675366981E-1    5.107101808599346E-1
 6.565387978050000E9     2.263640473783982E-2    5.675803025618705E-1    4.387327264602791E-2   -9.083536423603983E-3    4.311518518187179E-2   -9.615196881373824E-3    1.382517646839433E-1    5.103196851826585E-1
 6.565400615475000E9     2.368084119144043E-2    5.675217143845371E-1    4.418597864840332E-2   -9.282145125786635E-3    4.344765134413130E-2   -9.859901797780013E-3    1.396763434279118E-1    5.098021902690067E-1
 6.565413252900000E9     2.482792213434036E-2    5.674849217116046E-1    4.450348474637630E-2   -9.427015190300012E-3    4.361840973315411E-2   -9.925377073773015E-3    1.410527126363277E-1    5.094422085044319E-1
 6.565425890325000E9     2.591074679989941E-2    5.673943256107074E-1    4.468332516841749E-2   -9.640305960555325E-3    4.397680212150149E-2   -1.016849379402259E-2    1.423120149535240E-1    5.089726916767580E-1
 6.565438527750000E9     2.698174341538516E-2    5.672597554428633E-1    4.502916696220779E-2   -9.941217916341409E-3    4.434450129333756E-2   -1.050900647883127E-2    1.438591969480283E-1    5.084732965424045E-1
 6.565451165175000E9     2.819660368456183E-2    5.671582784764163E-1    4.540261997317983E-2   -9.969271430345440E-3    4.456438128994794E-2   -1.056927674425408E-2    1.452456486727715E-1    5.081203026580114E-1
 6.565463802600000E9     2.927475579669518E-2    5.670496474855402E-1    4.567596394650672E-2   -1.022681396428395E-2    4.491820375210603E-2   -1.085638859658825E-2    1.468015824565725E-1    5.076100903938461E-1
 6.565476440025000E9     3.035371804455379E-2    5.669583339087001E-1    4.607416703687474E-2   -1.044191778830446E-2    4.517625842009352E-2   -1.106394738491072E-2    1.482499788685933E-1    5.070244394353642E-1
 6.565489077450000E9     3.156632247099486E-2    5.668675913608076E-1    4.633622212504180E-2   -1.076482188336847E-2    4.546681983876195E-2   -1.121907443463988E-2    1.495595297496074E-1    5.066401926952603E-1
 6.565501714875000E9     3.269688068244352E-2    5.667330424982613E-1    4.665557027121828E-2   -1.089232387971760E-2    4.585977049587452E-2   -1.149963006138306E-2    1.509921924277261E-1    5.062025709811308E-1
 6.565514352300000E9     3.374271512032258E-2    5.665582828609640E-1    4.700066191599347E-2   -1.104081210072783E-2    4.621150924064493E-2   -1.166735257584541E-2    1.525427724052708E-1    5.056394925439122E-1
 6.565526989725000E9     3.491997601377782E-2    5.664806310760271E-1    4.729112722818540E-2   -1.132657460133406E-2    4.652923391115677E-2   -1.191268947954450E-2    1.541396287341989E-1    5.051500676253766E-1
 6.565539627150000E9     3.613386879707374E-2    5.663835994340826E-1    4.755791347604201E-2   -1.156248385216230E-2    4.679803657559087E-2   -1.214650206584993E-2    1.555315985242715E-1    5.046871480920685E-1
 6.565552264575000E9     3.713390750160432E-2    5.663944961873758E-1    4.801474521729283E-2   -1.187343848985947E-2    4.722047075334593E-2   -1.236957835961207E-2    1.570326924925937E-1    5.040738901577794E-1
 6.565564902000000E9     3.831907801257802E-2    5.660700032506317E-1    4.849478626483382E-2   -1.199912164006583E-2    4.757169402530867E-2   -1.269469268262015E-2    1.586055335348658E-1    5.037528972913835E-1
 6.565577539425000E9     3.934118323942334E-2    5.660460012985026E-1    4.878192030886608E-2   -1.229655085179215E-2    4.786542992932416E-2   -1.295875945807423E-2    1.601361170061018E-1    5.030915707808343E-1
 6.565590176850000E9     4.054695935867410E-2    5.659693689795867E-1    4.903953325491737E-2   -1.246011949130887E-2    4.819081648695400E-2   -1.321655860884834E-2    1.617768356967099E-1    5.023764681594428E-1
 6.565602814275000E9     4.176067611321886E-2    5.657750553054881E-1    4.949769516728871E-2   -1.278262776658448E-2    4.866893021485671E-2   -1.343245247600457E-2    1.631822885639872E-1    5.019642918153814E-1
 6.565615451700000E9     4.286373040031571E-2    5.654832268730637E-1    4.973972388187285E-2   -1.312020240048353E-2    4.904889972740580E-2   -1.379396986370607E-2    1.647100406269598E-1    5.012123385271837E-1
 6.565628089125000E9     4.401449940457769E-2    5.654128326860468E-1    5.027405318177638E-2   -1.336376107595615E-2    4.937639646957955E-2   -1.396514901136028E-2    1.662525898794830E-1    5.007686881573508E-1
 6.565640726550000E9     4.520408241024807E-2    5.652821122376935E-1    5.060300761445006E-2   -1.354860086386748E-2    4.973118685116637E-2   -1.423979855699373E-2    1.678595894021314E-1    5.001426338587177E-1
 6.565653363975000E9     4.628886088069819E-2    5.650922449531721E-1    5.114293289860534E-2   -1.393904491161044E-2    5.010076844177185E-2   -1.448172344317687E-2    1.694705074695745E-1    4.997944459894537E-1
 6.565666001400000E9     4.746962213229334E-2    5.649463980155267E-1    5.127536116941066E-2   -1.425631200358053E-2    5.053377152880938E-2   -1.478868061851089E-2    1.710583331733954E-1    4.989663875223660E-1
 6.565678638825000E9     4.860485607912516E-2    5.647159903555281E-1    5.178478601650207E-2   -1.452357129779478E-2    5.091199482493608E-2   -1.517380221028071E-2    1.726267578621897E-1    4.983271409030887E-1
 6.565691276250000E9     4.976161368234167E-2    5.646926499109806E-1    5.219894373197656E-2   -1.485586602635565E-2    5.128679782581853E-2   -1.541523637391694E-2    1.741940861635110E-1    4.977004089173633E-1
