#  HZ   S   RI   R     50.00 
! Rohde & Schwarz Vector Network Analyzer 
! Rohde-Schwarz,ZNB20-2Port,1311601062101988,3.16
! Created: UTC 3/20/2024, 4:52:49 PM
! freq[Hz]                re:S11                  im:S11                  re:S21                  im:S21                  re:S12                  im:S12                  re:S22                  im:S22
 6.564549560000000E9    -4.705404866774279E-2    5.673943647097879E-1    3.013797209316516E-2   -1.245178979170194E-3    2.957007949837989E-2   -1.827048320828693E-3    5.552324917253051E-2    5.258663019513868E-1
 6.564562216025000E9    -4.603735477822860E-2    5.675501422975815E-1    3.035917762947022E-2   -1.378971632459172E-3    2.970563660388983E-2   -1.807958201936203E-3    5.662635842913716E-2    5.259229531845039E-1
 6.564574872050000E9    -4.513790440945026E-2    5.675443850209677E-1    3.039504275915167E-2   -1.556168388872508E-3    2.993251599998029E-2   -1.859474169184051E-3    5.774880634162376E-2    5.257693920908419E-1
 6.564587528075000E9    -4.408712331855986E-2    5.676081049273454E-1    3.055637801139872E-2   -1.473433110452389E-3    3.003491963747449E-2   -1.947547790842201E-3    5.903933382273877E-2    5.255775470239903E-1
 6.564600184100000E9    -4.312339176121403E-2    5.676533806396030E-1    3.066881427351784E-2   -1.528183882192337E-3    3.015797882731656E-2   -2.020925361753446E-3    6.008453082968895E-2    5.257121202017778E-1
 6.564612840125000E9    -4.211380214621072E-2    5.677913202560882E-1    3.093362167281292E-2   -1.525725164888172E-3    3.030859173898721E-2   -2.131402032714101E-3    6.122612358822718E-2    5.254028500336607E-1
 6.564625496150000E9    -4.113394623386687E-2    5.677904260662339E-1    3.102386915135219E-2   -1.583851652585054E-3    3.050325396909362E-2   -2.196239505954890E-3    6.243437742443626E-2    5.253804345112078E-1
 6.564638152175000E9    -4.001723376418958E-2    5.679544909842721E-1    3.115445725438142E-2   -1.797115342756533E-3    3.073726945074770E-2   -2.305378381508484E-3    6.343552892950791E-2    5.252006391917166E-1
 6.564650808200000E9    -3.897471853289053E-2    5.679122542358298E-1    3.132055985552500E-2   -1.896060254325172E-3    3.071083728207727E-2   -2.384921119773093E-3    6.463436645850346E-2    5.250824170592709E-1
 6.564663464225000E9    -3.794080997885813E-2    5.679455626691333E-1    3.161870244747839E-2   -1.908535348526461E-3    3.098982671091207E-2   -2.494765349151394E-3    6.580378061090994E-2    5.248531858443244E-1
 6.564676120250000E9    -3.694338113156562E-2    5.680520293497647E-1    3.165117707241434E-2   -1.997384089393956E-3    3.108206289305147E-2   -2.579951769192332E-3    6.704332719475875E-2    5.248074687224851E-1
 6.564688776275000E9    -3.585313818928210E-2    5.681818146384090E-1    3.169332339767417E-2   -2.019553987641827E-3    3.130819806062483E-2   -2.704849634484043E-3    6.808083019850455E-2    5.246271286629730E-1
 6.564701432300000E9    -3.496040546768769E-2    5.681903224241442E-1    3.208959245758158E-2   -2.104279995016324E-3    3.144100243190952E-2   -2.763586779619468E-3    6.927751121123733E-2    5.244650396256589E-1
 6.564714088325000E9    -3.385976666327534E-2    5.682634233516014E-1    3.210404110097267E-2   -2.211699095379142E-3    3.159976242970061E-2   -2.751583526402519E-3    7.048690220715408E-2    5.244459530833565E-1
 6.564726744350000E9    -3.281750514718818E-2    5.683131789213076E-1    3.238898123957735E-2   -2.425040164198110E-3    3.173899169761293E-2   -2.872926750356935E-3    7.161078306843194E-2    5.242399691748453E-1
 6.564739400375000E9    -3.183051312872394E-2    5.683212658098413E-1    3.252798577771591E-2   -2.441914489133747E-3    3.187032110575849E-2   -2.948563207022712E-3    7.292185489953427E-2    5.238754437125581E-1
 6.564752056400000E9    -3.077036758941062E-2    5.684304978588202E-1    3.265341787554021E-2   -2.611713046947984E-3    3.207150126399432E-2   -3.119361676346054E-3    7.402137140961515E-2    5.240026472445749E-1
 6.564764712425000E9    -2.979156021174660E-2    5.683282437019742E-1    3.282223318100261E-2   -2.713614470427082E-3    3.228743882918313E-2   -3.135845708749900E-3    7.517597892509156E-2    5.236669976517823E-1
 6.564777368450000E9    -2.870424940196809E-2    5.685050803963762E-1    3.305141389939648E-2   -2.683933965139872E-3    3.241006381253465E-2   -3.297906781046760E-3    7.637709528814325E-2    5.236136348310034E-1
 6.564790024475000E9    -2.776035895711303E-2    5.684745778430429E-1    3.308028133031034E-2   -2.669456310121381E-3    3.245791460011100E-2   -3.399689728736717E-3    7.758725090509232E-2    5.234462035958442E-1
 6.564802680500000E9    -2.673932688429415E-2    5.685965585052372E-1    3.332562080641693E-2   -2.942012374029918E-3    3.265692372962066E-2   -3.441297494155374E-3    7.872187798425399E-2    5.232389601109497E-1
 6.564815336525000E9    -2.562499836649025E-2    5.685181909684693E-1    3.342268232883563E-2   -2.978128237356225E-3    3.291247801956504E-2   -3.529530337632308E-3    7.987274486002685E-2    5.229681306286982E-1
 6.564827992550000E9    -2.453709672109994E-2    5.687280724570987E-1    3.368988431057429E-2   -3.012919949010273E-3    3.312766107532898E-2   -3.557877570714821E-3    8.116111148620793E-2    5.227478372172917E-1
 6.564840648575000E9    -2.348905405314500E-2    5.686975586214814E-1    3.388471716850947E-2   -3.294767628245066E-3    3.327746295011618E-2   -3.680635597116966E-3    8.222532226999171E-2    5.226911204610796E-1
 6.564853304600000E9    -2.248311256145191E-2    5.686328387949612E-1    3.402067294255121E-2   -3.332693097991852E-3    3.346876349297955E-2   -3.864557380365843E-3    8.356499713643613E-2    5.225180217619267E-1
 6.564865960625000E9    -2.149529159831890E-2    5.687646334684120E-1    3.431162481223252E-2   -3.537443952938957E-3    3.367684526307697E-2   -3.875560895927035E-3    8.471650230344412E-2    5.223049792733186E-1
 6.564878616650000E9    -2.040168423608517E-2    5.687686878304711E-1    3.438655935090944E-2   -3.545758324747403E-3    3.386575087794830E-2   -4.063867474056754E-3    8.593038695804769E-2    5.220769270894352E-1
 6.564891272675000E9    -1.942263632165285E-2    5.688041181234971E-1    3.465551546058285E-2   -3.624685115194926E-3    3.400319641415808E-2   -4.116381853948748E-3    8.715280214782131E-2    5.218940291336079E-1
 6.564903928700000E9    -1.832318185338375E-2    5.687739942525192E-1    3.473584169920631E-2   -3.718077939204672E-3    3.419208231156733E-2   -4.206110024766326E-3    8.844613291205494E-2    5.216764995337553E-1
 6.564916584725000E9    -1.728030453843902E-2    5.688444442689990E-1    3.494791078670291E-2   -3.889835531280757E-3    3.448595549683258E-2   -4.376057515538520E-3    8.967756386685660E-2    5.215407390165420E-1
 6.564929240750000E9    -1.630316473903070E-2    5.688148150456946E-1    3.517009651710897E-2   -3.940265088827244E-3    3.461045517091124E-2   -4.440544424760899E-3    9.079005352078276E-2    5.213765580013158E-1
 6.564941896775000E9    -1.521803202884605E-2    5.687657375633844E-1    3.537606709985015E-2   -3.956974991557701E-3    3.475495491788112E-2   -4.665742722462207E-3    9.204996507962382E-2    5.210484920080034E-1
 6.564954552800000E9    -1.412206059357942E-2    5.688011409799621E-1    3.553772552168142E-2   -4.114942600445003E-3    3.495262658933623E-2   -4.683128924947832E-3    9.338461390212176E-2    5.208791436235274E-1
 6.564967208825000E9    -1.316038998393341E-2    5.688293869963249E-1    3.577248684858174E-2   -4.152080358847690E-3    3.524163565103715E-2   -4.753351458216824E-3    9.441517547445004E-2    5.207054056076297E-1
 6.564979864850000E9    -1.208269809890111E-2    5.689328807420375E-1    3.595993215512062E-2   -4.380176869877308E-3    3.532763647952194E-2   -4.880803654140957E-3    9.576085786598508E-2    5.204797572244733E-1
 6.564992520875000E9    -1.106189182473151E-2    5.687842501935499E-1    3.601942909260483E-2   -4.500949939903749E-3    3.564282671854187E-2   -5.021821074369060E-3    9.701070921107685E-2    5.203512030569661E-1
 6.565005176900000E9    -9.941576199340189E-3    5.688163611950083E-1    3.644213436856845E-2   -4.552822900609489E-3    3.584487637207584E-2   -5.008237756080445E-3    9.824514880128996E-2    5.199191604600543E-1
 6.565017832925000E9    -8.890365712740824E-3    5.688898189615887E-1    3.657002238305065E-2   -4.740601028194518E-3    3.590147470381339E-2   -5.177520626318446E-3    9.951175537478968E-2    5.196444588701182E-1
 6.565030488950000E9    -7.870951255529560E-3    5.688538372380146E-1    3.672479828008440E-2   -4.799330423782239E-3    3.618182214676510E-2   -5.283857992261259E-3    1.007887505700824E-1    5.193782585210726E-1
 6.565043144975000E9    -6.788561732189177E-3    5.688594500663923E-1    3.694420933539483E-2   -4.960146082558965E-3    3.635652675523811E-2   -5.465079800491948E-3    1.019540618405679E-1    5.192514862469821E-1
 6.565055801000000E9    -5.780951159394118E-3    5.687832147384595E-1    3.731028187323845E-2   -5.039100995053354E-3    3.661279677911870E-2   -5.605846127925718E-3    1.032599597425141E-1    5.190356889270004E-1
 6.565068457025000E9    -4.712882223502738E-3    5.687561738758088E-1    3.744664258826932E-2   -5.216749875066208E-3    3.677894265918084E-2   -5.757475552097953E-3    1.045889384796168E-1    5.186554943346298E-1
 6.565081113050000E9    -3.585802105863748E-3    5.688049750444036E-1    3.763252793391756E-2   -5.329200745258539E-3    3.708414656458142E-2   -5.933151905382692E-3    1.056896018707745E-1    5.184026172041754E-1
 6.565093769075000E9    -2.546317302903379E-3    5.686585214417343E-1    3.788143578588357E-2   -5.490826654219297E-3    3.720750082220439E-2   -6.011403922907951E-3    1.070230900254425E-1    5.180658134292463E-1
 6.565106425100000E9    -1.495638077713686E-3    5.687461627262528E-1    3.811159910905633E-2   -5.601527773667003E-3    3.751463294903423E-2   -5.985268944016363E-3    1.083585236547555E-1    5.178243692422543E-1
 6.565119081125000E9    -3.935508291476259E-4    5.687495078349009E-1    3.830056085175408E-2   -5.701353194563879E-3    3.780185689277309E-2   -6.202248077616315E-3    1.097070191495106E-1    5.175184165879352E-1
 6.565131737150000E9     6.321626847708130E-4    5.687206810681011E-1    3.867770337143894E-2   -5.881870629676687E-3    3.805100619690348E-2   -6.389446378982257E-3    1.109891494022341E-1    5.173360935895182E-1
 6.565144393175000E9     1.791299841756034E-3    5.687182631641572E-1    3.884485772229716E-2   -5.990427271915903E-3    3.820062137813609E-2   -6.510933409176307E-3    1.123471051244768E-1    5.170265307626448E-1
 6.565157049200000E9     2.764437891891955E-3    5.686385967357672E-1    3.903750013595833E-2   -6.163458487166123E-3    3.834521231188055E-2   -6.647806211991810E-3    1.134986735193611E-1    5.167776899646052E-1
 6.565169705225000E9     4.035330482742824E-3    5.686720778820266E-1    3.927881174089596E-2   -6.273040857426956E-3    3.857368382418461E-2   -6.897126507014848E-3    1.150142472661094E-1    5.163081505285688E-1
 6.565182361250000E9     4.902673676721007E-3    5.685561243738895E-1    3.946636235331958E-2   -6.359842057622184E-3    3.879399556561519E-2   -6.983799365546928E-3    1.160993693745966E-1    5.160123105415784E-1
 6.565195017275000E9     6.052121929648185E-3    5.684461223310762E-1    3.980542758914228E-2   -6.585823281508695E-3    3.917947916223719E-2   -7.149916921043564E-3    1.174612758268618E-1    5.157471749003576E-1
 6.565207673300000E9     7.090150257176926E-3    5.685330051965575E-1    3.989335927524987E-2   -6.571981874479360E-3    3.933242350793964E-2   -7.149761230061547E-3    1.188579154562466E-1    5.154102275864273E-1
 6.565220329325000E9     8.209519348666896E-3    5.685324073451504E-1    4.028160495050795E-2   -6.804016052539531E-3    3.965076767674154E-2   -7.419109617342305E-3    1.199518937496186E-1    5.151462892689961E-1
 6.565232985350000E9     9.294477248373815E-3    5.685013636601770E-1    4.044253185677724E-2   -6.940737263337725E-3    3.982573299009716E-2   -7.613890032448447E-3    1.214828134383300E-1    5.148330524147073E-1
 6.565245641375000E9     1.031309403486091E-2    5.684680196468743E-1    4.067807350129037E-2   -7.165622576112903E-3    4.004133837858416E-2   -7.681952233448638E-3    1.227545649218527E-1    5.146137280060795E-1
 6.565258297400000E9     1.149518350656867E-2    5.684607796649731E-1    4.105390149646140E-2   -7.240401864109588E-3    4.032958567504679E-2   -7.851619645536349E-3    1.241440308509683E-1    5.142315318167630E-1
 6.565270953425000E9     1.251423542868896E-2    5.682527154345292E-1    4.127125712410515E-2   -7.490267963246114E-3    4.056817124955323E-2   -7.983862052915038E-3    1.254108098730015E-1    5.138267816777847E-1
 6.565283609450000E9     1.349393087389017E-2    5.681343761989809E-1    4.145959891523200E-2   -7.635155499992247E-3    4.093281390811489E-2   -8.230383690893975E-3    1.267940033119560E-1    5.133971577455271E-1
 6.565296265475000E9     1.457762907274926E-2    5.681182987978862E-1    4.169166922884637E-2   -7.753299710669571E-3    4.111254083263154E-2   -8.355716844257668E-3    1.281210405296671E-1    5.131119994517593E-1
 6.565308921500000E9     1.583265392068879E-2    5.680505969193586E-1    4.210410217228328E-2   -7.913772051601046E-3    4.128035299932514E-2   -8.523354265258352E-3    1.296592420352573E-1    5.126278908185776E-1
 6.565321577525000E9     1.684627895591112E-2    5.679041680482283E-1    4.230473784043929E-2   -8.171016288374905E-3    4.158406527909007E-2   -8.678662079251701E-3    1.310564997816330E-1    5.123252838896722E-1
 6.565334233550000E9     1.796844057855129E-2    5.678574143142008E-1    4.275258620333409E-2   -8.315271436268781E-3    4.189123706957489E-2   -8.856108639142853E-3    1.322639787779029E-1    5.120215733099344E-1
 6.565346889575000E9     1.906674615160032E-2    5.678898642221156E-1    4.298992561892864E-2   -8.552231287147116E-3    4.213537283073616E-2   -9.005326659198098E-3    1.337155857061198E-1    5.117517594742026E-1
 6.565359545600000E9     2.014739999253784E-2    5.679549946424240E-1    4.316312912162908E-2   -8.570829683360294E-3    4.261396795776922E-2   -9.334577748610339E-3    1.351274665587064E-1    5.111350478671397E-1
 6.565372201625000E9     2.128393049816085E-2    5.677242566681279E-1    4.354328143390895E-2   -8.936847139581984E-3    4.274439156608031E-2   -9.375155797332715E-3    1.364386419320657E-1    5.108246192039563E-1
 6.565384857650000E9     2.227318504470198E-2    5.676744808997034E-1    4.361604056304921E-2   -8.908761402250101E-3    4.307757749178633E-2   -9.549937499628370E-3    1.378950676803729E-1    5.103630230095579E-1
 6.565397513675000E9     2.339816235342830E-2    5.675297359391346E-1    4.403800320117870E-2   -9.195894599372340E-3    4.342087195432387E-2   -9.735047649952006E-3    1.393095237890321E-1    5.100230922361390E-1
 6.565410169700000E9     2.456460335877644E-2    5.674708544010686E-1    4.439380029100732E-2   -9.436775996704321E-3    4.361239088326961E-2   -1.003243827070698E-2    1.407531021810503E-1    5.096110296388970E-1
 6.565422825725000E9     2.569166804711791E-2    5.673750127043583E-1    4.472201247985173E-2   -9.617009450435783E-3    4.395548335797782E-2   -1.019605820513131E-2    1.421175995967828E-1    5.090130427522414E-1
 6.565435481750000E9     2.675724605659529E-2    5.672045310876732E-1    4.503241223245281E-2   -9.875804049077406E-3    4.423131758784726E-2   -1.037210548427296E-2    1.436979719918118E-1    5.084963324669988E-1
 6.565448137775000E9     2.786459212359211E-2    5.671985082424721E-1    4.528122782928985E-2   -9.986704818759505E-3    4.461723837759195E-2   -1.054015201520478E-2    1.449674184832271E-1    5.082481457045810E-1
 6.565460793800000E9     2.902199193095031E-2    5.670220126942355E-1    4.549410207073292E-2   -1.014794400914479E-2    4.485721089576047E-2   -1.084460405181194E-2    1.464719422038079E-1    5.075769203171072E-1
 6.565473449825000E9     3.020832437704150E-2    5.668623863708240E-1    4.589162829741120E-2   -1.028596963998281E-2    4.520308536502292E-2   -1.092869808538650E-2    1.477744339115232E-1    5.073007830313666E-1
 6.565486105850000E9     3.124425051066178E-2    5.667643285555026E-1    4.634646316250269E-2   -1.062906213719007E-2    4.555372232953640E-2   -1.129964982962435E-2    1.492636635294769E-1    5.068190952701567E-1
 6.565498761875000E9     3.239306539188564E-2    5.667853678803519E-1    4.670405151803295E-2   -1.082634182527357E-2    4.575761156121023E-2   -1.142578052079679E-2    1.509333732869189E-1    5.063152867812865E-1
 6.565511417900000E9     3.349537627917432E-2    5.666578397064479E-1    4.693871941749658E-2   -1.099862686079422E-2    4.606938626984893E-2   -1.162375564178744E-2    1.523913535789802E-1    5.057911314358107E-1
 6.565524073925000E9     3.461949820731054E-2    5.665846016169832E-1    4.728607621631526E-2   -1.128689209464847E-2    4.647899438738117E-2   -1.190059720855911E-2    1.538677825573680E-1    5.052638461850230E-1
 6.565536729950000E9     3.578254630701223E-2    5.663024536220759E-1    4.758548293277726E-2   -1.150234867219179E-2    4.680556561408197E-2   -1.217501881159086E-2    1.553871792163304E-1    5.048030864178632E-1
 6.565549385975000E9     3.698500657141475E-2    5.663418314963822E-1    4.800446286208016E-2   -1.180925124549356E-2    4.718052683826546E-2   -1.245584431890835E-2    1.567781515240420E-1    5.042753836177121E-1
 6.565562042000000E9     3.796957171661053E-2    5.660732756940831E-1    4.828494396597521E-2   -1.197714108579461E-2    4.743105980663530E-2   -1.253597829533963E-2    1.583639863419791E-1    5.037873961982652E-1
 6.565574698025000E9     3.920377820913838E-2    5.659324121198204E-1    4.858752922421570E-2   -1.227960287066655E-2    4.788765777981708E-2   -1.286408867676716E-2    1.599913324380302E-1    5.032306126923465E-1
 6.565587354050000E9     4.031807333043191E-2    5.658598037073543E-1    4.902933539537267E-2   -1.253000434938575E-2    4.826183351296823E-2   -1.309033880838134E-2    1.614434737646923E-1    5.026441290500089E-1
 6.565600010075000E9     4.144390692642790E-2    5.657117429669831E-1    4.945148929704388E-2   -1.286632581477229E-2    4.870195441779292E-2   -1.337836349406698E-2    1.630410873024596E-1    5.021227967661521E-1
 6.565612666100000E9     4.260699902970337E-2    5.656391153885592E-1    4.974722325627598E-2   -1.295352618585705E-2    4.895727462492117E-2   -1.371059859748286E-2    1.644681981010053E-1    5.015019820831318E-1
 6.565625322125000E9     4.374465148980380E-2    5.653587915770121E-1    5.010622637955758E-2   -1.335120171790650E-2    4.928157263828394E-2   -1.391175337564868E-2    1.659575153582118E-1    5.009139845365497E-1
 6.565637978150000E9     4.495554150058105E-2    5.653064397149704E-1    5.044004206712687E-2   -1.346652850920142E-2    4.965513884064991E-2   -1.432081364551239E-2    1.676817219463700E-1    5.001473678271665E-1
 6.565650634175000E9     4.612999973461052E-2    5.651237965752299E-1    5.094946750890951E-2   -1.391602479489493E-2    5.009791544176221E-2   -1.445120796257920E-2    1.690399244818298E-1    4.997041040989106E-1
 6.565663290200000E9     4.730928868758608E-2    5.648631160393314E-1    5.135212921522590E-2   -1.415963745720881E-2    5.044536679673387E-2   -1.485661407247567E-2    1.706149928292896E-1    4.991544434950773E-1
 6.565675946225000E9     4.844705173776147E-2    5.647331691155950E-1    5.168568474354991E-2   -1.439075337888387E-2    5.084311371388701E-2   -1.509937607146737E-2    1.723177100080402E-1    4.983636015768127E-1
 6.565688602250000E9     4.961707649233113E-2    5.644985195520174E-1    5.203457148911476E-2   -1.481626378007346E-2    5.115021273420744E-2   -1.532668465969838E-2    1.738667432730841E-1    4.978009017317804E-1
