#  HZ   S   RI   R     50.00 
! Rohde & Schwarz Vector Network Analyzer 
! Rohde-Schwarz,ZNB20-2Port,1311601062101988,3.16
! Created: UTC 3/20/2024, 5:08:07 PM
! freq[Hz]                re:S11                  im:S11                  re:S21                  im:S21                  re:S12                  im:S12                  re:S22                  im:S22
 6.564367465000000E9    -6.204279889972166E-2    5.655964699866393E-1    2.807084339513406E-2   -4.776395482113408E-4    2.763179392558069E-2   -9.482565238487596E-4    3.749174337004481E-2    5.240804978301238E-1
 6.564381003325000E9    -6.106964474107476E-2    5.657124802969827E-1    2.823427032205524E-2   -5.197707238620867E-4    2.778921883390644E-2   -8.747606182679070E-4    3.882742064318165E-2    5.239423878058656E-1
 6.564394541650000E9    -5.996621092010753E-2    5.659929927322930E-1    2.835288867988989E-2   -5.710976255197384E-4    2.797269128282465E-2   -1.017684577202867E-3    4.000227984133427E-2    5.238850927215973E-1
 6.564408079975000E9    -5.890628699548769E-2    5.659640374579346E-1    2.852750771800231E-2   -4.957775718609760E-4    2.808888565750075E-2   -1.145921888265418E-3    4.122155780513014E-2    5.239865264091949E-1
 6.564421618300000E9    -5.776283268612974E-2    5.660160150963455E-1    2.869250995677011E-2   -4.977937786129755E-4    2.824116450401101E-2   -1.162908607999083E-3    4.238302013059106E-2    5.237774106168334E-1
 6.564435156625000E9    -5.671656662742559E-2    5.661590752301660E-1    2.894532802755465E-2   -7.654597469261458E-4    2.828634143368559E-2   -1.269482314334866E-3    4.350824992063602E-2    5.237070222581119E-1
 6.564448694950000E9    -5.571009826100350E-2    5.662559331465054E-1    2.888888020404472E-2   -7.774866148316092E-4    2.843047702363536E-2   -1.215309586657216E-3    4.471035445484789E-2    5.236499719790703E-1
 6.564462233275000E9    -5.450689649285852E-2    5.663920354889400E-1    2.911751833685745E-2   -7.935475334199473E-4    2.863473873693229E-2   -1.367898323543148E-3    4.595720514276600E-2    5.235292225730285E-1
 6.564475771600000E9    -5.353255326555102E-2    5.665625055482698E-1    2.912508453447426E-2   -1.005197620832504E-3    2.881130109515287E-2   -1.394069451751215E-3    4.706655660881126E-2    5.234263308236952E-1
 6.564489309925000E9    -5.225368930809578E-2    5.665312681023812E-1    2.932440079825247E-2   -1.053588533533783E-3    2.885695978334516E-2   -1.501342259840493E-3    4.835916367465078E-2    5.233639843340784E-1
 6.564502848250000E9    -5.136554962776246E-2    5.666379891754072E-1    2.945415920935893E-2   -1.048110485895017E-3    2.900667280667395E-2   -1.524223765748970E-3    4.951093616036845E-2    5.232204483950452E-1
 6.564516386575000E9    -5.016276143098326E-2    5.667071441075092E-1    2.954019324009616E-2   -1.156874269478153E-3    2.920798430792295E-2   -1.703520180462176E-3    5.069918308064572E-2    5.231690581160341E-1
 6.564529924900000E9    -4.916405438844618E-2    5.668991199377125E-1    2.980127477161731E-2   -1.149172759591967E-3    2.940692054587295E-2   -1.736278511962712E-3    5.202320723931731E-2    5.230268734464208E-1
 6.564543463225000E9    -4.801198008501237E-2    5.668963966243781E-1    2.991860980938861E-2   -1.308198605777303E-3    2.948085384649173E-2   -1.827718452830417E-3    5.316671523700359E-2    5.229220099030233E-1
 6.564557001550000E9    -4.699115387344257E-2    5.670788953748017E-1    3.026021483836751E-2   -1.294438677687255E-3    2.968754429026178E-2   -1.813263531263577E-3    5.426003138360951E-2    5.226930251566445E-1
 6.564570539875000E9    -4.579217505044662E-2    5.671003035430295E-1    3.030710880660490E-2   -1.518476567707656E-3    2.990903424670280E-2   -1.934915457780498E-3    5.560857902226294E-2    5.226532775636884E-1
 6.564584078200000E9    -4.476122388560012E-2    5.671735230152664E-1    3.053422630036440E-2   -1.449444338650634E-3    2.989131901925971E-2   -2.084490043327364E-3    5.663014434671335E-2    5.225926611131824E-1
 6.564597616525000E9    -4.372313987433946E-2    5.672581027145157E-1    3.054841970077769E-2   -1.664018363921964E-3    3.010158406979391E-2   -2.233338166832978E-3    5.791237969077050E-2    5.225693396478501E-1
 6.564611154850000E9    -4.261135005507868E-2    5.673835432809683E-1    3.091717260439637E-2   -1.690842133024373E-3    3.028034921777580E-2   -2.260843560640202E-3    5.896358167003164E-2    5.224099386314955E-1
 6.564624693175000E9    -4.148252996115857E-2    5.674017905760741E-1    3.091069774789117E-2   -1.731702229723737E-3    3.041148984336393E-2   -2.295035461561053E-3    6.044659261519401E-2    5.222565070537484E-1
 6.564638231500000E9    -4.037317337308983E-2    5.673952237809556E-1    3.111813544598657E-2   -1.950970777369379E-3    3.050232881834388E-2   -2.502522004765148E-3    6.152885289372226E-2    5.223422056817963E-1
 6.564651769825000E9    -3.938401973202849E-2    5.675792376237583E-1    3.135942218843248E-2   -1.921618098570322E-3    3.080982795944026E-2   -2.388713441656909E-3    6.293310599684236E-2    5.219669955374480E-1
 6.564665308150000E9    -3.831089728832180E-2    5.675410709935683E-1    3.139416001473642E-2   -2.127264896908581E-3    3.091264426832179E-2   -2.520276922017835E-3    6.395969040900497E-2    5.218057835515851E-1
 6.564678846475000E9    -3.726347667148221E-2    5.676306457222162E-1    3.162352011850477E-2   -2.131611469072629E-3    3.109732624747061E-2   -2.689597837180149E-3    6.527156832056707E-2    5.216417813445362E-1
 6.564692384800000E9    -3.603617372855505E-2    5.678151653880754E-1    3.188234848790676E-2   -2.201493476796993E-3    3.140565608816548E-2   -2.709461177235443E-3    6.650306062036565E-2    5.215844461196883E-1
 6.564705923125000E9    -3.491186571882755E-2    5.677401196802846E-1    3.199030096212619E-2   -2.322220546970699E-3    3.140328868662768E-2   -2.870305055102416E-3    6.782700040722674E-2    5.213858824779973E-1
 6.564719461450000E9    -3.396642967547130E-2    5.678039735488520E-1    3.223317475642089E-2   -2.483276686114987E-3    3.162790059820434E-2   -3.026706613631685E-3    6.911528556843619E-2    5.211809432276837E-1
 6.564732999775000E9    -3.271581274097332E-2    5.677246075441973E-1    3.235148155928245E-2   -2.458019622537094E-3    3.172635988908533E-2   -2.993542465973316E-3    7.027524796941471E-2    5.209955491300527E-1
 6.564746538100000E9    -3.168290839324441E-2    5.678723053159302E-1    3.247245403353156E-2   -2.713881984038283E-3    3.197868281555816E-2   -3.127654314788563E-3    7.153657567472217E-2    5.209051018540134E-1
 6.564760076425000E9    -3.062203762701998E-2    5.680030886668012E-1    3.270805719376866E-2   -2.704633088355989E-3    3.213585814306955E-2   -3.195007204187562E-3    7.270525069409713E-2    5.206966716146914E-1
 6.564773614750000E9    -2.952687767516664E-2    5.679881128137541E-1    3.283021617495980E-2   -2.846632730353894E-3    3.229873301873016E-2   -3.291738124129022E-3    7.403360151915728E-2    5.205862435599560E-1
 6.564787153075000E9    -2.840386504105132E-2    5.680407131449624E-1    3.307551813066986E-2   -2.917779284227032E-3    3.249332083274799E-2   -3.509714209707642E-3    7.533055923874310E-2    5.204260075385096E-1
 6.564800691400000E9    -2.726045185767420E-2    5.680411183990932E-1    3.335378877325790E-2   -3.040636019890849E-3    3.267532827807697E-2   -3.500063300680372E-3    7.654249624111524E-2    5.202405583719062E-1
 6.564814229725000E9    -2.615726662972351E-2    5.680691659961710E-1    3.335436707093588E-2   -3.173209839964015E-3    3.284647404377700E-2   -3.592997925743343E-3    7.782926776057704E-2    5.200396940890998E-1
 6.564827768050000E9    -2.508043778104737E-2    5.680828763690565E-1    3.362890015367138E-2   -3.190643325907673E-3    3.301921847885517E-2   -3.612118812617569E-3    7.918048437409968E-2    5.198451211651193E-1
 6.564841306375000E9    -2.397437501666100E-2    5.681511286574980E-1    3.383447951666863E-2   -3.282315290768206E-3    3.326888795326149E-2   -3.804545523601381E-3    8.024988971742668E-2    5.194817060018767E-1
 6.564854844700000E9    -2.291785085036798E-2    5.681574981402071E-1    3.394990780370945E-2   -3.452802926964633E-3    3.344400834042893E-2   -4.032821233473941E-3    8.182455704201505E-2    5.193333352421692E-1
 6.564868383025000E9    -2.178033163769290E-2    5.682284355667938E-1    3.420318259174526E-2   -3.354843125910719E-3    3.357402604066580E-2   -4.066439420943720E-3    8.302884918831142E-2    5.191736554967507E-1
 6.564881921350000E9    -2.062999022555716E-2    5.682350157080865E-1    3.432397970202459E-2   -3.594716066347556E-3    3.379999789546898E-2   -4.252465741846075E-3    8.418051335040387E-2    5.189463010903408E-1
 6.564895459675000E9    -1.949043100369499E-2    5.682279864924745E-1    3.445802948861035E-2   -3.730261941861135E-3    3.410961453549391E-2   -4.275736421118690E-3    8.556738840944597E-2    5.188487559802499E-1
 6.564908998000000E9    -1.836491143539412E-2    5.682871425910577E-1    3.475771327881657E-2   -3.942559063194913E-3    3.423455029008279E-2   -4.321660888931566E-3    8.697090832595064E-2    5.185438373424600E-1
 6.564922536325000E9    -1.721449111427512E-2    5.682911691807647E-1    3.500046537055856E-2   -4.141906237774854E-3    3.433972094491358E-2   -4.419669446170678E-3    8.818041381675795E-2    5.184863315774554E-1
 6.564936074650000E9    -1.620707386073708E-2    5.682619445563185E-1    3.521198434222268E-2   -4.132007928609212E-3    3.464354147364407E-2   -4.601970364592215E-3    8.925646695132011E-2    5.179319996237096E-1
 6.564949612975000E9    -1.508369782916562E-2    5.683813574911721E-1    3.541654567890256E-2   -4.249191035831418E-3    3.477280264534233E-2   -4.796649349495686E-3    9.080500456220239E-2    5.178411308884400E-1
 6.564963151300000E9    -1.390622950433661E-2    5.683039795158942E-1    3.559487512109245E-2   -4.403008680816277E-3    3.492878842133385E-2   -4.877449156005516E-3    9.196967054365189E-2    5.175871909664176E-1
 6.564976689625000E9    -1.279332746558228E-2    5.682746477047138E-1    3.586026123133885E-2   -4.604957242750161E-3    3.523820636036482E-2   -5.012555057371046E-3    9.337256166436032E-2    5.174200752189707E-1
 6.564990227950000E9    -1.165322303344691E-2    5.683141809940830E-1    3.611664542675458E-2   -4.608675922273144E-3    3.545588667543460E-2   -5.143184970502613E-3    9.464174133055510E-2    5.172935595492013E-1
 6.565003766275000E9    -1.048558857891395E-2    5.683214282226091E-1    3.634174896517203E-2   -4.662476294491938E-3    3.570314314407218E-2   -5.327143439152536E-3    9.599327981625499E-2    5.168323962436712E-1
 6.565017304600000E9    -9.431180860118600E-3    5.683373788658242E-1    3.655584690753418E-2   -4.792835949798136E-3    3.596800575769525E-2   -5.391588942597338E-3    9.734999249200411E-2    5.166960948477748E-1
 6.565030842925000E9    -8.287349462087559E-3    5.682634774322753E-1    3.669884790124521E-2   -4.941880692615202E-3    3.611617910195791E-2   -5.573097531862143E-3    9.860956202451270E-2    5.163504641010159E-1
 6.565044381250000E9    -7.223901821900685E-3    5.683458794498165E-1    3.685498639717742E-2   -5.103975059385738E-3    3.624812640579870E-2   -5.619032353670090E-3    9.989386560793810E-2    5.160986826102799E-1
 6.565057919575000E9    -6.008358622728392E-3    5.682755514759118E-1    3.707802797694727E-2   -5.284562684710121E-3    3.651131069922112E-2   -5.750879673740956E-3    1.014239619545091E-1    5.159355199806780E-1
 6.565071457900000E9    -4.945242136152078E-3    5.681491626373356E-1    3.743405566683413E-2   -5.178137762692173E-3    3.677684606274492E-2   -5.896853165693486E-3    1.028220969949828E-1    5.155911381160310E-1
 6.565084996225000E9    -3.788295600859805E-3    5.682997802011293E-1    3.774569435501834E-2   -5.433977253325726E-3    3.707227280962604E-2   -6.022042647960060E-3    1.042119650948952E-1    5.154340024860969E-1
 6.565098534550000E9    -2.667622116028083E-3    5.681878856084971E-1    3.785215945285508E-2   -5.559509555210268E-3    3.725859158835276E-2   -6.209238300896795E-3    1.053663641269509E-1    5.151540399896120E-1
 6.565112072875000E9    -1.588861484572475E-3    5.683124634643790E-1    3.814530969303383E-2   -5.874016630151113E-3    3.745958498425465E-2   -6.441641903746066E-3    1.068002422757637E-1    5.148158034603241E-1
 6.565125611200000E9    -4.038491346605488E-4    5.681426878668255E-1    3.847374679848855E-2   -5.892422269966252E-3    3.771163274495031E-2   -6.556079626441512E-3    1.080410533747059E-1    5.144275005222629E-1
 6.565139149525000E9     7.867279152083206E-4    5.681421877858184E-1    3.867373311173679E-2   -6.188124738729327E-3    3.787176174388775E-2   -6.679390948825124E-3    1.095004678451297E-1    5.141569262884504E-1
 6.565152687850000E9     1.896701308033980E-3    5.681159181744727E-1    3.883936047449014E-2   -6.277904279557086E-3    3.823019200139294E-2   -6.741088522479196E-3    1.109263546308936E-1    5.138654008683595E-1
 6.565166226175000E9     3.091490405098787E-3    5.680912859412088E-1    3.906727969963311E-2   -6.294246349553011E-3    3.852278851304840E-2   -6.918709473140656E-3    1.122148936328092E-1    5.134591391267482E-1
 6.565179764500000E9     4.177057832473075E-3    5.680608562766020E-1    3.934641875544004E-2   -6.558704869955078E-3    3.866443765856192E-2   -7.099470970524807E-3    1.135494568460038E-1    5.132505351494580E-1
 6.565193302825000E9     5.433370125020740E-3    5.680384457947794E-1    3.968300439892246E-2   -6.808919333317251E-3    3.895126177212070E-2   -7.231708753357082E-3    1.149993673303328E-1    5.128396138457367E-1
 6.565206841150000E9     6.570719539060038E-3    5.680149510223034E-1    3.989089441657308E-2   -6.799152826617736E-3    3.923970940299756E-2   -7.384212225682282E-3    1.164592175561887E-1    5.125471956078503E-1
 6.565220379475000E9     7.764971865165534E-3    5.678990068656766E-1    4.021666948690469E-2   -7.164430126266375E-3    3.953065451366081E-2   -7.581529246625140E-3    1.179197179729643E-1    5.121578117020010E-1
 6.565233917800000E9     8.890484960432352E-3    5.679243462827663E-1    4.041776190660511E-2   -7.335929168429627E-3    3.968080769998857E-2   -7.848243354655443E-3    1.191966102525677E-1    5.117285080812253E-1
 6.565247456125000E9     9.983397851718383E-3    5.679510634785422E-1    4.074336471545305E-2   -7.309349846988977E-3    3.998820854029077E-2   -7.968179346048999E-3    1.208191156007502E-1    5.113736398368829E-1
 6.565260994450000E9     1.110779374021450E-2    5.677858038241812E-1    4.105328740976204E-2   -7.520903803045612E-3    4.035829697288313E-2   -8.150409932127184E-3    1.222000837146344E-1    5.111001304589441E-1
 6.565274532775000E9     1.230967374694800E-2    5.676194255776046E-1    4.128564676336035E-2   -7.564649987341329E-3    4.047006580276710E-2   -8.303277057078876E-3    1.236187168569060E-1    5.106412765175281E-1
 6.565288071100000E9     1.354633689680564E-2    5.676424225314214E-1    4.143131069368130E-2   -7.836262158168053E-3    4.074588886344799E-2   -8.563307235137646E-3    1.251249802611381E-1    5.103002602101634E-1
 6.565301609425000E9     1.465712569935020E-2    5.676444667357655E-1    4.178867915835735E-2   -7.994863545813311E-3    4.112781960106090E-2   -8.671008708678807E-3    1.264653864210995E-1    5.098969264448109E-1
 6.565315147750000E9     1.579215839279082E-2    5.675097525110171E-1    4.206843600717620E-2   -8.356904291864599E-3    4.138655201830639E-2   -8.885955760264000E-3    1.280041880306549E-1    5.095559045250859E-1
 6.565328686075000E9     1.691142918002852E-2    5.673732919128259E-1    4.237453312179287E-2   -8.437555844227123E-3    4.165984912032996E-2   -9.054310873927125E-3    1.294882299818344E-1    5.091605948504515E-1
 6.565342224400000E9     1.801668085012744E-2    5.673134568340836E-1    4.266754803307193E-2   -8.663916663842757E-3    4.198835151374768E-2   -9.225669841324557E-3    1.309410869817649E-1    5.087865599089639E-1
 6.565355762725000E9     1.927402871971671E-2    5.672721675494525E-1    4.299361440818536E-2   -8.781429943161832E-3    4.218965429417580E-2   -9.446774773098304E-3    1.323188811767369E-1    5.082704606736891E-1
 6.565369301050000E9     2.045195286445861E-2    5.672251970119009E-1    4.335569518472317E-2   -9.017794507338776E-3    4.253480419644573E-2   -9.557897366085595E-3    1.338345450735845E-1    5.078270272148340E-1
 6.565382839375000E9     2.158885504746540E-2    5.671512002478883E-1    4.358119821422139E-2   -9.296299420692992E-3    4.278515700787492E-2   -9.854744445529697E-3    1.353202837680919E-1    5.074371610029019E-1
 6.565396377700000E9     2.284853934826174E-2    5.670433724651384E-1    4.380716096061105E-2   -9.407164817381651E-3    4.317720005690473E-2   -1.004416225313764E-2    1.368206957265452E-1    5.069183110435669E-1
 6.565409916025000E9     2.405559467465268E-2    5.669357427744454E-1    4.427022763280088E-2   -9.735119789642114E-3    4.353622231840529E-2   -1.028157050513984E-2    1.384557437085420E-1    5.065312522035240E-1
 6.565423454350000E9     2.520063283534243E-2    5.668360905059208E-1    4.468272593161778E-2   -9.997213173126301E-3    4.383602871937064E-2   -1.045694807487638E-2    1.398725859488758E-1    5.060809471723896E-1
 6.565436992675000E9     2.639473345074785E-2    5.666851641450851E-1    4.475697107568206E-2   -1.005181455239299E-2    4.413016744283033E-2   -1.063705385105702E-2    1.414005212236407E-1    5.057976427826184E-1
 6.565450531000000E9     2.752906996056255E-2    5.665098591632286E-1    4.513924855243798E-2   -1.043270861840159E-2    4.450882336909404E-2   -1.096345769169864E-2    1.428493462890517E-1    5.051673589466320E-1
 6.565464069325000E9     2.870687754994174E-2    5.664341017758679E-1    4.554505531414811E-2   -1.058567830347229E-2    4.481805370215255E-2   -1.117076539960223E-2    1.445485258090705E-1    5.046064607450425E-1
 6.565477607650000E9     2.994496677985973E-2    5.663233239713225E-1    4.599078848716563E-2   -1.059956593683955E-2    4.512527371852266E-2   -1.140063726608626E-2    1.460795935505481E-1    5.040672573988956E-1
 6.565491145975000E9     3.121895506442576E-2    5.663022731807176E-1    4.634268529826305E-2   -1.108571837298722E-2    4.551931120811230E-2   -1.155497893434321E-2    1.476320657584048E-1    5.035500971820668E-1
 6.565504684300000E9     3.239470357904737E-2    5.660821074225589E-1    4.656529635392143E-2   -1.128358153011473E-2    4.575883687635763E-2   -1.194252914311055E-2    1.491091325447790E-1    5.031195303654281E-1
 6.565518222625000E9     3.361586369396132E-2    5.660180227661863E-1    4.698559052519779E-2   -1.162367118924157E-2    4.615873386584400E-2   -1.218635257520732E-2    1.506731783174940E-1    5.025426443365161E-1
 6.565531760950000E9     3.469610563654531E-2    5.658604152703700E-1    4.729958327793134E-2   -1.188727843216309E-2    4.650389056217915E-2   -1.241388921464404E-2    1.522483324614199E-1    5.018450293347875E-1
 6.565545299275000E9     3.600244874539683E-2    5.656359036618841E-1    4.777496272161934E-2   -1.208280557906741E-2    4.689052498297740E-2   -1.259740789901819E-2    1.538190358646276E-1    5.014170192658448E-1
 6.565558837600000E9     3.725197330986146E-2    5.656052594700934E-1    4.807217004998625E-2   -1.235917614854568E-2    4.719143993647703E-2   -1.291214945770980E-2    1.554097203068454E-1    5.008480293136273E-1
 6.565572375925000E9     3.841859571032009E-2    5.653559916454045E-1    4.831506100163875E-2   -1.259240088488246E-2    4.767015729932526E-2   -1.316235615575787E-2    1.570343899272288E-1    5.002468549252463E-1
 6.565585914250000E9     3.962234258282274E-2    5.653951884416198E-1    4.871336281993766E-2   -1.286010334600209E-2    4.794772347841786E-2   -1.349165401283275E-2    1.587566864292012E-1    4.995690604481601E-1
