#  HZ   S   RI   R     50.00 
! Rohde & Schwarz Vector Network Analyzer 
! Rohde-Schwarz,ZNB20-2Port,1311601062101988,3.16
! Created: UTC 12/23/2023, 3:51:34 AM
! freq[Hz]                re:S11                  im:S11                  re:S21                  im:S21                  re:S12                  im:S12                  re:S22                  im:S22
 7.836978555000000E9     5.650462265091767E-1    3.710929020948227E-2    1.196784033358759E-3    3.765243558893063E-3    1.204279828603081E-3    3.684768821024507E-3    4.677305130330983E-1   -2.687772332746834E-1
 7.837011683275000E9     5.651448710401016E-1    3.504198774259803E-2    1.196120903743559E-3    3.773333359540898E-3    1.216646835438258E-3    3.695462296635095E-3    4.665693817453770E-1   -2.707950172878197E-1
 7.837044811550000E9     5.653131201244402E-1    3.282880539136680E-2    1.224720340888968E-3    3.772942569256885E-3    1.257038448715485E-3    3.695976879070762E-3    4.653153009858392E-1   -2.729366435605795E-1
 7.837077939825000E9     5.653297511418884E-1    3.068346691440176E-2    1.254861828591670E-3    3.788901541196644E-3    1.282580035201645E-3    3.714131497991992E-3    4.643087951783147E-1   -2.748276768698018E-1
 7.837111068100000E9     5.655102532454250E-1    2.842295853078813E-2    1.286295878608071E-3    3.760081598443933E-3    1.284641133897512E-3    3.731335240425924E-3    4.630913000257542E-1   -2.768223374738200E-1
 7.837144196375000E9     5.656110573550428E-1    2.622723778868451E-2    1.281960295021611E-3    3.771904412473835E-3    1.279189348820712E-3    3.678167434787573E-3    4.620250323410238E-1   -2.789443540443136E-1
 7.837177324650000E9     5.657320697639059E-1    2.402461238522118E-2    1.305601439915381E-3    3.779260389799959E-3    1.292723076338313E-3    3.676805104640047E-3    4.607254273238502E-1   -2.808091965250827E-1
 7.837210452925000E9     5.659100821388252E-1    2.186663434569422E-2    1.334639950945692E-3    3.757756536244557E-3    1.324384041072278E-3    3.732368940265559E-3    4.594275290636093E-1   -2.828871870261699E-1
 7.837243581200000E9     5.659876480331447E-1    1.958542737868527E-2    1.342397103207397E-3    3.786696285130345E-3    1.350264153452142E-3    3.693680196920473E-3    4.583054530426193E-1   -2.847999165182007E-1
 7.837276709475000E9     5.661148132147036E-1    1.755792037265097E-2    1.342057211666225E-3    3.767161941560016E-3    1.373775116689537E-3    3.706835605704781E-3    4.571229701834894E-1   -2.867187233832051E-1
 7.837309837750000E9     5.661343887569374E-1    1.526515217278489E-2    1.368923125539892E-3    3.785617729321474E-3    1.397683039218249E-3    3.703129568546970E-3    4.558205224318568E-1   -2.886945834741959E-1
 7.837342966025000E9     5.663384620728981E-1    1.297944981102598E-2    1.390972899635779E-3    3.754708386615366E-3    1.430060767677216E-3    3.681879387303554E-3    4.545478990223252E-1   -2.907624788744888E-1
 7.837376094300000E9     5.663197364736534E-1    1.092140135995515E-2    1.398716181773357E-3    3.774201939392893E-3    1.438164975238931E-3    3.709186128008932E-3    4.534310129433776E-1   -2.927862048381586E-1
 7.837409222575000E9     5.662798419321239E-1    8.738886751167727E-3    1.436947844826974E-3    3.766012962856224E-3    1.437423748329122E-3    3.705982938393272E-3    4.521863312582030E-1   -2.945699377801948E-1
 7.837442350850000E9     5.663616852560814E-1    6.403073226470444E-3    1.478815929490905E-3    3.771852948632933E-3    1.462460216269951E-3    3.740320238596896E-3    4.509037419724324E-1   -2.964803395629669E-1
 7.837475479125000E9     5.663716850080023E-1    4.297317830593058E-3    1.464089500867534E-3    3.770540247590758E-3    1.484599665869133E-3    3.728387163481356E-3    4.494965712172803E-1   -2.985124687302860E-1
 7.837508607400000E9     5.664872328769742E-1    2.147862369399407E-3    1.500576590476280E-3    3.760777796907057E-3    1.506442523833493E-3    3.682127862195708E-3    4.483382268730458E-1   -3.003839024005607E-1
 7.837541735675000E9     5.664257846273463E-1   -7.995524314267960E-5    1.502811630175621E-3    3.755711429369573E-3    1.533942152359051E-3    3.707570655612542E-3    4.469619117927210E-1   -3.023961885760775E-1
 7.837574863950000E9     5.664414137158482E-1   -2.384915320579602E-3    1.556182512766273E-3    3.764931571809199E-3    1.526000773975223E-3    3.704269481943856E-3    4.457250213578792E-1   -3.042779529979068E-1
 7.837607992225000E9     5.664531082430420E-1   -4.580024028741781E-3    1.569923214008752E-3    3.754869808712034E-3    1.567472301545962E-3    3.704755013826310E-3    4.444187387023826E-1   -3.062029503937153E-1
 7.837641120500000E9     5.664991749545264E-1   -6.693290365135431E-3    1.564609101844697E-3    3.749726824097047E-3    1.562890290268693E-3    3.677663833150765E-3    4.430471699450508E-1   -3.081215808110341E-1
 7.837674248775000E9     5.662138691056545E-1   -8.975444968412049E-3    1.607830894376326E-3    3.748995707727244E-3    1.590900710137871E-3    3.694609541314838E-3    4.417469015048415E-1   -3.100832134775560E-1
 7.837707377050000E9     5.663511043239496E-1   -1.114843159752505E-2    1.612845301296110E-3    3.767801499590519E-3    1.606486653125806E-3    3.681661015906794E-3    4.403144095619956E-1   -3.121019595277799E-1
 7.837740505325000E9     5.665247713421541E-1   -1.344169177581723E-2    1.633739839054601E-3    3.743457269058153E-3    1.625778683313262E-3    3.708516134364678E-3    4.390578137836488E-1   -3.138264578255637E-1
 7.837773633600000E9     5.663040730626002E-1   -1.556325280849265E-2    1.652441061213877E-3    3.774784336816098E-3    1.665485152210441E-3    3.689588103147928E-3    4.377553443716860E-1   -3.156648593740624E-1
 7.837806761875000E9     5.663148956160232E-1   -1.781455405511271E-2    1.679156819880173E-3    3.763741361009224E-3    1.664452896209334E-3    3.671696532833277E-3    4.365002293189192E-1   -3.176109616008145E-1
 7.837839890150000E9     5.662590165862769E-1   -2.009762468446826E-2    1.698182584099412E-3    3.744239557432665E-3    1.714297263856397E-3    3.667120930180568E-3    4.350609449639428E-1   -3.194722024541747E-1
 7.837873018425000E9     5.662146875092248E-1   -2.213234185733521E-2    1.709117094835139E-3    3.734284605994308E-3    1.728973367368026E-3    3.701133392725555E-3    4.337073040495575E-1   -3.214318361874501E-1
 7.837906146700000E9     5.660030305249145E-1   -2.450506061476731E-2    1.719218401338417E-3    3.745212711923817E-3    1.746885345993603E-3    3.656609622506087E-3    4.322872169520502E-1   -3.233518632175603E-1
 7.837939274975000E9     5.661030592014018E-1   -2.662306047002604E-2    1.764237656605457E-3    3.746087425659283E-3    1.763247085715073E-3    3.692124695181425E-3    4.309735160482290E-1   -3.250361221568855E-1
 7.837972403250000E9     5.658032592564360E-1   -2.890335174049741E-2    1.757943203062916E-3    3.732290568013930E-3    1.779286716660060E-3    3.654059992246996E-3    4.296416493909685E-1   -3.268950286474758E-1
 7.838005531525000E9     5.657314954647045E-1   -3.106399173929967E-2    1.800300525731749E-3    3.740089095444182E-3    1.785685246034650E-3    3.707324004380386E-3    4.281378299120771E-1   -3.287636974253999E-1
 7.838038659800000E9     5.656466017822122E-1   -3.315912111504681E-2    1.819141962743416E-3    3.757350280307607E-3    1.807695881823611E-3    3.679977874111845E-3    4.268153935742942E-1   -3.307308495187898E-1
 7.838071788075000E9     5.655691015250981E-1   -3.547056349561582E-2    1.854396894535132E-3    3.744475706673641E-3    1.839475884296419E-3    3.665269564341397E-3    4.253899046952778E-1   -3.325340582653886E-1
 7.838104916350000E9     5.653102423632074E-1   -3.767039268767204E-2    1.868046925675576E-3    3.743227973182316E-3    1.860428143758815E-3    3.678090172201806E-3    4.238707039967489E-1   -3.344876228336750E-1
 7.838138044625000E9     5.651448196249915E-1   -3.990136205054698E-2    1.860428399657204E-3    3.757722690298416E-3    1.863887958404984E-3    3.662791537900657E-3    4.224533288258744E-1   -3.361051079475919E-1
 7.838171172900000E9     5.650137794702905E-1   -4.213459436368095E-2    1.908110080728451E-3    3.730073068766204E-3    1.882875980572126E-3    3.680029099059842E-3    4.210193557781323E-1   -3.380048525503895E-1
 7.838204301175000E9     5.650333141172582E-1   -4.420574622494928E-2    1.912580052812255E-3    3.740248260813099E-3    1.879625794770465E-3    3.651996376434659E-3    4.196463480906797E-1   -3.398485200060649E-1
 7.838237429450000E9     5.647534055223007E-1   -4.641414334690450E-2    1.940755783747919E-3    3.716212476074278E-3    1.919616418959525E-3    3.683572904501228E-3    4.179862313754659E-1   -3.416789878901815E-1
 7.838270557725000E9     5.646346329031784E-1   -4.864134542144608E-2    1.941336758786990E-3    3.745997657013854E-3    1.969193628007187E-3    3.663277920827308E-3    4.165704799534747E-1   -3.435258348193825E-1
 7.838303686000000E9     5.644603375752787E-1   -5.080634133519805E-2    1.961568703059901E-3    3.736809961870143E-3    1.957741960162426E-3    3.698378519094600E-3    4.151450631084138E-1   -3.452388419274964E-1
 7.838336814275000E9     5.642773934047848E-1   -5.319505503710770E-2    2.012166194730262E-3    3.716531524564733E-3    2.008316350080201E-3    3.662164360286446E-3    4.136657973505735E-1   -3.471317564981922E-1
 7.838369942550000E9     5.640143575176265E-1   -5.529635081428923E-2    1.996331775821050E-3    3.728630302954259E-3    2.007956597483666E-3    3.664920707208555E-3    4.122410793052533E-1   -3.487729225981309E-1
 7.838403070825000E9     5.638319777820275E-1   -5.749916434747923E-2    2.053215577862419E-3    3.712256822501802E-3    2.021137802558014E-3    3.672237929643368E-3    4.107257629704738E-1   -3.506235899105862E-1
 7.838436199100000E9     5.637911284656452E-1   -5.968383281290288E-2    2.058120495445403E-3    3.727028483870928E-3    2.072306444386397E-3    3.659192970938903E-3    4.091151085958972E-1   -3.523937893618653E-1
 7.838469327375000E9     5.633851489866292E-1   -6.182198392563730E-2    2.079126014038023E-3    3.734556164721422E-3    2.078198700325259E-3    3.682029028259712E-3    4.077497042870256E-1   -3.539743699713917E-1
 7.838502455650000E9     5.629988298780857E-1   -6.413155919191867E-2    2.091658680002965E-3    3.721421498205848E-3    2.093687954441855E-3    3.628317919725627E-3    4.061991595533301E-1   -3.559435362870763E-1
 7.838535583925000E9     5.629017440127192E-1   -6.629944627508975E-2    2.131523427731613E-3    3.719491285377452E-3    2.124291612252565E-3    3.653226158882733E-3    4.047286001593962E-1   -3.576933870362144E-1
 7.838568712200000E9     5.626541312323523E-1   -6.842509877225186E-2    2.167113078127738E-3    3.713692172981541E-3    2.175914994984671E-3    3.635254258099567E-3    4.030815213587949E-1   -3.593286806455745E-1
 7.838601840475000E9     5.623290646253862E-1   -7.073089938134677E-2    2.186228900126241E-3    3.701683125239962E-3    2.156399078982016E-3    3.660056331531717E-3    4.015640556124878E-1   -3.613239201708499E-1
 7.838634968750000E9     5.621338259762345E-1   -7.288787168219978E-2    2.231650618362321E-3    3.703683995433207E-3    2.196913977042976E-3    3.637626042786748E-3    4.001111613204140E-1   -3.628785142019899E-1
 7.838668097025000E9     5.618093574625656E-1   -7.498333248833106E-2    2.222243885038634E-3    3.706081271501225E-3    2.184649405438384E-3    3.673079463331656E-3    3.985168165071835E-1   -3.645955517029029E-1
 7.838701225300000E9     5.614634804343978E-1   -7.728349771099076E-2    2.247406100035152E-3    3.721629418525629E-3    2.234421004820893E-3    3.647092972143853E-3    3.968646012357404E-1   -3.662134213999904E-1
 7.838734353575000E9     5.611548365684551E-1   -7.947072655977680E-2    2.270289034445597E-3    3.712725396753979E-3    2.261932803420249E-3    3.645473212901840E-3    3.953919634093830E-1   -3.680077549444560E-1
 7.838767481850000E9     5.608932158427405E-1   -8.172815420045987E-2    2.292310698767613E-3    3.702335792345136E-3    2.289171040507689E-3    3.634584742468362E-3    3.937625558723977E-1   -3.697787310303746E-1
 7.838800610125000E9     5.605912483337507E-1   -8.382639709238596E-2    2.326591064695652E-3    3.700071119986716E-3    2.282414094890780E-3    3.632072787257858E-3    3.920612664187106E-1   -3.714256994874039E-1
 7.838833738400000E9     5.602751981728863E-1   -8.594424504821539E-2    2.352905007670636E-3    3.689968193992995E-3    2.316352459612717E-3    3.642045898913939E-3    3.905504765935076E-1   -3.731796752810693E-1
 7.838866866675000E9     5.598513027796936E-1   -8.816802106076740E-2    2.369506501726567E-3    3.691777192368313E-3    2.326653157682673E-3    3.664383604691695E-3    3.890181911265742E-1   -3.747837857985681E-1
 7.838899994950000E9     5.596785269422427E-1   -9.044654799458285E-2    2.380509720962770E-3    3.705246452103114E-3    2.384774826412703E-3    3.649573999488625E-3    3.873139738724919E-1   -3.766205402769179E-1
 7.838933123225000E9     5.592795909429659E-1   -9.261811140111745E-2    2.390496988993039E-3    3.697714305254778E-3    2.404572909139371E-3    3.622208535335645E-3    3.857502407205974E-1   -3.782128522504842E-1
 7.838966251500000E9     5.588040886276120E-1   -9.477615796416010E-2    2.437767616637645E-3    3.681180954737605E-3    2.403923701126415E-3    3.636520921011501E-3    3.840588982078821E-1   -3.797263489255323E-1
 7.838999379775000E9     5.586181042248582E-1   -9.697536045923080E-2    2.457115877685273E-3    3.662439778910889E-3    2.421270152996380E-3    3.634847879534474E-3    3.824307151474738E-1   -3.815809322634240E-1
 7.839032508050000E9     5.581449716921394E-1   -9.901686333972147E-2    2.475618456039969E-3    3.682861103570591E-3    2.443557392686304E-3    3.618388304216113E-3    3.809964417484779E-1   -3.831660146609716E-1
 7.839065636325000E9     5.578047075644900E-1   -1.013428467460760E-1    2.495031516278977E-3    3.691579971394256E-3    2.499573641119946E-3    3.622757779394038E-3    3.791995958680338E-1   -3.847755443015810E-1
 7.839098764600000E9     5.574049128522641E-1   -1.035592952171148E-1    2.516069544962127E-3    3.690274939752946E-3    2.469428073364323E-3    3.604427513910779E-3    3.777736169520571E-1   -3.863468702669418E-1
 7.839131892875000E9     5.569783087267633E-1   -1.056866453479503E-1    2.555522851070246E-3    3.667373617689062E-3    2.523477667119394E-3    3.628810209207856E-3    3.758984705340622E-1   -3.879659073290525E-1
 7.839165021150000E9     5.564560046415764E-1   -1.079298719528599E-1    2.571950326630922E-3    3.672346804890122E-3    2.538461051033491E-3    3.598318615158009E-3    3.741411205022042E-1   -3.897420711231244E-1
 7.839198149425000E9     5.558936866888052E-1   -1.101030610399984E-1    2.601828967813051E-3    3.664883405337048E-3    2.579198913257867E-3    3.592785959286209E-3    3.725345661507882E-1   -3.912394987656427E-1
 7.839231277700000E9     5.555313805393278E-1   -1.123555193393142E-1    2.601838082682900E-3    3.674954241489887E-3    2.590778042546096E-3    3.622719635882924E-3    3.708894469038759E-1   -3.927572153532181E-1
 7.839264405975000E9     5.552061834368407E-1   -1.144011859666947E-1    2.646856831763148E-3    3.654075326893119E-3    2.620748777681653E-3    3.611429569832314E-3    3.693299371158424E-1   -3.946560520599215E-1
 7.839297534250000E9     5.548390560718998E-1   -1.165575314599781E-1    2.648800455416382E-3    3.657165110857875E-3    2.680744465793713E-3    3.646536489923278E-3    3.675445823766069E-1   -3.959863998012091E-1
 7.839330662525000E9     5.543286059664889E-1   -1.188477394446512E-1    2.681557576646617E-3    3.680847888943754E-3    2.688152134997304E-3    3.617109609630101E-3    3.658446685488405E-1   -3.976546131623516E-1
 7.839363790800000E9     5.537709393371623E-1   -1.208782256650465E-1    2.705441499386995E-3    3.656452520060633E-3    2.690954179478138E-3    3.622344633589947E-3    3.641909187442186E-1   -3.991809438983712E-1
 7.839396919075000E9     5.532603735491619E-1   -1.231001616146079E-1    2.745706894526900E-3    3.647577546674062E-3    2.722344423798212E-3    3.605275231243078E-3    3.623642907266171E-1   -4.007632843518629E-1
 7.839430047350000E9     5.528770767801162E-1   -1.252843239659577E-1    2.773521074977867E-3    3.651379886312695E-3    2.732652127985600E-3    3.601794481822075E-3    3.605967865442730E-1   -4.024346747297208E-1
 7.839463175625000E9     5.523842664291025E-1   -1.274760968926159E-1    2.807432520636291E-3    3.657707809526059E-3    2.760260101240376E-3    3.637471647189496E-3    3.590490064855175E-1   -4.038843478944766E-1
 7.839496303900000E9     5.519614279990068E-1   -1.296236521326990E-1    2.815870395320192E-3    3.639162673226873E-3    2.794897463989722E-3    3.622931529550175E-3    3.571417501898148E-1   -4.054449867211862E-1
 7.839529432175000E9     5.513407893915067E-1   -1.318206841308644E-1    2.841170030893128E-3    3.632012785569455E-3    2.837012746907802E-3    3.627154817679716E-3    3.556058873067652E-1   -4.069661462495674E-1
 7.839562560450000E9     5.507198272578968E-1   -1.339079459135764E-1    2.879029242924369E-3    3.650760550550927E-3    2.846836521215860E-3    3.602845795998039E-3    3.537831619108125E-1   -4.085809040798569E-1
 7.839595688725000E9     5.501752617428731E-1   -1.361831333545251E-1    2.899344209854072E-3    3.633240115147259E-3    2.865673913732805E-3    3.611547542867263E-3    3.520817211336439E-1   -4.099287418544896E-1
 7.839628817000000E9     5.496878349536528E-1   -1.382758857231158E-1    2.942501158128839E-3    3.663774674681179E-3    2.910461028463106E-3    3.603354059709127E-3    3.502311500556362E-1   -4.116942768857373E-1
 7.839661945275000E9     5.492579190567091E-1   -1.404927217690304E-1    2.959344676359148E-3    3.621955938221079E-3    2.904389048820073E-3    3.571097249247682E-3    3.484960099066960E-1   -4.131594434646022E-1
 7.839695073550000E9     5.485942031538853E-1   -1.425277918294210E-1    2.974131239063256E-3    3.641370677337072E-3    2.950051299157814E-3    3.577013747951012E-3    3.467064215746521E-1   -4.146092469945401E-1
 7.839728201825000E9     5.479405240156177E-1   -1.449277587490984E-1    3.026772847841772E-3    3.618260146217279E-3    2.957540595851791E-3    3.621164539452093E-3    3.450741575748921E-1   -4.160264404445932E-1
 7.839761330100000E9     5.474245041226214E-1   -1.469783773112071E-1    3.056777438082950E-3    3.642408039318912E-3    3.019574614722857E-3    3.632048044002431E-3    3.431956331302399E-1   -4.176499617865958E-1
 7.839794458375000E9     5.467742974122592E-1   -1.490763250147232E-1    3.080867249532621E-3    3.623238530731800E-3    3.071359671030708E-3    3.561184258441335E-3    3.412980122832404E-1   -4.191732703569294E-1
 7.839827586650000E9     5.463505493788708E-1   -1.511435840658368E-1    3.083399238889941E-3    3.624932771186068E-3    3.091572453187624E-3    3.606336651606281E-3    3.395315161092398E-1   -4.206447565859930E-1
 7.839860714925000E9     5.456798830114405E-1   -1.533773105689165E-1    3.122674652731828E-3    3.607295015184638E-3    3.078723872053888E-3    3.618822401837659E-3    3.377021244844333E-1   -4.220237623786216E-1
 7.839893843200000E9     5.450480186379150E-1   -1.553815546388170E-1    3.196665744575692E-3    3.612236776780132E-3    3.109519830963452E-3    3.601738422023045E-3    3.358405827553655E-1   -4.234948243545888E-1
 7.839926971475000E9     5.443120390927890E-1   -1.576139520279588E-1    3.192843789650546E-3    3.609280736683182E-3    3.142370681360844E-3    3.574055933241347E-3    3.341340836819571E-1   -4.248065174029041E-1
 7.839960099750000E9     5.437841798324842E-1   -1.598406932017935E-1    3.216687383990057E-3    3.620053202056635E-3    3.133639967554836E-3    3.597035580067243E-3    3.322363897766975E-1   -4.263600629988149E-1
