#  HZ   S   RI   R     50.00 
! Rohde & Schwarz Vector Network Analyzer 
! Rohde-Schwarz,ZNB20-2Port,1311601062101988,3.16
! Created: UTC 12/23/2023, 3:52:05 AM
! freq[Hz]                re:S11                  im:S11                  re:S21                  im:S21                  re:S12                  im:S12                  re:S22                  im:S22
 7.836821814000000E9     5.640657933040735E-1    4.766567611433716E-2    1.105557525300298E-3    3.775104863380859E-3    1.135220417170499E-3    3.716040164156947E-3    4.731587427146499E-1   -2.591897730587953E-1
 7.836855727625000E9     5.643434618352163E-1    4.540914284746507E-2    1.121859481157709E-3    3.779603586144711E-3    1.126763191269240E-3    3.710703271384754E-3    4.719466764843428E-1   -2.612430036401865E-1
 7.836889641250000E9     5.643908544354795E-1    4.306229166161778E-2    1.113604438868870E-3    3.774201028849056E-3    1.205992103511518E-3    3.713730444792885E-3    4.708032816065903E-1   -2.632849429859326E-1
 7.836923554875000E9     5.645748881714875E-1    4.071498709727896E-2    1.166846980653872E-3    3.787965454294133E-3    1.189588770438797E-3    3.698120378200514E-3    4.695948972115411E-1   -2.652893458208808E-1
 7.836957468500000E9     5.648451613686976E-1    3.867976432257771E-2    1.179222081227043E-3    3.750793810901370E-3    1.226218105255729E-3    3.704821012146736E-3    4.683750081837594E-1   -2.674275930742875E-1
 7.836991382125000E9     5.649546250490061E-1    3.649391776711110E-2    1.215928132449923E-3    3.766995193249534E-3    1.216262514082409E-3    3.705053220159159E-3    4.673486097798991E-1   -2.695518347354091E-1
 7.837025295750000E9     5.651412296680577E-1    3.419609752555326E-2    1.239904765276350E-3    3.770771483020396E-3    1.207827863916979E-3    3.689464513197803E-3    4.659968926714164E-1   -2.716657470714825E-1
 7.837059209375000E9     5.654065285639531E-1    3.206780086370616E-2    1.232444789848047E-3    3.766403023599592E-3    1.265288909653344E-3    3.711460233764200E-3    4.649555797867957E-1   -2.737623615550434E-1
 7.837093123000000E9     5.655988783483927E-1    2.965987042925608E-2    1.260924110762546E-3    3.792958156592786E-3    1.291357227076531E-3    3.716766092350543E-3    4.636932954250178E-1   -2.757362562594196E-1
 7.837127036625000E9     5.655303267380090E-1    2.733682132726248E-2    1.290425744626334E-3    3.770357325544979E-3    1.308463274599291E-3    3.703241661323290E-3    4.624625677391696E-1   -2.777141819200094E-1
 7.837160950250000E9     5.657259565767702E-1    2.526881017597791E-2    1.284716936910964E-3    3.794107196944829E-3    1.309608929441328E-3    3.703960536366396E-3    4.613169749819904E-1   -2.799690813700585E-1
 7.837194863875000E9     5.657951426524238E-1    2.295824349861594E-2    1.328723816411372E-3    3.765523367219328E-3    1.329101499861066E-3    3.674034653710099E-3    4.600504603277015E-1   -2.817856369178083E-1
 7.837228777500000E9     5.658533990676622E-1    2.068755282092894E-2    1.330177848250324E-3    3.770367517544708E-3    1.348163712901103E-3    3.726032245666512E-3    4.588508801766699E-1   -2.838758190616082E-1
 7.837262691125000E9     5.660128922305127E-1    1.831316084847721E-2    1.348681078635817E-3    3.769514478830809E-3    1.354555022946242E-3    3.703648605237294E-3    4.575532959076395E-1   -2.860147126358903E-1
 7.837296604750000E9     5.660493774953679E-1    1.602729762873830E-2    1.404118764719416E-3    3.781990007025765E-3    1.401308994103424E-3    3.703784229248107E-3    4.562241898069992E-1   -2.880098303890670E-1
 7.837330518375000E9     5.662676387706409E-1    1.374965129827607E-2    1.400441964072815E-3    3.792834635140470E-3    1.402887528425191E-3    3.677679560148146E-3    4.551383838423251E-1   -2.899000061471028E-1
 7.837364432000000E9     5.663348448893413E-1    1.165783985832686E-2    1.416467146274087E-3    3.753819656642411E-3    1.441009166949075E-3    3.695433170876971E-3    4.539251748549465E-1   -2.919392998855296E-1
 7.837398345625000E9     5.663973965428847E-1    9.330758796479006E-3    1.453283667990769E-3    3.771856178389809E-3    1.444367498196886E-3    3.692515602770774E-3    4.525389671533177E-1   -2.940836253560579E-1
 7.837432259250000E9     5.663361125446099E-1    7.168030537500663E-3    1.467311421710938E-3    3.749224759672010E-3    1.498922065368667E-3    3.690850497445417E-3    4.511766981487119E-1   -2.960271266472405E-1
 7.837466172875000E9     5.663942476669885E-1    4.904486383436147E-3    1.475442996421903E-3    3.755096721480309E-3    1.460595354269109E-3    3.700278670383932E-3    4.500100392413118E-1   -2.980252554096245E-1
 7.837500086500000E9     5.665758803743609E-1    2.639423969465673E-3    1.492101476239072E-3    3.752741600961956E-3    1.484763124476551E-3    3.717860418870971E-3    4.486800542831328E-1   -2.998082972844639E-1
 7.837534000125000E9     5.663519050513967E-1    5.689074027035350E-4    1.511918683410503E-3    3.743078363118174E-3    1.518001731958378E-3    3.660987492295983E-3    4.473602728759772E-1   -3.019556445854060E-1
 7.837567913750000E9     5.664781784597255E-1   -1.878985644137526E-3    1.544608089476514E-3    3.762363460209660E-3    1.548895138564737E-3    3.666934443973376E-3    4.460414227610431E-1   -3.037743408972843E-1
 7.837601827375000E9     5.664853216038855E-1   -4.114818925832799E-3    1.517062645330409E-3    3.755130436715483E-3    1.567402179979130E-3    3.683484575984145E-3    4.445924611641253E-1   -3.058832115719181E-1
 7.837635741000000E9     5.664229786456451E-1   -6.464753580594532E-3    1.563685868263201E-3    3.741499036220732E-3    1.581188956581582E-3    3.682836927355196E-3    4.433327466893893E-1   -3.077334613709550E-1
 7.837669654625000E9     5.665700225337196E-1   -8.747686938478300E-3    1.606206589030447E-3    3.754309773339024E-3    1.582053706055201E-3    3.648941495397418E-3    4.420981470584030E-1   -3.097893277521565E-1
 7.837703568250000E9     5.664166563854973E-1   -1.083838563997680E-2    1.615895963962785E-3    3.756316856056335E-3    1.614867690483107E-3    3.694186108893732E-3    4.406399100383613E-1   -3.117743603939528E-1
 7.837737481875000E9     5.663633376678818E-1   -1.321117616148259E-2    1.647802027521632E-3    3.724324787176582E-3    1.642710952121900E-3    3.687694856015384E-3    4.392848348389933E-1   -3.136884147890352E-1
 7.837771395500000E9     5.663478617840536E-1   -1.543516071897526E-2    1.632881316149804E-3    3.748034987520405E-3    1.659068127937015E-3    3.658332900676106E-3    4.377686764545800E-1   -3.157051005368534E-1
 7.837805309125000E9     5.663727965296963E-1   -1.774210984681723E-2    1.695155670304056E-3    3.765183938968581E-3    1.676705027805002E-3    3.706836281177397E-3    4.365909902288895E-1   -3.175372894417807E-1
 7.837839222750000E9     5.663153048927828E-1   -2.000352094983057E-2    1.691559913486148E-3    3.751395734136583E-3    1.673132851134918E-3    3.645153110313566E-3    4.351044893866641E-1   -3.195021295725523E-1
 7.837873136375000E9     5.662657773106782E-1   -2.206509654848287E-2    1.724446461326466E-3    3.711270589300327E-3    1.707911663542629E-3    3.692122190125459E-3    4.336592183457960E-1   -3.213691266921312E-1
 7.837907050000000E9     5.661213696022285E-1   -2.451165681792974E-2    1.704923422550176E-3    3.758966063471376E-3    1.729177682488980E-3    3.665336475908683E-3    4.322431693497064E-1   -3.232114655002707E-1
 7.837940963625000E9     5.660226958718027E-1   -2.675014014516867E-2    1.749794295780382E-3    3.762492522344936E-3    1.771031469325963E-3    3.649955816766946E-3    4.308911080117867E-1   -3.251463588144048E-1
 7.837974877250000E9     5.658670792479520E-1   -2.895496340332353E-2    1.777697872936992E-3    3.748441621152374E-3    1.759916142680082E-3    3.678938888907645E-3    4.295532589080615E-1   -3.270965929848020E-1
 7.838008790875000E9     5.656637382453364E-1   -3.126074676220140E-2    1.795830759770068E-3    3.714661859994548E-3    1.779230059996887E-3    3.699637700082195E-3    4.280328074861408E-1   -3.291596904307351E-1
 7.838042704500000E9     5.657085233478594E-1   -3.357126800830972E-2    1.819155014410198E-3    3.764857621067860E-3    1.815204112124617E-3    3.686938673492089E-3    4.266059448741570E-1   -3.308668201815553E-1
 7.838076618125000E9     5.654998557150559E-1   -3.574394086738831E-2    1.829540153325510E-3    3.739043795671888E-3    1.814600848868445E-3    3.668472058561535E-3    4.250163127078467E-1   -3.328823682823353E-1
 7.838110531750000E9     5.653666674297915E-1   -3.808650389672514E-2    1.851032123220092E-3    3.724271866309943E-3    1.844370913559241E-3    3.667780713226666E-3    4.237820278628769E-1   -3.346775250398430E-1
 7.838144445375000E9     5.653764739905608E-1   -4.021072790066493E-2    1.872042292132691E-3    3.719946593573092E-3    1.898849113796214E-3    3.680421483631091E-3    4.223165281582578E-1   -3.363989076111847E-1
 7.838178359000000E9     5.651890558626851E-1   -4.249226067171290E-2    1.902677402468264E-3    3.718477944489336E-3    1.902291398474319E-3    3.678828184694800E-3    4.207563490399002E-1   -3.382837498639123E-1
 7.838212272625000E9     5.649492919018150E-1   -4.485396598452654E-2    1.933646225860298E-3    3.720448818734307E-3    1.902337875560254E-3    3.672002114802280E-3    4.192334517533913E-1   -3.401094546031339E-1
 7.838246186250000E9     5.647168595635865E-1   -4.693578851458294E-2    1.947081738843235E-3    3.730684856860790E-3    1.958924481194311E-3    3.649281632172247E-3    4.176988993680216E-1   -3.421076420646390E-1
 7.838280099875000E9     5.646483586598724E-1   -4.923912606974557E-2    1.985069175677690E-3    3.725056170858234E-3    1.944008240021736E-3    3.677622349064392E-3    4.161258601009388E-1   -3.440394867317925E-1
 7.838314013500000E9     5.644018332826277E-1   -5.154766106665682E-2    1.984544605484502E-3    3.735471360037263E-3    2.006832048024437E-3    3.654114951645432E-3    4.148729805547222E-1   -3.458593702026825E-1
 7.838347927125000E9     5.642498435734181E-1   -5.388554768870254E-2    2.010454125254312E-3    3.741317070259343E-3    2.006187049088906E-3    3.649766033571099E-3    4.131472331162864E-1   -3.476051854073828E-1
 7.838381840750000E9     5.639095249275657E-1   -5.613032847887511E-2    2.023503183822936E-3    3.737776850179499E-3    2.022902353673543E-3    3.671014306911766E-3    4.117258470233009E-1   -3.493181570926076E-1
 7.838415754375000E9     5.637216562641673E-1   -5.838897845765244E-2    2.032341969190919E-3    3.733727328281816E-3    2.020988401191438E-3    3.655011031957815E-3    4.101546965570242E-1   -3.512236779250038E-1
 7.838449668000000E9     5.635202363729440E-1   -6.042616686118261E-2    2.090507166184318E-3    3.705927258068941E-3    2.055458931159516E-3    3.649913872097951E-3    4.086725710815117E-1   -3.531582277435004E-1
 7.838483581625000E9     5.632961890613477E-1   -6.283589915719111E-2    2.107105847120934E-3    3.739166859181976E-3    2.104661869130986E-3    3.680511700938885E-3    4.070698311810855E-1   -3.548953948135495E-1
 7.838517495250000E9     5.630220164283691E-1   -6.516833738057451E-2    2.118500288964168E-3    3.706721411889342E-3    2.134624502195212E-3    3.667348536477388E-3    4.056193547722563E-1   -3.566737255389763E-1
 7.838551408875000E9     5.628672088609434E-1   -6.721535926362693E-2    2.128746421916487E-3    3.721395406750488E-3    2.132804867345661E-3    3.624488269162423E-3    4.039622458790551E-1   -3.584327818413790E-1
 7.838585322500000E9     5.625064126695001E-1   -6.967671269131591E-2    2.151028015096790E-3    3.684548698086640E-3    2.145536837669297E-3    3.648169491354745E-3    4.025200448049751E-1   -3.601302529248440E-1
 7.838619236125000E9     5.621839282335723E-1   -7.179534745324750E-2    2.207673017219182E-3    3.696170826663714E-3    2.165342105956940E-3    3.703231547773797E-3    4.009374915001424E-1   -3.620517613829216E-1
 7.838653149750000E9     5.619867791417119E-1   -7.412792347786998E-2    2.196676805894566E-3    3.716662335246659E-3    2.192253687492142E-3    3.655008525780976E-3    3.990851072442172E-1   -3.638608272368370E-1
 7.838687063375000E9     5.615992643824234E-1   -7.635558941277600E-2    2.244204113492899E-3    3.703006557019312E-3    2.224390458405510E-3    3.642488383487915E-3    3.976045173730828E-1   -3.654926056324628E-1
 7.838720977000000E9     5.613663853126687E-1   -7.854509748225090E-2    2.245313378358811E-3    3.705633759044998E-3    2.270962745954555E-3    3.651439680430203E-3    3.960474792393045E-1   -3.673612067528587E-1
 7.838754890625000E9     5.611440037740953E-1   -8.075023947074672E-2    2.280269622545075E-3    3.695700705965630E-3    2.273529849012891E-3    3.639821871484182E-3    3.943632954932051E-1   -3.691260054987614E-1
 7.838788804250000E9     5.607441641297201E-1   -8.299278796765161E-2    2.297106487928109E-3    3.717616983867947E-3    2.300383051701485E-3    3.663089065125949E-3    3.928289464407920E-1   -3.708953152878204E-1
 7.838822717875000E9     5.604624394432196E-1   -8.525760924881491E-2    2.326782406851702E-3    3.688958595039469E-3    2.294410124284126E-3    3.643807298524463E-3    3.910958959884770E-1   -3.724593513213286E-1
 7.838856631500000E9     5.599137621293391E-1   -8.758970641676678E-2    2.359111436799602E-3    3.681879527360861E-3    2.336721166939024E-3    3.667560930416634E-3    3.895223836669114E-1   -3.742275431812958E-1
 7.838890545125000E9     5.597615916253430E-1   -8.966946676055106E-2    2.378014566174462E-3    3.698215513682821E-3    2.366256220133104E-3    3.643784983895950E-3    3.878363013055498E-1   -3.760627124326597E-1
 7.838924458750000E9     5.593419756422804E-1   -9.193548689252228E-2    2.375700677760504E-3    3.676916081611740E-3    2.375822125349406E-3    3.625098239278805E-3    3.861369542911238E-1   -3.776838520906448E-1
 7.838958372375000E9     5.589878551244515E-1   -9.434406614783118E-2    2.417996373950211E-3    3.678320185048277E-3    2.384072764539804E-3    3.655074264756476E-3    3.846059496727226E-1   -3.794070445787283E-1
 7.838992286000000E9     5.584581860551214E-1   -9.647459579661585E-2    2.438709465302256E-3    3.704747220421816E-3    2.435280268818773E-3    3.627208246773277E-3    3.830242304057302E-1   -3.809651197189233E-1
 7.839026199625000E9     5.581643216091389E-1   -9.856698750927334E-2    2.451951987876943E-3    3.676094388173969E-3    2.444114506561698E-3    3.664973510968810E-3    3.812512483009684E-1   -3.828378125677066E-1
 7.839060113250000E9     5.577920341282235E-1   -1.007786951943774E-1    2.503950972075012E-3    3.670674919455191E-3    2.458914960718265E-3    3.642424582000545E-3    3.795671090982075E-1   -3.845735625975128E-1
 7.839094026875000E9     5.573116201737184E-1   -1.031636926848891E-1    2.521213765449144E-3    3.687170584443600E-3    2.500887104087061E-3    3.643274240278469E-3    3.777140381708123E-1   -3.861826718604763E-1
 7.839127940500000E9     5.569485899201253E-1   -1.054334411046397E-1    2.533420610401830E-3    3.658163360250524E-3    2.490632085517323E-3    3.638778000268724E-3    3.761881747660505E-1   -3.878420375378276E-1
 7.839161854125000E9     5.564485989009752E-1   -1.076114626802724E-1    2.565838039744631E-3    3.673306555575471E-3    2.551549769779527E-3    3.596434713619421E-3    3.745354525679462E-1   -3.895498979419511E-1
 7.839195767750000E9     5.562388698816315E-1   -1.097867201426231E-1    2.598780518459860E-3    3.679494934282180E-3    2.556871287098757E-3    3.619379184415840E-3    3.726431060437266E-1   -3.912284479150503E-1
 7.839229681375000E9     5.557217840758084E-1   -1.121994410844162E-1    2.623719239321707E-3    3.659394867458905E-3    2.571042144968940E-3    3.609393891051794E-3    3.710989018644242E-1   -3.927488477998210E-1
 7.839263595000000E9     5.552885436717792E-1   -1.142634898327455E-1    2.651978696935259E-3    3.659390322447276E-3    2.591608859934135E-3    3.612041204567004E-3    3.692464903249525E-1   -3.944361462625952E-1
 7.839297508625000E9     5.546004317543732E-1   -1.164784008506623E-1    2.667757795296177E-3    3.670164533152405E-3    2.621262532984699E-3    3.627511227164765E-3    3.675467938453039E-1   -3.961374191680349E-1
 7.839331422250000E9     5.543163865103967E-1   -1.188697330459237E-1    2.681726576423802E-3    3.693051414017528E-3    2.637022955176050E-3    3.603505321343200E-3    3.658356648397790E-1   -3.976197842876790E-1
 7.839365335875000E9     5.538295320329363E-1   -1.210378734158292E-1    2.719969893280294E-3    3.662469180560041E-3    2.676361387465605E-3    3.608931200188922E-3    3.641295859995355E-1   -3.993844159901278E-1
 7.839399249500000E9     5.533585418997845E-1   -1.233299014929545E-1    2.753987311352065E-3    3.661843196148349E-3    2.695746672112783E-3    3.640370789799666E-3    3.623819937585294E-1   -4.008397194187419E-1
 7.839433163125000E9     5.529037846672511E-1   -1.254837591829408E-1    2.762507255090470E-3    3.662540125242357E-3    2.759306396073950E-3    3.611753847721677E-3    3.607798766459644E-1   -4.024084242585295E-1
 7.839467076750000E9     5.522836177581442E-1   -1.276459816719833E-1    2.793266590051446E-3    3.641274921232398E-3    2.757877368698769E-3    3.608063218647085E-3    3.587310732220489E-1   -4.040100409714636E-1
 7.839500990375000E9     5.517348855211529E-1   -1.298640245336621E-1    2.835128974038380E-3    3.649646557940542E-3    2.774672766567362E-3    3.601702839175170E-3    3.569624439722890E-1   -4.055830796731137E-1
 7.839534904000000E9     5.512607614079714E-1   -1.322197964616192E-1    2.848369887464454E-3    3.654111029301164E-3    2.797762902394208E-3    3.612047873024206E-3    3.553312993148680E-1   -4.071937033459446E-1
 7.839568817625000E9     5.506765662732022E-1   -1.344033123846337E-1    2.884542576578462E-3    3.648486830384566E-3    2.840695014339502E-3    3.569704330987840E-3    3.534626658457636E-1   -4.088341308467004E-1
 7.839602731250000E9     5.502572346931397E-1   -1.364415197902376E-1    2.903868240049318E-3    3.625059265001739E-3    2.866439768540033E-3    3.597361156789916E-3    3.517009196889553E-1   -4.103915587943251E-1
 7.839636644875000E9     5.495794825869234E-1   -1.387748184758840E-1    2.930097369832893E-3    3.617032407071389E-3    2.894319427151514E-3    3.626354196462446E-3    3.497020750389975E-1   -4.119832621484537E-1
 7.839670558500000E9     5.489507064017024E-1   -1.409608973474947E-1    2.987308205173545E-3    3.644323113944039E-3    2.932228345370623E-3    3.614670165531202E-3    3.480479645373027E-1   -4.136265751043248E-1
 7.839704472125000E9     5.485484663390073E-1   -1.432451738025384E-1    3.009313677960966E-3    3.631020697002184E-3    2.947636257677392E-3    3.593443971965598E-3    3.462942987489740E-1   -4.150268799207634E-1
 7.839738385750000E9     5.478353764864194E-1   -1.452706318676571E-1    3.036136501136094E-3    3.605063810712374E-3    2.948714924349747E-3    3.609288458736800E-3    3.442838430254314E-1   -4.166056391092879E-1
 7.839772299375000E9     5.472122585894903E-1   -1.475078148296657E-1    3.056802083643774E-3    3.628197768582110E-3    3.010504065640508E-3    3.578786208686719E-3    3.426245631897821E-1   -4.181122841557944E-1
 7.839806213000000E9     5.466504973499591E-1   -1.497361497321697E-1    3.077408369303121E-3    3.618166689710658E-3    3.045511955623221E-3    3.648558958089043E-3    3.407240568508840E-1   -4.194976674104033E-1
 7.839840126625000E9     5.461301564040847E-1   -1.519853949611417E-1    3.102841902776520E-3    3.615937583665951E-3    3.063411977439531E-3    3.594642864970024E-3    3.388867548074683E-1   -4.210049528062750E-1
 7.839874040250000E9     5.454475447233392E-1   -1.541241491734313E-1    3.158604266735282E-3    3.619380563029964E-3    3.093496488328764E-3    3.595889629632215E-3    3.370937052759710E-1   -4.225111847125088E-1
