#  HZ   S   RI   R     50.00 
! Rohde & Schwarz Vector Network Analyzer 
! Rohde-Schwarz,ZNB20-2Port,1311601062101988,3.16
! Created: UTC 12/23/2023, 3:52:17 AM
! freq[Hz]                re:S11                  im:S11                  re:S21                  im:S21                  re:S12                  im:S12                  re:S22                  im:S22
 7.836922973000000E9     5.646369203808590E-1    4.079465660026098E-2    1.155118347369755E-3    3.760562484494721E-3    1.205808984172683E-3    3.709294444343692E-3    4.696048610871446E-1   -2.654070297514587E-1
 7.836956455650000E9     5.646638435192451E-1    3.872489933993282E-2    1.185441532621352E-3    3.760247570743822E-3    1.218013407465886E-3    3.677895387293584E-3    4.685678642743363E-1   -2.674936426694511E-1
 7.836989938300000E9     5.650743579956452E-1    3.655067714825073E-2    1.197251564203852E-3    3.756914762572436E-3    1.203004491303331E-3    3.686243123413588E-3    4.674407323525654E-1   -2.693511853292815E-1
 7.837023420950000E9     5.652558031518318E-1    3.430621687109334E-2    1.246464360724674E-3    3.776342561537950E-3    1.257795794358164E-3    3.724953150362743E-3    4.661729525537285E-1   -2.714116352569143E-1
 7.837056903600000E9     5.652538925319724E-1    3.208754608675229E-2    1.270187818913397E-3    3.761866454172246E-3    1.271933947628619E-3    3.714845104638007E-3    4.648936614915847E-1   -2.735393367954896E-1
 7.837090386250000E9     5.653495281663303E-1    2.990568553922496E-2    1.260015245162440E-3    3.738915803205061E-3    1.286830995659948E-3    3.716805230307098E-3    4.639254566185202E-1   -2.755841426420843E-1
 7.837123868900000E9     5.656239734788704E-1    2.754282653392181E-2    1.273085227397864E-3    3.787384619652447E-3    1.313945587905182E-3    3.683388462761260E-3    4.626460510649185E-1   -2.775737994869408E-1
 7.837157351550000E9     5.656555549776656E-1    2.540609196255834E-2    1.275783695527303E-3    3.777773617875647E-3    1.319479912731683E-3    3.692106778212410E-3    4.613452396969033E-1   -2.795990677569676E-1
 7.837190834200000E9     5.658615172238224E-1    2.330182321483406E-2    1.316220703952987E-3    3.765325443188966E-3    1.315028101227924E-3    3.711097323128373E-3    4.602845032016407E-1   -2.815374942701372E-1
 7.837224316850000E9     5.659104776601399E-1    2.101552625818890E-2    1.330571129302150E-3    3.758770807408553E-3    1.370830570890916E-3    3.723011218906347E-3    4.589745543455522E-1   -2.835621758585387E-1
 7.837257799500000E9     5.661992834681839E-1    1.876607782253132E-2    1.364421475148775E-3    3.758848341592220E-3    1.383329927970499E-3    3.718708778503128E-3    4.578490984121780E-1   -2.855715157805048E-1
 7.837291282150000E9     5.661990444208754E-1    1.645984538869233E-2    1.381524711538151E-3    3.785910610686115E-3    1.365964863562461E-3    3.711314507166882E-3    4.564926936595635E-1   -2.877574163938123E-1
 7.837324764800000E9     5.662942967023415E-1    1.432989743999170E-2    1.415156959446757E-3    3.754937178239205E-3    1.378610727636434E-3    3.703661390253078E-3    4.553024688575622E-1   -2.895786160017307E-1
 7.837358247450000E9     5.662241357737821E-1    1.187681685726312E-2    1.417247899009971E-3    3.789259207652591E-3    1.398432641983299E-3    3.693678395127099E-3    4.540125935176939E-1   -2.916547705269667E-1
 7.837391730100000E9     5.663974228351472E-1    9.813099770394162E-3    1.419972074748910E-3    3.763567867980284E-3    1.454750521252544E-3    3.705637057306311E-3    4.529187161568661E-1   -2.935677486947933E-1
 7.837425212750000E9     5.662173041040551E-1    7.663142560839191E-3    1.429514458638897E-3    3.764589851132489E-3    1.455345019874228E-3    3.706166937520830E-3    4.515687763218027E-1   -2.955296621709177E-1
 7.837458695400000E9     5.664163431756866E-1    5.588185349454670E-3    1.464730031756822E-3    3.722516884663852E-3    1.485162443035167E-3    3.702988145290606E-3    4.502137445885699E-1   -2.975492207098960E-1
 7.837492178050000E9     5.663267482847134E-1    3.185705645940892E-3    1.485335911777165E-3    3.742937098454592E-3    1.487517713610245E-3    3.706620252328703E-3    4.489122926497522E-1   -2.994516830359713E-1
 7.837525660700000E9     5.664762514200140E-1    9.647247280993585E-4    1.501430837165847E-3    3.754242056169970E-3    1.467615693294607E-3    3.692257305784159E-3    4.477439206388383E-1   -3.015517737855280E-1
 7.837559143350000E9     5.664854684722037E-1   -1.361412690773580E-3    1.526734988839424E-3    3.744028506106192E-3    1.522189077461015E-3    3.685027044152718E-3    4.462452401123893E-1   -3.033122883928772E-1
 7.837592626000000E9     5.663942498201436E-1   -3.510267791751569E-3    1.555977253525596E-3    3.747416415240783E-3    1.531437604489288E-3    3.698183658610037E-3    4.450680319797026E-1   -3.053120577747167E-1
 7.837626108650000E9     5.665087671594607E-1   -5.704949353312838E-3    1.555076784510800E-3    3.774361703905172E-3    1.561567588904013E-3    3.675149647796197E-3    4.437259813616046E-1   -3.072885189081641E-1
 7.837659591300000E9     5.662985911148852E-1   -7.978985372944546E-3    1.575464222423171E-3    3.767203690175214E-3    1.606899567183518E-3    3.687962519849349E-3    4.424231634417043E-1   -3.090653521065276E-1
 7.837693073950000E9     5.665096659759647E-1   -1.010713862998166E-2    1.626619750968456E-3    3.775491939744531E-3    1.635625032157853E-3    3.682914540960505E-3    4.411369416620247E-1   -3.111014250777183E-1
 7.837726556600000E9     5.663877531708654E-1   -1.236014886871739E-2    1.637293969073809E-3    3.743482820747697E-3    1.650045862596095E-3    3.667427803034284E-3    4.397066485627718E-1   -3.130147518038889E-1
 7.837760039250000E9     5.662227916629269E-1   -1.467980892120141E-2    1.654656402287066E-3    3.751930203733807E-3    1.637299195123108E-3    3.686960317319801E-3    4.385265000237802E-1   -3.148292032763649E-1
 7.837793521900000E9     5.662058622551127E-1   -1.690423350217455E-2    1.702599502746668E-3    3.738927298397907E-3    1.673843104390615E-3    3.679202607539667E-3    4.369524118778856E-1   -3.168048368436869E-1
 7.837827004550000E9     5.661464961129928E-1   -1.914548081093067E-2    1.694200948362236E-3    3.734538890399331E-3    1.667144789260310E-3    3.668563826781427E-3    4.356376058777938E-1   -3.186370484670352E-1
 7.837860487200000E9     5.660966630387625E-1   -2.134556033506779E-2    1.726775456861453E-3    3.754449458565382E-3    1.683141408000076E-3    3.688901924147255E-3    4.342727251222989E-1   -3.207159939008447E-1
 7.837893969850000E9     5.661096671848237E-1   -2.356177996635297E-2    1.717169881886302E-3    3.743644024717449E-3    1.728605159022113E-3    3.673981583690201E-3    4.328358864048336E-1   -3.225061429778948E-1
 7.837927452500000E9     5.660401325730876E-1   -2.580563267345936E-2    1.737791565496120E-3    3.755535648368543E-3    1.729198948910033E-3    3.677653933077330E-3    4.313974012236217E-1   -3.243683633853857E-1
 7.837960935150000E9     5.659908398334242E-1   -2.801976141433966E-2    1.777425275568533E-3    3.755065633418330E-3    1.761628646523129E-3    3.677540981965913E-3    4.298482827689372E-1   -3.263515012231382E-1
 7.837994417800000E9     5.658143426415627E-1   -3.013964522435654E-2    1.777343133727228E-3    3.725020121840142E-3    1.785812978355181E-3    3.671232789104467E-3    4.286684815207003E-1   -3.282028991635179E-1
 7.838027900450000E9     5.656313830848330E-1   -3.243874280430189E-2    1.805402243013049E-3    3.740333532463104E-3    1.817757742918532E-3    3.705456055510994E-3    4.273013342756060E-1   -3.298949048190152E-1
 7.838061383100000E9     5.656062319315319E-1   -3.481846755147486E-2    1.815447394077682E-3    3.744607484889118E-3    1.807628110522249E-3    3.666914942018418E-3    4.257298698343812E-1   -3.318149729239898E-1
 7.838094865750000E9     5.655850308049681E-1   -3.691294475731820E-2    1.861114072157822E-3    3.747415412617046E-3    1.815400691097569E-3    3.683826765848701E-3    4.242655701300568E-1   -3.337120161141297E-1
 7.838128348400000E9     5.653659641051736E-1   -3.915546834080868E-2    1.869215277579341E-3    3.739214936978780E-3    1.849331279158551E-3    3.664155207103336E-3    4.229122256507639E-1   -3.356427246059434E-1
 7.838161831050000E9     5.652463133489010E-1   -4.144985193326196E-2    1.877900912902848E-3    3.699570915266624E-3    1.896736215312780E-3    3.683373678260925E-3    4.215379941459084E-1   -3.375564329011277E-1
 7.838195313700000E9     5.649341651139835E-1   -4.353862756136184E-2    1.907821825234539E-3    3.726052885090863E-3    1.893451595694045E-3    3.684482760700809E-3    4.201147843532327E-1   -3.392492175960750E-1
 7.838228796350000E9     5.648229103302537E-1   -4.591601780206798E-2    1.925545471931053E-3    3.736419996590685E-3    1.907953924184359E-3    3.679089485937718E-3    4.184360298174522E-1   -3.411837074869010E-1
 7.838262279000000E9     5.647522759294002E-1   -4.788931493965716E-2    1.948403172738295E-3    3.749520760053615E-3    1.940220974900767E-3    3.673513925255438E-3    4.169837999191393E-1   -3.428253218653365E-1
 7.838295761650000E9     5.644351389784562E-1   -5.023860241922961E-2    1.964110775002160E-3    3.726439218905193E-3    1.952585229158864E-3    3.653635429308106E-3    4.154179067212150E-1   -3.448000054846748E-1
 7.838329244300000E9     5.642584739722969E-1   -5.252357575123760E-2    1.981851746580166E-3    3.709136752514229E-3    1.974955680785964E-3    3.659055831814413E-3    4.140088080297740E-1   -3.465602739409164E-1
 7.838362726950000E9     5.641015330131925E-1   -5.474179561175070E-2    2.026673674986108E-3    3.714234513464927E-3    1.982560900003203E-3    3.658332603643249E-3    4.125783289244977E-1   -3.485910930081846E-1
 7.838396209600000E9     5.637727960200393E-1   -5.685955379468639E-2    2.047537685475567E-3    3.700629036793542E-3    2.022214927518880E-3    3.673502661200084E-3    4.110442375743049E-1   -3.500583683206179E-1
 7.838429692250000E9     5.636942242399300E-1   -5.918058543356487E-2    2.054874151199711E-3    3.706150959696226E-3    2.059013798134139E-3    3.661662931202248E-3    4.095595561810510E-1   -3.519900023946046E-1
 7.838463174900000E9     5.633781968907507E-1   -6.147824783966181E-2    2.088166194528658E-3    3.742189558981337E-3    2.070578586937303E-3    3.649576220819658E-3    4.079920339974082E-1   -3.537514183460180E-1
 7.838496657550000E9     5.632616327552485E-1   -6.366513807781062E-2    2.112778658355370E-3    3.724642426386942E-3    2.101911806309027E-3    3.638506160984797E-3    4.064458372750715E-1   -3.555346296944049E-1
 7.838530140200000E9     5.629689432493196E-1   -6.579495452331803E-2    2.119193311990600E-3    3.703749494199483E-3    2.087523199385048E-3    3.639843936502609E-3    4.049511193055454E-1   -3.573260850899867E-1
 7.838563622850000E9     5.626874039198667E-1   -6.798470149570499E-2    2.144558616415571E-3    3.731245644734633E-3    2.151273177002763E-3    3.663992024520505E-3    4.033766326101259E-1   -3.589780743310274E-1
 7.838597105500000E9     5.623344802116559E-1   -7.023924996924337E-2    2.176402138186595E-3    3.714250049678241E-3    2.172399312369641E-3    3.673003322535385E-3    4.019768352138390E-1   -3.608411850583915E-1
 7.838630588150000E9     5.621365397793978E-1   -7.266972152558268E-2    2.205500812296090E-3    3.694888577700001E-3    2.188449602940762E-3    3.663462795285819E-3    4.002332844220451E-1   -3.625537141378558E-1
 7.838664070800000E9     5.619209108230213E-1   -7.468894684283930E-2    2.206328644468571E-3    3.725002493928880E-3    2.203981765154130E-3    3.678577126885857E-3    3.988326235892006E-1   -3.643360501781899E-1
 7.838697553450000E9     5.615626045893276E-1   -7.702683596262726E-2    2.231999919242360E-3    3.697418790418986E-3    2.212162853518344E-3    3.620304844979930E-3    3.973117267350789E-1   -3.660651459252582E-1
 7.838731036100000E9     5.612787457755802E-1   -7.923364116050094E-2    2.255995224454199E-3    3.702610224676321E-3    2.246212892533000E-3    3.636379912234497E-3    3.955599655250023E-1   -3.678418186133571E-1
 7.838764518750000E9     5.610134315859402E-1   -8.133947910016705E-2    2.266748539591459E-3    3.672706066896230E-3    2.282699767967110E-3    3.663320515685240E-3    3.940177358765483E-1   -3.694445824037835E-1
 7.838798001400000E9     5.606005304799166E-1   -8.370876569860156E-2    2.283172354886605E-3    3.710060358692855E-3    2.303377575673277E-3    3.629017870076732E-3    3.922548609821359E-1   -3.711394778682252E-1
 7.838831484050000E9     5.603962158924409E-1   -8.587663507315529E-2    2.304843417137519E-3    3.677331936622222E-3    2.316464884874542E-3    3.637371401684384E-3    3.907476293031763E-1   -3.729554604855353E-1
 7.838864966700000E9     5.599132301523840E-1   -8.818620043488003E-2    2.350524859094020E-3    3.697286606231295E-3    2.345530108901754E-3    3.652877669010411E-3    3.891594457838757E-1   -3.746184707748292E-1
 7.838898449350000E9     5.597131363227740E-1   -9.024928025370366E-2    2.385298333465795E-3    3.699519563319698E-3    2.357703060774190E-3    3.649050726641765E-3    3.875488040359023E-1   -3.763998310050550E-1
 7.838931932000000E9     5.593410724398920E-1   -9.257162130641881E-2    2.398652554730037E-3    3.683737262119382E-3    2.381338614229110E-3    3.642917245860792E-3    3.859221025095805E-1   -3.779642248204366E-1
 7.838965414650000E9     5.589280579655240E-1   -9.469088517323798E-2    2.414796959706706E-3    3.686968201629743E-3    2.423827123054643E-3    3.629151640876141E-3    3.841854169101526E-1   -3.798524537027053E-1
 7.838998897300000E9     5.585237486795726E-1   -9.682838117864472E-2    2.454484503099559E-3    3.680072821788207E-3    2.426972252705127E-3    3.666025708357532E-3    3.826855483027487E-1   -3.814544145043324E-1
 7.839032379950000E9     5.580739681220247E-1   -9.922054885715366E-2    2.474254254171495E-3    3.681146645585140E-3    2.436255207544634E-3    3.620658643290354E-3    3.809259050722214E-1   -3.830070608152508E-1
 7.839065862600000E9     5.577370627397977E-1   -1.013554248878638E-1    2.500195226345635E-3    3.679563049798275E-3    2.473675955603100E-3    3.637545600163378E-3    3.792895017294229E-1   -3.847690000233182E-1
 7.839099345250000E9     5.572906795893932E-1   -1.035185591110988E-1    2.522744213148542E-3    3.685617258112192E-3    2.491278275643068E-3    3.596165005019379E-3    3.775516126866602E-1   -3.864536399884742E-1
 7.839132827900000E9     5.568394638028621E-1   -1.057047597279605E-1    2.543414127336426E-3    3.668392853310314E-3    2.494389167882281E-3    3.629743629865793E-3    3.758742138831035E-1   -3.880298868843564E-1
 7.839166310550000E9     5.564569125388743E-1   -1.079277420124201E-1    2.556119233507415E-3    3.674231887417207E-3    2.536586875134025E-3    3.613088155888659E-3    3.743383190124516E-1   -3.896083886438413E-1
 7.839199793200000E9     5.560835049977387E-1   -1.100390610068011E-1    2.573816687249174E-3    3.682979356705756E-3    2.594253187034990E-3    3.614519441229527E-3    3.725311735842607E-1   -3.912190097305783E-1
 7.839233275850000E9     5.556119072850180E-1   -1.123273626223367E-1    2.609348734528138E-3    3.661511306669930E-3    2.568686105158850E-3    3.624714509204189E-3    3.708770358718471E-1   -3.929961274164075E-1
 7.839266758500000E9     5.552321369576307E-1   -1.145395014886584E-1    2.624753505755256E-3    3.677758258935169E-3    2.586002431842110E-3    3.620460691940162E-3    3.691479550523054E-1   -3.944531940515619E-1
 7.839300241150000E9     5.547924561716718E-1   -1.166511687822223E-1    2.664710458428075E-3    3.677605118270847E-3    2.661320958217737E-3    3.599325730572228E-3    3.675086946138216E-1   -3.961289019874976E-1
 7.839333723800000E9     5.543641530507666E-1   -1.189551464910151E-1    2.698811589549683E-3    3.659340504951107E-3    2.641033954128162E-3    3.598823266226144E-3    3.656657061142207E-1   -3.976545630370484E-1
 7.839367206450000E9     5.537697252561474E-1   -1.212460918442055E-1    2.696617956110836E-3    3.670189391966490E-3    2.655249786076809E-3    3.600955591436892E-3    3.639281766636369E-1   -3.994628936636879E-1
 7.839400689100000E9     5.532412905536832E-1   -1.233840039607924E-1    2.750250826947141E-3    3.653934665552426E-3    2.740147059367309E-3    3.617103861429643E-3    3.621433349040052E-1   -4.008311558432247E-1
 7.839434171750000E9     5.528794362557311E-1   -1.255022260774822E-1    2.780069273537209E-3    3.645981785690319E-3    2.745506296199840E-3    3.636662289596105E-3    3.606286303803113E-1   -4.025226833165110E-1
 7.839467654400000E9     5.522730562726299E-1   -1.277325267576904E-1    2.794616841151273E-3    3.665267554455602E-3    2.775974382173934E-3    3.609419152901473E-3    3.587087014450414E-1   -4.040831633586687E-1
 7.839501137050000E9     5.517801861372151E-1   -1.299389014835344E-1    2.822647924696225E-3    3.655665620914903E-3    2.768012818947630E-3    3.589421143804205E-3    3.571034968771541E-1   -4.055245857122289E-1
 7.839534619700000E9     5.513198230381784E-1   -1.320843924873748E-1    2.835365189618999E-3    3.658578113912239E-3    2.837389493698985E-3    3.587724688868618E-3    3.552098392624082E-1   -4.071895677957509E-1
 7.839568102350000E9     5.508667245360646E-1   -1.342770092352513E-1    2.910838498944106E-3    3.659690334591697E-3    2.872311943466212E-3    3.601827987579865E-3    3.535130873031515E-1   -4.088797103274371E-1
 7.839601585000000E9     5.502857084605175E-1   -1.363451257796220E-1    2.903288980201822E-3    3.641113741878926E-3    2.889298538875572E-3    3.592012606488745E-3    3.517631504717306E-1   -4.102484325946291E-1
 7.839635067650000E9     5.496161648534648E-1   -1.384503038646501E-1    2.938581621460875E-3    3.648422368108452E-3    2.902082232057554E-3    3.605657641493789E-3    3.499978506128143E-1   -4.118861597791378E-1
 7.839668550300000E9     5.490985745255177E-1   -1.408218515660394E-1    2.973363011363997E-3    3.657981206331439E-3    2.939309487598180E-3    3.596696978042493E-3    3.482795967450243E-1   -4.135200738107666E-1
 7.839702032950000E9     5.485681437674158E-1   -1.430465510558599E-1    3.001680511283300E-3    3.625379867163626E-3    2.952494217391922E-3    3.591510914615838E-3    3.462865846636387E-1   -4.148877112325545E-1
 7.839735515600000E9     5.480357253365300E-1   -1.451633853544659E-1    3.034007946970821E-3    3.620274549062831E-3    2.949118967431309E-3    3.573764059981601E-3    3.446101105299471E-1   -4.163894190511948E-1
 7.839768998250000E9     5.472504539263126E-1   -1.473177687939192E-1    3.050300503563157E-3    3.634607939800060E-3    2.997245610440247E-3    3.592067148862624E-3    3.427079466989575E-1   -4.179465191878215E-1
 7.839802480900000E9     5.466841929682917E-1   -1.495618267413325E-1    3.090455696052334E-3    3.625267088719040E-3    3.041902102839333E-3    3.572503203829692E-3    3.410708303124106E-1   -4.192945017197482E-1
 7.839835963550000E9     5.461983141149138E-1   -1.516643757971273E-1    3.112812996455075E-3    3.630528229397902E-3    3.014719998434693E-3    3.630155763784283E-3    3.391682932956576E-1   -4.208037860011121E-1
 7.839869446200000E9     5.454314662354609E-1   -1.539235867506514E-1    3.141356598710812E-3    3.611191389763484E-3    3.103778270141736E-3    3.581123414695106E-3    3.374158419552936E-1   -4.224621827213986E-1
 7.839902928850000E9     5.449071084949523E-1   -1.560870469541763E-1    3.179094757658209E-3    3.617982746345952E-3    3.101949453076561E-3    3.578262999432841E-3    3.354840469880456E-1   -4.238489097791194E-1
 7.839936411500000E9     5.442947193565530E-1   -1.581874291838891E-1    3.207855323938444E-3    3.636688420862065E-3    3.144396507956457E-3    3.582209329124395E-3    3.336732263172279E-1   -4.251861819067587E-1
