#  HZ   S   RI   R     50.00 
! Rohde & Schwarz Vector Network Analyzer 
! Rohde-Schwarz,ZNB20-2Port,1311601062101988,3.16
! Created: UTC 12/23/2023, 4:00:00 AM
! freq[Hz]                re:S11                  im:S11                  re:S21                  im:S21                  re:S12                  im:S12                  re:S22                  im:S22
 7.837489971000000E9     5.664756081572049E-1    3.530605646802514E-3    1.459254367966732E-3    3.733618584291418E-3    1.481263805488182E-3    3.659654704437498E-3    4.492934953970356E-1   -2.991444358369413E-1
 7.837521652050000E9     5.665113358893679E-1    1.304012128188138E-3    1.447361321130107E-3    3.723784458734617E-3    1.477060139395581E-3    3.666644568050241E-3    4.481857838709428E-1   -3.008063136611261E-1
 7.837553333100000E9     5.666123884458296E-1   -7.571228676217686E-4    1.505493129814054E-3    3.727514384057264E-3    1.479310712943075E-3    3.656554451428411E-3    4.469527544868574E-1   -3.027795224618655E-1
 7.837585014150000E9     5.663871828185402E-1   -2.769910223410966E-3    1.515946107232694E-3    3.755632019516662E-3    1.543035952466829E-3    3.639530013473361E-3    4.456483824752715E-1   -3.046097808594115E-1
 7.837616695200000E9     5.664360507321012E-1   -4.900119057610020E-3    1.550921601235402E-3    3.717849592059497E-3    1.540538495038122E-3    3.656631863078342E-3    4.443390903310313E-1   -3.064371634595306E-1
 7.837648376250000E9     5.664237138006061E-1   -7.039238012562508E-3    1.548903314055790E-3    3.734484564298285E-3    1.575578135280962E-3    3.665017539187632E-3    4.431243781944762E-1   -3.082644412228038E-1
 7.837680057300000E9     5.664929438311047E-1   -9.097606283988634E-3    1.587915374717392E-3    3.720527641177333E-3    1.570705686603673E-3    3.637556503787323E-3    4.418559423493320E-1   -3.101391353030986E-1
 7.837711738350000E9     5.664628821061899E-1   -1.113647159772586E-2    1.576365482068713E-3    3.739279954644288E-3    1.580798495086382E-3    3.643741214298566E-3    4.405849375343108E-1   -3.119324386997118E-1
 7.837743419400000E9     5.663366126879594E-1   -1.330786245370836E-2    1.601030667404750E-3    3.760353155051559E-3    1.618657327192329E-3    3.643953214810165E-3    4.393134036816442E-1   -3.136998991741125E-1
 7.837775100450000E9     5.664262899658007E-1   -1.550576053150906E-2    1.596504950498162E-3    3.720500440685890E-3    1.625443135737571E-3    3.631561608919285E-3    4.380826878328591E-1   -3.155586812519920E-1
 7.837806781500000E9     5.663543574481674E-1   -1.757592541778473E-2    1.645216444004514E-3    3.717773941427126E-3    1.650395313074435E-3    3.635629964212979E-3    4.368133778020759E-1   -3.173704752916288E-1
 7.837838462550000E9     5.662155460434495E-1   -1.961966922882369E-2    1.675992580321054E-3    3.717003771954394E-3    1.668984811864191E-3    3.636477700168673E-3    4.354790121563442E-1   -3.191470061891662E-1
 7.837870143600000E9     5.663267160083438E-1   -2.181823457509000E-2    1.700063305652447E-3    3.701038029773385E-3    1.686325108791930E-3    3.648145691149607E-3    4.341449659946920E-1   -3.209729014106491E-1
 7.837901824650000E9     5.662057199533171E-1   -2.394599131571971E-2    1.703608357603004E-3    3.720960596215269E-3    1.691381623210761E-3    3.649644221209883E-3    4.328452378233124E-1   -3.227880441115965E-1
 7.837933505700000E9     5.661298394139169E-1   -2.589587932773103E-2    1.723163057776774E-3    3.728851763064446E-3    1.724377990267312E-3    3.612268591536570E-3    4.314885708791378E-1   -3.245794134491019E-1
 7.837965186750000E9     5.660535313879099E-1   -2.803427285997168E-2    1.743230873390616E-3    3.711560363796303E-3    1.714763374324010E-3    3.646846892495276E-3    4.301648656264294E-1   -3.263290537076797E-1
 7.837996867800000E9     5.659175575345382E-1   -3.017692775618764E-2    1.755160185570910E-3    3.698729188336299E-3    1.760813139149314E-3    3.648563860422253E-3    4.289598462541632E-1   -3.280577577999667E-1
 7.838028548850000E9     5.658590229795241E-1   -3.222930471953930E-2    1.762200033456102E-3    3.710872675524749E-3    1.783383776608041E-3    3.669177123949354E-3    4.274353831318943E-1   -3.297045248121108E-1
 7.838060229900000E9     5.657050734074703E-1   -3.431861643573510E-2    1.813646924025005E-3    3.713679110489364E-3    1.781533468289744E-3    3.619918168246340E-3    4.261679922287090E-1   -3.316470699517305E-1
 7.838091910950000E9     5.654885515918227E-1   -3.641608638183809E-2    1.832445471640815E-3    3.704817524304781E-3    1.815059298710057E-3    3.643793451813846E-3    4.248017821900371E-1   -3.334456949439639E-1
 7.838123592000000E9     5.654249155228064E-1   -3.871015212232416E-2    1.844817162015984E-3    3.724463825317179E-3    1.826175208286332E-3    3.653991162238316E-3    4.235861460720650E-1   -3.351769423703533E-1
 7.838155273050000E9     5.651472460052124E-1   -4.061273774486120E-2    1.866917971630856E-3    3.698108906130099E-3    1.863293641379277E-3    3.644328397649659E-3    4.220434809724872E-1   -3.368615225296836E-1
 7.838186954100000E9     5.651990833969089E-1   -4.284301538206427E-2    1.871357839870485E-3    3.693495263628986E-3    1.871713187524851E-3    3.669020921830037E-3    4.206771904198771E-1   -3.385004153049119E-1
 7.838218635150000E9     5.650056701840522E-1   -4.495552617060989E-2    1.878669072018816E-3    3.701881414204620E-3    1.872966805972641E-3    3.616676382163943E-3    4.192742383766043E-1   -3.403204081677343E-1
 7.838250316200000E9     5.647229375231689E-1   -4.697747203070806E-2    1.907112173690788E-3    3.688410897874447E-3    1.944606130775760E-3    3.627777403879064E-3    4.177891630208732E-1   -3.421385658738934E-1
 7.838281997250000E9     5.645823676358340E-1   -4.917755378632970E-2    1.925997666481478E-3    3.719723115866718E-3    1.898963683270849E-3    3.609644521584272E-3    4.164368089348237E-1   -3.436907773909565E-1
 7.838313678300000E9     5.644754488786631E-1   -5.127129480562154E-2    1.946279672374058E-3    3.700564217626067E-3    1.956765687029617E-3    3.617089819951232E-3    4.150979298747837E-1   -3.454797649636729E-1
 7.838345359350000E9     5.642660336716792E-1   -5.326589643276946E-2    1.958602010160819E-3    3.704007148747516E-3    1.955585442787663E-3    3.618097456537815E-3    4.135152543210021E-1   -3.473167744075128E-1
 7.838377040400000E9     5.640458093004403E-1   -5.548891174397360E-2    1.995844668319423E-3    3.674314239410312E-3    2.012473059201214E-3    3.642040397771992E-3    4.121625486892793E-1   -3.489595849049754E-1
 7.838408721450000E9     5.638449822052329E-1   -5.760739758488968E-2    2.015446776810370E-3    3.682547863920341E-3    1.982600321328016E-3    3.614594581176212E-3    4.108607058546375E-1   -3.505822308299104E-1
 7.838440402500000E9     5.636246798011060E-1   -5.952052905670761E-2    2.008726509344059E-3    3.673936250062849E-3    2.038997487894573E-3    3.651108151580529E-3    4.093913222156201E-1   -3.523079027557119E-1
 7.838472083550000E9     5.634617501740928E-1   -6.169678159785328E-2    2.036338176994124E-3    3.685265846708820E-3    2.035165014423010E-3    3.638951341445544E-3    4.079032034841402E-1   -3.539475059872842E-1
 7.838503764600000E9     5.632298005018450E-1   -6.383512875631926E-2    2.061338288187482E-3    3.673099795419275E-3    2.048802657526885E-3    3.622080938267068E-3    4.063781279769091E-1   -3.557475329444295E-1
 7.838535445650000E9     5.629413117685196E-1   -6.606297687184678E-2    2.099751085457351E-3    3.667665651847566E-3    2.072260365228083E-3    3.615266114441806E-3    4.050205672081809E-1   -3.572680427358550E-1
 7.838567126700000E9     5.627039128779633E-1   -6.811735518654810E-2    2.121898560627450E-3    3.645331589712419E-3    2.117607365371867E-3    3.611882616519324E-3    4.034577802052465E-1   -3.591078644430367E-1
 7.838598807750000E9     5.625177407170127E-1   -7.013748476875230E-2    2.128856160135165E-3    3.669140358223433E-3    2.072212056438080E-3    3.621659193592010E-3    4.019694062686153E-1   -3.607458175938587E-1
 7.838630488800000E9     5.623419054899906E-1   -7.231100534182409E-2    2.159477479416947E-3    3.685929595006600E-3    2.132737785527466E-3    3.628568110782456E-3    4.006152295469164E-1   -3.623173246136569E-1
 7.838662169850000E9     5.618721700341592E-1   -7.440736195904593E-2    2.179177209510815E-3    3.677723126280967E-3    2.137812689336578E-3    3.592858139498547E-3    3.991794133043748E-1   -3.640153845710086E-1
 7.838693850900000E9     5.617031303463664E-1   -7.642336013940154E-2    2.195589335659510E-3    3.678441583647852E-3    2.155657934385276E-3    3.626078681939542E-3    3.977597760706302E-1   -3.655609122502139E-1
 7.838725531950000E9     5.614261403620509E-1   -7.862585505993873E-2    2.206352696460532E-3    3.678113499256318E-3    2.199262505376854E-3    3.647506066959275E-3    3.962659475140193E-1   -3.672151484130490E-1
 7.838757213000000E9     5.610349088825434E-1   -8.078874510602435E-2    2.219353503009247E-3    3.669954181827198E-3    2.201370742930907E-3    3.631188210404526E-3    3.945290157430469E-1   -3.690070645999171E-1
 7.838788894050000E9     5.607588456855173E-1   -8.264709686731195E-2    2.252721876186356E-3    3.645006088092753E-3    2.239536791675749E-3    3.603897127492764E-3    3.930992868078063E-1   -3.705681129012504E-1
 7.838820575100000E9     5.604232255825525E-1   -8.481629032023626E-2    2.311052879926009E-3    3.662605484119423E-3    2.245549532457990E-3    3.555389652237120E-3    3.915317160126978E-1   -3.721657616522779E-1
 7.838852256150000E9     5.602395327506116E-1   -8.685844406142172E-2    2.300909669854832E-3    3.625213686266855E-3    2.309612139374751E-3    3.589717871935743E-3    3.900621861844428E-1   -3.738165604675106E-1
 7.838883937200000E9     5.597540691332484E-1   -8.897203026630077E-2    2.319059658109352E-3    3.661708632472787E-3    2.291506172171381E-3    3.602696364162949E-3    3.885496045635380E-1   -3.755840041526796E-1
 7.838915618250000E9     5.594930242419639E-1   -9.117342459414617E-2    2.333717278608694E-3    3.639877850040423E-3    2.326436033638868E-3    3.612947556031143E-3    3.870872862232175E-1   -3.770185107320043E-1
 7.838947299300000E9     5.591226462603575E-1   -9.322436492451590E-2    2.354606283879426E-3    3.642873299312221E-3    2.353015748566289E-3    3.574282129054956E-3    3.854664021880781E-1   -3.785817739957922E-1
 7.838978980350000E9     5.588888149809477E-1   -9.532800056066523E-2    2.346119151155341E-3    3.621287669652684E-3    2.351513008354498E-3    3.615840098007903E-3    3.839158293151630E-1   -3.801627776834025E-1
 7.839010661400000E9     5.584575967685589E-1   -9.746571229701323E-2    2.413376146635416E-3    3.624838268176067E-3    2.363904829034613E-3    3.617047075196854E-3    3.824004296977656E-1   -3.818055708884083E-1
 7.839042342450000E9     5.580331591807964E-1   -9.950507531896242E-2    2.434290489439635E-3    3.647232563711181E-3    2.407497801713100E-3    3.594586398926502E-3    3.807767787855993E-1   -3.833991876537675E-1
 7.839074023500000E9     5.576846775574715E-1   -1.015056112917808E-1    2.458668864892773E-3    3.634671449025829E-3    2.427698488828827E-3    3.595292000490628E-3    3.792749945587980E-1   -3.848594815429716E-1
 7.839105704550000E9     5.573927212272800E-1   -1.036466848856494E-1    2.489776734868346E-3    3.658912807824221E-3    2.446982274716311E-3    3.623799500928799E-3    3.776574161092941E-1   -3.865166076760897E-1
 7.839137385600000E9     5.570182990649828E-1   -1.058088218242227E-1    2.506750628310094E-3    3.611086908786167E-3    2.475371093471582E-3    3.567322840352514E-3    3.759863512771080E-1   -3.880130311163841E-1
 7.839169066650000E9     5.566774974577453E-1   -1.080730381337674E-1    2.514367537289318E-3    3.637015725649043E-3    2.476480679102982E-3    3.598366450554510E-3    3.743563349485483E-1   -3.895713759256398E-1
 7.839200747700000E9     5.561594762063681E-1   -1.098808466578242E-1    2.543322922445233E-3    3.656082248608639E-3    2.511504441449270E-3    3.596474586072692E-3    3.728599370907711E-1   -3.912307305760095E-1
 7.839232428750000E9     5.556631646389441E-1   -1.119640905618667E-1    2.553030189298635E-3    3.627698184413575E-3    2.514918176768655E-3    3.602158711845881E-3    3.713643575657255E-1   -3.928146105487748E-1
 7.839264109800000E9     5.554200893912838E-1   -1.140662513762115E-1    2.556469159493134E-3    3.626397215378668E-3    2.559120514984363E-3    3.567608169030632E-3    3.695652326780138E-1   -3.942768439996375E-1
 7.839295790850000E9     5.549360788025097E-1   -1.160955397404961E-1    2.601314277913390E-3    3.617336039074750E-3    2.581690244316551E-3    3.587234930702113E-3    3.680703588190057E-1   -3.958011578973202E-1
 7.839327471900000E9     5.545484780819052E-1   -1.182234899357502E-1    2.615732965103869E-3    3.627902049856018E-3    2.622896060485455E-3    3.557470846188252E-3    3.663782763683307E-1   -3.973464850925579E-1
 7.839359152950000E9     5.541195818815571E-1   -1.202770013233514E-1    2.644550157814768E-3    3.621660701303951E-3    2.608873891743671E-3    3.565363381607521E-3    3.647773487028066E-1   -3.988538030604289E-1
 7.839390834000000E9     5.534870973744299E-1   -1.224066121811303E-1    2.673537158358017E-3    3.612109159355877E-3    2.672494299872638E-3    3.582530747944299E-3    3.631527349923964E-1   -4.002601989086611E-1
 7.839422515050000E9     5.530579438123183E-1   -1.244453120153591E-1    2.694146700440670E-3    3.615892734610134E-3    2.651326843521219E-3    3.579677759989604E-3    3.614380759660888E-1   -4.017992393586786E-1
 7.839454196100000E9     5.527286124572837E-1   -1.265097474918621E-1    2.705218179891381E-3    3.590037059160854E-3    2.700066367401136E-3    3.608129777750946E-3    3.598776572799479E-1   -4.032838210139980E-1
 7.839485877150000E9     5.522412206145856E-1   -1.286906504742687E-1    2.765081907279622E-3    3.579566589174900E-3    2.704667056976346E-3    3.531612948671232E-3    3.581746592341291E-1   -4.047126064064733E-1
 7.839517558200000E9     5.517558926507239E-1   -1.306017916779044E-1    2.755343723624413E-3    3.588626991848305E-3    2.723727007655868E-3    3.572613457373847E-3    3.565308488937499E-1   -4.063432881866951E-1
 7.839549239250000E9     5.512250997582080E-1   -1.327534933431055E-1    2.795425363839386E-3    3.595427164681080E-3    2.757846046516814E-3    3.584887602974909E-3    3.548861982247333E-1   -4.077140193875664E-1
 7.839580920300000E9     5.506898056657530E-1   -1.347325538979485E-1    2.819304600794983E-3    3.607711078994747E-3    2.779127188902994E-3    3.569671816428474E-3    3.532701429409709E-1   -4.092986442587397E-1
 7.839612601350000E9     5.502033322292558E-1   -1.369679600202845E-1    2.858146203108243E-3    3.574623153671820E-3    2.775935000110431E-3    3.581124642368295E-3    3.515385176090831E-1   -4.106750934903999E-1
 7.839644282400000E9     5.495776050659467E-1   -1.390137940893336E-1    2.864070000339130E-3    3.582112981310866E-3    2.824886626433105E-3    3.563595134571916E-3    3.498427474083980E-1   -4.120909538696818E-1
 7.839675963450000E9     5.490992906133026E-1   -1.409903734995122E-1    2.892309551901352E-3    3.583489464601243E-3    2.858740383332311E-3    3.546755559275314E-3    3.480866666304773E-1   -4.135571030326092E-1
 7.839707644500000E9     5.486039482182413E-1   -1.431056955175135E-1    2.919905015182630E-3    3.593124342050306E-3    2.906387061242628E-3    3.551251657258834E-3    3.464486363664614E-1   -4.149184601964823E-1
 7.839739325550000E9     5.480790481218027E-1   -1.451648995067607E-1    2.948322298819001E-3    3.601770698622751E-3    2.897400820932958E-3    3.557935844796490E-3    3.447176169591235E-1   -4.163868414159113E-1
 7.839771006600000E9     5.474741373494215E-1   -1.472728837832431E-1    2.979689434869716E-3    3.562370568213252E-3    2.908118942611507E-3    3.537258794923267E-3    3.430358184323645E-1   -4.178273078228688E-1
 7.839802687650000E9     5.469072098754963E-1   -1.493027556108775E-1    3.030837665669237E-3    3.595014113696727E-3    2.956858043108026E-3    3.551538440630153E-3    3.412590833706931E-1   -4.191868287089562E-1
 7.839834368700000E9     5.463797457143578E-1   -1.513172737982077E-1    2.998148890127956E-3    3.594291923878696E-3    3.004233648824227E-3    3.551258490903742E-3    3.396550908424543E-1   -4.204894202040711E-1
 7.839866049750000E9     5.458046799318579E-1   -1.532730212575148E-1    3.036522862086191E-3    3.574310595334275E-3    3.017887928169207E-3    3.517676652766739E-3    3.378660294942911E-1   -4.219961711018919E-1
 7.839897730800000E9     5.452969416305417E-1   -1.553232633044490E-1    3.075170506993271E-3    3.559605736990952E-3    3.016848753558467E-3    3.561868890720764E-3    3.362622668927770E-1   -4.234953915128155E-1
 7.839929411850000E9     5.445997022922411E-1   -1.573507901221790E-1    3.104633143896297E-3    3.542479737586576E-3    3.054016236509741E-3    3.533540683329791E-3    3.343613879828842E-1   -4.247776233256922E-1
 7.839961092900000E9     5.440028791056198E-1   -1.595375707826902E-1    3.116355341304179E-3    3.527978077232453E-3    3.083050402973503E-3    3.519888774913920E-3    3.327720554267796E-1   -4.261660306915780E-1
 7.839992773950000E9     5.433755678674284E-1   -1.615538551268657E-1    3.163602902082331E-3    3.570710566899707E-3    3.125158352375538E-3    3.553006532510249E-3    3.308448953570529E-1   -4.275990237425369E-1
 7.840024455000000E9     5.427600235080677E-1   -1.634785878564307E-1    3.175204700176144E-3    3.578199803177600E-3    3.146472313331684E-3    3.539567491968204E-3    3.292536791593776E-1   -4.288717584494721E-1
 7.840056136050000E9     5.421567630590380E-1   -1.656450437997017E-1    3.210938910621456E-3    3.571234401231682E-3    3.163102596609671E-3    3.535597432249845E-3    3.274543479945342E-1   -4.302008288998687E-1
 7.840087817100000E9     5.415059306637173E-1   -1.676859687050770E-1    3.239689760617557E-3    3.541694787850610E-3    3.227436943216429E-3    3.521875863471582E-3    3.256440549075489E-1   -4.316138347163481E-1
 7.840119498150000E9     5.407740422716628E-1   -1.697262015485444E-1    3.251748032561182E-3    3.538680640372874E-3    3.222628730060621E-3    3.544615129129495E-3    3.239827433060772E-1   -4.330191315357363E-1
 7.840151179200000E9     5.403189809498653E-1   -1.717106578343851E-1    3.308477057943472E-3    3.552134018561423E-3    3.275977862653819E-3    3.505472352923767E-3    3.221282014669988E-1   -4.344381660144888E-1
 7.840182860250000E9     5.394722421852205E-1   -1.739139313205856E-1    3.319650576419358E-3    3.526653001756979E-3    3.284753762313105E-3    3.503477160886634E-3    3.204916619480268E-1   -4.356374150886455E-1
 7.840214541300000E9     5.388499438605719E-1   -1.757858371770109E-1    3.361111265155163E-3    3.539530677665485E-3    3.328537095882559E-3    3.522356370441159E-3    3.185395310053040E-1   -4.371076385232070E-1
 7.840246222350000E9     5.382871936828897E-1   -1.778820295679568E-1    3.380461488437857E-3    3.564722100733128E-3    3.341249992980596E-3    3.477185624348123E-3    3.168058740553067E-1   -4.383529931699608E-1
 7.840277903400000E9     5.376154522702080E-1   -1.799928932057051E-1    3.415121205741908E-3    3.531016422564596E-3    3.353475825155229E-3    3.513407187588689E-3    3.148726599468260E-1   -4.396292972515926E-1
 7.840309584450000E9     5.368542145685089E-1   -1.818729205084726E-1    3.449799352695959E-3    3.541372225053558E-3    3.368629607977087E-3    3.500886906839109E-3    3.133369503177011E-1   -4.407866743493161E-1
 7.840341265500000E9     5.360847777038910E-1   -1.839804750773230E-1    3.458134694017060E-3    3.548210535691311E-3    3.439392382111784E-3    3.501413334978715E-3    3.112791756228419E-1   -4.423984916789206E-1
