#  HZ   S   RI   R     50.00 
! Rohde & Schwarz Vector Network Analyzer 
! Rohde-Schwarz,ZNB20-2Port,1311601062101988,3.16
! Created: UTC 12/23/2023, 3:40:40 AM
! freq[Hz]                re:S11                  im:S11                  re:S21                  im:S21                  re:S12                  im:S12                  re:S22                  im:S22
 7.837389906000000E9     5.665175851221028E-1    9.082198811472479E-3    1.401285650124278E-3    3.738822102569046E-3    1.430114442503290E-3    3.646790017805465E-3    4.529226523176965E-1   -2.938325018671467E-1
 7.837421908850000E9     5.664756666626728E-1    6.986339815017499E-3    1.427414662145777E-3    3.744728219534624E-3    1.447900768501314E-3    3.681020045275090E-3    4.518279064904914E-1   -2.955466484203863E-1
 7.837453911700000E9     5.665098149576783E-1    4.839843579581291E-3    1.440450055374468E-3    3.723395620411601E-3    1.470983050255122E-3    3.649366873307757E-3    4.504111664081677E-1   -2.974904903327199E-1
 7.837485914550000E9     5.664789593377215E-1    2.635018071692532E-3    1.498561106754369E-3    3.746703494228545E-3    1.448383705556365E-3    3.677052435109156E-3    4.493778311453851E-1   -2.994319378923729E-1
 7.837517917400000E9     5.665320783044475E-1    6.108819498380337E-4    1.483490866788519E-3    3.726436319853239E-3    1.497727120805043E-3    3.678383653011186E-3    4.480822849100484E-1   -3.011614642943234E-1
 7.837549920250000E9     5.667679698185998E-1   -1.460020525836637E-3    1.507424241360620E-3    3.739126835742983E-3    1.500916925443810E-3    3.664930004551569E-3    4.466972170712541E-1   -3.030486458356630E-1
 7.837581923100000E9     5.666042775091585E-1   -3.627292081572964E-3    1.514807815167855E-3    3.715020624320029E-3    1.523816001206641E-3    3.665810143459642E-3    4.454819309078334E-1   -3.049631557577220E-1
 7.837613925950000E9     5.665176168362493E-1   -5.715697745599093E-3    1.531405875095140E-3    3.734290647478881E-3    1.542299105403592E-3    3.658767783565321E-3    4.441910002063401E-1   -3.066193711175383E-1
 7.837645928800000E9     5.665968879649795E-1   -7.842285541706894E-3    1.567809991917861E-3    3.711687795263873E-3    1.564842574285780E-3    3.665675204884998E-3    4.430477013711235E-1   -3.086433665905330E-1
 7.837677931650000E9     5.665991429545937E-1   -9.937588826914744E-3    1.579615047268288E-3    3.723831060933547E-3    1.576192214169437E-3    3.696570918151075E-3    4.418994213265314E-1   -3.103867767662612E-1
 7.837709934500000E9     5.664935966740362E-1   -1.224979123186845E-2    1.595326928066681E-3    3.730949029753943E-3    1.602623314970649E-3    3.653077805213370E-3    4.403728776493396E-1   -3.122369272485662E-1
 7.837741937350000E9     5.664924788701047E-1   -1.435852652504917E-2    1.609640549895336E-3    3.704391316193564E-3    1.641429193274830E-3    3.653648470936019E-3    4.392203018305236E-1   -3.141404168557302E-1
 7.837773940200000E9     5.664440904565465E-1   -1.641383718628580E-2    1.653981128493531E-3    3.710240695881165E-3    1.621525097303821E-3    3.634113429827369E-3    4.378642480079307E-1   -3.160244673347003E-1
 7.837805943050000E9     5.664911478171949E-1   -1.855166335807480E-2    1.649325454838946E-3    3.700931045029230E-3    1.650916908805666E-3    3.636086441010647E-3    4.364818145433785E-1   -3.178290326757010E-1
 7.837837945900000E9     5.663837929149593E-1   -2.061257303577870E-2    1.709636767459105E-3    3.721080359254722E-3    1.675118397495586E-3    3.620066095151833E-3    4.353776177579558E-1   -3.194874749878527E-1
 7.837869948750000E9     5.661532495403417E-1   -2.284708824515049E-2    1.716019378749083E-3    3.724318981797144E-3    1.693707206995062E-3    3.633107885768711E-3    4.338983976149963E-1   -3.214671829032316E-1
 7.837901951600000E9     5.661614171558007E-1   -2.489633025378732E-2    1.705578411952637E-3    3.696981838070375E-3    1.691056127610769E-3    3.637883258351180E-3    4.325838705716857E-1   -3.231572871887359E-1
 7.837933954450000E9     5.661636138231341E-1   -2.695314004756515E-2    1.739974015030074E-3    3.691943920838158E-3    1.701467259985734E-3    3.644758905153188E-3    4.311905175739386E-1   -3.249111907044005E-1
 7.837965957300000E9     5.660170839674901E-1   -2.925752870931526E-2    1.767914844769901E-3    3.692988972357488E-3    1.749943192896918E-3    3.660411146793874E-3    4.300006509295492E-1   -3.267479746155055E-1
 7.837997960150000E9     5.658264069912300E-1   -3.130092204193445E-2    1.781253325128313E-3    3.693892757466560E-3    1.773351200637828E-3    3.652909072769867E-3    4.284977698478589E-1   -3.285943237630747E-1
 7.838029963000000E9     5.657225943162972E-1   -3.335522546894469E-2    1.794439521808528E-3    3.715452691837753E-3    1.781192245121783E-3    3.644406730652396E-3    4.272633540699282E-1   -3.304509071916721E-1
 7.838061965850000E9     5.656939036974901E-1   -3.557327770946029E-2    1.790466572666236E-3    3.696460844312393E-3    1.774300442688199E-3    3.647010492958569E-3    4.258014752004021E-1   -3.321436248103869E-1
 7.838093968700000E9     5.655899261537179E-1   -3.765236769099814E-2    1.793957744069373E-3    3.723082293103079E-3    1.804815595413875E-3    3.659488379993196E-3    4.244499487772003E-1   -3.338927097264962E-1
 7.838125971550000E9     5.654600373047833E-1   -3.985013863148498E-2    1.831926611348002E-3    3.709453059468530E-3    1.818618053934221E-3    3.633467419101868E-3    4.230510464316480E-1   -3.356840240304512E-1
 7.838157974400000E9     5.653275996455475E-1   -4.195954014110360E-2    1.863472413055564E-3    3.661696138435671E-3    1.862255317627880E-3    3.639380161577919E-3    4.215943247400564E-1   -3.374850096271972E-1
 7.838189977250000E9     5.650638282244932E-1   -4.403640777455631E-2    1.862521058271388E-3    3.709301306855430E-3    1.897927273772411E-3    3.637482790075459E-3    4.202519825784823E-1   -3.394372051220833E-1
 7.838221980100000E9     5.649176616314305E-1   -4.618447950577916E-2    1.903472162747810E-3    3.680422699019123E-3    1.887649648940458E-3    3.646817834610147E-3    4.188013709242152E-1   -3.410394244265743E-1
 7.838253982950000E9     5.646987756725668E-1   -4.823256109226527E-2    1.916246254329985E-3    3.686363501336720E-3    1.910879806463600E-3    3.633912629673807E-3    4.174492425542171E-1   -3.425515948083232E-1
 7.838285985800000E9     5.646684874027845E-1   -5.051045321362804E-2    1.983932510484451E-3    3.684847905776614E-3    1.954036976127729E-3    3.609589280795581E-3    4.159947855867586E-1   -3.445984774155029E-1
 7.838317988650000E9     5.644244110453531E-1   -5.252705465423206E-2    1.984319998370223E-3    3.683715052003411E-3    1.934971379257718E-3    3.624151402251592E-3    4.145033491246399E-1   -3.462625829437941E-1
 7.838349991500000E9     5.643118100951284E-1   -5.464149133950734E-2    1.980038476843165E-3    3.718636158801110E-3    1.969854806304476E-3    3.630751908056333E-3    4.130581925647383E-1   -3.481180645068718E-1
 7.838381994350000E9     5.639684567511145E-1   -5.686054958234080E-2    1.995421629835536E-3    3.672301195489415E-3    2.011141433638262E-3    3.640163593234024E-3    4.118276042002492E-1   -3.495152952882831E-1
 7.838413997200000E9     5.638739684517231E-1   -5.897964901610180E-2    2.036285207570767E-3    3.705463051788270E-3    2.027835103004098E-3    3.614761057651136E-3    4.102997375001037E-1   -3.513638817585096E-1
 7.838446000050000E9     5.636583466170951E-1   -6.098068901942644E-2    2.023647645460875E-3    3.691082423507551E-3    2.041281318400786E-3    3.608817199759040E-3    4.089111355787783E-1   -3.530776830620415E-1
 7.838478002900000E9     5.634943681928176E-1   -6.331690003481172E-2    2.038819815480496E-3    3.667952674043979E-3    2.025460665375385E-3    3.615642029108281E-3    4.072019449715388E-1   -3.548630224699107E-1
 7.838510005750000E9     5.632195618550454E-1   -6.532148386059727E-2    2.101641799417204E-3    3.678376538535758E-3    2.090624478802615E-3    3.616456564798515E-3    4.059048162694483E-1   -3.565287588298343E-1
 7.838542008600000E9     5.629288929623729E-1   -6.736786031824318E-2    2.114832928185926E-3    3.678240611921755E-3    2.068402614983258E-3    3.615741305193357E-3    4.044439563528870E-1   -3.581281855407323E-1
 7.838574011450000E9     5.626948622374962E-1   -6.967214482859443E-2    2.134035471703097E-3    3.667243684175479E-3    2.126318664877027E-3    3.622548938097463E-3    4.031200063642860E-1   -3.599185757721685E-1
 7.838606014300000E9     5.624487815126461E-1   -7.170803955708380E-2    2.149634265851250E-3    3.669858277116471E-3    2.102985126110530E-3    3.604816576294827E-3    4.014198107419927E-1   -3.615053644068154E-1
 7.838638017150000E9     5.622804778690766E-1   -7.384963874124945E-2    2.174807976555062E-3    3.672138562458791E-3    2.150031201465671E-3    3.604253816281162E-3    3.998940644965053E-1   -3.632803920964768E-1
 7.838670020000000E9     5.618835018760706E-1   -7.596943742800290E-2    2.180615600112546E-3    3.670885161105978E-3    2.158225024764737E-3    3.626773048232132E-3    3.985492483769769E-1   -3.650161951247556E-1
 7.838702022850000E9     5.616160698455224E-1   -7.797833999362692E-2    2.199141589892598E-3    3.666999452799561E-3    2.186313947822986E-3    3.585035902888628E-3    3.970017836075221E-1   -3.664840970445957E-1
 7.838734025700000E9     5.613073178854008E-1   -8.020670814163582E-2    2.225068059357886E-3    3.660341231944868E-3    2.221075875401875E-3    3.638795318911863E-3    3.954816074989365E-1   -3.681887486821169E-1
 7.838766028550000E9     5.610223050271500E-1   -8.233697640167444E-2    2.264313609083491E-3    3.633633388227678E-3    2.224031403332270E-3    3.602708714279257E-3    3.939561809728714E-1   -3.698033292428635E-1
 7.838798031400000E9     5.606123166053532E-1   -8.431965797270016E-2    2.267468242205284E-3    3.669773441964572E-3    2.232902662254689E-3    3.605449240665978E-3    3.924586404496178E-1   -3.714070449323367E-1
 7.838830034250000E9     5.604222261085547E-1   -8.649864213811281E-2    2.298871580128276E-3    3.667214175668012E-3    2.243544979399944E-3    3.627484013562394E-3    3.908825442730204E-1   -3.731889337257560E-1
 7.838862037100000E9     5.600472211924168E-1   -8.865166738915807E-2    2.313655882337464E-3    3.683438864378599E-3    2.266927078228633E-3    3.632471915442727E-3    3.892415808604789E-1   -3.747739340148898E-1
 7.838894039950000E9     5.596012610009047E-1   -9.068378190894173E-2    2.332390239631196E-3    3.662925467161506E-3    2.322451110094817E-3    3.624030479456428E-3    3.878572226335547E-1   -3.762305454835519E-1
 7.838926042800000E9     5.594049126813639E-1   -9.291773329091424E-2    2.353168276492634E-3    3.622674356300337E-3    2.316807289424141E-3    3.622762767457471E-3    3.861885088598546E-1   -3.778676166563816E-1
 7.838958045650000E9     5.590711507576855E-1   -9.494741106493367E-2    2.379733169974714E-3    3.639910281772136E-3    2.350191040939247E-3    3.602882336624539E-3    3.845869259089896E-1   -3.794910015730959E-1
 7.838990048500000E9     5.587375412222123E-1   -9.720084803254350E-2    2.404371989768401E-3    3.636968753228818E-3    2.367574165848405E-3    3.600227054680952E-3    3.830422503919472E-1   -3.812037103349082E-1
 7.839022051350000E9     5.582713435099248E-1   -9.924244151157345E-2    2.398935733681252E-3    3.661809341508740E-3    2.387782860644464E-3    3.599114678078500E-3    3.815146202467292E-1   -3.827497058225012E-1
 7.839054054200000E9     5.578953315577506E-1   -1.013353311598827E-1    2.445505488407227E-3    3.669990554438406E-3    2.434062354322994E-3    3.598185934834489E-3    3.798332650736354E-1   -3.844311345270811E-1
 7.839086057050000E9     5.576085486679144E-1   -1.033750352821006E-1    2.472160280901681E-3    3.656104177442628E-3    2.431917743396157E-3    3.605494073969429E-3    3.783460652939076E-1   -3.860883031213542E-1
 7.839118059900000E9     5.571278395263238E-1   -1.053492341175650E-1    2.460352685671323E-3    3.648635858443799E-3    2.453090749332431E-3    3.591537177444085E-3    3.765440228519852E-1   -3.875104506408755E-1
 7.839150062750000E9     5.567039528157010E-1   -1.075756750541367E-1    2.520275126309346E-3    3.654324808840447E-3    2.496599169874742E-3    3.598593109873468E-3    3.750883918198038E-1   -3.891535461817644E-1
 7.839182065600000E9     5.563064542358686E-1   -1.096418894391863E-1    2.539550885673047E-3    3.646825853558124E-3    2.500828433882473E-3    3.613376675323180E-3    3.734758472266872E-1   -3.906711552262653E-1
 7.839214068450000E9     5.560279974591660E-1   -1.117618551942814E-1    2.553691793242378E-3    3.654376886149873E-3    2.537447847949541E-3    3.567376441131784E-3    3.718413459320480E-1   -3.922011755781238E-1
 7.839246071300000E9     5.554841149890701E-1   -1.140537813263509E-1    2.569110724723799E-3    3.633292505318634E-3    2.572552431921660E-3    3.578845807997252E-3    3.702367776446439E-1   -3.937398511559181E-1
 7.839278074150000E9     5.551366259136586E-1   -1.159854026818520E-1    2.586128967572626E-3    3.632161452797228E-3    2.610106150901170E-3    3.570726467951949E-3    3.686432984243645E-1   -3.953532950138914E-1
 7.839310077000000E9     5.546293565208130E-1   -1.180860784381444E-1    2.626783583967349E-3    3.643649924673714E-3    2.577259807824402E-3    3.576907352343099E-3    3.669625571231461E-1   -3.968725051397728E-1
 7.839342079850000E9     5.542018693886891E-1   -1.201212469540789E-1    2.631847614136936E-3    3.637232686084135E-3    2.607494460833894E-3    3.603107724890409E-3    3.652626220370551E-1   -3.984487986445119E-1
 7.839374082700000E9     5.537980407648427E-1   -1.222158447942984E-1    2.704395538837833E-3    3.616860337675985E-3    2.623292235559726E-3    3.571569004022602E-3    3.636632631369607E-1   -3.999214654837828E-1
 7.839406085550000E9     5.530975698478975E-1   -1.245661046797794E-1    2.677775802935509E-3    3.591991133304548E-3    2.663696318302174E-3    3.564123970940479E-3    3.620500628143496E-1   -4.014086387915400E-1
 7.839438088400000E9     5.528527101260402E-1   -1.264765857898135E-1    2.702715972747150E-3    3.627454825464776E-3    2.686246660021411E-3    3.569379285312835E-3    3.603970641764005E-1   -4.029283117976358E-1
 7.839470091250000E9     5.523998455060317E-1   -1.286393319640493E-1    2.744870681682935E-3    3.611225053525440E-3    2.726468125882773E-3    3.565374218358210E-3    3.587171187346098E-1   -4.044131044215598E-1
 7.839502094100000E9     5.519142352761157E-1   -1.306273693411754E-1    2.764729422057723E-3    3.623461531171460E-3    2.735337237573183E-3    3.563889899263092E-3    3.570697318484570E-1   -4.058539679543302E-1
 7.839534096950000E9     5.513572679727351E-1   -1.327164378282531E-1    2.784355916383887E-3    3.600917565136871E-3    2.780684159948912E-3    3.565153674768941E-3    3.553270204233520E-1   -4.073183764718820E-1
 7.839566099800000E9     5.508642239809327E-1   -1.346954619091646E-1    2.821819122808791E-3    3.615777279354219E-3    2.780323102564385E-3    3.550671350156995E-3    3.536968094512344E-1   -4.090311243947690E-1
 7.839598102650000E9     5.502757951610788E-1   -1.368998373408195E-1    2.840044682785090E-3    3.593080929322053E-3    2.811388104754412E-3    3.575382923639230E-3    3.519732644601399E-1   -4.102616512394335E-1
 7.839630105500000E9     5.496246837373731E-1   -1.390368106881781E-1    2.868660530896656E-3    3.584537824810076E-3    2.823466855062950E-3    3.554285338511701E-3    3.502390372272174E-1   -4.118943726054667E-1
 7.839662108350000E9     5.492311639051470E-1   -1.411563433997250E-1    2.903969884321541E-3    3.585257879150781E-3    2.849005479068874E-3    3.535841377965626E-3    3.485259771044660E-1   -4.134056527422920E-1
 7.839694111200000E9     5.486612522898580E-1   -1.431420112369225E-1    2.919420798577785E-3    3.599030281431128E-3    2.891113992100893E-3    3.543683743533954E-3    3.469250099142632E-1   -4.147790867448860E-1
 7.839726114050000E9     5.481290132924591E-1   -1.453711444912549E-1    2.946906121977766E-3    3.599020267377840E-3    2.941782793052971E-3    3.530583659355285E-3    3.451289121943616E-1   -4.162695474281006E-1
 7.839758116900000E9     5.476476551839569E-1   -1.473506051182653E-1    2.969013177344102E-3    3.617304374175047E-3    2.956741665958284E-3    3.542567018640945E-3    3.432140530116339E-1   -4.176170431614500E-1
 7.839790119750000E9     5.469741384445513E-1   -1.494651975934991E-1    2.999547615843828E-3    3.580624723966334E-3    2.956128056387572E-3    3.540752990142177E-3    3.416000682935723E-1   -4.191307290306647E-1
 7.839822122600000E9     5.463609156010216E-1   -1.516044571263344E-1    3.033408818034166E-3    3.572977728000976E-3    2.985905635645429E-3    3.567976160961201E-3    3.397681699530254E-1   -4.205491309924737E-1
 7.839854125450000E9     5.459058272006396E-1   -1.536325845338096E-1    3.048307633805216E-3    3.567983507466589E-3    2.975732539561998E-3    3.562213449978756E-3    3.381689769191299E-1   -4.218733991045470E-1
 7.839886128300000E9     5.452413949428883E-1   -1.556890427910906E-1    3.096796757139591E-3    3.581167302005125E-3    3.029115271875977E-3    3.567383683654512E-3    3.363525040565987E-1   -4.233673879974982E-1
 7.839918131150000E9     5.446033917618167E-1   -1.577351801357063E-1    3.111628220417868E-3    3.573218911034192E-3    3.046512283859155E-3    3.552894704441274E-3    3.346438714985955E-1   -4.246776138306065E-1
 7.839950134000000E9     5.439277467986381E-1   -1.598408063693423E-1    3.139418699244005E-3    3.580671150431493E-3    3.093208866298229E-3    3.528480468167373E-3    3.328986320433971E-1   -4.261890588204515E-1
 7.839982136850000E9     5.433402501335355E-1   -1.617710978793502E-1    3.182597352081115E-3    3.555398448643263E-3    3.086754802201092E-3    3.533948883173962E-3    3.311199310034100E-1   -4.274289225209515E-1
 7.840014139700000E9     5.428018258849301E-1   -1.639424886574936E-1    3.204311082323109E-3    3.553461888511886E-3    3.147383885308368E-3    3.526809144868880E-3    3.293879223381355E-1   -4.288492980744357E-1
 7.840046142550000E9     5.421930346263536E-1   -1.660860027821324E-1    3.245653084125492E-3    3.549618972955588E-3    3.160372343133727E-3    3.547308392260922E-3    3.275763830553421E-1   -4.302712399419508E-1
 7.840078145400000E9     5.414042404129383E-1   -1.680745225812537E-1    3.243093336510529E-3    3.571648504910240E-3    3.199185360969349E-3    3.565258567911531E-3    3.257306826983024E-1   -4.315692606788818E-1
 7.840110148250000E9     5.409955080764800E-1   -1.701988276993263E-1    3.250949492084827E-3    3.534781457611989E-3    3.247109086754616E-3    3.539088355997989E-3    3.241777055948922E-1   -4.329456363340081E-1
 7.840142151100000E9     5.401896047478582E-1   -1.722781527281606E-1    3.310374990150610E-3    3.545246215894037E-3    3.266756266056617E-3    3.550982467563816E-3    3.221499144277469E-1   -4.345238661508360E-1
 7.840174153950000E9     5.395730847751407E-1   -1.741557247334829E-1    3.351985512285655E-3    3.539836018528071E-3    3.285313013944774E-3    3.524208970269259E-3    3.205888304365157E-1   -4.357186906603308E-1
 7.840206156800000E9     5.389112002374775E-1   -1.763752233667894E-1    3.358996887879923E-3    3.520063229903250E-3    3.333454404560253E-3    3.562815015550715E-3    3.186575205521192E-1   -4.370090534034360E-1
 7.840238159650000E9     5.381557273133218E-1   -1.784961481757150E-1    3.397813991144330E-3    3.552481881794781E-3    3.334822149378074E-3    3.501658544867827E-3    3.169581820143134E-1   -4.383959645902271E-1
 7.840270162500000E9     5.373731503035624E-1   -1.804195992133689E-1    3.429457293020435E-3    3.533130917554165E-3    3.377662984804962E-3    3.493492699237439E-3    3.151129642045504E-1   -4.396379320392810E-1
