#  HZ   S   RI   R     50.00 
! Rohde & Schwarz Vector Network Analyzer 
! Rohde-Schwarz,ZNB20-2Port,1311601062101988,3.16
! Created: UTC 12/23/2023, 3:41:51 AM
! freq[Hz]                re:S11                  im:S11                  re:S21                  im:S21                  re:S12                  im:S12                  re:S22                  im:S22
 7.837276084000000E9     5.661106844700172E-1    1.678227386173723E-2    1.347878588047144E-3    3.732517675159828E-3    1.360414589050043E-3    3.659621240851071E-3    4.572014759568631E-1   -2.868868161616752E-1
 7.837308481500000E9     5.662584963681275E-1    1.482899687913965E-2    1.363862155227199E-3    3.729237438860165E-3    1.358842571357998E-3    3.659859788911886E-3    4.559581575098042E-1   -2.888145868362497E-1
 7.837340879000000E9     5.664022019438980E-1    1.261770157873169E-2    1.377294754066205E-3    3.743091251473415E-3    1.364417677336783E-3    3.676946764999184E-3    4.548820317553498E-1   -2.906493096585697E-1
 7.837373276500000E9     5.663514487355855E-1    1.046227339132651E-2    1.381821114582558E-3    3.752612004523870E-3    1.416949802594676E-3    3.660737498473064E-3    4.535372804485888E-1   -2.926311352969800E-1
 7.837405674000000E9     5.663474096897098E-1    8.359525749312258E-3    1.395422147162566E-3    3.735821477969981E-3    1.436087804477231E-3    3.649483924991155E-3    4.523508968763329E-1   -2.946498304935473E-1
 7.837438071500000E9     5.664850468547852E-1    6.216785576428888E-3    1.434662442878440E-3    3.758742565176348E-3    1.445716465921897E-3    3.662457104724303E-3    4.511604081585115E-1   -2.964639727507216E-1
 7.837470469000000E9     5.664563038945900E-1    4.071850189929325E-3    1.425705081398117E-3    3.744277927240732E-3    1.454945107902336E-3    3.695425408349069E-3    4.499658554215721E-1   -2.983356049777656E-1
 7.837502866500000E9     5.665450103200246E-1    1.747345490370587E-3    1.468804908958433E-3    3.735426494099342E-3    1.489105453622284E-3    3.691469167786617E-3    4.486441679841021E-1   -3.002877913526841E-1
 7.837535264000000E9     5.665936064481000E-1   -2.771273352443599E-4    1.514102670648199E-3    3.743771823229569E-3    1.495933157185773E-3    3.675892915544975E-3    4.472993190681429E-1   -3.022491761341533E-1
 7.837567661500000E9     5.665358988944732E-1   -2.400670413812044E-3    1.500150252221681E-3    3.757438284048011E-3    1.543404667613187E-3    3.682460107309877E-3    4.461838759237168E-1   -3.041021932480489E-1
 7.837600059000000E9     5.665712198462806E-1   -4.703155487275822E-3    1.552771517105825E-3    3.712399067878689E-3    1.551187158103558E-3    3.676694343974767E-3    4.448870351749863E-1   -3.058519743916090E-1
 7.837632456500000E9     5.664779118356791E-1   -6.687229751282138E-3    1.538936156613104E-3    3.721996296278723E-3    1.542937897126027E-3    3.644077900589509E-3    4.434497545688483E-1   -3.077336198371954E-1
 7.837664854000000E9     5.664425938307041E-1   -8.812411922737811E-3    1.580889669818208E-3    3.730592434243568E-3    1.576392688860362E-3    3.702106729404777E-3    4.422613198518986E-1   -3.095500277960222E-1
 7.837697251500000E9     5.665748848617177E-1   -1.114166061417012E-2    1.612148720623098E-3    3.735809445370409E-3    1.598098415342760E-3    3.679879872442835E-3    4.409573602133719E-1   -3.116174175145499E-1
 7.837729649000000E9     5.665175289326966E-1   -1.316361197636283E-2    1.590861140737224E-3    3.734581748204097E-3    1.592314917576421E-3    3.675357408632572E-3    4.395894644079237E-1   -3.134968325876238E-1
 7.837762046500000E9     5.664855515288344E-1   -1.550026689292833E-2    1.647732120127135E-3    3.704278632330782E-3    1.609586167179457E-3    3.675426925027871E-3    4.384704663121624E-1   -3.152621483248476E-1
 7.837794444000000E9     5.662687133498171E-1   -1.744137933298060E-2    1.629275091828226E-3    3.715054037559784E-3    1.663750759949077E-3    3.675948131433826E-3    4.369724757588085E-1   -3.169686962212909E-1
 7.837826841500000E9     5.662077345530027E-1   -1.967161411770024E-2    1.671662414563043E-3    3.693219214664702E-3    1.663493963084878E-3    3.650304200864252E-3    4.358071545995013E-1   -3.188642591839527E-1
 7.837859239000000E9     5.662779818473332E-1   -2.196577109946552E-2    1.680841146712704E-3    3.734115629482301E-3    1.686916246929248E-3    3.653428831113034E-3    4.342519357324892E-1   -3.208001304101875E-1
 7.837891636500000E9     5.662583196686591E-1   -2.399918222311638E-2    1.680639134253396E-3    3.698892996611321E-3    1.735096412454257E-3    3.664033063222216E-3    4.330862210277533E-1   -3.225935197280272E-1
 7.837924034000000E9     5.661261604871474E-1   -2.614665297099752E-2    1.730878296185267E-3    3.746255409457756E-3    1.729646117950380E-3    3.674700510942922E-3    4.316474555953420E-1   -3.245652691540955E-1
 7.837956431500000E9     5.660892861526529E-1   -2.833129072856573E-2    1.747410607026990E-3    3.695339137777680E-3    1.760663341714289E-3    3.642980722253337E-3    4.303467476509696E-1   -3.262726755824135E-1
 7.837988829000000E9     5.658366781413338E-1   -3.059519049911862E-2    1.745515976564864E-3    3.711711899759623E-3    1.735998308902969E-3    3.610358592189468E-3    4.291179738710336E-1   -3.280673003179815E-1
 7.838021226500000E9     5.656843387510913E-1   -3.264893819452031E-2    1.801984823008502E-3    3.696847082558511E-3    1.787356493503710E-3    3.643670025733349E-3    4.274547261891366E-1   -3.298912262630000E-1
 7.838053624000000E9     5.656924807165894E-1   -3.475997357561793E-2    1.781290710508179E-3    3.723659640001533E-3    1.806063620490296E-3    3.654535918966383E-3    4.262043358187674E-1   -3.316778417430869E-1
 7.838086021500000E9     5.656862405032437E-1   -3.703056712580662E-2    1.838512690578903E-3    3.716974789811916E-3    1.830833994229139E-3    3.663842293600450E-3    4.248977559843122E-1   -3.334095442297015E-1
 7.838118419000000E9     5.655037453815175E-1   -3.913569087216470E-2    1.822800369865376E-3    3.713170945601024E-3    1.864464725584551E-3    3.675168577728047E-3    4.233701042329854E-1   -3.352835408677946E-1
 7.838150816500000E9     5.652120435202735E-1   -4.115754724432567E-2    1.856331312701974E-3    3.694865509102262E-3    1.854892661580766E-3    3.624026891222416E-3    4.221393265879858E-1   -3.370181193150139E-1
 7.838183214000000E9     5.651837659917218E-1   -4.339142514595018E-2    1.873990110920393E-3    3.711782792111215E-3    1.900332606244474E-3    3.647714438201599E-3    4.205825570486053E-1   -3.388216273755335E-1
 7.838215611500000E9     5.650441783520742E-1   -4.566034478980311E-2    1.887137250277998E-3    3.689393307285710E-3    1.892955227920127E-3    3.620340351054636E-3    4.190425006232869E-1   -3.406958832788775E-1
 7.838248009000000E9     5.647197336083917E-1   -4.765952119786091E-2    1.908007512494345E-3    3.711385968039671E-3    1.921125436209216E-3    3.664043792990876E-3    4.175300954109261E-1   -3.422874143815973E-1
 7.838280406500000E9     5.646055044495215E-1   -4.991254579731588E-2    1.932788678749821E-3    3.683861593057140E-3    1.924594461883306E-3    3.650566377633614E-3    4.162755028389626E-1   -3.440875975840606E-1
 7.838312804000000E9     5.643826301113795E-1   -5.203455465810445E-2    1.961494452443304E-3    3.722427323953810E-3    1.987431125280700E-3    3.663096591743933E-3    4.147843253699325E-1   -3.459560237194493E-1
 7.838345201500000E9     5.641959569048955E-1   -5.420739508471611E-2    1.978401456270916E-3    3.723194896914019E-3    2.015154026511637E-3    3.636868701650344E-3    4.134402186344148E-1   -3.476845039471124E-1
 7.838377599000000E9     5.640856042006465E-1   -5.630155086150254E-2    2.031226466455320E-3    3.680191682670390E-3    1.992242981540181E-3    3.653779947972819E-3    4.120423454621706E-1   -3.493681389027065E-1
 7.838409996500000E9     5.639147668344230E-1   -5.844032346825179E-2    2.031806306016825E-3    3.695962069028617E-3    2.013329212526351E-3    3.642292688792253E-3    4.104719281662772E-1   -3.511364778901723E-1
 7.838442394000000E9     5.635509683581521E-1   -6.061272242535499E-2    2.023727188085396E-3    3.689590027151988E-3    2.048408506344007E-3    3.648122057296972E-3    4.090778902460890E-1   -3.528910999871416E-1
 7.838474791500000E9     5.633035785356423E-1   -6.275470793026895E-2    2.083210042029961E-3    3.687595850414053E-3    2.056261688449386E-3    3.592938586301987E-3    4.076489215393910E-1   -3.545702108168900E-1
 7.838507189000000E9     5.631020995627168E-1   -6.498968362481145E-2    2.091634169687748E-3    3.706113598487222E-3    2.099857993441244E-3    3.642800463126720E-3    4.059922954849163E-1   -3.563827126205672E-1
 7.838539586500000E9     5.628461326482179E-1   -6.699565446647254E-2    2.094096508381452E-3    3.680432237449802E-3    2.097024411945306E-3    3.608210528520053E-3    4.044930779191959E-1   -3.579809649361763E-1
 7.838571984000000E9     5.626733679028193E-1   -6.928748854391169E-2    2.121543636946321E-3    3.690885858041495E-3    2.102527672203900E-3    3.644345427126233E-3    4.030000478053726E-1   -3.596948179339267E-1
 7.838604381500000E9     5.624326029979970E-1   -7.132072129236258E-2    2.136856027203368E-3    3.710054339009072E-3    2.153075775417334E-3    3.659387692058542E-3    4.014161011355874E-1   -3.612833627178191E-1
 7.838636779000000E9     5.622671057344998E-1   -7.346489909038677E-2    2.172345369338223E-3    3.655350559826153E-3    2.141189515707080E-3    3.618094172302990E-3    4.001645211122580E-1   -3.631550850416216E-1
 7.838669176500000E9     5.619153516096885E-1   -7.567231043821322E-2    2.208308731674307E-3    3.675142937667719E-3    2.155782519033612E-3    3.619306062452029E-3    3.985191757215222E-1   -3.647696074052290E-1
 7.838701574000000E9     5.615465999477676E-1   -7.784845203182539E-2    2.218391689016810E-3    3.678383848542343E-3    2.172498833651005E-3    3.614964322035944E-3    3.969819104343030E-1   -3.665229129436666E-1
 7.838733971500000E9     5.611942030588587E-1   -7.986443666621568E-2    2.226520293809788E-3    3.681261210607873E-3    2.218677922845867E-3    3.581631667703765E-3    3.953765216133590E-1   -3.680035187806557E-1
 7.838766369000000E9     5.608742549113561E-1   -8.219962443890871E-2    2.275252048965736E-3    3.668091216650187E-3    2.233779730489695E-3    3.633073293511303E-3    3.938631303775280E-1   -3.697777190167210E-1
 7.838798766500000E9     5.606999474781805E-1   -8.424213459105270E-2    2.272359514504089E-3    3.697026331706217E-3    2.238892634437298E-3    3.643192364505555E-3    3.924646141326885E-1   -3.714658552498893E-1
 7.838831164000000E9     5.603183336756314E-1   -8.642679155318543E-2    2.291328032419462E-3    3.666475213398528E-3    2.279488425259657E-3    3.621396704918047E-3    3.907067647047259E-1   -3.730654497892496E-1
 7.838863561500000E9     5.600310683930786E-1   -8.857615814671740E-2    2.336237774735217E-3    3.669674556683559E-3    2.289025481614691E-3    3.605946743833386E-3    3.891922308541311E-1   -3.747308394861408E-1
 7.838895959000000E9     5.594895234278979E-1   -9.067461953428592E-2    2.332052886070953E-3    3.647647425877516E-3    2.314515190621542E-3    3.589302713988302E-3    3.877042494424568E-1   -3.763544847629171E-1
 7.838928356500000E9     5.592775163556311E-1   -9.277121125382733E-2    2.368387614101008E-3    3.648233361556838E-3    2.345848841810925E-3    3.609240815452079E-3    3.861012287679847E-1   -3.779731287635740E-1
 7.838960754000000E9     5.589399862070492E-1   -9.507655296150037E-2    2.380075842007317E-3    3.651045987567058E-3    2.348837598669478E-3    3.608185000280722E-3    3.846205175836103E-1   -3.797027509894830E-1
 7.838993151500000E9     5.586138118504713E-1   -9.706650941037541E-2    2.406775109322982E-3    3.682792783975354E-3    2.353551298294932E-3    3.632226967245685E-3    3.829311150461260E-1   -3.812754220460007E-1
 7.839025549000000E9     5.582643992060065E-1   -9.933379933309262E-2    2.433483968167479E-3    3.655441365929336E-3    2.410833305913423E-3    3.602028142373562E-3    3.813108979844833E-1   -3.827808665463125E-1
 7.839057946500000E9     5.578912458746909E-1   -1.013500108469656E-1    2.437845769127538E-3    3.661296547621633E-3    2.416577491569435E-3    3.584519971000664E-3    3.797861365173348E-1   -3.845244651863648E-1
 7.839090344000000E9     5.575115370810859E-1   -1.035669541792198E-1    2.485254796743002E-3    3.656080955168253E-3    2.441468347285186E-3    3.611950562451079E-3    3.781149998668347E-1   -3.860476736738226E-1
 7.839122741500000E9     5.570797732624074E-1   -1.056294548580647E-1    2.493402835434103E-3    3.633066542784906E-3    2.479662520549769E-3    3.600534126293721E-3    3.765040776640374E-1   -3.877120023116937E-1
 7.839155139000000E9     5.566063342812575E-1   -1.078063411620518E-1    2.516035317026717E-3    3.653078737512562E-3    2.505344006116055E-3    3.601065556786795E-3    3.747832157661040E-1   -3.893712922576028E-1
 7.839187536500000E9     5.562778013439115E-1   -1.099133622327678E-1    2.540519117024577E-3    3.658817188304139E-3    2.482844590505079E-3    3.596584207667587E-3    3.732737429089478E-1   -3.908952843146397E-1
 7.839219934000000E9     5.558368100586292E-1   -1.120087573848987E-1    2.585541649437913E-3    3.667742468918072E-3    2.537786925651059E-3    3.585081143321216E-3    3.714236444773126E-1   -3.924564902198495E-1
 7.839252331500000E9     5.553681940373065E-1   -1.141426382415505E-1    2.578888705476779E-3    3.634856532579983E-3    2.551034820313730E-3    3.573797153319383E-3    3.699328046575102E-1   -3.940326778156064E-1
 7.839284729000000E9     5.550065252732629E-1   -1.161705612321531E-1    2.606243378480531E-3    3.608832499841474E-3    2.597592662884682E-3    3.552052019487105E-3    3.681983016434485E-1   -3.955893729789285E-1
 7.839317126500000E9     5.545361803641219E-1   -1.182968721392230E-1    2.681205206252878E-3    3.636201237126868E-3    2.612411939507341E-3    3.601316284133117E-3    3.665219642740362E-1   -3.972345660877246E-1
 7.839349524000000E9     5.539503060388037E-1   -1.206199832123942E-1    2.658448881575085E-3    3.645185418260869E-3    2.602339014401339E-3    3.550020187621629E-3    3.650496964501440E-1   -3.985819686465313E-1
 7.839381921500000E9     5.535244547474275E-1   -1.225923377964137E-1    2.688538877313447E-3    3.623588819999435E-3    2.666802631123360E-3    3.584578518433062E-3    3.634010497322119E-1   -4.001820041890710E-1
 7.839414319000000E9     5.531679930949805E-1   -1.247074373167318E-1    2.704505265919861E-3    3.625726380829223E-3    2.677061678525253E-3    3.588689624583368E-3    3.615855136810404E-1   -4.016963730703656E-1
 7.839446716500000E9     5.526697467994471E-1   -1.268335354791899E-1    2.743494940034122E-3    3.596234043680624E-3    2.716252675813330E-3    3.580186501032837E-3    3.600606168301812E-1   -4.031268457508194E-1
 7.839479114000000E9     5.521991420560338E-1   -1.290305197303483E-1    2.745700113735227E-3    3.619040242152022E-3    2.687714215332560E-3    3.565452357078367E-3    3.582244656148881E-1   -4.048321090358326E-1
 7.839511511500000E9     5.516990629142087E-1   -1.311822114833875E-1    2.792426393110262E-3    3.636413345403496E-3    2.752252687398882E-3    3.579948076750489E-3    3.566116685538405E-1   -4.063137107375659E-1
 7.839543909000000E9     5.511003448357777E-1   -1.332967945944862E-1    2.808600878848276E-3    3.617801604418943E-3    2.744711584669855E-3    3.555047800660662E-3    3.547685580021481E-1   -4.078137285378590E-1
 7.839576306500000E9     5.506873130275972E-1   -1.352966218591415E-1    2.825837518613105E-3    3.616558645061506E-3    2.831325825435121E-3    3.587565455011094E-3    3.530869114335238E-1   -4.092455681097271E-1
 7.839608704000000E9     5.500511758127574E-1   -1.373555942442035E-1    2.853316426114399E-3    3.584089892843526E-3    2.794168571618479E-3    3.554871402532027E-3    3.515671229728795E-1   -4.108590878520155E-1
 7.839641101500000E9     5.496522840282811E-1   -1.397036724130236E-1    2.921663630961896E-3    3.630851605574214E-3    2.849349565898095E-3    3.588692891495320E-3    3.496421467213343E-1   -4.123780544746427E-1
 7.839673499000000E9     5.490820603762122E-1   -1.417263684699770E-1    2.903625477936515E-3    3.606352641439835E-3    2.900311273836583E-3    3.553140578348777E-3    3.480284902152563E-1   -4.137598652266877E-1
 7.839705896500000E9     5.484890673661550E-1   -1.438819302917497E-1    2.965619489145796E-3    3.612662372034906E-3    2.927004564828805E-3    3.555814848697153E-3    3.462403151331153E-1   -4.151772536000690E-1
 7.839738294000000E9     5.480851206952704E-1   -1.459378835131951E-1    2.961625337651510E-3    3.592328836569647E-3    2.944252985612324E-3    3.554570416831917E-3    3.444351600392693E-1   -4.166885683707846E-1
 7.839770691500000E9     5.473389310885980E-1   -1.480297295924578E-1    2.993399447949315E-3    3.606058584899083E-3    2.954966795969382E-3    3.589926501559585E-3    3.428329158429943E-1   -4.181814394971752E-1
 7.839803089000000E9     5.468005055573685E-1   -1.501740207684418E-1    2.993302395447903E-3    3.570255084460883E-3    3.002419962646721E-3    3.584456662847558E-3    3.410721829249596E-1   -4.196600947478674E-1
 7.839835486500000E9     5.461888684129376E-1   -1.521685150340207E-1    3.035325500858065E-3    3.595357009476468E-3    2.989834235992030E-3    3.563884952770766E-3    3.392539555524919E-1   -4.208685201223694E-1
 7.839867884000000E9     5.456023792955067E-1   -1.542255349403105E-1    3.052076031157485E-3    3.591668746297105E-3    3.014835827399498E-3    3.539598958598126E-3    3.374613265442622E-1   -4.225479273710238E-1
 7.839900281500000E9     5.449774071919500E-1   -1.563495150822178E-1    3.089632875732689E-3    3.587864167231162E-3    3.038351975677972E-3    3.553358767684774E-3    3.355959970164533E-1   -4.237447196857882E-1
 7.839932679000000E9     5.443449088896654E-1   -1.584958020458423E-1    3.139032028118547E-3    3.583027210348214E-3    3.055425121821611E-3    3.525278971055897E-3    3.340381218617104E-1   -4.253585771372287E-1
 7.839965076500000E9     5.437559233862034E-1   -1.606620623933460E-1    3.149664156849333E-3    3.582413060743458E-3    3.133160525814950E-3    3.576266488174878E-3    3.319996608782981E-1   -4.268020394704299E-1
 7.839997474000000E9     5.431264423664316E-1   -1.626566815217084E-1    3.196355891052209E-3    3.559665561843034E-3    3.104623608739400E-3    3.555499531224403E-3    3.302571479155250E-1   -4.281252034932904E-1
 7.840029871500000E9     5.425799845872245E-1   -1.647946437838346E-1    3.227210058153803E-3    3.571903443158666E-3    3.203571942167380E-3    3.566301224130694E-3    3.285989644914505E-1   -4.294272446441537E-1
 7.840062269000000E9     5.420042993354273E-1   -1.668089543252672E-1    3.253018123216796E-3    3.564314723149861E-3    3.215721524428632E-3    3.530970284020477E-3    3.267333105539473E-1   -4.310264322497704E-1
 7.840094666500000E9     5.412046725341104E-1   -1.689755373649185E-1    3.266250840210802E-3    3.549410655326799E-3    3.231400191668011E-3    3.558845231889132E-3    3.249469112242933E-1   -4.323174122853526E-1
 7.840127064000000E9     5.406198969214828E-1   -1.710415126347659E-1    3.322392840748512E-3    3.565412047862415E-3    3.234753884951538E-3    3.534091969652689E-3    3.231755391321966E-1   -4.337950617311324E-1
 7.840159461500000E9     5.398832466349617E-1   -1.730484298019506E-1    3.324481429538016E-3    3.568090103741896E-3    3.279251039607770E-3    3.520459871491959E-3    3.213895106447844E-1   -4.350527237642247E-1
 7.840191859000000E9     5.391649921605182E-1   -1.753033483786791E-1    3.372425480411718E-3    3.560785625445301E-3    3.308795407352924E-3    3.519466926105838E-3    3.194713702284800E-1   -4.364258869311881E-1
